freq (GHz),S11_real,S11_imag,S21_real,S21_imag,S12_real,S12_imag,S22_real,S22_imag
100000000.0,0.000220738225914,4.23060790063e-05,0.999778239939,-6.53795080945e-05,0.999778239939,-6.53795080946e-05,0.000220738225915,4.23060790063e-05
200000000.0,0.000222203362084,8.46120067574e-05,0.999776752437,-0.000130759126503,0.999776752437,-0.000130759126503,0.000222203362084,8.46120067574e-05
300000000.0,0.000223280651422,0.000126917998856,0.999775652247,-0.000196139203629,0.999775652247,-0.000196139203629,0.000223280651422,0.000126917998856
400000000.0,0.000224162723573,0.000169224168501,0.999774746743,-0.000261519959258,0.999774746743,-0.000261519959258,0.000224162723573,0.000169224168501
500000000.0,0.000224923856513,0.000211530604652,0.999773961643,-0.000326901567688,0.999773961643,-0.000326901567688,0.000224923856513,0.000211530604652
600000000.0,0.000225601978156,0.000253837381183,0.999773259021,-0.000392284181806,0.999773259021,-0.000392284181806,0.000225601978156,0.000253837381182
700000000.0,0.000226219519907,0.000296144564871,0.999772616446,-0.000457667938721,0.999772616446,-0.000457667938721,0.000226219519907,0.000296144564871
800000000.0,0.000226791032151,0.000338452217556,0.999772019367,-0.000523052964682,0.999772019367,-0.000523052964682,0.000226791032151,0.000338452217556
900000000.0,0.000227326575394,0.000380760397961,0.999771457723,-0.00058843937745,0.999771457723,-0.00058843937745,0.000227326575394,0.000380760397961
1000000000.0,0.000227833441622,0.00042306916174,0.999770924222,-0.000653827288966,0.999770924222,-0.000653827288966,0.000227833441622,0.00042306916174
1100000000.0,0.000228317109546,0.000465378563016,0.999770413386,-0.000719216805688,0.999770413386,-0.000719216805688,0.000228317109546,0.000465378563015
1200000000.0,0.00022878181547,0.000507688654728,0.999769920977,-0.000784608029587,0.999769920977,-0.000784608029587,0.00022878181547,0.000507688654728
1300000000.0,0.00022923091222,0.000549999488989,0.999769443643,-0.000850001058806,0.999769443643,-0.000850001058806,0.00022923091222,0.000549999488989
1400000000.0,0.00022966710463,0.000592311116503,0.999768978679,-0.000915395989015,0.999768978679,-0.000915395989015,0.000229667104629,0.000592311116503
1500000000.0,0.00023009261078,0.000634623588005,0.999768523866,-0.000980792912584,0.999768523866,-0.000980792912584,0.00023009261078,0.000634623588005
1600000000.0,0.00023050927514,0.000676936953495,0.99976807736,-0.00104619191984,0.99976807736,-0.00104619191984,0.00023050927514,0.000676936953495
1700000000.0,0.000230918649574,0.000719251263224,0.99976763761,-0.00111159309848,0.99976763761,-0.00111159309848,0.000230918649574,0.000719251263224
1800000000.0,0.000231322054064,0.000761566566503,0.999767203294,-0.00117699653509,0.999767203294,-0.00117699653509,0.000231322054064,0.000761566566503
1900000000.0,0.000231720621218,0.000803882912791,0.999766773281,-0.00124240231437,0.999766773281,-0.00124240231437,0.000231720621218,0.000803882912791
2000000000.0,0.000232115330992,0.00084620035229,0.999766346589,-0.0013078105187,0.999766346589,-0.0013078105187,0.000232115330992,0.00084620035229
2100000000.0,0.00023250703774,0.000888518934026,0.999765922365,-0.00137322123033,0.999765922365,-0.00137322123033,0.00023250703774,0.000888518934026
2200000000.0,0.000232896490819,0.000930838707918,0.999765499859,-0.00143863452947,0.999765499859,-0.00143863452947,0.00023289649082,0.000930838707918
2300000000.0,0.000233284351664,0.000973159723567,0.999765078409,-0.00150405049562,0.999765078409,-0.00150405049562,0.000233284351664,0.000973159723567
2400000000.0,0.000233671207069,0.00101548203098,0.999764657429,-0.001569469207,0.999764657429,-0.001569469207,0.000233671207069,0.00101548203098
2500000000.0,0.000234057580265,0.00105780568025,0.999764236395,-0.00163489074098,0.999764236395,-0.00163489074098,0.000234057580265,0.00105780568025
2600000000.0,0.00023444393994,0.00110013072157,0.999763814839,-0.00170031517417,0.999763814839,-0.00170031517417,0.00023444393994,0.00110013072157
2700000000.0,0.000234830707513,0.00114245720544,0.999763392338,-0.00176574258232,0.999763392338,-0.00176574258232,0.000234830707513,0.00114245720544
2800000000.0,0.000235218263438,0.00118478518253,0.999762968512,-0.00183117304049,0.999762968512,-0.00183117304049,0.000235218263438,0.00118478518253
2900000000.0,0.000235606952357,0.00122711470392,0.999762543016,-0.00189660662293,0.999762543016,-0.00189660662293,0.000235606952357,0.00122711470392
3000000000.0,0.000235997087534,0.00126944582069,0.999762115537,-0.0019620434035,0.999762115537,-0.0019620434035,0.000235997087534,0.00126944582069
3100000000.0,0.000236388954516,0.00131177858454,0.99976168579,-0.0020274834552,0.99976168579,-0.0020274834552,0.000236388954516,0.00131177858454
3200000000.0,0.000236782814358,0.00135411304698,0.999761253512,-0.00209292685093,0.999761253512,-0.00209292685093,0.000236782814358,0.00135411304698
3300000000.0,0.000237178906306,0.0013964492603,0.999760818465,-0.00215837366261,0.999760818465,-0.00215837366261,0.000237178906306,0.0013964492603
3400000000.0,0.000237577450228,0.00143878727676,0.999760380428,-0.00222382396206,0.999760380428,-0.00222382396206,0.000237577450228,0.00143878727676
3500000000.0,0.000237978648579,0.00148112714909,0.9997599392,-0.0022892778205,0.9997599392,-0.0022892778205,0.000237978648579,0.00148112714909
3600000000.0,0.000238382688235,0.00152346893034,0.999759494592,-0.00235473530871,0.999759494592,-0.00235473530871,0.000238382688234,0.00152346893034
3700000000.0,0.000238789742046,0.00156581267376,0.999759046432,-0.00242019649731,0.999759046432,-0.00242019649731,0.000238789742046,0.00156581267376
3800000000.0,0.000239199970167,0.00160815843298,0.99975859456,-0.00248566145642,0.99975859456,-0.00248566145642,0.000239199970167,0.00160815843298
3900000000.0,0.000239613521272,0.00165050626196,0.999758138827,-0.00255113025589,0.999758138827,-0.00255113025589,0.000239613521273,0.00165050626196
4000000000.0,0.000240030533621,0.00169285621499,0.999757679093,-0.00261660296528,0.999757679093,-0.00261660296528,0.000240030533621,0.00169285621499
4100000000.0,0.000240451136012,0.00173520834673,0.999757215232,-0.00268207965379,0.999757215232,-0.00268207965379,0.000240451136012,0.00173520834673
4200000000.0,0.000240875448594,0.00177756271203,0.999756747121,-0.00274756039054,0.999756747121,-0.00274756039054,0.000240875448594,0.00177756271203
4300000000.0,0.000241303583626,0.00181991936627,0.999756274649,-0.0028130452442,0.999756274649,-0.0028130452442,0.000241303583625,0.00181991936627
4400000000.0,0.00024173564615,0.00186227836506,0.99975579771,-0.00287853428333,0.99975579771,-0.00287853428333,0.000241735646149,0.00186227836506
4500000000.0,0.000242171734557,0.00190463976431,0.999755316206,-0.00294402757631,0.999755316206,-0.00294402757631,0.000242171734557,0.00190463976431
4600000000.0,0.000242611941166,0.00194700362033,0.999754830045,-0.00300952519127,0.999754830045,-0.00300952519127,0.000242611941166,0.00194700362033
4700000000.0,0.000243056352679,0.00198936998979,0.999754339139,-0.00307502719613,0.999754339139,-0.00307502719613,0.000243056352679,0.00198936998979
4800000000.0,0.00024350505063,0.0020317389296,0.999753843407,-0.00314053365874,0.999753843407,-0.00314053365874,0.00024350505063,0.0020317389296
4900000000.0,0.00024395811177,0.00207411049714,0.999753342772,-0.00320604464667,0.999753342772,-0.00320604464667,0.00024395811177,0.00207411049714
5000000000.0,0.000244415608448,0.00211648475003,0.999752837162,-0.00327156022746,0.999752837162,-0.00327156022746,0.000244415608448,0.00211648475003
5100000000.0,0.000244877608903,0.00215886174623,0.999752326507,-0.00333708046846,0.999752326507,-0.00333708046846,0.000244877608903,0.00215886174623
5200000000.0,0.000245344177583,0.00220124154407,0.999751810744,-0.00340260543692,0.999751810744,-0.00340260543692,0.000245344177583,0.00220124154407
5300000000.0,0.000245815375413,0.00224362420219,0.999751289811,-0.00346813519996,0.999751289811,-0.00346813519996,0.000245815375413,0.00224362420219
5400000000.0,0.000246291260035,0.00228600977968,0.999750763651,-0.00353366982452,0.999750763651,-0.00353366982452,0.000246291260035,0.00228600977968
5500000000.0,0.000246771886034,0.00232839833576,0.999750232209,-0.0035992093776,0.999750232209,-0.0035992093776,0.000246771886034,0.00232839833576
5600000000.0,0.000247257305156,0.00237078993012,0.999749695433,-0.00366475392602,0.999749695433,-0.00366475392602,0.000247257305156,0.00237078993012
5700000000.0,0.000247747566479,0.00241318462275,0.999749153273,-0.00373030353653,0.999749153273,-0.00373030353653,0.000247747566479,0.00241318462275
5800000000.0,0.000248242716613,0.00245558247403,0.999748605683,-0.00379585827575,0.999748605683,-0.00379585827575,0.000248242716613,0.00245558247403
5900000000.0,0.00024874279983,0.00249798354463,0.999748052619,-0.00386141821025,0.999748052619,-0.00386141821025,0.00024874279983,0.00249798354463
6000000000.0,0.000249247858233,0.00254038789543,0.999747494038,-0.00392698340671,0.999747494038,-0.00392698340671,0.000249247858233,0.00254038789543
6100000000.0,0.000249757931896,0.00258279558787,0.9997469299,-0.00399255393148,0.9997469299,-0.00399255393148,0.000249757931896,0.00258279558787
6200000000.0,0.000250273058972,0.00262520668354,0.999746360166,-0.00405812985104,0.999746360166,-0.00405812985104,0.000250273058972,0.00262520668354
6300000000.0,0.000250793275826,0.00266762124438,0.999745784801,-0.00412371123183,0.999745784801,-0.00412371123183,0.000250793275826,0.00266762124438
6400000000.0,0.000251318617135,0.00271003933276,0.999745203769,-0.00418929814012,0.999745203769,-0.00418929814012,0.000251318617136,0.00271003933276
6500000000.0,0.000251849115997,0.00275246101126,0.999744617037,-0.00425489064226,0.999744617037,-0.00425489064226,0.000251849115997,0.00275246101126
6600000000.0,0.000252384804011,0.00279488634281,0.999744024574,-0.00432048880455,0.999744024574,-0.00432048880455,0.000252384804011,0.00279488634281
6700000000.0,0.000252925711371,0.00283731539073,0.999743426348,-0.00438609269321,0.999743426348,-0.00438609269321,0.000252925711371,0.00283731539073
6800000000.0,0.000253471866961,0.00287974821851,0.999742822332,-0.00445170237454,0.999742822332,-0.00445170237454,0.000253471866961,0.00287974821851
6900000000.0,0.000254023298399,0.00292218489021,0.999742212497,-0.00451731791463,0.999742212497,-0.00451731791463,0.000254023298399,0.00292218489021
7000000000.0,0.000254580032143,0.00296462546984,0.999741596816,-0.00458293937987,0.999741596816,-0.00458293937987,0.000254580032143,0.00296462546984
7100000000.0,0.000255142093522,0.00300707002207,0.999740975264,-0.00464856683634,0.999740975264,-0.00464856683634,0.000255142093522,0.00300707002207
7200000000.0,0.000255709506828,0.00304951861167,0.999740347817,-0.0047142003503,0.999740347817,-0.0047142003503,0.000255709506828,0.00304951861167
7300000000.0,0.000256282295348,0.0030919713039,0.999739714451,-0.00477983998784,0.999739714451,-0.00477983998784,0.000256282295348,0.0030919713039
7400000000.0,0.00025686048144,0.00313442816409,0.999739075144,-0.00484548581526,0.999739075144,-0.00484548581526,0.00025686048144,0.00313442816409
7500000000.0,0.000257444086572,0.00317688925807,0.999738429875,-0.00491113789873,0.999738429875,-0.00491113789873,0.000257444086572,0.00317688925807
7600000000.0,0.000258033131355,0.00321935465195,0.999737778621,-0.0049767963044,0.999737778621,-0.0049767963044,0.000258033131355,0.00321935465195
7700000000.0,0.000258627635625,0.00326182441204,0.999737121364,-0.00504246109857,0.999737121364,-0.00504246109857,0.000258627635625,0.00326182441204
7800000000.0,0.000259227618442,0.00330429860513,0.999736458084,-0.00510813234735,0.999736458084,-0.00510813234735,0.000259227618443,0.00330429860513
7900000000.0,0.00025983309816,0.00334677729815,0.999735788762,-0.00517381011705,0.999735788762,-0.00517381011705,0.000259833098159,0.00334677729815
8000000000.0,0.000260444092447,0.00338926055837,0.999735113382,-0.00523949447392,0.999735113382,-0.00523949447392,0.000260444092447,0.00338926055837
8100000000.0,0.000261060618335,0.00343174845339,0.999734431925,-0.00530518548426,0.999734431925,-0.00530518548426,0.000261060618335,0.00343174845339
8200000000.0,0.000261682692231,0.00347424105114,0.999733744375,-0.00537088321429,0.999733744375,-0.00537088321429,0.00026168269223,0.00347424105114
8300000000.0,0.000262310329964,0.00351673841971,0.999733050717,-0.00543658773044,0.999733050717,-0.00543658773044,0.000262310329964,0.00351673841971
8400000000.0,0.000262943546818,0.00355924062768,0.999732350934,-0.00550229909896,0.999732350934,-0.00550229909896,0.000262943546817,0.00355924062768
8500000000.0,0.000263582357539,0.00360174774376,0.999731645012,-0.00556801738626,0.999731645012,-0.00556801738626,0.000263582357539,0.00360174774376
8600000000.0,0.000264226776381,0.00364425983704,0.999730932937,-0.00563374265872,0.999730932937,-0.00563374265872,0.00026422677638,0.00364425983704
8700000000.0,0.000264876817119,0.00368677697685,0.999730214694,-0.00569947498282,0.999730214694,-0.00569947498282,0.000264876817119,0.00368677697685
8800000000.0,0.000265532493078,0.00372929923279,0.99972949027,-0.00576521442504,0.99972949027,-0.00576521442504,0.000265532493078,0.00372929923279
8900000000.0,0.000266193817159,0.00377182667483,0.999728759652,-0.00583096105185,0.999728759652,-0.00583096105185,0.000266193817159,0.00377182667483
9000000000.0,0.000266860801839,0.00381435937322,0.999728022828,-0.00589671492976,0.999728022828,-0.00589671492976,0.000266860801839,0.00381435937322
9100000000.0,0.000267533459218,0.00385689739841,0.999727279785,-0.00596247612538,0.999727279785,-0.00596247612538,0.000267533459218,0.00385689739841
9200000000.0,0.000268211801016,0.00389944082115,0.999726530511,-0.00602824470536,0.999726530511,-0.00602824470536,0.000268211801016,0.00389944082115
9300000000.0,0.000268895838611,0.00394198971251,0.999725774995,-0.00609402073634,0.999725774995,-0.00609402073634,0.000268895838611,0.00394198971251
9400000000.0,0.000269585583031,0.00398454414387,0.999725013226,-0.00615980428499,0.999725013226,-0.00615980428499,0.000269585583031,0.00398454414387
9500000000.0,0.000270281044994,0.0040271041868,0.999724245193,-0.0062255954181,0.999724245193,-0.0062255954181,0.000270281044994,0.0040271041868
9600000000.0,0.000270982234908,0.00406966991321,0.999723470885,-0.00629139420244,0.999723470885,-0.00629139420244,0.000270982234908,0.00406966991321
9700000000.0,0.00027168916289,0.0041122413953,0.999722690293,-0.00635720070482,0.999722690293,-0.00635720070482,0.00027168916289,0.0041122413953
9800000000.0,0.000272401838783,0.00415481870542,0.999721903405,-0.00642301499219,0.999721903405,-0.00642301499219,0.000272401838783,0.00415481870542
9900000000.0,0.00027312027216,0.00419740191637,0.999721110213,-0.00648883713144,0.999721110213,-0.00648883713144,0.00027312027216,0.00419740191637
10000000000.0,0.000273844472346,0.00423999110111,0.999720310706,-0.00655466718955,0.999720310706,-0.00655466718955,0.000273844472345,0.00423999110111
