freq (GHz),S11_real,S11_imag,S21_real,S21_imag,S12_real,S12_imag,S22_real,S22_imag
100000000.0,3.63882452978e-05,-0.000355779273881,0.999961314044,-0.000556274852707,0.999961314044,-0.000556274852707,3.63882452978e-05,-0.000355779273881
200000000.0,3.56070547107e-05,-0.000711577277098,0.999959965534,-0.00111257442421,0.999959965534,-0.00111257442421,3.56070547107e-05,-0.000711577277098
300000000.0,3.43644638696e-05,-0.00106740353438,0.999958246223,-0.00166891151425,0.999958246223,-0.00166891151425,3.43644638694e-05,-0.00106740353438
400000000.0,3.26927579881e-05,-0.00142326514537,0.999956123557,-0.00222529572974,0.999956123557,-0.00222529572974,3.26927579883e-05,-0.00142326514537
500000000.0,3.0604231849e-05,-0.00177916795521,0.999953584927,-0.0027817350551,0.999953584927,-0.0027817350551,3.0604231849e-05,-0.00177916795521
600000000.0,2.81050437643e-05,-0.00213511697075,0.999950623818,-0.00333823640123,0.999950623818,-0.00333823640123,2.81050437643e-05,-0.00213511697075
700000000.0,2.51987335433e-05,-0.00249111657378,0.999947236303,-0.00389480588509,0.999947236303,-0.00389480588509,2.51987335431e-05,-0.00249111657378
800000000.0,2.1887505931e-05,-0.00284717065006,0.999943419754,-0.00445144899822,0.999943419754,-0.00445144899822,2.18875059308e-05,-0.00284717065006
900000000.0,1.81728022313e-05,-0.00320328267833,0.999939172282,-0.00500817072134,0.999939172282,-0.00500817072134,1.81728022315e-05,-0.00320328267833
1000000000.0,1.40555900436e-05,-0.00355945578937,0.999934492447,-0.00556497560142,0.999934492447,-0.00556497560142,1.40555900436e-05,-0.00355945578937
1100000000.0,9.53652464997e-06,-0.00391569281345,0.999929379095,-0.00612186781227,0.999929379095,-0.00612186781227,9.53652464997e-06,-0.00391569281345
1200000000.0,4.61604534729e-06,-0.00427199631462,0.999923831272,-0.00667885119885,0.999923831272,-0.00667885119885,4.61604534729e-06,-0.00427199631462
1300000000.0,-7.05563723891e-07,-0.00462836861957,0.999917848158,-0.00723592931397,0.999917848158,-0.00723592931397,-7.05563723669e-07,-0.00462836861957
1400000000.0,-6.42813348073e-06,-0.00498481184037,0.999911429031,-0.00779310544723,0.999911429031,-0.00779310544723,-6.42813348051e-06,-0.00498481184037
1500000000.0,-1.25515823316e-05,-0.00534132789359,0.999904573242,-0.00835038264934,0.999904573242,-0.00835038264934,-1.25515823316e-05,-0.00534132789359
1600000000.0,-1.90758967716e-05,-0.00569791851635,0.999897280195,-0.00890776375241,0.999897280195,-0.00890776375241,-1.90758967715e-05,-0.00569791851635
1700000000.0,-2.60011172265e-05,-0.00605458528018,0.999889549335,-0.00946525138731,0.999889549335,-0.00946525138731,-2.60011172262e-05,-0.00605458528018
1800000000.0,-3.33273275213e-05,-0.00641132960328,0.99988138014,-0.0100228479991,0.99988138014,-0.0100228479991,-3.33273275213e-05,-0.00641132960328
1900000000.0,-4.10546469012e-05,-0.00676815276021,0.999872772111,-0.0105805558592,0.999872772111,-0.0105805558592,-4.10546469013e-05,-0.00676815276021
2000000000.0,-4.91832238242e-05,-0.00712505589186,0.999863724772,-0.0111383770778,0.999863724772,-0.0111383770778,-4.91832238242e-05,-0.00712505589186
2100000000.0,-5.77132310879e-05,-0.00748204001355,0.999854237659,-0.0116963136137,0.999854237659,-0.0116963136137,-5.77132310879e-05,-0.00748204001355
2200000000.0,-6.66448619236e-05,-0.00783910602209,0.999844310323,-0.0122543672835,0.999844310323,-0.0122543672835,-6.66448619238e-05,-0.00783910602209
2300000000.0,-7.59783268333e-05,-0.00819625470296,0.999833942324,-0.0128125397701,0.999833942324,-0.0128125397701,-7.59783268338e-05,-0.00819625470296
2400000000.0,-8.57138509884e-05,-0.0085534867357,0.999823133233,-0.0133708326295,0.999823133233,-0.0133708326295,-8.57138509883e-05,-0.0085534867357
2500000000.0,-9.58516720715e-05,-0.0089108027005,0.999811882627,-0.0139292472985,0.999811882627,-0.0139292472985,-9.58516720716e-05,-0.0089108027005
2600000000.0,-0.000106392038446,-0.00926820308183,0.999800190088,-0.0144877850999,0.999800190088,-0.0144877850999,-0.000106392038446,-0.00926820308183
2700000000.0,-0.000117335207636,-0.00962568827455,0.999788055205,-0.0150464472492,0.999788055205,-0.0150464472492,-0.000117335207636,-0.00962568827455
2800000000.0,-0.000128681444993,-0.00998325858734,0.999775477571,-0.0156052348593,0.999775477571,-0.0156052348593,-0.000128681444993,-0.00998325858734
2900000000.0,-0.00014043102255,-0.010340914247,0.999762456783,-0.0161641489454,0.999762456783,-0.0161641489454,-0.00014043102255,-0.010340914247
3000000000.0,-0.000152584218038,-0.010698655402,0.999748992442,-0.0167231904293,0.999748992442,-0.0167231904293,-0.000152584218038,-0.010698655402
3100000000.0,-0.000165141314011,-0.0110564821264,0.999735084152,-0.0172823601444,0.999735084152,-0.0172823601444,-0.000165141314011,-0.0110564821264
3200000000.0,-0.000178102597074,-0.0114143944227,0.999720731521,-0.017841658839,0.999720731521,-0.017841658839,-0.000178102597074,-0.0114143944227
3300000000.0,-0.000191468357198,-0.011772392225,0.999705934158,-0.0184010871797,0.999705934158,-0.0184010871797,-0.000191468357199,-0.011772392225
3400000000.0,-0.000205238887111,-0.0121304754019,0.999690691677,-0.0189606457557,0.999690691677,-0.0189606457557,-0.000205238887111,-0.0121304754019
3500000000.0,-0.00021941448174,-0.0124886437593,0.999675003694,-0.0195203350813,0.999675003694,-0.0195203350813,-0.00021941448174,-0.0124886437593
3600000000.0,-0.000233995437731,-0.0128468970429,0.999658869826,-0.0200801555995,0.999658869826,-0.0200801555995,-0.000233995437731,-0.0128468970429
3700000000.0,-0.000248982052972,-0.0132052349403,0.999642289695,-0.0206401076843,0.999642289695,-0.0206401076843,-0.000248982052972,-0.0132052349403
3800000000.0,-0.00026437462621,-0.0135636570841,0.999625262924,-0.0212001916441,0.999625262924,-0.0212001916441,-0.00026437462621,-0.0135636570841
3900000000.0,-0.000280173456652,-0.0139221630531,0.99960778914,-0.0217604077238,0.99960778914,-0.0217604077238,-0.000280173456652,-0.0139221630531
4000000000.0,-0.000296378843635,-0.0142807523752,0.999589867971,-0.0223207561074,0.999589867971,-0.0223207561074,-0.000296378843635,-0.0142807523752
4100000000.0,-0.000312991086301,-0.0146394245288,0.999571499048,-0.0228812369203,0.999571499048,-0.0228812369203,-0.000312991086301,-0.0146394245288
4200000000.0,-0.0003300104833,-0.0149981789449,0.999552682006,-0.0234418502317,0.999552682006,-0.0234418502317,-0.0003300104833,-0.0149981789449
4300000000.0,-0.000347437332526,-0.015357015009,0.99953341648,-0.0240025960563,0.99953341648,-0.0240025960563,-0.000347437332527,-0.015357015009
4400000000.0,-0.000365271930866,-0.0157159320627,0.999513702112,-0.024563474357,0.999513702112,-0.024563474357,-0.000365271930866,-0.0157159320627
4500000000.0,-0.000383514573946,-0.016074929405,0.999493538542,-0.0251244850458,0.999493538542,-0.0251244850458,-0.000383514573946,-0.016074929405
4600000000.0,-0.000402165555937,-0.0164340062946,0.999472925416,-0.0256856279868,0.999472925416,-0.0256856279868,-0.000402165555937,-0.0164340062946
4700000000.0,-0.00042122516933,-0.0167931619507,0.999451862382,-0.0262469029971,0.999451862382,-0.0262469029971,-0.00042122516933,-0.0167931619507
4800000000.0,-0.000440693704753,-0.0171523955547,0.999430349091,-0.0268083098487,0.999430349091,-0.0268083098487,-0.000440693704753,-0.0171523955547
4900000000.0,-0.000460571450792,-0.0175117062517,0.999408385196,-0.0273698482704,0.999408385196,-0.0273698482704,-0.000460571450791,-0.0175117062517
5000000000.0,-0.000480858693817,-0.0178710931517,0.999385970356,-0.0279315179489,0.999385970356,-0.0279315179489,-0.000480858693817,-0.0178710931517
5100000000.0,-0.000501555717827,-0.0182305553308,0.99936310423,-0.0284933185306,0.99936310423,-0.0284933185306,-0.000501555717827,-0.0182305553308
5200000000.0,-0.000522662804295,-0.0185900918323,0.999339786482,-0.029055249623,0.999339786482,-0.029055249623,-0.000522662804295,-0.0185900918323
5300000000.0,-0.000544180232036,-0.0189497016684,0.999316016778,-0.0296173107957,0.999316016778,-0.0296173107957,-0.000544180232037,-0.0189497016684
5400000000.0,-0.000566108277064,-0.0193093838207,0.999291794789,-0.0301795015823,0.999291794789,-0.0301795015823,-0.000566108277064,-0.0193093838207
5500000000.0,-0.000588447212472,-0.0196691372417,0.999267120189,-0.0307418214811,0.999267120189,-0.0307418214811,-0.000588447212472,-0.0196691372417
5600000000.0,-0.000611197308313,-0.0200289608555,0.999241992654,-0.0313042699568,0.999241992654,-0.0313042699568,-0.000611197308313,-0.0200289608555
5700000000.0,-0.000634358831487,-0.0203888535592,0.999216411865,-0.0318668464413,0.999216411865,-0.0318668464413,-0.000634358831487,-0.0203888535592
5800000000.0,-0.000657932045634,-0.0207488142235,0.999190377506,-0.0324295503348,0.999190377506,-0.0324295503348,-0.000657932045634,-0.0207488142235
5900000000.0,-0.000681917211035,-0.021108841694,0.999163889265,-0.0329923810074,0.999163889265,-0.0329923810074,-0.000681917211035,-0.021108841694
6000000000.0,-0.000706314584516,-0.0214689347917,0.999136946834,-0.0335553377995,0.999136946834,-0.0335553377995,-0.000706314584516,-0.0214689347917
6100000000.0,-0.000731124419358,-0.0218290923141,0.999109549907,-0.0341184200231,0.999109549907,-0.0341184200231,-0.000731124419358,-0.0218290923141
6200000000.0,-0.00075634696521,-0.022189313036,0.999081698184,-0.034681626963,0.999081698184,-0.034681626963,-0.00075634696521,-0.022189313036
6300000000.0,-0.000781982468017,-0.0225495957104,0.999053391367,-0.0352449578772,0.999053391367,-0.0352449578772,-0.000781982468017,-0.0225495957104
6400000000.0,-0.000808031169926,-0.0229099390691,0.999024629163,-0.0358084119983,0.999024629163,-0.0358084119983,-0.000808031169926,-0.0229099390691
6500000000.0,-0.000834493309231,-0.0232703418236,0.998995411283,-0.0363719885342,0.998995411283,-0.0363719885342,-0.000834493309231,-0.0232703418236
6600000000.0,-0.000861369120294,-0.0236308026657,0.998965737442,-0.0369356866688,0.998965737442,-0.0369356866688,-0.000861369120294,-0.0236308026657
6700000000.0,-0.000888658833483,-0.0239913202684,0.998935607358,-0.0374995055629,0.998935607358,-0.0374995055629,-0.000888658833483,-0.0239913202684
6800000000.0,-0.00091636267511,-0.0243518932864,0.998905020754,-0.0380634443554,0.998905020754,-0.0380634443554,-0.00091636267511,-0.0243518932864
6900000000.0,-0.000944480867367,-0.0247125203567,0.998873977356,-0.0386275021632,0.998873977356,-0.0386275021632,-0.000944480867367,-0.0247125203567
7000000000.0,-0.000973013628281,-0.0250732000996,0.998842476897,-0.0391916780828,0.998842476897,-0.0391916780828,-0.000973013628281,-0.0250732000996
7100000000.0,-0.00100196117166,-0.0254339311189,0.99881051911,-0.0397559711904,0.99881051911,-0.0397559711904,-0.00100196117165,-0.0254339311189
7200000000.0,-0.00103132370701,-0.0257947120028,0.998778103736,-0.0403203805431,0.998778103736,-0.0403203805431,-0.00103132370701,-0.0257947120028
7300000000.0,-0.00106110143956,-0.0261555413243,0.998745230517,-0.0408849051791,0.998745230517,-0.0408849051791,-0.00106110143956,-0.0261555413243
7400000000.0,-0.00109129457015,-0.0265164176418,0.998711899202,-0.0414495441187,0.998711899202,-0.0414495441187,-0.00109129457015,-0.0265164176418
7500000000.0,-0.00112190329519,-0.0268773394995,0.998678109543,-0.0420142963645,0.998678109543,-0.0420142963645,-0.00112190329519,-0.0268773394995
7600000000.0,-0.0011529278067,-0.0272383054286,0.998643861296,-0.0425791609027,0.998643861296,-0.0425791609027,-0.0011529278067,-0.0272383054286
7700000000.0,-0.00118436829215,-0.0275993139466,0.998609154223,-0.0431441367029,0.998609154223,-0.0431441367029,-0.00118436829215,-0.0275993139466
7800000000.0,-0.00121622493453,-0.0279603635591,0.998573988088,-0.0437092227194,0.998573988088,-0.0437092227194,-0.00121622493453,-0.0279603635591
7900000000.0,-0.00124849791226,-0.0283214527592,0.998538362661,-0.044274417891,0.998538362661,-0.044274417891,-0.00124849791226,-0.0283214527592
8000000000.0,-0.00128118739918,-0.0286825800288,0.998502277715,-0.0448397211423,0.998502277715,-0.0448397211423,-0.00128118739918,-0.0286825800288
8100000000.0,-0.00131429356451,-0.0290437438384,0.998465733031,-0.0454051313835,0.998465733031,-0.0454051313835,-0.00131429356451,-0.0290437438384
8200000000.0,-0.00134781657282,-0.0294049426479,0.99842872839,-0.0459706475116,0.99842872839,-0.0459706475116,-0.00134781657282,-0.0294049426479
8300000000.0,-0.00138175658401,-0.0297661749069,0.99839126358,-0.0465362684103,0.99839126358,-0.0465362684103,-0.00138175658401,-0.0297661749069
8400000000.0,-0.0014161137533,-0.0301274390554,0.998353338393,-0.0471019929507,0.998353338393,-0.0471019929507,-0.0014161137533,-0.0301274390554
8500000000.0,-0.00145088823117,-0.0304887335235,0.998314952625,-0.0476678199918,0.998314952625,-0.0476678199918,-0.00145088823117,-0.0304887335235
8600000000.0,-0.00148608016336,-0.0308500567326,0.998276106078,-0.0482337483811,0.998276106078,-0.0482337483811,-0.00148608016336,-0.0308500567326
8700000000.0,-0.00152168969087,-0.0312114070951,0.998236798557,-0.0487997769545,0.998236798557,-0.0487997769545,-0.00152168969087,-0.0312114070951
8800000000.0,-0.00155771694989,-0.0315727830153,0.998197029872,-0.0493659045373,0.998197029872,-0.0493659045373,-0.00155771694989,-0.0315727830153
8900000000.0,-0.00159416207183,-0.0319341828894,0.998156799838,-0.0499321299442,0.998156799838,-0.0499321299442,-0.00159416207183,-0.0319341828894
9000000000.0,-0.00163102518328,-0.0322956051059,0.998116108275,-0.0504984519799,0.998116108275,-0.0504984519799,-0.00163102518328,-0.0322956051059
9100000000.0,-0.00166830640601,-0.032657048046,0.998074955005,-0.0510648694396,0.998074955005,-0.0510648694396,-0.00166830640601,-0.032657048046
9200000000.0,-0.00170600585693,-0.0330185100841,0.998033339858,-0.0516313811089,0.998033339858,-0.0516313811089,-0.00170600585693,-0.0330185100841
9300000000.0,-0.0017441236481,-0.0333799895876,0.997991262667,-0.0521979857646,0.997991262667,-0.0521979857646,-0.0017441236481,-0.0333799895876
9400000000.0,-0.00178265988672,-0.0337414849177,0.99794872327,-0.0527646821749,0.99794872327,-0.0527646821749,-0.00178265988672,-0.0337414849177
9500000000.0,-0.00182161467509,-0.0341029944295,0.997905721509,-0.0533314690997,0.997905721509,-0.0533314690997,-0.00182161467509,-0.0341029944295
9600000000.0,-0.00186098811065,-0.0344645164721,0.997862257232,-0.0538983452911,0.997862257232,-0.0538983452911,-0.00186098811065,-0.0344645164721
9700000000.0,-0.00190078028591,-0.0348260493894,0.997818330289,-0.0544653094934,0.997818330289,-0.0544653094934,-0.00190078028591,-0.0348260493894
9800000000.0,-0.00194099128851,-0.0351875915197,0.997773940537,-0.0550323604436,0.997773940537,-0.0550323604436,-0.00194099128851,-0.0351875915197
9900000000.0,-0.00198162120113,-0.0355491411965,0.997729087839,-0.055599496872,0.997729087839,-0.055599496872,-0.00198162120113,-0.0355491411965
10000000000.0,-0.00202267010159,-0.0359106967486,0.997683772058,-0.0561667175017,0.997683772058,-0.0561667175017,-0.00202267010159,-0.0359106967486
