freq (GHz),S11_real,S11_imag,S21_real,S21_imag,S12_real,S12_imag,S22_real,S22_imag
100000000.0,0.00155267011044,-0.00171944090988,0.998417417285,-0.0049840798095,0.998417417285,-0.0049840798095,0.00155267011044,-0.00171944090988
200000000.0,0.00153425574341,-0.0034387627143,0.998361958768,-0.00996791229602,0.998361958768,-0.00996791229602,0.00153425574341,-0.0034387627143
300000000.0,0.00149597197688,-0.00515777608809,0.998281413323,-0.0149513586757,0.998281413323,-0.0149513586757,0.00149597197688,-0.00515777608809
400000000.0,0.00143917573315,-0.00687630514419,0.998174431122,-0.0199342551914,0.998174431122,-0.0199342551914,0.00143917573315,-0.00687630514419
500000000.0,0.0013643929021,-0.00859417594821,0.998040496655,-0.024916430391,0.998040496655,-0.024916430391,0.0013643929021,-0.00859417594821
600000000.0,0.0012718958368,-0.0103112149978,0.997879351328,-0.0298977087088,0.997879351328,-0.0298977087088,0.0012718958368,-0.0103112149978
700000000.0,0.00116185005837,-0.012027248808,0.997690846826,-0.034877911953,0.997690846826,-0.034877911953,0.00116185005837,-0.012027248808
800000000.0,0.00103436776895,-0.0137421037848,0.997474891657,-0.0398568600923,0.997474891657,-0.0398568600923,0.00103436776895,-0.0137421037848
900000000.0,0.000889531667937,-0.0154556061972,0.997231427373,-0.0448343717353,0.997231427373,-0.0448343717353,0.000889531667937,-0.0154556061972
1000000000.0,0.000727407020184,-0.017167582188,0.996960416534,-0.04981026445,0.996960416534,-0.04981026445,0.000727407020185,-0.017167582188
1100000000.0,0.000548048363139,-0.0188778578012,0.996661836035,-0.0547843549942,0.996661836035,-0.0547843549942,0.000548048363139,-0.0188778578012
1200000000.0,0.000351503503048,-0.0205862590159,0.996335673125,-0.0597564594881,0.996335673125,-0.0597564594881,0.000351503503049,-0.0205862590159
1300000000.0,0.000137816029063,-0.0222926117831,0.995981922916,-0.0647263935518,0.995981922916,-0.0647263935518,0.000137816029063,-0.0222926117831
1400000000.0,-9.2973034317e-05,-0.0239967420634,0.995600586745,-0.0696939724165,0.995600586745,-0.0696939724165,-9.29730343168e-05,-0.0239967420634
1500000000.0,-0.000340824101351,-0.0256984758649,0.99519167106,-0.0746590110182,0.99519167106,-0.0746590110182,-0.000340824101351,-0.0256984758649
1600000000.0,-0.000605698234535,-0.0273976392798,0.994755186642,-0.0796213240785,0.994755186642,-0.0796213240785,-0.000605698234535,-0.0273976392798
1700000000.0,-0.000887556575298,-0.0290940585208,0.994291148038,-0.0845807261752,0.994291148038,-0.0845807261752,-0.000887556575298,-0.0290940585208
1800000000.0,-0.00118635992501,-0.0307875599568,0.993799573153,-0.0895370318053,0.993799573153,-0.0895370318053,-0.00118635992501,-0.0307875599568
1900000000.0,-0.00150206843087,-0.0324779701476,0.993280482938,-0.0944900554426,0.993280482938,-0.0944900554426,-0.00150206843087,-0.0324779701476
2000000000.0,-0.00183464134666,-0.034165115878,0.992733901153,-0.0994396115898,0.992733901153,-0.0994396115898,-0.00183464134666,-0.034165115878
2100000000.0,-0.00218403684794,-0.0358488241909,0.99215985418,-0.104385514827,0.99215985418,-0.104385514827,-0.00218403684794,-0.0358488241909
2200000000.0,-0.0025502118878,-0.0375289224204,0.991558370882,-0.109327579858,0.991558370882,-0.109327579858,-0.0025502118878,-0.0375289224204
2300000000.0,-0.00293312208299,-0.0392052382238,0.990929482485,-0.114265621551,0.990929482485,-0.114265621551,-0.00293312208299,-0.0392052382238
2400000000.0,-0.00333272162349,-0.0408775996131,0.99027322248,-0.119199454983,0.99027322248,-0.119199454983,-0.00333272162349,-0.0408775996131
2500000000.0,-0.00374896320014,-0.042545834986,0.989589626553,-0.124128895474,0.989589626553,-0.124128895474,-0.00374896320014,-0.042545834986
2600000000.0,-0.00418179794659,-0.0442097731569,0.988878732512,-0.129053758629,0.988878732512,-0.129053758629,-0.00418179794659,-0.0442097731569
2700000000.0,-0.00463117539253,-0.0458692433867,0.98814058024,-0.133973860368,0.98814058024,-0.133973860368,-0.00463117539253,-0.0458692433867
2800000000.0,-0.00509704342612,-0.0475240754128,0.987375211642,-0.138889016966,0.987375211642,-0.138889016966,-0.00509704342612,-0.0475240754128
2900000000.0,-0.00557934826378,-0.0491740994781,0.986582670609,-0.143799045084,0.986582670609,-0.143799045084,-0.00557934826378,-0.0491740994781
3000000000.0,-0.00607803442618,-0.0508191463606,0.985763002982,-0.148703761801,0.985763002982,-0.148703761801,-0.00607803442618,-0.0508191463606
3100000000.0,-0.0065930447192,-0.0524590474014,0.984916256519,-0.153602984645,0.984916256519,-0.153602984645,-0.0065930447192,-0.0524590474014
3200000000.0,-0.0071243202192,-0.0540936345333,0.984042480871,-0.158496531628,0.984042480871,-0.158496531628,-0.0071243202192,-0.0540936345333
3300000000.0,-0.00767180026189,-0.0557227403088,0.983141727551,-0.163384221269,0.983141727551,-0.163384221269,-0.00767180026189,-0.0557227403088
3400000000.0,-0.00823542243423,-0.0573461979277,0.982214049913,-0.168265872631,0.982214049913,-0.168265872631,-0.00823542243423,-0.0573461979277
3500000000.0,-0.00881512256897,-0.0589638412641,0.981259503133,-0.173141305345,0.981259503133,-0.173141305345,-0.00881512256897,-0.0589638412641
3600000000.0,-0.00941083474153,-0.0605755048939,0.980278144184,-0.178010339638,0.980278144184,-0.178010339638,-0.00941083474153,-0.0605755048939
3700000000.0,-0.0100224912687,-0.062181024121,0.979270031819,-0.182872796365,0.979270031819,-0.182872796365,-0.0100224912687,-0.062181024121
3800000000.0,-0.0106500227095,-0.063780235004,0.978235226553,-0.187728497029,0.978235226553,-0.187728497029,-0.0106500227095,-0.063780235004
3900000000.0,-0.011293357867,-0.0653729743822,0.977173790643,-0.192577263815,0.977173790643,-0.192577263815,-0.011293357867,-0.0653729743822
4000000000.0,-0.011952423792,-0.0669590799013,0.976085788072,-0.197418919612,0.976085788072,-0.197418919612,-0.011952423792,-0.0669590799013
4100000000.0,-0.0126271457879,-0.0685383900389,0.974971284532,-0.202253288041,0.974971284532,-0.202253288041,-0.0126271457879,-0.0685383900389
4200000000.0,-0.0133174474165,-0.0701107441299,0.973830347405,-0.207080193477,0.973830347405,-0.207080193477,-0.0133174474165,-0.0701107441299
4300000000.0,-0.0140232505049,-0.0716759823909,0.972663045752,-0.211899461075,0.972663045752,-0.211899461075,-0.0140232505049,-0.0716759823909
4400000000.0,-0.0147444751538,-0.0732339459453,0.971469450288,-0.216710916799,0.971469450288,-0.216710916799,-0.0147444751538,-0.0732339459453
4500000000.0,-0.0154810397456,-0.074784476847,0.970249633375,-0.221514387439,0.970249633375,-0.221514387439,-0.0154810397456,-0.074784476847
4600000000.0,-0.0162328609544,-0.076327418105,0.969003668998,-0.226309700639,0.969003668998,-0.226309700639,-0.0162328609544,-0.076327418105
4700000000.0,-0.0169998537563,-0.0778626137065,0.967731632754,-0.231096684918,0.967731632754,-0.231096684918,-0.0169998537563,-0.0778626137065
4800000000.0,-0.0177819314403,-0.0793899086406,0.966433601829,-0.235875169695,0.966433601829,-0.235875169695,-0.0177819314403,-0.0793899086406
4900000000.0,-0.0185790056198,-0.0809091489213,0.965109654991,-0.240644985311,0.965109654991,-0.240644985311,-0.0185790056198,-0.0809091489213
5000000000.0,-0.0193909862451,-0.0824201816098,0.963759872565,-0.245405963047,0.963759872565,-0.245405963047,-0.0193909862451,-0.0824201816098
5100000000.0,-0.0202177816162,-0.0839228548376,0.962384336419,-0.250157935154,0.962384336419,-0.250157935154,-0.0202177816162,-0.0839228548376
5200000000.0,-0.0210592983961,-0.0854170178281,0.960983129947,-0.254900734864,0.960983129947,-0.254900734864,-0.0210592983961,-0.0854170178281
5300000000.0,-0.0219154416244,-0.0869025209182,0.959556338053,-0.25963419642,0.959556338053,-0.25963419642,-0.0219154416244,-0.0869025209182
5400000000.0,-0.0227861147324,-0.0883792155805,0.958104047133,-0.264358155091,0.958104047133,-0.264358155091,-0.0227861147324,-0.0883792155805
5500000000.0,-0.0236712195573,-0.0898469544435,0.956626345056,-0.269072447194,0.956626345056,-0.269072447194,-0.0236712195573,-0.0898469544435
5600000000.0,-0.0245706563576,-0.0913055913129,0.955123321149,-0.273776910113,0.955123321149,-0.273776910113,-0.0245706563576,-0.0913055913129
5700000000.0,-0.025484323829,-0.0927549811921,0.953595066175,-0.27847138232,0.953595066175,-0.27847138232,-0.025484323829,-0.0927549811921
5800000000.0,-0.0264121191205,-0.0941949803019,0.95204167232,-0.283155703393,0.95204167232,-0.283155703393,-0.0264121191205,-0.0941949803019
5900000000.0,-0.0273539378506,-0.0956254461004,0.950463233172,-0.287829714034,0.950463233172,-0.287829714034,-0.0273539378506,-0.0956254461004
6000000000.0,-0.0283096741245,-0.0970462373028,0.948859843701,-0.292493256087,0.948859843701,-0.292493256087,-0.0283096741245,-0.0970462373028
6100000000.0,-0.0292792205511,-0.0984572138999,0.947231600245,-0.297146172557,0.947231600245,-0.297146172557,-0.0292792205511,-0.0984572138999
6200000000.0,-0.0302624682606,-0.0998582371771,0.945578600486,-0.301788307629,0.945578600486,-0.301788307629,-0.0302624682606,-0.0998582371771
6300000000.0,-0.0312593069227,-0.101249169733,0.943900943434,-0.306419506681,0.943900943434,-0.306419506681,-0.0312593069227,-0.101249169733
6400000000.0,-0.0322696247642,-0.102629875496,0.942198729405,-0.311039616302,0.942198729405,-0.311039616302,-0.0322696247642,-0.102629875496
6500000000.0,-0.0332933085879,-0.104000219745,0.940472060007,-0.315648484313,0.940472060007,-0.315648484313,-0.0332933085879,-0.104000219745
6600000000.0,-0.0343302437915,-0.105360069123,0.938721038112,-0.320245959776,0.938721038112,-0.320245959776,-0.0343302437915,-0.105360069123
6700000000.0,-0.0353803143863,-0.106709291658,0.936945767846,-0.324831893013,0.936945767846,-0.324831893013,-0.0353803143863,-0.106709291658
6800000000.0,-0.0364434030166,-0.108047756773,0.93514635456,-0.32940613562,0.93514635456,-0.32940613562,-0.0364434030166,-0.108047756773
6900000000.0,-0.0375193909798,-0.109375335312,0.933322904814,-0.333968540485,0.933322904814,-0.333968540485,-0.0375193909798,-0.109375335312
7000000000.0,-0.0386081582454,-0.110691899547,0.931475526358,-0.338518961798,0.931475526358,-0.338518961798,-0.0386081582454,-0.110691899547
7100000000.0,-0.0397095834756,-0.111997323197,0.929604328108,-0.343057255067,0.929604328108,-0.343057255067,-0.0397095834756,-0.111997323197
7200000000.0,-0.0408235440456,-0.113291481444,0.927709420126,-0.347583277131,0.927709420126,-0.347583277131,-0.0408235440456,-0.113291481444
7300000000.0,-0.0419499160637,-0.114574250946,0.925790913603,-0.352096886173,0.925790913603,-0.352096886173,-0.0419499160637,-0.114574250946
7400000000.0,-0.0430885743925,-0.115845509852,0.923848920833,-0.356597941736,0.923848920833,-0.356597941736,-0.0430885743925,-0.115845509852
7500000000.0,-0.0442393926695,-0.117105137815,0.921883555192,-0.36108630473,0.921883555192,-0.36108630473,-0.0442393926695,-0.117105137815
7600000000.0,-0.045402243328,-0.118353016008,0.919894931123,-0.365561837446,0.919894931123,-0.365561837446,-0.045402243328,-0.118353016008
7700000000.0,-0.0465769976188,-0.119589027134,0.917883164105,-0.370024403571,0.917883164105,-0.370024403571,-0.0465769976188,-0.119589027134
7800000000.0,-0.0477635256312,-0.120813055442,0.915848370641,-0.374473868193,0.915848370641,-0.374473868193,-0.0477635256312,-0.120813055442
7900000000.0,-0.0489616963151,-0.122024986737,0.913790668228,-0.378910097817,0.913790668228,-0.378910097817,-0.0489616963151,-0.122024986737
8000000000.0,-0.0501713775019,-0.123224708393,0.911710175341,-0.383332960373,0.911710175341,-0.383332960373,-0.0501713775019,-0.123224708393
8100000000.0,-0.0513924359272,-0.124412109363,0.909607011409,-0.387742325226,0.909607011409,-0.387742325226,-0.0513924359272,-0.124412109363
8200000000.0,-0.0526247372523,-0.125587080195,0.907481296792,-0.392138063186,0.907481296792,-0.392138063186,-0.0526247372523,-0.125587080195
8300000000.0,-0.0538681460864,-0.126749513037,0.90533315276,-0.396520046517,0.90533315276,-0.396520046517,-0.0538681460864,-0.126749513037
8400000000.0,-0.0551225260089,-0.127899301651,0.903162701473,-0.400888148946,0.903162701473,-0.400888148946,-0.0551225260089,-0.127899301651
8500000000.0,-0.0563877395917,-0.129036341423,0.900970065953,-0.405242245671,0.900970065953,-0.405242245671,-0.0563877395917,-0.129036341423
8600000000.0,-0.0576636484216,-0.13016052937,0.898755370068,-0.409582213368,0.898755370068,-0.409582213368,-0.0576636484216,-0.13016052937
8700000000.0,-0.0589501131228,-0.131271764153,0.896518738505,-0.413907930202,0.896518738505,-0.413907930202,-0.0589501131228,-0.131271764153
8800000000.0,-0.0602469933796,-0.132369946084,0.894260296751,-0.418219275828,0.894260296751,-0.418219275828,-0.0602469933796,-0.132369946084
8900000000.0,-0.0615541479589,-0.133454977135,0.891980171067,-0.422516131406,0.891980171067,-0.422516131406,-0.0615541479589,-0.133454977135
9000000000.0,-0.0628714347331,-0.134526760946,0.889678488469,-0.426798379598,0.889678488469,-0.426798379598,-0.0628714347331,-0.134526760946
9100000000.0,-0.0641987107028,-0.135585202833,0.887355376702,-0.431065904583,0.887355376702,-0.431065904583,-0.0641987107028,-0.135585202833
9200000000.0,-0.0655358320195,-0.136630209794,0.88501096422,-0.435318592055,0.88501096422,-0.435318592055,-0.0655358320195,-0.136630209794
9300000000.0,-0.0668826540089,-0.137661690519,0.882645380164,-0.439556329234,0.882645380164,-0.439556329234,-0.0668826540089,-0.137661690519
9400000000.0,-0.0682390311933,-0.138679555395,0.880258754336,-0.443779004866,0.880258754336,-0.443779004866,-0.0682390311933,-0.138679555395
9500000000.0,-0.069604817315,-0.13968371651,0.877851217178,-0.447986509232,0.877851217178,-0.447986509232,-0.069604817315,-0.13968371651
9600000000.0,-0.0709798653588,-0.140674087665,0.87542289975,-0.452178734146,0.87542289975,-0.452178734146,-0.0709798653588,-0.140674087665
9700000000.0,-0.0723640275753,-0.141650584372,0.872973933709,-0.456355572965,0.872973933709,-0.456355572965,-0.0723640275753,-0.141650584372
9800000000.0,-0.0737571555039,-0.142613123865,0.870504451282,-0.46051692059,0.870504451282,-0.46051692059,-0.0737571555039,-0.142613123865
9900000000.0,-0.0751590999956,-0.143561625103,0.868014585247,-0.464662673464,0.868014585247,-0.464662673464,-0.0751590999956,-0.143561625103
10000000000.0,-0.0765697112358,-0.144496008774,0.865504468908,-0.468792729583,0.865504468908,-0.468792729583,-0.0765697112358,-0.144496008774
