freq (GHz),S11_real,S11_imag,S21_real,S21_imag,S12_real,S12_imag,S22_real,S22_imag
100000000.0,-7.6580400505e-05,-0.0083358975688,0.999919664859,-0.00835428544215,0.999919664859,-0.00835428544215,-7.65804005048e-05,-0.0083358975688
200000000.0,-0.000293708509016,-0.0166667588759,0.99970251059,-0.0167035421145,0.99970251059,-0.0167035421145,-0.000293708509016,-0.0166667588759
300000000.0,-0.000649742871517,-0.0249884773818,0.999346456188,-0.0250436671973,0.999346456188,-0.0250436671973,-0.000649742871517,-0.0249884773818
400000000.0,-0.00114425574971,-0.0332971321672,0.998851926162,-0.0333707425012,0.998851926162,-0.0333707425012,-0.00114425574971,-0.0332971321672
500000000.0,-0.00177668330412,-0.0415889185199,0.998219483116,-0.0416809654975,0.998219483116,-0.0416809654975,-0.00177668330412,-0.0415889185199
600000000.0,-0.00254633133078,-0.0498601265166,0.997449820627,-0.0499706280598,0.997449820627,-0.0499706280598,-0.00254633133078,-0.0498601265166
700000000.0,-0.00345238058177,-0.0581071320591,0.996543757572,-0.0582361075838,0.996543757572,-0.0582361075838,-0.00345238058177,-0.0581071320591
800000000.0,-0.00449389172084,-0.0663263928408,0.995502233049,-0.0664738630068,0.995502233049,-0.0664738630068,-0.00449389172084,-0.0663263928408
900000000.0,-0.00566981004239,-0.0745144466901,0.9943263016,-0.0746804331882,0.9943263016,-0.0746804331882,-0.00566981004239,-0.0745144466901
1000000000.0,-0.00697897003193,-0.0826679111662,0.99301712862,-0.0828524365335,0.99301712862,-0.0828524365335,-0.00697897003193,-0.0826679111662
1100000000.0,-0.00842009982128,-0.0907834838672,0.99157598589,-0.0909865713247,0.99157598589,-0.0909865713247,-0.00842009982128,-0.0907834838672
1200000000.0,-0.00999182555983,-0.0988579431031,0.99000424719,-0.0990796164118,0.99000424719,-0.0990796164118,-0.00999182555983,-0.0988579431031
1300000000.0,-0.0116926757294,-0.106888148809,0.988303383986,-0.107128432143,0.988303383986,-0.107128432143,-0.0116926757294,-0.106888148809
1400000000.0,-0.0135210854086,-0.11487104356,0.986474961155,-0.115129961391,0.986474961155,-0.115129961391,-0.0135210854086,-0.11487104356
1500000000.0,-0.0154754004973,-0.12280365363,0.984520632762,-0.123081230628,0.984520632762,-0.123081230628,-0.0154754004973,-0.12280365363
1600000000.0,-0.0175538819063,-0.130683090057,0.982442137866,-0.130979350998,0.982442137866,-0.130979350998,-0.0175538819063,-0.130683090057
1700000000.0,-0.0197547097126,-0.138506549662,0.980241296364,-0.138821519349,0.980241296364,-0.138821519349,-0.0197547097126,-0.138506549662
1800000000.0,-0.0220759872905,-0.146271316046,0.977920004862,-0.146605019233,0.977920004862,-0.146605019233,-0.0220759872905,-0.146271316046
1900000000.0,-0.0245157454077,-0.153974760488,0.975480232574,-0.154327221825,0.975480232574,-0.154327221825,-0.0245157454077,-0.153974760488
2000000000.0,-0.0270719462967,-0.161614342794,0.972924017251,-0.16198558676,0.972924017251,-0.16198558676,-0.0270719462967,-0.161614342794
2100000000.0,-0.0297424876966,-0.16918761204,0.970253461141,-0.169577662903,0.970253461141,-0.169577662903,-0.0297424876966,-0.16918761204
2200000000.0,-0.0325252068656,-0.176692207239,0.967470726972,-0.177101089007,0.967470726972,-0.177101089007,-0.0325252068656,-0.176692207239
2300000000.0,-0.0354178845632,-0.184125857908,0.964578033975,-0.184553594295,0.964578033975,-0.184553594295,-0.0354178845632,-0.184125857908
2400000000.0,-0.0384182489963,-0.191486384521,0.961577653934,-0.191932998911,0.961577653934,-0.191932998911,-0.0384182489963,-0.191486384521
2500000000.0,-0.0415239797348,-0.198771698882,0.958471907269,-0.199237214304,0.958471907269,-0.199237214304,-0.0415239797348,-0.198771698882
2600000000.0,-0.0447327115851,-0.205979804367,0.955263159168,-0.20646424347,0.955263159168,-0.20646424347,-0.0447327115851,-0.205979804367
2700000000.0,-0.0480420384267,-0.213108796077,0.951953815743,-0.213612181111,0.951953815743,-0.213612181111,-0.0480420384267,-0.213108796077
2800000000.0,-0.0514495169996,-0.220156860866,0.948546320248,-0.220679213665,0.948546320248,-0.220679213665,-0.0514495169996,-0.220156860866
2900000000.0,-0.0549526706493,-0.227122277269,0.945043149333,-0.227663619237,0.945043149333,-0.227663619237,-0.0549526706493,-0.227122277269
3000000000.0,-0.0585489930171,-0.234003415312,0.941446809351,-0.234563767412,0.941446809351,-0.234563767412,-0.0585489930171,-0.234003415312
3100000000.0,-0.0622359516758,-0.24079873621,0.937759832724,-0.241378118961,0.937759832724,-0.241378118961,-0.0622359516758,-0.24079873621
3200000000.0,-0.0660109917067,-0.247506791961,0.933984774366,-0.248105225427,0.933984774366,-0.248105225427,-0.0660109917067,-0.247506791961
3300000000.0,-0.0698715392132,-0.25412622482,0.930124208172,-0.254743728609,0.930124208172,-0.254743728609,-0.0698715392132,-0.25412622482
3400000000.0,-0.073815004766,-0.260655766675,0.926180723565,-0.261292359935,0.926180723565,-0.261292359935,-0.073815004766,-0.260655766675
3500000000.0,-0.0778387867784,-0.267094238301,0.92215692213,-0.267749939723,0.92215692213,-0.267749939723,-0.0778387867784,-0.267094238301
3600000000.0,-0.0819402748065,-0.273440548528,0.918055414308,-0.274115376346,0.918055414308,-0.274115376346,-0.0819402748065,-0.273440548528
3700000000.0,-0.0861168527684,-0.279693693292,0.913878816177,-0.280387665284,0.913878816177,-0.280387665284,-0.0861168527684,-0.279693693292
3800000000.0,-0.0903659020828,-0.285852754593,0.909629746316,-0.286565888087,0.909629746316,-0.286565888087,-0.0903659020828,-0.285852754593
3900000000.0,-0.0946848047205,-0.291916899358,0.905310822753,-0.292649211235,0.905310822753,-0.292649211235,-0.0946848047205,-0.291916899358
4000000000.0,-0.0990709461656,-0.297885378205,0.90092466,-0.298636884905,0.90092466,-0.298636884905,-0.0990709461656,-0.297885378205
4100000000.0,-0.103521718286,-0.30375752413,0.896473866189,-0.30452824166,0.896473866189,-0.30452824166,-0.103521718286,-0.30375752413
4200000000.0,-0.108034522105,-0.309532751101,0.891961040292,-0.310322695037,0.891961040292,-0.310322695037,-0.108034522105,-0.309532751101
4300000000.0,-0.11260677048,-0.315210552573,0.887388769452,-0.316019738072,0.887388769452,-0.316019738072,-0.11260677048,-0.315210552573
4400000000.0,-0.117235890677,-0.320790499934,0.882759626402,-0.321618941741,0.882759626402,-0.321618941741,-0.117235890677,-0.320790499934
4500000000.0,-0.121919326843,-0.326272240875,0.878076166992,-0.327119953328,0.878076166992,-0.327119953328,-0.121919326843,-0.326272240875
4600000000.0,-0.126654542374,-0.331655497696,0.873340927824,-0.332522494738,0.873340927824,-0.332522494738,-0.126654542374,-0.331655497696
4700000000.0,-0.131439022183,-0.336940065553,0.868556423985,-0.337826360741,0.868556423985,-0.337826360741,-0.131439022183,-0.336940065553
4800000000.0,-0.136270274854,-0.342125810652,0.86372514689,-0.343031417161,0.86372514689,-0.343031417161,-0.136270274854,-0.342125810652
4900000000.0,-0.141145834693,-0.347212668386,0.858849562231,-0.348137599024,0.858849562231,-0.348137599024,-0.141145834693,-0.347212668386
5000000000.0,-0.14606326367,-0.352200641436,0.853932108037,-0.353144908647,0.853932108037,-0.353144908647,-0.14606326367,-0.352200641436
5100000000.0,-0.151020153255,-0.357089797825,0.848975192837,-0.358053413705,0.848975192837,-0.358053413705,-0.151020153255,-0.357089797825
5200000000.0,-0.156014126144,-0.361880268944,0.843981193934,-0.362863245243,0.843981193934,-0.362863245243,-0.156014126144,-0.361880268944
5300000000.0,-0.161042837877,-0.366572247544,0.838952455788,-0.36757459568,0.838952455788,-0.36757459568,-0.161042837877,-0.366572247544
5400000000.0,-0.166103978352,-0.371165985703,0.833891288499,-0.372187716769,0.833891288499,-0.372187716769,-0.166103978352,-0.371165985703
5500000000.0,-0.171195273234,-0.375661792781,0.828799966402,-0.376702917555,0.828799966402,-0.376702917555,-0.171195273234,-0.375661792781
5600000000.0,-0.176314485252,-0.380060033353,0.823680726768,-0.381120562304,0.823680726768,-0.381120562304,-0.176314485252,-0.380060033353
5700000000.0,-0.181459415403,-0.384361125133,0.818535768598,-0.385441068434,0.818535768598,-0.385441068434,-0.181459415403,-0.384361125133
5800000000.0,-0.186627904047,-0.388565536897,0.813367251532,-0.38966490443,0.813367251532,-0.38966490443,-0.186627904047,-0.388565536897
5900000000.0,-0.191817831906,-0.392673786402,0.808177294847,-0.393792587769,0.808177294847,-0.393792587769,-0.191817831906,-0.392673786402
6000000000.0,-0.197027120964,-0.396686438307,0.80296797656,-0.397824682836,0.80296797656,-0.397824682836,-0.197027120964,-0.396686438307
6100000000.0,-0.20225373527,-0.400604102106,0.797741332619,-0.401761798862,0.797741332619,-0.401761798862,-0.20225373527,-0.400604102106
6200000000.0,-0.207495681652,-0.404427430065,0.792499356197,-0.405604587854,0.792499356197,-0.405604587854,-0.207495681652,-0.404427430065
6300000000.0,-0.212751010338,-0.408157115183,0.787243997066,-0.409353742564,0.787243997066,-0.409353742564,-0.212751010338,-0.408157115183
6400000000.0,-0.218017815487,-0.411793889163,0.781977161066,-0.413009994453,0.781977161066,-0.413009994453,-0.218017815487,-0.411793889163
6500000000.0,-0.223294235637,-0.415338520407,0.776700709659,-0.41657411169,0.776700709659,-0.41657411169,-0.223294235637,-0.415338520407
6600000000.0,-0.228578454072,-0.418791812041,0.77141645956,-0.420046897173,0.77141645956,-0.420046897173,-0.228578454072,-0.418791812041
6700000000.0,-0.233868699108,-0.422154599958,0.766126182453,-0.423429186577,0.766126182453,-0.423429186577,-0.233868699108,-0.422154599958
6800000000.0,-0.239163244301,-0.425427750898,0.760831604783,-0.426721846429,0.760831604783,-0.426721846429,-0.239163244301,-0.425427750898
6900000000.0,-0.244460408582,-0.428612160558,0.755534407616,-0.429925772219,0.755534407616,-0.429925772219,-0.244460408582,-0.428612160558
7000000000.0,-0.249758556327,-0.431708751736,0.750236226578,-0.433041886548,0.750236226578,-0.433041886548,-0.249758556327,-0.431708751736
7100000000.0,-0.255056097352,-0.434718472516,0.744938651853,-0.436071137306,0.744938651853,-0.436071137306,-0.255056097352,-0.434718472516
7200000000.0,-0.260351486846,-0.437642294484,0.739643228249,-0.439014495892,0.739643228249,-0.439014495892,-0.260351486846,-0.437642294484
7300000000.0,-0.265643225249,-0.440481210991,0.734351455328,-0.441872955476,0.734351455328,-0.441872955476,-0.265643225249,-0.440481210991
7400000000.0,-0.270929858065,-0.443236235455,0.729064787587,-0.444647529301,0.729064787587,-0.444647529301,-0.270929858065,-0.443236235455
7500000000.0,-0.276209975621,-0.445908399705,0.723784634697,-0.447339249029,0.723784634697,-0.447339249029,-0.276209975621,-0.445908399705
7600000000.0,-0.281482212778,-0.448498752372,0.718512361796,-0.449949163124,0.718512361796,-0.449949163124,-0.281482212778,-0.448498752372
7700000000.0,-0.286745248594,-0.451008357322,0.713249289828,-0.452478335294,0.713249289828,-0.452478335294,-0.286745248594,-0.451008357322
7800000000.0,-0.291997805933,-0.453438292133,0.707996695928,-0.454927842967,0.707996695928,-0.454927842967,-0.291997805933,-0.453438292133
7900000000.0,-0.297238651042,-0.455789646629,0.702755813848,-0.457298775815,0.702755813848,-0.457298775815,-0.297238651042,-0.455789646629
8000000000.0,-0.302466593081,-0.458063521443,0.69752783443,-0.459592234329,0.69752783443,-0.459592234329,-0.302466593081,-0.458063521443
8100000000.0,-0.307680483619,-0.460261026646,0.692313906102,-0.461809328441,0.692313906102,-0.461809328441,-0.307680483619,-0.460261026646
8200000000.0,-0.312879216097,-0.462383280409,0.687115135426,-0.463951176188,0.687115135426,-0.463951176188,-0.312879216097,-0.462383280409
8300000000.0,-0.318061725254,-0.46443140772,0.681932587661,-0.466018902427,0.681932587661,-0.466018902427,-0.318061725254,-0.46443140772
8400000000.0,-0.323226986532,-0.466406539146,0.676767287366,-0.4680136376,0.676767287366,-0.4680136376,-0.323226986532,-0.466406539146
8500000000.0,-0.328374015446,-0.468309809642,0.671620219024,-0.469936516541,0.671620219024,-0.469936516541,-0.328374015446,-0.468309809642
8600000000.0,-0.333501866942,-0.470142357408,0.666492327692,-0.471788677332,0.666492327692,-0.471788677332,-0.333501866942,-0.470142357408
8700000000.0,-0.338609634717,-0.471905322791,0.661384519671,-0.473571260207,0.661384519671,-0.473571260207,-0.338609634717,-0.471905322791
8800000000.0,-0.343696450536,-0.473599847238,0.656297663196,-0.475285406501,0.656297663196,-0.475285406501,-0.343696450536,-0.473599847238
8900000000.0,-0.348761483522,-0.475227072282,0.651232589143,-0.476932257643,0.651232589143,-0.476932257643,-0.348761483522,-0.475227072282
9000000000.0,-0.353803939437,-0.476788138594,0.646190091754,-0.478512954198,0.646190091754,-0.478512954198,-0.353803939437,-0.476788138594
9100000000.0,-0.358823059942,-0.478284185054,0.641170929363,-0.480028634949,0.641170929363,-0.480028634949,-0.358823059942,-0.478284185054
9200000000.0,-0.363818121855,-0.479716347889,0.636175825154,-0.481480436026,0.636175825154,-0.481480436026,-0.363818121855,-0.479716347889
9300000000.0,-0.368788436399,-0.481085759838,0.631205467906,-0.482869490075,0.631205467906,-0.482869490075,-0.368788436399,-0.481085759838
9400000000.0,-0.373733348433,-0.482393549366,0.626260512757,-0.484196925471,0.626260512757,-0.484196925471,-0.373733348433,-0.482393549366
9500000000.0,-0.378652235688,-0.483640839917,0.621341581978,-0.48546386557,0.621341581978,-0.48546386557,-0.378652235688,-0.483640839917
9600000000.0,-0.383544507997,-0.484828749207,0.616449265735,-0.486671428004,0.616449265735,-0.486671428004,-0.383544507997,-0.484828749207
9700000000.0,-0.388409606515,-0.48595838856,0.611584122872,-0.487820724016,0.611584122872,-0.487820724016,-0.388409606515,-0.48595838856
9800000000.0,-0.393247002951,-0.487030862274,0.606746681683,-0.488912857824,0.606746681683,-0.488912857824,-0.393247002951,-0.487030862274
9900000000.0,-0.398056198783,-0.488047267034,0.601937440688,-0.489948926037,0.601937440688,-0.489948926037,-0.398056198783,-0.488047267034
10000000000.0,-0.402836724493,-0.489008691352,0.597156869405,-0.490930017093,0.597156869405,-0.490930017093,-0.402836724493,-0.489008691352
