freq (GHz),S11_real,S11_imag,S21_real,S21_imag,S12_real,S12_imag,S22_real,S22_imag
100000000.0,0.000656476052828,0.000101743975109,0.99934242913,-0.000198132373126,0.99934242913,-0.000198132373126,0.000656476052828,0.000101743975109
200000000.0,0.000660850882917,0.00020348542919,0.999337950189,-0.000396262629078,0.999337950189,-0.000396262629078,0.000660850882917,0.000203485429191
300000000.0,0.000664099321656,0.000305225450142,0.999334588345,-0.000594392073194,0.999334588345,-0.000594392073194,0.000664099321656,0.000305225450142
400000000.0,0.000666792965141,0.00040696442858,0.999331772003,-0.000792521264738,0.999331772003,-0.000792521264738,0.000666792965141,0.00040696442858
500000000.0,0.000669152186769,0.000508702590945,0.999329280787,-0.000990650574074,0.999329280787,-0.000990650574074,0.000669152186768,0.000508702590945
600000000.0,0.00067128949338,0.000610440090284,0.999327002192,-0.00118878028217,0.999327002192,-0.00118878028217,0.00067128949338,0.000610440090284
700000000.0,0.000673271414319,0.000712177038831,0.999324869686,-0.00138691061811,0.999324869686,-0.00138691061811,0.000673271414319,0.000712177038831
800000000.0,0.00067514109665,0.000813913523633,0.999322840122,-0.00158504177677,0.999322840122,-0.00158504177677,0.00067514109665,0.000813913523633
900000000.0,0.00067692836998,0.00091564961482,0.99932088367,-0.00178317392881,0.99932088367,-0.00178317392881,0.00067692836998,0.00091564961482
1000000000.0,0.000678654849613,0.00101738537063,0.999318978715,-0.00198130722678,0.999318978715,-0.00198130722678,0.000678654849613,0.00101738537063
1100000000.0,0.000680336774081,0.00111912084016,0.999317109016,-0.0021794418095,0.999317109016,-0.0021794418095,0.000680336774082,0.00111912084016
1200000000.0,0.000681986696998,0.00122085606592,0.99931526202,-0.00237757780446,0.99931526202,-0.00237757780446,0.000681986696998,0.00122085606592
1300000000.0,0.000683614551387,0.00132259108535,0.999313427793,-0.00257571532981,0.999313427793,-0.00257571532981,0.000683614551387,0.00132259108535
1400000000.0,0.000685228349754,0.00142432593151,0.999311598322,-0.00277385449622,0.999311598322,-0.00277385449622,0.000685228349755,0.00142432593151
1500000000.0,0.000686834661343,0.00152606063396,0.999309767036,-0.00297199540802,0.999309767036,-0.00297199540802,0.000686834661343,0.00152606063396
1600000000.0,0.000688438947092,0.00162779521982,0.999307928475,-0.00317013816357,0.999307928475,-0.00317013816357,0.000688438947091,0.00162779521982
1700000000.0,0.000690045801558,0.00172952971365,0.999306078042,-0.00336828285667,0.999306078042,-0.00336828285667,0.000690045801558,0.00172952971366
1800000000.0,0.000691659130834,0.00183126413837,0.999304211831,-0.00356642957655,0.999304211831,-0.00356642957655,0.000691659130833,0.00183126413837
1900000000.0,0.000693282286458,0.00193299851516,0.99930232649,-0.00376457840875,0.99930232649,-0.00376457840875,0.000693282286459,0.00193299851516
2000000000.0,0.000694918167723,0.00203473286381,0.999300419117,-0.00396272943545,0.999300419117,-0.00396272943545,0.000694918167722,0.00203473286381
2100000000.0,0.000696569300978,0.00213646720309,0.999298487187,-0.00416088273565,0.999298487187,-0.00416088273565,0.000696569300978,0.00213646720309
2200000000.0,0.000698237902077,0.00223820155073,0.999296528483,-0.00435903838559,0.999296528483,-0.00435903838559,0.000698237902078,0.00223820155073
2300000000.0,0.000699925926049,0.00233993592365,0.999294541048,-0.00455719645898,0.999294541048,-0.00455719645898,0.000699925926049,0.00233993592365
2400000000.0,0.000701635107037,0.00244167033792,0.999292523147,-0.00475535702732,0.999292523147,-0.00475535702732,0.000701635107037,0.00244167033792
2500000000.0,0.000703366990796,0.00254340480928,0.999290473234,-0.00495352015972,0.999290473234,-0.00495352015972,0.000703366990796,0.00254340480928
2600000000.0,0.000705122961341,0.00264513935269,0.999288389924,-0.00515168592355,0.999288389924,-0.00515168592355,0.000705122961341,0.00264513935269
2700000000.0,0.000706904262912,0.00274687398273,0.999286271972,-0.0053498543843,0.999286271972,-0.0053498543843,0.000706904262912,0.00274687398273
2800000000.0,0.000708712018364,0.00284860871363,0.999284118253,-0.00554802560571,0.999284118253,-0.00554802560571,0.000708712018365,0.00284860871363
2900000000.0,0.000710547244527,0.00295034355925,0.999281927751,-0.00574619965003,0.999281927751,-0.00574619965003,0.000710547244527,0.00295034355925
3000000000.0,0.000712410865182,0.00305207853328,0.99927969954,-0.00594437657785,0.99927969954,-0.00594437657785,0.000712410865182,0.00305207853328
3100000000.0,0.000714303722166,0.00315381364897,0.999277432777,-0.00614255644867,0.999277432777,-0.00614255644867,0.000714303722166,0.00315381364897
3200000000.0,0.000716226584697,0.00325554891956,0.999275126692,-0.00634073932045,0.999275126692,-0.00634073932045,0.000716226584697,0.00325554891956
3300000000.0,0.000718180157543,0.00335728435799,0.99927278058,-0.00653892525007,0.99927278058,-0.00653892525007,0.000718180157543,0.00335728435799
3400000000.0,0.000720165087973,0.0034590199772,0.999270393792,-0.00673711429315,0.999270393792,-0.00673711429315,0.000720165087972,0.0034590199772
3500000000.0,0.000722181971807,0.00356075578986,0.999267965731,-0.00693530650437,0.999267965731,-0.00693530650437,0.000722181971807,0.00356075578986
3600000000.0,0.000724231358709,0.00366249180871,0.999265495846,-0.00713350193725,0.999265495846,-0.00713350193725,0.000724231358709,0.00366249180871
3700000000.0,0.000726313756753,0.00376422804635,0.999262983629,-0.00733170064438,0.999262983629,-0.00733170064438,0.000726313756753,0.00376422804635
3800000000.0,0.000728429636496,0.00386596451537,0.999260428607,-0.00752990267745,0.999260428607,-0.00752990267745,0.000728429636497,0.00386596451537
3900000000.0,0.000730579434517,0.00396770122826,0.999257830343,-0.00772810808727,0.999257830343,-0.00772810808727,0.000730579434517,0.00396770122826
4000000000.0,0.000732763556555,0.00406943819764,0.999255188431,-0.00792631692375,0.999255188431,-0.00792631692375,0.000732763556555,0.00406943819764
4100000000.0,0.000734982380313,0.00417117543598,0.99925250249,-0.00812452923612,0.99925250249,-0.00812452923612,0.000734982380313,0.00417117543598
4200000000.0,0.000737236257909,0.00427291295589,0.999249772169,-0.00832274507273,0.999249772169,-0.00832274507273,0.000737236257909,0.00427291295589
4300000000.0,0.000739525518102,0.00437465076992,0.999246997137,-0.00852096448132,0.999246997137,-0.00852096448132,0.000739525518103,0.00437465076992
4400000000.0,0.000741850468254,0.00447638889071,0.999244177085,-0.00871918750884,0.999244177085,-0.00871918750884,0.000741850468254,0.00447638889071
4500000000.0,0.000744211396094,0.00457812733096,0.999241311725,-0.0089174142016,0.999241311725,-0.0089174142016,0.000744211396094,0.00457812733096
4600000000.0,0.00074660857132,0.0046798661034,0.999238400786,-0.0091156446053,0.999238400786,-0.0091156446053,0.00074660857132,0.0046798661034
4700000000.0,0.000749042247024,0.00478160522079,0.999235444013,-0.00931387876506,0.999235444013,-0.00931387876506,0.000749042247024,0.00478160522079
4800000000.0,0.000751512660977,0.00488334469603,0.999232441168,-0.00951211672532,0.999232441168,-0.00951211672532,0.000751512660977,0.00488334469603
4900000000.0,0.000754020036806,0.00498508454208,0.999229392026,-0.00971035853004,0.999229392026,-0.00971035853004,0.000754020036806,0.00498508454208
5000000000.0,0.00075656458505,0.00508682477197,0.999226296375,-0.00990860422259,0.999226296375,-0.00990860422259,0.00075656458505,0.00508682477197
5100000000.0,0.000759146504123,0.00518856539883,0.999223154015,-0.0101068538459,0.999223154015,-0.0101068538459,0.000759146504123,0.00518856539883
5200000000.0,0.000761765981184,0.00529030643586,0.999219964758,-0.0103051074422,0.999219964758,-0.0103051074422,0.000761765981184,0.00529030643586
5300000000.0,0.000764423192952,0.00539204789642,0.999216728426,-0.0105033650535,0.999216728426,-0.0105033650535,0.000764423192952,0.00539204789642
5400000000.0,0.00076711830641,0.00549378979393,0.99921344485,-0.0107016267212,0.99921344485,-0.0107016267212,0.00076711830641,0.00549378979393
5500000000.0,0.000769851479498,0.00559553214187,0.999210113873,-0.0108998924864,0.999210113873,-0.0108998924864,0.000769851479498,0.00559553214187
5600000000.0,0.000772622861702,0.00569727495396,0.999206735342,-0.0110981623893,0.999206735342,-0.0110981623893,0.000772622861702,0.00569727495396
5700000000.0,0.000775432594632,0.00579901824393,0.999203309115,-0.0112964364704,0.999203309115,-0.0112964364704,0.000775432594632,0.00579901824393
5800000000.0,0.00077828081253,0.00590076202564,0.999199835057,-0.0114947147692,0.999199835057,-0.0114947147692,0.00077828081253,0.00590076202564
5900000000.0,0.000781167642743,0.00600250631312,0.999196313039,-0.0116929973251,0.999196313039,-0.0116929973251,0.000781167642743,0.00600250631312
6000000000.0,0.000784093206167,0.00610425112047,0.999192742938,-0.011891284177,0.999192742938,-0.011891284177,0.000784093206167,0.00610425112047
6100000000.0,0.000787057617646,0.00620599646194,0.999189124639,-0.0120895753636,0.999189124639,-0.0120895753636,0.000787057617646,0.00620599646194
6200000000.0,0.000790060986348,0.00630774235188,0.99918545803,-0.012287870923,0.99918545803,-0.012287870923,0.000790060986347,0.00630774235188
6300000000.0,0.000793103416105,0.00640948880486,0.999181743008,-0.0124861708932,0.999181743008,-0.0124861708932,0.000793103416104,0.00640948880486
6400000000.0,0.000796185005742,0.00651123583544,0.999177979472,-0.0126844753117,0.999177979472,-0.0126844753117,0.000796185005742,0.00651123583544
6500000000.0,0.000799305849371,0.0066129834584,0.999174167325,-0.0128827842157,0.999174167325,-0.0128827842157,0.000799305849371,0.0066129834584
6600000000.0,0.000802466036658,0.00671473168864,0.999170306479,-0.0130810976423,0.999170306479,-0.0130810976423,0.000802466036658,0.00671473168864
6700000000.0,0.000805665653092,0.00681648054116,0.999166396844,-0.0132794156279,0.999166396844,-0.0132794156279,0.000805665653092,0.00681648054116
6800000000.0,0.000808904780218,0.00691823003118,0.99916243834,-0.0134777382089,0.99916243834,-0.0134777382089,0.000808904780218,0.00691823003118
6900000000.0,0.000812183495857,0.00701998017394,0.999158430886,-0.0136760654214,0.999158430886,-0.0136760654214,0.000812183495857,0.00701998017394
7000000000.0,0.000815501874317,0.00712173098492,0.999154374406,-0.0138743973012,0.999154374406,-0.0138743973012,0.000815501874318,0.00712173098492
7100000000.0,0.000818859986588,0.00722348247967,0.99915026883,-0.0140727338836,0.99915026883,-0.0140727338836,0.000818859986588,0.00722348247967
7200000000.0,0.000822257900516,0.0073252346739,0.999146114086,-0.0142710752041,0.999146114086,-0.0142710752041,0.000822257900517,0.0073252346739
7300000000.0,0.000825695680979,0.00742698758346,0.99914191011,-0.0144694212974,0.99914191011,-0.0144694212974,0.000825695680979,0.00742698758346
7400000000.0,0.00082917339004,0.00752874122434,0.999137656837,-0.0146677721985,0.999137656837,-0.0146677721985,0.000829173390041,0.00752874122434
7500000000.0,0.0008326910871,0.00763049561268,0.999133354207,-0.0148661279417,0.999133354207,-0.0148661279417,0.000832691087101,0.00763049561268
7600000000.0,0.000836248829035,0.00773225076475,0.999129002162,-0.0150644885613,0.999129002162,-0.0150644885613,0.000836248829035,0.00773225076475
7700000000.0,0.000839846670325,0.00783400669694,0.999124600646,-0.0152628540914,0.999124600646,-0.0152628540914,0.000839846670325,0.00783400669694
7800000000.0,0.00084348466318,0.0079357634258,0.999120149604,-0.0154612245658,0.999120149604,-0.0154612245658,0.00084348466318,0.0079357634258
7900000000.0,0.000847162857652,0.00803752096803,0.999115648987,-0.0156596000179,0.999115648987,-0.0156596000179,0.000847162857652,0.00803752096803
8000000000.0,0.000850881301744,0.00813927934046,0.999111098744,-0.0158579804814,0.999111098744,-0.0158579804814,0.000850881301744,0.00813927934046
8100000000.0,0.000854640041513,0.00824103856007,0.999106498827,-0.0160563659892,0.999106498827,-0.0160563659892,0.000854640041513,0.00824103856007
8200000000.0,0.000858439121167,0.00834279864395,0.999101849192,-0.0162547565744,0.999101849192,-0.0162547565744,0.000858439121167,0.00834279864395
8300000000.0,0.000862278583151,0.00844455960938,0.999097149795,-0.0164531522697,0.999097149795,-0.0164531522697,0.000862278583151,0.00844455960938
8400000000.0,0.00086615846824,0.00854632147373,0.999092400593,-0.0166515531078,0.999092400593,-0.0166515531078,0.00086615846824,0.00854632147373
8500000000.0,0.00087007881561,0.00864808425456,0.999087601545,-0.016849959121,0.999087601545,-0.016849959121,0.00087007881561,0.00864808425456
8600000000.0,0.000874039662923,0.00874984796953,0.999082752614,-0.0170483703416,0.999082752614,-0.0170483703416,0.000874039662924,0.00874984796953
8700000000.0,0.000878041046397,0.00885161263645,0.99907785376,-0.0172467868017,0.99907785376,-0.0172467868017,0.000878041046397,0.00885161263645
8800000000.0,0.000882083000866,0.00895337827329,0.999072904948,-0.017445208533,0.999072904948,-0.017445208533,0.000882083000866,0.00895337827329
8900000000.0,0.000886165559855,0.00905514489815,0.999067906142,-0.0176436355673,0.999067906142,-0.0176436355673,0.000886165559855,0.00905514489815
9000000000.0,0.000890288755637,0.00915691252925,0.99906285731,-0.0178420679362,0.99906285731,-0.0178420679362,0.000890288755637,0.00915691252925
9100000000.0,0.000894452619289,0.00925868118497,0.999057758419,-0.018040505671,0.999057758419,-0.018040505671,0.000894452619289,0.00925868118497
9200000000.0,0.000898657180748,0.00936045088385,0.999052609437,-0.018238948803,0.999052609437,-0.018238948803,0.000898657180748,0.00936045088385
9300000000.0,0.000902902468863,0.00946222164452,0.999047410333,-0.0184373973632,0.999047410333,-0.0184373973632,0.000902902468863,0.00946222164452
9400000000.0,0.000907188511446,0.00956399348576,0.99904216108,-0.0186358513825,0.99904216108,-0.0186358513825,0.000907188511446,0.00956399348576
9500000000.0,0.000911515335314,0.00966576642654,0.999036861648,-0.0188343108918,0.999036861648,-0.0188343108918,0.000911515335314,0.00966576642654
9600000000.0,0.00091588296634,0.00976754048592,0.99903151201,-0.0190327759216,0.99903151201,-0.0190327759216,0.00091588296634,0.00976754048592
9700000000.0,0.000920291429488,0.00986931568307,0.99902611214,-0.0192312465025,0.99902611214,-0.0192312465025,0.000920291429488,0.00986931568307
9800000000.0,0.00092474074886,0.00997109203737,0.999020662013,-0.0194297226648,0.999020662013,-0.0194297226648,0.000924740748859,0.00997109203737
9900000000.0,0.000929230947727,0.0100728695683,0.999015161602,-0.0196282044388,0.999015161602,-0.0196282044388,0.000929230947727,0.0100728695683
10000000000.0,0.000933762048573,0.0101746482955,0.999009610886,-0.0198266918545,0.999009610886,-0.0198266918545,0.000933762048573,0.0101746482955
