freq (GHz),S11_real,S11_imag,S21_real,S21_imag,S12_real,S12_imag,S22_real,S22_imag
100000000.0,-0.00249102710994,-0.0493939765869,0.997489142049,-0.0494984514079,0.997489142049,-0.0494984514079,-0.00249102710994,-0.0493939765869
200000000.0,-0.00981884776191,-0.0980481118345,0.990161169457,-0.0982571115692,0.990161169457,-0.0982571115692,-0.00981884776191,-0.0980481118345
300000000.0,-0.0217590837617,-0.14527296322,0.978220804603,-0.145586562976,0.978220804603,-0.145586562976,-0.0217590837617,-0.14527296322
400000000.0,-0.0379732842611,-0.190447955542,0.962006481266,-0.190866248765,0.962006481266,-0.190866248765,-0.0379732842611,-0.190447955542
500000000.0,-0.058023002224,-0.233045648048,0.941956639921,-0.233568742807,0.941956639921,-0.233568742807,-0.058023002224,-0.233045648048
600000000.0,-0.081397916042,-0.272647903846,0.918581598822,-0.273275920184,0.918581598822,-0.273275920184,-0.081397916042,-0.272647903846
700000000.0,-0.107545613779,-0.30895315868,0.892433767917,-0.309686226531,0.892433767917,-0.309686226531,-0.107545613779,-0.30895315868
800000000.0,-0.135900162448,-0.341775322124,0.86407907889,-0.342613579593,0.86407907889,-0.342613579593,-0.135900162448,-0.341775322124
900000000.0,-0.165907200706,-0.371035742705,0.834071892175,-0.371979334607,0.834071892175,-0.371979334607,-0.165907200706,-0.371035742705
1000000000.0,-0.197044111902,-0.39675016637,0.802934823749,-0.397799242967,0.802934823749,-0.397799242967,-0.197044111902,-0.39675016637
1100000000.0,-0.228834666754,-0.419012735655,0.771144102382,-0.420167451552,0.771144102382,-0.420167451552,-0.228834666754,-0.419012735655
1200000000.0,-0.260858230506,-0.437978896369,0.739120362421,-0.439239409548,0.739120362421,-0.439239409548,-0.260858230506,-0.437978896369
1300000000.0,-0.29275413362,-0.453848712841,0.707224273069,-0.4552151838,0.707224273069,-0.4552151838,-0.29275413362,-0.453848712841
1400000000.0,-0.324222093186,-0.46685165245,0.675756116961,-0.468324243456,0.675756116961,-0.468324243456,-0.324222093186,-0.46685165245
1500000000.0,-0.355019672405,-0.47723347204,0.644958330661,-0.478812346462,0.644958330661,-0.478812346462,-0.355019672405,-0.47723347204
1600000000.0,-0.3849577271,-0.485245476772,0.615020058141,-0.486930798499,0.615020058141,-0.486930798499,-0.3849577271,-0.485245476772
1700000000.0,-0.413894664212,-0.491136149948,0.586082892282,-0.492928082874,0.586082892282,-0.492928082874,-0.413894664212,-0.491136149948
1800000000.0,-0.441730173681,-0.495144971446,0.558247142988,-0.497043679022,0.558247142988,-0.497043679022,-0.441730173681,-0.495144971446
1900000000.0,-0.468398925552,-0.49749814042,0.531578140073,-0.499503785267,0.531578140073,-0.499503785267,-0.468398925552,-0.49749814042
2000000000.0,-0.493864569732,-0.498405876726,0.506112233502,-0.500518620294,0.506112233502,-0.500518620294,-0.493864569732,-0.498405876726
2100000000.0,-0.518114247156,-0.498060976357,0.481862282224,-0.50028097864,0.481862282224,-0.50028097864,-0.518114247156,-0.498060976357
2200000000.0,-0.541153721302,-0.49663832294,0.458822522655,-0.498965742224,0.458822522655,-0.498965742224,-0.541153721302,-0.49663832294
2300000000.0,-0.563003166458,-0.494295097383,0.436972780411,-0.496730090041,0.436972780411,-0.496730090041,-0.563003166458,-0.494295097383
2400000000.0,-0.583693599929,-0.491171472302,0.416282038096,-0.493714192621,0.416282038096,-0.493714192621,-0.583693599929,-0.491171472302
2500000000.0,-0.60326391472,-0.487391621307,0.39671140262,-0.490042221343,0.39671140262,-0.490042221343,-0.60326391472,-0.487391621307
2600000000.0,-0.621758452397,-0.483064912308,0.37821653234,-0.485823541775,0.37821653234,-0.485823541775,-0.621758452397,-0.483064912308
2700000000.0,-0.639225048876,-0.478287187481,0.360749591267,-0.481153993659,0.360749591267,-0.481153993659,-0.639225048876,-0.478287187481
2800000000.0,-0.655713485407,-0.473142059869,0.344260798082,-0.47611718754,0.344260798082,-0.47611718754,-0.655713485407,-0.473142059869
2900000000.0,-0.671274280677,-0.467702178374,0.328699634033,-0.470785769771,0.328699634033,-0.470785769771,-0.671274280677,-0.467702178374
3000000000.0,-0.685957765748,-0.462030429585,0.314015767997,-0.465222624368,0.314015767997,-0.465222624368,-0.685957765748,-0.462030429585
3100000000.0,-0.699813390497,-0.456181057473,0.300159750041,-0.459481992709,0.300159750041,-0.459481992709,-0.699813390497,-0.456181057473
3200000000.0,-0.712889217213,-0.450200691107,0.287083517819,-0.453610501272,0.287083517819,-0.453610501272,-0.712889217213,-0.450200691107
3300000000.0,-0.725231563842,-0.444129277051,0.274740753334,-0.447648094043,0.274740753334,-0.447648094043,-0.725231563842,-0.444129277051
3400000000.0,-0.73688476552,-0.438000917526,0.2630871214,-0.441628870686,0.2630871214,-0.441628870686,-0.73688476552,-0.438000917526
3500000000.0,-0.747891028532,-0.431844618319,0.252080415685,-0.43558183446,0.252080415685,-0.43558183446,-0.747891028532,-0.431844618319
3600000000.0,-0.758290355595,-0.425684952172,0.241680633427,-0.429531555621,0.241680633427,-0.429531555621,-0.758290355595,-0.425684952172
3700000000.0,-0.768120525376,-0.419542644349,0.231849995917,-0.423498756987,0.231849995917,-0.423498756987,-0.768120525376,-0.419542644349
3800000000.0,-0.777417112563,-0.413435087445,0.222552928424,-0.417500828762,0.222552928424,-0.417500828762,-0.777417112563,-0.413435087445
3900000000.0,-0.7862135376,-0.407376792504,0.213756010464,-0.411552279654,0.213756010464,-0.411552279654,-0.7862135376,-0.407376792504
4000000000.0,-0.794541137495,-0.40137978326,0.205427904992,-0.40566513112,0.205427904992,-0.40566513112,-0.794541137495,-0.40137978326
4100000000.0,-0.802429250977,-0.395453939889,0.197539273242,-0.399849261118,0.197539273242,-0.399849261118,-0.802429250977,-0.395453939889
4200000000.0,-0.809905312816,-0.389607298182,0.190062680408,-0.394112703292,0.190062680408,-0.394112703292,-0.809905312816,-0.389607298182
4300000000.0,-0.816994953295,-0.383846309523,0.182972496172,-0.388461906939,0.182972496172,-0.388461906939,-0.816994953295,-0.383846309523
4400000000.0,-0.823722099818,-0.378176066489,0.176244793098,-0.382901962624,0.176244793098,-0.382901962624,-0.823722099818,-0.378176066489
4500000000.0,-0.830109078392,-0.372600498427,0.169857245146,-0.377436797746,0.169857245146,-0.377436797746,-0.830109078392,-0.372600498427
4600000000.0,-0.83617671334,-0.367122540822,0.163789027961,-0.372069345912,0.163789027961,-0.372069345912,-0.83617671334,-0.367122540822
4700000000.0,-0.841944424042,-0.361744281849,0.158020722135,-0.366801693492,0.158020722135,-0.366801693492,-0.841944424042,-0.361744281849
4800000000.0,-0.847430317911,-0.356467089093,0.152534220221,-0.361635206335,0.152534220221,-0.361635206335,-0.847430317911,-0.356467089093
4900000000.0,-0.852651279069,-0.351291719044,0.147312638072,-0.356570639262,0.147312638072,-0.356570639262,-0.852651279069,-0.351291719044
5000000000.0,-0.857623052394,-0.346218411636,0.142340230779,-0.35160823061,0.142340230779,-0.35160823061,-0.857623052394,-0.346218411636
5100000000.0,-0.862360322813,-0.34124697184,0.137602313389,-0.346747783818,0.137602313389,-0.346747783818,-0.862360322813,-0.34124697184
5200000000.0,-0.866876789797,-0.336376840008,0.133085186403,-0.341988737776,0.133085186403,-0.341988737776,-0.866876789797,-0.336376840008
5300000000.0,-0.871185237122,-0.331607152506,0.128776066016,-0.337330227455,0.128776066016,-0.337330227455,-0.871185237122,-0.331607152506
5400000000.0,-0.875297598036,-0.326936793916,0.124663018957,-0.332771136103,0.124663018957,-0.332771136103,-0.875297598036,-0.326936793916
5500000000.0,-0.879225015983,-0.322364441946,0.120734901755,-0.328310140161,0.120734901755,-0.328310140161,-0.879225015983,-0.322364441946
5600000000.0,-0.882977901106,-0.317888606034,0.11698130424,-0.323945747862,0.11698130424,-0.323945747862,-0.882977901106,-0.317888606034
5700000000.0,-0.886565982733,-0.31350766049,0.113392497059,-0.31967633237,0.113392497059,-0.31967633237,-0.886565982733,-0.31350766049
5800000000.0,-0.889998358084,-0.309219872911,0.109959382969,-0.315500160199,0.109959382969,-0.315500160199,-0.889998358084,-0.309219872911
5900000000.0,-0.893283537422,-0.305023428515,0.106673451679,-0.311415415541,0.106673451679,-0.311415415541,-0.893283537422,-0.305023428515
6000000000.0,-0.896429485889,-0.300916450939,0.103526738026,-0.307420221059,0.103526738026,-0.307420221059,-0.896429485889,-0.300916450939
6100000000.0,-0.899443662229,-0.296897019973,0.100511783238,-0.303512655632,0.100511783238,-0.303512655632,-0.899443662229,-0.296897019973
6200000000.0,-0.902333054645,-0.292963186663,0.0976215990895,-0.299690769442,0.0976215990895,-0.299690769442,-0.902333054645,-0.292963186663
6300000000.0,-0.905104213961,-0.28911298612,0.0948496347333,-0.295952596791,0.0948496347333,-0.295952596791,-0.905104213961,-0.28911298612
6400000000.0,-0.907763284307,-0.285344448359,0.092189746013,-0.292296166935,0.092189746013,-0.292296166935,-0.907763284307,-0.285344448359
6500000000.0,-0.91031603151,-0.281655607431,0.089636167079,-0.288719513215,0.089636167079,-0.288719513215,-0.91031603151,-0.281655607431
6600000000.0,-0.912767869348,-0.278044509082,0.087183484129,-0.285220680714,0.087183484129,-0.285220680714,-0.912767869348,-0.278044509082
6700000000.0,-0.915123883845,-0.274509217145,0.0848266111151,-0.281797732647,0.0848266111151,-0.281797732647,-0.915123883845,-0.274509217145
6800000000.0,-0.917388855748,-0.271047818825,0.0825607672655,-0.27844875565,0.0825607672655,-0.27844875565,-0.917388855748,-0.271047818825
6900000000.0,-0.919567281333,-0.267658429055,0.0803814562819,-0.275171864123,0.0803814562819,-0.275171864123,-0.919567281333,-0.267658429055
7000000000.0,-0.921663391656,-0.264339194021,0.0782844470831,-0.271965203768,0.0782844470831,-0.271965203768,-0.921663391656,-0.264339194021
7100000000.0,-0.923681170388,-0.261088294006,0.0762657559743,-0.268826954418,0.0762657559743,-0.268826954418,-0.923681170388,-0.261088294006
7200000000.0,-0.92562437033,-0.257903945613,0.074321630131,-0.26575533227,0.074321630131,-0.26575533227,-0.92562437033,-0.257903945613
7300000000.0,-0.927496528713,-0.25478440349,0.0724485322973,-0.262748591602,0.0724485322973,-0.262748591602,-0.927496528713,-0.25478440349
7400000000.0,-0.929300981385,-0.251727961603,0.0706431266002,-0.259805026045,0.0706431266002,-0.259805026045,-0.929300981385,-0.251727961603
7500000000.0,-0.931040875965,-0.248732954138,0.0689022653978,-0.256922969486,0.0689022653978,-0.256922969486,-0.931040875965,-0.248732954138
7600000000.0,-0.93271918404,-0.245797756074,0.0672229770769,-0.254100796641,0.0672229770769,-0.254100796641,-0.93271918404,-0.245797756074
7700000000.0,-0.934338712496,-0.242920783496,0.0656024547292,-0.251336923361,0.0656024547292,-0.251336923361,-0.934338712496,-0.242920783496
7800000000.0,-0.935902114023,-0.240100493659,0.0640380456372,-0.248629806704,0.0640380456372,-0.248629806704,-0.935902114023,-0.240100493659
7900000000.0,-0.937411896892,-0.237335384878,0.0625272415068,-0.245977944814,0.0625272415068,-0.245977944814,-0.937411896892,-0.237335384878
8000000000.0,-0.938870434024,-0.234623996235,0.0610676693905,-0.243379876634,0.0610676693905,-0.243379876634,-0.938870434024,-0.234623996235
8100000000.0,-0.940279971436,-0.231964907163,0.0596570832477,-0.240834181485,0.0596570832477,-0.240834181485,-0.940279971436,-0.231964907163
8200000000.0,-0.941642636085,-0.229356736908,0.0582933560932,-0.238339478532,0.0582933560932,-0.238339478532,-0.941642636085,-0.229356736908
8300000000.0,-0.942960443185,-0.226798143909,0.0569744726901,-0.235894426155,0.0569744726901,-0.235894426155,-0.942960443185,-0.226798143909
8400000000.0,-0.944235303002,-0.22428782509,0.0556985227453,-0.233497721248,0.0556985227453,-0.233497721248,-0.944235303002,-0.22428782509
8500000000.0,-0.945469027198,-0.221824515101,0.0544636945701,-0.231148098455,0.0544636945701,-0.231148098455,-0.945469027198,-0.221824515101
8600000000.0,-0.94666333474,-0.21940698551,0.0532682691719,-0.228844329363,0.0532682691719,-0.228844329363,-0.94666333474,-0.21940698551
8700000000.0,-0.947819857408,-0.217034043958,0.0521106147428,-0.226585221653,0.0521106147428,-0.226585221653,-0.947819857408,-0.217034043958
8800000000.0,-0.948940144941,-0.214704533284,0.0509891815187,-0.224369618228,0.0509891815187,-0.224369618228,-0.948940144941,-0.214704533284
8900000000.0,-0.950025669832,-0.21241733064,0.0499024969788,-0.222196396327,0.0499024969788,-0.222196396327,-0.950025669832,-0.21241733064
9000000000.0,-0.951077831814,-0.21017134659,0.0488491613634,-0.220064466617,0.0488491613634,-0.220064466617,-0.951077831814,-0.21017134659
9100000000.0,-0.952097962046,-0.207965524199,0.0478278434839,-0.21797277229,0.0478278434839,-0.21797277229,-0.952097962046,-0.207965524199
9200000000.0,-0.953087327036,-0.20579883813,0.0468372768065,-0.215920288158,0.0468372768065,-0.215920288158,-0.953087327036,-0.20579883813
9300000000.0,-0.954047132297,-0.203670293741,0.0458762557888,-0.213906019741,0.0458762557888,-0.213906019741,-0.954047132297,-0.203670293741
9400000000.0,-0.954978525782,-0.20157892619,0.0449436324507,-0.211929002381,0.0449436324507,-0.211929002381,-0.954978525782,-0.20157892619
9500000000.0,-0.955882601089,-0.199523799547,0.0440383131643,-0.209988300349,0.0440383131643,-0.209988300349,-0.955882601089,-0.199523799547
9600000000.0,-0.956760400472,-0.197504005926,0.0431592556464,-0.208083005975,0.0431592556464,-0.208083005975,-0.956760400472,-0.197504005926
9700000000.0,-0.957612917661,-0.195518664624,0.04230546614,-0.206212238792,0.04230546614,-0.206212238792,-0.957612917661,-0.195518664624
9800000000.0,-0.958441100498,-0.193566921281,0.0414759967709,-0.20437514469,0.0414759967709,-0.20437514469,-0.958441100498,-0.193566921281
9900000000.0,-0.959245853425,-0.19164794706,0.0406699430684,-0.202570895097,0.0406699430684,-0.202570895097,-0.959245853425,-0.19164794706
10000000000.0,-0.960028039806,-0.189760937839,0.0398864416379,-0.200798686171,0.0398864416379,-0.200798686171,-0.960028039806,-0.189760937839
