freq (GHz),S11_real,S11_imag,S21_real,S21_imag,S12_real,S12_imag,S22_real,S22_imag
100000000.0,-0.000619678638571,-0.0246888271637,0.999342499382,-0.0248318783345,0.999342499382,-0.0248318783345,-0.000619678638571,-0.0246888271637
200000000.0,-0.00247972206637,-0.0492827029954,0.997482167118,-0.0495688365066,0.997482167118,-0.0495688365066,-0.00247972206637,-0.0492827029954
300000000.0,-0.00554784446905,-0.0736911164888,0.994413800443,-0.0741203796008,0.994413800443,-0.0741203796008,-0.00554784446905,-0.0736911164888
400000000.0,-0.00980121872903,-0.0978260514873,0.990160193934,-0.0983985037321,0.990160193934,-0.0983985037321,-0.00980121872903,-0.0978260514873
500000000.0,-0.0152087009808,-0.121602925233,0.984752478966,-0.122318636414,0.984752478966,-0.122318636414,-0.0152087009808,-0.121602925233
600000000.0,-0.0217313974006,-0.144941502348,0.978229543005,-0.145800551178,0.978229543005,-0.145800551178,-0.0217313974006,-0.144941502348
700000000.0,-0.0293233541914,-0.167766718117,0.970637336091,-0.168769191183,0.970637336091,-0.168769191183,-0.0293233541914,-0.167766718117
800000000.0,-0.0379323465396,-0.190009385153,0.962028080598,-0.191155376081,0.962028080598,-0.191155376081,-0.0379323465396,-0.190009385153
900000000.0,-0.0475007424671,-0.211606768491,0.95245940681,-0.21289637724,0.95245940681,-0.21289637724,-0.0475007424671,-0.211606768491
1000000000.0,-0.0579664166195,-0.232503020968,0.941993438848,-0.233936353225,0.941993438848,-0.233936353225,-0.0579664166195,-0.232503020968
1100000000.0,-0.069263689049,-0.252649476482,0.930695855721,-0.254226643124,0.930695855721,-0.254226643124,-0.069263689049,-0.252649476482
1200000000.0,-0.0813242650847,-0.272004803639,0.918634951365,-0.273725920255,0.918634951365,-0.273725920255,-0.0813242650847,-0.272004803639
1300000000.0,-0.0940781542802,-0.290535026626,0.905880715636,-0.292400213085,0.905880715636,-0.292400213085,-0.0940781542802,-0.290535026626
1400000000.0,-0.107454549038,-0.308213423672,0.892503955645,-0.310222803727,0.892503955645,-0.310222803727,-0.107454549038,-0.308213423672
1500000000.0,-0.121382646594,-0.32502031619,0.878575473745,-0.327174017117,0.878575473745,-0.327174017117,-0.121382646594,-0.32502031619
1600000000.0,-0.13579240143,-0.340942763626,0.864165315107,-0.343240915895,0.864165315107,-0.343240915895,-0.13579240143,-0.340942763626
1700000000.0,-0.150615198623,-0.355974180134,0.84934209435,-0.358416917098,0.84934209435,-0.358416917098,-0.150615198623,-0.355974180134
1800000000.0,-0.165784442026,-0.37011388957,0.834172407353,-0.372701347182,0.834172407353,-0.372701347182,-0.165784442026,-0.37011388957
1900000000.0,-0.181236054311,-0.383366635025,0.818720331208,-0.386098951574,0.818720331208,-0.386098951574,-0.181236054311,-0.383366635025
2000000000.0,-0.196908888718,-0.395742058282,0.80304701246,-0.398619374148,0.80304701246,-0.398619374148,-0.196908888718,-0.395742058282
2100000000.0,-0.212745054756,-0.407254163368,0.787210341404,-0.41027662079,0.787210341404,-0.41027662079,-0.212745054756,-0.407254163368
2200000000.0,-0.228690162083,-0.417920776824,0.771264708206,-0.421088519692,0.771264708206,-0.421088519692,-0.228690162083,-0.417920776824
2300000000.0,-0.244693488292,-0.427763015604,0.755260835107,-0.431076189252,0.755260835107,-0.431076189252,-0.244693488292,-0.427763015604
2400000000.0,-0.260708077429,-0.436804771719,0.739245677907,-0.44026352275,0.739245677907,-0.44026352275,-0.260708077429,-0.436804771719
2500000000.0,-0.27669077677,-0.445072220974,0.723262389187,-0.448676697078,0.723262389187,-0.448676697078,-0.27669077677,-0.445072220974
2600000000.0,-0.292602219691,-0.452593361381,0.707350335435,-0.456343711179,0.707350335435,-0.456343711179,-0.292602219691,-0.452593361381
2700000000.0,-0.308406762548,-0.459397585314,0.691545160167,-0.463293958205,0.691545160167,-0.463293958205,-0.308406762548,-0.459397585314
2800000000.0,-0.324072383238,-0.465515287966,0.675878885366,-0.46955783399,0.675878885366,-0.46955783399,-0.324072383238,-0.465515287966
2900000000.0,-0.339570548759,-0.470977513501,0.660380043915,-0.475166383205,0.660380043915,-0.475166383205,-0.339570548759,-0.470977513501
3000000000.0,-0.354876058544,-0.475815639161,0.645073836271,-0.480150983481,0.645073836271,-0.480150983481,-0.354876058544,-0.475815639161
3100000000.0,-0.369966869731,-0.480061096783,0.62998230519,-0.484543066928,0.62998230519,-0.484543066928,-0.369966869731,-0.480061096783
3200000000.0,-0.384823909858,-0.483745130452,0.615124523031,-0.488373877803,0.615124523031,-0.488373877803,-0.384823909858,-0.483745130452
3300000000.0,-0.3994308818,-0.486898588497,0.600516786818,-0.491674264508,0.600516786818,-0.491674264508,-0.3994308818,-0.486898588497
3400000000.0,-0.413774065085,-0.489551747678,0.586172816929,-0.494474503787,0.586172816929,-0.494474503787,-0.413774065085,-0.489551747678
3500000000.0,-0.427842117046,-0.491734167129,0.572103955937,-0.496804154674,0.572103955937,-0.496804154674,-0.427842117046,-0.491734167129
3600000000.0,-0.44162587671,-0.493474569505,0.558319364725,-0.498691939649,0.558319364725,-0.498691939649,-0.44162587671,-0.493474569505
3700000000.0,-0.455118173712,-0.494800746719,0.54482621357,-0.500165650378,0.54482621357,-0.500165650378,-0.455118173712,-0.494800746719
3800000000.0,-0.468313644058,-0.495739487665,0.53162986638,-0.501252075447,0.53162986638,-0.501252075447,-0.468313644058,-0.495739487665
3900000000.0,-0.481208554094,-0.496316525419,0.518734056725,-0.501976947558,0.518734056725,-0.501976947558,-0.481208554094,-0.496316525419
4000000000.0,-0.493800633669,-0.496556501487,0.506141054675,-0.502364907796,0.506141054675,-0.502364907796,-0.493800633669,-0.496556501487
4100000000.0,-0.506088919125,-0.496482944865,0.493851823809,-0.502439484681,0.493851823809,-0.502439484681,-0.506088919125,-0.496482944865
4200000000.0,-0.5180736065,-0.496118263787,0.48186616801,-0.502223085929,0.48186616801,-0.502223085929,-0.5180736065,-0.496118263787
4300000000.0,-0.529755915074,-0.495483748246,0.470182867921,-0.501737000976,0.470182867921,-0.501737000976,-0.529755915074,-0.495483748246
4400000000.0,-0.541137961215,-0.494599581551,0.458799807101,-0.501001412532,0.458799807101,-0.501001412532,-0.541137961215,-0.494599581551
4500000000.0,-0.55222264232,-0.493484859321,0.447714088077,-0.500035415589,0.447714088077,-0.500035415589,-0.55222264232,-0.493484859321
4600000000.0,-0.563013530555,-0.492157614546,0.436922138614,-0.49885704248,0.436922138614,-0.49885704248,-0.563013530555,-0.492157614546
4700000000.0,-0.573514775976,-0.490634847463,0.426419808581,-0.497483292758,0.426419808581,-0.497483292758,-0.573514775976,-0.490634847463
4800000000.0,-0.583731018595,-0.488932559166,0.416202457901,-0.49593016681,0.416202457901,-0.49593016681,-0.583731018595,-0.488932559166
4900000000.0,-0.593667308863,-0.487065788016,0.406265036052,-0.494212702272,0.406265036052,-0.494212702272,-0.593667308863,-0.487065788016
5000000000.0,-0.603329036068,-0.48504864803,0.396602153678,-0.492345012419,0.396602153678,-0.492345012419,-0.603329036068,-0.48504864803
5100000000.0,-0.6127218641,-0.482894368572,0.387208146824,-0.490340325856,0.387208146824,-0.490340325856,-0.6127218641,-0.482894368572
5200000000.0,-0.621851674043,-0.480615334739,0.37807713434,-0.488211026913,0.37807713434,-0.488211026913,-0.621851674043,-0.480615334739
5300000000.0,-0.630724513083,-0.478223127973,0.369203068976,-0.485968696251,0.369203068976,-0.485968696251,-0.630724513083,-0.478223127973
5400000000.0,-0.6393465492,-0.475728566474,0.360579782688,-0.483624151287,0.360579782688,-0.483624151287,-0.6393465492,-0.475728566474
5500000000.0,-0.64772403117,-0.473141745096,0.352201026637,-0.481187486081,0.352201026637,-0.481187486081,-0.64772403117,-0.473141745096
5600000000.0,-0.6558632534,-0.470472074436,0.344060506354,-0.478668110437,0.344060506354,-0.478668110437,-0.6558632534,-0.470472074436
5700000000.0,-0.663770525155,-0.467728318931,0.336151912514,-0.476074787994,0.336151912514,-0.476074787994,-0.663770525155,-0.467728318931
5800000000.0,-0.67145214377,-0.464918633769,0.328468947721,-0.473415673144,0.328468947721,-0.473415673144,-0.67145214377,-0.464918633769
5900000000.0,-0.678914371451,-0.46205060051,0.321005349709,-0.470698346652,0.321005349709,-0.470698346652,-0.678914371451,-0.46205060051
6000000000.0,-0.686163415313,-0.459131261324,0.313754911303,-0.467929849895,0.313754911303,-0.467929849895,-0.686163415313,-0.459131261324
6100000000.0,-0.693205410325,-0.45616715178,0.306711497478,-0.465116717652,0.306711497478,-0.465116717652,-0.693205410325,-0.45616715178
6200000000.0,-0.70004640485,-0.453164332157,0.299869059812,-0.462265009421,0.299869059812,-0.462265009421,-0.70004640485,-0.453164332157
6300000000.0,-0.706692348512,-0.450128417268,0.293221648623,-0.459380339236,0.293221648623,-0.459380339236,-0.706692348512,-0.450128417268
6400000000.0,-0.713149082124,-0.447064604787,0.286763423043,-0.456467904003,0.286763423043,-0.456467904003,-0.713149082124,-0.447064604787
6500000000.0,-0.719422329455,-0.443977702107,0.280488659245,-0.453532510355,0.280488659245,-0.453532510355,-0.719422329455,-0.443977702107
6600000000.0,-0.725517690619,-0.440872151757,0.274391757061,-0.450578600068,0.274391757061,-0.450578600068,-0.725517690619,-0.440872151757
6700000000.0,-0.731440636894,-0.437752055401,0.268467245156,-0.447610274064,0.268467245156,-0.447610274064,-0.731440636894,-0.437752055401
6800000000.0,-0.737196506809,-0.434621196478,0.262709784948,-0.444631315052,0.262709784948,-0.444631315052,-0.737196506809,-0.434621196478
6900000000.0,-0.742790503327,-0.431483061522,0.257114173418,-0.441645208848,0.257114173418,-0.441645208848,-0.742790503327,-0.431483061522
7000000000.0,-0.748227692005,-0.428340860217,0.251675344956,-0.438655164428,0.251675344956,-0.438655164428,-0.748227692005,-0.428340860217
7100000000.0,-0.753512999984,-0.425197544232,0.246388372368,-0.435664132767,0.246388372368,-0.435664132767,-0.753512999984,-0.425197544232
7200000000.0,-0.758651215713,-0.422055824909,0.24124846715,-0.432674824527,0.24124846715,-0.432674824527,-0.758651215713,-0.422055824909
7300000000.0,-0.763646989305,-0.41891818984,0.236250979138,-0.429689726632,0.236250979138,-0.429689726632,-0.763646989305,-0.41891818984
7400000000.0,-0.768504833424,-0.4157869184,0.231391395615,-0.426711117803,0.231391395615,-0.426711117803,-0.768504833424,-0.4157869184
7500000000.0,-0.773229124634,-0.412664096288,0.226665339963,-0.423741083102,0.226665339963,-0.423741083102,-0.773229124634,-0.412664096288
7600000000.0,-0.777824105145,-0.409551629131,0.222068569921,-0.420781527532,0.222068569921,-0.420781527532,-0.777824105145,-0.409551629131
7700000000.0,-0.782293884874,-0.406451255197,0.217596975521,-0.417834188753,0.217596975521,-0.417834188753,-0.782293884874,-0.406451255197
7800000000.0,-0.786642443782,-0.403364557283,0.213246576749,-0.414900648967,0.213246576749,-0.414900648967,-0.786642443782,-0.403364557283
7900000000.0,-0.790873634436,-0.400292973806,0.209013520987,-0.411982346014,0.209013520987,-0.411982346014,-0.790873634436,-0.400292973806
8000000000.0,-0.794991184748,-0.39723780916,0.204894080272,-0.409080583728,0.204894080272,-0.409080583728,-0.794991184748,-0.39723780916
8100000000.0,-0.798998700853,-0.39420024338,0.200884648418,-0.406196541596,0.200884648418,-0.406196541596,-0.798998700853,-0.39420024338
8200000000.0,-0.8028996701,-0.391181341155,0.196981738025,-0.403331283778,0.196981738025,-0.403331283778,-0.8028996701,-0.391181341155
8300000000.0,-0.806697464121,-0.388182060223,0.19318197741,-0.400485767498,0.19318197741,-0.400485767498,-0.806697464121,-0.388182060223
8400000000.0,-0.810395341955,-0.385203259207,0.189482107483,-0.397660850882,0.189482107483,-0.397660850882,-0.810395341955,-0.385203259207
8500000000.0,-0.813996453201,-0.382245704904,0.185878978595,-0.394857300245,0.185878978595,-0.394857300245,-0.813996453201,-0.382245704904
8600000000.0,-0.817503841195,-0.379310079081,0.182369547361,-0.392075796889,0.182369547361,-0.392075796889,-0.817503841195,-0.379310079081
8700000000.0,-0.82092044617,-0.3763969848,0.178950873494,-0.38931694343,0.178950873494,-0.38931694343,-0.82092044617,-0.3763969848
8800000000.0,-0.824249108416,-0.373506952307,0.175620116657,-0.38658126968,0.175620116657,-0.38658126968,-0.824249108416,-0.373506952307
8900000000.0,-0.827492571399,-0.370640444515,0.172374533332,-0.383869238136,0.172374533332,-0.383869238136,-0.827492571399,-0.370640444515
9000000000.0,-0.83065348485,-0.367797862098,0.169211473737,-0.381181249074,0.169211473737,-0.381181249074,-0.83065348485,-0.367797862098
9100000000.0,-0.833734407807,-0.364979548242,0.166128378785,-0.378517645295,0.166128378785,-0.378517645295,-0.833734407807,-0.364979548242
9200000000.0,-0.836737811599,-0.362185793053,0.163122777098,-0.37587871654,0.163122777098,-0.37587871654,-0.836737811599,-0.362185793053
9300000000.0,-0.839666082775,-0.359416837666,0.160192282073,-0.373264703592,0.160192282073,-0.373264703592,-0.839666082775,-0.359416837666
9400000000.0,-0.842521525973,-0.356672878054,0.157334589025,-0.37067580209,0.157334589025,-0.37067580209,-0.842521525973,-0.356672878054
9500000000.0,-0.845306366714,-0.353954068584,0.154547472382,-0.368112166081,0.154547472382,-0.368112166081,-0.845306366714,-0.353954068584
9600000000.0,-0.848022754134,-0.351260525307,0.151828782957,-0.365573911314,0.151828782957,-0.365573911314,-0.848022754134,-0.351260525307
9700000000.0,-0.850672763636,-0.348592329027,0.149176445296,-0.363061118306,0.149176445296,-0.363061118306,-0.850672763636,-0.348592329027
9800000000.0,-0.853258399478,-0.345949528147,0.14658845509,-0.360573835189,0.14658845509,-0.360573835189,-0.853258399478,-0.345949528147
9900000000.0,-0.855781597281,-0.343332141315,0.14406287667,-0.358112080352,0.14406287667,-0.358112080352,-0.855781597281,-0.343332141315
10000000000.0,-0.858244226461,-0.34074015988,0.141597840567,-0.355675844907,0.141597840567,-0.355675844907,-0.858244226461,-0.34074015988
