freq (GHz),S11_real,S11_imag,S21_real,S21_imag,S12_real,S12_imag,S22_real,S22_imag
100000000.0,-0.0119502085665,-0.108149032554,0.988024038462,-0.108290727228,0.988024038462,-0.108290727228,-0.0119502085665,-0.108149032554
200000000.0,-0.0459677550021,-0.208802121431,0.954006285507,-0.209085591602,0.954006285507,-0.209085591602,-0.0459677550021,-0.208802121431
300000000.0,-0.0976539519168,-0.296151695994,0.902319905902,-0.296577063052,0.902319905902,-0.296577063052,-0.0976539519168,-0.296151695994
400000000.0,-0.161199774172,-0.366943861027,0.838773902596,-0.367511275924,0.838773902596,-0.367511275924,-0.161199774172,-0.366943861027
500000000.0,-0.230777640617,-0.420484198494,0.769195848187,-0.421193835473,0.769195848187,-0.421193835473,-0.230777640617,-0.420484198494
600000000.0,-0.301523424608,-0.457999094526,0.698449864925,-0.458851146586,0.698449864925,-0.458851146586,-0.301523424608,-0.457999094526
700000000.0,-0.369942269737,-0.481794720977,0.630030806597,-0.482789396293,0.630030806597,-0.482789396293,-0.369942269737,-0.481794720977
800000000.0,-0.433869988943,-0.494540004612,0.56610285853,-0.495677523578,0.56610285853,-0.495677523578,-0.433869988943,-0.494540004612
900000000.0,-0.492208732717,-0.498798378166,0.507763869006,-0.5000789709,0.507763869006,-0.5000789709,-0.492208732717,-0.498798378166
1000000000.0,-0.544609694898,-0.496791713172,0.45536264327,-0.498215617385,0.45536264327,-0.498215617385,-0.544609694898,-0.496791713172
1100000000.0,-0.591195254053,-0.490325399314,0.40877680204,-0.491892858476,0.40877680204,-0.491892858476,-0.591195254053,-0.490325399314
1200000000.0,-0.632351152338,-0.480803941136,0.367620602586,-0.482515202903,0.367620602586,-0.482515202903,-0.632351152338,-0.480803941136
1300000000.0,-0.668586309798,-0.469286728023,0.331385124385,-0.47114204288,0.331385124385,-0.47114204288,-0.668586309798,-0.469286728023
1400000000.0,-0.700445707848,-0.456554448604,0.299525385618,-0.458554068708,0.299525385618,-0.458554068708,-0.700445707848,-0.456554448604
1500000000.0,-0.728460469281,-0.443171554631,0.271510263143,-0.445315732819,0.271510263143,-0.445315732819,-0.728460469281,-0.443171554631
1600000000.0,-0.75312211637,-0.429539091638,0.246848234378,-0.431828080591,0.246848234378,-0.431828080591,-0.75312211637,-0.429539091638
1700000000.0,-0.774871631544,-0.415936835983,0.225098316622,-0.418370887525,0.225098316622,-0.418370887525,-0.774871631544,-0.415936835983
1800000000.0,-0.794097069318,-0.402555729273,0.205872455112,-0.405135093785,0.205872455112,-0.405135093785,-0.794097069318,-0.402555729273
1900000000.0,-0.811135768654,-0.389522287071,0.188833310666,-0.392247213012,0.188833310666,-0.392247213012,-0.811135768654,-0.389522287071
2000000000.0,-0.826278775166,-0.376916699262,0.173689837461,-0.379787432788,0.173689837461,-0.379787432788,-0.826278775166,-0.376916699262
2100000000.0,-0.839776086953,-0.364786121497,0.160192037208,-0.367802906155,0.160192037208,-0.367802906155,-0.839776086953,-0.364786121497
2200000000.0,-0.851841960234,-0.353154370106,0.148125653514,-0.356317446605,0.148125653514,-0.356317446605,-0.851841960234,-0.353154370106
2300000000.0,-0.86265988469,-0.342028959572,0.137307196531,-0.345338565612,0.137307196531,-0.345338565612,-0.86265988469,-0.342028959572
2400000000.0,-0.872387055705,-0.331406191369,0.127579470721,-0.33486256153,0.127579470721,-0.33486256153,-0.872387055705,-0.331406191369
2500000000.0,-0.881158292404,-0.32127482069,0.118807656811,-0.324878186365,0.118807656811,-0.324878186365,-0.881158292404,-0.32127482069
2600000000.0,-0.889089414876,-0.311618688329,0.110875934575,-0.315369277699,0.110875934575,-0.315369277699,-0.889089414876,-0.311618688329
2700000000.0,-0.896280125152,-0.302418600822,0.103684601848,-0.306316638866,0.103684601848,-0.306316638866,-0.896280125152,-0.302418600822
2800000000.0,-0.902816448786,-0.293653665133,0.0971476329492,-0.297699373667,0.0971476329492,-0.297699373667,-0.902816448786,-0.293653665133
2900000000.0,-0.90877279589,-0.285302227938,0.0911906176453,-0.289495825679,0.0911906176453,-0.289495825679,-0.90877279589,-0.285302227938
3000000000.0,-0.914213697212,-0.277342528577,0.0857490250716,-0.28168423123,0.0857490250716,-0.28168423123,-0.914213697212,-0.277342528577
3100000000.0,-0.919195265286,-0.269753144985,0.0807667425808,-0.274243165346,0.0807667425808,-0.274243165346,-0.919195265286,-0.269753144985
3200000000.0,-0.923766424326,-0.262513290287,0.0761948458494,-0.267151838359,0.0761948458494,-0.267151838359,-0.923766424326,-0.262513290287
3300000000.0,-0.927969946293,-0.255603002049,0.0719905628103,-0.260390285172,0.0719905628103,-0.260390285172,-0.927969946293,-0.255603002049
3400000000.0,-0.93184332482,-0.249003254746,0.0681163997264,-0.253939477734,0.0681163997264,-0.253939477734,-0.93184332482,-0.249003254746
3500000000.0,-0.93541951361,-0.242696017738,0.0645394027931,-0.247781383025,0.0645394027931,-0.247781383025,-0.93541951361,-0.242696017738
3600000000.0,-0.938727551537,-0.23666427495,0.061230533038,-0.241898982736,0.061230533038,-0.241898982736,-0.938727551537,-0.23666427495
3700000000.0,-0.941793092963,-0.230892018059,0.0581641360006,-0.236276266468,0.0581641360006,-0.236276266468,-0.941793092963,-0.230892018059
3800000000.0,-0.944638858676,-0.225364221763,0.0553174907963,-0.230898206995,0.0553174907963,-0.230898206995,-0.944638858676,-0.225364221763
3900000000.0,-0.947285020234,-0.220066807316,0.0526704257737,-0.225750723805,0.0526704257737,-0.225750723805,-0.947285020234,-0.220066807316
4000000000.0,-0.949749528338,-0.214986598817,0.0502049901361,-0.220820639385,0.0502049901361,-0.220820639385,-0.949749528338,-0.214986598817
4100000000.0,-0.952048394093,-0.210111275435,0.0479051726879,-0.216095631451,0.0479051726879,-0.216095631451,-0.952048394093,-0.210111275435
4200000000.0,-0.954195930484,-0.205429321862,0.0457566603489,-0.211564183391,0.0457566603489,-0.211564183391,-0.954195930484,-0.205429321862
4300000000.0,-0.956204960235,-0.200929978555,0.0437466303034,-0.207215534513,0.0437466303034,-0.207215534513,-0.956204960235,-0.200929978555
4400000000.0,-0.958086995148,-0.196603192882,0.0418635706599,-0.203039631185,0.0418635706599,-0.203039631185,-0.958086995148,-0.196603192882
4500000000.0,-0.959852391209,-0.192439571884,0.040097125338,-0.199027079593,0.040097125338,-0.199027079593,-0.959852391209,-0.192439571884
4600000000.0,-0.961510483078,-0.188430337128,0.0384379595874,-0.195169100591,0.0384379595874,-0.195169100591,-0.961510483078,-0.188430337128
4700000000.0,-0.963069700947,-0.18456728191,0.0368776431233,-0.191457486903,0.0368776431233,-0.191457486903,-0.963069700947,-0.18456728191
4800000000.0,-0.964537672338,-0.180842730961,0.0354085483333,-0.187884562824,0.0354085483333,-0.187884562824,-0.964537672338,-0.180842730961
4900000000.0,-0.965921310959,-0.177249502687,0.0340237614149,-0.184443146454,0.0340237614149,-0.184443146454,-0.965921310959,-0.177249502687
5000000000.0,-0.967226894458,-0.173780873923,0.0327170046269,-0.181126514452,0.0327170046269,-0.181126514452,-0.967226894458,-0.173780873923
5100000000.0,-0.968460132594,-0.170430547128,0.0314825681185,-0.177928369223,0.0314825681185,-0.177928369223,-0.968460132594,-0.170430547128
5200000000.0,-0.969626227131,-0.167192619918,0.0303152500303,-0.174842808452,0.0303152500303,-0.174842808452,-0.969626227131,-0.167192619918
5300000000.0,-0.970729924582,-0.164061556829,0.0292103037535,-0.171864296857,0.0292103037535,-0.171864296857,-0.970729924582,-0.164061556829
5400000000.0,-0.971775562739,-0.161032163164,0.0281633913998,-0.168987640038,0.0281633913998,-0.168987640038,-0.971775562739,-0.161032163164
5500000000.0,-0.972767111808,-0.15809956081,0.0271705426683,-0.166207960286,0.0271705426683,-0.166207960286,-0.972767111808,-0.15809956081
5600000000.0,-0.973708210832,-0.155259165881,0.0262281184153,-0.163520674227,0.0262281184153,-0.163520674227,-0.973708210832,-0.155259165881
5700000000.0,-0.974602200028,-0.152506668063,0.0253327783273,-0.160921472154,0.0253327783273,-0.160921472154,-0.974602200028,-0.152506668063
5800000000.0,-0.975452149513,-0.149838011528,0.0244814521842,-0.158406298952,0.0244814521842,-0.158406298952,-0.975452149513,-0.149838011528
5900000000.0,-0.976260884906,-0.147249377315,0.0236713142679,-0.15597133646,0.0236713142679,-0.15597133646,-0.976260884906,-0.147249377315
6000000000.0,-0.977031010149,-0.144737167048,0.0228997605322,-0.153612987196,0.0228997605322,-0.153612987196,-0.977031010149,-0.144737167048
6100000000.0,-0.977764927913,-0.142297987896,0.0221643882023,-0.151327859312,0.0221643882023,-0.151327859312,-0.977764927913,-0.142297987896
6200000000.0,-0.978464857855,-0.139928638677,0.0214629775154,-0.149112752692,0.0214629775154,-0.149112752692,-0.978464857855,-0.139928638677
6300000000.0,-0.97913285299,-0.137626097012,0.0207934753503,-0.146964646103,0.0207934753503,-0.146964646103,-0.97913285299,-0.137626097012
6400000000.0,-0.979770814386,-0.135387507447,0.0201539805296,-0.144880685318,0.0201539805296,-0.144880685318,-0.979770814386,-0.135387507447
6500000000.0,-0.980380504386,-0.133210170461,0.0195427306012,-0.142858172119,0.0195427306012,-0.142858172119,-0.980380504386,-0.133210170461
6600000000.0,-0.980963558508,-0.131091532301,0.0189580899347,-0.140894554128,0.0189580899347,-0.140894554128,-0.980963558508,-0.131091532301
6700000000.0,-0.981521496185,-0.129029175561,0.0183985389845,-0.138987415385,0.0183985389845,-0.138987415385,-0.981521496185,-0.129029175561
6800000000.0,-0.982055730458,-0.127020810458,0.0178626645931,-0.137134467623,0.0178626645931,-0.137134467623,-0.982055730458,-0.127020810458
6900000000.0,-0.982567576753,-0.125064266745,0.0173491512205,-0.135333542171,0.0173491512205,-0.135333542171,-0.982567576753,-0.125064266745
7000000000.0,-0.983058260814,-0.123157486204,0.0168567730016,-0.133582582459,0.0168567730016,-0.133582582459,-0.983058260814,-0.123157486204
7100000000.0,-0.983528925917,-0.121298515687,0.0163843865428,-0.131879637044,0.0163843865428,-0.131879637044,-0.983528925917,-0.121298515687
7200000000.0,-0.9839806394,-0.119485500651,0.0159309243823,-0.130222853147,0.0159309243823,-0.130222853147,-0.9839806394,-0.119485500651
7300000000.0,-0.984414398616,-0.117716679143,0.0154953890438,-0.128610470639,0.0154953890438,-0.128610470639,-0.984414398616,-0.117716679143
7400000000.0,-0.984831136343,-0.11599037622,0.0150768476243,-0.127040816454,0.0150768476243,-0.127040816454,-0.984831136343,-0.11599037622
7500000000.0,-0.985231725714,-0.114304998747,0.0146744268613,-0.125512299392,0.0146744268613,-0.125512299392,-0.985231725714,-0.114304998747
7600000000.0,-0.985616984724,-0.112659030558,0.014287308633,-0.124023405269,0.014287308633,-0.124023405269,-0.985616984724,-0.112659030558
7700000000.0,-0.985987680331,-0.111051027946,0.0139147258471,-0.122572692417,0.0139147258471,-0.122572692417,-0.985987680331,-0.111051027946
7800000000.0,-0.986344532224,-0.109479615465,0.0135559586822,-0.121158787474,0.0135559586822,-0.121158787474,-0.986344532224,-0.109479615465
7900000000.0,-0.98668821626,-0.107943482006,0.0132103311459,-0.119780381464,0.0132103311459,-0.119780381464,-0.98668821626,-0.107943482006
8000000000.0,-0.987019367617,-0.106441377137,0.012877207922,-0.118436226138,0.012877207922,-0.118436226138,-0.987019367617,-0.106441377137
8100000000.0,-0.987338583689,-0.104972107691,0.012555991477,-0.117125130552,0.012555991477,-0.117125130552,-0.987338583689,-0.104972107691
8200000000.0,-0.987646426741,-0.10353453457,0.0122461194038,-0.115845957878,0.0122461194038,-0.115845957878,-0.987646426741,-0.10353453457
8300000000.0,-0.987943426351,-0.102127569756,0.0119470619794,-0.114597622412,0.0119470619794,-0.114597622412,-0.987943426351,-0.102127569756
8400000000.0,-0.988230081659,-0.100750173523,0.0116583199187,-0.113379086783,0.0116583199187,-0.113379086783,-0.988230081659,-0.100750173523
8500000000.0,-0.988506863433,-0.0994013518173,0.0113794223047,-0.112189359333,0.0113794223047,-0.112189359333,-0.988506863433,-0.0994013518173
8600000000.0,-0.988774215979,-0.0980801538063,0.0111099246809,-0.111027491667,0.0111099246809,-0.111027491667,-0.988774215979,-0.0980801538063
8700000000.0,-0.989032558897,-0.0967856695847,0.0108494072919,-0.109892576354,0.0108494072919,-0.109892576354,-0.989032558897,-0.0967856695847
8800000000.0,-0.989282288715,-0.0955170280179,0.0105974734578,-0.108783744776,0.0105974734578,-0.108783744776,-0.989282288715,-0.0955170280179
8900000000.0,-0.989523780379,-0.0942733947211,0.0103537480715,-0.107700165097,0.0103537480715,-0.107700165097,-0.989523780379,-0.0942733947211
9000000000.0,-0.989757388654,-0.0930539701603,0.0101178762098,-0.106641040375,0.0101178762098,-0.106641040375,-0.989757388654,-0.0930539701603
9100000000.0,-0.989983449403,-0.0918579878691,0.00988952184624,-0.105605606768,0.00988952184624,-0.105605606768,-0.989983449403,-0.0918579878691
9200000000.0,-0.990202280783,-0.0906847127719,0.00966836665879,-0.104593131861,0.00966836665879,-0.104593131861,-0.990202280783,-0.0906847127719
9300000000.0,-0.99041418435,-0.0895334396063,0.00945410892454,-0.103602913089,0.00945410892454,-0.103602913089,-0.99041418435,-0.0895334396063
9400000000.0,-0.990619446084,-0.0884034914394,0.00924646249345,-0.10263427625,0.00924646249345,-0.10263427625,-0.990619446084,-0.0884034914394
9500000000.0,-0.990818337341,-0.0872942182702,0.00904515583531,-0.101686574106,0.00904515583531,-0.101686574106,-0.990818337341,-0.0872942182702
9600000000.0,-0.991011115744,-0.0862049957124,0.00884993115391,-0.100759185072,0.00884993115391,-0.100759185072,-0.991011115744,-0.0862049957124
9700000000.0,-0.991198026001,-0.085135223754,0.00866054356303,-0.099851511967,0.00866054356303,-0.099851511967,-0.991198026001,-0.085135223754
9800000000.0,-0.991379300674,-0.0840843255861,0.00847676031945,-0.0989629808465,0.00847676031945,-0.0989629808465,-0.991379300674,-0.0840843255861
9900000000.0,-0.991555160896,-0.0830517464992,0.00829836010842,-0.0980930398985,0.00829836010842,-0.0980930398985,-0.991555160896,-0.0830517464992
10000000000.0,-0.991725817033,-0.0820369528398,0.00812513237761,-0.097241158399,0.00812513237761,-0.097241158399,-0.991725817033,-0.0820369528398
