freq (GHz),S11_real,S11_imag,S21_real,S21_imag,S12_real,S12_imag,S22_real,S22_imag
100000000.0,-0.00648800130457,-0.0798654804696,0.9934464479,-0.0801101314116,0.9934464479,-0.0801101314116,-0.00648800130457,-0.0798654804696
200000000.0,-0.0253920200097,-0.156668130423,0.974541890728,-0.157157504971,0.974541890728,-0.157157504971,-0.0253920200097,-0.156668130423
300000000.0,-0.0552938910498,-0.227750988908,0.944639533159,-0.228485198932,0.944639533159,-0.228485198932,-0.0552938910498,-0.227750988908
400000000.0,-0.0941635868908,-0.291113166558,0.905769346282,-0.292092354524,0.905769346282,-0.292092354524,-0.0941635868908,-0.291113166558
500000000.0,-0.139644507958,-0.345540401214,0.860287907949,-0.346764735617,0.860287907949,-0.346764735617,-0.139644507958,-0.345540401214
600000000.0,-0.189361605229,-0.390586958924,0.810570256071,-0.392056631141,0.810570256071,-0.392056631141,-0.189361605229,-0.390586958924
700000000.0,-0.241159056822,-0.426448521681,0.758772205909,-0.428163743555,0.758772205909,-0.428163743555,-0.241159056822,-0.426448521681
800000000.0,-0.293242235342,-0.453782079401,0.706688380514,-0.455743081273,0.706688380514,-0.455743081273,-0.293242235342,-0.453782079401
900000000.0,-0.344230079801,-0.473522342868,0.65569983781,-0.475729371914,0.65569983781,-0.475729371914,-0.344230079801,-0.473522342868
1000000000.0,-0.393141380048,-0.486726215544,0.606787785669,-0.489179534329,0.606787785669,-0.489179534329,-0.393141380048,-0.486726215544
1100000000.0,-0.439342323801,-0.494458301704,0.560586034602,-0.497158186908,0.560586034602,-0.497158186908,-0.439342323801,-0.494458301704
1200000000.0,-0.482478162727,-0.497717155081,0.517449331516,-0.500663896361,0.517449331516,-0.500663896361,-0.482478162727,-0.497717155081
1300000000.0,-0.522404406325,-0.497395055932,0.477522165729,-0.500588954894,0.477522165729,-0.500588954894,-0.522404406325,-0.497395055932
1400000000.0,-0.559125981755,-0.494262048957,0.440799609067,-0.497703418227,0.440799609067,-0.497703418227,-0.559125981755,-0.494262048957
1500000000.0,-0.592747704212,-0.48896570127,0.407176845457,-0.492654863648,0.407176845457,-0.492654863648,-0.592747704212,-0.48896570127
1600000000.0,-0.623436294452,-0.482039896205,0.376487153359,-0.485977183887,0.376487153359,-0.485977183887,-0.623436294452,-0.482039896205
1700000000.0,-0.651392612183,-0.473917976684,0.348529672358,-0.478103730558,0.348529672358,-0.478103730558,-0.651392612183,-0.473917976684
1800000000.0,-0.676832203174,-0.464947238867,0.323088856034,-0.469381807857,0.323088856034,-0.469381807857,-0.676832203174,-0.464947238867
1900000000.0,-0.69997224178,-0.455403027517,0.29994752943,-0.46008676799,0.29994752943,-0.46008676799,-0.69997224178,-0.455403027517
2000000000.0,-0.721023191395,-0.445501532437,0.278895228586,-0.450434807656,0.278895228586,-0.450434807656,-0.721023191395,-0.445501532437
2100000000.0,-0.740183828649,-0.43541091893,0.259733176333,-0.440594098553,0.259733176333,-0.440594098553,-0.740183828649,-0.43541091893
2200000000.0,-0.757638593451,-0.425260736825,0.242276932254,-0.430694196441,0.242276932254,-0.430694196441,-0.757638593451,-0.425260736825
2300000000.0,-0.773556498346,-0.415149718178,0.226357483307,-0.420833838891,0.226357483307,-0.420833838891,-0.773556498346,-0.415149718178
2400000000.0,-0.788091047115,-0.405152148954,0.211821325239,-0.411087316994,0.211821325239,-0.411087316994,-0.788091047115,-0.405152148954
2500000000.0,-0.801380777214,-0.395323022404,0.19852992013,-0.401509628779,0.19852992013,-0.401509628779,-0.801380777214,-0.395323022404
2600000000.0,-0.813550162036,-0.385702175929,0.186358794136,-0.392140616103,0.186358794136,-0.392140616103,-0.813550162036,-0.385702175929
2700000000.0,-0.824710696126,-0.376317593489,0.175196452272,-0.383008267094,0.175196452272,-0.383008267094,-0.824710696126,-0.376317593489
2800000000.0,-0.834962047985,-0.367188030899,0.164943225602,-0.37413134147,0.164943225602,-0.37413134147,-0.834962047985,-0.367188030899
2900000000.0,-0.844393207621,-0.358325096166,0.155510123692,-0.365521450904,0.155510123692,-0.365521450904,-0.844393207621,-0.358325096166
3000000000.0,-0.853083585042,-0.34973489381,0.146817736111,-0.357184703373,0.146817736111,-0.357184703373,-0.853083585042,-0.34973489381
3100000000.0,-0.861104035293,-0.341419321796,0.1387952074,-0.349123000101,0.1387952074,-0.349123000101,-0.861104035293,-0.341419321796
3200000000.0,-0.868517798414,-0.33337709249,0.131379297104,-0.341335056552,0.131379297104,-0.341335056552,-0.868517798414,-0.33337709249
3300000000.0,-0.875381350851,-0.325604534858,0.124513528368,-0.333817204632,0.124513528368,-0.333817204632,-0.875381350851,-0.325604534858
3400000000.0,-0.881745169905,-0.318096223464,0.118147423481,-0.326564021719,0.118147423481,-0.326564021719,-0.881745169905,-0.318096223464
3500000000.0,-0.887654415771,-0.310845470521,0.112235821845,-0.319568822721,0.112235821845,-0.319568822721,-0.887654415771,-0.310845470521
3600000000.0,-0.893149537262,-0.303844709691,0.106738274242,-0.312824043902,0.106738274242,-0.312824043902,-0.893149537262,-0.303844709691
3700000000.0,-0.89826680805,-0.297085794402,0.101618506596,-0.306321541202,0.101618506596,-0.306321541202,-0.89826680805,-0.297085794402
3800000000.0,-0.903038800317,-0.290560228656,0.096843946324,-0.300052821071,0.096843946324,-0.300052821071,-0.903038800317,-0.290560228656
3900000000.0,-0.907494802521,-0.284259344587,0.0923853045628,-0.29400921803,0.0923853045628,-0.29400921803,-0.907494802521,-0.284259344587
4000000000.0,-0.91166118757,-0.278174438016,0.0882162080038,-0.288182030245,0.0882162080038,-0.288182030245,-0.91166118757,-0.278174438016
4100000000.0,-0.915561737146,-0.272296870922,0.0843128745601,-0.282562622002,0.0843128745601,-0.282562622002,-0.915561737146,-0.272296870922
4200000000.0,-0.919217927427,-0.266618147879,0.0806538276513,-0.277142500165,0.0806538276513,-0.277142500165,-0.919217927427,-0.266618147879
4300000000.0,-0.922649180852,-0.261129972045,0.077219644433,-0.271913370164,0.077219644433,-0.271913370164,-0.922649180852,-0.261129972045
4400000000.0,-0.925873088098,-0.255824285118,0.0739927338204,-0.266867175966,0.0739927338204,-0.266867175966,-0.925873088098,-0.255824285118
4500000000.0,-0.928905603933,-0.250693294774,0.0709571406395,-0.26199612752,0.0709571406395,-0.26199612752,-0.928905603933,-0.250693294774
4600000000.0,-0.931761220156,-0.245729492347,0.0680983726799,-0.257292718444,0.0680983726799,-0.257292718444,-0.931761220156,-0.245729492347
4700000000.0,-0.934453118476,-0.240925662964,0.0654032478221,-0.252749736165,0.0654032478221,-0.252749736165,-0.934453118476,-0.240925662964
4800000000.0,-0.936993305784,-0.236274889858,0.0628597587601,-0.248360266245,0.0628597587601,-0.248360266245,-0.936993305784,-0.236274889858
4900000000.0,-0.939392733998,-0.231770554257,0.0604569531594,-0.24411769227,0.0604569531594,-0.24411769227,-0.939392733998,-0.231770554257
5000000000.0,-0.941661406361,-0.227406331925,0.0581848273575,-0.2400156924,0.0581848273575,-0.2400156924,-0.941661406361,-0.227406331925
5100000000.0,-0.943808471845,-0.223176187215,0.0560342319605,-0.236048233422,0.0560342319605,-0.236048233422,-0.943808471845,-0.223176187215
5200000000.0,-0.945842309097,-0.219074365319,0.0539967878955,-0.232209563012,0.0539967878955,-0.232209563012,-0.945842309097,-0.219074365319
5300000000.0,-0.947770601187,-0.215095383239,0.0520648116635,-0.228494200706,0.0520648116635,-0.228494200706,-0.947770601187,-0.215095383239
5400000000.0,-0.949600402251,-0.211234019904,0.0502312486973,-0.224896928022,0.0502312486973,-0.224896928022,-0.949600402251,-0.211234019904
5500000000.0,-0.951338196984,-0.207485305755,0.0484896138646,-0.221412778045,0.0484896138646,-0.221412778045,-0.951338196984,-0.207485305755
5600000000.0,-0.95298995383,-0.20384451204,0.0468339382821,-0.218037024733,0.0468339382821,-0.218037024733,-0.95298995383,-0.20384451204
5700000000.0,-0.954561172588,-0.200307140037,0.0452587217056,-0.214765172136,0.0452587217056,-0.214765172136,-0.954561172588,-0.200307140037
5800000000.0,-0.95605692709,-0.196868910325,0.0437588898568,-0.211592943673,0.0437588898568,-0.211592943673,-0.95605692709,-0.196868910325
5900000000.0,-0.957481903493,-0.193525752233,0.0423297561231,-0.208516271583,0.0423297561231,-0.208516271583,-0.957481903493,-0.193525752233
6000000000.0,-0.958840434706,-0.190273793541,0.0409669871394,-0.205531286627,0.0409669871394,-0.205531286627,-0.958840434706,-0.190273793541
6100000000.0,-0.960136531356,-0.187109350493,0.0396665718159,-0.202634308105,0.0396665718159,-0.202634308105,-0.960136531356,-0.187109350493
6200000000.0,-0.961373909695,-0.184028918164,0.0384247934338,-0.199821834224,0.0384247934338,-0.199821834224,-0.961373909695,-0.184028918164
6300000000.0,-0.96255601677,-0.181029161207,0.0372382044722,-0.197090532846,0.0372382044722,-0.197090532846,-0.96255601677,-0.181029161207
6400000000.0,-0.963686053165,-0.178106904998,0.0361036038698,-0.194437232635,0.0361036038698,-0.194437232635,-0.963686053165,-0.178106904998
6500000000.0,-0.96476699356,-0.175259127177,0.0350180164628,-0.191858914602,0.0350180164628,-0.191858914602,-0.96476699356,-0.175259127177
6600000000.0,-0.96580160535,-0.172482949603,0.0339786743662,-0.189352704054,0.0339786743662,-0.189352704054,-0.96580160535,-0.172482949603
6700000000.0,-0.966792465525,-0.169775630701,0.0329830000964,-0.186915862949,0.0329830000964,-0.186915862949,-0.966792465525,-0.169775630701
6800000000.0,-0.967741975983,-0.167134558201,0.0320285912529,-0.184545782634,0.0320285912529,-0.184545782634,-0.967741975983,-0.167134558201
6900000000.0,-0.968652377452,-0.164557242256,0.0311132066009,-0.182239976965,0.0311132066009,-0.182239976965,-0.968652377452,-0.164557242256
7000000000.0,-0.969525762148,-0.162041308934,0.0302347534102,-0.179996075793,0.0302347534102,-0.179996075793,-0.969525762148,-0.162041308934
7100000000.0,-0.970364085305,-0.159584494054,0.0293912759264,-0.177811818812,0.0293912759264,-0.177811818812,-0.970364085305,-0.159584494054
7200000000.0,-0.971169175685,-0.157184637367,0.0285809448599,-0.175685049729,0.0285809448599,-0.175685049729,-0.971169175685,-0.157184637367
7300000000.0,-0.971942745171,-0.154839677055,0.0278020477941,-0.173613710773,0.0278020477941,-0.173613710773,-0.971942745171,-0.154839677055
7400000000.0,-0.97268639753,-0.152547644542,0.0270529804218,-0.171595837499,0.0270529804218,-0.171595837499,-0.97268639753,-0.152547644542
7500000000.0,-0.973401636424,-0.150306659592,0.026332238531,-0.169629553893,0.026332238531,-0.169629553893,-0.973401636424,-0.150306659592
7600000000.0,-0.974089872751,-0.148114925686,0.0256384106681,-0.167713067744,0.0256384106681,-0.167713067744,-0.974089872751,-0.148114925686
7700000000.0,-0.974752431367,-0.145970725663,0.0249701714154,-0.165844666288,0.0249701714154,-0.165844666288,-0.974752431367,-0.145970725663
7800000000.0,-0.975390557249,-0.143872417603,0.0243262752235,-0.16402271209,0.0243262752235,-0.16402271209,-0.975390557249,-0.143872417603
7900000000.0,-0.976005421161,-0.141818430947,0.0237055507503,-0.162245639165,0.0237055507503,-0.162245639165,-0.976005421161,-0.141818430947
8000000000.0,-0.976598124854,-0.139807262839,0.023106895657,-0.160511949318,0.023106895657,-0.160511949318,-0.976598124854,-0.139807262839
8100000000.0,-0.977169705856,-0.137837474666,0.022529271822,-0.15882020869,0.022529271822,-0.15882020869,-0.977169705856,-0.137837474666
8200000000.0,-0.977721141873,-0.135907688809,0.0219717009344,-0.157169044503,0.0219717009344,-0.157169044503,-0.977721141873,-0.135907688809
8300000000.0,-0.978253354854,-0.134016585565,0.0214332604333,-0.155557141984,0.0214332604333,-0.155557141984,-0.978253354854,-0.134016585565
8400000000.0,-0.978767214736,-0.132162900245,0.0209130797627,-0.153983241463,0.0209130797627,-0.153983241463,-0.978767214736,-0.132162900245
8500000000.0,-0.979263542896,-0.130345420442,0.0204103369138,-0.152446135642,0.0204103369138,-0.152446135642,-0.979263542896,-0.130345420442
8600000000.0,-0.979743115351,-0.128562983439,0.0199242552317,-0.150944667004,0.0199242552317,-0.150944667004,-0.979743115351,-0.128562983439
8700000000.0,-0.980206665709,-0.126814473776,0.0194541004617,-0.149477725377,0.0194541004617,-0.149477725377,-0.980206665709,-0.126814473776
8800000000.0,-0.980654887898,-0.125098820942,0.0189991780166,-0.148044245626,0.0189991780166,-0.148044245626,-0.980654887898,-0.125098820942
8900000000.0,-0.981088438704,-0.123414997197,0.0185588304458,-0.14664320548,0.0185588304458,-0.14664320548,-0.981088438704,-0.123414997197
9000000000.0,-0.981507940108,-0.121762015514,0.0181324350891,-0.14527362347,0.0181324350891,-0.14527362347,-0.981507940108,-0.121762015514
9100000000.0,-0.981913981472,-0.120138927638,0.0177194019012,-0.143934556987,0.0177194019012,-0.143934556987,-0.981913981472,-0.120138927638
9200000000.0,-0.982307121547,-0.118544822242,0.0173191714321,-0.142625100441,0.0173191714321,-0.142625100441,-0.982307121547,-0.118544822242
9300000000.0,-0.98268789036,-0.116978823189,0.0169312129504,-0.141344383523,0.0169312129504,-0.141344383523,-0.98268789036,-0.116978823189
9400000000.0,-0.983056790948,-0.11544008789,0.0165550226993,-0.140091569561,0.0165550226993,-0.140091569561,-0.983056790948,-0.11544008789
9500000000.0,-0.98341430099,-0.113927805738,0.0161901222745,-0.138865853957,0.0161901222745,-0.138865853957,-0.98341430099,-0.113927805738
9600000000.0,-0.983760874309,-0.112441196645,0.0158360571133,-0.137666462719,0.0158360571133,-0.137666462719,-0.983760874309,-0.112441196645
9700000000.0,-0.984096942284,-0.110979509633,0.0154923950876,-0.136492651058,0.0154923950876,-0.136492651058,-0.984096942284,-0.110979509633
9800000000.0,-0.984422915159,-0.10954202152,0.0151587251923,-0.135343702072,0.0151587251923,-0.135343702072,-0.984422915159,-0.10954202152
9900000000.0,-0.984739183269,-0.108128035663,0.0148346563218,-0.134218925487,0.0148346563218,-0.134218925487,-0.984739183269,-0.108128035663
10000000000.0,-0.985046118177,-0.106736880767,0.0145198161278,-0.133117656471,0.0145198161278,-0.133117656471,-0.985046118177,-0.106736880767
