freq (GHz),S11_real,S11_imag,S21_real,S21_imag,S12_real,S12_imag,S22_real,S22_imag
100000000.0,-0.00796503381287,-0.0883876839394,0.992018870799,-0.0884835060658,0.992018870799,-0.0884835060658,-0.00796503381287,-0.0883876839394
200000000.0,-0.0309624755286,-0.172642902401,0.969021305116,-0.172834596291,0.969021305116,-0.172834596291,-0.0309624755286,-0.172642902401
300000000.0,-0.0669405867706,-0.249290247094,0.933043088248,-0.249577886841,0.933043088248,-0.249577886841,-0.0669405867706,-0.249290247094
400000000.0,-0.112988681924,-0.315897998294,0.886994891959,-0.316281675475,0.886994891959,-0.316281675475,-0.112988681924,-0.315897998294
500000000.0,-0.16586192629,-0.371224931429,0.834121545623,-0.371704751092,0.834121545623,-0.371704751092,-0.16586192629,-0.371224931429
600000000.0,-0.2224556413,-0.415113764817,0.777527725085,-0.415689842558,0.777527725085,-0.415689842558,-0.2224556413,-0.415113764817
700000000.0,-0.280124235312,-0.448228178748,0.719859020371,-0.448900638411,0.719859020371,-0.448900638411,-0.280124235312,-0.448228178748
800000000.0,-0.33682616484,-0.47174378111,0.66315697391,-0.472512752886,0.66315697391,-0.472512752886,-0.33682616484,-0.47174378111
900000000.0,-0.391130620391,-0.487072954048,0.608852394455,-0.487938572884,0.608852394455,-0.487938572884,-0.391130620391,-0.487072954048
1000000000.0,-0.442140644135,-0.495660999197,0.557842239291,-0.496623403445,0.557842239291,-0.496623403445,-0.442140644135,-0.495660999197
1100000000.0,-0.489381414073,-0.498857804457,0.51060133,-0.49991713473,0.51060133,-0.49991713473,-0.489381414073,-0.498857804457
1200000000.0,-0.53268646628,-0.497851592108,0.467296130175,-0.499007990302,0.467296130175,-0.499007990302,-0.53268646628,-0.497851592108
1300000000.0,-0.572098975496,-0.493646110944,0.427883464806,-0.494899719412,0.427883464806,-0.494899719412,-0.572098975496,-0.493646110944
1400000000.0,-0.607794070692,-0.487064368459,0.392188204704,-0.488415329318,0.392188204704,-0.488415329318,-0.607794070692,-0.487064368459
1500000000.0,-0.640021806675,-0.478766261325,0.359960294869,-0.480214715874,0.359960294869,-0.480214715874,-0.640021806675,-0.478766261325
1600000000.0,-0.669067578569,-0.469271791215,0.33091434002,-0.470817879455,0.33091434002,-0.470817879455,-0.669067578569,-0.469271791215
1700000000.0,-0.695226027344,-0.458984972244,0.304755699042,-0.460628832484,0.304755699042,-0.460628832484,-0.695226027344,-0.458984972244
1800000000.0,-0.718784776979,-0.448215888974,0.281196747836,-0.449957657516,0.281196747836,-0.449957657516,-0.718784776979,-0.448215888974
1900000000.0,-0.740015019619,-0.437199829785,0.259966294146,-0.439039640676,0.259966294146,-0.439039640676,-0.740015019619,-0.437199829785
2000000000.0,-0.759166690155,-0.426113255036,0.240814402982,-0.428051239879,0.240814402982,-0.428051239879,-0.759166690155,-0.426113255036
2100000000.0,-0.776466603055,-0.415086787186,0.223514259791,-0.417123075001,0.223514259791,-0.417123075001,-0.776466603055,-0.415086787186
2200000000.0,-0.792118421275,-0.404215594647,0.207862201534,-0.406350311774,0.207862201534,-0.406350311774,-0.792118421275,-0.404215594647
2300000000.0,-0.806303695408,-0.393567591079,0.193676677547,-0.395800861123,0.193676677547,-0.395800861123,-0.806303695408,-0.393567591079
2400000000.0,-0.819183473316,-0.383189853593,0.180796639898,-0.385521797397,0.180796639898,-0.385521797397,-0.819183473316,-0.383189853593
2500000000.0,-0.830900161669,-0.373113615409,0.169079681857,-0.375544351055,0.169079681857,-0.375544351055,-0.830900161669,-0.373113615409
2600000000.0,-0.841579443072,-0.363358131845,0.158400120762,-0.365887774681,0.158400120762,-0.365887774681,-0.841579443072,-0.363358131845
2700000000.0,-0.851332133353,-0.353933663581,0.148647140732,-0.35656232626,0.148647140732,-0.35656232626,-0.851332133353,-0.353933663581
2800000000.0,-0.860255915952,-0.344843772411,0.139723058276,-0.347571564953,0.139723058276,-0.347571564953,-0.860255915952,-0.344843772411
2900000000.0,-0.868436923564,-0.336087083752,0.131541740653,-0.338914113614,0.131541740653,-0.338914113614,-0.868436923564,-0.336087083752
3000000000.0,-0.875951157593,-0.327658636658,0.124027186414,-0.330585008818,0.124027186414,-0.330585008818,-0.875951157593,-0.327658636658
3100000000.0,-0.882865748098,-0.319550915358,0.117112265461,-0.3225767324,0.117112265461,-0.3225767324,-0.882865748098,-0.319550915358
3200000000.0,-0.889240063603,-0.311754635172,0.110737609228,-0.314879997386,0.110737609228,-0.314879997386,-0.889240063603,-0.311754635172
3300000000.0,-0.895126683492,-0.304259339172,0.104850638296,-0.307484344652,0.104850638296,-0.307484344652,-0.895126683492,-0.304259339172
3400000000.0,-0.900572246924,-0.297053849096,0.0994047134682,-0.300378593843,0.0994047134682,-0.300378593843,-0.900572246924,-0.297053849096
3500000000.0,-0.905618192235,-0.290126604084,0.0943583963768,-0.293551182111,0.0943583963768,-0.293551182111,-0.905618192235,-0.290126604084
3600000000.0,-0.910301400016,-0.283465913131,0.0896748063959,-0.286990416571,0.0896748063959,-0.286990416571,-0.910301400016,-0.283465913131
3700000000.0,-0.914654752073,-0.277060141259,0.0853210616893,-0.280684660467,0.0853210616893,-0.280684660467,-0.914654752073,-0.277060141259
3800000000.0,-0.918707617179,-0.270897844797,0.0812677934538,-0.274622468459,0.0812677934538,-0.274622468459,-0.918707617179,-0.270897844797
3900000000.0,-0.922486273347,-0.264967867706,0.0774887236454,-0.268792682939,0.0774887236454,-0.268792682939,-0.922486273347,-0.264967867706
4000000000.0,-0.926014275153,-0.259259408118,0.0739602976605,-0.263184500575,0.0739602976605,-0.263184500575,-0.926014275153,-0.259259408118
4100000000.0,-0.929312773531,-0.253762062215,0.0706613645366,-0.257787516185,0.0706613645366,-0.257787516185,-0.929312773531,-0.253762062215
4200000000.0,-0.932400794506,-0.248465850931,0.0675728982209,-0.252591749436,0.0675728982209,-0.252591749436,-0.932400794506,-0.248465850931
4300000000.0,-0.935295482435,-0.24336123371,0.0646777543315,-0.247587658598,0.0646777543315,-0.247587658598,-0.935295482435,-0.24336123371
4400000000.0,-0.938012312556,-0.238439112616,0.0619604576025,-0.242766144659,0.0619604576025,-0.242766144659,-0.938012312556,-0.238439112616
4500000000.0,-0.940565277005,-0.233690829313,0.059407015871,-0.238118548291,0.059407015871,-0.238118548291,-0.940565277005,-0.233690829313
4600000000.0,-0.94296704785,-0.229108156857,0.0570047570464,-0.233636641644,0.0570047570464,-0.233636641644,-0.94296704785,-0.229108156857
4700000000.0,-0.945229120195,-0.224683287812,0.0547421859961,-0.229312616465,0.0547421859961,-0.229312616465,-0.945229120195,-0.224683287812
4800000000.0,-0.947361938022,-0.220408819837,0.0526088587156,-0.225139069671,0.0526088587156,-0.225139069671,-0.947361938022,-0.220408819837
4900000000.0,-0.949375004995,-0.21627773961,0.0505952715141,-0.221108987277,0.0505952715141,-0.221108987277,-0.949375004995,-0.21627773961
5000000000.0,-0.951276982216,-0.212283405772,0.0486927632658,-0.217215727336,0.0486927632658,-0.217215727336,-0.951276982216,-0.212283405772
5100000000.0,-0.953075774587,-0.208419531382,0.0468934290444,-0.21345300239,0.0468934290444,-0.21345300239,-0.953075774587,-0.208419531382
5200000000.0,-0.954778607241,-0.204680166269,0.045190043691,-0.209814861817,0.045190043691,-0.209814861817,-0.954778607241,-0.204680166269
5300000000.0,-0.956392093296,-0.20105967955,0.0435759940632,-0.206295674352,0.0435759940632,-0.206295674352,-0.956392093296,-0.20105967955
5400000000.0,-0.957922294006,-0.197552742519,0.0420452188824,-0.202890110967,0.0420452188824,-0.202890110967,-0.957922294006,-0.197552742519
5500000000.0,-0.959374772253,-0.19415431206,0.0405921552417,-0.199593128286,0.0405921552417,-0.199593128286,-0.959374772253,-0.19415431206
5600000000.0,-0.960754640191,-0.190859614659,0.039211690963,-0.19639995259,0.039211690963,-0.19639995259,-0.960754640191,-0.190859614659
5700000000.0,-0.962066601743,-0.187664131099,0.037899122097,-0.193306064514,0.037899122097,-0.193306064514,-0.962066601743,-0.187664131099
5800000000.0,-0.963314990576,-0.184563581868,0.0366501149527,-0.19030718445,0.0366501149527,-0.19030718445,-0.963314990576,-0.184563581868
5900000000.0,-0.964503804071,-0.181553913287,0.0354606721235,-0.187399258674,0.0354606721235,-0.187399258674,-0.964503804071,-0.181553913287
6000000000.0,-0.965636733768,-0.178631284378,0.0343271020435,-0.184578446207,0.0343271020435,-0.184578446207,-0.965636733768,-0.178631284378
6100000000.0,-0.966717192687,-0.175792054442,0.0332459916674,-0.1818411064,0.0332459916674,-0.1818411064,-0.966717192687,-0.175792054442
6200000000.0,-0.967748339878,-0.17303277135,0.0322141819196,-0.179183787215,0.0322141819196,-0.179183787215,-0.967748339878,-0.17303277135
6300000000.0,-0.968733102516,-0.170350160505,0.0312287455992,-0.176603214187,0.0312287455992,-0.176603214187,-0.968733102516,-0.170350160505
6400000000.0,-0.969674195811,-0.167741114464,0.0302869674691,-0.174096280046,0.0302869674691,-0.174096280046,-0.969674195811,-0.167741114464
6500000000.0,-0.970574140976,-0.165202683181,0.0293863262893,-0.171660034957,0.0293863262893,-0.171660034957,-0.970574140976,-0.165202683181
6600000000.0,-0.971435281464,-0.162732064841,0.0285244785819,-0.169291677354,0.0285244785819,-0.169291677354,-0.971435281464,-0.162732064841
6700000000.0,-0.972259797649,-0.160326597264,0.0276992439429,-0.166988545338,0.0276992439429,-0.166988545338,-0.972259797649,-0.160326597264
6800000000.0,-0.973049720141,-0.157983749836,0.0269085917367,-0.164748108609,0.0269085917367,-0.164748108609,-0.973049720141,-0.157983749836
6900000000.0,-0.973806941848,-0.155701115936,0.0261506290273,-0.162567960895,0.0261506290273,-0.162567960895,-0.973806941848,-0.155701115936
7000000000.0,-0.974533228937,-0.153476405848,0.0254235896183,-0.160445812856,0.0254235896183,-0.160445812856,-0.974533228937,-0.153476405848
7100000000.0,-0.975230230802,-0.151307440099,0.0247258240887,-0.158379485428,0.0247258240887,-0.158379485428,-0.975230230802,-0.151307440099
7200000000.0,-0.97589948913,-0.149192143229,0.0240557907224,-0.156366903582,0.0240557907224,-0.156366903582,-0.97589948913,-0.149192143229
7300000000.0,-0.976542446169,-0.147128537937,0.0234120472418,-0.154406090479,0.0234120472418,-0.154406090479,-0.976542446169,-0.147128537937
7400000000.0,-0.977160452269,-0.145114739601,0.0227932432673,-0.152495161982,0.0227932432673,-0.152495161982,-0.977160452269,-0.145114739601
7500000000.0,-0.977754772769,-0.14314895113,0.0221981134293,-0.150632321514,0.0221981134293,-0.150632321514,-0.977754772769,-0.14314895113
7600000000.0,-0.978326594297,-0.141229458147,0.0216254710706,-0.148815855228,0.0216254710706,-0.148815855228,-0.978326594297,-0.141229458147
7700000000.0,-0.97887703053,-0.139354624458,0.0210742024834,-0.147044127487,0.0210742024834,-0.147044127487,-0.97887703053,-0.139354624458
7800000000.0,-0.979407127477,-0.137522887807,0.0205432616277,-0.145315576613,0.0205432616277,-0.145315576613,-0.979407127477,-0.137522887807
7900000000.0,-0.979917868321,-0.13573275589,0.0200316652884,-0.1436287109,0.0200316652884,-0.1436287109,-0.979917868321,-0.13573275589
8000000000.0,-0.980410177866,-0.13398280261,0.0195384886291,-0.141982104869,0.0195384886291,-0.141982104869,-0.980410177866,-0.13398280261
8100000000.0,-0.980884926624,-0.132271664564,0.019062861106,-0.140374395753,0.019062861106,-0.140374395753,-0.980884926624,-0.132271664564
8200000000.0,-0.981342934572,-0.130598037737,0.0186039627099,-0.138804280192,0.0186039627099,-0.138804280192,-0.981342934572,-0.130598037737
8300000000.0,-0.981784974611,-0.128960674397,0.0181610205062,-0.137270511126,0.0181610205062,-0.137270511126,-0.981784974611,-0.128960674397
8400000000.0,-0.982211775756,-0.127358380177,0.0177333054466,-0.135771894878,0.0177333054466,-0.135771894878,-0.982211775756,-0.127358380177
8500000000.0,-0.982624026075,-0.125790011329,0.017320129428,-0.134307288404,0.017320129428,-0.134307288404,-0.982624026075,-0.125790011329
8600000000.0,-0.983022375407,-0.124254472137,0.0169208425784,-0.132875596709,0.0169208425784,-0.132875596709,-0.983022375407,-0.124254472137
8700000000.0,-0.983407437864,-0.122750712485,0.0165348307486,-0.131475770415,0.0165348307486,-0.131475770415,-0.983407437864,-0.122750712485
8800000000.0,-0.983779794159,-0.12127772557,0.0161615131929,-0.130106803467,0.0161615131929,-0.130106803467,-0.983779794159,-0.12127772557
8900000000.0,-0.984139993743,-0.119834545738,0.0158003404227,-0.128767730976,0.0158003404227,-0.128767730976,-0.984139993743,-0.119834545738
9000000000.0,-0.984488556799,-0.118420246452,0.0154507922186,-0.127457627183,0.0154507922186,-0.127457627183,-0.984488556799,-0.118420246452
9100000000.0,-0.984825976084,-0.117033938375,0.0151123757879,-0.126175603541,0.0151123757879,-0.126175603541,-0.984825976084,-0.117033938375
9200000000.0,-0.985152718635,-0.115674767557,0.0147846240549,-0.124920806905,0.0147846240549,-0.124920806905,-0.985152718635,-0.115674767557
9300000000.0,-0.985469227361,-0.114341913731,0.0144670940738,-0.123692417823,0.0144670940738,-0.123692417823,-0.985469227361,-0.114341913731
9400000000.0,-0.985775922514,-0.113034588698,0.0141593655548,-0.122489648925,0.0141593655548,-0.122489648925,-0.985775922514,-0.113034588698
9500000000.0,-0.986073203059,-0.111752034807,0.0138610394927,-0.121311743396,0.0138610394927,-0.121311743396,-0.986073203059,-0.111752034807
9600000000.0,-0.986361447954,-0.110493523512,0.0135717368919,-0.120157973543,0.0135717368919,-0.120157973543,-0.986361447954,-0.110493523512
9700000000.0,-0.986641017332,-0.109258354017,0.0132910975786,-0.119027639429,0.0132910975786,-0.119027639429,-0.986641017332,-0.109258354017
9800000000.0,-0.986912253611,-0.108045851987,0.0130187790946,-0.117920067591,0.0130187790946,-0.117920067591,-0.986912253611,-0.108045851987
9900000000.0,-0.987175482525,-0.10685536833,0.0127544556653,-0.11683460982,0.0127544556653,-0.11683460982,-0.987175482525,-0.10685536833
10000000000.0,-0.987431014087,-0.105686278048,0.0124978172376,-0.11577064201,0.0124978172376,-0.11577064201,-0.987431014087,-0.105686278048
