freq (GHz),S11_real,S11_imag,S21_real,S21_imag,S12_real,S12_imag,S22_real,S22_imag
100000000.0,-0.00027962741469,-0.0163414407583,0.999710938168,-0.0163677111858,0.999710938168,-0.0163677111858,-0.00027962741469,-0.0163414407583
200000000.0,-0.00109756020577,-0.0326545975755,0.998892939857,-0.0327071425519,0.998892939857,-0.0327071425519,-0.00109756020577,-0.0326545975755
300000000.0,-0.00244683085036,-0.0489129026331,0.997543619222,-0.0489917283801,0.997543619222,-0.0489917283801,-0.00244683085036,-0.0489129026331
400000000.0,-0.00432291052925,-0.0650902151886,0.995667496976,-0.0651953295217,0.995667496976,-0.0651953295217,-0.00432291052925,-0.0650902151886
500000000.0,-0.00671958660669,-0.0811609027871,0.993270782649,-0.0812923148486,0.993270782649,-0.0812923148486,-0.00671958660669,-0.0811609027871
600000000.0,-0.00962901769915,-0.097099954181,0.990361316051,-0.0972576742578,0.990361316051,-0.0972576742578,-0.00962901769915,-0.097099954181
700000000.0,-0.0130418006632,-0.112883095113,0.986948499398,-0.113067134498,0.986948499398,-0.113067134498,-0.0130418006632,-0.112883095113
800000000.0,-0.0169470482403,-0.128486899995,0.983043219352,-0.128697270873,0.983043219352,-0.128697270873,-0.0169470482403,-0.128486899995
900000000.0,-0.0213324763817,-0.14388889637,0.978657759553,-0.144125611725,0.978657759553,-0.144125611725,-0.0213324763817,-0.14388889637
1000000000.0,-0.0261845001546,-0.159067660393,0.973805704637,-0.159330733921,0.973805704637,-0.159330733921,-0.0261845001546,-0.159067660393
1100000000.0,-0.0314883369913,-0.174002902104,0.968501836952,-0.174292348144,0.968501836952,-0.174292348144,-0.0314883369913,-0.174002902104
1200000000.0,-0.0372281159685,-0.188675539703,0.962762027251,-0.188991373169,0.962762027251,-0.188991373169,-0.0372281159685,-0.188675539703
1300000000.0,-0.0433869917417,-0.203067762277,0.956603120745,-0.203409998599,0.956603120745,-0.203409998599,-0.0433869917417,-0.203067762277
1400000000.0,-0.049947261758,-0.217163080719,0.950042819879,-0.217531735787,0.950042819879,-0.217531735787,-0.049947261758,-0.217163080719
1500000000.0,-0.0568904853621,-0.230946366717,0.943099565223,-0.231341456832,0.943099565223,-0.231341456832,-0.0568904853621,-0.230946366717
1600000000.0,-0.064197603473,-0.244403879964,0.935792415783,-0.244825421793,0.935792415783,-0.244825421793,-0.064197603473,-0.244403879964
1700000000.0,-0.0718490575518,-0.257523283842,0.92814093004,-0.257971294371,0.92814093004,-0.257971294371,-0.0718490575518,-0.257523283842
1800000000.0,-0.0798249066787,-0.270293650017,0.92016504886,-0.270768146515,0.92016504886,-0.270768146515,-0.0798249066787,-0.270293650017
1900000000.0,-0.0881049416365,-0.282705452507,0.911884981417,-0.283206452487,0.911884981417,-0.283206452487,-0.0881049416365,-0.282705452507
2000000000.0,-0.0966687950306,-0.294750551882,0.903321095069,-0.295278073066,0.903321095069,-0.295278073066,-0.0966687950306,-0.294750551882
2100000000.0,-0.105496046578,-0.306422170371,0.894493810065,-0.306976230658,0.894493810065,-0.306976230658,-0.105496046578,-0.306422170371
2200000000.0,-0.114566322823,-0.317714858676,0.885423499831,-0.318295476113,0.885423499831,-0.318295476113,-0.114566322823,-0.317714858676
2300000000.0,-0.123859390686,-0.328624455404,0.876130397423,-0.329231648155,0.876130397423,-0.329231648155,-0.123859390686,-0.328624455404
2400000000.0,-0.133355244343,-0.339148039977,0.866634508642,-0.3397818263,0.866634508642,-0.3397818263,-0.133355244343,-0.339148039977
2500000000.0,-0.14303418509,-0.349283879979,0.856955532173,-0.3499442782,0.856955532173,-0.3499442782,-0.14303418509,-0.349283879979
2600000000.0,-0.152876893946,-0.359031373821,0.847112786978,-0.359718402311,0.847112786978,-0.359718402311,-0.152876893946,-0.359031373821
2700000000.0,-0.162864496873,-0.368390989633,0.837125147078,-0.369104666785,0.837125147078,-0.369104666785,-0.162864496873,-0.368390989633
2800000000.0,-0.172978622576,-0.377364201236,0.827010983757,-0.378104545448,0.827010983757,-0.378104545448,-0.172978622576,-0.377364201236
2900000000.0,-0.183201452951,-0.38595342202,0.816788115102,-0.386720451675,0.816788115102,-0.386720451675,-0.183201452951,-0.38595342202
3000000000.0,-0.193515766343,-0.394161937497,0.806473762759,-0.394955670946,0.806473762759,-0.394955670946,-0.193515766343,-0.394161937497
3100000000.0,-0.203904973815,-0.401993837234,0.796084515653,-0.402814292778,0.796084515653,-0.402814292778,-0.203904973815,-0.401993837234
3200000000.0,-0.214353148721,-0.40945394683,0.785636300421,-0.41030114271,0.785636300421,-0.41030114271,-0.214353148721,-0.40945394683
3300000000.0,-0.224845049908,-0.416547760514,0.775144358205,-0.417421714893,0.775144358205,-0.417421714893,-0.224845049908,-0.416547760514
3400000000.0,-0.235366138927,-0.423281374891,0.764623227447,-0.424182105842,0.764623227447,-0.424182105842,-0.235366138927,-0.423281374891
3500000000.0,-0.245902591635,-0.429661424284,0.754086732284,-0.430588949779,0.754086732284,-0.430588949779,-0.245902591635,-0.429661424284
3600000000.0,-0.256441304623,-0.43569501807,0.743547976116,-0.43664935597,0.743547976116,-0.43664935597,-0.256441304623,-0.43569501807
3700000000.0,-0.2669698969,-0.441389680331,0.733019339928,-0.442370848375,0.733019339928,-0.442370848375,-0.2669698969,-0.441389680331
3800000000.0,-0.277476707264,-0.446753292094,0.722512484916,-0.44776130789,0.722512484916,-0.44776130789,-0.277476707264,-0.446753292094
3900000000.0,-0.287950787801,-0.451794036358,0.712038358988,-0.452828917375,0.712038358988,-0.452828917375,-0.287950787801,-0.451794036358
4000000000.0,-0.298381893938,-0.456520346083,0.701607206712,-0.457582109643,0.701607206712,-0.457582109643,-0.298381893938,-0.456520346083
4100000000.0,-0.30876047147,-0.46094085524,0.691228582289,-0.462029518512,0.691228582289,-0.462029518512,-0.30876047147,-0.46094085524
4200000000.0,-0.319077640953,-0.465064352989,0.680911365157,-0.466179932983,0.680911365157,-0.466179932983,-0.319077640953,-0.465064352989
4300000000.0,-0.329325179849,-0.468899741025,0.670663777851,-0.470042254586,0.670663777851,-0.470042254586,-0.329325179849,-0.468899741025
4400000000.0,-0.339495502787,-0.472455994071,0.660493405739,-0.473625457873,0.660493405739,-0.473625457873,-0.339495502787,-0.472455994071
4500000000.0,-0.349581640264,-0.47574212349,0.650407218318,-0.476938554032,0.650407218318,-0.476938554032,-0.349581640264,-0.47574212349
4600000000.0,-0.35957721611,-0.478767143955,0.640411591755,-0.47999055756,0.640411591755,-0.47999055756,-0.35957721611,-0.478767143955
4700000000.0,-0.369476423997,-0.481540043095,0.630512332376,-0.482790455902,0.630512332376,-0.482790455902,-0.369476423997,-0.481540043095
4800000000.0,-0.379274003256,-0.484069754011,0.620714700847,-0.485347181976,0.620714700847,-0.485347181976,-0.379274003256,-0.484069754011
4900000000.0,-0.388965214236,-0.486365130553,0.611023436815,-0.487669589445,0.611023436815,-0.487669589445,-0.388965214236,-0.486365130553
5000000000.0,-0.398545813426,-0.488434925231,0.601442783788,-0.489766430629,0.601442783788,-0.489766430629,-0.398545813426,-0.488434925231
5100000000.0,-0.40801202852,-0.490287769629,0.59197651407,-0.491646336921,0.59197651407,-0.491646336921,-0.40801202852,-0.490287769629
5200000000.0,-0.4173605336,-0.491932157171,0.582627953578,-0.493317801554,0.582627953578,-0.493317801554,-0.4173605336,-0.491932157171
5300000000.0,-0.426588424571,-0.49337642812,0.573400006404,-0.494789164596,0.573400006404,-0.494789164596,-0.426588424571,-0.49337642812
5400000000.0,-0.435693194995,-0.49462875664,0.564295178983,-0.496068600019,0.564295178983,-0.496068600019,-0.435693194995,-0.49462875664
5500000000.0,-0.444672712407,-0.495697139796,0.555315603778,-0.497164104692,0.555315603778,-0.497164104692,-0.444672712407,-0.495697139796
5600000000.0,-0.453525195224,-0.496589388345,0.54646306237,-0.498083489179,0.54646306237,-0.498083489179,-0.453525195224,-0.496589388345
5700000000.0,-0.462249190311,-0.497313119179,0.537739007895,-0.498834370178,0.537739007895,-0.498834370178,-0.462249190311,-0.497313119179
5800000000.0,-0.470843551258,-0.497875749284,0.529144586757,-0.499424164479,0.529144586757,-0.499424164479,-0.470843551258,-0.497875749284
5900000000.0,-0.479307417442,-0.498284491092,0.520680659581,-0.49986008432,0.520680659581,-0.49986008432,-0.479307417442,-0.498284491092
6000000000.0,-0.487640193875,-0.49854634909,0.512347821352,-0.500149133998,0.512347821352,-0.500149133998,-0.487640193875,-0.49854634909
6100000000.0,-0.495841531887,-0.498668117588,0.504146420738,-0.50029810763,0.504146420738,-0.50029810763,-0.495841531887,-0.498668117588
6200000000.0,-0.503911310655,-0.498656379508,0.496076578561,-0.500313587947,0.496076578561,-0.500313587947,-0.503911310655,-0.498656379508
6300000000.0,-0.511849619586,-0.49851750611,0.488138205414,-0.50020194602,0.488138205414,-0.50020194602,-0.511849619586,-0.49851750611
6400000000.0,-0.519656741546,-0.498257657542,0.480331018429,-0.499969341808,0.480331018429,-0.499969341808,-0.519656741546,-0.498257657542
6500000000.0,-0.527333136946,-0.497882784132,0.472654557193,-0.499621725454,0.472654557193,-0.499621725454,-0.527333136946,-0.497882784132
6600000000.0,-0.534879428663,-0.497398628322,0.465108198828,-0.499164839214,0.465108198828,-0.499164839214,-0.534879428663,-0.497398628322
6700000000.0,-0.542296387789,-0.49681072718,0.457691172243,-0.498604219972,0.457691172243,-0.498604219972,-0.542296387789,-0.49681072718
6800000000.0,-0.549584920176,-0.496124415398,0.450402571583,-0.497945202242,0.450402571583,-0.497945202242,-0.549584920176,-0.496124415398
6900000000.0,-0.556746053778,-0.495344828729,0.443241368893,-0.497192921594,0.443241368893,-0.497192921594,-0.556746053778,-0.495344828729
7000000000.0,-0.563780926747,-0.494476907774,0.436206426022,-0.496352318453,0.436206426022,-0.496352318453,-0.563780926747,-0.494476907774
7100000000.0,-0.570690776262,-0.493525402089,0.429296505788,-0.4954281422,0.429296505788,-0.4954281422,-0.570690776262,-0.493525402089
7200000000.0,-0.577476928073,-0.492494874537,0.422510282441,-0.494424955527,0.422510282441,-0.494424955527,-0.577476928073,-0.492494874537
7300000000.0,-0.584140786718,-0.491389705858,0.415846351444,-0.493347138999,0.415846351444,-0.493347138999,-0.584140786718,-0.491389705858
7400000000.0,-0.590683826395,-0.490214099388,0.409303238596,-0.492198895787,0.409303238596,-0.492198895787,-0.590683826395,-0.490214099388
7500000000.0,-0.597107582456,-0.488972085923,0.402879408545,-0.49098425652,0.402879408545,-0.49098425652,-0.597107582456,-0.488972085923
7600000000.0,-0.603413643491,-0.487667528659,0.3965732727,-0.489707084229,0.3965732727,-0.489707084229,-0.603413643491,-0.487667528659
7700000000.0,-0.60960364398,-0.486304128199,0.390383196581,-0.488371079355,0.390383196581,-0.488371079355,-0.60960364398,-0.486304128199
7800000000.0,-0.615679257475,-0.484885427591,0.384307506635,-0.486979784789,0.384307506635,-0.486979784789,-0.615679257475,-0.484885427591
7900000000.0,-0.621642190294,-0.483414817376,0.378344496544,-0.485536590915,0.378344496544,-0.485536590915,-0.621642190294,-0.483414817376
8000000000.0,-0.627494175687,-0.481895540622,0.372492433058,-0.484044740646,0.372492433058,-0.484044740646,-0.627494175687,-0.481895540622
8100000000.0,-0.63323696846,-0.480330697923,0.366749561369,-0.482507334425,0.366749561369,-0.482507334425,-0.63323696846,-0.480330697923
8200000000.0,-0.638872340025,-0.478723252352,0.361114110065,-0.480927335175,0.361114110065,-0.480927335175,-0.638872340025,-0.478723252352
8300000000.0,-0.644402073846,-0.477076034352,0.355584295683,-0.479307573192,0.355584295683,-0.479307573192,-0.644402073846,-0.477076034352
8400000000.0,-0.649827961262,-0.475391746549,0.350158326882,-0.477650750958,0.350158326882,-0.477650750958,-0.649827961262,-0.475391746549
8500000000.0,-0.65515179767,-0.473672968477,0.344834408264,-0.475959447867,0.344834408264,-0.475959447867,-0.65515179767,-0.473672968477
8600000000.0,-0.660375379032,-0.471922161219,0.339610743869,-0.474236124861,0.339610743869,-0.474236124861,-0.660375379032,-0.471922161219
8700000000.0,-0.665500498689,-0.470141671934,0.334485540353,-0.472483128961,0.334485540353,-0.472483128961,-0.665500498689,-0.470141671934
8800000000.0,-0.670528944475,-0.46833373828,0.329457009885,-0.470702697692,0.329457009885,-0.470702697692,-0.670528944475,-0.46833373828
8900000000.0,-0.675462496087,-0.466500492732,0.324523372763,-0.468896963398,0.324523372763,-0.468896963398,-0.675462496087,-0.466500492732
9000000000.0,-0.680302922721,-0.464643966773,0.319682859796,-0.46706795743,0.319682859796,-0.46706795743,-0.680302922721,-0.464643966773
9100000000.0,-0.685051980925,-0.462766094972,0.314933714432,-0.465217614232,0.314933714432,-0.465217614232,-0.685051980925,-0.462766094972
9200000000.0,-0.689711412687,-0.460868718943,0.310274194683,-0.463347775292,0.310274194683,-0.463347775292,-0.689711412687,-0.460868718943
9300000000.0,-0.694282943713,-0.458953591177,0.305702574845,-0.461460192979,0.305702574845,-0.461460192979,-0.694282943713,-0.458953591177
9400000000.0,-0.698768281895,-0.457022378755,0.301217147024,-0.459556534255,0.301217147024,-0.459556534255,-0.698768281895,-0.457022378755
9500000000.0,-0.703169115956,-0.455076666943,0.296816222497,-0.457638384266,0.296816222497,-0.457638384266,-0.703169115956,-0.455076666943
9600000000.0,-0.707487114252,-0.453117962655,0.292498132908,-0.455707249813,0.292498132908,-0.455707249813,-0.707487114252,-0.453117962655
9700000000.0,-0.711723923725,-0.451147697807,0.288261231315,-0.453764562697,0.288261231315,-0.453764562697,-0.711723923725,-0.451147697807
9800000000.0,-0.71588116899,-0.449167232545,0.284103893102,-0.451811682955,0.284103893102,-0.451811682955,-0.71588116899,-0.449167232545
9900000000.0,-0.71996045155,-0.447177858361,0.280024516767,-0.449849901969,0.280024516767,-0.449849901969,-0.71996045155,-0.447177858361
10000000000.0,-0.723963349129,-0.445180801089,0.276021524585,-0.447880445467,0.276021524585,-0.447880445467,-0.723963349129,-0.445180801089
