freq (GHz),S11_real,S11_imag,S21_real,S21_imag,S12_real,S12_imag,S22_real,S22_imag
100000000.0,0.00882963140136,0.00218706302538,0.991160906356,-0.00545835005285,0.991160906356,-0.00545835005285,0.00882963140136,0.00218706302538
200000000.0,0.00892257446995,0.00437295131222,0.991048767152,-0.0109155314691,0.991048767152,-0.0109155314691,0.00892257446995,0.00437295131222
300000000.0,0.00902419932509,0.00655773703759,0.990917211077,-0.016371624522,0.990917211077,-0.016371624522,0.00902419932509,0.00655773703759
400000000.0,0.00914209320213,0.00874125749942,0.99075864943,-0.0218264701653,0.99075864943,-0.0218264701653,0.00914209320213,0.00874125749942
500000000.0,0.0092791675015,0.0109232957786,0.990570169041,-0.0272798528901,0.990570169041,-0.0272798528901,0.0092791675015,0.0109232957786
600000000.0,0.00943689594325,0.0131036112211,0.990350294116,-0.0327315319762,0.990350294116,-0.0327315319762,0.00943689594325,0.0131036112211
700000000.0,0.00961613770776,0.0152819503973,0.990098163101,-0.0381812528432,0.990098163101,-0.0381812528432,0.00961613770776,0.0152819503973
800000000.0,0.00981743783236,0.0174580522026,0.989813228292,-0.0436287523858,0.989813228292,-0.0436287523858,0.00981743783236,0.0174580522026
900000000.0,0.01004116095,0.0196316506167,0.989495122098,-0.0490737618855,0.989495122098,-0.0490737618855,0.01004116095,0.0196316506167
1000000000.0,0.0102875590721,0.0218024763553,0.989143589264,-0.0545160087709,0.989143589264,-0.0545160087709,0.0102875590721,0.0218024763553
1100000000.0,0.0105568092648,0.0239702579372,0.988758449202,-0.0599552177631,0.988758449202,-0.0599552177631,0.0105568092648,0.0239702579372
1200000000.0,0.0108490360995,0.0261347224155,0.98833957354,-0.0653911116664,0.98833957354,-0.0653911116664,0.0108490360995,0.0261347224155
1300000000.0,0.0111643257786,0.0282955959025,0.987886872004,-0.0708234119411,0.987886872004,-0.0708234119411,0.0111643257786,0.0282955959025
1400000000.0,0.0115027354225,0.0304526039651,0.987400283132,-0.0762518391349,0.987400283132,-0.0762518391349,0.0115027354225,0.0304526039651
1500000000.0,0.0118642994013,0.0326054719297,0.986879767945,-0.0816761132189,0.986879767945,-0.0816761132189,0.0118642994013,0.0326054719297
1600000000.0,0.0122490337855,0.0347539251282,0.986325305504,-0.0870959538582,0.986325305504,-0.0870959538582,0.0122490337855,0.0347539251282
1700000000.0,0.0126569395571,0.0368976890995,0.985736889693,-0.0925110806341,0.985736889693,-0.0925110806341,0.0126569395571,0.0368976890995
1800000000.0,0.0130880049803,0.0390364897598,0.985114526861,-0.0979212132325,0.985114526861,-0.0979212132325,0.0130880049803,0.0390364897598
1900000000.0,0.0135422073868,0.0411700535498,0.98445823403,-0.103326071605,0.98445823403,-0.103326071605,0.0135422073868,0.0411700535498
2000000000.0,0.0140195145444,0.0432981075626,0.983768037535,-0.108725376112,0.983768037535,-0.108725376112,0.0140195145444,0.0432981075626
2100000000.0,0.0145198857237,0.0454203796595,0.983043971956,-0.114118847645,0.983043971956,-0.114118847645,0.0145198857237,0.0454203796595
2200000000.0,0.0150432725413,0.0475365985735,0.98228607928,-0.119506207745,0.98228607928,-0.119506207745,0.0150432725413,0.0475365985735
2300000000.0,0.0155896196362,0.0496464940045,0.981494408222,-0.124887178704,0.981494408222,-0.124887178704,0.0155896196362,0.0496464940045
2400000000.0,0.0161588652183,0.0517497967078,0.980669013682,-0.130261483656,0.980669013682,-0.130261483656,0.0161588652183,0.0517497967078
2500000000.0,0.01675094152,0.0538462385761,0.979809956294,-0.135628846676,0.979809956294,-0.135628846676,0.01675094152,0.0538462385761
2600000000.0,0.0173657751708,0.0559355527169,0.978917302053,-0.140988992852,0.978917302053,-0.140988992852,0.0173657751708,0.0559355527169
2700000000.0,0.0180032875125,0.0580174735263,0.977991122,-0.146341648371,0.977991122,-0.146341648371,0.0180032875125,0.0580174735263
2800000000.0,0.0186633948666,0.0600917367581,0.977031491959,-0.15168654059,0.977031491959,-0.15168654059,0.0186633948666,0.0600917367581
2900000000.0,0.0193460087642,0.0621580795914,0.976038492306,-0.157023398106,0.976038492306,-0.157023398106,0.0193460087642,0.0621580795914
3000000000.0,0.0200510361448,0.064216240694,0.975012207774,-0.162351950827,0.975012207774,-0.162351950827,0.0200510361448,0.064216240694
3100000000.0,0.0207783795306,0.0662659602845,0.973952727276,-0.167671930031,0.973952727276,-0.167671930031,0.0207783795306,0.0662659602845
3200000000.0,0.0215279371801,0.0683069801918,0.972860143757,-0.172983068436,0.972860143757,-0.172983068436,0.0215279371801,0.0683069801918
3300000000.0,0.022299603226,0.0703390439131,0.971734554055,-0.178285100253,0.971734554055,-0.178285100253,0.022299603226,0.0703390439131
3400000000.0,0.0230932677978,0.0723618966692,0.97057605878,-0.183577761247,0.97057605878,-0.183577761247,0.0230932677978,0.0723618966692
3500000000.0,0.0239088171351,0.0743752854594,0.9693847622,-0.188860788793,0.9693847622,-0.188860788793,0.0239088171351,0.0743752854594
3600000000.0,0.0247461336892,0.0763789591137,0.968160772145,-0.194133921931,0.968160772145,-0.194133921931,0.0247461336892,0.0763789591137
3700000000.0,0.0256050962187,0.0783726683448,0.96690419991,-0.199396901417,0.96690419991,-0.199396901417,0.0256050962187,0.0783726683448
3800000000.0,0.026485579877,0.0803561657973,0.965615160164,-0.204649469775,0.965615160164,-0.204649469775,0.026485579877,0.0803561657973
3900000000.0,0.0273874562954,0.0823292060972,0.964293770876,-0.209891371347,0.964293770876,-0.209891371347,0.0273874562954,0.0823292060972
4000000000.0,0.0283105936607,0.0842915458986,0.962940153234,-0.21512235234,0.962940153234,-0.21512235234,0.0283105936607,0.0842915458986
4100000000.0,0.0292548567895,0.0862429439301,0.961554431569,-0.220342160875,0.961554431569,-0.220342160875,0.0292548567895,0.0862429439301
4200000000.0,0.0302201071981,0.0881831610401,0.960136733293,-0.225550547031,0.960136733293,-0.225550547031,0.0302201071981,0.0881831610401
4300000000.0,0.0312062031709,0.0901119602404,0.958687188824,-0.230747262887,0.958687188824,-0.230747262887,0.0312062031709,0.0901119602404
4400000000.0,0.0322129998257,0.0920291067492,0.957205931527,-0.23593206257,0.957205931527,-0.23593206257,0.0322129998257,0.0920291067492
4500000000.0,0.0332403491764,0.0939343680324,0.955693097649,-0.241104702295,0.955693097649,-0.241104702295,0.0332403491764,0.0939343680324
4600000000.0,0.0342881001955,0.0958275138447,0.954148826258,-0.246264940402,0.954148826258,-0.246264940402,0.0342881001955,0.0958275138447
4700000000.0,0.0353560988734,0.0977083162686,0.952573259185,-0.251412537401,0.952573259185,-0.251412537401,0.0353560988734,0.0977083162686
4800000000.0,0.036444188278,0.099576549753,0.950966540965,-0.256547256007,0.950966540965,-0.256547256007,0.036444188278,0.099576549753
4900000000.0,0.0375522086118,0.101431991151,0.94932881878,-0.261668861178,0.94932881878,-0.261668861178,0.0375522086118,0.101431991151
5000000000.0,0.0386799972693,0.103274419756,0.947660242403,-0.26677712015,0.947660242403,-0.26677712015,0.0386799972693,0.103274419756
5100000000.0,0.0398273888932,0.105103617336,0.945960964141,-0.271871802475,0.945960964141,-0.271871802475,0.0398273888932,0.105103617336
5200000000.0,0.0409942154294,0.10691936817,0.944231138783,-0.276952680049,0.944231138783,-0.276952680049,0.0409942154294,0.10691936817
5300000000.0,0.0421803061827,0.108721459079,0.942470923544,-0.282019527153,0.942470923544,-0.282019527153,0.0421803061827,0.108721459079
5400000000.0,0.0433854878707,0.110509679461,0.94068047801,-0.287072120477,0.94068047801,-0.287072120477,0.0433854878707,0.110509679461
5500000000.0,0.0446095846782,0.112283821319,0.938859964085,-0.292110239155,0.938859964085,-0.292110239155,0.0446095846782,0.112283821319
5600000000.0,0.045852418311,0.114043679293,0.937009545941,-0.297133664793,0.937009545941,-0.297133664793,0.045852418311,0.114043679293
5700000000.0,0.0471138080493,0.11578905069,0.93512938996,-0.302142181497,0.93512938996,-0.302142181497,0.0471138080493,0.11578905069
5800000000.0,0.0483935708009,0.117519735509,0.933219664685,-0.307135575902,0.933219664685,-0.307135575902,0.0483935708009,0.117519735509
5900000000.0,0.0496915211546,0.119235536473,0.931280540766,-0.312113637197,0.931280540766,-0.312113637197,0.0496915211546,0.119235536473
6000000000.0,0.0510074714327,0.12093625905,0.929312190908,-0.31707615715,0.929312190908,-0.31707615715,0.0510074714327,0.12093625905
6100000000.0,0.052341231744,0.122621711482,0.927314789818,-0.322022930133,0.927314789818,-0.322022930133,0.052341231744,0.122621711482
6200000000.0,0.0536926100361,0.124291704808,0.925288514153,-0.326953753145,0.925288514153,-0.326953753145,0.0536926100361,0.124291704808
6300000000.0,0.0550614121483,0.125946052886,0.923233542471,-0.331868425833,0.923233542471,-0.331868425833,0.0550614121483,0.125946052886
6400000000.0,0.0564474418635,0.127584572416,0.921150055174,-0.336766750517,0.921150055174,-0.336766750517,0.0564474418635,0.127584572416
6500000000.0,0.0578505009608,0.129207082962,0.91903823446,-0.341648532203,0.91903823446,-0.341648532203,0.0578505009608,0.129207082962
6600000000.0,0.0592703892675,0.130813406971,0.91689826427,-0.346513578609,0.91689826427,-0.346513578609,0.0592703892675,0.130813406971
6700000000.0,0.0607069047113,0.132403369793,0.914730330238,-0.35136170018,0.914730330238,-0.35136170018,0.0607069047113,0.132403369793
6800000000.0,0.0621598433719,0.133976799698,0.912534619636,-0.356192710103,0.912534619636,-0.356192710103,0.0621598433719,0.133976799698
6900000000.0,0.0636289995334,0.135533527896,0.910311321326,-0.361006424326,0.910311321326,-0.361006424326,0.0636289995334,0.135533527896
7000000000.0,0.0651141657356,0.137073388549,0.908060625706,-0.365802661574,0.908060625706,-0.365802661574,0.0651141657356,0.137073388549
7100000000.0,0.0666151328258,0.138596218789,0.905782724661,-0.370581243356,0.905782724661,-0.370581243356,0.0666151328258,0.138596218789
7200000000.0,0.0681316900106,0.140101858733,0.903477811513,-0.375341993988,0.903477811513,-0.375341993988,0.0681316900106,0.140101858733
7300000000.0,0.0696636249067,0.141590151495,0.901146080963,-0.380084740597,0.901146080963,-0.380084740597,0.0696636249067,0.141590151495
7400000000.0,0.0712107235927,0.143060943199,0.898787729051,-0.384809313134,0.898787729051,-0.384809313134,0.0712107235927,0.143060943199
7500000000.0,0.0727727706602,0.144514082989,0.896402953095,-0.389515544387,0.896402953095,-0.389515544387,0.0727727706602,0.144514082989
7600000000.0,0.0743495492643,0.145949423042,0.893991951647,-0.394203269985,0.893991951647,-0.394203269985,0.0743495492643,0.145949423042
7700000000.0,0.0759408411751,0.147366818575,0.891554924441,-0.398872328412,0.891554924441,-0.398872328412,0.0759408411751,0.147366818575
7800000000.0,0.0775464268278,0.148766127856,0.889092072339,-0.403522561007,0.889092072339,-0.403522561007,0.0775464268278,0.148766127856
7900000000.0,0.0791660853735,0.150147212211,0.886603597288,-0.408153811977,0.886603597288,-0.408153811977,0.0791660853735,0.150147212211
8000000000.0,0.0807995947293,0.15150993603,0.884089702265,-0.412765928398,0.884089702265,-0.412765928398,0.0807995947293,0.15150993603
8100000000.0,0.0824467316283,0.152854166773,0.881550591226,-0.41735876022,0.881550591226,-0.41735876022,0.0824467316283,0.152854166773
8200000000.0,0.0841072716697,0.154179774977,0.878986469063,-0.421932160271,0.878986469063,-0.421932160271,0.0841072716697,0.154179774977
8300000000.0,0.085780989368,0.155486634257,0.876397541549,-0.42648598426,0.876397541549,-0.42648598426,0.085780989368,0.155486634257
8400000000.0,0.087467658203,0.156774621313,0.87378401529,-0.431020090777,0.87378401529,-0.431020090777,0.087467658203,0.156774621313
8500000000.0,0.089167050668,0.158043615928,0.87114609768,-0.435534341294,0.87114609768,-0.435534341294,0.089167050668,0.158043615928
8600000000.0,0.0908789383194,0.159293500974,0.868483996847,-0.440028600167,0.868483996847,-0.440028600167,0.0908789383194,0.159293500974
8700000000.0,0.0926030918251,0.16052416241,0.865797921609,-0.44450273463,0.865797921609,-0.44450273463,0.0926030918251,0.16052416241
8800000000.0,0.0943392810123,0.161735489283,0.863088081424,-0.448956614799,0.863088081424,-0.448956614799,0.0943392810123,0.161735489283
8900000000.0,0.096087274916,0.162927373726,0.860354686344,-0.453390113664,0.860354686344,-0.453390113664,0.096087274916,0.162927373726
9000000000.0,0.0978468418263,0.164099710956,0.857597946967,-0.457803107089,0.857597946967,-0.457803107089,0.0978468418263,0.164099710956
9100000000.0,0.0996177493357,0.165252399275,0.854818074388,-0.462195473806,0.854818074388,-0.462195473806,0.0996177493357,0.165252399275
9200000000.0,0.101399764386,0.166385340062,0.852015280158,-0.466567095409,0.852015280158,-0.466567095409,0.101399764386,0.166385340062
9300000000.0,0.103192653316,0.16749843777,0.84918977623,-0.470917856349,0.84918977623,-0.470917856349,0.103192653316,0.16749843777
9400000000.0,0.104996181905,0.168591599925,0.846341774922,-0.475247643925,0.846341774922,-0.475247643925,0.104996181905,0.168591599925
9500000000.0,0.106810115422,0.169664737114,0.843471488863,-0.479556348282,0.843471488863,-0.479556348282,0.106810115422,0.169664737114
9600000000.0,0.108634218668,0.170717762983,0.840579130954,-0.483843862394,0.840579130954,-0.483843862394,0.108634218668,0.170717762983
9700000000.0,0.110468256023,0.17175059423,0.837664914321,-0.488110082062,0.837664914321,-0.488110082062,0.110468256023,0.17175059423
9800000000.0,0.112311991492,0.172763150595,0.834729052272,-0.492354905901,0.834729052272,-0.492354905901,0.112311991492,0.172763150595
9900000000.0,0.114165188744,0.173755354851,0.83177175825,-0.496578235329,0.83177175825,-0.496578235329,0.114165188744,0.173755354851
10000000000.0,0.116027611162,0.174727132797,0.828793245793,-0.500779974556,0.828793245793,-0.500779974556,0.116027611162,0.174727132797
