freq (GHz),S11_real,S11_imag,S21_real,S21_imag,S12_real,S12_imag,S22_real,S22_imag
100000000.0,0.0131798229163,0.000722322938987,0.986819010726,-0.000890284826346,0.986819010726,-0.000890284826346,0.0131798229163,0.000722322938987
200000000.0,0.0132672580311,0.00144436453689,0.986731380913,-0.00178028915688,0.986731380913,-0.00178028915688,0.0132672580311,0.00144436453689
300000000.0,0.0133326443376,0.00216623700977,0.986665771566,-0.00267012567795,0.986665771566,-0.00267012567795,0.0133326443376,0.00216623700977
400000000.0,0.0133873546647,0.0028879780238,0.986610809853,-0.00355983242362,0.986610809853,-0.00355983242362,0.0133873546647,0.0028879780238
500000000.0,0.0134357823984,0.003609607845,0.986562102386,-0.00444942997647,0.986562102386,-0.00444942997647,0.0134357823984,0.003609607845
600000000.0,0.0134801748084,0.00433113901186,0.986517401893,-0.00533893115817,0.986517401893,-0.00533893115817,0.0134801748084,0.00433113901186
700000000.0,0.0135218633318,0.00505257981438,0.986475376935,-0.00622834451753,0.986475376935,-0.00622834451753,0.0135218633318,0.00505257981438
800000000.0,0.0135617131287,0.00577393590969,0.986435162349,-0.00711767595169,0.986435162349,-0.00711767595169,0.0135617131287,0.00577393590969
900000000.0,0.013600323482,0.00649521119074,0.98639615885,-0.00800692957827,0.98639615885,-0.00800692957827,0.013600323482,0.00649521119074
1000000000.0,0.0136381294913,0.00721640830107,0.986357931335,-0.00889610825272,0.986357931335,-0.00889610825272,0.0136381294913,0.00721640830107
1100000000.0,0.0136754586689,0.00793752896203,0.98632015229,-0.00978521389732,0.98632015229,-0.00978521389732,0.0136754586689,0.00793752896203
1200000000.0,0.013712564701,0.00865857419199,0.986282568025,-0.0106742477219,0.986282568025,-0.0106742477219,0.013712564701,0.00865857419199
1300000000.0,0.0137496487135,0.00937954445954,0.986244977412,-0.011563210378,0.986244977412,-0.011563210378,0.0137496487135,0.00937954445954
1400000000.0,0.0137868732649,0.0101004397942,0.98620721789,-0.0124521020707,0.98620721789,-0.0124521020707,0.0137868732649,0.0101004397942
1500000000.0,0.0138243718923,0.0108212598684,0.986169155918,-0.0133409226412,0.986169155918,-0.0133409226412,0.0138243718923,0.0108212598684
1600000000.0,0.013862255824,0.0115420040605,0.986130680265,-0.0142296716301,0.986130680265,-0.0142296716301,0.013862255824,0.0115420040605
1700000000.0,0.0139006188214,0.0122626715027,0.986091697167,-0.0151183483265,0.986091697167,-0.0151183483265,0.0139006188214,0.0122626715027
1800000000.0,0.0139395407516,0.0129832611194,0.986052126753,-0.0160069518063,0.986052126753,-0.0160069518063,0.0139395407516,0.0129832611194
1900000000.0,0.0139790902728,0.0137037716581,0.986011900362,-0.0168954809637,0.986011900362,-0.0168954809637,0.0139790902728,0.0137037716581
2000000000.0,0.0140193268899,0.014424201714,0.985970958485,-0.017783934536,0.985970958485,-0.017783934536,0.0140193268899,0.014424201714
2100000000.0,0.0140603025495,0.0151445497506,0.985929249173,-0.0186723111244,0.985929249173,-0.0186723111244,0.0140603025495,0.0151445497506
2200000000.0,0.0141020628956,0.0158648141163,0.985886726777,-0.0195606092111,0.985886726777,-0.0195606092111,0.0141020628956,0.0158648141163
2300000000.0,0.0141446482699,0.0165849930587,0.985843350954,-0.020448827174,0.985843350954,-0.020448827174,0.0141446482699,0.0165849930587
2400000000.0,0.0141880945175,0.0173050847368,0.985799085853,-0.0213369632982,0.985799085853,-0.0213369632982,0.0141880945175,0.0173050847368
2500000000.0,0.0142324336416,0.0180250872307,0.985753899469,-0.0222250157871,0.985753899469,-0.0222250157871,0.0142324336416,0.0180250872307
2600000000.0,0.0142776943413,0.0187449985509,0.985707763098,-0.0231129827707,0.985707763098,-0.0231129827707,0.0142776943413,0.0187449985509
2700000000.0,0.0143239024565,0.0194648166452,0.985660650896,-0.0240008623137,0.985660650896,-0.0240008623137,0.0143239024565,0.0194648166452
2800000000.0,0.0143710813385,0.0201845394057,0.985612539509,-0.0248886524219,0.985612539509,-0.0248886524219,0.0143710813385,0.0201845394057
2900000000.0,0.0144192521619,0.020904164674,0.985563407757,-0.0257763510479,0.985563407757,-0.0257763510479,0.0144192521619,0.020904164674
3000000000.0,0.0144684341873,0.0216236902469,0.985513236377,-0.0266639560964,0.985513236377,-0.0266639560964,0.0144684341873,0.0216236902469
3100000000.0,0.0145186449851,0.0223431138799,0.985462007794,-0.0275514654287,0.985462007794,-0.0275514654287,0.0145186449851,0.0223431138799
3200000000.0,0.0145699006271,0.0230624332918,0.985409705932,-0.0284388768666,0.985409705932,-0.0284388768666,0.0145699006271,0.0230624332918
3300000000.0,0.0146222158503,0.0237816461677,0.985356316049,-0.0293261881958,0.985356316049,-0.0293261881958,0.0146222158503,0.0237816461677
3400000000.0,0.0146756041995,0.0245007501623,0.985301824597,-0.0302133971694,0.985301824597,-0.0302133971694,0.0146756041995,0.0245007501623
3500000000.0,0.0147300781498,0.0252197429026,0.985246219097,-0.0311005015102,0.985246219097,-0.0311005015102,0.0147300781498,0.0252197429026
3600000000.0,0.0147856492143,0.0259386219902,0.98518948803,-0.0319874989138,0.98518948803,-0.0319874989138,0.0147856492143,0.0259386219902
3700000000.0,0.014842328038,0.0266573850037,0.985131620749,-0.0328743870504,0.985131620749,-0.0328743870504,0.014842328038,0.0266573850037
3800000000.0,0.0149001244798,0.0273760295007,0.985072607388,-0.0337611635673,0.985072607388,-0.0337611635673,0.0149001244798,0.0273760295007
3900000000.0,0.0149590476856,0.0280945530193,0.985012438799,-0.0346478260902,0.985012438799,-0.0346478260902,0.0149590476856,0.0280945530193
4000000000.0,0.015019106152,0.0288129530802,0.984951106479,-0.0355343722256,0.984951106479,-0.0355343722256,0.015019106152,0.0288129530802
4100000000.0,0.0150803077838,0.029531227188,0.98488860252,-0.0364207995618,0.98488860252,-0.0364207995618,0.0150803077838,0.029531227188
4200000000.0,0.0151426599445,0.0302493728324,0.984824919553,-0.0373071056704,0.984824919553,-0.0373071056704,0.0151426599445,0.0302493728324
4300000000.0,0.0152061695014,0.0309673874896,0.984760050707,-0.0381932881078,0.984760050707,-0.0381932881078,0.0152061695014,0.0309673874896
4400000000.0,0.015270842866,0.0316852686234,0.984693989565,-0.0390793444164,0.984693989565,-0.0390793444164,0.015270842866,0.0316852686234
4500000000.0,0.0153366860309,0.0324030136863,0.98462673013,-0.0399652721252,0.98462673013,-0.0399652721252,0.0153366860309,0.0324030136863
4600000000.0,0.0154037046018,0.0331206201205,0.984558266791,-0.0408510687516,0.984558266791,-0.0408510687516,0.0154037046018,0.0331206201205
4700000000.0,0.0154719038271,0.0338380853585,0.984488594296,-0.0417367318014,0.984488594296,-0.0417367318014,0.0154719038271,0.0338380853585
4800000000.0,0.015541288625,0.0345554068244,0.984417707722,-0.0426222587706,0.984417707722,-0.0426222587706,0.015541288625,0.0345554068244
4900000000.0,0.015611863607,0.0352725819341,0.984345602451,-0.0435076471454,0.984345602451,-0.0435076471454,0.015611863607,0.0352725819341
5000000000.0,0.0156836330999,0.0359896080966,0.984272274153,-0.0443928944034,0.984272274153,-0.0443928944034,0.0156836330999,0.0359896080966
5100000000.0,0.0157566011662,0.036706482714,0.984197718759,-0.0452779980142,0.984197718759,-0.0452779980142,0.0157566011662,0.036706482714
5200000000.0,0.0158307716214,0.0374232031826,0.98412193245,-0.0461629554398,0.98412193245,-0.0461629554398,0.0158307716214,0.0374232031826
5300000000.0,0.0159061480511,0.0381397668933,0.984044911634,-0.0470477641355,0.984044911634,-0.0470477641355,0.0159061480511,0.0381397668933
5400000000.0,0.0159827338262,0.0388561712322,0.983966652937,-0.0479324215503,0.983966652937,-0.0479324215503,0.0159827338262,0.0388561712322
5500000000.0,0.0160605321163,0.0395724135808,0.983887153182,-0.0488169251274,0.983887153182,-0.0488169251274,0.0160605321163,0.0395724135808
5600000000.0,0.0161395459027,0.0402884913167,0.983806409385,-0.0497012723046,0.983806409385,-0.0497012723046,0.0161395459027,0.0402884913167
5700000000.0,0.0162197779902,0.0410044018141,0.983724418734,-0.0505854605152,0.983724418734,-0.0505854605152,0.0162197779902,0.0410044018141
5800000000.0,0.0163012310173,0.0417201424441,0.983641178586,-0.0514694871877,0.983641178586,-0.0514694871877,0.0163012310173,0.0417201424441
5900000000.0,0.016383907467,0.0424357105749,0.983556686453,-0.0523533497468,0.983556686453,-0.0523533497468,0.016383907467,0.0424357105749
6000000000.0,0.0164678096749,0.0431511035724,0.983470939995,-0.0532370456135,0.983470939995,-0.0532370456135,0.0164678096749,0.0431511035724
6100000000.0,0.0165529398387,0.0438663188004,0.983383937008,-0.0541205722054,0.983383937008,-0.0541205722054,0.0165529398387,0.0438663188004
6200000000.0,0.016639300025,0.0445813536209,0.98329567542,-0.0550039269373,0.98329567542,-0.0550039269373,0.016639300025,0.0445813536209
6300000000.0,0.0167268921774,0.0452962053946,0.983206153282,-0.0558871072212,0.983206153282,-0.0558871072212,0.0167268921774,0.0452962053946
6400000000.0,0.0168157181227,0.0460108714808,0.983115368763,-0.0567701104668,0.983115368763,-0.0567701104668,0.0168157181227,0.0460108714808
6500000000.0,0.0169057795774,0.0467253492379,0.983023320141,-0.0576529340817,0.983023320141,-0.0576529340817,0.0169057795774,0.0467253492379
6600000000.0,0.0169970781532,0.0474396360237,0.982930005798,-0.0585355754716,0.982930005798,-0.0585355754716,0.0169970781532,0.0474396360237
6700000000.0,0.0170896153629,0.0481537291956,0.982835424216,-0.0594180320408,0.982835424216,-0.0594180320408,0.0170896153629,0.0481537291956
6800000000.0,0.017183392625,0.0488676261105,0.982739573972,-0.060300301192,0.982739573972,-0.060300301192,0.017183392625,0.0488676261105
6900000000.0,0.0172784112686,0.0495813241254,0.982642453731,-0.061182380327,0.982642453731,-0.061182380327,0.0172784112686,0.0495813241254
7000000000.0,0.0173746725377,0.0502948205975,0.982544062243,-0.0620642668464,0.982544062243,-0.0620642668464,0.0173746725377,0.0502948205975
7100000000.0,0.0174721775953,0.0510081128843,0.98244439834,-0.0629459581505,0.98244439834,-0.0629459581505,0.0174721775953,0.0510081128843
7200000000.0,0.0175709275274,0.0517211983438,0.982343460931,-0.0638274516387,0.982343460931,-0.0638274516387,0.0175709275274,0.0517211983438
7300000000.0,0.0176709233465,0.0524340743346,0.982241248997,-0.0647087447103,0.982241248997,-0.0647087447103,0.0176709233465,0.0524340743346
7400000000.0,0.0177721659949,0.0531467382164,0.982137761591,-0.0655898347642,0.982137761591,-0.0655898347642,0.0177721659949,0.0531467382164
7500000000.0,0.0178746563479,0.0538591873495,0.982032997831,-0.0664707191995,0.982032997831,-0.0664707191995,0.0178746563479,0.0538591873495
7600000000.0,0.0179783952168,0.0545714190957,0.981926956902,-0.0673513954152,0.981926956902,-0.0673513954152,0.0179783952168,0.0545714190957
7700000000.0,0.0180833833517,0.0552834308178,0.981819638047,-0.068231860811,0.981819638047,-0.068231860811,0.0180833833517,0.0552834308178
7800000000.0,0.0181896214441,0.0559952198801,0.981711040569,-0.0691121127865,0.981711040569,-0.0691121127865,0.0181896214441,0.0559952198801
7900000000.0,0.0182971101295,0.0567067836485,0.981601163828,-0.0699921487424,0.981601163828,-0.0699921487424,0.0182971101295,0.0567067836485
8000000000.0,0.0184058499894,0.0574181194904,0.981490007235,-0.0708719660798,0.981490007235,-0.0708719660798,0.0184058499894,0.0574181194904
8100000000.0,0.018515841554,0.0581292247749,0.981377570256,-0.0717515622005,0.981377570256,-0.0717515622005,0.018515841554,0.0581292247749
8200000000.0,0.0186270853038,0.0588400968732,0.981263852404,-0.0726309345076,0.981263852404,-0.0726309345076,0.0186270853038,0.0588400968732
8300000000.0,0.0187395816718,0.0595507331583,0.981148853241,-0.0735100804051,0.981148853241,-0.0735100804051,0.0187395816718,0.0595507331583
8400000000.0,0.0188533310452,0.0602611310052,0.981032572373,-0.074388997298,0.981032572373,-0.074388997298,0.0188533310452,0.0602611310052
8500000000.0,0.0189683337674,0.0609712877911,0.980915009452,-0.0752676825928,0.980915009452,-0.0752676825928,0.0189683337674,0.0609712877911
8600000000.0,0.0190845901395,0.0616812008955,0.98079616417,-0.0761461336973,0.98079616417,-0.0761461336973,0.0190845901395,0.0616812008955
8700000000.0,0.0192021004219,0.0623908677001,0.980676036262,-0.0770243480207,0.980676036262,-0.0770243480207,0.0192021004219,0.0623908677001
8800000000.0,0.0193208648356,0.0631002855892,0.980554625502,-0.0779023229737,0.980554625502,-0.0779023229737,0.0193208648356,0.0631002855892
8900000000.0,0.019440883564,0.0638094519494,0.980431931699,-0.078780055969,0.980431931699,-0.078780055969,0.019440883564,0.0638094519494
9000000000.0,0.0195621567537,0.0645183641699,0.980307954702,-0.0796575444205,0.980307954702,-0.0796575444205,0.0195621567537,0.0645183641699
9100000000.0,0.0196846845165,0.0652270196426,0.980182694393,-0.0805347857443,0.980182694393,-0.0805347857443,0.0196846845165,0.0652270196426
9200000000.0,0.0198084669299,0.065935415762,0.980056150689,-0.0814117773583,0.980056150689,-0.0814117773583,0.0198084669299,0.065935415762
9300000000.0,0.0199335040385,0.0666435499255,0.979928323539,-0.0822885166823,0.979928323539,-0.0822885166823,0.0199335040385,0.0666435499255
9400000000.0,0.0200597958554,0.0673514195332,0.979799212926,-0.0831650011382,0.979799212926,-0.0831650011382,0.0200597958554,0.0673514195332
9500000000.0,0.0201873423626,0.0680590219883,0.97966881886,-0.0840412281499,0.97966881886,-0.0840412281499,0.0201873423626,0.0680590219883
9600000000.0,0.0203161435127,0.0687663546966,0.979537141384,-0.0849171951436,0.979537141384,-0.0849171951436,0.0203161435127,0.0687663546966
9700000000.0,0.0204461992292,0.0694734150672,0.979404180568,-0.0857928995476,0.979404180568,-0.0857928995476,0.0204461992292,0.0694734150672
9800000000.0,0.0205775094079,0.0701802005122,0.979269936512,-0.0866683387928,0.979269936512,-0.0866683387928,0.0205775094079,0.0701802005122
9900000000.0,0.0207100739174,0.0708867084469,0.979134409339,-0.0875435103121,0.979134409339,-0.0875435103121,0.0207100739174,0.0708867084469
10000000000.0,0.0208438926001,0.0715929362895,0.978997599203,-0.088418411541,0.978997599203,-0.088418411541,0.0208438926001,0.0715929362895
