freq (GHz),S11_real,S11_imag,S21_real,S21_imag,S12_real,S12_imag,S22_real,S22_imag
100000000.0,0.000731058047213,-0.00178147089792,0.999238815422,-0.00494921241724,0.999238815422,-0.00494921241724,0.000731058047213,-0.00178147089792
200000000.0,0.000706379627316,-0.00356286051347,0.999189051463,-0.00989834608945,0.999189051463,-0.00989834608945,0.000706379627316,-0.00356286051347
300000000.0,0.000662769260306,-0.00534402913787,0.999112901285,-0.0148473134151,0.999112901285,-0.0148473134151,0.000662769260306,-0.00534402913787
400000000.0,0.000600870068493,-0.0071248307381,0.999009720511,-0.0197959949784,0.999009720511,-0.0197959949784,0.000600870068493,-0.0071248307381
500000000.0,0.000520930466421,-0.00890511362636,0.998879261159,-0.0247442574138,0.998879261159,-0.0247442574138,0.000520930466421,-0.00890511362636
600000000.0,0.000423078796434,-0.0106847218804,0.99872139738,-0.0296919585546,0.99872139738,-0.0296919585546,0.000423078796433,-0.0106847218804
700000000.0,0.000307393151783,-0.0124634962495,0.998536055908,-0.0346389499154,0.998536055908,-0.0346389499154,0.000307393151783,-0.0124634962495
800000000.0,0.000173926885704,-0.0142412747644,0.998323190764,-0.0395850781385,0.998323190764,-0.0395850781385,0.000173926885704,-0.0142412747644
900000000.0,2.27199938474e-05,-0.0160178931731,0.998082772041,-0.0445301859362,0.998082772041,-0.0445301859362,2.27199938474e-05,-0.0160178931731
1000000000.0,-0.000146195095683,-0.0177931852695,0.99781478026,-0.0494741127523,0.99781478026,-0.0494741127523,-0.000146195095682,-0.0177931852695
1100000000.0,-0.000332790286841,-0.01956698315,0.997519203259,-0.0544166952515,0.997519203259,-0.0544166952515,-0.000332790286841,-0.01956698315
1200000000.0,-0.000537039873908,-0.0213391174223,0.997196034353,-0.0593577676977,0.997196034353,-0.0593577676977,-0.000537039873908,-0.0213391174223
1300000000.0,-0.000758919308429,-0.0231094173785,0.9968452712,-0.064297162256,0.9968452712,-0.064297162256,-0.000758919308429,-0.0231094173785
1400000000.0,-0.000998404379294,-0.0248777111435,0.996466915065,-0.0692347092402,0.996466915065,-0.0692347092402,-0.000998404379294,-0.0248777111435
1500000000.0,-0.00125547064614,-0.0266438258032,0.996060970328,-0.0741702373208,0.996060970328,-0.0741702373208,-0.00125547064614,-0.0266438258032
1600000000.0,-0.00153009303483,-0.0284075875186,0.995627444144,-0.0791035737025,0.995627444144,-0.0791035737025,-0.00153009303483,-0.0284075875186
1700000000.0,-0.00182224554036,-0.030168821628,0.995166346217,-0.0840345442792,0.995166346217,-0.0840345442792,-0.00182224554036,-0.030168821628
1800000000.0,-0.00213190100336,-0.0319273527397,0.99467768862,-0.0889629737704,0.99467768862,-0.0889629737704,-0.00213190100336,-0.0319273527397
1900000000.0,-0.00245903093829,-0.0336830048172,0.994161485684,-0.0938886858434,0.994161485684,-0.0938886858434,-0.00245903093829,-0.0336830048172
2000000000.0,-0.00280360539889,-0.0354356012587,0.993617753903,-0.0988115032231,0.993617753903,-0.0988115032231,-0.00280360539889,-0.0354356012587
2100000000.0,-0.00316559287111,-0.0371849649706,0.993046511872,-0.103731247793,0.993046511872,-0.103731247793,-0.00316559287111,-0.0371849649706
2200000000.0,-0.00354496018675,-0.0389309184378,0.992447780237,-0.108647740689,0.992447780237,-0.108647740689,-0.00354496018675,-0.0389309184378
2300000000.0,-0.00394167245288,-0.0406732837891,0.99182158166,-0.113560802383,0.99182158166,-0.113560802383,-0.00394167245288,-0.0406732837891
2400000000.0,-0.00435569299359,-0.0424118828606,0.991167940788,-0.118470252764,0.991167940788,-0.118470252764,-0.00435569299359,-0.0424118828606
2500000000.0,-0.00478698330163,-0.0441465372558,0.990486884236,-0.123375911215,0.990486884236,-0.123375911215,-0.00478698330163,-0.0441465372558
2600000000.0,-0.00523550299782,-0.0458770684032,0.989778440571,-0.128277596683,0.989778440571,-0.128277596683,-0.00523550299782,-0.0458770684032
2700000000.0,-0.00570120979698,-0.0476032976128,0.989042640296,-0.133175127747,0.989042640296,-0.133175127747,-0.00570120979698,-0.0476032976128
2800000000.0,-0.0061840594792,-0.0493250461295,0.988279515845,-0.138068322681,0.988279515845,-0.138068322681,-0.0061840594792,-0.0493250461295
2900000000.0,-0.00668400586552,-0.0510421351857,0.98748910157,-0.142956999518,0.98748910157,-0.142956999518,-0.00668400586552,-0.0510421351857
3000000000.0,-0.00720100079756,-0.0527543860526,0.98667143374,-0.147840976107,0.98667143374,-0.147840976107,-0.00720100079756,-0.0527543860526
3100000000.0,-0.00773499412032,-0.0544616200894,0.985826550532,-0.152720070171,0.985826550532,-0.152720070171,-0.00773499412032,-0.0544616200894
3200000000.0,-0.00828593366792,-0.056163658792,0.984954492026,-0.157594099363,0.984954492026,-0.157594099363,-0.00828593366792,-0.056163658792
3300000000.0,-0.00885376525182,-0.0578603238403,0.984055300204,-0.162462881317,0.984055300204,-0.162462881317,-0.00885376525182,-0.0578603238403
3400000000.0,-0.00943843265131,-0.0595514371447,0.98312901894,-0.167326233699,0.98312901894,-0.167326233699,-0.00943843265131,-0.0595514371447
3500000000.0,-0.010039877606,-0.0612368208916,0.982175694,-0.17218397426,0.982175694,-0.17218397426,-0.010039877606,-0.0612368208916
3600000000.0,-0.0106580398102,-0.0629162975877,0.981195373034,-0.177035920883,0.981195373034,-0.177035920883,-0.0106580398102,-0.0629162975877
3700000000.0,-0.0112928569088,-0.0645896901041,0.980188105575,-0.18188189163,0.980188105575,-0.18188189163,-0.0112928569088,-0.0645896901041
3800000000.0,-0.0119442644949,-0.0662568217189,0.979153943028,-0.186721704787,0.979153943028,-0.186721704787,-0.0119442644949,-0.0662568217189
3900000000.0,-0.0126121961087,-0.0679175161602,0.978092938671,-0.191555178913,0.978092938671,-0.191555178913,-0.0126121961087,-0.0679175161602
4000000000.0,-0.0132965832377,-0.0695715976467,0.977005147642,-0.196382132879,0.977005147642,-0.196382132879,-0.0132965832377,-0.0695715976467
4100000000.0,-0.0139973553184,-0.0712188909295,0.975890626937,-0.201202385915,0.975890626937,-0.201202385915,-0.0139973553184,-0.0712188909295
4200000000.0,-0.0147144397389,-0.0728592213317,0.974749435402,-0.206015757649,0.974749435402,-0.206015757649,-0.0147144397389,-0.0728592213317
4300000000.0,-0.0154477618423,-0.0744924147886,0.973581633722,-0.210822068152,0.973581633722,-0.210822068152,-0.0154477618423,-0.0744924147886
4400000000.0,-0.0161972449322,-0.0761182978863,0.972387284418,-0.215621137973,0.972387284418,-0.215621137973,-0.0161972449322,-0.0761182978863
4500000000.0,-0.016962810278,-0.0777366979004,0.971166451831,-0.220412788185,0.971166451831,-0.220412788185,-0.016962810278,-0.0777366979004
4600000000.0,-0.0177443771216,-0.0793474428336,0.96991920212,-0.225196840417,0.96991920212,-0.225196840417,-0.0177443771216,-0.0793474428336
4700000000.0,-0.0185418626856,-0.0809503614534,0.968645603247,-0.229973116897,0.968645603247,-0.229973116897,-0.0185418626856,-0.0809503614534
4800000000.0,-0.0193551821814,-0.0825452833284,0.967345724967,-0.234741440488,0.967345724967,-0.234741440488,-0.0193551821814,-0.0825452833284
4900000000.0,-0.0201842488185,-0.084132038865,0.966019638817,-0.239501634721,0.966019638817,-0.239501634721,-0.0201842488185,-0.084132038865
5000000000.0,-0.0210289738151,-0.0857104593425,0.964667418104,-0.244253523838,0.964667418104,-0.244253523838,-0.0210289738151,-0.0857104593425
5100000000.0,-0.0218892664087,-0.0872803769485,0.963289137894,-0.24899693282,0.963289137894,-0.24899693282,-0.0218892664087,-0.0872803769485
5200000000.0,-0.022765033868,-0.0888416248136,0.961884874997,-0.253731687426,0.961884874997,-0.253731687426,-0.022765033868,-0.0888416248136
5300000000.0,-0.0236561815054,-0.0903940370448,0.960454707951,-0.258457614223,0.960454707951,-0.258457614223,-0.0236561815054,-0.0903940370448
5400000000.0,-0.0245626126899,-0.09193744876,0.958998717015,-0.263174540623,0.958998717015,-0.263174540623,-0.0245626126899,-0.09193744876
5500000000.0,-0.0254842288612,-0.09347169612,0.957516984145,-0.267882294915,0.957516984145,-0.267882294915,-0.0254842288612,-0.09347169612
5600000000.0,-0.026420929544,-0.0949966163614,0.956009592988,-0.272580706293,0.956009592988,-0.272580706293,-0.026420929544,-0.0949966163614
5700000000.0,-0.0273726123632,-0.0965120478286,0.954476628856,-0.277269604892,0.954476628856,-0.277269604892,-0.0273726123632,-0.0965120478286
5800000000.0,-0.0283391730598,-0.0980178300047,0.952918178719,-0.281948821814,0.952918178719,-0.281948821814,-0.0283391730598,-0.0980178300047
5900000000.0,-0.0293205055069,-0.099513803543,0.951334331181,-0.286618189163,0.951334331181,-0.286618189163,-0.0293205055069,-0.099513803543
6000000000.0,-0.030316501727,-0.100999810297,0.949725176467,-0.29127754007,0.949725176467,-0.29127754007,-0.030316501727,-0.100999810297
6100000000.0,-0.0313270519093,-0.102475693348,0.948090806404,-0.295926708725,0.948090806404,-0.295926708725,-0.0313270519093,-0.102475693348
6200000000.0,-0.0323520444278,-0.103941297041,0.946431314398,-0.300565530403,0.946431314398,-0.300565530403,-0.0323520444278,-0.103941297041
6300000000.0,-0.03339136586,-0.105396467004,0.944746795423,-0.305193841491,0.944746795423,-0.305193841491,-0.03339136586,-0.105396467004
6400000000.0,-0.0344449010056,-0.106841050184,0.943037345994,-0.309811479517,0.943037345994,-0.309811479517,-0.0344449010056,-0.106841050184
6500000000.0,-0.0355125329066,-0.108274894871,0.941303064153,-0.314418283176,0.941303064153,-0.314418283176,-0.0355125329066,-0.108274894871
6600000000.0,-0.036594142867,-0.109697850724,0.939544049444,-0.319014092353,0.939544049444,-0.319014092353,-0.036594142867,-0.109697850724
6700000000.0,-0.0376896104737,-0.111109768802,0.937760402895,-0.323598748152,0.937760402895,-0.323598748152,-0.0376896104737,-0.111109768802
6800000000.0,-0.0387988136171,-0.112510501584,0.935952226997,-0.328172092917,0.935952226997,-0.328172092917,-0.0387988136171,-0.112510501584
6900000000.0,-0.0399216285128,-0.113899903,0.93411962568,-0.332733970259,0.93411962568,-0.332733970259,-0.0399216285128,-0.113899903
7000000000.0,-0.0410579297233,-0.115277828453,0.932262704294,-0.337284225075,0.932262704294,-0.337284225075,-0.0410579297233,-0.115277828453
7100000000.0,-0.0422075901805,-0.116644134844,0.930381569584,-0.341822703576,0.930381569584,-0.341822703576,-0.0422075901805,-0.116644134844
7200000000.0,-0.043370481208,-0.117998680594,0.928476329669,-0.346349253304,0.928476329669,-0.346349253304,-0.043370481208,-0.117998680594
7300000000.0,-0.0445464725444,-0.119341325671,0.926547094017,-0.350863723157,0.926547094017,-0.350863723157,-0.0445464725444,-0.119341325671
7400000000.0,-0.0457354323669,-0.120671931609,0.924593973425,-0.355365963409,0.924593973425,-0.355365963409,-0.0457354323669,-0.120671931609
7500000000.0,-0.0469372273144,-0.121990361533,0.922617079991,-0.359855825727,0.922617079991,-0.359855825727,-0.0469372273144,-0.121990361533
7600000000.0,-0.0481517225121,-0.123296480177,0.920616527095,-0.364333163196,0.920616527095,-0.364333163196,-0.0481517225121,-0.123296480177
7700000000.0,-0.0493787815959,-0.124590153909,0.918592429369,-0.368797830334,0.918592429369,-0.368797830334,-0.0493787815959,-0.124590153909
7800000000.0,-0.0506182667368,-0.125871250749,0.916544902675,-0.373249683113,0.916544902675,-0.373249683113,-0.0506182667368,-0.125871250749
7900000000.0,-0.0518700386663,-0.12713964039,0.914474064084,-0.377688578973,0.914474064084,-0.377688578973,-0.0518700386663,-0.12713964039
8000000000.0,-0.0531339567013,-0.128395194217,0.912380031842,-0.382114376844,0.912380031842,-0.382114376844,-0.0531339567013,-0.128395194217
8100000000.0,-0.05440987877,-0.129637785323,0.910262925352,-0.38652693716,0.910262925352,-0.38652693716,-0.05440987877,-0.129637785323
8200000000.0,-0.0556976614375,-0.130867288533,0.908122865146,-0.390926121873,0.908122865146,-0.390926121873,-0.0556976614375,-0.130867288533
8300000000.0,-0.0569971599319,-0.132083580416,0.905959972859,-0.395311794475,0.905959972859,-0.395311794475,-0.0569971599319,-0.132083580416
8400000000.0,-0.0583082281707,-0.133286539306,0.903774371203,-0.399683820003,0.903774371203,-0.399683820003,-0.0583082281707,-0.133286539306
8500000000.0,-0.0596307187871,-0.134476045316,0.901566183939,-0.404042065063,0.901566183939,-0.404042065063,-0.0596307187871,-0.134476045316
8600000000.0,-0.0609644831567,-0.135651980355,0.899335535853,-0.408386397837,0.899335535853,-0.408386397837,-0.0609644831567,-0.135651980355
8700000000.0,-0.0623093714248,-0.136814228144,0.897082552731,-0.412716688098,0.897082552731,-0.412716688098,-0.0623093714248,-0.136814228144
8800000000.0,-0.0636652325329,-0.137962674229,0.894807361325,-0.417032807225,0.894807361325,-0.417032807225,-0.0636652325329,-0.137962674229
8900000000.0,-0.0650319142462,-0.139097205997,0.892510089335,-0.421334628209,0.892510089335,-0.421334628209,-0.0650319142462,-0.139097205997
9000000000.0,-0.066409263181,-0.140217712689,0.890190865374,-0.42562202567,0.890190865374,-0.42562202567,-0.066409263181,-0.140217712689
9100000000.0,-0.0677971248323,-0.141324085412,0.887849818948,-0.429894875863,0.887849818948,-0.429894875863,-0.0677971248323,-0.141324085412
9200000000.0,-0.069195343601,-0.142416217154,0.885487080422,-0.434153056692,0.885487080422,-0.434153056692,-0.069195343601,-0.142416217154
9300000000.0,-0.0706037628224,-0.143494002795,0.883102780997,-0.438396447718,0.883102780997,-0.438396447718,-0.0706037628224,-0.143494002795
9400000000.0,-0.0720222247934,-0.144557339117,0.880697052682,-0.442624930165,0.880697052682,-0.442624930165,-0.0720222247934,-0.144557339117
9500000000.0,-0.0734505708008,-0.145606124818,0.878270028264,-0.446838386933,0.878270028264,-0.446838386933,-0.0734505708008,-0.145606124818
9600000000.0,-0.0748886411491,-0.146640260519,0.875821841282,-0.451036702603,0.875821841282,-0.451036702603,-0.0748886411491,-0.146640260519
9700000000.0,-0.0763362751889,-0.147659648776,0.873352626001,-0.455219763442,0.873352626001,-0.455219763442,-0.0763362751889,-0.147659648776
9800000000.0,-0.0777933113448,-0.14866419409,0.870862517381,-0.459387457417,0.870862517381,-0.459387457417,-0.0777933113448,-0.14866419409
9900000000.0,-0.0792595871439,-0.149653802912,0.86835165105,-0.463539674192,0.86835165105,-0.463539674192,-0.0792595871439,-0.149653802912
10000000000.0,-0.0807349392436,-0.150628383656,0.86582016328,-0.467676305139,0.86582016328,-0.467676305139,-0.0807349392436,-0.150628383656
