freq (GHz),S11_real,S11_imag,S21_real,S21_imag,S12_real,S12_imag,S22_real,S22_imag
100000000.0,0.000116044151705,-0.00434004908269,0.999826239103,-0.00537978623956,0.999826239103,-0.00537978623956,0.000116044151705,-0.00434004908269
200000000.0,4.22354520946e-05,-0.00867967768207,0.999748848584,-0.0107592097613,0.999748848584,-0.0107592097613,4.22354520944e-05,-0.00867967768207
300000000.0,-7.85201646657e-05,-0.0130183876692,0.99962393127,-0.0161378074972,0.99962393127,-0.0161378074972,-7.8520164666e-05,-0.0130183876692
400000000.0,-0.000246086205956,-0.0173556397476,0.999451373659,-0.0215150673488,0.999451373659,-0.0215150673488,-0.000246086205956,-0.0173556397476
500000000.0,-0.000460394801763,-0.0216908732163,0.999231147311,-0.0268904521518,0.999231147311,-0.0268904521518,-0.000460394801763,-0.0216908732163
600000000.0,-0.000721392695189,-0.0260235131875,0.998963256187,-0.0322634082216,0.998963256187,-0.0322634082216,-0.000721392695189,-0.0260235131875
700000000.0,-0.00102902722868,-0.0303529744221,0.998647723596,-0.0376333698448,0.998647723596,-0.0376333698448,-0.00102902722868,-0.0303529744221
800000000.0,-0.00138324104688,-0.0346786637488,0.998284587627,-0.0429997620844,0.998284587627,-0.0429997620844,-0.00138324104688,-0.0346786637488
900000000.0,-0.00178396961387,-0.0389999817603,0.997873899252,-0.0483620027279,0.997873899252,-0.0483620027279,-0.00178396961387,-0.0389999817603
1000000000.0,-0.00223113986746,-0.0433163240968,0.997415721451,-0.0537195037457,0.997415721451,-0.0537195037457,-0.00223113986746,-0.0433163240968
1100000000.0,-0.00272466940896,-0.0476270824711,0.996910128796,-0.0590716724455,0.996910128796,-0.0590716724455,-0.00272466940896,-0.0476270824711
1200000000.0,-0.00326446597624,-0.0519316455241,0.996357207248,-0.0644179124259,0.996357207248,-0.0644179124259,-0.00326446597624,-0.0519316455241
1300000000.0,-0.00385042708125,-0.0562293995627,0.995757054055,-0.0697576243907,0.995757054055,-0.0697576243907,-0.00385042708125,-0.0562293995627
1400000000.0,-0.00448243975134,-0.0605197292127,0.995109777719,-0.0750902068641,0.995109777719,-0.0750902068641,-0.00448243975134,-0.0605197292127
1500000000.0,-0.00516038034045,-0.0648020180092,0.994415497971,-0.0804150568316,0.994415497971,-0.0804150568316,-0.00516038034045,-0.0648020180092
1600000000.0,-0.00588411439077,-0.0690756489387,0.993674345777,-0.0857315703243,0.993674345777,-0.0857315703243,-0.00588411439077,-0.0690756489387
1700000000.0,-0.00665349653249,-0.0733400049438,0.992886463326,-0.0910391429597,0.992886463326,-0.0910391429597,-0.00665349653249,-0.0733400049438
1800000000.0,-0.00746837041391,-0.077594469398,0.992052004033,-0.0963371704465,0.992052004033,-0.0963371704465,-0.00746837041391,-0.077594469398
1900000000.0,-0.0083285686568,-0.0818384265555,0.991171132521,-0.101625049061,0.991171132521,-0.101625049061,-0.0083285686568,-0.0818384265555
2000000000.0,-0.00923391283312,-0.0860712619802,0.990244024607,-0.1069021761,0.990244024607,-0.1069021761,-0.00923391283312,-0.0860712619802
2100000000.0,-0.0101842134607,-0.090292362958,0.989270867269,-0.112167950313,0.989270867269,-0.112167950313,-0.0101842134607,-0.090292362958
2200000000.0,-0.011179270016,-0.0945011188929,0.988251858613,-0.117421772315,0.988251858613,-0.117421772315,-0.011179270016,-0.0945011188929
2300000000.0,-0.0122188709619,-0.0986969216903,0.987187207818,-0.122663044989,0.987187207818,-0.122663044989,-0.0122188709619,-0.0986969216903
2400000000.0,-0.0133027937904,-0.102879166127,0.986077135083,-0.127891173867,0.986077135083,-0.127891173867,-0.0133027937904,-0.102879166127
2500000000.0,-0.0144308050783,-0.107047250213,0.984921871557,-0.133105567509,0.984921871557,-0.133105567509,-0.0144308050783,-0.107047250213
2600000000.0,-0.0156026605553,-0.111200575537,0.983721659256,-0.138305637857,0.983721659256,-0.138305637857,-0.0156026605553,-0.111200575537
2700000000.0,-0.0168181051844,-0.11533854761,0.982476750981,-0.143490800591,0.982476750981,-0.143490800591,-0.0168181051844,-0.11533854761
2800000000.0,-0.0180768732538,-0.119460576194,0.981187410214,-0.148660475467,0.981187410214,-0.148660475467,-0.0180768732538,-0.119460576194
2900000000.0,-0.0193786884783,-0.123566075623,0.979853911013,-0.153814086648,0.979853911013,-0.153814086648,-0.0193786884783,-0.123566075623
3000000000.0,-0.0207232641131,-0.127654465118,0.978476537892,-0.158951063026,0.978476537892,-0.158951063026,-0.0207232641131,-0.127654465118
3100000000.0,-0.0221103030755,-0.131725169086,0.977055585696,-0.164070838534,0.977055585696,-0.164070838534,-0.0221103030755,-0.131725169086
3200000000.0,-0.0235394980774,-0.135777617423,0.975591359463,-0.169172852448,0.975591359463,-0.169172852448,-0.0235394980774,-0.135777617423
3300000000.0,-0.025010531766,-0.139811245797,0.974084174285,-0.174256549684,0.974084174285,-0.174256549684,-0.025010531766,-0.139811245797
3400000000.0,-0.026523076874,-0.14382549593,0.972534355151,-0.17932138108,0.972534355151,-0.17932138108,-0.026523076874,-0.14382549593
3500000000.0,-0.0280767963777,-0.147819815867,0.970942236787,-0.184366803679,0.970942236787,-0.184366803679,-0.0280767963777,-0.147819815867
3600000000.0,-0.0296713436628,-0.151793660241,0.969308163492,-0.189392280993,0.969308163492,-0.189392280993,-0.0296713436628,-0.151793660241
3700000000.0,-0.0313063626984,-0.155746490529,0.967632488958,-0.194397283264,0.967632488958,-0.194397283264,-0.0313063626984,-0.155746490529
3800000000.0,-0.0329814882181,-0.159677775295,0.96591557609,-0.199381287718,0.96591557609,-0.199381287718,-0.0329814882181,-0.159677775295
3900000000.0,-0.0346963459079,-0.163586990432,0.964157796817,-0.204343778806,0.964157796817,-0.204343778806,-0.0346963459079,-0.163586990432
4000000000.0,-0.0364505526008,-0.167473619391,0.962359531895,-0.209284248441,0.962359531895,-0.209284248441,-0.0364505526008,-0.167473619391
4100000000.0,-0.0382437164778,-0.171337153403,0.960521170707,-0.21420219622,0.960521170707,-0.21420219622,-0.0382437164778,-0.171337153403
4200000000.0,-0.0400754372746,-0.175177091692,0.958643111055,-0.219097129645,0.958643111055,-0.219097129645,-0.0400754372746,-0.175177091692
4300000000.0,-0.041945306494,-0.178992941682,0.956725758944,-0.223968564331,0.956725758944,-0.223968564331,-0.041945306494,-0.178992941682
4400000000.0,-0.0438529076239,-0.182784219191,0.954769528368,-0.228816024205,0.954769528368,-0.228816024205,-0.0438529076239,-0.182784219191
4500000000.0,-0.0457978163598,-0.186550448619,0.952774841084,-0.2336390417,0.952774841084,-0.2336390417,-0.0457978163598,-0.186550448619
4600000000.0,-0.0477796008321,-0.19029116313,0.950742126385,-0.238437157933,0.950742126385,-0.238437157933,-0.0477796008321,-0.19029116313
4700000000.0,-0.049797821838,-0.194005904822,0.948671820868,-0.243209922886,0.948671820868,-0.243209922886,-0.049797821838,-0.194005904822
4800000000.0,-0.0518520330767,-0.197694224889,0.946564368198,-0.247956895564,0.946564368198,-0.247956895564,-0.0518520330767,-0.197694224889
4900000000.0,-0.053941781389,-0.201355683774,0.944420218869,-0.252677644156,0.944420218869,-0.252677644156,-0.053941781389,-0.201355683774
5000000000.0,-0.056066607,-0.204989851315,0.942239829958,-0.257371746182,0.942239829958,-0.257371746182,-0.056066607,-0.204989851315
5100000000.0,-0.0582260437643,-0.208596306881,0.940023664885,-0.262038788632,0.940023664885,-0.262038788632,-0.0582260437643,-0.208596306881
5200000000.0,-0.0604196194151,-0.212174639503,0.937772193158,-0.266678368095,0.937772193158,-0.266678368095,-0.0604196194151,-0.212174639503
5300000000.0,-0.0626468558142,-0.215724447986,0.935485890126,-0.271290090883,0.935485890126,-0.271290090883,-0.0626468558142,-0.215724447986
5400000000.0,-0.0649072692056,-0.219245341028,0.933165236724,-0.27587357314,0.933165236724,-0.27587357314,-0.0649072692056,-0.219245341028
5500000000.0,-0.0672003704698,-0.222736937317,0.930810719219,-0.280428440953,0.930810719219,-0.280428440953,-0.0672003704698,-0.222736937317
5600000000.0,-0.0695256653799,-0.226198865627,0.928422828955,-0.28495433044,0.928422828955,-0.28495433044,-0.0695256653799,-0.226198865627
5700000000.0,-0.0718826548593,-0.229630764901,0.926002062091,-0.289450887842,0.926002062091,-0.289450887842,-0.0718826548593,-0.229630764901
5800000000.0,-0.0742708352399,-0.233032284329,0.923548919349,-0.293917769601,0.923548919349,-0.293917769601,-0.0742708352399,-0.233032284329
5900000000.0,-0.076689698521,-0.236403083419,0.921063905748,-0.29835464243,0.921063905748,-0.29835464243,-0.076689698521,-0.236403083419
6000000000.0,-0.0791387326285,-0.239742832051,0.91854753035,-0.302761183373,0.91854753035,-0.302761183373,-0.0791387326285,-0.239742832051
6100000000.0,-0.0816174216743,-0.243051210535,0.916000305998,-0.307137079862,0.916000305998,-0.307137079862,-0.0816174216743,-0.243051210535
6200000000.0,-0.0841252462157,-0.246327909652,0.913422749057,-0.311482029759,0.913422749057,-0.311482029759,-0.0841252462157,-0.246327909652
6300000000.0,-0.0866616835136,-0.249572630692,0.910815379156,-0.315795741397,0.910815379156,-0.315795741397,-0.0866616835136,-0.249572630692
6400000000.0,-0.0892262077908,-0.252785085479,0.908178718927,-0.320077933608,0.908178718927,-0.320077933608,-0.0892262077908,-0.252785085479
6500000000.0,-0.0918182904892,-0.255964996392,0.905513293753,-0.324328335743,0.905513293753,-0.324328335743,-0.0918182904892,-0.255964996392
6600000000.0,-0.0944374005251,-0.259112096379,0.902819631508,-0.328546687688,0.902819631508,-0.328546687688,-0.0944374005251,-0.259112096379
6700000000.0,-0.0970830045437,-0.262226128963,0.900098262305,-0.33273273987,0.900098262305,-0.33273273987,-0.0970830045437,-0.262226128963
6800000000.0,-0.0997545671721,-0.265306848235,0.897349718239,-0.336886253255,0.897349718239,-0.336886253255,-0.0997545671721,-0.265306848235
6900000000.0,-0.102451551269,-0.268354018849,0.894574533143,-0.34100699934,0.894574533143,-0.34100699934,-0.102451551269,-0.268354018849
7000000000.0,-0.105173418176,-0.271367416003,0.891773242333,-0.345094760139,0.891773242333,-0.345094760139,-0.105173418176,-0.271367416003
7100000000.0,-0.10791962796,-0.274346825416,0.888946382364,-0.349149328157,0.888946382364,-0.349149328157,-0.10791962796,-0.274346825416
7200000000.0,-0.110689639658,-0.277292043297,0.886094490788,-0.353170506364,0.886094490788,-0.353170506364,-0.110689639658,-0.277292043297
7300000000.0,-0.113482911523,-0.280202876305,0.88321810591,-0.357158108155,0.88321810591,-0.357158108155,-0.113482911523,-0.280202876305
7400000000.0,-0.116298901255,-0.283079141511,0.88031776655,-0.36111195731,0.88031776655,-0.36111195731,-0.116298901255,-0.283079141511
7500000000.0,-0.11913706624,-0.285920666343,0.87739401181,-0.365031887946,0.87739401181,-0.365031887946,-0.11913706624,-0.285920666343
7600000000.0,-0.12199686378,-0.288727288533,0.87444738084,-0.368917744457,0.87444738084,-0.368917744457,-0.12199686378,-0.288727288533
7700000000.0,-0.124877751325,-0.29149885605,0.87147841261,-0.372769381456,0.87147841261,-0.372769381456,-0.124877751325,-0.29149885605
7800000000.0,-0.127779186693,-0.294235227037,0.868487645687,-0.376586663708,0.868487645687,-0.376586663708,-0.127779186693,-0.294235227037
7900000000.0,-0.130700628294,-0.296936269735,0.86547561801,-0.380369466055,0.86547561801,-0.380369466055,-0.130700628294,-0.296936269735
8000000000.0,-0.133641535346,-0.299601862402,0.862442866677,-0.384117673338,0.862442866677,-0.384117673338,-0.133641535346,-0.299601862402
8100000000.0,-0.136601368088,-0.302231893231,0.859389927728,-0.387831180316,0.859389927728,-0.387831180316,-0.136601368088,-0.302231893231
8200000000.0,-0.139579587992,-0.304826260261,0.856317335938,-0.391509891573,0.856317335938,-0.391509891573,-0.139579587992,-0.304826260261
8300000000.0,-0.142575657963,-0.307384871278,0.85322562461,-0.395153721427,0.85322562461,-0.395153721427,-0.142575657963,-0.307384871278
8400000000.0,-0.145589042545,-0.309907643721,0.850115325378,-0.398762593829,0.850115325378,-0.398762593829,-0.145589042545,-0.309907643721
8500000000.0,-0.148619208113,-0.312394504574,0.846986968005,-0.402336442265,0.846986968005,-0.402336442265,-0.148619208113,-0.312394504574
8600000000.0,-0.151665623066,-0.314845390263,0.843841080197,-0.405875209641,0.843841080197,-0.405875209641,-0.151665623066,-0.314845390263
8700000000.0,-0.154727758014,-0.317260246538,0.840678187413,-0.409378848179,0.840678187413,-0.409378848179,-0.154727758014,-0.317260246538
8800000000.0,-0.157805085962,-0.319639028359,0.837498812681,-0.412847319296,0.837498812681,-0.412847319296,-0.157805085962,-0.319639028359
8900000000.0,-0.160897082485,-0.321981699779,0.834303476423,-0.416280593487,0.834303476423,-0.416280593487,-0.160897082485,-0.321981699779
9000000000.0,-0.164003225902,-0.324288233817,0.831092696281,-0.419678650202,0.831092696281,-0.419678650202,-0.164003225902,-0.324288233817
9100000000.0,-0.167122997447,-0.32655861233,0.827866986947,-0.423041477719,0.827866986947,-0.423041477719,-0.167122997447,-0.32655861233
9200000000.0,-0.170255881426,-0.328792825889,0.824626860003,-0.426369073016,0.824626860003,-0.426369073016,-0.170255881426,-0.328792825889
9300000000.0,-0.173401365381,-0.330990873638,0.821372823761,-0.429661441636,0.821372823761,-0.429661441636,-0.173401365381,-0.330990873638
9400000000.0,-0.17655894024,-0.333152763167,0.818105383109,-0.432918597554,0.818105383109,-0.432918597554,-0.17655894024,-0.333152763167
9500000000.0,-0.179728100465,-0.335278510364,0.814825039361,-0.436140563038,0.814825039361,-0.436140563038,-0.179728100465,-0.335278510364
9600000000.0,-0.182908344201,-0.337368139281,0.811532290119,-0.439327368508,0.811532290119,-0.439327368508,-0.182908344201,-0.337368139281
9700000000.0,-0.186099173405,-0.339421681989,0.808227629128,-0.442479052394,0.808227629128,-0.442479052394,-0.186099173405,-0.339421681989
9800000000.0,-0.189300093987,-0.341439178431,0.804911546148,-0.445595660991,0.804911546148,-0.445595660991,-0.189300093987,-0.341439178431
9900000000.0,-0.192510615936,-0.343420676278,0.801584526821,-0.448677248312,0.801584526821,-0.448677248312,-0.192510615936,-0.343420676278
10000000000.0,-0.195730253442,-0.345366230777,0.798247052551,-0.451723875941,0.798247052551,-0.451723875941,-0.195730253442,-0.345366230777
