freq (GHz),S11_real,S11_imag,S21_real,S21_imag,S12_real,S12_imag,S22_real,S22_imag
100000000.0,-0.00199690013144,-0.0441862029697,0.997989398835,-0.0442482783971,0.997989398835,-0.0442482783971,-0.00199690013144,-0.0441862029697
200000000.0,-0.0078703353574,-0.0878416276891,0.992115864146,-0.087965802349,0.992115864146,-0.087965802349,-0.0078703353574,-0.0878416276891
300000000.0,-0.0174754259771,-0.130467476733,0.982510693728,-0.130653786328,0.982510693728,-0.130653786328,-0.0174754259771,-0.130467476733
400000000.0,-0.0305920400529,-0.171605204106,0.969394007741,-0.171853693086,0.969394007741,-0.171853693086,-0.0305920400529,-0.171605204106
500000000.0,-0.0469309295792,-0.210851453328,0.953055049672,-0.211162173149,0.953055049672,-0.211162173149,-0.0469309295792,-0.210851453328
600000000.0,-0.0661490471666,-0.24786913453,0.933836864612,-0.248242142409,0.933836864612,-0.248242142409,-0.0661490471666,-0.24786913453
700000000.0,-0.0878663797846,-0.282393995598,0.912119464237,-0.282829353536,0.912119464237,-0.282829353536,-0.0878663797846,-0.282393995598
800000000.0,-0.111682900355,-0.314236683885,0.888302874746,-0.314734457862,0.888302874746,-0.314734457862,-0.111682900355,-0.314236683885
900000000.0,-0.137194416859,-0.343280744483,0.862791287549,-0.343841003766,0.862791287549,-0.343841003766,-0.137194416859,-0.343280744483
1000000000.0,-0.164006394883,-0.369477308988,0.835979236617,-0.370100125537,0.835979236617,-0.370100125537,-0.164006394883,-0.369477308988
1100000000.0,-0.191745176342,-0.392837388615,0.808240379703,-0.393522836555,0.808240379703,-0.393522836555,-0.191745176342,-0.392837388615
1200000000.0,-0.220066355023,-0.413422709794,0.779919122759,-0.414170864955,0.779919122759,-0.414170864955,-0.220066355023,-0.413422709794
1300000000.0,-0.248660355774,-0.431335949152,0.751325040729,-0.432146888655,0.751325040729,-0.432146888655,-0.248660355774,-0.431335949152
1400000000.0,-0.277255475261,-0.446711075744,0.722729836779,-0.447584877638,0.722729836779,-0.447584877638,-0.277255475261,-0.446711075744
1500000000.0,-0.30561877316,-0.459704328787,0.694366451092,-0.460641071727,0.694366451092,-0.460641071727,-0.30561877316,-0.459704328787
1600000000.0,-0.333555261246,-0.470486178881,0.666429871774,-0.471485941836,0.666429871774,-0.471485941836,-0.333555261246,-0.470486178881
1700000000.0,-0.360905839471,-0.479234460322,0.639079198773,-0.480297322327,0.639079198773,-0.480297322327,-0.360905839471,-0.479234460322
1800000000.0,-0.387544390524,-0.486128732754,0.612440549312,-0.48725477268,0.612440549312,-0.48725477268,-0.387544390524,-0.486128732754
1900000000.0,-0.413374384157,-0.491345835197,0.586610453562,-0.492535131559,0.586610453562,-0.492535131559,-0.413374384157,-0.491345835197
2000000000.0,-0.438325273156,-0.495056532722,0.56165945867,-0.496309163502,0.56165945867,-0.496309163502,-0.438325273156,-0.495056532722
2100000000.0,-0.462348893962,-0.497423120451,0.537635728135,-0.498739162949,0.537635728135,-0.498739162949,-0.462348893962,-0.497423120451
2200000000.0,-0.485416022601,-0.498597835159,0.514568485879,-0.499977365867,0.514568485879,-0.499977365867,-0.485416022601,-0.498597835159
2300000000.0,-0.507513183923,-0.49872192533,0.492471207002,-0.500165019815,0.492471207002,-0.500165019815,-0.507513183923,-0.49872192533
2400000000.0,-0.528639770091,-0.49792524077,0.471344499299,-0.499431973582,0.471344499299,-0.499431973582,-0.528639770091,-0.49792524077
2500000000.0,-0.5488054924,-0.496326218599,0.451178651435,-0.497896663195,0.451178651435,-0.497896663195,-0.5488054924,-0.496326218599
2600000000.0,-0.56802816763,-0.494032160466,0.431955846593,-0.495666389138,0.431955846593,-0.495666389138,-0.56802816763,-0.494032160466
2700000000.0,-0.586331824689,-0.491139714023,0.413652055833,-0.492837797849,0.413652055833,-0.492837797849,-0.586331824689,-0.491139714023
2800000000.0,-0.6037451077,-0.487735488774,0.396238635001,-0.489497497574,0.396238635001,-0.489497497574,-0.6037451077,-0.487735488774
2900000000.0,-0.620299946534,-0.483896751606,0.379683654198,-0.485722753909,0.379683654198,-0.485722753909,-0.620299946534,-0.483896751606
3000000000.0,-0.636030463735,-0.47969216032,0.363952990854,-0.481582223342,0.363952990854,-0.481582223342,-0.636030463735,-0.47969216032
3100000000.0,-0.650972086987,-0.475182504317,0.349011217261,-0.477136693945,0.349011217261,-0.477136693945,-0.650972086987,-0.475182504317
3200000000.0,-0.665160837781,-0.470421430351,0.334822311905,-0.472439811134,0.334822311905,-0.472439811134,-0.665160837781,-0.470421430351
3300000000.0,-0.678632769337,-0.465456138205,0.321350221546,-0.467538773354,0.321350221546,-0.467538773354,-0.678632769337,-0.465456138205
3400000000.0,-0.691423529601,-0.460328036531,0.308559298216,-0.462474987917,0.308559298216,-0.462474987917,-0.691423529601,-0.460328036531
3500000000.0,-0.70356802804,-0.455073353152,0.296414632433,-0.45728468132,0.296414632433,-0.45728468132,-0.70356802804,-0.455073353152
3600000000.0,-0.715100187767,-0.449723697186,0.284882301064,-0.451999461363,0.284882301064,-0.451999461363,-0.715100187767,-0.449723697186
3700000000.0,-0.726052767219,-0.444306572477,0.273929545656,-0.446646830591,0.273929545656,-0.446646830591,-0.726052767219,-0.444306572477
3800000000.0,-0.736457237998,-0.438845843403,0.263524894593,-0.441250652099,0.263524894593,-0.441250652099,-0.736457237998,-0.438845843403
3900000000.0,-0.746343707633,-0.433362155107,0.253638240331,-0.435831569773,0.253638240331,-0.435831569773,-0.746343707633,-0.433362155107
4000000000.0,-0.755740877923,-0.427873310865,0.244240881057,-0.430407385651,0.244240881057,-0.430407385651,-0.755740877923,-0.427873310865
4100000000.0,-0.764676031126,-0.422394609649,0.2353055345,-0.424993397498,0.2353055345,-0.424993397498,-0.764676031126,-0.422394609649
4200000000.0,-0.773175037636,-0.416939147129,0.226806330255,-0.4196026998,0.226806330255,-0.4196026998,-0.773175037636,-0.416939147129
4300000000.0,-0.781262379987,-0.411518083315,0.218718785776,-0.414246451415,0.218718785776,-0.414246451415,-0.781262379987,-0.411518083315
4400000000.0,-0.788961188981,-0.406140880027,0.211019770249,-0.408934113041,0.211019770249,-0.408934113041,-0.788961188981,-0.406140880027
4500000000.0,-0.796293288568,-0.400815511165,0.203687459713,-0.403673657485,0.203687459713,-0.403673657485,-0.796293288568,-0.400815511165
4600000000.0,-0.803279246778,-0.395548648602,0.196701286129,-0.398471755559,0.196701286129,-0.398471755559,-0.803279246778,-0.395548648602
4700000000.0,-0.809938430562,-0.390345826291,0.190041882537,-0.393333940188,0.190041882537,-0.393333940188,-0.809938430562,-0.390345826291
4800000000.0,-0.816289062875,-0.385211584977,0.183691025972,-0.388264751118,0.183691025972,-0.388264751118,-0.816289062875,-0.385211584977
4900000000.0,-0.822348280669,-0.380149599667,0.177631579474,-0.383267862393,0.177631579474,-0.383267862393,-0.822348280669,-0.380149599667
5000000000.0,-0.828132192815,-0.375162791825,0.171847434161,-0.378346194543,0.171847434161,-0.378346194543,-0.828132192815,-0.375162791825
5100000000.0,-0.833655937175,-0.370253428035,0.166323452167,-0.373502013251,0.166323452167,-0.373502013251,-0.833655937175,-0.370253428035
5200000000.0,-0.838933736261,-0.365423206714,0.161045410969,-0.368737016065,0.161045410969,-0.368737016065,-0.838933736261,-0.365423206714
5300000000.0,-0.843978951088,-0.360673334276,0.155999949546,-0.364052408559,0.155999949546,-0.364052408559,-0.843978951088,-0.360673334276
5400000000.0,-0.848804132916,-0.356004591979,0.15117451663,-0.359448971185,0.15117451663,-0.359448971185,-0.848804132916,-0.356004591979
5500000000.0,-0.853421072714,-0.351417394589,0.146557321245,-0.354927117932,0.146557321245,-0.354927117932,-0.853421072714,-0.351417394589
5600000000.0,-0.857840848234,-0.346911841808,0.142137285633,-0.350486947755,0.142137285633,-0.350486947755,-0.857840848234,-0.346911841808
5700000000.0,-0.86207386864,-0.342487763356,0.137904000623,-0.346128289654,0.137904000623,-0.346128289654,-0.86207386864,-0.342487763356
5800000000.0,-0.866129916696,-0.338144758453,0.133847683444,-0.341850742164,0.133847683444,-0.341850742164,-0.866129916696,-0.338144758453
5900000000.0,-0.870018188554,-0.333882230396,0.12995913794,-0.337653707919,0.12995913794,-0.337653707919,-0.870018188554,-0.333882230396
6000000000.0,-0.873747331178,-0.329699416801,0.126229717138,-0.333536423901,0.126229717138,-0.333536423901,-0.873747331178,-0.329699416801
6100000000.0,-0.877325477506,-0.325595416045,0.122651288095,-0.329497987883,0.122651288095,-0.329497987883,-0.877325477506,-0.325595416045
6200000000.0,-0.880760279421,-0.321569210377,0.119216198922,-0.325537381531,0.119216198922,-0.325537381531,-0.880760279421,-0.321569210377
6300000000.0,-0.884058938638,-0.317619686083,0.1159172479,-0.321653490578,0.1159172479,-0.321653490578,-0.884058938638,-0.317619686083
6400000000.0,-0.887228235606,-0.313745651076,0.112747654573,-0.317845122406,0.112747654573,-0.317845122406,-0.887228235606,-0.313745651076
6500000000.0,-0.890274556532,-0.309945850222,0.109701032729,-0.314111021376,0.109701032729,-0.314111021376,-0.890274556532,-0.309945850222
6600000000.0,-0.893203918634,-0.306218978669,0.106771365145,-0.310449882155,0.106771365145,-0.310449882155,-0.893203918634,-0.306218978669
6700000000.0,-0.896021993717,-0.302563693437,0.10395298001,-0.3068603613,0.10395298001,-0.3068603613,-0.896021993717,-0.302563693437
6800000000.0,-0.898734130189,-0.29897862346,0.101240528911,-0.303341087309,0.101240528911,-0.303341087309,-0.898734130189,-0.29897862346
6900000000.0,-0.901345373601,-0.295462378289,0.0986289662911,-0.299890669317,0.0986289662911,-0.299890669317,-0.901345373601,-0.295462378289
7000000000.0,-0.903860485812,-0.292013555608,0.0961135302874,-0.296507704614,0.0961135302874,-0.296507704614,-0.903860485812,-0.292013555608
7100000000.0,-0.906283962867,-0.28863074771,0.0936897248498,-0.293190785116,0.0936897248498,-0.293190785116,-0.906283962867,-0.28863074771
7200000000.0,-0.908620051672,-0.285312547063,0.0913533030675,-0.289938502935,0.0913533030675,-0.289938502935,-0.908620051672,-0.285312547063
7300000000.0,-0.910872765548,-0.28205755107,0.0891002516137,-0.286749455138,0.0891002516137,-0.286749455138,-0.910872765548,-0.28205755107
7400000000.0,-0.913045898743,-0.278864366137,0.0869267762367,-0.283622247813,0.0869267762367,-0.283622247813,-0.913045898743,-0.278864366137
7500000000.0,-0.915143039963,-0.275731611118,0.0848292882244,-0.280555499512,0.0848292882244,-0.280555499512,-0.915143039963,-0.275731611118
7600000000.0,-0.917167585004,-0.272657920225,0.082804391776,-0.277547844163,0.082804391776,-0.277547844163,-0.917167585004,-0.272657920225
7700000000.0,-0.919122748536,-0.269641945466,0.080848872218,-0.274597933507,0.080848872218,-0.274597933507,-0.919122748536,-0.269641945466
7800000000.0,-0.921011575097,-0.266682358667,0.0789596850056,-0.27170443912,0.0789596850056,-0.27170443912,-0.921011575097,-0.266682358667
7900000000.0,-0.922836949368,-0.263777853141,0.077133945455,-0.268866054077,0.077133945455,-0.268866054077,-0.922836949368,-0.263777853141
8000000000.0,-0.924601605753,-0.260927145034,0.075368919156,-0.266081494303,0.075368919156,-0.266081494303,-0.924601605753,-0.260927145034
8100000000.0,-0.926308137341,-0.258128974402,0.0736620130163,-0.263349499649,0.0736620130163,-0.263349499649,-0.926308137341,-0.258128974402
8200000000.0,-0.927959004266,-0.255382106044,0.0720107668951,-0.26066883472,0.0720107668951,-0.26066883472,-0.927959004266,-0.255382106044
8300000000.0,-0.929556541534,-0.252685330133,0.0704128457829,-0.25803828951,0.0704128457829,-0.25803828951,-0.929556541534,-0.252685330133
8400000000.0,-0.931102966329,-0.250037462661,0.0688660324913,-0.255456679846,0.0688660324913,-0.255456679846,-0.931102966329,-0.250037462661
8500000000.0,-0.93260038485,-0.247437345732,0.0673682208155,-0.252922847675,0.0673682208155,-0.252922847675,-0.93260038485,-0.247437345732
8600000000.0,-0.93405079871,-0.244883847716,0.065917409138,-0.250435661228,0.065917409138,-0.250435661228,-0.93405079871,-0.244883847716
8700000000.0,-0.93545611092,-0.242375863288,0.0645116944426,-0.247994015049,0.0645116944426,-0.247994015049,-0.93545611092,-0.242375863288
8800000000.0,-0.936818131495,-0.239912313371,0.0631492667094,-0.245596829943,0.0631492667094,-0.245596829943,-0.936818131495,-0.239912313371
8900000000.0,-0.938138582704,-0.237492144987,0.0618284036662,-0.243243052823,0.0618284036662,-0.243243052823,-0.938138582704,-0.237492144987
9000000000.0,-0.939419103983,-0.23511433104,0.06054746587,-0.240931656497,0.06054746587,-0.240931656497,-0.939419103983,-0.23511433104
9100000000.0,-0.940661256551,-0.232777870036,0.0593048920976,-0.238661639384,0.0593048920976,-0.238661639384,-0.940661256551,-0.232777870036
9200000000.0,-0.941866527729,-0.230481785751,0.0580991950233,-0.236432025181,0.0580991950233,-0.236432025181,-0.941866527729,-0.230481785751
9300000000.0,-0.943036334995,-0.228225126855,0.0569289571641,-0.234241862491,0.0569289571641,-0.234241862491,-0.943036334995,-0.228225126855
9400000000.0,-0.944172029788,-0.226006966503,0.0557928270749,-0.232090224409,0.0557928270749,-0.232090224409,-0.944172029788,-0.226006966503
9500000000.0,-0.945274901084,-0.223826401891,0.054689515777,-0.229976208085,0.054689515777,-0.229976208085,-0.945274901084,-0.223826401891
9600000000.0,-0.946346178742,-0.221682553801,0.0536177934032,-0.227898934254,0.0536177934032,-0.227898934254,-0.946346178742,-0.221682553801
9700000000.0,-0.947387036667,-0.219574566111,0.0525764860459,-0.225857546765,0.0525764860459,-0.225857546765,-0.947387036667,-0.219574566111
9800000000.0,-0.948398595763,-0.217501605304,0.051564472795,-0.223851212073,0.051564472795,-0.223851212073,-0.948398595763,-0.217501605304
9900000000.0,-0.949381926723,-0.215462859961,0.0505806829525,-0.221879118744,0.0505806829525,-0.221879118744,-0.949381926723,-0.215462859961
10000000000.0,-0.950338052648,-0.21345754025,0.0496240934116,-0.219940476934,0.0496240934116,-0.219940476934,-0.950338052648,-0.21345754025
