freq (GHz),S11_real,S11_imag,S21_real,S21_imag,S12_real,S12_imag,S22_real,S22_imag
100000000.0,0.00270677100831,9.53324197007e-05,0.99728558096,-0.00291520511386,0.99728558096,-0.00291520511386,0.00270677100831,9.53324197006e-05
200000000.0,0.00272435448704,0.000190555519642,0.997253390394,-0.00583028236333,0.997253390394,-0.00583028236333,0.00272435448704,0.000190555519642
300000000.0,0.00273774650093,0.000285706870851,0.99721743206,-0.00874525702368,0.99721743206,-0.00874525702368,0.00273774650093,0.000285706870851
400000000.0,0.0027492908791,0.000380796232071,0.997175361953,-0.0116601244397,0.997175361953,-0.0116601244397,0.0027492908791,0.000380796232071
500000000.0,0.00275988961892,0.000475827077793,0.9971262779,-0.0145748726101,0.9971262779,-0.0145748726101,0.00275988961892,0.000475827077793
600000000.0,0.00277000232795,0.000570800172542,0.997069720122,-0.0174894861318,0.997069720122,-0.0174894861318,0.00277000232795,0.000570800172542
700000000.0,0.00277990021102,0.00066571483615,0.997005417249,-0.0204039476546,0.997005417249,-0.0204039476546,0.00277990021102,0.00066571483615
800000000.0,0.00278975873829,0.000760569522899,0.996933193658,-0.0233182385714,0.996933193658,-0.0233182385714,0.00278975873829,0.000760569522899
900000000.0,0.00279969889314,0.000855362127672,0.996852928224,-0.0262323393996,0.996852928224,-0.0262323393996,0.00279969889314,0.000855362127672
1000000000.0,0.00280980807317,0.000950090164741,0.996764533424,-0.0291462300111,0.996764533424,-0.0291462300111,0.00280980807317,0.000950090164741
1100000000.0,0.00282015170524,0.00104475087943,0.996667943724,-0.0320598897824,0.996667943724,-0.0320598897824,0.00282015170524,0.00104475087943
1200000000.0,0.0028307801644,0.00113934132186,0.996563108661,-0.0349732976972,0.996563108661,-0.0349732976972,0.0028307801644,0.00113934132186
1300000000.0,0.00284173312547,0.00123385839736,0.996449988493,-0.0378864324202,0.996449988493,-0.0378864324202,0.00284173312547,0.00123385839736
1400000000.0,0.00285304242253,0.00132829890254,0.99632855134,-0.0407992723509,0.99632855134,-0.0407992723509,0.00285304242253,0.00132829890254
1500000000.0,0.0028647339968,0.00142265955134,0.996198771241,-0.0437117956651,0.996198771241,-0.0437117956651,0.0028647339968,0.00142265955134
1600000000.0,0.00287682926423,0.00151693699463,0.996060626783,-0.0466239803467,0.996060626783,-0.0466239803467,0.00287682926423,0.00151693699463
1700000000.0,0.00288934610084,0.00161112783509,0.995914100123,-0.0495358042133,0.995914100123,-0.0495358042133,0.00288934610084,0.00161112783509
1800000000.0,0.00290229956848,0.00170522863871,0.995759176256,-0.0524472449365,0.995759176256,-0.0524472449365,0.00290229956848,0.00170522863871
1900000000.0,0.00291570245982,0.00179923594379,0.995595842476,-0.055358280059,0.995595842476,-0.055358280059,0.00291570245982,0.00179923594379
2000000000.0,0.00292956571469,0.00189314626817,0.99542408796,-0.0582688870082,0.99542408796,-0.0582688870082,0.00292956571469,0.00189314626817
2100000000.0,0.00294389874289,0.00198695611496,0.995243903444,-0.061179043108,0.995243903444,-0.061179043108,0.00294389874289,0.00198695611496
2200000000.0,0.00295870967795,0.00208066197723,0.995055280973,-0.0640887255888,0.995055280973,-0.0640887255888,0.00295870967795,0.00208066197723
2300000000.0,0.0029740055789,0.00217426034189,0.994858213697,-0.0669979115958,0.994858213697,-0.0669979115958,0.0029740055789,0.00217426034189
2400000000.0,0.00298979259266,0.00226774769278,0.994652695712,-0.0699065781967,0.994652695712,-0.0699065781967,0.00298979259266,0.00226774769278
2500000000.0,0.00300607608584,0.00236112051338,0.994438721927,-0.0728147023877,0.994438721927,-0.0728147023877,0.00300607608584,0.00236112051338
2600000000.0,0.00302286075282,0.00245437528894,0.994216287958,-0.0757222610994,0.994216287958,-0.0757222610994,0.00302286075282,0.00245437528894
2700000000.0,0.00304015070506,0.00254750850841,0.993985390039,-0.0786292312015,0.993985390039,-0.0786292312015,0.00304015070506,0.00254750850841
2800000000.0,0.0030579495455,0.00264051666592,0.993746024948,-0.0815355895073,0.993746024948,-0.0815355895073,0.0030579495455,0.00264051666592
2900000000.0,0.00307626043086,0.00273339626218,0.993498189944,-0.0844413127778,0.993498189944,-0.0844413127778,0.00307626043086,0.00273339626218
3000000000.0,0.00309508612436,0.0028261438056,0.993241882717,-0.087346377725,0.993241882717,-0.087346377725,0.00309508612436,0.0028261438056
3100000000.0,0.00311442904044,0.00291875581323,0.992977101345,-0.0902507610149,0.992977101345,-0.0902507610149,0.00311442904044,0.00291875581323
3200000000.0,0.00313429128287,0.00301122881166,0.992703844251,-0.093154439271,0.992703844251,-0.093154439271,0.00313429128287,0.00301122881166
3300000000.0,0.00315467467764,0.00310355933769,0.992422110178,-0.0960573890763,0.992422110178,-0.0960573890763,0.00315467467764,0.00310355933769
3400000000.0,0.00317558080118,0.00319574393897,0.992131898153,-0.0989595869759,0.992131898153,-0.0989595869759,0.00317558080118,0.00319574393897
3500000000.0,0.00319701100489,0.00328777917456,0.991833207471,-0.101861009479,0.991833207471,-0.101861009479,0.00319701100489,0.00328777917456
3600000000.0,0.00321896643653,0.0033796616154,0.99152603767,-0.104761633063,0.99152603767,-0.104761633063,0.00321896643653,0.0033796616154
3700000000.0,0.00324144805887,0.0034713878447,0.991210388511,-0.10766143417,0.991210388511,-0.10766143417,0.00324144805887,0.0034713878447
3800000000.0,0.00326445666602,0.00356295445831,0.990886259967,-0.110560389214,0.990886259967,-0.110560389214,0.00326445666602,0.00356295445831
3900000000.0,0.00328799289794,0.00365435806507,0.990553652205,-0.113458474583,0.990553652205,-0.113458474583,0.00328799289794,0.00365435806507
4000000000.0,0.00331205725313,0.00374559528704,0.990212565577,-0.116355666633,0.990212565577,-0.116355666633,0.00331205725313,0.00374559528704
4100000000.0,0.00333665009996,0.00383666275975,0.989863000603,-0.119251941698,0.989863000603,-0.119251941698,0.00333665009996,0.00383666275975
4200000000.0,0.00336177168677,0.00392755713246,0.989504957971,-0.122147276087,0.989504957971,-0.122147276087,0.00336177168677,0.00392755713246
4300000000.0,0.00338742215077,0.00401827506827,0.989138438518,-0.125041646087,0.989138438518,-0.125041646087,0.00338742215077,0.00401827506827
4400000000.0,0.00341360152615,0.00410881324437,0.98876344323,-0.12793502796,0.98876344323,-0.12793502796,0.00341360152615,0.00410881324437
4500000000.0,0.00344030975126,0.00419916835213,0.988379973233,-0.13082739795,0.988379973233,-0.13082739795,0.00344030975125,0.00419916835213
4600000000.0,0.00346754667508,0.00428933709726,0.987988029783,-0.133718732281,0.987988029783,-0.133718732281,0.00346754667508,0.00428933709726
4700000000.0,0.00349531206313,0.00437931619988,0.987587614268,-0.136609007158,0.987587614268,-0.136609007158,0.00349531206313,0.00437931619989
4800000000.0,0.00352360560269,0.0044691023947,0.987178728196,-0.139498198768,0.987178728196,-0.139498198768,0.00352360560269,0.0044691023947
4900000000.0,0.00355242690764,0.00455869243101,0.986761373195,-0.142386283282,0.986761373195,-0.142386283282,0.00355242690764,0.00455869243101
5000000000.0,0.00358177552281,0.00464808307286,0.986335551006,-0.145273236852,0.986335551006,-0.145273236852,0.00358177552281,0.00464808307286
5100000000.0,0.00361165092795,0.00473727109904,0.985901263483,-0.148159035619,0.985901263483,-0.148159035619,0.00361165092795,0.00473727109904
5200000000.0,0.00364205254132,0.0048262533032,0.985458512584,-0.151043655708,0.985458512584,-0.151043655708,0.00364205254132,0.0048262533032
5300000000.0,0.00367297972305,0.00491502649389,0.985007300374,-0.153927073228,0.985007300374,-0.153927073228,0.00367297972305,0.00491502649389
5400000000.0,0.00370443177809,0.0050035874946,0.98454762902,-0.156809264279,0.98454762902,-0.156809264279,0.00370443177809,0.0050035874946
5500000000.0,0.00373640795908,0.00509193314379,0.984079500788,-0.159690204945,0.984079500788,-0.159690204945,0.00373640795908,0.00509193314379
5600000000.0,0.00376890746884,0.00518006029497,0.983602918039,-0.1625698713,0.983602918039,-0.1625698713,0.00376890746884,0.00518006029497
5700000000.0,0.00380192946273,0.00526796581668,0.983117883232,-0.165448239409,0.983117883232,-0.165448239409,0.00380192946273,0.00526796581668
5800000000.0,0.00383547305086,0.00535564659256,0.982624398916,-0.168325285322,0.982624398916,-0.168325285322,0.00383547305086,0.00535564659256
5900000000.0,0.00386953730007,0.00544309952134,0.982122467735,-0.171200985084,0.982122467735,-0.171200985084,0.00386953730007,0.00544309952134
6000000000.0,0.00390412123576,0.0055303215169,0.981612092419,-0.174075314728,0.981612092419,-0.174075314728,0.00390412123576,0.0055303215169
6100000000.0,0.00393922384367,0.00561730950825,0.981093275789,-0.176948250279,0.981093275789,-0.176948250279,0.00393922384367,0.00561730950825
6200000000.0,0.00397484407143,0.00570406043957,0.980566020751,-0.179819767753,0.980566020751,-0.179819767753,0.00397484407143,0.00570406043957
6300000000.0,0.00401098083006,0.00579057127022,0.980030330298,-0.182689843161,0.980030330298,-0.182689843161,0.00401098083006,0.00579057127022
6400000000.0,0.00404763299538,0.00587683897474,0.979486207508,-0.185558452505,0.979486207508,-0.185558452505,0.00404763299538,0.00587683897474
6500000000.0,0.00408479940927,0.00596286054287,0.978933655541,-0.18842557178,0.978933655541,-0.18842557178,0.00408479940927,0.00596286054287
6600000000.0,0.00412247888088,0.00604863297956,0.978372677641,-0.191291176976,0.978372677641,-0.191291176976,0.00412247888088,0.00604863297956
6700000000.0,0.00416067018778,0.00613415330496,0.977803277132,-0.194155244078,0.977803277132,-0.194155244078,0.00416067018778,0.00613415330496
6800000000.0,0.004199372077,0.00621941855445,0.977225457422,-0.197017749063,0.977225457422,-0.197017749063,0.004199372077,0.00621941855445
6900000000.0,0.00423858326601,0.00630442577863,0.976639221996,-0.199878667908,0.976639221996,-0.199878667908,0.00423858326601,0.00630442577863
7000000000.0,0.00427830244369,0.0063891720433,0.97604457442,-0.20273797658,0.97604457442,-0.20273797658,0.00427830244369,0.0063891720433
7100000000.0,0.00431852827117,0.00647365442952,0.975441518337,-0.205595651048,0.975441518337,-0.205595651048,0.00431852827117,0.00647365442952
7200000000.0,0.00435925938266,0.00655787003355,0.974830057472,-0.208451667274,0.974830057472,-0.208451667274,0.00435925938266,0.00655787003355
7300000000.0,0.00440049438625,0.00664181596688,0.974210195623,-0.211306001218,0.974210195623,-0.211306001218,0.00440049438625,0.00664181596688
7400000000.0,0.00444223186461,0.00672548935623,0.973581936668,-0.214158628837,0.973581936668,-0.214158628837,0.00444223186461,0.00672548935623
7500000000.0,0.00448447037572,0.00680888734355,0.972945284561,-0.217009526086,0.972945284561,-0.217009526086,0.00448447037572,0.00680888734355
7600000000.0,0.00452720845349,0.00689200708599,0.972300243332,-0.219858668919,0.972300243332,-0.219858668919,0.00452720845349,0.00689200708599
7700000000.0,0.00457044460842,0.00697484575593,0.971646817086,-0.222706033289,0.971646817086,-0.222706033289,0.00457044460842,0.00697484575593
7800000000.0,0.00461417732814,0.00705740054097,0.970985010005,-0.225551595145,0.970985010005,-0.225551595145,0.00461417732814,0.00705740054097
7900000000.0,0.00465840507803,0.00713966864393,0.970314826345,-0.22839533044,0.970314826345,-0.22839533044,0.00465840507803,0.00713966864393
8000000000.0,0.00470312630169,0.00722164728283,0.969636270436,-0.231237215122,0.969636270436,-0.231237215122,0.00470312630169,0.00722164728283
8100000000.0,0.0047483394215,0.00730333369088,0.968949346684,-0.234077225143,0.968949346684,-0.234077225143,0.0047483394215,0.00730333369088
8200000000.0,0.00479404283907,0.00738472511652,0.968254059567,-0.236915336453,0.968254059567,-0.236915336453,0.00479404283907,0.00738472511652
8300000000.0,0.00484023493571,0.00746581882338,0.967550413639,-0.239751525005,0.967550413639,-0.239751525005,0.00484023493571,0.00746581882338
8400000000.0,0.00488691407285,0.00754661209026,0.966838413525,-0.24258576675,0.966838413525,-0.24258576675,0.00488691407285,0.00754661209026
8500000000.0,0.00493407859251,0.00762710221117,0.966118063926,-0.245418037643,0.966118063926,-0.245418037643,0.00493407859251,0.00762710221117
8600000000.0,0.00498172681763,0.0077072864953,0.965389369613,-0.24824831364,0.965389369613,-0.24824831364,0.00498172681763,0.0077072864953
8700000000.0,0.00502985705253,0.007787162267,0.964652335433,-0.251076570701,0.964652335433,-0.251076570701,0.00502985705253,0.007787162267
8800000000.0,0.00507846758321,0.00786672686582,0.963906966304,-0.253902784785,0.963906966304,-0.253902784785,0.00507846758321,0.00786672686582
8900000000.0,0.00512755667773,0.00794597764644,0.963153267215,-0.256726931857,0.963153267215,-0.256726931857,0.00512755667773,0.00794597764644
9000000000.0,0.00517712258659,0.00802491197873,0.962391243231,-0.259548987883,0.962391243231,-0.259548987883,0.00517712258659,0.00802491197873
9100000000.0,0.00522716354296,0.0081035272477,0.961620899486,-0.262368928835,0.961620899486,-0.262368928835,0.00522716354296,0.0081035272477
9200000000.0,0.0052776777631,0.00818182085351,0.960842241186,-0.265186730685,0.960842241186,-0.265186730685,0.0052776777631,0.00818182085351
9300000000.0,0.00532866344657,0.00825979021146,0.96005527361,-0.268002369413,0.96005527361,-0.268002369413,0.00532866344657,0.00825979021146
9400000000.0,0.00538011877661,0.00833743275199,0.95926000211,-0.270815821002,0.95926000211,-0.270815821002,0.00538011877661,0.00833743275199
9500000000.0,0.00543204192032,0.00841474592068,0.958456432106,-0.273627061439,0.958456432106,-0.273627061439,0.00543204192032,0.00841474592068
9600000000.0,0.00548443102902,0.00849172717821,0.957644569093,-0.276436066716,0.957644569093,-0.276436066716,0.00548443102902,0.00849172717821
9700000000.0,0.00553728423846,0.0085683740004,0.956824418634,-0.279242812832,0.956824418634,-0.279242812832,0.00553728423846,0.0085683740004
9800000000.0,0.00559059966909,0.00864468387817,0.955995986366,-0.28204727579,0.955995986366,-0.28204727579,0.00559059966909,0.00864468387817
9900000000.0,0.00564437542629,0.00872065431755,0.955159277996,-0.2848494316,0.955159277996,-0.2848494316,0.00564437542629,0.00872065431755
10000000000.0,0.00569860960064,0.00879628283967,0.954314299303,-0.287649256277,0.954314299303,-0.287649256277,0.00569860960064,0.00879628283967
