freq (GHz),S11_real,S11_imag,S21_real,S21_imag,S12_real,S12_imag,S22_real,S22_imag
100000000.0,0.000214216883746,-0.0109481862253,0.999488593611,-0.0124261478888,0.999488593611,-0.0124261478888,0.000214216883747,-0.0109481862253
200000000.0,-0.000202819686984,-0.0218868199882,0.999063362536,-0.0248427926807,0.999063362536,-0.0248427926807,-0.000202819686984,-0.0218868199882
300000000.0,-0.000891798562397,-0.0328067208662,0.998365253839,-0.0372408025194,0.998365253839,-0.0372408025194,-0.000891798562397,-0.0328067208662
400000000.0,-0.00185136581682,-0.043698713689,0.997394995645,-0.0496110420926,0.997394995645,-0.0496110420926,-0.00185136581682,-0.043698713689
500000000.0,-0.00307994935254,-0.0545536715831,0.996153919147,-0.0619444210416,0.996153919147,-0.0619444210416,-0.00307994935254,-0.0545536715831
600000000.0,-0.00457562923721,-0.0653625461925,0.99464382112,-0.074231925541,0.99464382112,-0.074231925541,-0.00457562923721,-0.0653625461925
700000000.0,-0.00633610970871,-0.0761163940017,0.992866924114,-0.0864646452419,0.992866924114,-0.0864646452419,-0.00633610970871,-0.0761163940017
800000000.0,-0.00835871447611,-0.0868064006416,0.990825856451,-0.0986337979248,0.990825856451,-0.0986337979248,-0.00835871447611,-0.0868064006416
900000000.0,-0.0106403904828,-0.0974239037733,0.988523637475,-0.110730752603,0.988523637475,-0.110730752603,-0.0106403904828,-0.0974239037733
1000000000.0,-0.0131777158665,-0.107960414754,0.985963664037,-0.122747051339,0.985963664037,-0.122747051339,-0.0131777158665,-0.107960414754
1100000000.0,-0.0159669105356,-0.118407639142,0.983149696836,-0.134674429855,0.983149696836,-0.134674429855,-0.0159669105356,-0.118407639142
1200000000.0,-0.0190038486472,-0.128757496036,0.980085846103,-0.146504836956,0.980085846103,-0.146504836956,-0.0190038486472,-0.128757496036
1300000000.0,-0.0222840725992,-0.139002136214,0.976776556457,-0.158230452729,0.976776556457,-0.158230452729,-0.0222840725992,-0.139002136214
1400000000.0,-0.0258028082868,-0.149133959029,0.973226590897,-0.169843705492,0.973226590897,-0.169843705492,-0.0258028082868,-0.149133959029
1500000000.0,-0.0295549814369,-0.159145628024,0.969441013951,-0.181337287449,0.969441013951,-0.181337287449,-0.0295549814369,-0.159145628024
1600000000.0,-0.0335352348646,-0.16903008521,0.965425174057,-0.192704169,0.965425174057,-0.192704169,-0.0335352348646,-0.16903008521
1700000000.0,-0.0377379465101,-0.178780563994,0.961184685272,-0.2039376117,0.961184685272,-0.2039376117,-0.0377379465101,-0.178780563994
1800000000.0,-0.0421572481265,-0.188390600706,0.956725408389,-0.21503117981,0.956725408389,-0.21503117981,-0.0421572481265,-0.188390600706
1900000000.0,-0.0467870444904,-0.197854044721,0.952053431587,-0.225978750441,0.952053431587,-0.225978750441,-0.0467870444904,-0.197854044721
2000000000.0,-0.0516210330136,-0.207165067166,0.947175050709,-0.236774522279,0.947175050709,-0.236774522279,-0.0516210330136,-0.207165067166
2100000000.0,-0.0566527236383,-0.216318168203,0.942096749284,-0.247413022884,0.942096749284,-0.247413022884,-0.0566527236383,-0.216318168203
2200000000.0,-0.0618754588991,-0.225308182899,0.936825178395,-0.257889114574,0.936825178395,-0.257889114574,-0.0618754588991,-0.225308182899
2300000000.0,-0.0672824340429,-0.234130285708,0.931367136511,-0.268197998924,0.931367136511,-0.268197998924,-0.0672824340429,-0.234130285708
2400000000.0,-0.0728667170988,-0.242779993577,0.925729549373,-0.27833521988,0.925729549373,-0.27833521988,-0.0728667170988,-0.242779993577
2500000000.0,-0.0786212687976,-0.251253167721,0.91991945004,-0.288296665544,0.91991945004,-0.288296665544,-0.0786212687976,-0.251253167721
2600000000.0,-0.0845389622444,-0.259546014101,0.913943959189,-0.298078568667,0.913943959189,-0.298078568667,-0.0845389622444,-0.259546014101
2700000000.0,-0.0906126022555,-0.267655082654,0.907810265754,-0.307677505885,0.907810265754,-0.307677505885,-0.0906126022555,-0.267655082654
2800000000.0,-0.0968349442752,-0.275577265333,0.901525607989,-0.317090395764,0.901525607989,-0.317090395764,-0.0968349442752,-0.275577265333
2900000000.0,-0.103198712796,-0.283309793005,0.895097255037,-0.326314495714,0.895097255037,-0.326314495714,-0.103198712796,-0.283309793005
3000000000.0,-0.109696619213,-0.290850231284,0.888532489052,-0.335347397821,0.888532489052,-0.335347397821,-0.109696619213,-0.290850231284
3100000000.0,-0.11632137905,-0.298196475357,0.881838587972,-0.344187023683,0.881838587972,-0.344187023683,-0.11632137905,-0.298196475357
3200000000.0,-0.1230657285,-0.305346743871,0.875022808959,-0.352831618308,0.875022808959,-0.352831618308,-0.1230657285,-0.305346743871
3300000000.0,-0.129922440234,-0.312299571966,0.868092372587,-0.361279743144,0.868092372587,-0.361279743144,-0.129922440234,-0.312299571966
3400000000.0,-0.136884338441,-0.319053803511,0.861054447794,-0.369530268329,0.861054447794,-0.369530268329,-0.136884338441,-0.319053803511
3500000000.0,-0.143944313054,-0.325608582637,0.853916137647,-0.377582364223,0.853916137647,-0.377582364223,-0.143944313054,-0.325608582637
3600000000.0,-0.151095333148,-0.331963344622,0.846684465937,-0.385435492301,0.846684465937,-0.385435492301,-0.151095333148,-0.331963344622
3700000000.0,-0.158330459485,-0.338117806217,0.839366364635,-0.393089395487,0.839366364635,-0.393089395487,-0.158330459485,-0.338117806217
3800000000.0,-0.16564285619,-0.344071955489,0.831968662205,-0.400544087995,0.831968662205,-0.400544087995,-0.16564285619,-0.344071955489
3900000000.0,-0.173025801551,-0.349826041231,0.824498072802,-0.407799844749,0.824498072802,-0.407799844749,-0.173025801551,-0.349826041231
4000000000.0,-0.180472697947,-0.355380562045,0.816961186339,-0.414857190467,0.816961186339,-0.414857190467,-0.180472697947,-0.355380562045
4100000000.0,-0.187977080903,-0.360736255133,0.809364459432,-0.421716888457,0.809364459432,-0.421716888457,-0.187977080903,-0.360736255133
4200000000.0,-0.195532627276,-0.365894084879,0.801714207205,-0.428379929204,0.801714207205,-0.428379929204,-0.195532627276,-0.365894084879
4300000000.0,-0.203133162597,-0.370855231284,0.794016595951,-0.434847518808,0.794016595951,-0.434847518808,-0.203133162597,-0.370855231284
4400000000.0,-0.210772667576,-0.375621078306,0.786277636618,-0.441121067327,0.786277636618,-0.441121067327,-0.210772667576,-0.375621078306
4500000000.0,-0.218445283793,-0.380193202168,0.778503179123,-0.447202177091,0.778503179123,-0.447202177091,-0.218445283793,-0.380193202168
4600000000.0,-0.226145318605,-0.384573359682,0.770698907434,-0.453092631026,0.770698907434,-0.453092631026,-0.226145318605,-0.384573359682
4700000000.0,-0.233867249285,-0.388763476639,0.762870335434,-0.458794381049,0.762870335434,-0.458794381049,-0.233867249285,-0.388763476639
4800000000.0,-0.241605726437,-0.392765636309,0.755022803502,-0.464309536573,0.755022803502,-0.464309536573,-0.241605726437,-0.392765636309
4900000000.0,-0.249355576704,-0.396582068097,0.747161475806,-0.469640353163,0.747161475806,-0.469640353163,-0.249355576704,-0.396582068097
5000000000.0,-0.257111804808,-0.400215136385,0.739291338255,-0.474789221383,0.739291338255,-0.474789221383,-0.257111804808,-0.400215136385
5100000000.0,-0.264869594961,-0.403667329593,0.731417197088,-0.479758655861,0.731417197088,-0.479758655861,-0.264869594961,-0.403667329593
5200000000.0,-0.272624311678,-0.406941249503,0.723543678065,-0.484551284612,0.723543678065,-0.484551284612,-0.272624311678,-0.406941249503
5300000000.0,-0.280371500017,-0.410039600852,0.715675226215,-0.489169838638,0.715675226215,-0.489169838638,-0.280371500017,-0.410039600852
5400000000.0,-0.288106885309,-0.412965181233,0.707816106111,-0.493617141831,0.707816106111,-0.493617141831,-0.288106885309,-0.412965181233
5500000000.0,-0.295826372383,-0.415720871313,0.699970402642,-0.497896101192,0.699970402642,-0.497896101192,-0.295826372383,-0.415720871313
5600000000.0,-0.303526044348,-0.418309625399,0.692142022227,-0.502009697401,0.692142022227,-0.502009697401,-0.303526044348,-0.418309625399
5700000000.0,-0.311202160945,-0.42073446234,0.684334694462,-0.505960975721,0.684334694462,-0.505960975721,-0.311202160945,-0.42073446234
5800000000.0,-0.318851156527,-0.422998456803,0.67655197414,-0.50975303728,0.67655197414,-0.50975303728,-0.318851156527,-0.422998456803
5900000000.0,-0.326469637681,-0.42510473092,0.668797243624,-0.513389030712,0.668797243624,-0.513389030712,-0.326469637681,-0.42510473092
6000000000.0,-0.334054380534,-0.427056446296,0.661073715543,-0.516872144179,0.661073715543,-0.516872144179,-0.334054380534,-0.427056446296
6100000000.0,-0.341602327781,-0.428856796418,0.653384435757,-0.520205597772,0.653384435757,-0.520205597772,-0.341602327781,-0.428856796418
6200000000.0,-0.349110585448,-0.430508999421,0.645732286598,-0.523392636288,0.645732286598,-0.523392636288,-0.349110585448,-0.430508999421
6300000000.0,-0.356576419443,-0.432016291252,0.638119990312,-0.52643652239,0.638119990312,-0.52643652239,-0.356576419443,-0.432016291252
6400000000.0,-0.363997251904,-0.433381919198,0.630550112711,-0.529340530141,0.630550112711,-0.529340530141,-0.363997251904,-0.433381919198
6500000000.0,-0.371370657378,-0.43460913579,0.623025066994,-0.532107938909,0.623025066994,-0.532107938909,-0.371370657378,-0.43460913579
6600000000.0,-0.378694358864,-0.43570119308,0.615547117699,-0.534742027648,0.615547117699,-0.534742027648,-0.378694358864,-0.43570119308
6700000000.0,-0.385966223725,-0.436661337266,0.60811838479,-0.53724606952,0.60811838479,-0.53724606952,-0.385966223725,-0.436661337266
6800000000.0,-0.393184259518,-0.437492803679,0.600740847827,-0.539623326895,0.600740847827,-0.539623326895,-0.393184259518,-0.437492803679
6900000000.0,-0.400346609734,-0.438198812112,0.59341635022,-0.541877046668,0.59341635022,-0.541877046668,-0.400346609734,-0.438198812112
7000000000.0,-0.407451549496,-0.438782562477,0.586146603534,-0.54401045593,0.586146603534,-0.54401045593,-0.407451549496,-0.438782562477
7100000000.0,-0.41449748121,-0.439247230791,0.578933191831,-0.546026757954,0.578933191831,-0.546026757954,-0.41449748121,-0.439247230791
7200000000.0,-0.421482930197,-0.439595965476,0.571777576039,-0.547929128489,0.571777576039,-0.547929128489,-0.421482930197,-0.439595965476
7300000000.0,-0.428406540331,-0.439831883955,0.564681098312,-0.549720712369,0.564681098312,-0.549720712369,-0.428406540331,-0.439831883955
7400000000.0,-0.435267069669,-0.439958069539,0.557644986394,-0.551404620398,0.557644986394,-0.551404620398,-0.435267069669,-0.439958069539
7500000000.0,-0.442063386122,-0.439977568599,0.550670357953,-0.552983926521,0.550670357953,-0.552983926521,-0.442063386122,-0.439977568599
7600000000.0,-0.448794463148,-0.439893387995,0.543758224877,-0.554461665257,0.543758224877,-0.554461665257,-0.448794463148,-0.439893387995
7700000000.0,-0.455459375494,-0.439708492761,0.536909497538,-0.555840829391,0.536909497538,-0.555840829391,-0.455459375494,-0.439708492761
7800000000.0,-0.462057294996,-0.439425804039,0.530124988981,-0.557124367904,0.530124988981,-0.557124367904,-0.462057294996,-0.439425804039
7900000000.0,-0.468587486443,-0.439048197233,0.523405419069,-0.55831518413,0.523405419069,-0.55831518413,-0.468587486443,-0.439048197233
8000000000.0,-0.475049303505,-0.43857850039,0.516751418542,-0.559416134141,0.516751418542,-0.559416134141,-0.475049303505,-0.43857850039
8100000000.0,-0.481442184744,-0.438019492777,0.510163533008,-0.560430025327,0.510163533008,-0.560430025327,-0.481442184744,-0.438019492777
8200000000.0,-0.487765649714,-0.437373903664,0.503642226842,-0.561359615176,0.503642226842,-0.561359615176,-0.487765649714,-0.437373903664
8300000000.0,-0.494019295136,-0.436644411283,0.497187887005,-0.562207610242,0.497187887005,-0.562207610242,-0.494019295136,-0.436644411283
8400000000.0,-0.500202791179,-0.435833641961,0.490800826763,-0.562976665275,0.490800826763,-0.562976665275,-0.500202791179,-0.435833641961
8500000000.0,-0.506315877831,-0.434944169419,0.484481289315,-0.563669382521,0.484481289315,-0.563669382521,-0.506315877831,-0.434944169419
8600000000.0,-0.512358361365,-0.433978514213,0.478229451319,-0.564288311172,0.478229451319,-0.564288311172,-0.512358361365,-0.433978514213
8700000000.0,-0.518330110918,-0.432939143328,0.472045426315,-0.564835946954,0.472045426315,-0.564835946954,-0.518330110918,-0.432939143328
8800000000.0,-0.524231055161,-0.431828469893,0.465929268052,-0.56531473185,0.465929268052,-0.56531473185,-0.524231055161,-0.431828469893
8900000000.0,-0.530061179076,-0.430648853028,0.459880973703,-0.565727053945,0.459880973703,-0.565727053945,-0.530061179076,-0.430648853028
9000000000.0,-0.535820520846,-0.429402597796,0.453900486981,-0.566075247382,0.453900486981,-0.566075247382,-0.535820520846,-0.429402597796
9100000000.0,-0.541509168836,-0.428091955265,0.447987701148,-0.566361592426,0.447987701148,-0.566361592426,-0.541509168836,-0.428091955265
9200000000.0,-0.547127258689,-0.426719122665,0.442142461918,-0.566588315623,0.442142461918,-0.566588315623,-0.547127258689,-0.426719122665
9300000000.0,-0.552674970523,-0.425286243634,0.436364570261,-0.566757590046,0.436364570261,-0.566757590046,-0.552674970523,-0.425286243634
9400000000.0,-0.558152526228,-0.423795408545,0.430653785095,-0.566871535628,0.430653785095,-0.566871535628,-0.558152526228,-0.423795408545
9500000000.0,-0.563560186874,-0.422248654911,0.425009825883,-0.566932219564,0.425009825883,-0.566932219564,-0.563560186874,-0.422248654911
9600000000.0,-0.568898250209,-0.42064796785,0.419432375126,-0.566941656781,0.419432375126,-0.566941656781,-0.568898250209,-0.42064796785
9700000000.0,-0.574167048265,-0.418995280618,0.413921080759,-0.566901810474,0.413921080759,-0.566901810474,-0.574167048265,-0.418995280618
9800000000.0,-0.579366945055,-0.417292475196,0.408475558445,-0.566814592694,0.408475558445,-0.566814592694,-0.579366945055,-0.417292475196
9900000000.0,-0.584498334375,-0.415541382925,0.403095393776,-0.566681864981,0.403095393776,-0.566681864981,-0.584498334375,-0.415541382925
10000000000.0,-0.589561637687,-0.413743785187,0.397780144383,-0.566505439054,0.397780144383,-0.566505439054,-0.589561637687,-0.413743785187
