freq (GHz),S11_real,S11_imag,S21_real,S21_imag,S12_real,S12_imag,S22_real,S22_imag
100000000.0,0.000356846880742,-0.000601548271172,0.999634502246,-0.00246743939925,0.999634502246,-0.00246743939925,0.000356846880743,-0.000601548271172
200000000.0,0.000353348287453,-0.00120315139946,0.999620928742,-0.0049349775639,0.999620928742,-0.0049349775639,0.000353348287453,-0.00120315139946
300000000.0,0.000346249843333,-0.00180482537349,0.999601531224,-0.0074026675146,0.999601531224,-0.0074026675146,0.000346249843333,-0.00180482537349
400000000.0,0.000335861867895,-0.00240657946943,0.999575995965,-0.00987054332833,0.999575995965,-0.00987054332833,0.000335861867895,-0.00240657946943
500000000.0,0.000322302612745,-0.00300841870382,0.999544200726,-0.0123386300249,0.999544200726,-0.0123386300249,0.000322302612745,-0.00300841870382
600000000.0,0.000305631360114,-0.00361034505361,0.999506081779,-0.0148069467345,0.999506081779,-0.0148069467345,0.000305631360114,-0.00361034505361
700000000.0,0.000285882248217,-0.0042123581399,0.999461600163,-0.0172755082787,0.999461600163,-0.0172755082787,0.000285882248217,-0.0042123581399
800000000.0,0.000263076620205,-0.00481445566245,0.9994107294,-0.0197443261109,0.9994107294,-0.0197443261109,0.000263076620205,-0.00481445566245
900000000.0,0.000237228528269,-0.00541663369859,0.999353450051,-0.0222134089339,0.999353450051,-0.0222134089339,0.000237228528269,-0.00541663369859
1000000000.0,0.000208347529015,-0.00601888692238,0.99928974696,-0.0246827631366,0.99928974696,-0.0246827631366,0.000208347529015,-0.00601888692238
1100000000.0,0.000176440242161,-0.00662120877147,0.999219607736,-0.0271523931159,0.999219607736,-0.0271523931159,0.000176440242161,-0.00662120877147
1200000000.0,0.000141511283411,-0.00722359157908,0.999143021857,-0.0296223015254,0.999143021857,-0.0296223015254,0.000141511283411,-0.00722359157908
1300000000.0,0.000103563854843,-0.00782602668121,0.999059980109,-0.0320924894722,0.999059980109,-0.0320924894722,0.000103563854843,-0.00782602668121
1400000000.0,6.26001359325e-05,-0.00842850450531,0.998970474222,-0.0345629566757,0.998970474222,-0.0345629566757,6.26001359325e-05,-0.00842850450531
1500000000.0,1.86215525524e-05,-0.00903101464539,0.998874496626,-0.0370337016004,0.998874496626,-0.0370337016004,1.86215525526e-05,-0.00903101464539
1600000000.0,-2.83710319101e-05,-0.00963354592638,0.998772040284,-0.0395047215666,0.998772040284,-0.0395047215666,-2.837103191e-05,-0.00963354592638
1700000000.0,-7.83771769257e-05,-0.01023608646,0.998663098569,-0.0419760128449,0.998663098569,-0.0419760128449,-7.83771769255e-05,-0.01023608646
1800000000.0,-0.000131396760286,-0.0108386236939,0.998547665186,-0.0444475707387,0.998547665186,-0.0444475707387,-0.000131396760286,-0.0108386236939
1900000000.0,-0.000187429898124,-0.0114411444554,0.998425734102,-0.046919389655,0.998425734102,-0.046919389655,-0.000187429898125,-0.0114411444554
2000000000.0,-0.000246476882531,-0.0120436349905,0.998297299504,-0.0493914631677,0.998297299504,-0.0493914631677,-0.00024647688253,-0.0120436349905
2100000000.0,-0.00030853813203,-0.0126460809988,0.998162355767,-0.0518637840736,0.998162355767,-0.0518637840736,-0.00030853813203,-0.0126460809988
2200000000.0,-0.000373614151659,-0.0132484676657,0.998020897422,-0.0543363444417,0.998020897422,-0.0543363444417,-0.000373614151659,-0.0132484676657
2300000000.0,-0.000441705500301,-0.0138507796915,0.997872919142,-0.0568091356592,0.997872919142,-0.0568091356592,-0.000441705500301,-0.0138507796915
2400000000.0,-0.000512812763618,-0.0144530013183,0.997718415725,-0.0592821484714,0.997718415725,-0.0592821484714,-0.000512812763618,-0.0144530013183
2500000000.0,-0.000586936531354,-0.0150551163542,0.997557382085,-0.0617553730192,0.997557382085,-0.0617553730192,-0.000586936531354,-0.0150551163542
2600000000.0,-0.000664077378086,-0.0156571081965,0.997389813242,-0.0642287988729,0.997389813242,-0.0642287988729,-0.000664077378086,-0.0156571081965
2700000000.0,-0.000744235846745,-0.0162589598529,0.997215704315,-0.0667024150634,0.997215704315,-0.0667024150634,-0.000744235846745,-0.0162589598529
2800000000.0,-0.00082741243438,-0.0168606539611,0.99703505052,-0.0691762101108,0.99703505052,-0.0691762101108,-0.00082741243438,-0.0168606539611
2900000000.0,-0.000913607579743,-0.0174621728073,0.996847847167,-0.071650172051,0.996847847167,-0.071650172051,-0.000913607579743,-0.0174621728073
3000000000.0,-0.00100282165241,-0.0180634983438,0.996654089653,-0.0741242884604,0.996654089653,-0.0741242884604,-0.00100282165241,-0.0180634983438
3100000000.0,-0.00109505494313,-0.0186646122048,0.996453773468,-0.0765985464788,0.996453773468,-0.0765985464788,-0.00109505494313,-0.0186646122048
3200000000.0,-0.00119030765529,-0.0192654957224,0.996246894189,-0.0790729328306,0.996246894189,-0.0790729328306,-0.00119030765529,-0.0192654957224
3300000000.0,-0.00128857989724,-0.0198661299407,0.996033447478,-0.0815474338452,0.996033447478,-0.0815474338452,-0.00128857989724,-0.0198661299407
3400000000.0,-0.00138987167541,-0.0204664956294,0.995813429089,-0.0840220354754,0.995813429089,-0.0840220354754,-0.00138987167541,-0.0204664956294
3500000000.0,-0.00149418288806,-0.0210665732973,0.995586834862,-0.0864967233155,0.995586834862,-0.0864967233155,-0.00149418288806,-0.0210665732973
3600000000.0,-0.00160151331968,-0.0216663432045,0.995353660726,-0.0889714826173,0.995353660726,-0.0889714826173,-0.00160151331968,-0.0216663432045
3700000000.0,-0.00171186263582,-0.0222657853739,0.9951139027,-0.0914462983065,0.9951139027,-0.0914462983065,-0.00171186263582,-0.0222657853739
3800000000.0,-0.0018252303784,-0.0228648796027,0.994867556894,-0.0939211549968,0.994867556894,-0.0939211549968,-0.0018252303784,-0.0228648796027
3900000000.0,-0.00194161596141,-0.023463605473,0.994614619507,-0.0963960370045,0.994614619507,-0.0963960370045,-0.00194161596141,-0.023463605473
4000000000.0,-0.00206101866693,-0.0240619423621,0.994355086833,-0.0988709283615,0.994355086833,-0.0988709283615,-0.00206101866693,-0.0240619423621
4100000000.0,-0.00218343764153,-0.0246598694522,0.994088955257,-0.101345812828,0.994088955257,-0.101345812828,-0.00218343764153,-0.0246598694522
4200000000.0,-0.00230887189288,-0.0252573657399,0.993816221262,-0.103820673904,0.993816221262,-0.103820673904,-0.00230887189288,-0.0252573657399
4300000000.0,-0.00243732028661,-0.0258544100448,0.993536881421,-0.106295494842,0.993536881421,-0.106295494842,-0.00243732028661,-0.0258544100448
4400000000.0,-0.00256878154348,-0.0264509810186,0.99325093241,-0.108770258657,0.99325093241,-0.108770258657,-0.00256878154348,-0.0264509810186
4500000000.0,-0.00270325423668,-0.0270470571531,0.992958370997,-0.111244948135,0.992958370997,-0.111244948135,-0.00270325423668,-0.0270470571531
4600000000.0,-0.00284073678935,-0.0276426167882,0.992659194054,-0.113719545849,0.992659194054,-0.113719545849,-0.00284073678935,-0.0276426167882
4700000000.0,-0.00298122747226,-0.0282376381196,0.992353398549,-0.116194034159,0.992353398549,-0.116194034159,-0.00298122747226,-0.0282376381196
4800000000.0,-0.00312472440168,-0.0288320992062,0.992040981552,-0.11866839523,0.992040981552,-0.11866839523,-0.00312472440168,-0.0288320992062
4900000000.0,-0.00327122553736,-0.0294259779771,0.991721940237,-0.121142611037,0.991721940237,-0.121142611037,-0.00327122553736,-0.0294259779771
5000000000.0,-0.00342072868069,-0.0300192522384,0.991396271878,-0.123616663371,0.991396271878,-0.123616663371,-0.00342072868069,-0.0300192522384
5100000000.0,-0.00357323147296,-0.0306118996801,0.991063973854,-0.126090533851,0.991063973854,-0.126090533851,-0.00357323147296,-0.0306118996801
5200000000.0,-0.00372873139371,-0.0312038978823,0.990725043648,-0.128564203929,0.990725043648,-0.128564203929,-0.00372873139371,-0.0312038978823
5300000000.0,-0.00388722575929,-0.0317952243214,0.990379478851,-0.131037654899,0.990379478851,-0.131037654899,-0.00388722575929,-0.0317952243214
5400000000.0,-0.00404871172138,-0.0323858563759,0.990027277158,-0.133510867904,0.990027277158,-0.133510867904,-0.00404871172138,-0.0323858563759
5500000000.0,-0.00421318626578,-0.0329757713327,0.989668436371,-0.13598382394,0.989668436371,-0.13598382394,-0.00421318626578,-0.0329757713327
5600000000.0,-0.0043806462111,-0.0335649463922,0.989302954401,-0.138456503865,0.989302954401,-0.138456503865,-0.0043806462111,-0.0335649463922
5700000000.0,-0.00455108820769,-0.0341533586739,0.988930829267,-0.140928888407,0.988930829267,-0.140928888407,-0.00455108820769,-0.0341533586739
5800000000.0,-0.00472450873659,-0.0347409852217,0.988552059098,-0.143400958165,0.988552059098,-0.143400958165,-0.00472450873659,-0.0347409852217
5900000000.0,-0.00490090410857,-0.0353278030092,0.988166642132,-0.14587269362,0.988166642132,-0.14587269362,-0.00490090410857,-0.0353278030092
6000000000.0,-0.00508027046319,-0.035913788944,0.987774576717,-0.148344075137,0.987774576717,-0.148344075137,-0.00508027046319,-0.035913788944
6100000000.0,-0.00526260376802,-0.0364989198735,0.987375861313,-0.150815082974,0.987375861313,-0.150815082974,-0.00526260376802,-0.0364989198735
6200000000.0,-0.00544789981787,-0.0370831725888,0.986970494491,-0.153285697281,0.986970494491,-0.153285697281,-0.00544789981787,-0.0370831725888
6300000000.0,-0.00563615423407,-0.0376665238295,0.986558474932,-0.155755898112,0.986558474932,-0.155755898112,-0.00563615423407,-0.0376665238295
6400000000.0,-0.00582736246384,-0.0382489502882,0.986139801433,-0.158225665428,0.986139801433,-0.158225665428,-0.00582736246384,-0.0382489502882
6500000000.0,-0.00602151977972,-0.0388304286148,0.985714472901,-0.160694979097,0.985714472901,-0.160694979097,-0.00602151977972,-0.0388304286148
6600000000.0,-0.00621862127904,-0.0394109354206,0.985282488356,-0.163163818906,0.985282488356,-0.163163818906,-0.00621862127904,-0.0394109354206
6700000000.0,-0.00641866188343,-0.0399904472826,0.984843846932,-0.165632164559,0.984843846932,-0.165632164559,-0.00641866188343,-0.0399904472826
6800000000.0,-0.00662163633839,-0.0405689407473,0.984398547877,-0.168099995686,0.984398547877,-0.168099995686,-0.00662163633839,-0.0405689407473
6900000000.0,-0.00682753921292,-0.0411463923344,0.983946590552,-0.170567291843,0.983946590552,-0.170567291843,-0.00682753921292,-0.0411463923344
7000000000.0,-0.00703636489919,-0.0417227785412,0.983487974433,-0.17303403252,0.983487974433,-0.17303403252,-0.00703636489919,-0.0417227785412
7100000000.0,-0.00724810761225,-0.0422980758458,0.983022699108,-0.175500197141,0.983022699108,-0.175500197141,-0.00724810761225,-0.0422980758458
7200000000.0,-0.00746276138974,-0.0428722607108,0.982550764282,-0.177965765073,0.982550764282,-0.177965765073,-0.00746276138974,-0.0428722607108
7300000000.0,-0.00768032009175,-0.0434453095869,0.982072169774,-0.180430715622,0.982072169774,-0.180430715622,-0.00768032009175,-0.0434453095869
7400000000.0,-0.0079007774006,-0.0440171989164,0.981586915515,-0.182895028044,0.981586915515,-0.182895028044,-0.0079007774006,-0.0440171989164
7500000000.0,-0.00812412682071,-0.0445879051365,0.981095001554,-0.185358681546,0.981095001554,-0.185358681546,-0.00812412682071,-0.0445879051365
7600000000.0,-0.00835036167855,-0.0451574046826,0.980596428054,-0.187821655286,0.980596428054,-0.187821655286,-0.00835036167855,-0.0451574046826
7700000000.0,-0.00857947512252,-0.0457256739917,0.98009119529,-0.19028392838,0.98009119529,-0.19028392838,-0.00857947512252,-0.0457256739917
7800000000.0,-0.00881146012295,-0.0462926895052,0.979579303655,-0.192745479905,0.979579303655,-0.192745479905,-0.00881146012295,-0.0462926895052
7900000000.0,-0.00904630947212,-0.0468584276725,0.979060753655,-0.195206288901,0.979060753655,-0.195206288901,-0.00904630947212,-0.0468584276725
8000000000.0,-0.00928401578427,-0.0474228649534,0.978535545911,-0.197666334373,0.978535545911,-0.197666334373,-0.00928401578427,-0.0474228649534
8100000000.0,-0.00952457149569,-0.0479859778218,0.978003681158,-0.200125595295,0.978003681158,-0.200125595295,-0.00952457149569,-0.0479859778218
8200000000.0,-0.00976796886481,-0.0485477427679,0.977465160246,-0.202584050614,0.977465160246,-0.202584050614,-0.00976796886481,-0.0485477427679
8300000000.0,-0.0100141999723,-0.0491081363017,0.976919984138,-0.205041679252,0.976919984138,-0.205041679252,-0.0100141999723,-0.0491081363017
8400000000.0,-0.0102632567214,-0.0496671349553,0.976368153914,-0.207498460105,0.976368153914,-0.207498460105,-0.0102632567214,-0.0496671349553
8500000000.0,-0.0105151308376,-0.0502247152861,0.975809670764,-0.209954372052,0.975809670764,-0.209954372052,-0.0105151308376,-0.0502247152861
8600000000.0,-0.0107698138697,-0.050780853879,0.975244535994,-0.212409393953,0.975244535994,-0.212409393953,-0.0107698138697,-0.050780853879
8700000000.0,-0.0110272971891,-0.0513355273495,0.974672751023,-0.214863504653,0.974672751023,-0.214863504653,-0.0110272971891,-0.0513355273495
8800000000.0,-0.0112875719908,-0.0518887123462,0.974094317383,-0.217316682984,0.974094317383,-0.217316682984,-0.0112875719908,-0.0518887123462
8900000000.0,-0.0115506292933,-0.052440385553,0.97350923672,-0.219768907767,0.97350923672,-0.219768907767,-0.0115506292933,-0.052440385553
9000000000.0,-0.011816459939,-0.0529905236921,0.972917510791,-0.222220157814,0.972917510791,-0.222220157814,-0.011816459939,-0.0529905236921
9100000000.0,-0.0120850545945,-0.0535391035265,0.972319141466,-0.224670411934,0.972319141466,-0.224670411934,-0.0120850545945,-0.0535391035265
9200000000.0,-0.0123564037512,-0.0540861018618,0.971714130729,-0.227119648928,0.971714130729,-0.227119648928,-0.0123564037512,-0.0540861018618
9300000000.0,-0.0126304977251,-0.0546314955494,0.971102480672,-0.229567847598,0.971102480672,-0.229567847598,-0.0126304977251,-0.0546314955494
9400000000.0,-0.012907326658,-0.0551752614884,0.970484193502,-0.232014986744,0.970484193502,-0.232014986744,-0.012907326658,-0.0551752614884
9500000000.0,-0.0131868805173,-0.0557173766277,0.969859271535,-0.234461045171,0.969859271535,-0.234461045171,-0.0131868805173,-0.0557173766277
9600000000.0,-0.0134691490965,-0.0562578179691,0.969227717197,-0.236906001685,0.969227717197,-0.236906001685,-0.0134691490965,-0.0562578179691
9700000000.0,-0.013754122016,-0.0567965625687,0.968589533027,-0.239349835099,0.968589533027,-0.239349835099,-0.013754122016,-0.0567965625687
9800000000.0,-0.0140417887234,-0.0573335875395,0.967944721671,-0.241792524236,0.967944721671,-0.241792524236,-0.0140417887234,-0.0573335875395
9900000000.0,-0.0143321384939,-0.0578688700538,0.967293285885,-0.244234047925,0.967293285885,-0.244234047925,-0.0143321384939,-0.0578688700538
10000000000.0,-0.0146251604309,-0.0584023873448,0.966635228536,-0.246674385008,0.966635228536,-0.246674385008,-0.0146251604309,-0.0584023873448
