freq (GHz),S11_real,S11_imag,S21_real,S21_imag,S12_real,S12_imag,S22_real,S22_imag
100000000.0,0.0355704840553,0.00310531242222,0.964425621261,-0.00474425642408,0.964425621261,-0.00474425642408,0.0355704840553,0.00310531242222
200000000.0,0.0358423116643,0.00620656943116,0.964148179299,-0.00948446727221,0.964148179299,-0.00948446727221,0.0358423116643,0.00620656943116
300000000.0,0.0360834740256,0.00930490849618,0.963898682363,-0.0142217799216,0.963898682363,-0.0142217799216,0.0360834740256,0.00930490849618
400000000.0,0.0363238808189,0.0124004891508,0.96364722026,-0.0189563626065,0.96364722026,-0.0189563626065,0.0363238808189,0.0124004891508
500000000.0,0.0365750507627,0.0154932440174,0.963382273744,-0.0236881560446,0.963382273744,-0.0236881560446,0.0365750507627,0.0154932440174
600000000.0,0.0368428489475,0.0185830056442,0.963097977157,-0.0284170004854,0.963097977157,-0.0284170004854,0.0368428489475,0.0185830056442
700000000.0,0.0371307270285,0.0216695520844,0.962790878232,-0.0331426813967,0.962790878232,-0.0331426813967,0.0371307270285,0.0216695520844
800000000.0,0.0374409064946,0.0247526280672,0.962458754813,-0.0378649506995,0.962458754813,-0.0378649506995,0.0374409064946,0.0247526280672
900000000.0,0.0377749058057,0.0278319564001,0.962100087721,-0.0425835382128,0.962100087721,-0.0425835382128,0.0377749058057,0.0278319564001
1000000000.0,0.0381338077263,0.03090724475,0.961713793415,-0.0472981584642,0.961713793415,-0.0472981584642,0.0381338077263,0.03090724475
1100000000.0,0.0385184080077,0.033978189979,0.961299075311,-0.0520085150477,0.961299075311,-0.0520085150477,0.0385184080077,0.033978189979
1200000000.0,0.0389293040298,0.0370444810749,0.960855335135,-0.0567143035704,0.960855335135,-0.0567143035704,0.0389293040298,0.0370444810749
1300000000.0,0.0393669506016,0.0401058012224,0.960382117127,-0.0614152137373,0.960382117127,-0.0614152137373,0.0393669506016,0.0401058012224
1400000000.0,0.0398316966618,0.0431618293228,0.959879071338,-0.066110930881,0.959879071338,-0.066110930881,0.0398316966618,0.0431618293228
1500000000.0,0.0403238103055,0.0462122411444,0.959345928603,-0.0708011371209,0.959345928603,-0.0708011371209,0.0403238103055,0.0462122411444
1600000000.0,0.0408434963775,0.0492567102175,0.958782482946,-0.0754855122652,0.958782482946,-0.0754855122652,0.0408434963775,0.0492567102175
1700000000.0,0.0413909091652,0.0522949085474,0.95818857889,-0.0801637345301,0.95818857889,-0.0801637345301,0.0413909091652,0.0522949085474
1800000000.0,0.0419661617634,0.0553265071951,0.95756410209,-0.0848354811253,0.95756410209,-0.0848354811253,0.0419661617634,0.0553265071951
1900000000.0,0.0425693331218,0.0583511767591,0.956908972287,-0.0895004287404,0.956908972287,-0.0895004287404,0.0425693331218,0.0583511767591
2000000000.0,0.0432004734416,0.0613685877821,0.956223137909,-0.0941582539555,0.956223137909,-0.0941582539555,0.0432004734416,0.0613685877821
2100000000.0,0.0438596083729,0.0643784110993,0.955506571876,-0.0988086335928,0.955506571876,-0.0988086335928,0.0438596083729,0.0643784110993
2200000000.0,0.0445467423255,0.0673803181418,0.954759268289,-0.103451245023,0.954759268289,-0.103451245023,0.0445467423255,0.0673803181418
2300000000.0,0.0452618611154,0.0703739812035,0.953981239782,-0.108085766434,0.953981239782,-0.108085766434,0.0452618611154,0.0703739812035
2400000000.0,0.0460049341037,0.0733590736782,0.953172515384,-0.112711877072,0.953172515384,-0.112711877072,0.0460049341037,0.0733590736782
2500000000.0,0.0467759159457,0.0763352702737,0.95233313877,-0.117329257456,0.95233313877,-0.117329257456,0.0467759159457,0.0763352702737
2600000000.0,0.0475747480359,0.0793022472052,0.951463166817,-0.121937589575,0.951463166817,-0.121937589575,0.0475747480359,0.0793022472052
2700000000.0,0.0484013597126,0.082259682373,0.950562668398,-0.126536557065,0.950562668398,-0.126536557065,0.0484013597126,0.082259682373
2800000000.0,0.0492556692722,0.0852072555256,0.949631723367,-0.131125845376,0.949631723367,-0.131125845376,0.0492556692722,0.0852072555256
2900000000.0,0.0501375848305,0.088144648411,0.9486704217,-0.135705141923,0.9486704217,-0.135705141923,0.0501375848305,0.088144648411
3000000000.0,0.0510470050604,0.0910715449179,0.947678862756,-0.14027413623,0.947678862756,-0.14027413623,0.0510470050604,0.0910715449179
3100000000.0,0.0519838198285,0.0939876312078,0.946657154642,-0.144832520062,0.946657154642,-0.144832520062,0.0519838198285,0.0939876312078
3200000000.0,0.0529479107494,0.096892595839,0.945605413656,-0.149379987549,0.945605413656,-0.149379987549,0.0529479107494,0.096892595839
3300000000.0,0.0539391516721,0.0997861298839,0.944523763803,-0.153916235309,0.944523763803,-0.153916235309,0.0539391516721,0.0997861298839
3400000000.0,0.0549574091089,0.10266792704,0.943412336364,-0.158440962555,0.943412336364,-0.158440962555,0.0549574091089,0.10266792704
3500000000.0,0.0560025426183,0.105537683734,0.942271269516,-0.162953871202,0.942271269516,-0.162953871202,0.0560025426183,0.105537683734
3600000000.0,0.0570744051472,0.108395099223,0.941100707986,-0.167454665969,0.941100707986,-0.167454665969,0.0570744051472,0.108395099223
3700000000.0,0.0581728433406,0.111239875691,0.939900802748,-0.171943054475,0.939900802748,-0.171943054475,0.0581728433406,0.111239875691
3800000000.0,0.0592976978228,0.114071718334,0.938671710731,-0.176418747329,0.938671710731,-0.176418747329,0.0592976978228,0.114071718334
3900000000.0,0.0604488034541,0.116890335454,0.937413594575,-0.180881458218,0.937413594575,-0.180881458218,0.0604488034541,0.116890335454
4000000000.0,0.0616259895679,0.119695438538,0.936126622383,-0.185330903991,0.936126622383,-0.185330903991,0.0616259895679,0.119695438538
4100000000.0,0.0628290801899,0.122486742334,0.934810967509,-0.189766804738,0.934810967509,-0.189766804738,0.0628290801899,0.122486742334
4200000000.0,0.064057894242,0.125263964936,0.933466808351,-0.194188883867,0.933466808351,-0.194188883867,0.064057894242,0.125263964936
4300000000.0,0.0653122457335,0.128026827845,0.932094328158,-0.198596868175,0.932094328158,-0.198596868175,0.0653122457335,0.128026827845
4400000000.0,0.0665919439414,0.130775056046,0.930693714856,-0.202990487919,0.930693714856,-0.202990487919,0.0665919439414,0.130775056046
4500000000.0,0.0678967935801,0.133508378073,0.929265160872,-0.207369476885,0.929265160872,-0.207369476885,0.0678967935801,0.133508378073
4600000000.0,0.0692265949635,0.13622652607,0.927808862974,-0.211733572447,0.927808862974,-0.211733572447,0.0692265949635,0.13622652607
4700000000.0,0.0705811441592,0.138929235851,0.926325022117,-0.216082515629,0.926325022117,-0.216082515629,0.0705811441592,0.138929235851
4800000000.0,0.0719602331367,0.141616246961,0.924813843297,-0.220416051167,0.924813843297,-0.220416051167,0.0719602331367,0.141616246961
4900000000.0,0.0733636499088,0.144287302728,0.923275535405,-0.224733927559,0.923275535405,-0.224733927559,0.0733636499088,0.144287302728
5000000000.0,0.0747911786696,0.146942150316,0.921710311091,-0.22903589712,0.921710311091,-0.22903589712,0.0747911786696,0.146942150316
5100000000.0,0.0762425999267,0.149580540776,0.920118386635,-0.233321716031,0.920118386635,-0.233321716031,0.0762425999267,0.149580540776
5200000000.0,0.0777176906301,0.152202229089,0.918499981811,-0.237591144389,0.918499981811,-0.237591144389,0.0777176906301,0.152202229089
5300000000.0,0.0792162242974,0.154806974216,0.916855319771,-0.241843946247,0.916855319771,-0.241843946247,0.0792162242974,0.154806974216
5400000000.0,0.080737971136,0.157394539137,0.915184626913,-0.246079889663,0.915184626913,-0.246079889663,0.080737971136,0.157394539137
5500000000.0,0.0822826981624,0.15996469089,0.913488132769,-0.250298746733,0.913488132769,-0.250298746733,0.0822826981624,0.15996469089
5600000000.0,0.0838501693187,0.162517200611,0.911766069885,-0.254500293633,0.911766069885,-0.254500293633,0.0838501693187,0.162517200611
5700000000.0,0.0854401455871,0.165051843568,0.910018673708,-0.258684310654,0.910018673708,-0.258684310654,0.0854401455871,0.165051843568
5800000000.0,0.0870523851024,0.167568399191,0.908246182472,-0.262850582233,0.908246182472,-0.262850582233,0.0870523851024,0.167568399191
5900000000.0,0.088686643262,0.170066651109,0.906448837088,-0.266998896986,0.906448837088,-0.266998896986,0.088686643262,0.170066651109
6000000000.0,0.0903426728347,0.17254638717,0.904626881039,-0.271129047735,0.904626881039,-0.271129047735,0.0903426728347,0.17254638717
6100000000.0,0.0920202240676,0.175007399473,0.902780560265,-0.275240831533,0.902780560265,-0.275240831533,0.0920202240676,0.175007399473
6200000000.0,0.0937190447913,0.177449484391,0.900910123066,-0.279334049692,0.900910123066,-0.279334049692,0.0937190447913,0.177449484391
6300000000.0,0.0954388805241,0.17987244259,0.899015819995,-0.2834085078,0.899015819995,-0.2834085078,0.0954388805241,0.17987244259
6400000000.0,0.097179474574,0.182276079051,0.897097903752,-0.287464015743,0.897097903752,-0.287464015743,0.097179474574,0.182276079051
6500000000.0,0.0989405681406,0.184660203085,0.895156629087,-0.291500387724,0.895156629087,-0.291500387724,0.0989405681406,0.184660203085
6600000000.0,0.100721900415,0.187024628353,0.893192252699,-0.295517442276,0.893192252699,-0.295517442276,0.100721900415,0.187024628353
6700000000.0,0.102523208677,0.189369172873,0.891205033138,-0.299515002277,0.891205033138,-0.299515002277,0.102523208677,0.189369172873
6800000000.0,0.104344228395,0.191693659036,0.889195230702,-0.30349289496,0.889195230702,-0.30349289496,0.104344228395,0.191693659036
6900000000.0,0.106184693323,0.193997913615,0.887163107347,-0.307450951924,0.887163107347,-0.307450951924,0.106184693323,0.193997913615
7000000000.0,0.108044335591,0.196281767768,0.885108926591,-0.31138900914,0.885108926591,-0.31138900914,0.108044335591,0.196281767768
7100000000.0,0.109922885806,0.198545057051,0.883032953413,-0.315306906959,0.883032953413,-0.315306906959,0.109922885806,0.198545057051
7200000000.0,0.11182007314,0.200787621413,0.880935454169,-0.319204490112,0.880935454169,-0.319204490112,0.11182007314,0.200787621413
7300000000.0,0.113735625426,0.203009305205,0.87881669649,-0.323081607715,0.87881669649,-0.323081607715,0.113735625426,0.203009305205
7400000000.0,0.115669269244,0.205209957174,0.8766769492,-0.326938113266,0.8766769492,-0.326938113266,0.115669269244,0.205209957174
7500000000.0,0.117620730018,0.207389430466,0.874516482221,-0.330773864646,0.874516482221,-0.330773864646,0.117620730018,0.207389430466
7600000000.0,0.119589732099,0.209547582618,0.872335566483,-0.334588724113,0.872335566483,-0.334588724113,0.119589732099,0.209547582618
7700000000.0,0.121575998855,0.211684275555,0.870134473838,-0.338382558298,0.870134473838,-0.338382558298,0.121575998855,0.211684275555
7800000000.0,0.123579252759,0.213799375583,0.867913476974,-0.342155238198,0.867913476974,-0.342155238198,0.123579252759,0.213799375583
7900000000.0,0.125599215473,0.215892753377,0.865672849327,-0.345906639164,0.865672849327,-0.345906639164,0.125599215473,0.215892753377
8000000000.0,0.127635607935,0.217964283973,0.863412864996,-0.349636640895,0.863412864996,-0.349636640895,0.127635607935,0.217964283973
8100000000.0,0.129688150439,0.220013846759,0.86113379866,-0.353345127423,0.86113379866,-0.353345127423,0.129688150439,0.220013846759
8200000000.0,0.131756562721,0.222041325452,0.858835925498,-0.3570319871,0.858835925498,-0.3570319871,0.131756562721,0.222041325452
8300000000.0,0.133840564039,0.224046608091,0.856519521101,-0.360697112583,0.856519521101,-0.360697112583,0.133840564039,0.224046608091
8400000000.0,0.135939873255,0.226029587019,0.854184861398,-0.364340400815,0.854184861398,-0.364340400815,0.135939873255,0.226029587019
8500000000.0,0.138054208909,0.227990158861,0.851832222573,-0.367961753011,0.851832222573,-0.367961753011,0.138054208909,0.227990158861
8600000000.0,0.140183289306,0.229928224505,0.849461880986,-0.371561074635,0.849461880986,-0.371561074635,0.140183289306,0.229928224505
8700000000.0,0.142326832583,0.231843689084,0.847074113102,-0.375138275379,0.847074113102,-0.375138275379,0.142326832583,0.231843689084
8800000000.0,0.144484556793,0.233736461953,0.844669195406,-0.37869326914,0.844669195406,-0.37869326914,0.144484556793,0.233736461953
8900000000.0,0.146656179975,0.23560645666,0.842247404334,-0.382225974001,0.842247404334,-0.382225974001,0.146656179975,0.23560645666
9000000000.0,0.148841420229,0.237453590926,0.839809016201,-0.385736312197,0.839809016201,-0.385736312197,0.148841420229,0.237453590926
9100000000.0,0.151039995788,0.239277786618,0.837354307121,-0.389224210097,0.837354307121,-0.389224210097,0.151039995788,0.239277786618
9200000000.0,0.15325162509,0.241078969719,0.834883552944,-0.392689598172,0.834883552944,-0.392689598172,0.15325162509,0.241078969719
9300000000.0,0.155476026846,0.242857070299,0.832397029181,-0.396132410965,0.832397029181,-0.396132410965,0.155476026846,0.242857070299
9400000000.0,0.15771292011,0.244612022489,0.829895010936,-0.399552587064,0.829895010936,-0.399552587064,0.15771292011,0.244612022489
9500000000.0,0.159962024347,0.246343764444,0.827377772842,-0.40295006907,0.827377772842,-0.40295006907,0.159962024347,0.246343764444
9600000000.0,0.162223059498,0.248052238316,0.824845588987,-0.406324803563,0.824845588987,-0.406324803563,0.162223059498,0.248052238316
9700000000.0,0.164495746044,0.249737390216,0.822298732856,-0.40967674107,0.822298732856,-0.40967674107,0.164495746044,0.249737390216
9800000000.0,0.166779805075,0.251399170183,0.819737477265,-0.413005836031,0.819737477265,-0.413005836031,0.166779805075,0.251399170183
9900000000.0,0.169074958344,0.253037532149,0.817162094297,-0.416312046763,0.817162094297,-0.416312046763,0.169074958344,0.253037532149
10000000000.0,0.171380928335,0.254652433899,0.81457285524,-0.419595335422,0.81457285524,-0.419595335422,0.171380928335,0.254652433899
