freq (GHz),S11_real,S11_imag,S21_real,S21_imag,S12_real,S12_imag,S22_real,S22_imag
100000000.0,0.00673615131727,0.00275549153428,0.993258475165,-0.00492544279151,0.993258475165,-0.00492544279151,0.00673615131727,0.00275549153428
200000000.0,0.00682070804465,0.00550999597634,0.993164825213,-0.00984992685129,0.993164825213,-0.00984992685129,0.00682070804465,0.00550999597634
300000000.0,0.00692079781809,0.00826347999664,0.993050921895,-0.0147734392193,0.993050921895,-0.0147734392193,0.00692079781809,0.00826347999664
400000000.0,0.0070422119015,0.0110157296399,0.992910973165,-0.0196957822163,0.992910973165,-0.0196957822163,0.0070422119015,0.0110157296399
500000000.0,0.00718716904569,0.0137664891199,0.992742759327,-0.0246167142484,0.992742759327,-0.0246167142484,0.00718716904569,0.0137664891199
600000000.0,0.00735678879207,0.0165154843443,0.992545159731,-0.0295359740401,0.992545159731,-0.0295359740401,0.00735678879207,0.0165154843443
700000000.0,0.0075517201349,0.0192624314113,0.992317524121,-0.0344532894935,0.992317524121,-0.0344532894935,0.0075517201349,0.0192624314113
800000000.0,0.00777237092711,0.0220070405878,0.992059443231,-0.0393683818842,0.992059443231,-0.0393683818842,0.00777237092711,0.0220070405878
900000000.0,0.00801901000637,0.0247490184768,0.991770646664,-0.0442809681734,0.991770646664,-0.0442809681734,0.00801901000637,0.0247490184768
1000000000.0,0.00829181895302,0.0274880693281,0.991450951141,-0.0491907624195,0.991450951141,-0.0491907624195,0.00829181895302,0.0274880693281
1100000000.0,0.00859092085902,0.0302238958946,0.991100231727,-0.0540974767103,0.991100231727,-0.0540974767103,0.00859092085902,0.0302238958946
1200000000.0,0.00891639747113,0.0329562000275,0.990718404702,-0.0590008218159,0.990718404702,-0.0590008218159,0.00891639747113,0.0329562000275
1300000000.0,0.0092682999789,0.0356846831117,0.990305416767,-0.0639005076694,0.990305416767,-0.0639005076694,0.0092682999789,0.0356846831117
1400000000.0,0.00964665610925,0.038409046398,0.989861237955,-0.0687962437366,0.989861237955,-0.0687962437366,0.00964665610925,0.038409046398
1500000000.0,0.0100514749654,0.0411289912671,0.989385856795,-0.0736877393095,0.989385856795,-0.0736877393095,0.0100514749654,0.0411289912671
1600000000.0,0.0104827504304,0.0438442194449,0.988879276908,-0.0785747037475,0.988879276908,-0.0785747037475,0.0104827504304,0.0438442194449
1700000000.0,0.0109404636258,0.046554433184,0.988341514554,-0.0834568466806,0.988341514554,-0.0834568466806,0.0109404636258,0.046554433184
1800000000.0,0.0114245847286,0.0492593354206,0.987772596813,-0.088333878184,0.987772596813,-0.088333878184,0.0114245847286,0.0492593354206
1900000000.0,0.0119350743423,0.0519586299121,0.98717256022,-0.0932055089325,0.98717256022,-0.0932055089325,0.0119350743423,0.0519586299121
2000000000.0,0.0124718845511,0.0546520213601,0.986541449705,-0.0980714503371,0.986541449705,-0.0980714503371,0.0124718845511,0.0546520213601
2100000000.0,0.0130349597436,0.0573392155233,0.985879317779,-0.10293141467,0.985879317779,-0.10293141467,0.0130349597436,0.0573392155233
2200000000.0,0.0136242372669,0.0600199193203,0.985186223877,-0.10778511518,0.985186223877,-0.10778511518,0.0136242372669,0.0600199193203
2300000000.0,0.0142396479536,0.062693840926,0.98446223383,-0.112632266194,0.98446223383,-0.112632266194,0.0142396479536,0.062693840926
2400000000.0,0.0148811165524,0.0653606898617,0.983707419441,-0.117472583224,0.983707419441,-0.117472583224,0.0148811165524,0.0653606898617
2500000000.0,0.0155485620845,0.0680201770801,0.982921858127,-0.122305783051,0.982921858127,-0.122305783051,0.0155485620845,0.0680201770801
2600000000.0,0.0162418981424,0.0706720150472,0.982105632619,-0.12713158382,0.982105632619,-0.12713158382,0.0162418981424,0.0706720150472
2700000000.0,0.0169610331435,0.0733159178188,0.981258830713,-0.131949705121,0.981258830713,-0.131949705121,0.0169610331435,0.0733159178188
2800000000.0,0.0177058705482,0.0759516011159,0.980381545052,-0.136759868071,0.980381545052,-0.136759868071,0.0177058705482,0.0759516011159
2900000000.0,0.0184763090489,0.0785787823956,0.979473872934,-0.141561795391,0.979473872934,-0.141561795391,0.0184763090489,0.0785787823956
3000000000.0,0.019272242737,0.0811971809205,0.978535916154,-0.146355211477,0.978535916154,-0.146355211477,0.019272242737,0.0811971809205
3100000000.0,0.0200935612507,0.0838065178256,0.977567780848,-0.151139842475,0.977567780848,-0.151139842475,0.0200935612507,0.0838065178256
3200000000.0,0.0209401499077,0.0864065161832,0.976569577365,-0.155915416352,0.976569577365,-0.155915416352,0.0209401499077,0.0864065161832
3300000000.0,0.0218118898265,0.0889969010657,0.97554142015,-0.160681662955,0.97554142015,-0.160681662955,0.0218118898265,0.0889969010657
3400000000.0,0.0227086580366,0.0915773996068,0.974483427627,-0.165438314085,0.974483427627,-0.165438314085,0.0227086580366,0.0915773996068
3500000000.0,0.0236303275809,0.0941477410606,0.973395722103,-0.170185103553,0.973395722103,-0.170185103553,0.0236303275809,0.0941477410606
3600000000.0,0.0245767676113,0.0967076568598,0.972278429671,-0.174921767247,0.972278429671,-0.174921767247,0.0245767676113,0.0967076568598
3700000000.0,0.0255478434786,0.0992568806717,0.971131680119,-0.179648043184,0.971131680119,-0.179648043184,0.0255478434786,0.0992568806717
3800000000.0,0.0265434168175,0.101795148453,0.96995560685,-0.184363671573,0.96995560685,-0.184363671573,0.0265434168175,0.101795148453
3900000000.0,0.0275633456278,0.104322198503,0.968750346797,-0.189068394871,0.968750346797,-0.189068394871,0.0275633456278,0.104322198503
4000000000.0,0.0286074843523,0.106837771515,0.967516040346,-0.193761957833,0.967516040346,-0.193761957833,0.0286074843523,0.106837771515
4100000000.0,0.0296756839524,0.109341610627,0.966252831265,-0.198444107569,0.966252831265,-0.198444107569,0.0296756839524,0.109341610627
4200000000.0,0.0307677919804,0.111833461472,0.964960866625,-0.203114593592,0.964960866625,-0.203114593592,0.0307677919804,0.111833461472
4300000000.0,0.0318836526514,0.114313072224,0.963640296737,-0.207773167872,0.963640296737,-0.207773167872,0.0318836526514,0.114313072224
4400000000.0,0.0330231069122,0.116780193643,0.962291275077,-0.212419584877,0.962291275077,-0.212419584877,0.0330231069122,0.116780193643
4500000000.0,0.0341859925097,0.119234579124,0.960913958218,-0.21705360163,0.960913958218,-0.21705360163,0.0341859925097,0.119234579124
4600000000.0,0.0353721440584,0.121675984738,0.959508505769,-0.221674977743,0.959508505769,-0.221674977743,0.0353721440584,0.121675984738
4700000000.0,0.0365813931059,0.124104169274,0.958075080301,-0.226283475471,0.958075080301,-0.226283475471,0.0365813931059,0.124104169274
4800000000.0,0.0378135681991,0.126518894281,0.956613847291,-0.230878859748,0.956613847291,-0.230878859748,0.0378135681991,0.126518894281
4900000000.0,0.0390684949486,0.128919924107,0.955124975048,-0.235460898231,0.955124975048,-0.235460898231,0.0390684949486,0.128919924107
5000000000.0,0.0403459960936,0.131307025939,0.953608634656,-0.240029361338,0.953608634656,-0.240029361338,0.0403459960936,0.131307025939
5100000000.0,0.0416458915651,0.133679969838,0.952064999907,-0.244584022289,0.952064999907,-0.244584022289,0.0416458915651,0.133679969838
5200000000.0,0.0429679985503,0.136038528776,0.950494247238,-0.24912465714,0.950494247238,-0.24912465714,0.0429679985503,0.136038528776
5300000000.0,0.0443121315555,0.138382478669,0.948896555667,-0.253651044822,0.948896555667,-0.253651044822,0.0443121315555,0.138382478669
5400000000.0,0.0456781024692,0.140711598413,0.947272106733,-0.258162967173,0.947272106733,-0.258162967173,0.0456781024692,0.140711598413
5500000000.0,0.0470657206253,0.143025669914,0.945621084432,-0.26266020897,0.945621084432,-0.26266020897,0.0470657206253,0.143025669914
5600000000.0,0.0484747928656,0.145324478117,0.943943675151,-0.267142557962,0.943943675151,-0.267142557962,0.0484747928656,0.145324478117
5700000000.0,0.0499051236027,0.14760781104,0.942240067611,-0.271609804904,0.942240067611,-0.271609804904,0.0499051236027,0.14760781104
5800000000.0,0.0513565148822,0.149875459797,0.940510452801,-0.276061743577,0.940510452801,-0.276061743577,0.0513565148822,0.149875459797
5900000000.0,0.0528287664454,0.152127218628,0.938755023916,-0.280498170825,0.938755023916,-0.280498170825,0.0528287664454,0.152127218628
6000000000.0,0.0543216757914,0.154362884923,0.936973976298,-0.284918886575,0.936973976298,-0.284918886575,0.0543216757914,0.154362884923
6100000000.0,0.0558350382395,0.156582259246,0.935167507367,-0.289323693864,0.935167507367,-0.289323693864,0.0558350382395,0.156582259246
6200000000.0,0.0573686469915,0.15878514536,0.933335816569,-0.293712398865,0.933335816569,-0.293712398865,0.0573686469915,0.15878514536
6300000000.0,0.0589222931933,0.160971350246,0.931479105303,-0.298084810903,0.931479105303,-0.298084810903,0.0589222931933,0.160971350246
6400000000.0,0.0604957659972,0.163140684126,0.929597576867,-0.302440742484,0.929597576867,-0.302440742484,0.0604957659972,0.163140684126
6500000000.0,0.0620888526239,0.165292960478,0.927691436394,-0.306780009309,0.927691436394,-0.306780009309,0.0620888526239,0.165292960478
6600000000.0,0.0637013384239,0.167427996059,0.925760890789,-0.311102430295,0.925760890789,-0.311102430295,0.0637013384239,0.167427996059
6700000000.0,0.0653330069393,0.169545610918,0.923806148669,-0.31540782759,0.923806148669,-0.31540782759,0.0653330069393,0.169545610918
6800000000.0,0.0669836399653,0.171645628413,0.921827420299,-0.319696026593,0.921827420299,-0.319696026593,0.0669836399653,0.171645628413
6900000000.0,0.0686530176117,0.173727875226,0.919824917536,-0.323966855964,0.919824917536,-0.323966855964,0.0686530176117,0.173727875226
7000000000.0,0.0703409183638,0.175792181372,0.917798853761,-0.32822014764,0.917798853761,-0.32822014764,0.0703409183638,0.175792181372
7100000000.0,0.0720471191435,0.177838380215,0.915749443822,-0.332455736846,0.915749443822,-0.332455736846,0.0720471191435,0.177838380215
7200000000.0,0.0737713953705,0.179866308477,0.913676903974,-0.336673462109,0.913676903974,-0.336673462109,0.0737713953705,0.179866308477
7300000000.0,0.0755135210223,0.181875806248,0.911581451815,-0.340873165263,0.911581451815,-0.340873165263,0.0755135210223,0.181875806248
7400000000.0,0.077273268695,0.183866716992,0.909463306229,-0.34505469146,0.909463306229,-0.34505469146,0.077273268695,0.183866716992
7500000000.0,0.0790504096634,0.185838887557,0.907322687324,-0.349217889177,0.907322687324,-0.349217889177,0.0790504096634,0.185838887557
7600000000.0,0.0808447139407,0.187792168177,0.905159816371,-0.353362610225,0.905159816371,-0.353362610225,0.0808447139407,0.187792168177
7700000000.0,0.0826559503385,0.18972641248,0.902974915746,-0.357488709747,0.902974915746,-0.357488709747,0.0826559503385,0.18972641248
7800000000.0,0.0844838865255,0.191641477492,0.900768208871,-0.361596046229,0.900768208871,-0.361596046229,0.0844838865255,0.191641477492
7900000000.0,0.086328289087,0.193537223636,0.898539920155,-0.365684481497,0.898539920155,-0.365684481497,0.086328289087,0.193537223636
8000000000.0,0.0881889235834,0.195413514736,0.896290274933,-0.369753880725,0.896290274933,-0.369753880725,0.0881889235834,0.195413514736
8100000000.0,0.0900655546085,0.197270218015,0.894019499409,-0.373804112428,0.894019499409,-0.373804112428,0.0900655546085,0.197270218015
8200000000.0,0.0919579458472,0.199107204096,0.891727820599,-0.377835048465,0.891727820599,-0.377835048465,0.0919579458472,0.199107204096
8300000000.0,0.0938658601336,0.200924347,0.889415466273,-0.38184656404,0.889415466273,-0.38184656404,0.0938658601336,0.200924347
8400000000.0,0.0957890595076,0.202721524141,0.887082664894,-0.385838537692,0.887082664894,-0.385838537692,0.0957890595076,0.202721524141
8500000000.0,0.0977273052718,0.204498616326,0.884729645568,-0.389810851298,0.884729645568,-0.389810851298,0.0977273052718,0.204498616326
8600000000.0,0.0996803580479,0.206255507743,0.882356637983,-0.393763390064,0.882356637983,-0.393763390064,0.0996803580479,0.206255507743
8700000000.0,0.101647977833,0.207992085962,0.879963872352,-0.39769604252,0.879963872352,-0.39769604252,0.101647977833,0.207992085962
8800000000.0,0.103629924052,0.209708241925,0.877551579363,-0.401608700514,0.877551579363,-0.401608700514,0.103629924052,0.209708241925
8900000000.0,0.105625955619,0.211403869936,0.875119990116,-0.405501259202,0.875119990116,-0.405501259202,0.105625955619,0.211403869936
9000000000.0,0.107635830983,0.213078867654,0.872669336078,-0.409373617041,0.872669336078,-0.409373617041,0.107635830983,0.213078867654
9100000000.0,0.10965930819,0.214733136085,0.87019984902,-0.413225675778,0.87019984902,-0.413225675778,0.10965930819,0.214733136085
9200000000.0,0.111696144929,0.216366579565,0.867711760969,-0.417057340437,0.867711760969,-0.417057340437,0.111696144929,0.216366579565
9300000000.0,0.113746098591,0.217979105756,0.865205304154,-0.420868519313,0.865205304154,-0.420868519313,0.113746098591,0.217979105756
9400000000.0,0.115808926318,0.219570625626,0.862680710954,-0.424659123952,0.862680710954,-0.424659123952,0.115808926318,0.219570625626
9500000000.0,0.117884385053,0.22114105344,0.860138213843,-0.428429069144,0.860138213843,-0.428429069144,0.117884385053,0.22114105344
9600000000.0,0.119972231595,0.222690306744,0.857578045344,-0.432178272904,0.857578045344,-0.432178272904,0.119972231595,0.222690306744
9700000000.0,0.122072222648,0.224218306351,0.855000437973,-0.435906656459,0.855000437973,-0.435906656459,0.122072222648,0.224218306351
9800000000.0,0.124184114867,0.225724976321,0.852405624195,-0.439614144229,0.852405624195,-0.439614144229,0.124184114867,0.225724976321
9900000000.0,0.126307664914,0.227210243948,0.84979383637,-0.443300663814,0.84979383637,-0.443300663814,0.126307664914,0.227210243948
10000000000.0,0.128442629501,0.228674039744,0.847165306703,-0.446966145973,0.847165306703,-0.446966145973,0.128442629501,0.228674039744
