freq (GHz),S11_real,S11_imag,S21_real,S21_imag,S12_real,S12_imag,S22_real,S22_imag
100000000.0,-0.000515645160368,-0.0229017201311,0.999409002934,-0.0231280347121,0.999409002934,-0.0231280347121,-0.000515645160368,-0.0229017201311
200000000.0,-0.00212457662466,-0.0457276962751,0.997799480705,-0.0461803540041,0.997799480705,-0.0461803540041,-0.00212457662466,-0.0457276962751
300000000.0,-0.00477958764793,-0.0684054393558,0.995143957295,-0.0690844841548,0.995143957295,-0.0690844841548,-0.00477958764793,-0.0684054393558
400000000.0,-0.00846374501692,-0.0908641138298,0.991459301079,-0.0917696015948,0.991459301079,-0.0917696015948,-0.00846374501692,-0.0908641138298
500000000.0,-0.0131538751042,-0.113035218154,0.986768660804,-0.114167215035,0.986768660804,-0.114167215035,-0.0131538751042,-0.113035218154
600000000.0,-0.0188209137831,-0.134853240935,0.981101087938,-0.136211822187,0.981101087938,-0.136211822187,-0.0188209137831,-0.134853240935
700000000.0,-0.0254303473111,-0.156256260378,0.97449108875,-0.157841509512,0.97449108875,-0.157841509512,-0.0254303473111,-0.156256260378
800000000.0,-0.0329427244959,-0.177186472175,0.966978109586,-0.178998480278,0.966978109586,-0.178998480278,-0.0329427244959,-0.177186472175
900000000.0,-0.0413142251851,-0.197590636101,0.95860596724,-0.199629501271,0.95860596724,-0.199629501271,-0.0413142251851,-0.197590636101
1000000000.0,-0.0504972701781,-0.217420435124,0.949422238469,-0.219686261994,0.949422238469,-0.219686261994,-0.0504972701781,-0.217420435124
1100000000.0,-0.0604411575381,-0.2366327439,0.939477623357,-0.239125643218,0.939477623357,-0.239125643218,-0.0604411575381,-0.2366327439
1200000000.0,-0.0710927105732,-0.255189806345,0.928825297151,-0.257909894598,0.928825297151,-0.257909894598,-0.0710927105732,-0.255189806345
1300000000.0,-0.0823969234951,-0.273059324543,0.917520264478,-0.276006723628,0.917520264478,-0.276006723628,-0.0823969234951,-0.273059324543
1400000000.0,-0.0942975919191,-0.290214463485,0.905618728769,-0.2933893004,0.905618728769,-0.2933893004,-0.0942975919191,-0.290214463485
1500000000.0,-0.106737916853,-0.306633778004,0.893177488218,-0.310036184572,0.893177488218,-0.310036184572,-0.106737916853,-0.306633778004
1600000000.0,-0.11966107254,-0.322301069733,0.8802533679,-0.325931182346,0.8802533679,-0.325931182346,-0.11966107254,-0.322301069733
1700000000.0,-0.133010730385,-0.337205182979,0.866902695822,-0.341063142357,0.866902695822,-0.341063142357,-0.133010730385,-0.337205182979
1800000000.0,-0.146731533085,-0.35133974902,0.853180828767,-0.355425699993,0.853180828767,-0.355425699993,-0.146731533085,-0.35133974902
1900000000.0,-0.160769514978,-0.364702888624,0.839141731936,-0.369016979922,0.839141731936,-0.369016979922,-0.160769514978,-0.364702888624
2000000000.0,-0.175072466364,-0.377296882486,0.824837614614,-0.381839266546,0.824837614614,-0.381839266546,-0.175072466364,-0.377296882486
2100000000.0,-0.189590241179,-0.38912781892,0.810318622487,-0.393898651702,0.810318622487,-0.393898651702,-0.189590241179,-0.38912781892
2200000000.0,-0.204275008809,-0.400205227535,0.795632585822,-0.40520466835,0.795632585822,-0.40520466835,-0.204275008809,-0.400205227535
2300000000.0,-0.219081452022,-0.41054170685,0.780824821528,-0.4157699182,0.780824821528,-0.4157699182,-0.219081452022,-0.41054170685
2400000000.0,-0.233966913966,-0.42015255289,0.765937986159,-0.425609700311,0.765937986159,-0.425609700311,-0.233966913966,-0.42015255289
2500000000.0,-0.248891497904,-0.429055394852,0.751011976165,-0.43474164677,0.751011976165,-0.43474164677,-0.248891497904,-0.429055394852
2600000000.0,-0.263818123912,-0.437269842917,0.736083871206,-0.443185370509,0.736083871206,-0.443185370509,-0.263818123912,-0.437269842917
2700000000.0,-0.278712547043,-0.444817152328,0.721187915974,-0.450962129393,0.721187915974,-0.450962129393,-0.278712547043,-0.444817152328
2800000000.0,-0.293543341659,-0.451719906906,0.70635553586,-0.458094509738,0.70635553586,-0.458094509738,-0.293543341659,-0.451719906906
2900000000.0,-0.308281856614,-0.458001724306,0.691615381777,-0.464606131579,0.691615381777,-0.464606131579,-0.308281856614,-0.458001724306
3000000000.0,-0.322902145846,-0.463686984555,0.67699339956,-0.47052137721,0.67699339956,-0.47052137721,-0.322902145846,-0.463686984555
3100000000.0,-0.337380878749,-0.4688005827,0.662512919595,-0.475865143837,0.662512919595,-0.475865143837,-0.337380878749,-0.4688005827
3200000000.0,-0.351697234383,-0.473367705811,0.648194762609,-0.480662620588,0.648194762609,-0.480662620588,-0.351697234383,-0.473367705811
3300000000.0,-0.365832783272,-0.477413634103,0.634057357869,-0.48493908964,0.634057357869,-0.48493908964,-0.365832783272,-0.477413634103
3400000000.0,-0.379771360157,-0.480963565507,0.620116870429,-0.488719750796,0.620116870429,-0.488719750796,-0.379771360157,-0.480963565507
3500000000.0,-0.393498930705,-0.484042462734,0.606387334424,-0.492029568549,0.606387334424,-0.492029568549,-0.393498930705,-0.484042462734
3600000000.0,-0.407003454794,-0.486674921613,0.59288078978,-0.494893140428,0.59288078978,-0.494893140428,-0.407003454794,-0.486674921613
3700000000.0,-0.42027474863,-0.488885059335,0.579607420095,-0.497334585246,0.579607420095,-0.497334585246,-0.42027474863,-0.488885059335
3800000000.0,-0.433304347602,-0.490696421115,0.566575689791,-0.499377449764,0.566575689791,-0.499377449764,-0.433304347602,-0.490696421115
3900000000.0,-0.446085371443,-0.492131903724,0.553792478946,-0.501044632228,0.553792478946,-0.501044632228,-0.446085371443,-0.492131903724
4000000000.0,-0.458612392996,-0.49321369434,0.541263214532,-0.502358321224,0.541263214532,-0.502358321224,-0.458612392996,-0.49321369434
4100000000.0,-0.470881311576,-0.493963223177,0.528991997049,-0.503339948308,0.528991997049,-0.503339948308,-0.470881311576,-0.493963223177
4200000000.0,-0.482889231721,-0.494401128395,0.516981721778,-0.504010152924,0.516981721778,-0.504010152924,-0.482889231721,-0.494401128395
4300000000.0,-0.494634347874,-0.494547231874,0.505234194094,-0.504388758173,0.505234194094,-0.504388758173,-0.494634347874,-0.494547231874
4400000000.0,-0.506115835398,-0.494420524487,0.493750238453,-0.504494756101,0.493750238453,-0.504494756101,-0.506115835398,-0.494420524487
4500000000.0,-0.517333748134,-0.494039159643,0.482529800836,-0.504346301231,0.482529800836,-0.504346301231,-0.517333748134,-0.494039159643
4600000000.0,-0.528288922613,-0.493420453912,0.471572044536,-0.503960711203,0.471572044536,-0.503960711203,-0.528288922613,-0.493420453912
4700000000.0,-0.5389828889,-0.492580893686,0.46087543931,-0.503354473429,0.46087543931,-0.503354473429,-0.5389828889,-0.492580893686
4800000000.0,-0.549417787986,-0.49153614691,0.450437843992,-0.502543256832,0.450437843992,-0.502543256832,-0.549417787986,-0.49153614691
4900000000.0,-0.559596295555,-0.490301079011,0.440256582722,-0.501541927773,0.440256582722,-0.501541927773,-0.559596295555,-0.490301079011
5000000000.0,-0.569521551906,-0.488889772252,0.430328515027,-0.500364569412,0.430328515027,-0.500364569412,-0.569521551906,-0.488889772252
5100000000.0,-0.579197097783,-0.487315547823,0.420650099988,-0.499024503797,0.420650099988,-0.499024503797,-0.579197097783,-0.487315547823
5200000000.0,-0.588626815808,-0.485590990059,0.411217454812,-0.497534316088,0.411217454812,-0.497534316088,-0.588626815808,-0.485590990059
5300000000.0,-0.597814877222,-0.483727972262,0.402026408082,-0.495905880377,0.402026408082,-0.495905880377,-0.597814877222,-0.483727972262
5400000000.0,-0.606765693621,-0.481737683657,0.393072548031,-0.494150386651,0.393072548031,-0.494150386651,-0.606765693621,-0.481737683657
5500000000.0,-0.615483873354,-0.479630657092,0.384351266138,-0.492278368487,0.384351266138,-0.492278368487,-0.615483873354,-0.479630657092
5600000000.0,-0.623974182273,-0.477416797139,0.375857796377,-0.490299731161,0.375857796377,-0.490299731161,-0.623974182273,-0.477416797139
5700000000.0,-0.632241508517,-0.47510540831,0.367587250438,-0.488223779865,0.367587250438,-0.488223779865,-0.632241508517,-0.47510540831
5800000000.0,-0.640290831027,-0.472705223143,0.359534649208,-0.48605924779,0.359534649208,-0.48605924779,-0.640290831027,-0.472705223143
5900000000.0,-0.648127191493,-0.470224429964,0.351694950826,-0.483814323897,0.351694950826,-0.483814323897,-0.648127191493,-0.470224429964
6000000000.0,-0.655755669457,-0.467670700153,0.344063075576,-0.481496680178,0.344063075576,-0.481496680178,-0.655755669457,-0.467670700153
6100000000.0,-0.663181360308,-0.465051214785,0.3366339279,-0.479113498299,0.3366339279,-0.479113498299,-0.663181360308,-0.465051214785
6200000000.0,-0.670409355902,-0.462372690539,0.329402415769,-0.476671495516,0.329402415769,-0.476671495516,-0.670409355902,-0.462372690539
6300000000.0,-0.677444727592,-0.459641404794,0.322363467659,-0.474176949768,0.322363467659,-0.474176949768,-0.677444727592,-0.459641404794
6400000000.0,-0.684292511432,-0.456863219858,0.315512047343,-0.471635723905,0.315512047343,-0.471635723905,-0.684292511432,-0.456863219858
6500000000.0,-0.690957695354,-0.454043606269,0.308843166718,-0.469053288999,0.308843166718,-0.469053288999,-0.690957695354,-0.454043606269
6600000000.0,-0.697445208132,-0.451187665163,0.302351896838,-0.466434746704,0.302351896838,-0.466434746704,-0.697445208132,-0.451187665163
6700000000.0,-0.703759909944,-0.448300149678,0.296033377353,-0.463784850663,0.296033377353,-0.463784850663,-0.703759909944,-0.448300149678
6800000000.0,-0.709906584388,-0.44538548539,0.289882824492,-0.461108026951,0.289882824492,-0.461108026951,-0.709906584388,-0.44538548539
6900000000.0,-0.715889931792,-0.442447789797,0.283895537755,-0.458408393554,0.283895537755,-0.458408393554,-0.715889931792,-0.442447789797
7000000000.0,-0.721714563676,-0.439490890847,0.278066905448,-0.455689778898,0.278066905448,-0.455689778898,-0.721714563676,-0.439490890847
7100000000.0,-0.72738499826,-0.436518344536,0.27239240918,-0.452955739455,0.27239240918,-0.452955739455,-0.72738499826,-0.436518344536
7200000000.0,-0.732905656885,-0.433533451604,0.266867627434,-0.45020957643,0.266867627434,-0.45020957643,-0.732905656885,-0.433533451604
7300000000.0,-0.738280861255,-0.430539273335,0.261488238335,-0.447454351568,0.261488238335,-0.447454351568,-0.738280861255,-0.430539273335
7400000000.0,-0.743514831402,-0.42753864651,0.256250021675,-0.444692902111,0.256250021675,-0.444692902111,-0.743514831402,-0.42753864651
7500000000.0,-0.748611684292,-0.424534197538,0.251148860315,-0.441927854917,0.251148860315,-0.441927854917,-0.748611684292,-0.424534197538
7600000000.0,-0.753575432988,-0.421528355782,0.246180741016,-0.439161639804,0.246180741016,-0.439161639804,-0.753575432988,-0.421528355782
7700000000.0,-0.758409986311,-0.418523366139,0.241341754782,-0.436396502116,0.241341754782,-0.436396502116,-0.758409986311,-0.418523366139
7800000000.0,-0.76311914893,-0.415521300884,0.23662809677,-0.433634514578,0.23662809677,-0.433634514578,-0.76311914893,-0.415521300884
7900000000.0,-0.767706621817,-0.412524070826,0.232036065829,-0.430877588445,0.232036065829,-0.430877588445,-0.767706621817,-0.412524070826
8000000000.0,-0.772176003042,-0.4095334358,0.227562063715,-0.428127483999,0.227562063715,-0.428127483999,-0.772176003042,-0.4095334358
8100000000.0,-0.776530788825,-0.406551014534,0.22320259403,-0.425385820419,0.22320259403,-0.425385820419,-0.776530788825,-0.406551014534
8200000000.0,-0.780774374843,-0.403578293922,0.218954260919,-0.422654085048,0.218954260919,-0.422654085048,-0.780774374843,-0.403578293922
8300000000.0,-0.784910057726,-0.40061663773,0.214813767574,-0.419933642102,0.214813767574,-0.419933642102,-0.784910057726,-0.40061663773
8400000000.0,-0.788941036728,-0.397667294767,0.210777914563,-0.417225740846,0.210777914563,-0.417225740846,-0.788941036728,-0.397667294767
8500000000.0,-0.792870415533,-0.394731406556,0.206843598022,-0.414531523261,0.206843598022,-0.414531523261,-0.792870415533,-0.394731406556
8600000000.0,-0.796701204179,-0.391810014526,0.203007807734,-0.411852031236,0.203007807734,-0.411852031236,-0.796701204179,-0.391810014526
8700000000.0,-0.800436321072,-0.388904066754,0.199267625111,-0.409188213313,0.199267625111,-0.409188213313,-0.800436321072,-0.388904066754
8800000000.0,-0.80407859507,-0.386014424283,0.195620221115,-0.406540931004,0.195620221115,-0.406540931004,-0.80407859507,-0.386014424283
8900000000.0,-0.807630767625,-0.383141867043,0.192062854113,-0.403910964714,0.192062854113,-0.403910964714,-0.807630767625,-0.383141867043
9000000000.0,-0.811095494957,-0.380287099393,0.1885928677,-0.401299019282,0.1885928677,-0.401299019282,-0.811095494957,-0.380287099393
9100000000.0,-0.81447535026,-0.377450755317,0.185207688499,-0.398705729177,0.185207688499,-0.398705729177,-0.81447535026,-0.377450755317
9200000000.0,-0.817772825918,-0.37463340328,0.181904823944,-0.396131663355,0.181904823944,-0.396131663355,-0.817772825918,-0.37463340328
9300000000.0,-0.82099033572,-0.371835550773,0.178681860061,-0.393577329807,0.178681860061,-0.393577329807,-0.82099033572,-0.371835550773
9400000000.0,-0.824130217071,-0.369057648575,0.175536459258,-0.391043179816,0.175536459258,-0.391043179816,-0.824130217071,-0.369057648575
9500000000.0,-0.827194733195,-0.366300094729,0.172466358125,-0.388529611935,0.172466358125,-0.388529611935,-0.827194733195,-0.366300094729
9600000000.0,-0.830186075308,-0.363563238262,0.169469365259,-0.386036975713,0.169469365259,-0.386036975713,-0.830186075308,-0.363563238262
9700000000.0,-0.833106364768,-0.360847382672,0.166543359116,-0.383565575174,0.166543359116,-0.383565575174,-0.833106364768,-0.360847382672
9800000000.0,-0.835957655193,-0.358152789177,0.163686285885,-0.381115672072,0.163686285885,-0.381115672072,-0.835957655193,-0.358152789177
9900000000.0,-0.83874193455,-0.355479679759,0.160896157413,-0.378687488932,0.160896157413,-0.378687488932,-0.83874193455,-0.355479679759
10000000000.0,-0.841461127195,-0.35282824001,0.158171049151,-0.376281211896,0.158171049151,-0.376281211896,-0.841461127195,-0.35282824001
