freq (GHz),S11_real,S11_imag,S21_real,S21_imag,S12_real,S12_imag,S22_real,S22_imag
100000000.0,1.19405647399e-05,-0.00529026094572,0.99991797731,-0.00551809539257,0.99991797731,-0.00551809539257,1.19405647399e-05,-0.00529026094572
200000000.0,-8.06462013849e-05,-0.0105795675752,0.999824674496,-0.0110352492084,0.999824674496,-0.0110352492084,-8.06462013853e-05,-0.0105795675752
300000000.0,-0.000231664332198,-0.015867031349,0.999673051002,-0.0165505798403,0.999673051002,-0.0165505798403,-0.000231664332198,-0.015867031349
400000000.0,-0.000441027273346,-0.0211517524319,0.999463112426,-0.0220631928103,0.999463112426,-0.0220631928103,-0.000441027273346,-0.0211517524319
500000000.0,-0.000708654731257,-0.0264328261049,0.999194907998,-0.0275721879827,0.999194907998,-0.0275721879827,-0.000708654731257,-0.0264328261049
600000000.0,-0.00103445520083,-0.0317093453515,0.99886851343,-0.03307666242,0.99886851343,-0.03307666242,-0.00103445520084,-0.0317093453515
700000000.0,-0.00141832148848,-0.0369804024306,0.998484026611,-0.0385757120921,0.998484026611,-0.0385757120921,-0.00141832148848,-0.0369804024306
800000000.0,-0.00186012907632,-0.042245090021,0.998041566044,-0.0440684331015,0.998041566044,-0.0440684331015,-0.00186012907632,-0.042245090021
900000000.0,-0.00235973541285,-0.0475025021489,0.997541270131,-0.0495539226643,0.997541270131,-0.0495539226643,-0.00235973541285,-0.0475025021489
1000000000.0,-0.00291697958562,-0.0527517349906,0.996983296783,-0.0550312799501,0.996983296783,-0.0550312799501,-0.00291697958562,-0.0527517349906
1100000000.0,-0.00353168218068,-0.0579918875953,0.996367823159,-0.0604996068318,0.996367823159,-0.0604996068318,-0.00353168218068,-0.0579918875953
1200000000.0,-0.00420364524699,-0.0632220625544,0.995695045465,-0.0659580085761,0.995695045465,-0.0659580085761,-0.00420364524699,-0.0632220625544
1300000000.0,-0.00493265232708,-0.0684413666308,0.994965178776,-0.0714055944896,0.994965178776,-0.0714055944896,-0.00493265232708,-0.0684413666308
1400000000.0,-0.00571846853399,-0.0736489113585,0.99417845686,-0.076841478531,0.99417845686,-0.076841478531,-0.00571846853399,-0.0736489113585
1500000000.0,-0.00656084066358,-0.0788438136185,0.993335131998,-0.0822647798987,0.993335131998,-0.0822647798987,-0.00656084066358,-0.0788438136185
1600000000.0,-0.00745949733546,-0.0840251961949,0.992435474799,-0.0876746235951,0.992435474799,-0.0876746235951,-0.00745949733546,-0.0840251961949
1700000000.0,-0.00841414915832,-0.0891921883126,0.991479773998,-0.0930701409726,0.991479773998,-0.0930701409726,-0.00841414915832,-0.0891921883126
1800000000.0,-0.0094244889169,-0.094343926159,0.990468336248,-0.0984504702621,0.990468336248,-0.0984504702621,-0.0094244889169,-0.094343926159
1900000000.0,-0.0104901917788,-0.0994795533928,0.989401485893,-0.103814757087,0.989401485893,-0.103814757087,-0.0104901917788,-0.0994795533928
2000000000.0,-0.0116109155195,-0.104598221636,0.988279564727,-0.109162154961,0.988279564727,-0.109162154961,-0.0116109155195,-0.104598221636
2100000000.0,-0.0127863007637,-0.109699090957,0.987102931745,-0.114491825774,0.987102931745,-0.114491825774,-0.0127863007637,-0.109699090957
2200000000.0,-0.014015971244,-0.114781330331,0.985871962876,-0.119802940259,0.985871962876,-0.119802940259,-0.014015971244,-0.114781330331
2300000000.0,-0.0152995340735,-0.119844118103,0.984587050699,-0.125094678456,0.984587050699,-0.125094678456,-0.0152995340735,-0.119844118103
2400000000.0,-0.0166365800338,-0.124886642418,0.983248604155,-0.13036623015,0.983248604155,-0.13036623015,-0.0166365800338,-0.124886642418
2500000000.0,-0.0180266838756,-0.129908101657,0.98185704824,-0.135616795301,0.98185704824,-0.135616795301,-0.0180266838756,-0.129908101657
2600000000.0,-0.0194694046338,-0.134907704845,0.980412823684,-0.140845584466,0.980412823684,-0.140845584466,-0.0194694046338,-0.134907704845
2700000000.0,-0.0209642859538,-0.139884672057,0.978916386625,-0.146051819197,0.978916386625,-0.146051819197,-0.0209642859538,-0.139884672057
2800000000.0,-0.0225108564302,-0.144838234797,0.977368208268,-0.151234732432,0.977368208268,-0.151234732432,-0.0225108564302,-0.144838234797
2900000000.0,-0.0241086299567,-0.149767636381,0.975768774529,-0.156393568871,0.975768774529,-0.156393568871,-0.0241086299567,-0.149767636381
3000000000.0,-0.0257571060863,-0.154672132287,0.974118585679,-0.161527585334,0.974118585679,-0.161527585334,-0.0257571060863,-0.154672132287
3100000000.0,-0.0274557704014,-0.159550990509,0.972418155967,-0.166636051114,0.972418155967,-0.166636051114,-0.0274557704014,-0.159550990509
3200000000.0,-0.0292040948942,-0.16440349188,0.970668013241,-0.171718248302,0.970668013241,-0.171718248302,-0.0292040948942,-0.16440349188
3300000000.0,-0.0310015383544,-0.169228930392,0.96886869856,-0.176773472112,0.96886869856,-0.176773472112,-0.0310015383544,-0.169228930392
3400000000.0,-0.0328475467664,-0.174026613497,0.967020765793,-0.181801031179,0.967020765793,-0.181801031179,-0.0328475467664,-0.174026613497
3500000000.0,-0.0347415537134,-0.178795862398,0.965124781218,-0.18680024785,0.965124781218,-0.18680024785,-0.0347415537134,-0.178795862398
3600000000.0,-0.0366829807885,-0.183536012312,0.963181323106,-0.191770458457,0.963181323106,-0.191770458457,-0.0366829807885,-0.183536012312
3700000000.0,-0.0386712380123,-0.188246412737,0.961190981308,-0.196711013574,0.961190981308,-0.196711013574,-0.0386712380123,-0.188246412737
3800000000.0,-0.0407057242567,-0.192926427688,0.959154356825,-0.201621278265,0.959154356825,-0.201621278265,-0.0407057242567,-0.192926427688
3900000000.0,-0.0427858276727,-0.197575435927,0.957072061383,-0.206500632305,0.957072061383,-0.206500632305,-0.0427858276727,-0.197575435927
4000000000.0,-0.0449109261245,-0.202192831172,0.954944716998,-0.211348470399,0.954944716998,-0.211348470399,-0.0449109261245,-0.202192831172
4100000000.0,-0.0470803876259,-0.206778022298,0.952772955541,-0.216164202378,0.952772955541,-0.216164202378,-0.0470803876259,-0.206778022298
4200000000.0,-0.0492935707813,-0.211330433515,0.950557418292,-0.220947253378,0.950557418292,-0.220947253378,-0.0492935707813,-0.211330433515
4300000000.0,-0.0515498252291,-0.215849504534,0.948298755501,-0.225697064014,0.948298755501,-0.225697064014,-0.0515498252291,-0.215849504534
4400000000.0,-0.0538484920874,-0.220334690721,0.94599762594,-0.230413090526,0.94599762594,-0.230413090526,-0.0538484920874,-0.220334690721
4500000000.0,-0.0561889044012,-0.224785463232,0.943654696456,-0.23509480492,0.943654696456,-0.23509480492,-0.0561889044012,-0.224785463232
4600000000.0,-0.0585703875916,-0.229201309135,0.941270641521,-0.239741695087,0.941270641521,-0.239741695087,-0.0585703875916,-0.229201309135
4700000000.0,-0.0609922599042,-0.233581731512,0.938846142785,-0.244353264912,0.938846142785,-0.244353264912,-0.0609922599042,-0.233581731512
4800000000.0,-0.063453832859,-0.237926249557,0.936381888625,-0.248929034368,0.936381888625,-0.248929034368,-0.063453832859,-0.237926249557
4900000000.0,-0.0659544116988,-0.24223439865,0.933878573693,-0.253468539589,0.933878573693,-0.253468539589,-0.0659544116988,-0.24223439865
5000000000.0,-0.0684932958369,-0.246505730416,0.931336898477,-0.257971332938,0.931336898477,-0.257971332938,-0.0684932958369,-0.246505730416
5100000000.0,-0.0710697793041,-0.250739812782,0.928757568844,-0.26243698305,0.928757568844,-0.26243698305,-0.0710697793041,-0.250739812782
5200000000.0,-0.073683151192,-0.25493623,0.926141295604,-0.266865074876,0.926141295604,-0.266865074876,-0.073683151192,-0.25493623
5300000000.0,-0.0763326960958,-0.259094582677,0.923488794061,-0.271255209694,0.923488794061,-0.271255209694,-0.0763326960958,-0.259094582677
5400000000.0,-0.0790176945525,-0.263214487777,0.920800783581,-0.275607005123,0.920800783581,-0.275607005123,-0.0790176945525,-0.263214487777
5500000000.0,-0.081737423477,-0.267295578612,0.918077987152,-0.279920095112,0.918077987152,-0.279920095112,-0.081737423477,-0.267295578612
5600000000.0,-0.0844911565935,-0.271337504828,0.915321130952,-0.284194129926,0.915321130952,-0.284194129926,-0.0844911565935,-0.271337504828
5700000000.0,-0.087278164863,-0.275339932368,0.912530943924,-0.288428776107,0.912530943924,-0.288428776107,-0.087278164863,-0.275339932368
5800000000.0,-0.0900977169063,-0.279302543427,0.90970815735,-0.292623716438,0.90970815735,-0.292623716438,-0.0900977169063,-0.279302543427
5900000000.0,-0.0929490794218,-0.283225036396,0.906853504437,-0.296778649875,0.906853504437,-0.296778649875,-0.0929490794218,-0.283225036396
6000000000.0,-0.0958315175976,-0.287107125788,0.903967719901,-0.300893291486,0.903967719901,-0.300893291486,-0.0958315175976,-0.287107125788
6100000000.0,-0.0987442955184,-0.290948542164,0.901051539562,-0.304967372369,0.901051539562,-0.304967372369,-0.0987442955184,-0.290948542164
6200000000.0,-0.101686676566,-0.294749032034,0.898105699944,-0.309000639555,0.898105699944,-0.309000639555,-0.101686676566,-0.294749032034
6300000000.0,-0.104657923814,-0.298508357754,0.89513093788,-0.312992855911,0.89513093788,-0.312992855911,-0.104657923814,-0.298508357754
6400000000.0,-0.107657300412,-0.302226297416,0.892127990124,-0.316943800021,0.892127990124,-0.316943800021,-0.107657300412,-0.302226297416
6500000000.0,-0.110684069972,-0.305902644718,0.889097592972,-0.320853266064,0.889097592972,-0.320853266064,-0.110684069972,-0.305902644718
6600000000.0,-0.113737496936,-0.309537208831,0.886040481887,-0.324721063682,0.886040481887,-0.324721063682,-0.113737496936,-0.309537208831
6700000000.0,-0.116816846942,-0.313129814259,0.882957391137,-0.32854701783,0.882957391137,-0.32854701783,-0.116816846942,-0.313129814259
6800000000.0,-0.119921387185,-0.316680300679,0.879849053434,-0.33233096863,0.879849053434,-0.33233096863,-0.119921387185,-0.316680300679
6900000000.0,-0.123050386764,-0.320188522782,0.876716199586,-0.336072771206,0.876716199586,-0.336072771206,-0.123050386764,-0.320188522782
7000000000.0,-0.126203117024,-0.323654350105,0.873559558153,-0.339772295511,0.873559558153,-0.339772295511,-0.126203117024,-0.323654350105
7100000000.0,-0.12937885189,-0.327077666846,0.870379855119,-0.343429426154,0.870379855119,-0.343429426154,-0.12937885189,-0.327077666846
7200000000.0,-0.132576868189,-0.330458371682,0.867177813562,-0.347044062209,0.867177813562,-0.347044062209,-0.132576868189,-0.330458371682
7300000000.0,-0.13579644597,-0.333796377576,0.86395415334,-0.350616117027,0.86395415334,-0.350616117027,-0.13579644597,-0.333796377576
7400000000.0,-0.139036868808,-0.337091611573,0.860709590786,-0.35414551803,0.860709590786,-0.35414551803,-0.139036868808,-0.337091611573
7500000000.0,-0.142297424101,-0.340344014594,0.857444838407,-0.357632206505,0.857444838407,-0.357632206505,-0.142297424101,-0.340344014594
7600000000.0,-0.145577403363,-0.343553541223,0.854160604598,-0.361076137396,0.854160604598,-0.361076137396,-0.145577403363,-0.343553541223
7700000000.0,-0.148876102499,-0.346720159488,0.850857593359,-0.364477279079,0.850857593359,-0.364477279079,-0.148876102499,-0.346720159488
7800000000.0,-0.152192822082,-0.349843850635,0.847536504026,-0.36783561314,0.847536504026,-0.36783561314,-0.152192822082,-0.349843850635
7900000000.0,-0.155526867606,-0.352924608901,0.84419803101,-0.371151134147,0.84419803101,-0.371151134147,-0.155526867606,-0.352924608901
8000000000.0,-0.158877549746,-0.355962441276,0.840842863544,-0.374423849414,0.840842863544,-0.374423849414,-0.158877549746,-0.355962441276
8100000000.0,-0.162244184596,-0.358957367267,0.83747168544,-0.377653778761,0.83747168544,-0.377653778761,-0.162244184596,-0.358957367267
8200000000.0,-0.165626093903,-0.361909418654,0.834085174858,-0.380840954276,0.834085174858,-0.380840954276,-0.165626093903,-0.361909418654
8300000000.0,-0.169022605294,-0.364818639243,0.830684004079,-0.383985420067,0.830684004079,-0.383985420067,-0.169022605294,-0.364818639243
8400000000.0,-0.172433052485,-0.36768508462,0.827268839291,-0.387087232009,0.827268839291,-0.387087232009,-0.172433052485,-0.36768508462
8500000000.0,-0.175856775493,-0.370508821894,0.823840340387,-0.390146457499,0.823840340387,-0.390146457499,-0.175856775493,-0.370508821894
8600000000.0,-0.179293120828,-0.373289929446,0.820399160762,-0.393163175195,0.820399160762,-0.393163175195,-0.179293120828,-0.373289929446
8700000000.0,-0.182741441679,-0.376028496668,0.816945947133,-0.396137474762,0.816945947133,-0.396137474762,-0.182741441679,-0.376028496668
8800000000.0,-0.186201098095,-0.378724623707,0.813481339359,-0.399069456613,0.813481339359,-0.399069456613,-0.186201098095,-0.378724623707
8900000000.0,-0.189671457152,-0.381378421203,0.810005970268,-0.401959231645,0.810005970268,-0.401959231645,-0.189671457152,-0.381378421203
9000000000.0,-0.193151893113,-0.383990010024,0.806520465505,-0.404806920984,0.806520465505,-0.404806920984,-0.193151893113,-0.383990010024
9100000000.0,-0.196641787579,-0.386559521009,0.803025443377,-0.407612655714,0.803025443377,-0.407612655714,-0.196641787579,-0.386559521009
9200000000.0,-0.200140529628,-0.389087094699,0.799521514709,-0.410376576621,0.799521514709,-0.410376576621,-0.200140529628,-0.389087094699
9300000000.0,-0.203647515953,-0.391572881075,0.796009282715,-0.413098833921,0.796009282715,-0.413098833921,-0.203647515953,-0.391572881075
9400000000.0,-0.207162150982,-0.394017039292,0.792489342874,-0.415779587002,0.792489342874,-0.415779587002,-0.207162150982,-0.394017039292
9500000000.0,-0.210683846999,-0.396419737418,0.788962282808,-0.41841900416,0.788962282808,-0.41841900416,-0.210683846999,-0.396419737418
9600000000.0,-0.214212024246,-0.398781152165,0.785428682179,-0.421017262329,0.785428682179,-0.421017262329,-0.214212024246,-0.398781152165
9700000000.0,-0.217746111027,-0.40110146863,0.78188911259,-0.423574546824,0.78188911259,-0.423574546824,-0.217746111027,-0.40110146863
9800000000.0,-0.221285543798,-0.403380880031,0.778344137491,-0.426091051077,0.778344137491,-0.426091051077,-0.221285543798,-0.403380880031
9900000000.0,-0.22482976725,-0.405619587444,0.774794312095,-0.428566976374,0.774794312095,-0.428566976374,-0.22482976725,-0.405619587444
10000000000.0,-0.228378234387,-0.407817799545,0.771240183305,-0.431002531595,0.771240183305,-0.431002531595,-0.228378234387,-0.407817799545
