freq (GHz),S11_real,S11_imag,S21_real,S21_imag,S12_real,S12_imag,S22_real,S22_imag
100000000.0,1.85610725083e-05,-0.00260301979345,0.999961014057,-0.0027209888939,0.999961014057,-0.0027209888939,1.85610725083e-05,-0.00260301979345
200000000.0,-5.11799890868e-06,-0.00520593666251,0.999936923328,-0.005441879675,0.999936923328,-0.005441879675,-5.1179989089e-06,-0.00520593666251
300000000.0,-4.30112865941e-05,-0.00780865729541,0.99989870413,-0.00816258160723,0.99989870413,-0.00816258160723,-4.30112865942e-05,-0.00780865729541
400000000.0,-9.50920092586e-05,-0.0104110839348,0.999846333659,-0.0108829989165,0.999846333659,-0.0108829989165,-9.50920092585e-05,-0.0104110839348
500000000.0,-0.000161347745664,-0.0130131165666,0.999779805315,-0.0136030332802,0.999779805315,-0.0136030332802,-0.000161347745664,-0.0130131165666
600000000.0,-0.000241769791832,-0.015614653703,0.999699118137,-0.0163225847133,0.999699118137,-0.0163225847133,-0.000241769791832,-0.015614653703
700000000.0,-0.000336350445666,-0.0182155927867,0.999604274141,-0.0190415520229,0.999604274141,-0.0190415520229,-0.000336350445666,-0.0182155927867
800000000.0,-0.000445082006708,-0.0208158304367,0.999495277354,-0.0217598330857,0.999495277354,-0.0217598330857,-0.000445082006707,-0.0208158304367
900000000.0,-0.00056795632476,-0.0234152626209,0.9993721334,-0.0244773250404,0.9993721334,-0.0244773250404,-0.00056795632476,-0.0234152626209
1000000000.0,-0.000704964566547,-0.0260137847778,0.999234849286,-0.0271939244228,0.999234849286,-0.0271939244228,-0.000704964566547,-0.0260137847778
1100000000.0,-0.000856097082565,-0.0286112919107,0.999083433299,-0.0299095272714,0.999083433299,-0.0299095272714,-0.000856097082565,-0.0286112919107
1200000000.0,-0.00102134332519,-0.0312076786657,0.998917894935,-0.0326240292128,0.998917894935,-0.0326240292128,-0.00102134332519,-0.0312076786657
1300000000.0,-0.00120069179519,-0.0338028393928,0.998738244864,-0.0353373255285,0.998738244864,-0.0353373255285,-0.00120069179519,-0.0338028393928
1400000000.0,-0.00139413000511,-0.0363966682013,0.998544494907,-0.0380493112166,0.998544494907,-0.0380493112166,-0.00139413000511,-0.0363966682013
1500000000.0,-0.00160164445312,-0.0389890590062,0.998336658021,-0.0407598810405,0.998336658021,-0.0407598810405,-0.00160164445312,-0.0389890590062
1600000000.0,-0.00182322060399,-0.0415799055703,0.998114748289,-0.0434689295762,0.998114748289,-0.0434689295762,-0.00182322060399,-0.0415799055703
1700000000.0,-0.00205884287463,-0.0441691015415,0.997878780913,-0.0461763512512,0.997878780913,-0.0461763512512,-0.00205884287463,-0.0441691015415
1800000000.0,-0.00230849462323,-0.0467565404883,0.997628772214,-0.0488820403829,0.997628772214,-0.0488820403829,-0.00230849462323,-0.0467565404883
1900000000.0,-0.00257215814078,-0.049342115931,0.997364739624,-0.0515858912121,0.997364739624,-0.0515858912121,-0.00257215814078,-0.049342115931
2000000000.0,-0.00284981464462,-0.0519257213721,0.997086701685,-0.0542877979349,0.997086701685,-0.0542877979349,-0.00284981464462,-0.0519257213721
2100000000.0,-0.00314144427344,-0.0545072503248,0.99679467805,-0.0569876547331,0.99679467805,-0.0569876547331,-0.00314144427344,-0.0545072503248
2200000000.0,-0.00344702608354,-0.0570865963388,0.99648868948,-0.0596853558014,0.99648868948,-0.0596853558014,-0.00344702608354,-0.0570865963388
2300000000.0,-0.00376653804614,-0.0596636530274,0.996168757841,-0.0623807953758,0.996168757841,-0.0623807953758,-0.00376653804614,-0.0596636530274
2400000000.0,-0.00409995704551,-0.0622383140904,0.995834906105,-0.0650738677577,0.995834906105,-0.0650738677577,-0.00409995704551,-0.0622383140904
2500000000.0,-0.00444725887797,-0.0648104733396,0.995487158345,-0.06776446734,0.995487158345,-0.06776446734,-0.00444725887797,-0.0648104733396
2600000000.0,-0.00480841825139,-0.0673800247199,0.995125539737,-0.0704524886302,0.995125539737,-0.0704524886302,-0.00480841825139,-0.0673800247199
2700000000.0,-0.00518340878546,-0.069946862333,0.994750076558,-0.0731378262737,0.994750076558,-0.0731378262737,-0.00518340878546,-0.069946862333
2800000000.0,-0.00557220301242,-0.0725108804576,0.994360796178,-0.075820375076,0.994360796178,-0.075820375076,-0.00557220301242,-0.0725108804576
2900000000.0,-0.00597477237834,-0.075071973572,0.993957727064,-0.0785000300251,0.993957727064,-0.0785000300251,-0.00597477237834,-0.075071973572
3000000000.0,-0.00639108724478,-0.0776300363729,0.993540898775,-0.0811766863115,0.993540898775,-0.0811766863115,-0.00639108724478,-0.0776300363729
3100000000.0,-0.00682111689111,-0.080184963797,0.993110341958,-0.0838502393505,0.993110341958,-0.0838502393505,-0.00682111689111,-0.080184963797
3200000000.0,-0.00726482951701,-0.08273665104,0.992666088344,-0.0865205848012,0.992666088344,-0.0865205848012,-0.00726482951701,-0.08273665104
3300000000.0,-0.00772219224547,-0.0852849935757,0.992208170748,-0.0891876185868,0.992208170748,-0.0891876185868,-0.00772219224547,-0.0852849935757
3400000000.0,-0.00819317112626,-0.0878298871753,0.991736623061,-0.0918512369144,0.991736623061,-0.0918512369144,-0.00819317112626,-0.0878298871753
3500000000.0,-0.00867773113962,-0.090371227926,0.991251480248,-0.0945113362934,0.991251480248,-0.0945113362934,-0.00867773113962,-0.090371227926
3600000000.0,-0.00917583620041,-0.0929089122491,0.990752778343,-0.0971678135549,0.990752778343,-0.0971678135549,-0.00917583620041,-0.0929089122491
3700000000.0,-0.00968744916255,-0.0954428369181,0.990240554443,-0.0998205658696,0.990240554443,-0.0998205658696,-0.00968744916255,-0.0954428369181
3800000000.0,-0.0102125318238,-0.0979728990759,0.989714846704,-0.102469490766,0.989714846704,-0.102469490766,-0.0102125318238,-0.0979728990759
3900000000.0,-0.0107510449308,-0.100498996253,0.989175694338,-0.105114486148,0.989175694338,-0.105114486148,-0.0107510449308,-0.100498996253
4000000000.0,-0.0113029481849,-0.103021026385,0.988623137601,-0.107755450314,0.988623137601,-0.107755450314,-0.0113029481849,-0.103021026385
4100000000.0,-0.0118682002473,-0.105538887826,0.988057217795,-0.110392281971,0.988057217795,-0.110392281971,-0.0118682002473,-0.105538887826
4200000000.0,-0.0124467587453,-0.108052479372,0.987477977253,-0.113024880255,0.987477977253,-0.113024880255,-0.0124467587453,-0.108052479372
4300000000.0,-0.0130385802791,-0.11056170027,0.986885459341,-0.115653144744,0.986885459341,-0.115653144744,-0.0130385802791,-0.11056170027
4400000000.0,-0.0136436204277,-0.113066450239,0.986279708446,-0.118276975479,0.986279708446,-0.118276975479,-0.0136436204277,-0.113066450239
4500000000.0,-0.014261833756,-0.115566629482,0.98566076997,-0.120896272975,0.98566076997,-0.120896272975,-0.014261833756,-0.115566629482
4600000000.0,-0.0148931738225,-0.118062138707,0.985028690324,-0.123510938241,0.985028690324,-0.123510938241,-0.0148931738225,-0.118062138707
4700000000.0,-0.0155375931858,-0.120552879136,0.984383516918,-0.126120872795,0.984383516918,-0.126120872795,-0.0155375931858,-0.120552879136
4800000000.0,-0.016195043413,-0.123038752526,0.983725298157,-0.128725978675,0.983725298157,-0.128725978675,-0.016195043413,-0.123038752526
4900000000.0,-0.0168654750875,-0.12551966118,0.983054083429,-0.131326158463,0.983054083429,-0.131326158463,-0.0168654750875,-0.12551966118
5000000000.0,-0.0175488378168,-0.127995507963,0.982369923099,-0.13392131529,0.982369923099,-0.13392131529,-0.0175488378168,-0.127995507963
5100000000.0,-0.0182450802415,-0.130466196316,0.9816728685,-0.136511352857,0.9816728685,-0.136511352857,-0.0182450802415,-0.130466196316
5200000000.0,-0.0189541500436,-0.13293163027,0.980962971924,-0.139096175449,0.980962971924,-0.139096175449,-0.0189541500436,-0.13293163027
5300000000.0,-0.0196759939552,-0.135391714464,0.980240286613,-0.141675687945,0.980240286613,-0.141675687945,-0.0196759939552,-0.135391714464
5400000000.0,-0.0204105577683,-0.13784635415,0.979504866753,-0.144249795838,0.979504866753,-0.144249795838,-0.0204105577683,-0.13784635415
5500000000.0,-0.0211577863435,-0.140295455217,0.978756767457,-0.146818405243,0.978756767457,-0.146818405243,-0.0211577863435,-0.140295455217
5600000000.0,-0.0219176236196,-0.142738924196,0.977996044763,-0.149381422915,0.977996044763,-0.149381422915,-0.0219176236196,-0.142738924196
5700000000.0,-0.0226900126238,-0.145176668276,0.977222755623,-0.151938756259,0.977222755623,-0.151938756259,-0.0226900126238,-0.145176668276
5800000000.0,-0.0234748954813,-0.147608595318,0.976436957887,-0.154490313345,0.976436957887,-0.154490313345,-0.0234748954813,-0.147608595318
5900000000.0,-0.0242722134254,-0.150034613867,0.9756387103,-0.157036002919,0.9756387103,-0.157036002919,-0.0242722134254,-0.150034613867
6000000000.0,-0.0250819068082,-0.152454633162,0.974828072489,-0.159575734418,0.974828072489,-0.159575734418,-0.0250819068082,-0.152454633162
6100000000.0,-0.0259039151108,-0.15486856315,0.974005104952,-0.162109417978,0.974005104952,-0.162109417978,-0.0259039151108,-0.15486856315
6200000000.0,-0.0267381769541,-0.1572763145,0.973169869045,-0.16463696445,0.973169869045,-0.16463696445,-0.0267381769541,-0.1572763145
6300000000.0,-0.0275846301097,-0.15967779861,0.972322426978,-0.167158285413,0.972322426978,-0.167158285413,-0.0275846301097,-0.15967779861
6400000000.0,-0.0284432115113,-0.16207292762,0.971462841796,-0.169673293178,0.971462841796,-0.169673293178,-0.0284432115113,-0.16207292762
6500000000.0,-0.0293138572652,-0.164461614427,0.970591177373,-0.172181900809,0.970591177373,-0.172181900809,-0.0293138572652,-0.164461614427
6600000000.0,-0.0301965026625,-0.166843772689,0.969707498397,-0.174684022125,0.969707498397,-0.174684022125,-0.0301965026625,-0.166843772689
6700000000.0,-0.0310910821899,-0.169219316841,0.968811870363,-0.177179571717,0.968811870363,-0.177179571717,-0.0310910821899,-0.169219316841
6800000000.0,-0.0319975295421,-0.171588162104,0.967904359556,-0.179668464956,0.967904359556,-0.179668464956,-0.0319975295421,-0.171588162104
6900000000.0,-0.0329157776332,-0.173950224493,0.966985033042,-0.182150618005,0.966985033042,-0.182150618005,-0.0329157776332,-0.173950224493
7000000000.0,-0.0338457586085,-0.17630542083,0.966053958659,-0.184625947825,0.966053958659,-0.184625947825,-0.0338457586085,-0.17630542083
7100000000.0,-0.0347874038574,-0.178653668751,0.965111204996,-0.187094372189,0.965111204996,-0.187094372189,-0.0347874038574,-0.178653668751
7200000000.0,-0.0357406440245,-0.180994886718,0.964156841392,-0.18955580969,0.964156841392,-0.18955580969,-0.0357406440245,-0.180994886718
7300000000.0,-0.0367054090232,-0.183328994025,0.963190937914,-0.19201017975,0.963190937914,-0.19201017975,-0.0367054090232,-0.183328994025
7400000000.0,-0.0376816280472,-0.185655910811,0.96221356535,-0.194457402629,0.96221356535,-0.194457402629,-0.0376816280472,-0.185655910811
7500000000.0,-0.0386692295836,-0.187975558062,0.961224795194,-0.196897399433,0.961224795194,-0.196897399433,-0.0386692295836,-0.187975558062
7600000000.0,-0.0396681414253,-0.190287857628,0.960224699636,-0.199330092124,0.960224699636,-0.199330092124,-0.0396681414253,-0.190287857628
7700000000.0,-0.0406782906842,-0.192592732224,0.959213351546,-0.201755403528,0.959213351546,-0.201755403528,-0.0406782906842,-0.192592732224
7800000000.0,-0.0416996038038,-0.194890105442,0.958190824463,-0.204173257343,0.958190824463,-0.204173257343,-0.0416996038038,-0.194890105442
7900000000.0,-0.0427320065721,-0.197179901755,0.95715719258,-0.206583578144,0.95715719258,-0.206583578144,-0.0427320065721,-0.197179901755
8000000000.0,-0.0437754241351,-0.199462046529,0.956112530734,-0.208986291394,0.956112530734,-0.208986291394,-0.0437754241351,-0.199462046529
8100000000.0,-0.0448297810095,-0.201736466026,0.955056914391,-0.211381323452,0.955056914391,-0.211381323452,-0.0448297810095,-0.201736466026
8200000000.0,-0.0458950010962,-0.204003087414,0.953990419632,-0.213768601573,0.953990419632,-0.213768601573,-0.0458950010962,-0.204003087414
8300000000.0,-0.0469710076937,-0.206261838769,0.952913123141,-0.216148053925,0.952913123141,-0.216148053925,-0.0469710076937,-0.206261838769
8400000000.0,-0.0480577235109,-0.208512649088,0.951825102193,-0.218519609585,0.951825102193,-0.218519609585,-0.0480577235109,-0.208512649088
8500000000.0,-0.0491550706815,-0.21075544829,0.950726434636,-0.220883198554,0.950726434636,-0.220883198554,-0.0491550706815,-0.21075544829
8600000000.0,-0.0502629707765,-0.212990167223,0.949617198882,-0.223238751758,0.949617198882,-0.223238751758,-0.0502629707765,-0.212990167223
8700000000.0,-0.0513813448185,-0.21521673767,0.948497473891,-0.225586201054,0.948497473891,-0.225586201054,-0.0513813448185,-0.21521673767
8800000000.0,-0.0525101132949,-0.217435092355,0.94736733916,-0.227925479236,0.94736733916,-0.227925479236,-0.0525101132949,-0.217435092355
8900000000.0,-0.0536491961715,-0.219645164948,0.946226874704,-0.230256520041,0.946226874704,-0.230256520041,-0.0536491961715,-0.219645164948
9000000000.0,-0.0547985129064,-0.221846890066,0.94507616105,-0.232579258155,0.94507616105,-0.232579258155,-0.0547985129064,-0.221846890066
9100000000.0,-0.0559579824636,-0.224040203286,0.943915279216,-0.234893629213,0.943915279216,-0.234893629213,-0.0559579824636,-0.224040203286
9200000000.0,-0.0571275233267,-0.22622504114,0.942744310701,-0.237199569809,0.942744310701,-0.237199569809,-0.0571275233267,-0.22622504114
9300000000.0,-0.0583070535127,-0.228401341125,0.941563337473,-0.239497017496,0.941563337473,-0.239497017496,-0.0583070535127,-0.228401341125
9400000000.0,-0.0594964905856,-0.230569041705,0.94037244195,-0.241785910792,0.94037244195,-0.241785910792,-0.0594964905856,-0.230569041705
9500000000.0,-0.0606957516705,-0.232728082315,0.939171706991,-0.244066189184,0.939171706991,-0.244066189184,-0.0606957516705,-0.232728082315
9600000000.0,-0.0619047534671,-0.234878403365,0.937961215879,-0.246337793129,0.937961215879,-0.246337793129,-0.0619047534671,-0.234878403365
9700000000.0,-0.0631234122636,-0.237019946241,0.93674105231,-0.248600664061,0.93674105231,-0.248600664061,-0.0631234122636,-0.237019946241
9800000000.0,-0.0643516439507,-0.239152653309,0.935511300375,-0.250854744391,0.935511300375,-0.250854744391,-0.0643516439507,-0.239152653309
9900000000.0,-0.0655893640348,-0.24127646792,0.934272044553,-0.25309997751,0.934272044553,-0.25309997751,-0.0655893640348,-0.24127646792
10000000000.0,-0.0668364876527,-0.243391334408,0.93302336969,-0.255336307792,0.93302336969,-0.255336307792,-0.0668364876527,-0.243391334408
