freq (GHz),S11_real,S11_imag,S21_real,S21_imag,S12_real,S12_imag,S22_real,S22_imag
100000000.0,0.0458169532029,0.00477543200356,0.954176841984,-0.00718296625545,0.954176841984,-0.00718296625545,0.0458169532029,0.00477543200356
200000000.0,0.0462131201333,0.00954229143021,0.953769579755,-0.0143573918753,0.953769579755,-0.0143573918753,0.0462131201333,0.00954229143021
300000000.0,0.0466033571667,0.0143022014822,0.953362355121,-0.0215249301478,0.953362355121,-0.0215249301478,0.0466033571667,0.0143022014822
400000000.0,0.0470256623303,0.0190548679014,0.952917168216,-0.028685313777,0.952917168216,-0.028685313777,0.0470256623303,0.0190548679014
500000000.0,0.0474945884251,0.0237995540484,0.952419464208,-0.0358378315101,0.952419464208,-0.0358378315101,0.0474945884251,0.0237995540484
600000000.0,0.0480174684814,0.0285353304281,0.951861907791,-0.0429815782055,0.951861907791,-0.0429815782055,0.0480174684814,0.0285353304281
700000000.0,0.0485985421281,0.0332611647227,0.951240256794,-0.0501155451435,0.951240256794,-0.0501155451435,0.0485985421281,0.0332611647227
800000000.0,0.0492404620681,0.0379759639305,0.950551855694,-0.0572386623313,0.950551855694,-0.0572386623313,0.0492404620681,0.0379759639305
900000000.0,0.0499449650576,0.0426785973418,0.949794964625,-0.0643498215871,0.949794964625,-0.0643498215871,0.0499449650576,0.0426785973418
1000000000.0,0.0507132121577,0.0473679104484,0.94896841913,-0.0714478905274,0.94896841913,-0.0714478905274,0.0507132121577,0.0473679104484
1100000000.0,0.0515459780032,0.0520427340531,0.948071440883,-0.0785317217325,0.948071440883,-0.0785317217325,0.0515459780032,0.0520427340531
1200000000.0,0.0524437637062,0.0567018906183,0.947103524786,-0.0856001591388,0.947103524786,-0.0856001591388,0.0524437637062,0.0567018906183
1300000000.0,0.053406868013,0.0613441989232,0.946064367811,-0.092652042729,0.946064367811,-0.092652042729,0.053406868013,0.0613441989232
1400000000.0,0.0544354342024,0.065968477629,0.944953822103,-0.0996862121258,0.944953822103,-0.0996862121258,0.0544354342024,0.065968477629
1500000000.0,0.0555294821701,0.0705735481104,0.943771862892,-0.106701509445,0.943771862892,-0.106701509445,0.0555294821701,0.0705735481104
1600000000.0,0.0566889310941,0.0751582367749,0.942518565829,-0.113696781633,0.942518565829,-0.113696781633,0.0566889310941,0.0751582367749
1700000000.0,0.0579136158977,0.0797213770115,0.941194090524,-0.120670882432,0.941194090524,-0.120670882432,0.0579136158977,0.0797213770115
1800000000.0,0.0592032995125,0.0842618108663,0.939798668281,-0.127622674069,0.939798668281,-0.127622674069,0.0592032995125,0.0842618108663
1900000000.0,0.0605576822207,0.0887783905088,0.938332592757,-0.134551028732,0.938332592757,-0.134551028732,0.0605576822207,0.0887783905088
2000000000.0,0.0619764089244,0.0932699795347,0.936796212691,-0.141454829885,0.936796212691,-0.141454829885,0.0619764089244,0.0932699795347
2100000000.0,0.0634590749154,0.0977354541378,0.935189926139,-0.148332973449,0.935189926139,-0.148332973449,0.0634590749154,0.0977354541378
2200000000.0,0.0650052305394,0.102173704175,0.933514175801,-0.155184368869,0.933514175801,-0.155184368869,0.0650052305394,0.102173704175
2300000000.0,0.0666143850368,0.106583634142,0.931769445191,-0.162007940106,0.931769445191,-0.162007940106,0.0666143850368,0.106583634142
2400000000.0,0.0682860097583,0.11096416407,0.929956255412,-0.168802626532,0.929956255412,-0.168802626532,0.0682860097583,0.11096416407
2500000000.0,0.0700195409035,0.115314230361,0.928075162424,-0.175567383772,0.928075162424,-0.175567383772,0.0700195409035,0.115314230361
2600000000.0,0.0718143818885,0.119632786555,0.926126754672,-0.182301184482,0.926126754672,-0.182301184482,0.0718143818885,0.119632786555
2700000000.0,0.0736699054251,0.123918804053,0.924111651009,-0.189003019069,0.924111651009,-0.189003019069,0.0736699054251,0.123918804053
2800000000.0,0.0755854553714,0.128171272788,0.922030498846,-0.195671896368,0.922030498846,-0.195671896368,0.0755854553714,0.128171272788
2900000000.0,0.077560348402,0.132389201846,0.919883972478,-0.202306844272,0.919883972478,-0.202306844272,0.077560348402,0.132389201846
3000000000.0,0.0795938755318,0.136571620052,0.917672771563,-0.208906910313,0.917672771563,-0.208906910313,0.0795938755318,0.136571620052
3100000000.0,0.081685303523,0.140717576511,0.915397619715,-0.215471162212,0.915397619715,-0.215471162212,0.081685303523,0.140717576511
3200000000.0,0.0838338761968,0.144826141116,0.913059263191,-0.221998688386,0.913059263191,-0.221998688386,0.0838338761968,0.144826141116
3300000000.0,0.0860388156668,0.14889640501,0.910658469657,-0.228488598418,0.910658469657,-0.228488598418,0.0860388156668,0.14889640501
3400000000.0,0.0882993235072,0.152927481024,0.908196027019,-0.23494002349,0.908196027019,-0.23494002349,0.0882993235072,0.152927481024
3500000000.0,0.0906145818677,0.156918504073,0.905672742311,-0.241352116789,0.905672742311,-0.241352116789,0.0906145818677,0.156918504073
3600000000.0,0.0929837545427,0.160868631524,0.90308944062,-0.247724053869,0.90308944062,-0.247724053869,0.0929837545427,0.160868631524
3700000000.0,0.0954059880026,0.164777043526,0.900446964059,-0.254055032989,0.900446964059,-0.254055032989,0.0954059880026,0.164777043526
3800000000.0,0.0978804123912,0.168642943314,0.897746170768,-0.260344275416,0.897746170768,-0.260344275416,0.0978804123912,0.168642943314
3900000000.0,0.100406142495,0.172465557479,0.894987933943,-0.266591025697,0.894987933943,-0.266591025697,0.100406142495,0.172465557479
4000000000.0,0.102982278688,0.176244136209,0.892173140889,-0.272794551902,0.892173140889,-0.272794551902,0.102982278688,0.176244136209
4100000000.0,0.105607907851,0.179977953499,0.889302692106,-0.278954145834,0.889302692106,-0.278954145834,0.105607907851,0.179977953499
4200000000.0,0.108282104274,0.183666307336,0.886377500378,-0.285069123216,0.886377500378,-0.285069123216,0.108282104274,0.183666307336
4300000000.0,0.11100393054,0.187308519848,0.883398489897,-0.291138823843,0.883398489897,-0.291138823843,0.11100393054,0.187308519848
4400000000.0,0.113772438389,0.190903937436,0.880366595393,-0.297162611712,0.880366595393,-0.297162611712,0.113772438389,0.190903937436
4500000000.0,0.116586669563,0.19445193087,0.877282761286,-0.303139875118,0.877282761286,-0.303139875118,0.116586669563,0.19445193087
4600000000.0,0.119445656646,0.197951895359,0.874147940852,-0.309070026732,0.874147940852,-0.309070026732,0.119445656646,0.197951895359
4700000000.0,0.122348423875,0.201403250604,0.870963095407,-0.314952503644,0.870963095407,-0.314952503644,0.122348423875,0.201403250604
4800000000.0,0.12529398795,0.204805440812,0.867729193497,-0.32078676739,0.867729193497,-0.32078676739,0.12529398795,0.204805440812
4900000000.0,0.128281358814,0.2081579347,0.864447210116,-0.326572303942,0.864447210116,-0.326572303942,0.128281358814,0.2081579347
5000000000.0,0.131309540436,0.21146022546,0.861118125924,-0.332308623691,0.861118125924,-0.332308623691,0.131309540436,0.21146022546
5100000000.0,0.134377531564,0.214711830715,0.857742926492,-0.337995261388,0.857742926492,-0.337995261388,0.134377531564,0.214711830715
5200000000.0,0.137484326474,0.217912292439,0.854322601552,-0.343631776074,0.854322601552,-0.343631776074,0.137484326474,0.217912292439
5300000000.0,0.140628915696,0.221061176869,0.85085814427,-0.349217750985,0.85085814427,-0.349217750985,0.140628915696,0.221061176869
5400000000.0,0.143810286737,0.224158074379,0.847350550522,-0.354752793438,0.847350550522,-0.354752793438,0.143810286737,0.224158074379
5500000000.0,0.147027424775,0.227202599352,0.843800818201,-0.360236534689,0.843800818201,-0.360236534689,0.147027424775,0.227202599352
5600000000.0,0.150279313349,0.230194390013,0.84020994652,-0.365668629779,0.84020994652,-0.365668629779,0.150279313349,0.230194390013
5700000000.0,0.153564935027,0.233133108262,0.836578935349,-0.371048757354,0.836578935349,-0.371048757354,0.153564935027,0.233133108262
5800000000.0,0.156883272063,0.236018439469,0.832908784555,-0.376376619476,0.832908784555,-0.376376619476,0.156883272063,0.236018439469
5900000000.0,0.160233307036,0.238850092267,0.829200493361,-0.381651941403,0.829200493361,-0.381651941403,0.160233307036,0.238850092267
6000000000.0,0.163614023472,0.241627798323,0.825455059723,-0.386874471365,0.825455059723,-0.386874471365,0.163614023472,0.241627798323
6100000000.0,0.167024406451,0.244351312085,0.821673479719,-0.392043980314,0.821673479719,-0.392043980314,0.167024406451,0.244351312085
6200000000.0,0.170463443202,0.247020410528,0.81785674696,-0.397160261662,0.81785674696,-0.397160261662,0.170463443202,0.247020410528
6300000000.0,0.173930123672,0.24963489287,0.814005852013,-0.402223131008,0.814005852013,-0.402223131008,0.173930123672,0.24963489287
6400000000.0,0.177423441087,0.252194580288,0.810121781838,-0.407232425844,0.810121781838,-0.407232425844,0.177423441087,0.252194580288
6500000000.0,0.180942392492,0.254699315609,0.806205519254,-0.41218800525,0.806205519254,-0.41218800525,0.180942392492,0.254699315609
6600000000.0,0.184485979277,0.257148962996,0.802258042404,-0.41708974958,0.802258042404,-0.41708974958,0.184485979277,0.257148962996
6700000000.0,0.188053207679,0.259543407618,0.798280324252,-0.421937560134,0.798280324252,-0.421937560134,0.188053207679,0.259543407618
6800000000.0,0.191643089279,0.261882555312,0.794273332093,-0.426731358813,0.794273332093,-0.426731358813,0.191643089279,0.261882555312
6900000000.0,0.19525464147,0.264166332233,0.790238027072,-0.431471087778,0.790238027072,-0.431471087778,0.19525464147,0.264166332233
7000000000.0,0.198886887912,0.266394684494,0.786175363732,-0.436156709079,0.786175363732,-0.436156709079,0.198886887912,0.266394684494
7100000000.0,0.202538858975,0.268567577797,0.782086289573,-0.440788204298,0.782086289573,-0.440788204298,0.202538858975,0.268567577797
7200000000.0,0.206209592157,0.270684997059,0.77797174463,-0.445365574162,0.77797174463,-0.445365574162,0.206209592157,0.270684997059
7300000000.0,0.209898132487,0.272746946026,0.773832661062,-0.449888838168,0.773832661062,-0.449888838168,0.209898132487,0.272746946026
7400000000.0,0.213603532916,0.274753446883,0.769669962771,-0.454358034183,0.769669962771,-0.454358034183,0.213603532916,0.274753446883
7500000000.0,0.217324854683,0.276704539855,0.765484565024,-0.458773218053,0.765484565024,-0.458773218053,0.217324854683,0.276704539855
7600000000.0,0.221061167669,0.278600282809,0.761277374102,-0.463134463197,0.761277374102,-0.463134463197,0.221061167669,0.278600282809
7700000000.0,0.224811550736,0.280440750844,0.757049286959,-0.467441860202,0.757049286959,-0.467441860202,0.224811550736,0.280440750844
7800000000.0,0.228575092042,0.282226035877,0.752801190904,-0.471695516405,0.752801190904,-0.471695516405,0.228575092042,0.282226035877
7900000000.0,0.232350889345,0.283956246233,0.748533963295,-0.475895555487,0.748533963295,-0.475895555487,0.232350889345,0.283956246233
8000000000.0,0.236138050294,0.285631506225,0.744248471248,-0.480042117045,0.744248471248,-0.480042117045,0.236138050294,0.285631506225
8100000000.0,0.239935692692,0.287251955733,0.73994557137,-0.484135356176,0.73994557137,-0.484135356176,0.239935692692,0.287251955733
8200000000.0,0.243742944756,0.288817749781,0.735626109495,-0.488175443053,0.735626109495,-0.488175443053,0.243742944756,0.288817749781
8300000000.0,0.247558945353,0.290329058115,0.731290920453,-0.492162562503,0.731290920453,-0.492162562503,0.247558945353,0.290329058115
8400000000.0,0.251382844222,0.291786064779,0.726940827837,-0.496096913575,0.726940827837,-0.496096913575,0.251382844222,0.291786064779
8500000000.0,0.255213802186,0.293188967688,0.722576643798,-0.499978709123,0.722576643798,-0.499978709123,0.255213802186,0.293188967688
8600000000.0,0.259050991338,0.294537978208,0.718199168846,-0.503808175377,0.718199168846,-0.503808175377,0.259050991338,0.294537978208
8700000000.0,0.262893595225,0.295833320728,0.713809191676,-0.507585551518,0.713809191676,-0.507585551518,0.262893595225,0.295833320728
8800000000.0,0.266740809009,0.297075232239,0.709407488995,-0.511311089255,0.709407488995,-0.511311089255,0.266740809009,0.297075232239
8900000000.0,0.270591839613,0.298263961914,0.704994825376,-0.514985052405,0.704994825376,-0.514985052405,0.270591839613,0.298263961914
9000000000.0,0.274445905862,0.299399770691,0.700571953121,-0.518607716473,0.700571953121,-0.518607716473,0.274445905862,0.299399770691
9100000000.0,0.278302238601,0.300482930851,0.696139612131,-0.522179368232,0.696139612131,-0.522179368232,0.278302238601,0.300482930851
9200000000.0,0.282160080805,0.301513725611,0.691698529802,-0.525700305313,0.691698529802,-0.525700305313,0.282160080805,0.301513725611
9300000000.0,0.286018687673,0.302492448711,0.687249420921,-0.529170835789,0.687249420921,-0.529170835789,0.286018687673,0.302492448711
9400000000.0,0.289877326711,0.303419404005,0.682792987588,-0.532591277772,0.682792987588,-0.532591277772,0.289877326711,0.303419404005
9500000000.0,0.293735277806,0.304294905062,0.678329919133,-0.535961959004,0.678329919133,-0.535961959004,0.293735277806,0.304294905062
9600000000.0,0.297591833279,0.305119274767,0.673860892066,-0.539283216461,0.673860892066,-0.539283216461,0.297591833279,0.305119274767
9700000000.0,0.301446297937,0.305892844922,0.669386570017,-0.542555395957,0.669386570017,-0.542555395957,0.301446297937,0.305892844922
9800000000.0,0.305297989107,0.306615955864,0.664907603705,-0.545778851752,0.664907603705,-0.545778851752,0.305297989107,0.306615955864
9900000000.0,0.30914623666,0.307288956075,0.660424630907,-0.548953946167,0.660424630907,-0.548953946167,0.30914623666,0.307288956075
10000000000.0,0.312990383027,0.307912201803,0.655938276439,-0.552081049204,0.655938276439,-0.552081049204,0.312990383027,0.307912201803
