freq (GHz),S11_real,S11_imag,S21_real,S21_imag,S12_real,S12_imag,S22_real,S22_imag
100000000.0,0.000949332909089,0.000400079416884,0.999046989293,-0.00195493613241,0.999046989293,-0.00195493613241,0.000949332909089,0.000400079416884
200000000.0,0.000957302637748,0.000800119181791,0.999033923225,-0.00390986950926,0.999033923225,-0.00390986950926,0.000957302637748,0.000800119181791
300000000.0,0.000965169014365,0.00120012216454,0.999018541629,-0.00586482266476,0.999018541629,-0.00586482266476,0.000965169014365,0.00120012216454
400000000.0,0.000973754970208,0.00160008431183,0.999000021141,-0.007819805845,0.999000021141,-0.007819805845,0.000973754970208,0.00160008431183
500000000.0,0.000983377120123,0.00200000025254,0.998978044631,-0.00977482523129,0.998978044631,-0.00977482523129,0.000983377120123,0.00200000025254
600000000.0,0.000994196750247,0.00239986416811,0.998952450228,-0.0117298847358,0.998952450228,-0.0117298847358,0.000994196750247,0.00239986416811
700000000.0,0.00100630900369,0.00279967008051,0.998923142144,-0.0136849867653,0.998923142144,-0.0136849867653,0.00100630900369,0.00279967008051
800000000.0,0.00101977541688,0.00319941197392,0.99889005814,-0.0156401326292,0.99889005814,-0.0156401326292,0.00101977541688,0.00319941197392
900000000.0,0.00103463840056,0.00359908385304,0.998853155055,-0.017595322788,0.998853155055,-0.017595322788,0.00103463840056,0.00359908385304
1000000000.0,0.00105092857703,0.00399867977316,0.99881240147,-0.0195505570183,0.99881240147,-0.0195505570183,0.00105092857703,0.00399867977316
1100000000.0,0.00106866885729,0.00439819385594,0.998767773636,-0.0215058345287,0.998767773636,-0.0215058345287,0.00106866885729,0.00439819385594
1200000000.0,0.00108787686968,0.00479762029782,0.998719253049,-0.0234611540455,0.998719253049,-0.0234611540455,0.00108787686968,0.00479762029782
1300000000.0,0.00110856648731,0.00519695337412,0.998666824923,-0.0254165138778,0.998666824923,-0.0254165138778,0.00110856648731,0.00519695337412
1400000000.0,0.00113074883177,0.00559618744065,0.998610477193,-0.0273719119691,0.998610477193,-0.0273719119691,0.00113074883177,0.00559618744065
1500000000.0,0.00115443295692,0.00599531693369,0.998550199831,-0.0293273459379,0.998550199831,-0.0293273459379,0.00115443295692,0.00599531693369
1600000000.0,0.00117962632903,0.00639433636924,0.998485984367,-0.0312828131121,0.998485984367,-0.0312828131121,0.00117962632903,0.00639433636924
1700000000.0,0.00120633517276,0.00679324034162,0.998417823548,-0.0332383105563,0.998417823548,-0.0332383105563,0.00120633517276,0.00679324034162
1800000000.0,0.00123456472607,0.0071920235217,0.998345711085,-0.0351938350961,0.998345711085,-0.0351938350961,0.00123456472607,0.0071920235217
1900000000.0,0.00126431943164,0.00759068065498,0.998269641458,-0.037149383338,0.998269641458,-0.037149383338,0.00126431943165,0.00759068065498
2000000000.0,0.00129560308329,0.00798920655955,0.998189609779,-0.0391049516867,0.998189609779,-0.0391049516867,0.00129560308329,0.00798920655955
2100000000.0,0.00132841893937,0.00838759612404,0.998105611675,-0.0410605363608,0.998105611675,-0.0410605363608,0.00132841893937,0.00838759612404
2200000000.0,0.00136276981212,0.00878584430549,0.9980176432,-0.0430161334052,0.9980176432,-0.0430161334052,0.00136276981212,0.00878584430549
2300000000.0,0.00139865813868,0.00918394612732,0.997925700767,-0.0449717387038,0.997925700767,-0.0449717387038,0.00139865813868,0.00918394612732
2400000000.0,0.00143608603826,0.00958189667733,0.997829781094,-0.0469273479894,0.997829781094,-0.0469273479894,0.00143608603826,0.00958189667733
2500000000.0,0.00147505535869,0.00997969110565,0.997729881154,-0.0488829568531,0.997729881154,-0.0488829568531,0.00147505535869,0.00997969110565
2600000000.0,0.00151556771448,0.0103773246229,0.99762599814,-0.0508385607531,0.99762599814,-0.0508385607531,0.00151556771448,0.0103773246229
2700000000.0,0.00155762451847,0.0107747924982,0.997518129437,-0.052794155022,0.997518129437,-0.052794155022,0.00155762451847,0.0107747924982
2800000000.0,0.00160122700805,0.0111720900577,0.997406272593,-0.0547497348736,0.997406272593,-0.0547497348736,0.00160122700805,0.0111720900577
2900000000.0,0.00164637626732,0.0115692126822,0.9972904253,-0.0567052954095,0.9972904253,-0.0567052954095,0.00164637626732,0.0115692126822
3000000000.0,0.00169307324576,0.0119661558062,0.997170585376,-0.0586608316249,0.997170585376,-0.0586608316249,0.00169307324576,0.0119661558062
3100000000.0,0.00174131877409,0.0123629149157,0.997046750748,-0.0606163384134,0.997046750748,-0.0606163384134,0.00174131877409,0.0123629149157
3200000000.0,0.00179111357789,0.0127594855471,0.996918919444,-0.0625718105725,0.996918919444,-0.0625718105725,0.00179111357789,0.0127594855471
3300000000.0,0.00184245828932,0.0131558632852,0.996787089575,-0.0645272428078,0.996787089575,-0.0645272428078,0.00184245828932,0.0131558632852
3400000000.0,0.00189535345715,0.0135520437621,0.996651259333,-0.0664826297371,0.996651259333,-0.0664826297371,0.00189535345715,0.0135520437621
3500000000.0,0.00194979955566,0.0139480226556,0.996511426977,-0.0684379658942,0.996511426977,-0.0684379658942,0.00194979955566,0.0139480226556
3600000000.0,0.00200579699219,0.0143437956881,0.996367590832,-0.070393245733,0.996367590832,-0.070393245733,0.00200579699219,0.0143437956881
3700000000.0,0.00206334611395,0.0147393586246,0.996219749275,-0.0723484636303,0.996219749275,-0.0723484636303,0.00206334611395,0.0147393586246
3800000000.0,0.00212244721387,0.0151347072725,0.996067900739,-0.074303613889,0.996067900739,-0.074303613889,0.00212244721387,0.0151347072725
3900000000.0,0.00218310053585,0.0155298374794,0.9959120437,-0.0762586907415,0.9959120437,-0.0762586907415,0.00218310053585,0.0155298374794
4000000000.0,0.00224530627938,0.0159247451323,0.995752176678,-0.0782136883517,0.995752176678,-0.0782136883517,0.00224530627938,0.0159247451323
4100000000.0,0.00230906460367,0.0163194261565,0.995588298232,-0.0801686008185,0.995588298232,-0.0801686008185,0.00230906460367,0.0163194261565
4200000000.0,0.00237437563131,0.0167138765144,0.995420406958,-0.0821234221772,0.995420406958,-0.0821234221772,0.00237437563131,0.0167138765144
4300000000.0,0.00244123945153,0.0171080922044,0.995248501484,-0.0840781464027,0.995248501484,-0.0840781464027,0.00244123945153,0.0171080922044
4400000000.0,0.00250965612323,0.0175020692598,0.995072580468,-0.086032767411,0.995072580468,-0.086032767411,0.00250965612323,0.0175020692598
4500000000.0,0.00257962567756,0.017895803748,0.994892642599,-0.0879872790616,0.994892642599,-0.0879872790616,0.00257962567756,0.017895803748
4600000000.0,0.00265114812037,0.0182892917693,0.99470868659,-0.0899416751593,0.99470868659,-0.0899416751593,0.00265114812037,0.0182892917693
4700000000.0,0.00272422343434,0.0186825294559,0.99452071118,-0.0918959494561,0.99452071118,-0.0918959494561,0.00272422343434,0.0186825294559
4800000000.0,0.00279885158101,0.0190755129714,0.994328715133,-0.0938500956526,0.994328715133,-0.0938500956526,0.00279885158101,0.0190755129714
4900000000.0,0.0028750325025,0.0194682385091,0.994132697233,-0.0958041074001,0.994132697233,-0.0958041074001,0.0028750325025,0.0194682385091
5000000000.0,0.00295276612322,0.0198607022921,0.993932656284,-0.097757978302,0.993932656284,-0.097757978302,0.00295276612322,0.0198607022921
5100000000.0,0.00303205235129,0.0202529005716,0.993728591112,-0.0997117019149,0.993728591112,-0.0997117019149,0.00303205235129,0.0202529005716
5200000000.0,0.00311289107996,0.0206448296266,0.993520500561,-0.101665271751,0.993520500561,-0.101665271751,0.00311289107996,0.0206448296266
5300000000.0,0.00319528218885,0.0210364857629,0.993308383493,-0.103618681277,0.993308383493,-0.103618681277,0.00319528218885,0.0210364857629
5400000000.0,0.00327922554508,0.0214278653122,0.993092238784,-0.105571923919,0.993092238784,-0.105571923919,0.00327922554508,0.0214278653122
5500000000.0,0.00336472100435,0.0218189646318,0.992872065331,-0.107524993062,0.992872065331,-0.107524993062,0.00336472100435,0.0218189646318
5600000000.0,0.00345176841191,0.0222097801032,0.992647862044,-0.109477882049,0.992647862044,-0.109477882049,0.00345176841191,0.0222097801032
5700000000.0,0.00354036760349,0.0226003081318,0.992419627849,-0.111430584184,0.992419627849,-0.111430584184,0.00354036760349,0.0226003081318
5800000000.0,0.00363051840608,0.0229905451463,0.992187361684,-0.113383092736,0.992187361684,-0.113383092736,0.00363051840608,0.0229905451463
5900000000.0,0.00372222063876,0.0233804875977,0.991951062505,-0.115335400933,0.991951062505,-0.115335400933,0.00372222063876,0.0233804875977
6000000000.0,0.00381547411338,0.0237701319585,0.991710729279,-0.117287501969,0.991710729279,-0.117287501969,0.00381547411338,0.0237701319585
6100000000.0,0.00391027863524,0.0241594747228,0.991466360986,-0.119239389004,0.991466360986,-0.119239389004,0.00391027863524,0.0241594747228
6200000000.0,0.00400663400372,0.0245485124048,0.991217956622,-0.121191055162,0.991217956622,-0.121191055162,0.00400663400372,0.0245485124048
6300000000.0,0.00410454001284,0.0249372415386,0.990965515191,-0.123142493532,0.990965515191,-0.123142493532,0.00410454001284,0.0249372415386
6400000000.0,0.0042039964518,0.0253256586776,0.990709035713,-0.125093697175,0.990709035713,-0.125093697175,0.0042039964518,0.0253256586776
6500000000.0,0.00430500310551,0.0257137603939,0.990448517219,-0.127044659115,0.990448517219,-0.127044659115,0.00430500310551,0.0257137603939
6600000000.0,0.00440755975503,0.0261015432776,0.99018395875,-0.128995372349,0.99018395875,-0.128995372349,0.00440755975503,0.0261015432776
6700000000.0,0.00451166617801,0.0264890039362,0.989915359362,-0.130945829842,0.989915359362,-0.130945829842,0.00451166617801,0.0264890039362
6800000000.0,0.00461732214912,0.0268761389943,0.989642718119,-0.132896024527,0.989642718119,-0.132896024527,0.00461732214912,0.0268761389943
6900000000.0,0.00472452744043,0.0272629450928,0.989366034098,-0.134845949311,0.989366034098,-0.134845949311,0.00472452744043,0.0272629450928
7000000000.0,0.00483328182174,0.0276494188886,0.989085306387,-0.136795597071,0.989085306387,-0.136795597071,0.00483328182174,0.0276494188886
7100000000.0,0.00494358506097,0.0280355570538,0.988800534085,-0.138744960657,0.988800534085,-0.138744960657,0.00494358506097,0.0280355570538
7200000000.0,0.00505543692445,0.0284213562754,0.988511716301,-0.140694032891,0.988511716301,-0.140694032891,0.00505543692445,0.0284213562754
7300000000.0,0.0051688371772,0.0288068132549,0.988218852157,-0.142642806567,0.988218852157,-0.142642806567,0.0051688371772,0.0288068132549
7400000000.0,0.00528378558324,0.0291919247074,0.987921940782,-0.144591274455,0.987921940782,-0.144591274455,0.00528378558324,0.0291919247074
7500000000.0,0.00540028190587,0.0295766873616,0.987620981319,-0.146539429297,0.987620981319,-0.146539429297,0.00540028190587,0.0295766873616
7600000000.0,0.00551832590784,0.029961097959,0.987315972919,-0.148487263812,0.987315972919,-0.148487263812,0.00551832590784,0.029961097959
7700000000.0,0.00563791735168,0.0303451532537,0.987006914746,-0.150434770692,0.987006914746,-0.150434770692,0.00563791735168,0.0303451532537
7800000000.0,0.00575905599985,0.0307288500116,0.986693805972,-0.152381942605,0.986693805972,-0.152381942605,0.00575905599985,0.0307288500116
7900000000.0,0.00588174161496,0.0311121850104,0.98637664578,-0.154328772196,0.98637664578,-0.154328772196,0.00588174161496,0.0311121850104
8000000000.0,0.00600597396001,0.0314951550388,0.986055433364,-0.156275252086,0.986055433364,-0.156275252086,0.00600597396001,0.0314951550388
8100000000.0,0.00613175279848,0.0318777568962,0.985730167927,-0.158221374871,0.985730167927,-0.158221374871,0.00613175279848,0.0318777568962
8200000000.0,0.00625907789461,0.0322599873924,0.985400848685,-0.160167133127,0.985400848685,-0.160167133127,0.00625907789461,0.0322599873924
8300000000.0,0.00638794901347,0.0326418433471,0.985067474861,-0.162112519406,0.985067474861,-0.162112519406,0.00638794901347,0.0326418433471
8400000000.0,0.00651836592116,0.0330233215893,0.984730045689,-0.164057526237,0.984730045689,-0.164057526237,0.00651836592116,0.0330233215893
8500000000.0,0.00665032838493,0.0334044189573,0.984388560416,-0.16600214613,0.984388560416,-0.16600214613,0.00665032838493,0.0334044189573
8600000000.0,0.00678383617333,0.033785132298,0.984043018295,-0.16794637157,0.984043018295,-0.16794637157,0.00678383617333,0.033785132298
8700000000.0,0.00691888905633,0.0341654584666,0.983693418592,-0.169890195023,0.983693418592,-0.169890195023,0.00691888905633,0.0341654584666
8800000000.0,0.00705548680543,0.0345453943263,0.983339760583,-0.171833608934,0.983339760583,-0.171833608934,0.00705548680543,0.0345453943263
8900000000.0,0.00719362919377,0.0349249367479,0.982982043554,-0.173776605726,0.982982043554,-0.173776605726,0.00719362919377,0.0349249367479
9000000000.0,0.00733331599623,0.0353040826093,0.9826202668,-0.175719177804,0.9826202668,-0.175719177804,0.00733331599623,0.0353040826093
9100000000.0,0.00747454698954,0.0356828287954,0.982254429628,-0.177661317551,0.982254429628,-0.177661317551,0.00747454698954,0.0356828287954
9200000000.0,0.00761732195236,0.0360611721974,0.981884531355,-0.179603017329,0.981884531355,-0.179603017329,0.00761732195236,0.0360611721974
9300000000.0,0.00776164066534,0.0364391097129,0.981510571308,-0.181544269485,0.981510571308,-0.181544269485,0.00776164066534,0.0364391097129
9400000000.0,0.00790750291124,0.0368166382451,0.981132548824,-0.183485066341,0.981132548824,-0.183485066341,0.00790750291124,0.0368166382451
9500000000.0,0.00805490847498,0.0371937547028,0.980750463252,-0.185425400204,0.980750463252,-0.185425400204,0.00805490847498,0.0371937547028
9600000000.0,0.00820385714367,0.0375704559998,0.98036431395,-0.18736526336,0.98036431395,-0.18736526336,0.00820385714367,0.0375704559998
9700000000.0,0.00835434870674,0.037946739055,0.979974100286,-0.189304648076,0.979974100286,-0.189304648076,0.00835434870674,0.037946739055
9800000000.0,0.00850638295592,0.0383226007915,0.979579821641,-0.191243546602,0.979579821641,-0.191243546602,0.00850638295592,0.0383226007915
9900000000.0,0.00865995968536,0.0386980381367,0.979181477404,-0.193181951169,0.979181477404,-0.193181951169,0.00865995968536,0.0386980381367
10000000000.0,0.00881507869163,0.0390730480218,0.978779066976,-0.19511985399,0.978779066976,-0.19511985399,0.00881507869163,0.0390730480218
