freq (GHz),S11_real,S11_imag,S21_real,S21_imag,S12_real,S12_imag,S22_real,S22_imag
100000000.0,-0.00748022829561,-0.0857258560472,0.992483353072,-0.0858103094157,0.992483353072,-0.0858103094157,-0.00748022829561,-0.0857258560472
200000000.0,-0.0291480659981,-0.167688608506,0.970815255401,-0.167857526675,0.970815255401,-0.167857526675,-0.0291480659981,-0.167688608506
300000000.0,-0.0631752043031,-0.242684503662,0.936787912392,-0.242937904222,0.936787912392,-0.242937904222,-0.0631752043031,-0.242684503662
400000000.0,-0.106956179905,-0.308412269242,0.893006756063,-0.308750174601,0.893006756063,-0.308750174601,-0.106956179905,-0.308412269242
500000000.0,-0.157544569999,-0.363619644995,0.842418197229,-0.36404208168,0.842418197229,-0.36404208168,-0.157544569999,-0.363619644995
600000000.0,-0.212070217807,-0.408033691609,0.787892386587,-0.408540689791,0.787892386587,-0.408540689791,-0.212070217807,-0.408033691609
700000000.0,-0.268034074825,-0.44214894862,0.73192836906,-0.44274054175,0.73192836906,-0.44274054175,-0.268034074825,-0.44214894862
800000000.0,-0.323457211147,-0.466963732251,0.676505072244,-0.467639956768,0.676505072244,-0.467639956768,-0.323457211147,-0.466963732251
900000000.0,-0.376907260867,-0.483734682778,0.623054860455,-0.484495577861,0.623054860455,-0.484495577861,-0.376907260867,-0.483734682778
1000000000.0,-0.427445318584,-0.493786481946,0.572516637947,-0.494632089298,0.572516637947,-0.494632089298,-0.427445318584,-0.493786481946
1100000000.0,-0.474534835717,-0.498385309137,0.525426952438,-0.499315672796,0.525426952438,-0.499315672796,-0.474534835717,-0.498385309137
1200000000.0,-0.517942558257,-0.498667823637,0.482019057274,-0.499682989804,0.482019057274,-0.499682989804,-0.517942558257,-0.498667823637
1300000000.0,-0.557648724524,-0.495611112863,0.442312713611,-0.496711129746,0.442312713611,-0.496711129746,-0.557648724524,-0.495611112863
1400000000.0,-0.593773815629,-0.490029165494,0.406187439912,-0.491214083171,0.406187439912,-0.491214083171,-0.593773815629,-0.490029165494
1500000000.0,-0.626522993551,-0.482584378783,0.373438073851,-0.483854249065,0.373438073851,-0.483854249065,-0.626522993551,-0.482584378783
1600000000.0,-0.656146264992,-0.473806112339,0.343814608436,-0.475160988653,0.343814608436,-0.475160988653,-0.656146264992,-0.473806112339
1700000000.0,-0.682911294064,-0.464111298075,0.317049379308,-0.465551235353,0.317049379308,-0.465551235353,-0.682911294064,-0.464111298075
1800000000.0,-0.707085746931,-0.453824306249,0.292874720094,-0.455349360821,0.292874720094,-0.455349360821,-0.707085746931,-0.453824306249
1900000000.0,-0.728926485659,-0.443194709591,0.271033768548,-0.444804939089,0.271033768548,-0.444804939089,-0.728926485659,-0.443194709591
2000000000.0,-0.748673497181,-0.432412458899,0.251286537577,-0.434107922167,0.251286537577,-0.434107922167,-0.748673497181,-0.432412458899
2100000000.0,-0.766546982707,-0.421620465587,0.23341282583,-0.423401222595,0.23341282583,-0.423401222595,-0.766546982707,-0.421620465587
2200000000.0,-0.782746480637,-0.410924823554,0.217213094786,-0.41279093532,0.217213094786,-0.41279093532,-0.782746480637,-0.410924823554
2300000000.0,-0.797451241142,-0.400402995431,0.202508094162,-0.402354523947,0.202508094162,-0.402354523947,-0.797451241142,-0.400402995431
2400000000.0,-0.810821324357,-0.390110302168,0.189137763722,-0.392147310329,0.189137763722,-0.392147310329,-0.810821324357,-0.390110302168
2500000000.0,-0.822999074493,-0.380085029968,0.176959759167,-0.38220758151,0.176959759167,-0.38220758151,-0.822999074493,-0.380085029968
2600000000.0,-0.834110747314,-0.370352427635,0.165847824649,-0.372560587071,0.165847824649,-0.372560587071,-0.834110747314,-0.370352427635
2700000000.0,-0.844268153392,-0.360927822914,0.155690149519,-0.363221655482,0.155690149519,-0.363221655482,-0.844268153392,-0.360927822914
2800000000.0,-0.853570236103,-0.351819044501,0.146387790333,-0.354198616107,0.146387790333,-0.354198616107,-0.853570236103,-0.351819044501
2900000000.0,-0.862104540344,-0.343028299667,0.137853202129,-0.345493676837,0.137853202129,-0.345493676837,-0.862104540344,-0.343028299667
3000000000.0,-0.869948551559,-0.33455362659,0.130008899401,-0.337104876426,0.130008899401,-0.337104876426,-0.869948551559,-0.33455362659
3100000000.0,-0.877170899346,-0.326390015241,0.122786252497,-0.329027205377,0.122786252497,-0.329027205377,-0.877170899346,-0.326390015241
3200000000.0,-0.883832428672,-0.318530270379,0.116124416395,-0.321253468941,0.116124416395,-0.321253468941,-0.883832428672,-0.318530270379
3300000000.0,-0.889987146643,-0.310965674123,0.109969383939,-0.313774949694,0.109969383939,-0.313774949694,-0.889987146643,-0.310965674123
3400000000.0,-0.895683055204,-0.30368649287,0.104273153139,-0.306581914453,0.104273153139,-0.306581914453,-0.895683055204,-0.30368649287
3500000000.0,-0.900962881063,-0.296682363399,0.09899299724,-0.299664000389,0.09899299724,-0.299664000389,-0.900962881063,-0.296682363399
3600000000.0,-0.905864714116,-0.289942585278,0.0940908263031,-0.293010507432,0.0940908263031,-0.293010507432,-0.905864714116,-0.289942585278
3700000000.0,-0.910422565089,-0.283456340627,0.089532629563,-0.286610618036,0.089532629563,-0.286610618036,-0.910422565089,-0.283456340627
3800000000.0,-0.914666852277,-0.277212857625,0.0852879886836,-0.280453560692,0.0852879886836,-0.280453560692,-0.914666852277,-0.277212857625
3900000000.0,-0.918624826345,-0.271201530514,0.0813296529641,-0.27452872993,0.0813296529641,-0.27452872993,-0.918624826345,-0.271201530514
4000000000.0,-0.922320941132,-0.265412006002,0.0776331685278,-0.268825772726,0.0776331685278,-0.268825772726,-0.922320941132,-0.265412006002
4100000000.0,-0.925777177523,-0.259834243791,0.0741765544554,-0.263334649032,0.0741765544554,-0.263334649032,-0.925777177523,-0.259834243791
4200000000.0,-0.929013326532,-0.254458557236,0.070940019698,-0.258045672435,0.070940019698,-0.258045672435,-0.929013326532,-0.254458557236
4300000000.0,-0.932047236993,-0.249275638811,0.0679057153897,-0.25294953563,0.0679057153897,-0.25294953563,-0.932047236993,-0.249275638811
4400000000.0,-0.934895032514,-0.244276574036,0.0650575178895,-0.24803732434,0.0650575178895,-0.24803732434,-0.934895032514,-0.244276574036
4500000000.0,-0.93757130176,-0.23945284669,0.0623808385018,-0.243300522538,0.0623808385018,-0.243300522538,-0.93757130176,-0.23945284669
4600000000.0,-0.940089265555,-0.234796337518,0.0598624563724,-0.23873101115,0.0598624563724,-0.23873101115,-0.940089265555,-0.234796337518
4700000000.0,-0.942460923839,-0.230299318147,0.05749037153,-0.234321061979,0.05749037153,-0.234321061979,-0.942460923839,-0.230299318147
4800000000.0,-0.944697185101,-0.225954441547,0.055253675458,-0.23006332816,0.055253675458,-0.23006332816,-0.944697185101,-0.225954441547
4900000000.0,-0.946807980535,-0.221754730049,0.0531424369339,-0.225950832182,0.0531424369339,-0.225950832182,-0.946807980535,-0.221754730049
5000000000.0,-0.948802364885,-0.217693561726,0.0511476011841,-0.221976952272,0.0511476011841,-0.221976952272,-0.948802364885,-0.217693561726
5100000000.0,-0.950688605668,-0.213764655736,0.049260900665,-0.21813540774,0.049260900665,-0.21813540774,-0.950688605668,-0.213764655736
5200000000.0,-0.952474262226,-0.209962057107,0.0474747760078,-0.214420243756,0.0474747760078,-0.214420243756,-0.952474262226,-0.209962057107
5300000000.0,-0.95416625588,-0.206280121285,0.0457823058632,-0.210825815912,0.0457823058632,-0.210825815912,-0.95416625588,-0.206280121285
5400000000.0,-0.955770932288,-0.202713498747,0.0441771445479,-0.207346774825,0.0441771445479,-0.207346774825,-0.955770932288,-0.202713498747
5500000000.0,-0.957294116943,-0.199257119839,0.0426534665418,-0.203978050981,0.0426534665418,-0.203978050981,-0.957294116943,-0.199257119839
5600000000.0,-0.958741164655,-0.195906179998,0.0412059170083,-0.20071483996,0.0412059170083,-0.20071483996,-0.958741164655,-0.195906179998
5700000000.0,-0.960117003729,-0.192656125458,0.039829567619,-0.197552588137,0.039829567619,-0.197552588137,-0.960117003729,-0.192656125458
5800000000.0,-0.961426175455,-0.189502639499,0.038519877056,-0.194486978934,0.038519877056,-0.194486978934,-0.961426175455,-0.189502639499
5900000000.0,-0.962672869484,-0.18644162928,0.0372726556445,-0.191513919654,0.0372726556445,-0.191513919654,-0.962672869484,-0.18644162928
6000000000.0,-0.963860955535,-0.183469213293,0.0360840336398,-0.188629528938,0.0360840336398,-0.188629528938,-0.963860955535,-0.183469213293
6100000000.0,-0.964994011874,-0.180581709434,0.03495043275,-0.18583012483,0.03495043275,-0.18583012483,-0.964994011874,-0.180581709434
6200000000.0,-0.966075350923,-0.177775623691,0.0338685405296,-0.183112213473,0.0338685405296,-0.183112213473,-0.966075350923,-0.177775623691
6300000000.0,-0.967108042312,-0.175047639443,0.0328352873228,-0.180472478404,0.0328352873228,-0.180472478404,-0.967108042312,-0.175047639443
6400000000.0,-0.968094933671,-0.172394607352,0.031847825475,-0.177907770447,0.031847825475,-0.177907770447,-0.968094933671,-0.172394607352
6500000000.0,-0.969038669398,-0.169813535834,0.0309035105644,-0.175415098185,0.0309035105644,-0.175415098185,-0.969038669398,-0.169813535834
6600000000.0,-0.969941707621,-0.167301582068,0.0299998844371,-0.172991618971,0.0299998844371,-0.172991618971,-0.969941707621,-0.167301582068
6700000000.0,-0.970806335558,-0.164856043547,0.0291346598504,-0.170634630474,0.0291346598504,-0.170634630474,-0.970806335558,-0.164856043547
6800000000.0,-0.971634683433,-0.16247435012,0.0283057065571,-0.168341562727,0.0283057065571,-0.168341562727,-0.971634683433,-0.16247435012
6900000000.0,-0.972428737098,-0.160154056511,0.0275110386789,-0.166109970645,0.0275110386789,-0.166109970645,-0.972428737098,-0.160154056511
7000000000.0,-0.973190349509,-0.157892835294,0.0267488032362,-0.163937527,0.0267488032362,-0.163937527,-0.973190349509,-0.157892835294
7100000000.0,-0.973921251154,-0.155688470287,0.0260172697161,-0.16182201581,0.0260172697161,-0.16182201581,-0.973921251154,-0.155688470287
7200000000.0,-0.974623059553,-0.153538850347,0.0253148205741,-0.159761326145,0.0253148205741,-0.159761326145,-0.974623059553,-0.153538850347
7300000000.0,-0.975297287916,-0.151441963547,0.0246399425757,-0.157753446294,0.0246399425757,-0.157753446294,-0.975297287916,-0.151441963547
7400000000.0,-0.975945353043,-0.149395891699,0.0239912188954,-0.155796458294,0.0239912188954,-0.155796458294,-0.975945353043,-0.149395891699
7500000000.0,-0.976568582543,-0.147398805217,0.023367321899,-0.153888532792,0.023367321899,-0.153888532792,-0.976568582543,-0.147398805217
7600000000.0,-0.977168221436,-0.145448958291,0.0227670065423,-0.152027924215,0.0227670065423,-0.152027924215,-0.977168221436,-0.145448958291
7700000000.0,-0.977745438193,-0.143544684345,0.0221891043295,-0.150212966238,0.0221891043295,-0.150212966238,-0.977745438193,-0.143544684345
7800000000.0,-0.978301330274,-0.141684391783,0.021632517775,-0.148442067517,0.021632517775,-0.148442067517,-0.978301330274,-0.141684391783
7900000000.0,-0.978836929208,-0.139866559979,0.021096215325,-0.14671370769,0.021096215325,-0.14671370769,-0.978836929208,-0.139866559979
8000000000.0,-0.979353205254,-0.138089735514,0.0205792266935,-0.145026433611,0.0205792266935,-0.145026433611,-0.979353205254,-0.138089735514
8100000000.0,-0.979851071693,-0.136352528639,0.020080638576,-0.143378855808,0.020080638576,-0.143378855808,-0.979851071693,-0.136352528639
8200000000.0,-0.980331388763,-0.134653609944,0.0195995907071,-0.14176964516,0.0195995907071,-0.14176964516,-0.980331388763,-0.134653609944
8300000000.0,-0.980794967297,-0.132991707225,0.0191352722301,-0.140197529759,0.0191352722301,-0.140197529759,-0.980794967297,-0.132991707225
8400000000.0,-0.981242572061,-0.131365602542,0.0186869183505,-0.138661291969,0.0186869183505,-0.138661291969,-0.981242572061,-0.131365602542
8500000000.0,-0.981674924848,-0.129774129441,0.0182538072508,-0.137159765646,0.0182538072508,-0.137159765646,-0.981674924848,-0.129774129441
8600000000.0,-0.982092707322,-0.128216170341,0.0178352572409,-0.135691833533,0.0178352572409,-0.135691833533,-0.982092707322,-0.128216170341
8700000000.0,-0.982496563651,-0.126690654077,0.0174306241254,-0.134256424792,0.0174306241254,-0.134256424792,-0.982496563651,-0.126690654077
8800000000.0,-0.982887102944,-0.125196553576,0.0170392987694,-0.132852512688,0.0170392987694,-0.132852512688,-0.982887102944,-0.125196553576
8900000000.0,-0.9832649015,-0.123732883675,0.0166607048456,-0.131479112404,0.0166607048456,-0.131479112404,-0.9832649015,-0.123732883675
9000000000.0,-0.983630504901,-0.122298699058,0.0162942967468,-0.130135278978,0.0162942967468,-0.130135278978,-0.983630504901,-0.122298699058
9100000000.0,-0.983984429941,-0.120893092308,0.0159395576517,-0.128820105355,0.0159395576517,-0.128820105355,-0.983984429941,-0.120893092308
9200000000.0,-0.984327166421,-0.119515192075,0.0155959977301,-0.127532720556,0.0155959977301,-0.127532720556,-0.984327166421,-0.119515192075
9300000000.0,-0.98465917882,-0.118164161341,0.0152631524768,-0.126272287942,0.0152631524768,-0.126272287942,-0.98465917882,-0.118164161341
9400000000.0,-0.984980907838,-0.116839195783,0.0149405811635,-0.125038003578,0.0149405811635,-0.125038003578,-0.984980907838,-0.116839195783
9500000000.0,-0.985292771837,-0.115539522224,0.0146278653997,-0.123829094684,0.0146278653997,-0.123829094684,-0.985292771837,-0.115539522224
9600000000.0,-0.985595168181,-0.114264397176,0.0143246077932,-0.122644818174,0.0143246077932,-0.122644818174,-0.985595168181,-0.114264397176
9700000000.0,-0.985888474483,-0.113013105453,0.0140304307035,-0.121484459275,0.0140304307035,-0.121484459275,-0.985888474483,-0.113013105453
9800000000.0,-0.986173049763,-0.111784958863,0.0137449750801,-0.120347330215,0.0137449750801,-0.120347330215,-0.986173049763,-0.111784958863
9900000000.0,-0.986449235537,-0.110579294971,0.0134678993791,-0.119232768989,0.0134678993791,-0.119232768989,-0.986449235537,-0.110579294971
10000000000.0,-0.986717356823,-0.109395475928,0.0131988785528,-0.118140138184,0.0131988785528,-0.118140138184,-0.986717356823,-0.109395475928
