freq (GHz),S11_real,S11_imag,S21_real,S21_imag,S12_real,S12_imag,S22_real,S22_imag
100000000.0,0.0307274932264,0.0047757668217,0.969268860378,-0.00633060006248,0.969268860378,-0.00633060006248,0.0307274932264,0.0047757668217
200000000.0,0.0310175918244,0.00954598584276,0.96897367188,-0.0126556759629,0.96897367188,-0.0126556759629,0.0310175918244,0.00954598584276
300000000.0,0.031317029978,0.0143114474343,0.968666699749,-0.0189760366314,0.968666699749,-0.0189760366314,0.031317029978,0.0143114474343
400000000.0,0.0316516636314,0.0190717502148,0.968322087447,-0.0252912969211,0.968322087447,-0.0252912969211,0.0316516636314,0.0190717502148
500000000.0,0.0320313916387,0.0238262178027,0.967929935457,-0.0316007955071,0.967929935457,-0.0316007955071,0.0320313916387,0.0238262178027
600000000.0,0.0324611982241,0.0285740540126,0.967485258816,-0.0379037504851,0.967485258816,-0.0379037504851,0.0324611982241,0.0285740540126
700000000.0,0.032943961017,0.0333143989116,0.96698517907,-0.0441993156342,0.96698517907,-0.0441993156342,0.032943961017,0.0333143989116
800000000.0,0.0334814761604,0.0380463550964,0.966427899166,-0.0504866068175,0.966427899166,-0.0504866068175,0.0334814761604,0.0380463550964
900000000.0,0.0340749148666,0.0427690020517,0.965812246897,-0.0567647164222,0.965812246897,-0.0567647164222,0.0340749148666,0.0427690020517
1000000000.0,0.0347250549232,0.0474814048694,0.965137443392,-0.0630327221367,0.965137443392,-0.0630327221367,0.0347250549232,0.0474814048694
1100000000.0,0.0354324094633,0.0521826199806,0.964402974348,-0.0692896927247,0.964402974348,-0.0692896927247,0.0354324094633,0.0521826199806
1200000000.0,0.0361973037743,0.0568716991692,0.963608513223,-0.0755346920723,0.963608513223,-0.0755346920723,0.0361973037743,0.0568716991692
1300000000.0,0.0370199237018,0.0615476925326,0.962753872827,-0.0817667821736,0.962753872827,-0.0817667821736,0.0370199237018,0.0615476925326
1400000000.0,0.037900347546,0.0662096507628,0.961838973433,-0.0879850254338,0.961838973433,-0.0879850254338,0.037900347546,0.0662096507628
1500000000.0,0.0388385678795,0.0708566269708,0.960863820954,-0.0941884865095,0.960863820954,-0.0941884865095,0.0388385678795,0.0708566269708
1600000000.0,0.0398345069553,0.0754876781911,0.959828491538,-0.100376233829,0.959828491538,-0.100376233829,0.0398345069553,0.0754876781911
1700000000.0,0.0408880278944,0.0801018666569,0.958733120381,-0.106547340877,0.958733120381,-0.106547340877,0.0408880278944,0.0801018666569
1800000000.0,0.0419989430146,0.0846982609044,0.957577893397,-0.112700887315,0.957577893397,-0.112700887315,0.0419989430146,0.0846982609044
1900000000.0,0.0431670201728,0.089275936747,0.956363040879,-0.118835959958,0.956363040879,-0.118835959958,0.0431670201728,0.089275936747
2000000000.0,0.0443919876962,0.0938339781482,0.955088832563,-0.124951653658,0.955088832563,-0.124951653658,0.0443919876962,0.0938339781482
2100000000.0,0.0456735382917,0.0983714780128,0.953755573725,-0.131047072106,0.953755573725,-0.131047072106,0.0456735382917,0.0983714780128
2200000000.0,0.0470113322051,0.102887538912,0.952363602017,-0.137121328556,0.952363602017,-0.137121328556,0.0470113322051,0.102887538912
2300000000.0,0.0484049998184,0.107381273751,0.950913284875,-0.143173546505,0.950913284875,-0.143173546505,0.0484049998184,0.107381273751
2400000000.0,0.0498541438223,0.111851806394,0.949405017343,-0.149202860319,0.949405017343,-0.149202860319,0.0498541438223,0.111851806394
2500000000.0,0.0513583410641,0.116298272239,0.947839220225,-0.155208415814,0.947839220225,-0.155208415814,0.0513583410641,0.116298272239
2600000000.0,0.0529171441441,0.120719818766,0.946216338492,-0.161189370809,0.946216338492,-0.161189370809,0.0529171441441,0.120719818766
2700000000.0,0.0545300828151,0.125115606046,0.944536839881,-0.167144895636,0.944536839881,-0.167144895636,0.0545300828151,0.125115606046
2800000000.0,0.056196665228,0.129484807216,0.942801213649,-0.173074173621,0.942801213649,-0.173074173621,0.056196665228,0.129484807216
2900000000.0,0.0579163790544,0.133826608937,0.941009969454,-0.178976401548,0.941009969454,-0.178976401548,0.0579163790544,0.133826608937
3000000000.0,0.0596886925102,0.138140211818,0.939163636326,-0.184850790076,0.939163636326,-0.184850790076,0.0596886925102,0.138140211818
3100000000.0,0.0615130553018,0.142424830813,0.937262761725,-0.19069656415,0.937262761725,-0.19069656415,0.0615130553018,0.142424830813
3200000000.0,0.0633888995066,0.146679695599,0.93530791066,-0.196512963379,0.93530791066,-0.196512963379,0.0633888995066,0.146679695599
3300000000.0,0.0653156404027,0.150904050932,0.933299664859,-0.202299242387,0.933299664859,-0.202299242387,0.0653156404027,0.150904050932
3400000000.0,0.0672926772542,0.155097156976,0.931238621984,-0.208054671154,0.931238621984,-0.208054671154,0.0672926772542,0.155097156976
3500000000.0,0.0693193940628,0.159258289613,0.929125394881,-0.213778535321,0.929125394881,-0.213778535321,0.0693193940628,0.159258289613
3600000000.0,0.0713951602882,0.163386740733,0.926960610855,-0.219470136487,0.926960610855,-0.219470136487,0.0713951602882,0.163386740733
3700000000.0,0.0735193315447,0.167481818502,0.924744910981,-0.225128792475,0.924744910981,-0.225128792475,0.0735193315447,0.167481818502
3800000000.0,0.0756912502764,0.171542847609,0.92247894942,-0.230753837585,0.92247894942,-0.230753837585,0.0756912502764,0.171542847609
3900000000.0,0.0779102464148,0.175569169499,0.92016339277,-0.236344622822,0.92016339277,-0.236344622822,0.0779102464148,0.175569169499
4000000000.0,0.0801756380202,0.179560142576,0.917798919419,-0.241900516109,0.917798919419,-0.241900516109,0.0801756380202,0.179560142576
4100000000.0,0.08248673191,0.183515142397,0.91538621892,-0.247420902477,0.91538621892,-0.247420902477,0.08248673191,0.183515142397
4200000000.0,0.0848428242746,0.187433561846,0.912925991372,-0.25290518424,0.912925991372,-0.25290518424,0.0848428242746,0.187433561846
4300000000.0,0.0872432012829,0.19131481128,0.910418946818,-0.258352781146,0.910418946818,-0.258352781146,0.0872432012829,0.19131481128
4400000000.0,0.0896871396767,0.195158318671,0.907865804646,-0.263763130518,0.907865804646,-0.263763130518,0.0896871396767,0.195158318671
4500000000.0,0.0921739073574,0.198963529718,0.90526729301,-0.269135687368,0.90526729301,-0.269135687368,0.0921739073574,0.198963529718
4600000000.0,0.0947027639624,0.202729907949,0.902624148244,-0.274469924498,0.902624148244,-0.274469924498,0.0947027639624,0.202729907949
4700000000.0,0.0972729614344,0.206456934804,0.899937114301,-0.279765332589,0.899937114301,-0.279765332589,0.0972729614344,0.206456934804
4800000000.0,0.0998837445819,0.210144109697,0.897206942187,-0.285021420258,0.897206942187,-0.285021420258,0.0998837445819,0.210144109697
4900000000.0,0.102534351632,0.213790950068,0.894434389412,-0.290237714117,0.894434389412,-0.290237714117,0.102534351632,0.213790950068
5000000000.0,0.105224014775,0.217396991414,0.891620219441,-0.295413758801,0.891620219441,-0.295413758801,0.105224014775,0.217396991414
5100000000.0,0.107951960704,0.220961787306,0.88876520116,-0.300549116985,0.88876520116,-0.300549116985,0.107951960704,0.220961787306
5200000000.0,0.110717411139,0.224484909387,0.885870108346,-0.30564336939,0.885870108346,-0.30564336939,0.110717411139,0.224484909387
5300000000.0,0.113519583355,0.227965947363,0.882935719144,-0.310696114765,0.882935719144,-0.310696114765,0.113519583355,0.227965947363
5400000000.0,0.116357690689,0.231404508969,0.879962815554,-0.315706969862,0.879962815554,-0.315706969862,0.116357690689,0.231404508969
5500000000.0,0.119230943052,0.234800219927,0.876952182928,-0.320675569389,0.876952182928,-0.320675569389,0.119230943052,0.234800219927
5600000000.0,0.122138547419,0.238152723887,0.87390460947,-0.325601565957,0.87390460947,-0.325601565957,0.122138547419,0.238152723887
5700000000.0,0.125079708323,0.241461682355,0.870820885746,-0.330484630007,0.870820885746,-0.330484630007,0.125079708323,0.241461682355
5800000000.0,0.128053628333,0.244726774612,0.867701804208,-0.335324449726,0.867701804208,-0.335324449726,0.128053628333,0.244726774612
5900000000.0,0.131059508525,0.247947697608,0.864548158723,-0.340120730946,0.864548158723,-0.340120730946,0.131059508525,0.247947697608
6000000000.0,0.134096548943,0.25112416586,0.861360744106,-0.344873197042,0.861360744106,-0.344873197042,0.134096548943,0.25112416586
6100000000.0,0.137163949054,0.254255911321,0.85814035567,-0.349581588801,0.85814035567,-0.349581588801,0.137163949054,0.254255911321
6200000000.0,0.140260908191,0.257342683253,0.854887788782,-0.354245664296,0.854887788782,-0.354245664296,0.140260908191,0.257342683253
6300000000.0,0.143386625987,0.260384248074,0.851603838429,-0.358865198734,0.851603838429,-0.358865198734,0.143386625987,0.260384248074
6400000000.0,0.146540302798,0.263380389209,0.848289298793,-0.363439984304,0.848289298793,-0.363439984304,0.146540302798,0.263380389209
6500000000.0,0.14972114012,0.266330906916,0.844944962838,-0.36796983001,0.844944962838,-0.36796983001,0.14972114012,0.266330906916
6600000000.0,0.152928340991,0.269235618112,0.841571621901,-0.372454561495,0.841571621901,-0.372454561495,0.152928340991,0.269235618112
6700000000.0,0.156161110387,0.272094356188,0.838170065302,-0.376894020852,0.838170065302,-0.376894020852,0.156161110387,0.272094356188
6800000000.0,0.159418655605,0.274906970809,0.834741079959,-0.381288066433,0.834741079959,-0.381288066433,0.159418655605,0.274906970809
6900000000.0,0.162700186639,0.277673327715,0.831285450011,-0.385636572641,0.831285450011,-0.385636572641,0.162700186639,0.277673327715
7000000000.0,0.16600491654,0.280393308502,0.827803956458,-0.389939429723,0.827803956458,-0.389939429723,0.16600491654,0.280393308502
7100000000.0,0.169332061771,0.28306681041,0.824297376806,-0.394196543544,0.824297376806,-0.394196543544,0.169332061771,0.28306681041
7200000000.0,0.172680842548,0.285693746085,0.820766484726,-0.398407835364,0.820766484726,-0.398407835364,0.172680842548,0.285693746085
7300000000.0,0.17605048317,0.288274043354,0.817212049722,-0.402573241605,0.817212049722,-0.402573241605,0.17605048317,0.288274043354
7400000000.0,0.179440212345,0.290807644978,0.813634836809,-0.406692713606,0.813634836809,-0.406692713606,0.179440212345,0.290807644978
7500000000.0,0.182849263492,0.293294508406,0.810035606206,-0.410766217378,0.810035606206,-0.410766217378,0.182849263492,0.293294508406
7600000000.0,0.186276875046,0.295734605523,0.806415113034,-0.414793733354,0.806415113034,-0.414793733354,0.186276875046,0.295734605523
7700000000.0,0.189722290744,0.298127922394,0.802774107028,-0.418775256128,0.802774107028,-0.418775256128,0.189722290744,0.298127922394
7800000000.0,0.193184759903,0.300474458994,0.799113332261,-0.422710794194,0.799113332261,-0.422710794194,0.193184759903,0.300474458994
7900000000.0,0.196663537684,0.302774228949,0.795433526873,-0.426600369681,0.795433526873,-0.426600369681,0.196663537684,0.302774228949
8000000000.0,0.200157885351,0.305027259261,0.791735422822,-0.430444018078,0.791735422822,-0.430444018078,0.200157885351,0.305027259261
8100000000.0,0.203667070516,0.307233590032,0.788019745632,-0.434241787963,0.788019745632,-0.434241787963,0.203667070516,0.307233590032
8200000000.0,0.20719036737,0.309393274189,0.784287214161,-0.437993740724,0.784287214161,-0.437993740724,0.20719036737,0.309393274189
8300000000.0,0.210727056912,0.311506377198,0.780538540377,-0.441699950278,0.780538540377,-0.441699950278,0.210727056912,0.311506377198
8400000000.0,0.214276427158,0.313572976787,0.776774429143,-0.44536050279,0.776774429143,-0.44536050279,0.214276427158,0.313572976787
8500000000.0,0.217837773345,0.315593162657,0.772995578016,-0.448975496385,0.772995578016,-0.448975496385,0.217837773345,0.315593162657
8600000000.0,0.221410398125,0.317567036193,0.769202677053,-0.452545040863,0.769202677053,-0.452545040863,0.221410398125,0.317567036193
8700000000.0,0.224993611747,0.319494710179,0.765396408627,-0.456069257408,0.765396408627,-0.456069257408,0.224993611747,0.319494710179
8800000000.0,0.228586732226,0.321376308505,0.761577447255,-0.459548278302,0.761577447255,-0.459548278302,0.228586732226,0.321376308505
8900000000.0,0.23218908551,0.323211965878,0.757746459439,-0.462982246634,0.757746459439,-0.462982246634,0.23218908551,0.323211965878
9000000000.0,0.23580000563,0.325001827531,0.753904103506,-0.466371316006,0.753904103506,-0.466371316006,0.23580000563,0.325001827531
9100000000.0,0.239418834843,0.32674604893,0.750051029472,-0.469715650245,0.750051029472,-0.469715650245,0.239418834843,0.32674604893
9200000000.0,0.243044923765,0.328444795486,0.746187878906,-0.473015423112,0.746187878906,-0.473015423112,0.243044923765,0.328444795486
9300000000.0,0.246677631496,0.33009824226,0.742315284801,-0.47627081801,0.742315284801,-0.47627081801,0.246677631496,0.33009824226
9400000000.0,0.250316325732,0.331706573677,0.738433871468,-0.479482027697,0.738433871468,-0.479482027697,0.250316325732,0.331706573677
9500000000.0,0.253960382873,0.333269983236,0.734544254424,-0.482649253993,0.734544254424,-0.482649253993,0.253960382873,0.333269983236
9600000000.0,0.257609188119,0.334788673219,0.730647040295,-0.485772707497,0.730647040295,-0.485772707497,0.257609188119,0.334788673219
9700000000.0,0.261262135558,0.336262854408,0.72674282673,-0.488852607298,0.72674282673,-0.488852607298,0.261262135558,0.336262854408
9800000000.0,0.264918628244,0.337692745801,0.72283220232,-0.491889180692,0.72283220232,-0.491889180692,0.264918628244,0.337692745801
9900000000.0,0.26857807827,0.339078574325,0.718915746527,-0.494882662896,0.718915746527,-0.494882662896,0.26857807827,0.339078574325
10000000000.0,0.272239906831,0.340420574559,0.71499402962,-0.497833296774,0.71499402962,-0.497833296774,0.272239906831,0.340420574559
