freq (GHz),S11_real,S11_imag,S21_real,S21_imag,S12_real,S12_imag,S22_real,S22_imag
100000000.0,0.00394780639193,0.00105203489635,0.99604888061,-0.00246089622464,0.99604888061,-0.00246089622464,0.00394780639193,0.00105203489635
200000000.0,0.00398114353059,0.00210385990564,0.996011242875,-0.00492158993362,0.996011242875,-0.00492158993362,0.00398114353059,0.00210385990564
300000000.0,0.00401272641579,0.00315552125937,0.995973371675,-0.00738213272087,0.995973371675,-0.00738213272087,0.00401272641579,0.00315552125937
400000000.0,0.00404597142816,0.0042070168545,0.995931850485,-0.00984252646215,0.995931850485,-0.00984252646215,0.00404597142816,0.0042070168545
500000000.0,0.00408219412281,0.00525833338349,0.995885363581,-0.0123027611324,0.995885363581,-0.0123027611324,0.00408219412281,0.00525833338349
600000000.0,0.0041220650802,0.00630945259687,0.995833240192,-0.0147628213094,0.995833240192,-0.0147628213094,0.0041220650802,0.00630945259687
700000000.0,0.00416598001119,0.00736035354977,0.995775084393,-0.0172226885435,0.995775084393,-0.0172226885435,0.00416598001119,0.00736035354977
800000000.0,0.00421419483528,0.00841101364277,0.995710640028,-0.0196823424718,0.995710640028,-0.0196823424718,0.00421419483528,0.00841101364277
900000000.0,0.0042668858242,0.00946140918018,0.99563973057,-0.0221417614254,0.99563973057,-0.0221417614254,0.0042668858242,0.00946140918018
1000000000.0,0.00432418008707,0.0105115157005,0.995562228633,-0.0246009227936,0.995562228633,-0.0246009227936,0.00432418008707,0.0105115157005
1100000000.0,0.00438617251632,0.0115613081861,0.99547803903,-0.0270598032586,0.99547803903,-0.0270598032586,0.00438617251632,0.0115613081861
1200000000.0,0.00445293588493,0.0126107612032,0.995387088673,-0.0295183789554,0.995387088673,-0.0295183789554,0.00445293588493,0.0126107612032
1300000000.0,0.00452452719886,0.0136598490006,0.995289320224,-0.0319766255848,0.995289320224,-0.0319766255848,0.00452452719886,0.0136598490006
1400000000.0,0.00460099187232,0.0147085455799,0.995184687918,-0.0344345184961,0.995184687918,-0.0344345184961,0.00460099187232,0.0147085455799
1500000000.0,0.00468236657267,0.0157568247484,0.995073154723,-0.0368920327503,0.995073154723,-0.0368920327503,0.00468236657267,0.0157568247484
1600000000.0,0.00476868121843,0.0168046601594,0.994954690334,-0.0393491431683,0.994954690334,-0.0393491431683,0.00476868121843,0.0168046601594
1700000000.0,0.00485996041905,0.0178520253436,0.994829269742,-0.0418058243691,0.994829269742,-0.0418058243691,0.00485996041905,0.0178520253436
1800000000.0,0.00495622453564,0.0188988937332,0.99469687217,-0.0442620508008,0.99469687217,-0.0442620508008,0.00495622453564,0.0188988937332
1900000000.0,0.0050574904778,0.0199452386827,0.994557480277,-0.0467177967656,0.994557480277,-0.0467177967656,0.0050574904778,0.0199452386827
2000000000.0,0.00516377231238,0.0209910334846,0.994411079547,-0.0491730364406,0.994411079547,-0.0491730364406,0.00516377231238,0.0209910334846
2100000000.0,0.00527508173562,0.0220362513834,0.994257657822,-0.0516277438955,0.994257657822,-0.0516277438955,0.00527508173562,0.0220362513834
2200000000.0,0.00539142844434,0.0230808655866,0.994097204928,-0.0540818931072,0.994097204928,-0.0540818931072,0.00539142844434,0.0230808655866
2300000000.0,0.00551282043131,0.0241248492743,0.993929712381,-0.0565354579729,0.993929712381,-0.0565354579729,0.00551282043132,0.0241248492743
2400000000.0,0.00563926422282,0.0251681756079,0.993755173146,-0.0589884123207,0.993755173146,-0.0589884123207,0.00563926422282,0.0251681756079
2500000000.0,0.00577076507169,0.0262108177366,0.993573581453,-0.0614407299196,0.993573581453,-0.0614407299196,0.00577076507169,0.0262108177366
2600000000.0,0.00590732711554,0.0272527488042,0.993384932628,-0.0638923844878,0.993384932628,-0.0638923844878,0.00590732711554,0.0272527488042
2700000000.0,0.00604895350763,0.0282939419541,0.993189222971,-0.0663433497006,0.993189222971,-0.0663433497006,0.00604895350763,0.0282939419541
2800000000.0,0.00619564652583,0.0293343703345,0.992986449642,-0.0687935991968,0.992986449642,-0.0687935991968,0.00619564652583,0.0293343703345
2900000000.0,0.00634740766405,0.0303740071028,0.992776610573,-0.0712431065849,0.992776610573,-0.0712431065849,0.00634740766405,0.0303740071028
3000000000.0,0.00650423770952,0.0314128254291,0.99255970439,-0.0736918454488,0.99255970439,-0.0736918454488,0.00650423770952,0.0314128254291
3100000000.0,0.0066661368083,0.0324507985003,0.992335730345,-0.0761397893524,0.992335730345,-0.0761397893524,0.0066661368083,0.0324507985003
3200000000.0,0.00683310452144,0.0334878995229,0.992104688265,-0.0785869118449,0.992104688265,-0.0785869118449,0.00683310452144,0.0334878995229
3300000000.0,0.00700513987313,0.0345241017262,0.9918665785,-0.0810331864643,0.9918665785,-0.0810331864643,0.00700513987313,0.0345241017262
3400000000.0,0.00718224139225,0.0355593783651,0.991621401883,-0.0834785867419,0.991621401883,-0.0834785867419,0.00718224139225,0.0355593783651
3500000000.0,0.00736440714852,0.0365937027224,0.991369159694,-0.0859230862057,0.991369159694,-0.0859230862057,0.00736440714852,0.0365937027224
3600000000.0,0.00755163478392,0.0376270481116,0.991109853629,-0.0883666583836,0.991109853629,-0.0883666583836,0.00755163478392,0.0376270481116
3700000000.0,0.0077439215402,0.0386593878787,0.990843485771,-0.0908092768071,0.990843485771,-0.0908092768071,0.0077439215402,0.0386593878787
3800000000.0,0.00794126428311,0.0396906954046,0.99057005857,-0.093250915014,0.99057005857,-0.093250915014,0.00794126428311,0.0396906954046
3900000000.0,0.00814365952371,0.0407209441068,0.990289574816,-0.0956915465511,0.990289574816,-0.0956915465511,0.00814365952371,0.0407209441068
4000000000.0,0.00835110343727,0.0417501074418,0.990002037624,-0.0981311449774,0.990002037624,-0.0981311449774,0.00835110343727,0.0417501074418
4100000000.0,0.00856359188005,0.0427781589062,0.989707450418,-0.100569683866,0.989707450418,-0.100569683866,0.00856359188005,0.0427781589062
4200000000.0,0.00878112040431,0.0438050720391,0.989405816915,-0.103007136806,0.989405816915,-0.103007136806,0.00878112040431,0.0438050720391
4300000000.0,0.00900368427163,0.0448308204233,0.989097141108,-0.105443477408,0.989097141108,-0.105443477408,0.00900368427163,0.0448308204233
4400000000.0,0.00923127846501,0.0458553776868,0.988781427261,-0.107878679302,0.988781427261,-0.107878679302,0.00923127846501,0.0458553776868
4500000000.0,0.00946389769962,0.046878717505,0.988458679894,-0.110312716142,0.988458679894,-0.110312716142,0.00946389769962,0.046878717505
4600000000.0,0.00970153643262,0.0479008136012,0.988128903774,-0.112745561607,0.988128903774,-0.112745561607,0.00970153643262,0.0479008136012
4700000000.0,0.00994418887196,0.048921639749,0.987792103906,-0.115177189405,0.987792103906,-0.115177189405,0.00994418887196,0.048921639749
4800000000.0,0.0101918489844,0.049941169773,0.987448285526,-0.117607573271,0.987448285526,-0.117607573271,0.0101918489844,0.049941169773
4900000000.0,0.010444510503,0.0509593775502,0.987097454094,-0.120036686974,0.987097454094,-0.120036686974,0.010444510503,0.0509593775502
5000000000.0,0.0107021669335,0.0519762370117,0.986739615285,-0.122464504314,0.986739615285,-0.122464504314,0.0107021669335,0.0519762370117
5100000000.0,0.0109648115606,0.0529917221438,0.986374774987,-0.124890999126,0.986374774987,-0.124890999126,0.0109648115606,0.0529917221438
5200000000.0,0.0112324374537,0.0540058069889,0.98600293929,-0.127316145283,0.98600293929,-0.127316145283,0.0112324374537,0.0540058069889
5300000000.0,0.0115050374717,0.0550184656473,0.985624114487,-0.129739916695,0.985624114487,-0.129739916695,0.0115050374717,0.0550184656473
5400000000.0,0.0117826042683,0.056029672278,0.985238307066,-0.13216228731,0.985238307066,-0.13216228731,0.0117826042683,0.056029672278
5500000000.0,0.0120651302959,0.0570394010999,0.984845523705,-0.13458323112,0.984845523705,-0.13458323112,0.0120651302959,0.0570394010999
5600000000.0,0.01235260781,0.0580476263931,0.984445771269,-0.137002722158,0.984445771269,-0.137002722158,0.01235260781,0.0580476263931
5700000000.0,0.0126450288728,0.0590543225,0.984039056807,-0.139420734502,0.984039056807,-0.139420734502,0.0126450288728,0.0590543225
5800000000.0,0.0129423853569,0.0600594638262,0.983625387549,-0.141837242274,0.983625387549,-0.141837242274,0.0129423853569,0.0600594638262
5900000000.0,0.0132446689486,0.061063024842,0.9832047709,-0.144252219646,0.9832047709,-0.144252219646,0.0132446689486,0.061063024842
6000000000.0,0.0135518711509,0.0620649800829,0.982777214438,-0.146665640835,0.982777214438,-0.146665640835,0.0135518711509,0.0620649800829
6100000000.0,0.0138639832865,0.0630653041512,0.982342725915,-0.14907748011,0.982342725915,-0.14907748011,0.0138639832865,0.0630653041512
6200000000.0,0.0141809965005,0.0640639717168,0.981901313247,-0.15148771179,0.981901313247,-0.15148771179,0.0141809965005,0.0640639717168
6300000000.0,0.0145029017631,0.0650609575181,0.981452984518,-0.153896310247,0.981452984518,-0.153896310247,0.0145029017631,0.0650609575181
6400000000.0,0.0148296898717,0.0660562363634,0.980997747976,-0.156303249907,0.980997747976,-0.156303249907,0.0148296898717,0.0660562363634
6500000000.0,0.0151613514536,0.0670497831314,0.980535612027,-0.15870850525,0.980535612027,-0.15870850525,0.0151613514536,0.0670497831314
6600000000.0,0.015497876968,0.0680415727727,0.98006658524,-0.161112050813,0.98006658524,-0.161112050813,0.015497876968,0.0680415727727
6700000000.0,0.0158392567082,0.0690315803102,0.979590676336,-0.163513861188,0.979590676336,-0.163513861188,0.0158392567082,0.0690315803102
6800000000.0,0.0161854808034,0.0700197808407,0.979107894196,-0.16591391103,0.979107894196,-0.16591391103,0.0161854808035,0.0700197808407
6900000000.0,0.0165365392209,0.0710061495354,0.978618247849,-0.168312175048,0.978618247849,-0.168312175048,0.0165365392209,0.0710061495354
7000000000.0,0.0168924217674,0.071990661641,0.97812174648,-0.170708628018,0.97812174648,-0.170708628018,0.0168924217674,0.071990661641
7100000000.0,0.0172531180916,0.0729732924806,0.977618399419,-0.173103244773,0.977618399419,-0.173103244773,0.0172531180916,0.0729732924806
7200000000.0,0.0176186176849,0.0739540174546,0.977108216148,-0.175496000213,0.977108216148,-0.175496000213,0.0176186176849,0.0739540174546
7300000000.0,0.0179889098838,0.0749328120416,0.976591206293,-0.177886869298,0.976591206293,-0.177886869298,0.0179889098838,0.0749328120416
7400000000.0,0.018363983871,0.0759096517995,0.976067379626,-0.180275827057,0.976067379626,-0.180275827057,0.018363983871,0.0759096517995
7500000000.0,0.0187438286772,0.0768845123662,0.975536746061,-0.182662848584,0.975536746061,-0.182662848584,0.0187438286772,0.0768845123662
7600000000.0,0.0191284331824,0.0778573694603,0.974999315656,-0.18504790904,0.974999315656,-0.18504790904,0.0191284331824,0.0778573694603
7700000000.0,0.0195177861173,0.0788281988825,0.974455098608,-0.187430983655,0.974455098608,-0.187430983655,0.0195177861173,0.0788281988825
7800000000.0,0.0199118760647,0.0797969765159,0.973904105254,-0.189812047729,0.973904105254,-0.189812047729,0.0199118760647,0.0797969765159
7900000000.0,0.020310691461,0.0807636783272,0.973346346069,-0.192191076632,0.973346346069,-0.192191076632,0.020310691461,0.0807636783272
8000000000.0,0.0207142205974,0.0817282803675,0.972781831665,-0.194568045806,0.972781831665,-0.194568045806,0.0207142205974,0.0817282803675
8100000000.0,0.0211224516211,0.0826907587731,0.972210572789,-0.196942930764,0.972210572789,-0.196942930764,0.0211224516211,0.0826907587731
8200000000.0,0.0215353725365,0.0836510897661,0.971632580322,-0.199315707093,0.971632580322,-0.199315707093,0.0215353725365,0.0836510897661
8300000000.0,0.0219529712068,0.0846092496558,0.971047865279,-0.201686350457,0.971047865279,-0.201686350457,0.0219529712068,0.0846092496558
8400000000.0,0.0223752353548,0.0855652148388,0.970456438807,-0.204054836593,0.970456438807,-0.204054836593,0.0223752353548,0.0855652148388
8500000000.0,0.0228021525643,0.0865189618003,0.969858312183,-0.206421141314,0.969858312183,-0.206421141314,0.0228021525643,0.0865189618003
8600000000.0,0.0232337102809,0.0874704671149,0.969253496813,-0.208785240511,0.969253496813,-0.208785240511,0.0232337102809,0.0874704671149
8700000000.0,0.0236698958139,0.088419707447,0.968642004235,-0.211147110153,0.968642004235,-0.211147110153,0.0236698958139,0.088419707447
8800000000.0,0.0241106963365,0.0893666595519,0.968023846111,-0.21350672629,0.968023846111,-0.21350672629,0.0241106963365,0.0893666595519
8900000000.0,0.0245560988876,0.0903113002767,0.967399034231,-0.215864065048,0.967399034231,-0.215864065048,0.0245560988876,0.0903113002767
9000000000.0,0.0250060903726,0.0912536065604,0.966767580509,-0.218219102638,0.966767580509,-0.218219102638,0.0250060903726,0.0912536065604
9100000000.0,0.0254606575644,0.0921935554356,0.966129496986,-0.22057181535,0.966129496986,-0.22057181535,0.0254606575644,0.0921935554356
9200000000.0,0.0259197871047,0.0931311240284,0.965484795824,-0.222922179557,0.965484795824,-0.222922179557,0.0259197871047,0.0931311240284
9300000000.0,0.0263834655049,0.0940662895597,0.964833489309,-0.225270171716,0.964833489309,-0.225270171716,0.0263834655049,0.0940662895597
9400000000.0,0.0268516791472,0.0949990293457,0.964175589846,-0.227615768369,0.964175589846,-0.227615768369,0.0268516791472,0.0949990293457
9500000000.0,0.0273244142856,0.0959293207985,0.963511109963,-0.229958946141,0.963511109963,-0.229958946141,0.0273244142856,0.0959293207985
9600000000.0,0.0278016570468,0.0968571414272,0.962840062305,-0.232299681744,0.962840062305,-0.232299681744,0.0278016570468,0.0968571414272
9700000000.0,0.0282833934316,0.0977824688383,0.962162459638,-0.234637951977,0.962162459638,-0.234637951977,0.0282833934316,0.0977824688383
9800000000.0,0.0287696093156,0.0987052807364,0.961478314842,-0.236973733726,0.961478314842,-0.236973733726,0.0287696093156,0.0987052807364
9900000000.0,0.0292602904501,0.099625554925,0.960787640916,-0.239307003966,0.960787640916,-0.239307003966,0.0292602904501,0.099625554925
10000000000.0,0.0297554224635,0.100543269307,0.960090450973,-0.24163773976,0.960090450973,-0.24163773976,0.0297554224635,0.100543269307
