freq (GHz),S11_real,S11_imag,S21_real,S21_imag,S12_real,S12_imag,S22_real,S22_imag
100000000.0,0.0013186514351,0.000284478034282,0.998680187614,-0.00044225640278,0.998680187614,-0.00044225640278,0.0013186514351,0.000284478034282
200000000.0,0.001327698793,0.000568945036538,0.998670954395,-0.000884504782555,0.998670954395,-0.000884504782555,0.001327698793,0.000568945036537
300000000.0,0.00133465620042,0.000853406902573,0.998663786213,-0.00132675259793,0.998663786213,-0.00132675259793,0.00133465620042,0.000853406902573
400000000.0,0.00134067073652,0.00113786599871,0.998657535983,-0.00176900341331,0.998657535983,-0.00176900341331,0.00134067073652,0.00113786599871
500000000.0,0.00134618468994,0.0014223238329,0.998651761414,-0.00221125974994,0.998651761414,-0.00221125974994,0.00134618468994,0.0014223238329
600000000.0,0.00135142388707,0.00170678152395,0.998646236673,-0.00265352361718,0.998646236673,-0.00265352361718,0.00135142388707,0.00170678152395
700000000.0,0.00135652188549,0.00199123997435,0.998640828197,-0.00309579671797,0.998640828197,-0.00309579671797,0.00135652188549,0.00199123997435
800000000.0,0.00136156531831,0.00227569995248,0.998635449347,-0.00353808055039,0.998635449347,-0.00353808055039,0.00136156531831,0.00227569995248
900000000.0,0.00136661409199,0.00256016213768,0.99863004021,-0.00398037646569,0.99863004021,-0.00398037646569,0.00136661409199,0.00256016213768
1000000000.0,0.00137171162772,0.00284462714764,0.99862455736,-0.00442268570438,0.99862455736,-0.00442268570438,0.00137171162772,0.00284462714764
1100000000.0,0.00137689055672,0.00312909555595,0.998618968157,-0.00486500942061,0.998618968157,-0.00486500942061,0.00137689055672,0.00312909555595
1200000000.0,0.00138217611527,0.00341356790394,0.998613247358,-0.00530734869938,0.998613247358,-0.00530734869938,0.00138217611527,0.00341356790394
1300000000.0,0.00138758828115,0.00369804470938,0.99860737498,-0.00574970456886,0.99860737498,-0.00574970456886,0.00138758828115,0.00369804470938
1400000000.0,0.00139314317884,0.00398252647245,0.998601334889,-0.00619207801001,0.998601334889,-0.00619207801001,0.00139314317884,0.00398252647245
1500000000.0,0.00139885403698,0.00426701368051,0.998595113849,-0.00663446996377,0.998595113849,-0.00663446996377,0.00139885403698,0.00426701368051
1600000000.0,0.0014047318614,0.00455150681162,0.998588700846,-0.00707688133697,0.998588700846,-0.00707688133697,0.0014047318614,0.00455150681162
1700000000.0,0.00141078592014,0.00483600633718,0.998582086606,-0.00751931300698,0.998582086606,-0.00751931300698,0.00141078592014,0.00483600633718
1800000000.0,0.00141702410093,0.00512051272428,0.998575263231,-0.00796176582547,0.998575263231,-0.00796176582547,0.00141702410093,0.00512051272428
1900000000.0,0.00142345317992,0.00540502643734,0.998568223936,-0.00840424062164,0.998568223936,-0.00840424062164,0.00142345317992,0.00540502643734
2000000000.0,0.00143007902699,0.0056895479395,0.998560962845,-0.00884673820489,0.998560962845,-0.00884673820489,0.00143007902699,0.0056895479395
2100000000.0,0.00143690676508,0.00597407769389,0.998553474824,-0.009289259367,0.998553474824,-0.009289259367,0.00143690676508,0.00597407769389
2200000000.0,0.00144394089551,0.00625861616443,0.998545755364,-0.00973180488415,0.998545755364,-0.00973180488415,0.00144394089551,0.00625861616443
2300000000.0,0.00145118539769,0.00654316381674,0.998537800477,-0.0101743755185,0.998537800477,-0.0101743755185,0.00145118539769,0.00654316381674
2400000000.0,0.00145864380936,0.00682772111866,0.998529606615,-0.0106169720197,0.998529606615,-0.0106169720197,0.00145864380936,0.00682772111866
2500000000.0,0.00146631929181,0.00711228854096,0.998521170609,-0.011059595126,0.998521170609,-0.011059595126,0.00146631929181,0.00711228854096
2600000000.0,0.00147421468341,0.00739686655761,0.99851248961,-0.0115022455656,0.99851248961,-0.0115022455656,0.00147421468341,0.00739686655761
2700000000.0,0.00148233254375,0.00768145564632,0.998503561049,-0.0119449240575,0.998503561049,-0.0119449240575,0.00148233254375,0.00768145564632
2800000000.0,0.00149067519052,0.00796605628876,0.9984943826,-0.0123876313124,0.9984943826,-0.0123876313124,0.00149067519052,0.00796605628876
2900000000.0,0.00149924473041,0.00825066897091,0.998484952146,-0.0128303680331,0.998484952146,-0.0128303680331,0.00149924473041,0.00825066897091
3000000000.0,0.00150804308522,0.00853529418322,0.998475267756,-0.0132731349159,0.998475267756,-0.0132731349159,0.00150804308522,0.00853529418322
3100000000.0,0.00151707201401,0.00881993242083,0.99846532766,-0.0137159326507,0.99846532766,-0.0137159326507,0.00151707201401,0.00881993242083
3200000000.0,0.00152633313207,0.00910458418376,0.998455130235,-0.0141587619216,0.998455130235,-0.0141587619216,0.00152633313207,0.00910458418376
3300000000.0,0.00153582792715,0.00938924997699,0.998444673982,-0.0146016234078,0.998444673982,-0.0146016234078,0.00153582792715,0.00938924997699
3400000000.0,0.00154555777351,0.00967393031063,0.998433957518,-0.0150445177835,0.998433957518,-0.0150445177835,0.00154555777351,0.00967393031063
3500000000.0,0.0015555239441,0.00995862569997,0.998422979559,-0.0154874457185,0.998422979559,-0.0154874457185,0.0015555239441,0.00995862569997
3600000000.0,0.00156572762115,0.0102433366656,0.998411738913,-0.015930407879,0.998411738913,-0.015930407879,0.00156572762115,0.0102433366656
3700000000.0,0.00157616990541,0.0105280637333,0.99840023447,-0.0163734049274,0.99840023447,-0.0163734049274,0.00157616990541,0.0105280637333
3800000000.0,0.00158685182431,0.0108128074345,0.998388465192,-0.0168164375226,0.998388465192,-0.0168164375226,0.00158685182431,0.0108128074345
3900000000.0,0.00159777433909,0.0110975683058,0.998376430108,-0.017259506321,0.998376430108,-0.017259506321,0.00159777433909,0.0110975683058
4000000000.0,0.00160893835112,0.0113823468893,0.998364128306,-0.0177026119757,0.998364128306,-0.0177026119757,0.00160893835112,0.0113823468893
4100000000.0,0.00162034470755,0.0116671437327,0.99835155893,-0.0181457551379,0.99835155893,-0.0181457551379,0.00162034470755,0.0116671437327
4200000000.0,0.00163199420624,0.0119519593891,0.998338721171,-0.018588936456,0.998338721171,-0.018588936456,0.00163199420624,0.0119519593891
4300000000.0,0.00164388760023,0.012236794417,0.998325614266,-0.0190321565768,0.998325614266,-0.0190321565768,0.00164388760023,0.012236794417
4400000000.0,0.00165602560175,0.0125216493804,0.998312237493,-0.0194754161448,0.998312237493,-0.0194754161448,0.00165602560175,0.0125216493804
4500000000.0,0.00166840888571,0.0128065248489,0.998298590167,-0.0199187158032,0.998298590167,-0.0199187158032,0.00166840888571,0.0128065248489
4600000000.0,0.00168103809298,0.0130914213974,0.998284671638,-0.0203620561936,0.998284671638,-0.0203620561936,0.00168103809298,0.0130914213974
4700000000.0,0.00169391383325,0.0133763396064,0.998270481284,-0.0208054379559,0.998270481284,-0.0208054379559,0.00169391383325,0.0133763396064
4800000000.0,0.00170703668761,0.0136612800618,0.998256018516,-0.0212488617292,0.998256018516,-0.0212488617292,0.00170703668761,0.0136612800618
4900000000.0,0.00172040721097,0.0139462433548,0.998241282769,-0.0216923281513,0.998241282769,-0.0216923281513,0.00172040721097,0.0139462433548
5000000000.0,0.00173402593414,0.0142312300822,0.998226273501,-0.022135837859,0.998226273501,-0.022135837859,0.00173402593414,0.0142312300822
5100000000.0,0.00174789336584,0.0145162408459,0.998210990193,-0.0225793914882,0.998210990193,-0.0225793914882,0.00174789336584,0.0145162408459
5200000000.0,0.00176200999441,0.0148012762534,0.998195432349,-0.0230229896744,0.998195432349,-0.0230229896744,0.00176200999441,0.0148012762534
5300000000.0,0.00177637628947,0.0150863369174,0.998179599487,-0.0234666330519,0.998179599487,-0.0234666330519,0.00177637628947,0.0150863369174
5400000000.0,0.0017909927034,0.0153714234558,0.998163491146,-0.0239103222547,0.998163491146,-0.0239103222547,0.0017909927034,0.0153714234558
5500000000.0,0.00180585967266,0.015656536492,0.99814710688,-0.0243540579165,0.99814710688,-0.0243540579165,0.00180585967266,0.015656536492
5600000000.0,0.00182097761907,0.0159416766543,0.998130446257,-0.0247978406702,0.998130446257,-0.0247978406702,0.00182097761907,0.0159416766543
5700000000.0,0.00183634695093,0.0162268445764,0.99811350886,-0.0252416711487,0.99811350886,-0.0252416711487,0.00183634695093,0.0162268445764
5800000000.0,0.00185196806406,0.0165120408971,0.998096294281,-0.0256855499845,0.998096294281,-0.0256855499845,0.00185196806406,0.0165120408971
5900000000.0,0.00186784134281,0.0167972662604,0.998078802129,-0.0261294778099,0.998078802129,-0.0261294778099,0.00186784134281,0.0167972662604
6000000000.0,0.00188396716089,0.0170825213152,0.998061032018,-0.026573455257,0.998061032018,-0.026573455257,0.00188396716089,0.0170825213152
6100000000.0,0.00190034588226,0.0173678067156,0.998042983577,-0.027017482958,0.998042983577,-0.027017482958,0.00190034588226,0.0173678067156
6200000000.0,0.00191697786185,0.0176531231206,0.99802465644,-0.0274615615449,0.99802465644,-0.0274615615449,0.00191697786185,0.0176531231206
6300000000.0,0.00193386344627,0.0179384711944,0.998006050252,-0.0279056916499,0.998006050252,-0.0279056916499,0.00193386344627,0.0179384711944
6400000000.0,0.00195100297449,0.0182238516059,0.997987164664,-0.0283498739051,0.997987164664,-0.0283498739051,0.00195100297449,0.0182238516059
6500000000.0,0.00196839677843,0.018509265029,0.997967999336,-0.0287941089428,0.997967999336,-0.0287941089428,0.00196839677843,0.018509265029
6600000000.0,0.00198604518355,0.0187947121425,0.997948553933,-0.0292383973955,0.997948553933,-0.0292383973955,0.00198604518355,0.0187947121425
6700000000.0,0.00200394850933,0.0190801936299,0.997928828125,-0.0296827398958,0.997928828125,-0.0296827398958,0.00200394850933,0.0190801936299
6800000000.0,0.00202210706982,0.0193657101798,0.997908821591,-0.0301271370765,0.997908821591,-0.0301271370765,0.00202210706982,0.0193657101798
6900000000.0,0.00204052117406,0.0196512624853,0.997888534012,-0.0305715895707,0.997888534012,-0.0305715895707,0.00204052117406,0.0196512624853
7000000000.0,0.00205919112654,0.0199368512442,0.997867965075,-0.031016098012,0.997867965075,-0.031016098012,0.00205919112654,0.0199368512442
7100000000.0,0.00207811722756,0.0202224771593,0.997847114471,-0.0314606630341,0.997847114471,-0.0314606630341,0.00207811722756,0.0202224771593
7200000000.0,0.00209729977364,0.0205081409377,0.997825981896,-0.031905285271,0.997825981896,-0.031905285271,0.00209729977364,0.0205081409377
7300000000.0,0.00211673905788,0.0207938432914,0.997804567046,-0.0323499653573,0.997804567046,-0.0323499653573,0.00211673905788,0.0207938432914
7400000000.0,0.00213643537025,0.0210795849369,0.997782869624,-0.0327947039278,0.997782869624,-0.0327947039278,0.00213643537025,0.0210795849369
7500000000.0,0.00215638899794,0.0213653665952,0.997760889335,-0.033239501618,0.997760889335,-0.033239501618,0.00215638899794,0.0213653665952
7600000000.0,0.00217660022563,0.0216511889919,0.997738625886,-0.0336843590634,0.997738625886,-0.0336843590634,0.00217660022563,0.0216511889919
7700000000.0,0.00219706933577,0.0219370528572,0.997716078985,-0.0341292769005,0.997716078985,-0.0341292769005,0.00219706933577,0.0219370528572
7800000000.0,0.00221779660885,0.0222229589255,0.997693248345,-0.0345742557658,0.997693248345,-0.0345742557658,0.00221779660885,0.0222229589255
7900000000.0,0.00223878232362,0.0225089079359,0.99767013368,-0.0350192962968,0.99767013368,-0.0350192962968,0.00223878232362,0.0225089079359
8000000000.0,0.00226002675734,0.0227949006318,0.997646734703,-0.0354643991311,0.997646734703,-0.0354643991311,0.00226002675734,0.0227949006318
8100000000.0,0.00228153018599,0.0230809377609,0.997623051131,-0.0359095649071,0.997623051131,-0.0359095649071,0.00228153018599,0.0230809377609
8200000000.0,0.00230329288448,0.0233670200753,0.997599082683,-0.0363547942635,0.997599082683,-0.0363547942635,0.00230329288448,0.0233670200753
8300000000.0,0.00232531512685,0.0236531483316,0.997574829076,-0.03680008784,0.997574829076,-0.03680008784,0.00232531512685,0.0236531483316
8400000000.0,0.00234759718643,0.0239393232904,0.99755029003,-0.0372454462765,0.99755029003,-0.0372454462765,0.00234759718643,0.0239393232904
8500000000.0,0.00237013933602,0.0242255457167,0.997525465264,-0.0376908702136,0.997525465264,-0.0376908702136,0.00237013933602,0.0242255457167
8600000000.0,0.0023929418481,0.0245118163797,0.997500354501,-0.0381363602926,0.997500354501,-0.0381363602926,0.0023929418481,0.0245118163797
8700000000.0,0.00241600499492,0.0247981360529,0.99747495746,-0.0385819171554,0.99747495746,-0.0385819171554,0.00241600499492,0.0247981360529
8800000000.0,0.00243932904868,0.0250845055139,0.997449273862,-0.0390275414445,0.997449273862,-0.0390275414445,0.00243932904868,0.0250845055139
8900000000.0,0.00246291428171,0.0253709255445,0.997423303429,-0.039473233803,0.997423303429,-0.039473233803,0.00246291428171,0.0253709255445
9000000000.0,0.00248676096651,0.0256573969305,0.997397045881,-0.0399189948748,0.997397045881,-0.0399189948748,0.00248676096651,0.0256573969305
9100000000.0,0.00251086937598,0.025943920462,0.99737050094,-0.0403648253043,0.99737050094,-0.0403648253043,0.00251086937598,0.025943920462
9200000000.0,0.00253523978349,0.026230496933,0.997343668325,-0.0408107257367,0.997343668325,-0.0408107257367,0.00253523978349,0.026230496933
9300000000.0,0.00255987246297,0.0265171271418,0.997316547757,-0.0412566968179,0.997316547757,-0.0412566968179,0.00255987246297,0.0265171271418
9400000000.0,0.00258476768911,0.0268038118905,0.997289138955,-0.0417027391943,0.997289138955,-0.0417027391943,0.00258476768911,0.0268038118905
9500000000.0,0.00260992573737,0.0270905519854,0.997261441639,-0.0421488535133,0.997261441639,-0.0421488535133,0.00260992573737,0.0270905519854
9600000000.0,0.00263534688413,0.0273773482366,0.997233455525,-0.0425950404228,0.997233455525,-0.0425950404228,0.00263534688413,0.0273773482366
9700000000.0,0.00266103140679,0.0276642014584,0.997205180332,-0.0430413005715,0.997205180332,-0.0430413005715,0.00266103140679,0.0276642014584
9800000000.0,0.00268697958385,0.0279511124689,0.997176615775,-0.0434876346087,0.997176615775,-0.0434876346087,0.00268697958385,0.0279511124689
9900000000.0,0.00271319169499,0.0282380820902,0.99714776157,-0.0439340431847,0.99714776157,-0.0439340431847,0.00271319169499,0.0282380820902
10000000000.0,0.0027396680212,0.0285251111483,0.99711861743,-0.0443805269503,0.99711861743,-0.0443805269503,0.0027396680212,0.0285251111483
