freq (GHz),S11_real,S11_imag,S21_real,S21_imag,S12_real,S12_imag,S22_real,S22_imag
100000000.0,-0.000633640260993,-0.0257721589545,0.999227684505,-0.0262354633332,0.999227684505,-0.0262354633332,-0.000633640260993,-0.0257721589545
200000000.0,-0.00268319155785,-0.0514364406107,0.997176866296,-0.0523631177404,0.997176866296,-0.0523631177404,-0.00268319155785,-0.0514364406107
300000000.0,-0.00606388260855,-0.0768891693565,0.993794931708,-0.0782793259151,0.993794931708,-0.0782793259151,-0.00606388260855,-0.0768891693565
400000000.0,-0.0107486087063,-0.102029504731,0.989108865951,-0.103883277798,0.989108865951,-0.103883277798,-0.0107486087063,-0.102029504731
500000000.0,-0.0167003717465,-0.126760721338,0.983155621143,-0.129078274402,0.983155621143,-0.129078274402,-0.0167003717465,-0.126760721338
600000000.0,-0.023872973028,-0.150991382119,0.975981372466,-0.153772902416,0.975981372466,-0.153772902416,-0.023872973028,-0.150991382119
700000000.0,-0.032211882264,-0.174636372408,0.967640636214,-0.177882068956,0.967640636214,-0.177882068956,-0.032211882264,-0.174636372408
800000000.0,-0.0416552378055,-0.197617771687,0.958195264857,-0.201327873719,0.958195264857,-0.201327873719,-0.0416552378055,-0.197617771687
900000000.0,-0.0521349421395,-0.219865547411,0.947713349448,-0.224040303087,0.947713349448,-0.224040303087,-0.0521349421395,-0.219865547411
1000000000.0,-0.0635778174156,-0.241318062725,0.936268063039,-0.245957738026,0.936268063039,-0.245957738026,-0.0635778174156,-0.241318062725
1100000000.0,-0.0759067865938,-0.261922396948,0.923936478948,-0.267027274722,0.923936478948,-0.267027274722,-0.0759067865938,-0.261922396948
1200000000.0,-0.0890420477899,-0.281634484304,0.910798396061,-0.287204863416,0.910798396061,-0.287204863416,-0.0890420477899,-0.281634484304
1300000000.0,-0.102902212516,-0.300419082021,0.89693520038,-0.306455276593,0.89693520038,-0.306455276593,-0.102902212516,-0.300419082021
1400000000.0,-0.117405382533,-0.318249583578,0.882428788022,-0.324751922305,0.882428788022,-0.324751922305,-0.117405382533,-0.318249583578
1500000000.0,-0.132470144676,-0.335107696301,0.867360570299,-0.342076521821,0.867360570299,-0.342076521821,-0.132470144676,-0.335107696301
1600000000.0,-0.148016467916,-0.350983004762,0.851810576588,-0.358418673078,0.851810576588,-0.358418673078,-0.148016467916,-0.350983004762
1700000000.0,-0.163966491885,-0.365872442497,0.835856665759,-0.373775322449,0.835856665759,-0.373775322449,-0.163966491885,-0.365872442497
1800000000.0,-0.180245200777,-0.379779694631,0.819573852237,-0.388150167399,0.819573852237,-0.388150167399,-0.180245200777,-0.379779694631
1900000000.0,-0.196780980787,-0.392714553118,0.803033748536,-0.401553011765,0.803033748536,-0.401553011765,-0.196780980787,-0.392714553118
2000000000.0,-0.213506063007,-0.404692244783,0.786304122344,-0.413999093824,0.786304122344,-0.413999093824,-0.213506063007,-0.404692244783
2100000000.0,-0.2303568567,-0.415732750262,0.769448563236,-0.425508405265,0.769448563236,-0.425508405265,-0.2303568567,-0.415732750262
2200000000.0,-0.247274180304,-0.425860129571,0.752526251652,-0.436105016778,0.752526251652,-0.436105016778,-0.247274180304,-0.425860129571
2300000000.0,-0.264203399235,-0.435101867444,0.73559182109,-0.445816423417,0.73559182109,-0.445816423417,-0.264203399235,-0.435101867444
2400000000.0,-0.281094480682,-0.443488249022,0.718695303303,-0.454672920312,0.718695303303,-0.454672920312,-0.281094480682,-0.443488249022
2500000000.0,-0.297901976159,-0.451051773974,0.701882145737,-0.462707016807,0.701882145737,-0.462707016807,-0.297901976159,-0.451051773974
2600000000.0,-0.314584942693,-0.457826614815,0.685193290343,-0.469952894795,0.685193290343,-0.469952894795,-0.314584942693,-0.457826614815
2700000000.0,-0.331106813281,-0.463848123118,0.668665303114,-0.47644591495,0.668665303114,-0.47644591495,-0.331106813281,-0.463848123118
2800000000.0,-0.347435226675,-0.4691523855,0.652330544294,-0.482222172723,0.652330544294,-0.482222172723,-0.347435226675,-0.4691523855
2900000000.0,-0.363541825826,-0.473775829746,0.636217369936,-0.487318104491,0.636217369936,-0.487318104491,-0.363541825826,-0.473775829746
3000000000.0,-0.379402033408,-0.477754880209,0.620350356374,-0.491770142955,0.620350356374,-0.491770142955,-0.379402033408,-0.477754880209
3100000000.0,-0.394994811876,-0.481125660609,0.604750540164,-0.495614419969,0.604750540164,-0.495614419969,-0.394994811876,-0.481125660609
3200000000.0,-0.410302414547,-0.483923741683,0.589435666996,-0.498886514191,0.589435666996,-0.498886514191,-0.410302414547,-0.483923741683
3300000000.0,-0.425310133194,-0.486183930591,0.574420444108,-0.501621240505,0.574420444108,-0.501621240505,-0.425310133194,-0.486183930591
3400000000.0,-0.440006046723,-0.487940098665,0.559716791601,-0.503852477778,0.559716791601,-0.503852477778,-0.440006046723,-0.487940098665
3500000000.0,-0.454380774661,-0.489225043926,0.54533408895,-0.505613031392,0.54533408895,-0.505613031392,-0.454380774661,-0.489225043926
3600000000.0,-0.468427238378,-0.49007038476,0.531279413786,-0.506934526925,0.531279413786,-0.506934526925,-0.468427238378,-0.49007038476
3700000000.0,-0.48214043228,-0.490506481183,0.517557770699,-0.507847331431,0.517557770699,-0.507847331431,-0.48214043228,-0.490506481183
3800000000.0,-0.495517206615,-0.490562380282,0.504172308431,-0.508380498885,0.504172308431,-0.508380498885,-0.495517206615,-0.490562380282
3900000000.0,-0.508556062995,-0.490265782587,0.491124524354,-0.508561736565,0.491124524354,-0.508561736565,-0.508556062995,-0.490265782587
4000000000.0,-0.521256963315,-0.489643026365,0.478414455552,-0.508417389357,0.478414455552,-0.508417389357,-0.521256963315,-0.489643026365
4100000000.0,-0.533621152369,-0.488719087076,0.466040856203,-0.507972439217,0.466040856203,-0.507972439217,-0.533621152369,-0.488719087076
4200000000.0,-0.545650994196,-0.487517589482,0.454001361233,-0.507250517283,0.454001361233,-0.507250517283,-0.545650994196,-0.487517589482
4300000000.0,-0.557349821924,-0.486060830145,0.442292636471,-0.506273926391,0.442292636471,-0.506273926391,-0.557349821924,-0.486060830145
4400000000.0,-0.568721800723,-0.484369808335,0.430910515698,-0.505063671979,0.430910515698,-0.505063671979,-0.568721800723,-0.484369808335
4500000000.0,-0.579771803337,-0.482464263571,0.419850125113,-0.503639499641,0.419850125113,-0.503639499641,-0.579771803337,-0.482464263571
4600000000.0,-0.590505297557,-0.480362718271,0.409105995858,-0.50201993778,0.409105995858,-0.50201993778,-0.590505297557,-0.480362718271
4700000000.0,-0.600928244961,-0.478082524179,0.398672165281,-0.500222344045,0.398672165281,-0.500222344045,-0.600928244961,-0.478082524179
4800000000.0,-0.611047010171,-0.475639911432,0.38854226768,-0.498262954399,0.38854226768,-0.498262954399,-0.611047010171,-0.475639911432
4900000000.0,-0.620868279893,-0.473050039313,0.378709615253,-0.496156933883,0.378709615253,-0.496156933883,-0.620868279893,-0.473050039313
5000000000.0,-0.630398991001,-0.470327047872,0.36916727003,-0.493918428236,0.36916727003,-0.493918428236,-0.630398991001,-0.470327047872
5100000000.0,-0.639646266911,-0.467484109747,0.359908107484,-0.491560615726,0.359908107484,-0.491560615726,-0.639646266911,-0.467484109747
5200000000.0,-0.648617361562,-0.46453348163,0.350924872557,-0.48909575862,0.350924872557,-0.48909575862,-0.648617361562,-0.46453348163
5300000000.0,-0.657319610306,-0.461486554941,0.34221022877,-0.486535253862,0.34221022877,-0.486535253862,-0.657319610306,-0.461486554941
5400000000.0,-0.665760387076,-0.458353905341,0.333756801052,-0.483889682593,0.333756801052,-0.483889682593,-0.665760387076,-0.458353905341
5500000000.0,-0.673947067222,-0.455145340827,0.325557212906,-0.481168858244,0.325557212906,-0.481168858244,-0.673947067222,-0.455145340827
5600000000.0,-0.681886995451,-0.451869948172,0.317604118466,-0.478381872987,0.317604118466,-0.478381872987,-0.681886995451,-0.451869948172
5700000000.0,-0.689587458353,-0.448536137589,0.309890229976,-0.475537142402,0.309890229976,-0.475537142402,-0.689587458353,-0.448536137589
5800000000.0,-0.69705566102,-0.445151685491,0.302408341166,-0.472642448238,0.302408341166,-0.472642448238,-0.69705566102,-0.445151685491
5900000000.0,-0.704298707325,-0.441723775293,0.295151346974,-0.469704979218,0.295151346974,-0.469704979218,-0.704298707325,-0.441723775293
6000000000.0,-0.711323583447,-0.438259036218,0.288112260023,-0.466731369857,0.288112260023,-0.466731369857,-0.711323583447,-0.438259036218
6100000000.0,-0.718137144275,-0.434763580113,0.281284224214,-0.463727737268,0.281284224214,-0.463727737268,-0.718137144275,-0.434763580113
6200000000.0,-0.724746102363,-0.431243036278,0.274660525773,-0.460699716007,0.274660525773,-0.460699716007,-0.724746102363,-0.431243036278
6300000000.0,-0.731157019114,-0.427702584353,0.268234602065,-0.457652490954,0.268234602065,-0.457652490954,-0.731157019114,-0.427702584353
6400000000.0,-0.737376297944,-0.424146985302,0.262000048431,-0.454590828309,0.262000048431,-0.454590828309,-0.737376297944,-0.424146985302
6500000000.0,-0.743410179156,-0.420580610569,0.255950623315,-0.451519104741,0.255950623315,-0.451519104741,-0.743410179156,-0.420580610569
6600000000.0,-0.74926473632,-0.417007469449,0.250080251881,-0.448441334768,0.250080251881,-0.448441334768,-0.74926473632,-0.417007469449
6700000000.0,-0.754945873951,-0.41343123476,0.244383028335,-0.445361196434,0.244383028335,-0.445361196434,-0.754945873951,-0.41343123476
6800000000.0,-0.760459326318,-0.409855266893,0.23885321712,-0.442282055353,0.23885321712,-0.442282055353,-0.760459326318,-0.409855266893
6900000000.0,-0.765810657217,-0.40628263631,0.233485253138,-0.439206987218,0.233485253138,-0.439206987218,-0.765810657217,-0.40628263631
7000000000.0,-0.77100526057,-0.402716144568,0.228273741153,-0.436138798823,0.228273741153,-0.436138798823,-0.77100526057,-0.402716144568
7100000000.0,-0.77604836174,-0.399158343953,0.223213454477,-0.4330800477,0.223213454477,-0.4330800477,-0.77604836174,-0.399158343953
7200000000.0,-0.780945019426,-0.395611555794,0.218299333072,-0.430033060438,0.218299333072,-0.430033060438,-0.780945019426,-0.395611555794
7300000000.0,-0.78570012807,-0.39207788754,0.213526481143,-0.426999949758,0.213526481143,-0.426999949758,-0.78570012807,-0.39207788754
7400000000.0,-0.790318420669,-0.388559248665,0.20889016433,-0.423982630422,0.20889016433,-0.423982630422,-0.790318420669,-0.388559248665
7500000000.0,-0.79480447193,-0.385057365473,0.204385806548,-0.420982834041,0.204385806548,-0.420982834041,-0.79480447193,-0.385057365473
7600000000.0,-0.799162701696,-0.38157379488,0.200008986563,-0.418002122857,0.200008986563,-0.418002122857,-0.799162701696,-0.38157379488
7700000000.0,-0.803397378587,-0.378109937223,0.19575543435,-0.415041902556,0.19575543435,-0.415041902556,-0.803397378587,-0.378109937223
7800000000.0,-0.807512623812,-0.374667048173,0.191621027283,-0.412103434181,0.191621027283,-0.412103434181,-0.807512623812,-0.374667048173
7900000000.0,-0.811512415095,-0.371246249796,0.187601786205,-0.409187845195,0.187601786205,-0.409187845195,-0.811512415095,-0.371246249796
8000000000.0,-0.815400590692,-0.367848540833,0.183693871413,-0.406296139765,0.183693871413,-0.406296139765,-0.815400590692,-0.367848540833
8100000000.0,-0.819180853463,-0.364474806238,0.179893578588,-0.403429208297,0.179893578588,-0.403429208297,-0.819180853463,-0.364474806238
8200000000.0,-0.822856774958,-0.361125826036,0.176197334704,-0.4005878363,0.176197334704,-0.4005878363,-0.822856774958,-0.361125826036
8300000000.0,-0.826431799516,-0.357802283532,0.172601693932,-0.397772712596,0.172601693932,-0.397772712596,-0.826431799516,-0.357802283532
8400000000.0,-0.829909248339,-0.354504772938,0.169103333567,-0.394984436945,0.169103333567,-0.394984436945,-0.829909248339,-0.354504772938
8500000000.0,-0.833292323526,-0.351233806433,0.165699049987,-0.392223527111,0.165699049987,-0.392223527111,-0.833292323526,-0.351233806433
8600000000.0,-0.836584112065,-0.347989820718,0.162385754672,-0.389490425412,0.162385754672,-0.389490425412,-0.836584112065,-0.347989820718
8700000000.0,-0.839787589754,-0.344773183082,0.159160470272,-0.386785504794,0.159160470272,-0.386785504794,-0.839787589754,-0.344773183082
8800000000.0,-0.842905625056,-0.341584197029,0.156020326757,-0.38410907446,0.156020326757,-0.38410907446,-0.842905625056,-0.341584197029
8900000000.0,-0.845940982866,-0.338423107493,0.152962557649,-0.381461385076,0.152962557649,-0.381461385076,-0.845940982866,-0.338423107493
9000000000.0,-0.848896328203,-0.33529010566,0.149984496333,-0.378842633606,0.149984496333,-0.378842633606,-0.848896328203,-0.33529010566
9100000000.0,-0.851774229795,-0.332185333441,0.147083572464,-0.376252967779,0.147083572464,-0.376252967779,-0.851774229795,-0.332185333441
9200000000.0,-0.85457716358,-0.329108887611,0.14425730847,-0.373692490232,0.14425730847,-0.373692490232,-0.85457716358,-0.329108887611
9300000000.0,-0.857307516107,-0.326060823637,0.141503316157,-0.37116126234,0.141503316157,-0.37116126234,-0.857307516107,-0.326060823637
9400000000.0,-0.859967587833,-0.323041159227,0.138819293401,-0.368659307762,0.138819293401,-0.368659307762,-0.859967587833,-0.323041159227
9500000000.0,-0.86255959632,-0.320049877612,0.136203020956,-0.366186615727,0.136203020956,-0.366186615727,-0.86255959632,-0.320049877612
9600000000.0,-0.865085679337,-0.317086930576,0.133652359354,-0.363743144065,0.133652359354,-0.363743144065,-0.865085679337,-0.317086930576
9700000000.0,-0.867547897848,-0.314152241269,0.131165245909,-0.36132882202,0.131165245909,-0.36132882202,-0.867547897848,-0.314152241269
9800000000.0,-0.869948238917,-0.311245706801,0.128739691824,-0.358943552846,0.128739691824,-0.358943552846,-0.869948238917,-0.311245706801
9900000000.0,-0.872288618498,-0.308367200642,0.126373779388,-0.356587216207,0.126373779388,-0.356587216207,-0.872288618498,-0.308367200642
10000000000.0,-0.874570884135,-0.305516574842,0.124065659284,-0.354259670397,0.124065659284,-0.354259670397,-0.874570884135,-0.305516574842
