freq (GHz),S11_real,S11_imag,S21_real,S21_imag,S12_real,S12_imag,S22_real,S22_imag
100000000.0,-0.000140250614222,-0.0123608888978,0.999801344337,-0.0126641184513,0.999801344337,-0.0126641184513,-0.000140250614221,-0.0123608888978
200000000.0,-0.000621799144552,-0.0247093537802,0.999319260252,-0.0253158753728,0.999319260252,-0.0253158753728,-0.000621799144553,-0.0247093537802
300000000.0,-0.0014152985671,-0.0370336757743,0.998525233841,-0.0379435841798,0.998525233841,-0.0379435841798,-0.0014152985671,-0.0370336757743
400000000.0,-0.00251922622316,-0.0493222221825,0.997420737414,-0.0505356367643,0.997420737414,-0.0505356367643,-0.00251922622316,-0.0493222221825
500000000.0,-0.00393150139822,-0.0615634766563,0.996007832294,-0.0630805373598,0.996007832294,-0.0630805373598,-0.00393150139822,-0.0615634766563
600000000.0,-0.00564948439844,-0.0737460723802,0.994289148237,-0.075566937022,0.994289148237,-0.075566937022,-0.00564948439844,-0.0737460723802
700000000.0,-0.00766998611626,-0.0858588252661,0.992267868427,-0.0879836674905,0.992267868427,-0.0879836674905,-0.00766998611626,-0.0858588252661
800000000.0,-0.00998928173166,-0.0978907663814,0.989947713784,-0.100319774022,0.989947713784,-0.100319774022,-0.00998928173166,-0.0978907663814
900000000.0,-0.0126031272592,-0.109831173209,0.987332925539,-0.11256454692,0.987332925539,-0.11256454692,-0.0126031272592,-0.109831173209
1000000000.0,-0.0155067784738,-0.121669599471,0.984428245863,-0.124707551555,0.984428245863,-0.124707551555,-0.0155067784738,-0.121669599471
1100000000.0,-0.0186950119428,-0.133395903305,0.981238896588,-0.136738656688,0.981238896588,-0.136738656688,-0.0186950119428,-0.133395903305
1200000000.0,-0.0221621479448,-0.145000273619,0.977770556143,-0.148648060936,0.977770556143,-0.148648060936,-0.0221621479448,-0.145000273619
1300000000.0,-0.0259020750698,-0.156473254478,0.974029334861,-0.16042631726,0.974029334861,-0.16042631726,-0.0259020750698,-0.156473254478
1400000000.0,-0.0299082762974,-0.167805767406,0.970021748842,-0.172064355337,0.970021748842,-0.172064355337,-0.0299082762974,-0.167805767406
1500000000.0,-0.0341738563441,-0.178989131505,0.965754692566,-0.183553501752,0.965754692566,-0.183553501752,-0.0341738563441,-0.178989131505
1600000000.0,-0.0386915700725,-0.190015081323,0.961235410452,-0.194885497913,0.961235410452,-0.194885497913,-0.0386915700725,-0.190015081323
1700000000.0,-0.0434538517519,-0.200875782411,0.956471467583,-0.206052515669,0.956471467583,-0.206052515669,-0.0434538517519,-0.200875782411
1800000000.0,-0.0484528449605,-0.211563844554,0.951470719785,-0.217047170576,0.951470719785,-0.217047170576,-0.0484528449605,-0.211563844554
1900000000.0,-0.0536804329215,-0.222072332651,0.946241283279,-0.227862532819,0.946241283279,-0.227862532819,-0.0536804329215,-0.222072332651
2000000000.0,-0.0591282690729,-0.232394775275,0.940791504109,-0.238492135809,0.940791504109,-0.238492135809,-0.0591282690729,-0.232394775275
2100000000.0,-0.0647878076721,-0.242525170927,0.935129927524,-0.248929982467,0.935129927524,-0.248929982467,-0.0647878076721,-0.242525170927
2200000000.0,-0.0706503342494,-0.252457992043,0.929265267523,-0.259170549261,0.929265267523,-0.259170549261,-0.0706503342494,-0.252457992043
2300000000.0,-0.0767069957308,-0.262188186811,0.923206376729,-0.26920878805,0.923206376729,-0.26920878805,-0.0767069957308,-0.262188186811
2400000000.0,-0.0829488300625,-0.271711178888,0.916962216762,-0.279040125823,0.916962216762,-0.279040125823,-0.0829488300625,-0.271711178888
2500000000.0,-0.0893667951829,-0.281022865091,0.910541829259,-0.288660462419,0.910541829259,-0.288660462419,-0.0893667951829,-0.281022865091
2600000000.0,-0.0959517971971,-0.29011961119,0.903954307707,-0.298066166335,0.903954307707,-0.298066166335,-0.0959517971971,-0.29011961119
2700000000.0,-0.102694717627,-0.298998245891,0.897208770181,-0.307254068732,0.897208770181,-0.307254068732,-0.102694717627,-0.298998245891
2800000000.0,-0.109586439624,-0.30765605315,0.890314333141,-0.316221455766,0.890314333141,-0.316221455766,-0.109586439624,-0.30765605315
2900000000.0,-0.116617873035,-0.316090762933,0.883280086353,-0.324966059367,0.883280086353,-0.324966059367,-0.116617873035,-0.316090762933
3000000000.0,-0.123779978251,-0.32430054056,0.876115069049,-0.333486046599,0.876115069049,-0.333486046599,-0.123779978251,-0.32430054056
3100000000.0,-0.131063788753,-0.332283974768,0.868828247378,-0.341780007736,0.868828247378,-0.341780007736,-0.131063788753,-0.332283974768
3200000000.0,-0.138460432301,-0.340040064626,0.861428493212,-0.349846943191,0.861428493212,-0.349846943191,-0.138460432301,-0.340040064626
3300000000.0,-0.145961150731,-0.34756820544,0.853924564354,-0.357686249439,0.853924564354,-0.357686249439,-0.145961150731,-0.34756820544
3400000000.0,-0.153557318318,-0.354868173787,0.846325086173,-0.365297704056,0.846325086173,-0.365297704056,-0.153557318318,-0.354868173787
3500000000.0,-0.161240458692,-0.361940111803,0.838638534686,-0.372681450028,0.838638534686,-0.372681450028,-0.161240458692,-0.361940111803
3600000000.0,-0.169002260301,-0.368784510868,0.830873221096,-0.379837979439,0.830873221096,-0.379837979439,-0.169002260301,-0.368784510868
3700000000.0,-0.176834590427,-0.375402194796,0.823037277776,-0.386768116673,0.823037277776,-0.386768116673,-0.176834590427,-0.375402194796
3800000000.0,-0.184729507761,-0.381794302658,0.815138645691,-0.393473001253,0.815138645691,-0.393473001253,-0.184729507761,-0.381794302658
3900000000.0,-0.192679273576,-0.387962271363,0.80718506323,-0.399954070423,0.80718506323,-0.399954070423,-0.192679273576,-0.387962271363
4000000000.0,-0.200676361516,-0.39390781808,0.799184056413,-0.406213041585,0.799184056413,-0.406213041585,-0.200676361516,-0.39390781808
4100000000.0,-0.208713466042,-0.399632922627,0.791142930446,-0.412251894689,0.791142930446,-0.412251894689,-0.208713466042,-0.399632922627
4200000000.0,-0.216783509586,-0.405139809898,0.783068762565,-0.418072854678,0.783068762565,-0.418072854678,-0.216783509586,-0.405139809898
4300000000.0,-0.224879648464,-0.410430932435,0.774968396125,-0.423678374057,0.774968396125,-0.423678374057,-0.224879648464,-0.410430932435
4400000000.0,-0.232995277596,-0.415508953204,0.76684843588,-0.429071115684,0.76684843588,-0.429071115684,-0.232995277596,-0.415508953204
4500000000.0,-0.241124034092,-0.420376728664,0.758715244396,-0.434253935838,0.758715244396,-0.434253935838,-0.241124034092,-0.420376728664
4600000000.0,-0.249259799778,-0.425037292174,0.750574939526,-0.43922986764,0.750574939526,-0.43922986764,-0.249259799778,-0.425037292174
4700000000.0,-0.257396702707,-0.429493837812,0.742433392895,-0.444002104871,0.742433392895,-0.444002104871,-0.257396702707,-0.429493837812
4800000000.0,-0.265529117737,-0.433749704643,0.734296229328,-0.44857398625,0.734296229328,-0.44857398625,-0.265529117737,-0.433749704643
4900000000.0,-0.273651666225,-0.437808361481,0.72616882715,-0.452948980198,0.72616882715,-0.452948980198,-0.273651666225,-0.437808361481
5000000000.0,-0.281759214921,-0.441673392182,0.718056319299,-0.457130670136,0.718056319299,-0.457130670136,-0.281759214921,-0.441673392182
5100000000.0,-0.289846874107,-0.445348481499,0.709963595177,-0.461122740349,0.709963595177,-0.461122740349,-0.289846874107,-0.445348481499
5200000000.0,-0.297909995066,-0.448837401515,0.701895303192,-0.464928962415,0.701895303192,-0.464928962415,-0.297909995066,-0.448837401515
5300000000.0,-0.30594416692,-0.452143998683,0.693855853911,-0.468553182257,0.693855853911,-0.468553182257,-0.30594416692,-0.452143998683
5400000000.0,-0.313945212927,-0.455272181472,0.685849423767,-0.471999307789,0.685849423767,-0.471999307789,-0.313945212927,-0.455272181472
5500000000.0,-0.321909186265,-0.45822590864,0.677879959275,-0.475271297193,0.677879959275,-0.475271297193,-0.321909186265,-0.45822590864
5600000000.0,-0.329832365385,-0.461009178133,0.669951181678,-0.478373147818,0.669951181678,-0.478373147818,-0.329832365385,-0.461009178133
5700000000.0,-0.337711248977,-0.4636260166,0.662066591981,-0.481308885706,0.662066591981,-0.481308885706,-0.337711248977,-0.4636260166
5800000000.0,-0.345542550596,-0.46608046954,0.654229476325,-0.484082555734,0.654229476325,-0.484082555734,-0.345542550596,-0.46608046954
5900000000.0,-0.353323193009,-0.468376592053,0.646442911643,-0.486698212372,0.646442911643,-0.486698212372,-0.353323193009,-0.468376592053
6000000000.0,-0.361050302297,-0.470518440203,0.638709771549,-0.489159911048,0.638709771549,-0.489159911048,-0.361050302297,-0.470518440203
6100000000.0,-0.368721201766,-0.472510062966,0.631032732437,-0.491471700094,0.631032732437,-0.491471700094,-0.368721201766,-0.472510062966
6200000000.0,-0.376333405703,-0.474355494758,0.623414279723,-0.493637613287,0.623414279723,-0.493637613287,-0.376333405703,-0.474355494758
6300000000.0,-0.383884613008,-0.476058748528,0.615856714204,-0.495661662928,0.615856714204,-0.495661662928,-0.383884613008,-0.476058748528
6400000000.0,-0.391372700754,-0.477623809384,0.608362158512,-0.497547833486,0.608362158512,-0.497547833486,-0.391372700754,-0.477623809384
6500000000.0,-0.398795717686,-0.479054628753,0.600932563603,-0.499300075752,0.600932563603,-0.499300075752,-0.398795717686,-0.479054628753
6600000000.0,-0.406151877707,-0.480355119046,0.593569715278,-0.5009223015,0.593569715278,-0.5009223015,-0.406151877707,-0.480355119046
6700000000.0,-0.413439553365,-0.481529148794,0.586275240693,-0.50241837864,0.586275240693,-0.50241837864,-0.413439553365,-0.481529148794
6800000000.0,-0.420657269372,-0.482580538263,0.579050614839,-0.503792126819,0.579050614839,-0.503792126819,-0.420657269372,-0.482580538263
6900000000.0,-0.427803696176,-0.483513055503,0.571897166974,-0.505047313479,0.571897166974,-0.505047313479,-0.427803696176,-0.483513055503
7000000000.0,-0.434877643601,-0.484330412809,0.564816086979,-0.506187650319,0.564816086979,-0.506187650319,-0.434877643601,-0.484330412809
7100000000.0,-0.44187805458,-0.485036263595,0.557808431626,-0.507216790169,0.557808431626,-0.507216790169,-0.44187805458,-0.485036263595
7200000000.0,-0.448803998988,-0.485634199631,0.550875130746,-0.508138324227,0.550875130746,-0.508138324227,-0.448803998988,-0.485634199631
7300000000.0,-0.455654667599,-0.486127748643,0.544016993272,-0.508955779661,0.544016993272,-0.508955779661,-0.455654667599,-0.486127748643
7400000000.0,-0.462429366162,-0.486520372239,0.53723471316,-0.509672617538,0.53723471316,-0.509672617538,-0.462429366162,-0.486520372239
7500000000.0,-0.469127509627,-0.486815464159,0.530528875167,-0.510292231071,0.530528875167,-0.510292231071,-0.469127509627,-0.486815464159
7600000000.0,-0.47574861651,-0.487016348806,0.523899960484,-0.510817944153,0.523899960484,-0.510817944153,-0.47574861651,-0.487016348806
7700000000.0,-0.482292303419,-0.48712628006,0.517348352209,-0.511253010171,0.517348352209,-0.511253010171,-0.482292303419,-0.48712628006
7800000000.0,-0.488758279732,-0.487148440342,0.510874340672,-0.511600611072,0.510874340672,-0.511600611072,-0.488758279732,-0.487148440342
7900000000.0,-0.495146342446,-0.487085939915,0.504478128581,-0.511863856662,0.504478128581,-0.511863856662,-0.495146342446,-0.487085939915
8000000000.0,-0.501456371187,-0.486941816409,0.498159836017,-0.512045784133,0.498159836017,-0.512045784133,-0.501456371187,-0.486941816409
8100000000.0,-0.507688323398,-0.486719034538,0.491919505243,-0.512149357782,0.491919505243,-0.512149357782,-0.507688323398,-0.486719034538
8200000000.0,-0.513842229685,-0.486420486013,0.485757105359,-0.512177468921,0.485757105359,-0.512177468921,-0.513842229685,-0.486420486013
8300000000.0,-0.519918189347,-0.486048989623,0.479672536774,-0.512132935962,0.479672536774,-0.512132935962,-0.519918189347,-0.486048989623
8400000000.0,-0.525916366064,-0.48560729147,0.47366563551,-0.512018504648,0.47366563551,-0.512018504648,-0.525916366064,-0.48560729147
8500000000.0,-0.531836983765,-0.485098065348,0.467736177345,-0.511836848438,0.467736177345,-0.511836848438,-0.531836983765,-0.485098065348
8600000000.0,-0.537680322659,-0.484523913253,0.461883881775,-0.511590569012,0.461883881775,-0.511590569012,-0.537680322659,-0.484523913253
8700000000.0,-0.543446715431,-0.483887366008,0.45610841582,-0.511282196899,0.45610841582,-0.511282196899,-0.543446715431,-0.483887366008
8800000000.0,-0.5491365436,-0.483190883995,0.450409397662,-0.510914192208,0.450409397662,-0.510914192208,-0.5491365436,-0.483190883995
8900000000.0,-0.554750234045,-0.48243685798,0.444786400129,-0.510488945453,0.444786400129,-0.510488945453,-0.554750234045,-0.48243685798
9000000000.0,-0.560288255677,-0.481627610021,0.439238954011,-0.510008778465,0.439238954011,-0.510008778465,-0.560288255677,-0.481627610021
9100000000.0,-0.565751116269,-0.480765394459,0.433766551236,-0.509475945376,0.433766551236,-0.509475945376,-0.565751116269,-0.480765394459
9200000000.0,-0.571139359443,-0.479852398959,0.428368647887,-0.508892633666,0.428368647887,-0.508892633666,-0.571139359443,-0.479852398959
9300000000.0,-0.576453561785,-0.478890745625,0.423044667075,-0.508260965277,0.423044667075,-0.508260965277,-0.576453561785,-0.478890745625
9400000000.0,-0.581694330118,-0.477882492155,0.41779400168,-0.507582997764,0.41779400168,-0.507582997764,-0.581694330118,-0.477882492155
9500000000.0,-0.586862298903,-0.476829633038,0.412616016939,-0.506860725497,0.412616016939,-0.506860725497,-0.586862298903,-0.476829633038
9600000000.0,-0.591958127775,-0.47573410079,0.407510052915,-0.506096080895,0.407510052915,-0.506096080895,-0.591958127775,-0.47573410079
9700000000.0,-0.596982499207,-0.474597767216,0.402475426834,-0.505290935689,0.402475426834,-0.505290935689,-0.596982499207,-0.474597767216
9800000000.0,-0.601936116297,-0.473422444701,0.397511435295,-0.504447102211,0.397511435295,-0.504447102211,-0.601936116297,-0.473422444701
9900000000.0,-0.606819700673,-0.472209887513,0.392617356365,-0.503566334697,0.392617356365,-0.503566334697,-0.606819700673,-0.472209887513
10000000000.0,-0.611633990517,-0.470961793122,0.387792451557,-0.502650330607,0.387792451557,-0.502650330607,-0.611633990517,-0.470961793122
