freq (GHz),S11_real,S11_imag,S21_real,S21_imag,S12_real,S12_imag,S22_real,S22_imag
100000000.0,-4.02853595731e-05,-0.006507313096,0.999941305069,-0.00653154620016,0.999941305069,-0.00653154620016,-4.02853595731e-05,-0.006507313096
200000000.0,-0.000174194867099,-0.0130126938211,0.99980726903,-0.013061161114,0.99980726903,-0.013061161114,-0.000174194867099,-0.0130126938211
300000000.0,-0.000393026651105,-0.0195144300715,0.999588341833,-0.0195871332041,0.999588341833,-0.0195871332041,-0.000393026651105,-0.0195144300715
400000000.0,-0.000696651620301,-0.0260108249757,0.999284636744,-0.0261077660369,0.999284636744,-0.0261077660369,-0.000696651620301,-0.0260108249757
500000000.0,-0.00108490085211,-0.0325001924358,0.998896316621,-0.0326213738883,0.998896316621,-0.0326213738883,-0.00108490085211,-0.0325001924358
600000000.0,-0.00155756265638,-0.0389808565485,0.998423590078,-0.0391262811865,0.998423590078,-0.0391262811865,-0.00155756265638,-0.0389808565485
700000000.0,-0.00211438214712,-0.0454511519833,0.997866710193,-0.0456208229023,0.997866710193,-0.0456208229023,-0.00211438214712,-0.0454511519833
800000000.0,-0.0027550613855,-0.0519094247795,0.997225973741,-0.0521033453519,0.997225973741,-0.0521033453519,-0.0027550613855,-0.0519094247795
900000000.0,-0.00347925972656,-0.0583540333434,0.996501720565,-0.0585722071988,0.996501720565,-0.0585722071988,-0.00347925972656,-0.0583540333434
1000000000.0,-0.00428659427279,-0.0647833495258,0.995694332988,-0.0650257805346,0.995694332988,-0.0650257805346,-0.00428659427279,-0.0647833495258
1100000000.0,-0.00517664039961,-0.0711957597717,0.994804235204,-0.0714624520308,0.994804235204,-0.0714624520308,-0.00517664039961,-0.0711957597717
1200000000.0,-0.00614893233869,-0.0775896662763,0.993831892652,-0.0778806240965,0.993831892652,-0.0778806240965,-0.0061489323387,-0.0775896662763
1300000000.0,-0.00720296381371,-0.0839634881551,0.992777811348,-0.0842787160499,0.992777811348,-0.0842787160499,-0.00720296381371,-0.0839634881551
1400000000.0,-0.00833818872356,-0.0903156626116,0.991642537187,-0.0906551652871,0.991642537187,-0.0906551652871,-0.00833818872356,-0.0903156626116
1500000000.0,-0.00955402187,-0.0966446460795,0.990426655196,-0.0970084284251,0.990426655196,-0.0970084284251,-0.00955402187,-0.0966446460795
1600000000.0,-0.0108498397294,-0.102948915355,0.989130788761,-0.103336982435,0.989130788761,-0.103336982435,-0.0108498397294,-0.102948915355
1700000000.0,-0.0122249812655,-0.109226968704,0.987755598801,-0.10963932575,0.987755598801,-0.10963932575,-0.0122249812655,-0.109226968704
1800000000.0,-0.013678748781,-0.115477326932,0.986301782915,-0.115913979335,0.986301782915,-0.115913979335,-0.013678748781,-0.115477326932
1900000000.0,-0.0152104088069,-0.121698534428,0.984770074489,-0.122159487732,0.984770074489,-0.122159487732,-0.0152104088069,-0.121698534428
2000000000.0,-0.0168191930279,-0.127889160174,0.983161241765,-0.128374420069,0.983161241765,-0.128374420069,-0.0168191930279,-0.127889160174
2100000000.0,-0.0185042992403,-0.134047798712,0.981476086886,-0.13455737103,0.981476086886,-0.13455737103,-0.0185042992403,-0.134047798712
2200000000.0,-0.0202648923435,-0.14017307108,0.979715444897,-0.140706961787,0.979715444897,-0.140706961787,-0.0202648923435,-0.14017307108
2300000000.0,-0.0221001053585,-0.1462636257,0.977880182731,-0.14682184089,0.977880182731,-0.14682184089,-0.0221001053585,-0.1462636257
2400000000.0,-0.0240090404765,-0.152318139225,0.975971198155,-0.152900685116,0.975971198155,-0.152900685116,-0.0240090404765,-0.152318139225
2500000000.0,-0.0259907701309,-0.158335317344,0.973989418699,-0.158942200275,0.973989418699,-0.158942200275,-0.0259907701309,-0.158335317344
2600000000.0,-0.0280443380936,-0.164313895544,0.971935800557,-0.164945121967,0.971935800557,-0.164945121967,-0.0280443380936,-0.164313895544
2700000000.0,-0.0301687605918,-0.170252639823,0.969811327474,-0.170908216301,0.969811327474,-0.170908216301,-0.0301687605918,-0.170252639823
2800000000.0,-0.0323630274432,-0.176150347357,0.967617009606,-0.176830280556,0.967617009606,-0.176830280556,-0.0323630274432,-0.176150347357
2900000000.0,-0.0346261032093,-0.182005847121,0.965353882369,-0.18271014381,0.965353882369,-0.18271014381,-0.0346261032093,-0.182005847121
3000000000.0,-0.0369569283605,-0.187818000464,0.963023005269,-0.188546667508,0.963023005269,-0.188546667508,-0.0369569283605,-0.187818000464
3100000000.0,-0.0393544204559,-0.193585701634,0.96062546073,-0.194338745994,0.96062546073,-0.194338745994,-0.0393544204559,-0.193585701634
3200000000.0,-0.041817475331,-0.199307878259,0.958162352899,-0.200085306982,0.958162352899,-0.200085306982,-0.041817475331,-0.199307878259
3300000000.0,-0.0443449682941,-0.204983491772,0.955634806452,-0.205785311992,0.955634806452,-0.205785311992,-0.0443449682941,-0.204983491772
3400000000.0,-0.0469357553279,-0.210611537798,0.953043965391,-0.211437756732,0.953043965391,-0.211437756732,-0.0469357553279,-0.210611537798
3500000000.0,-0.0495886742942,-0.216191046486,0.950390991843,-0.21704167143,0.950390991843,-0.21704167143,-0.0495886742942,-0.216191046486
3600000000.0,-0.0523025461415,-0.221721082803,0.947677064846,-0.222596121128,0.947677064846,-0.222596121128,-0.0523025461415,-0.221721082803
3700000000.0,-0.0550761761089,-0.227200746766,0.944903379151,-0.228100205916,0.944903379151,-0.228100205916,-0.0550761761089,-0.227200746766
3800000000.0,-0.0579083549297,-0.232629173644,0.942071144014,-0.233553061132,0.942071144014,-0.233553061132,-0.0579083549297,-0.232629173644
3900000000.0,-0.0607978600298,-0.238005534104,0.939181582001,-0.238953857509,0.939181582001,-0.238953857509,-0.0607978600298,-0.238005534104
4000000000.0,-0.0637434567184,-0.243329034313,0.936235927793,-0.244301801278,0.936235927793,-0.244301801278,-0.0637434567184,-0.243329034313
4100000000.0,-0.0667438993718,-0.248598916002,0.933235427007,-0.249596134231,0.933235427007,-0.249596134231,-0.0667438993718,-0.248598916002
4200000000.0,-0.0697979326056,-0.253814456482,0.930181335019,-0.254836133736,0.930181335019,-0.254836133736,-0.0697979326056,-0.253814456482
4300000000.0,-0.0729042924357,-0.258974968613,0.927074915808,-0.260021112709,0.927074915808,-0.260021112709,-0.0729042924357,-0.258974968613
4400000000.0,-0.0760617074256,-0.264079800742,0.923917440804,-0.265150419549,0.923917440804,-0.265150419549,-0.0760617074256,-0.264079800742
4500000000.0,-0.0792688998185,-0.269128336595,0.920710187757,-0.270223438032,0.920710187757,-0.270223438032,-0.0792688998185,-0.269128336595
4600000000.0,-0.0825245866532,-0.274119995126,0.917454439624,-0.27523958716,0.917454439624,-0.27523958716,-0.0825245866532,-0.274119995126
4700000000.0,-0.0858274808612,-0.279054230337,0.914151483469,-0.280198320981,0.914151483469,-0.280198320981,-0.0858274808612,-0.279054230337
4800000000.0,-0.0891762923445,-0.283930531056,0.910802609383,-0.285099128364,0.910802609383,-0.285099128364,-0.0891762923445,-0.283930531056
4900000000.0,-0.0925697290348,-0.288748420677,0.907409109433,-0.289941532746,0.907409109433,-0.289941532746,-0.0925697290348,-0.288748420677
5000000000.0,-0.0960064979276,-0.293507456873,0.903972276618,-0.294725091837,0.903972276618,-0.294725091837,-0.0960064979276,-0.293507456873
5100000000.0,-0.0994853060957,-0.298207231271,0.900493403862,-0.299449397301,0.900493403862,-0.299449397301,-0.0994853060957,-0.298207231271
5200000000.0,-0.10300486168,-0.302847369098,0.89697378302,-0.304114074398,0.89697378302,-0.304114074398,-0.10300486168,-0.302847369098
5300000000.0,-0.10656387485,-0.307427528793,0.89341470392,-0.3087187816,0.89341470392,-0.3087187816,-0.10656387485,-0.307427528793
5400000000.0,-0.110161058747,-0.311947401599,0.889817453417,-0.313263210181,0.889817453417,-0.313263210181,-0.110161058747,-0.311947401599
5500000000.0,-0.113795130394,-0.31640671112,0.886183314486,-0.317747083774,0.886183314486,-0.317747083774,-0.113795130394,-0.31640671112
5600000000.0,-0.117464811581,-0.320805212857,0.882513565333,-0.322170157903,0.882513565333,-0.322170157903,-0.117464811581,-0.320805212857
5700000000.0,-0.121168829725,-0.325142693716,0.878809478541,-0.326532219502,0.878809478541,-0.326532219502,-0.121168829725,-0.325142693716
5800000000.0,-0.124905918696,-0.329418971496,0.875072320235,-0.330833086392,0.875072320235,-0.330833086392,-0.124905918696,-0.329418971496
5900000000.0,-0.12867481962,-0.333633894361,0.871303349288,-0.335072606758,0.871303349288,-0.335072606758,-0.12867481962,-0.333633894361
6000000000.0,-0.132474281652,-0.33778734028,0.867503816544,-0.339250658588,0.867503816544,-0.339250658588,-0.132474281652,-0.33778734028
6100000000.0,-0.136303062716,-0.341879216458,0.863674964075,-0.343367149105,0.863674964075,-0.343367149105,-0.136303062716,-0.341879216458
6200000000.0,-0.140159930219,-0.345909458751,0.859818024473,-0.347422014182,0.859818024473,-0.347422014182,-0.140159930219,-0.345909458751
6300000000.0,-0.144043661737,-0.34987803106,0.855934220162,-0.351415217734,0.855934220162,-0.351415217734,-0.144043661737,-0.34987803106
6400000000.0,-0.147953045664,-0.353784924714,0.852024762744,-0.355346751103,0.852024762744,-0.355346751103,-0.147953045664,-0.353784924714
6500000000.0,-0.151886881839,-0.35763015784,0.848090852379,-0.359216632427,0.848090852379,-0.359216632427,-0.151886881839,-0.35763015784
6600000000.0,-0.155843982139,-0.361413774723,0.844133677189,-0.363024906004,0.844133677189,-0.363024906004,-0.155843982139,-0.361413774723
6700000000.0,-0.159823171045,-0.365135845156,0.840154412693,-0.366771641633,0.840154412693,-0.366771641633,-0.159823171045,-0.365135845156
6800000000.0,-0.163823286173,-0.368796463777,0.836154221271,-0.370456933962,0.836154221271,-0.370456933962,-0.163823286173,-0.368796463777
6900000000.0,-0.167843178783,-0.372395749405,0.832134251664,-0.374080901815,0.832134251664,-0.374080901815,-0.167843178783,-0.372395749405
7000000000.0,-0.171881714254,-0.375933844369,0.828095638492,-0.377643687525,0.828095638492,-0.377643687525,-0.171881714254,-0.375933844369
7100000000.0,-0.175937772529,-0.379410913825,0.824039501809,-0.381145456253,0.824039501809,-0.381145456253,-0.175937772529,-0.379410913825
7200000000.0,-0.180010248538,-0.382827145079,0.819966946685,-0.384586395306,0.819966946685,-0.384586395306,-0.180010248538,-0.382827145079
7300000000.0,-0.184098052587,-0.386182746899,0.815879062813,-0.387966713454,0.815879062813,-0.387966713454,-0.184098052587,-0.386182746899
7400000000.0,-0.188200110721,-0.389477948833,0.811776924148,-0.391286640247,0.811776924148,-0.391286640247,-0.188200110721,-0.389477948833
7500000000.0,-0.19231536506,-0.392713000522,0.807661588569,-0.394546425322,0.807661588569,-0.394546425322,-0.19231536506,-0.392713000522
7600000000.0,-0.196442774106,-0.395888171012,0.803534097572,-0.397746337725,0.803534097572,-0.397746337725,-0.196442774106,-0.395888171012
7700000000.0,-0.200581313031,-0.399003748073,0.799395475985,-0.400886665222,0.799395475985,-0.400886665222,-0.200581313031,-0.399003748073
7800000000.0,-0.204729973928,-0.402060037513,0.795246731713,-0.403967713617,0.795246731713,-0.403967713617,-0.204729973928,-0.402060037513
7900000000.0,-0.20888776605,-0.405057362504,0.791088855505,-0.406989806078,0.791088855505,-0.406989806078,-0.20888776605,-0.405057362504
8000000000.0,-0.21305371601,-0.407996062905,0.786922820746,-0.409953282456,0.786922820746,-0.409953282456,-0.21305371601,-0.407996062905
8100000000.0,-0.217226867971,-0.410876494593,0.782749583272,-0.412858498621,0.782749583272,-0.412858498621,-0.217226867971,-0.410876494593
8200000000.0,-0.221406283802,-0.413699028796,0.778570081214,-0.415705825794,0.778570081214,-0.415705825794,-0.221406283802,-0.413699028796
8300000000.0,-0.225591043219,-0.416464051441,0.774385234855,-0.418495649893,0.774385234855,-0.418495649893,-0.225591043219,-0.416464051441
8400000000.0,-0.229780243898,-0.419171962498,0.770195946519,-0.421228370879,0.770195946519,-0.421228370879,-0.229780243898,-0.419171962498
8500000000.0,-0.233973001574,-0.42182317534,0.76600310047,-0.423904402112,0.76600310047,-0.423904402112,-0.233973001574,-0.42182317534
8600000000.0,-0.238168450109,-0.424418116105,0.761807562847,-0.426524169722,0.761807562847,-0.426524169722,-0.238168450109,-0.424418116105
8700000000.0,-0.242365741549,-0.426957223073,0.7576101816,-0.429088111974,0.7576101816,-0.429088111974,-0.242365741549,-0.426957223073
8800000000.0,-0.246564046162,-0.429440946048,0.753411786465,-0.43159667866,0.753411786465,-0.43159667866,-0.246564046162,-0.429440946048
8900000000.0,-0.250762552448,-0.431869745748,0.749213188939,-0.434050330485,0.749213188939,-0.434050330485,-0.250762552448,-0.431869745748
9000000000.0,-0.254960467143,-0.434244093211,0.745015182287,-0.436449538472,0.745015182287,-0.436449538472,-0.254960467143,-0.434244093211
9100000000.0,-0.259157015196,-0.436564469206,0.740818541558,-0.438794783376,0.740818541558,-0.438794783376,-0.259157015196,-0.436564469206
9200000000.0,-0.26335143974,-0.43883136366,0.73662402362,-0.441086555106,0.73662402362,-0.441086555106,-0.26335143974,-0.43883136366
9300000000.0,-0.267543002035,-0.441045275088,0.732432367212,-0.443325352163,0.732432367212,-0.443325352163,-0.267543002035,-0.441045275088
9400000000.0,-0.271730981404,-0.443206710046,0.728244293011,-0.445511681085,0.728244293011,-0.445511681085,-0.271730981404,-0.443206710046
9500000000.0,-0.275914675158,-0.445316182584,0.724060503706,-0.447646055905,0.724060503706,-0.447646055905,-0.275914675158,-0.445316182584
9600000000.0,-0.280093398495,-0.447374213721,0.719881684099,-0.449728997622,0.719881684099,-0.449728997622,-0.280093398495,-0.447374213721
9700000000.0,-0.284266484398,-0.449381330923,0.715708501206,-0.451761033685,0.715708501206,-0.451761033685,-0.284266484398,-0.449381330923
9800000000.0,-0.288433283514,-0.4513380676,0.711541604379,-0.453742697484,0.711541604379,-0.453742697484,-0.288433283514,-0.4513380676
9900000000.0,-0.292593164026,-0.453244962613,0.707381625437,-0.455674527861,0.707381625437,-0.455674527861,-0.292593164026,-0.453244962613
10000000000.0,-0.296745511508,-0.455102559795,0.703229178804,-0.457557068627,0.703229178804,-0.457557068627,-0.296745511508,-0.455102559795
