freq (GHz),S11_real,S11_imag,S21_real,S21_imag,S12_real,S12_imag,S22_real,S22_imag
100000000.0,-7.67339041141e-06,-0.002267303609,0.999991855277,-0.00227013751009,0.999991855277,-0.00227013751009,-7.67339041152e-06,-0.002267303609
200000000.0,-2.5368769622e-05,-0.00453392838653,0.999974156663,-0.00453959805571,0.999974156663,-0.00453959805571,-2.5368769622e-05,-0.00453392838653
300000000.0,-5.33392691361e-05,-0.00679952117711,0.999946183732,-0.00680802938257,0.999946183732,-0.00680802938257,-5.33392691361e-05,-0.00679952117711
400000000.0,-9.15672862438e-05,-0.00906381394104,0.99990795368,-0.00907516408396,0.99990795368,-0.00907516408396,-9.15672862437e-05,-0.00906381394104
500000000.0,-0.000140032292117,-0.0113265882486,0.999859486882,-0.011340784208,0.999859486882,-0.011340784208,-0.000140032292117,-0.0113265882486
600000000.0,-0.000198711500296,-0.0135876619699,0.999800806045,-0.0136047079902,0.999800806045,-0.0136047079902,-0.000198711500296,-0.0135876619699
700000000.0,-0.000267580412097,-0.0158468817305,0.999731935622,-0.0158667823316,0.999731935622,-0.0158667823316,-0.000267580412097,-0.0158468817305
800000000.0,-0.000346613270102,-0.0181041178102,0.99965290134,-0.0181268777147,0.99965290134,-0.0181268777147,-0.000346613270102,-0.0181041178102
900000000.0,-0.000435783434265,-0.0203592603859,0.999563729819,-0.0203848844575,0.999563729819,-0.0203848844575,-0.000435783434266,-0.0203592603859
1000000000.0,-0.000535063681705,-0.022612216426,0.999464448267,-0.0226407096172,0.999464448267,-0.0226407096172,-0.000535063681705,-0.022612216426
1100000000.0,-0.000644426452264,-0.0248629070833,0.999355084234,-0.0248942743919,0.999355084234,-0.0248942743919,-0.000644426452263,-0.0248629070833
1200000000.0,-0.000763844049959,-0.0271112656283,0.999235665406,-0.02714551206,0.999235665406,-0.02714551206,-0.000763844049959,-0.0271112656283
1300000000.0,-0.000893288790233,-0.0293572353749,0.999106219461,-0.0293943659116,0.999106219461,-0.0293943659116,-0.000893288790233,-0.0293572353749
1400000000.0,-0.00103273312621,-0.0316007681813,0.998966773942,-0.0316407877552,0.998966773942,-0.0316407877552,-0.00103273312621,-0.0316007681813
1500000000.0,-0.00118214972936,-0.0338418228637,0.998817356172,-0.0338847363352,0.998817356172,-0.0338847363352,-0.00118214972936,-0.0338418228637
1600000000.0,-0.00134151155817,-0.0360803640515,0.99865799319,-0.0361261761915,0.99865799319,-0.0361261761915,-0.00134151155817,-0.0360803640515
1700000000.0,-0.00151079189399,-0.0383163610073,0.998488711711,-0.0383650764826,0.998488711711,-0.0383650764826,-0.00151079189399,-0.0383163610073
1800000000.0,-0.0016899643649,-0.0405497866885,0.998309538103,-0.0406014100503,0.998309538103,-0.0406014100503,-0.0016899643649,-0.0405497866885
1900000000.0,-0.00187900295446,-0.0427806169333,0.998120498383,-0.0428351526083,0.998120498383,-0.0428351526083,-0.00187900295446,-0.0427806169333
2000000000.0,-0.00207788199467,-0.0450088297127,0.997921618216,-0.0450662819966,0.997921618216,-0.0450662819966,-0.00207788199467,-0.0450088297127
2100000000.0,-0.00228657615565,-0.047234404557,0.997712922929,-0.0472947776093,0.997712922929,-0.0472947776093,-0.00228657615565,-0.047234404557
2200000000.0,-0.00250506042165,-0.0494573219993,0.997494437538,-0.0495206198408,0.997494437538,-0.0495206198408,-0.00250506042165,-0.0494573219993
2300000000.0,-0.00273331006456,-0.0516775631423,0.99726618677,-0.0517437896529,0.99726618677,-0.0517437896529,-0.00273331006456,-0.0516775631423
2400000000.0,-0.00297130061554,-0.0538951093092,0.997028195091,-0.0539642682279,0.997028195091,-0.0539642682279,-0.00297130061554,-0.0538951093092
2500000000.0,-0.00321900782803,-0.0561099417047,0.996780486749,-0.0561820366297,0.996780486749,-0.0561820366297,-0.00321900782803,-0.0561099417047
2600000000.0,-0.00347640764359,-0.0583220411735,0.996523085799,-0.0583970755639,0.996523085799,-0.0583970755639,-0.00347640764359,-0.0583220411735
2700000000.0,-0.00374347615625,-0.0605313880041,0.996256016149,-0.0606093651818,0.996256016149,-0.0606093651818,-0.00374347615625,-0.0605313880041
2800000000.0,-0.00402018957296,-0.0627379617376,0.995979301589,-0.0628188848897,0.995979301589,-0.0628188848897,-0.00402018957295,-0.0627379617376
2900000000.0,-0.00430652418108,-0.0649417410736,0.995692965832,-0.065025613256,0.995692965832,-0.065025613256,-0.00430652418108,-0.0649417410736
3000000000.0,-0.00460245630769,-0.0671427037307,0.995397032551,-0.067229527871,0.995397032551,-0.067229527871,-0.00460245630769,-0.0671427037307
3100000000.0,-0.00490796229056,-0.0693408264194,0.995091525407,-0.0694306053208,0.995091525407,-0.0694306053208,-0.00490796229056,-0.0693408264194
3200000000.0,-0.00522301843886,-0.0715360847466,0.994776468091,-0.0716288210917,0.994776468091,-0.0716288210917,-0.00522301843886,-0.0715360847466
3300000000.0,-0.00554760100555,-0.0737284532182,0.994451884349,-0.0738241495732,0.994451884349,-0.0738241495732,-0.00554760100555,-0.0737284532182
3400000000.0,-0.00588168615493,-0.0759179052072,0.994117798016,-0.0760165640257,0.994117798016,-0.0760165640257,-0.00588168615493,-0.0759179052072
3500000000.0,-0.00622524993462,-0.0781044129567,0.993774233045,-0.078206036584,0.993774233045,-0.078206036584,-0.00622524993462,-0.0781044129567
3600000000.0,-0.00657826824925,-0.0802879475931,0.993421213531,-0.0803925382704,0.993421213531,-0.0803925382704,-0.00657826824925,-0.0802879475931
3700000000.0,-0.00694071683379,-0.0824684791337,0.993058763738,-0.0825760390022,0.993058763738,-0.0825760390022,-0.00694071683379,-0.0824684791337
3800000000.0,-0.00731257123068,-0.084645976517,0.992686908124,-0.0847565076219,0.992686908124,-0.0847565076219,-0.00731257123068,-0.084645976517
3900000000.0,-0.0076938067694,-0.086820407642,0.992305671359,-0.0869339119364,0.992305671359,-0.0869339119364,-0.0076938067694,-0.086820407642
4000000000.0,-0.00808439854462,-0.088991739393,0.991915078349,-0.0891082187421,0.991915078349,-0.0891082187421,-0.00808439854462,-0.088991739393
4100000000.0,-0.00848432139886,-0.091159937687,0.99151515425,-0.0912793938718,0.99151515425,-0.0912793938718,-0.00848432139886,-0.091159937687
4200000000.0,-0.00889354990531,-0.0933249675136,0.991105924489,-0.0934474022345,0.991105924489,-0.0934474022345,-0.00889354990531,-0.0933249675136
4300000000.0,-0.00931205835169,-0.0954867929769,0.990687414778,-0.0956122078574,0.990687414778,-0.0956122078574,-0.00931205835169,-0.0954867929769
4400000000.0,-0.00973982072702,-0.0976453773449,0.990259651129,-0.0977737739351,0.990259651129,-0.0977737739351,-0.00973982072702,-0.0976453773449
4500000000.0,-0.010176810708,-0.0998006830919,0.989822659863,-0.0999320628719,0.989822659863,-0.0999320628719,-0.010176810708,-0.0998006830919
4600000000.0,-0.0106230016485,-0.101952671949,0.989376467628,-0.102087036332,0.989376467628,-0.102087036332,-0.0106230016485,-0.101952671949
4700000000.0,-0.0110783665681,-0.104101304949,0.988921101404,-0.104238655285,0.988921101404,-0.104238655285,-0.0110783665681,-0.104101304949
4800000000.0,-0.011542878145,-0.106246542477,0.988456588512,-0.106386880054,0.988456588512,-0.106386880054,-0.011542878145,-0.106246542477
4900000000.0,-0.0120165087039,-0.108388344301,0.987982956628,-0.10853167035,0.987982956628,-0.10853167035,-0.0120165087039,-0.108388344301
5000000000.0,-0.0124992302123,-0.110526669632,0.987500233783,-0.110672985329,0.987500233783,-0.110672985329,-0.0124992302123,-0.110526669632
5100000000.0,-0.0129910142738,-0.112661477167,0.987008448375,-0.112810783634,0.987008448375,-0.112810783634,-0.0129910142738,-0.112661477167
5200000000.0,-0.0134918321197,-0.114792725116,0.986507629171,-0.114945023428,0.986507629171,-0.114945023428,-0.0134918321197,-0.114792725116
5300000000.0,-0.0140016546076,-0.116920371259,0.985997805315,-0.117075662441,0.985997805315,-0.117075662441,-0.0140016546076,-0.116920371259
5400000000.0,-0.0145204522155,-0.11904437298,0.985479006328,-0.119202658012,0.985479006328,-0.119202658012,-0.0145204522155,-0.11904437298
5500000000.0,-0.0150481950401,-0.121164687307,0.984951262114,-0.121325967126,0.984951262114,-0.121325967126,-0.0150481950401,-0.121164687307
5600000000.0,-0.0155848527921,-0.123281270944,0.984414602961,-0.123445546446,0.984414602961,-0.123445546446,-0.0155848527921,-0.123281270944
5700000000.0,-0.0161303947956,-0.125394080313,0.983869059545,-0.125561352355,0.983869059545,-0.125561352355,-0.0161303947956,-0.125394080313
5800000000.0,-0.0166847899866,-0.127503071589,0.983314662931,-0.12767334099,0.983314662931,-0.12767334099,-0.0166847899866,-0.127503071589
5900000000.0,-0.0172480069106,-0.129608200723,0.982751444573,-0.129781468268,0.982751444573,-0.129781468268,-0.0172480069106,-0.129608200723
6000000000.0,-0.0178200137241,-0.131709423487,0.982179436315,-0.131885689927,0.982179436315,-0.131885689927,-0.0178200137241,-0.131709423487
6100000000.0,-0.0184007781922,-0.133806695495,0.981598670391,-0.133985961546,0.981598670391,-0.133985961546,-0.0184007781922,-0.133806695495
6200000000.0,-0.0189902676912,-0.135899972235,0.981009179424,-0.136082238587,0.981009179424,-0.136082238587,-0.0189902676912,-0.135899972235
6300000000.0,-0.0195884492078,-0.137989209101,0.980410996429,-0.138174476411,0.980410996429,-0.138174476411,-0.0195884492078,-0.137989209101
6400000000.0,-0.0201952893402,-0.14007436141,0.979804154807,-0.140262630309,0.979804154807,-0.140262630309,-0.0201952893402,-0.14007436141
6500000000.0,-0.0208107543006,-0.142155384439,0.979188688346,-0.142346655531,0.979188688346,-0.142346655531,-0.0208107543006,-0.142155384439
6600000000.0,-0.0214348099152,-0.144232233438,0.978564631219,-0.144426507303,0.978564631219,-0.144426507303,-0.0214348099152,-0.144232233438
6700000000.0,-0.0220674216279,-0.146304863666,0.977932017983,-0.146502140858,0.977932017983,-0.146502140858,-0.0220674216279,-0.146304863666
6800000000.0,-0.0227085545009,-0.1483732304,0.977290883576,-0.148573511452,0.977290883576,-0.148573511452,-0.0227085545009,-0.1483732304
6900000000.0,-0.0233581732176,-0.150437288963,0.976641263313,-0.150640574385,0.976641263313,-0.150640574385,-0.0233581732176,-0.150437288963
7000000000.0,-0.0240162420874,-0.152496994749,0.975983192886,-0.152703285031,0.975983192886,-0.152703285031,-0.0240162420874,-0.152496994749
7100000000.0,-0.0246827250444,-0.154552303231,0.975316708361,-0.154761598843,0.975316708361,-0.154761598843,-0.0246827250444,-0.154552303231
7200000000.0,-0.0253575856547,-0.15660316999,0.974641846171,-0.156815471384,0.974641846171,-0.156815471384,-0.0253575856547,-0.15660316999
7300000000.0,-0.0260407871166,-0.158649550726,0.973958643118,-0.158864858334,0.973958643118,-0.158864858334,-0.0260407871166,-0.158649550726
7400000000.0,-0.0267322922654,-0.160691401276,0.973267136367,-0.160909715514,0.973267136367,-0.160909715514,-0.0267322922654,-0.160691401276
7500000000.0,-0.0274320635775,-0.162728677634,0.972567363441,-0.162949998902,0.972567363441,-0.162949998902,-0.0274320635775,-0.162728677634
7600000000.0,-0.0281400631724,-0.16476133596,0.971859362221,-0.164985664642,0.971859362221,-0.164985664642,-0.0281400631724,-0.16476133596
7700000000.0,-0.028856252819,-0.166789332602,0.971143170938,-0.167016669068,0.971143170938,-0.167016669068,-0.028856252819,-0.166789332602
7800000000.0,-0.0295805939355,-0.1688126241,0.970418828174,-0.169042968704,0.970418828174,-0.169042968704,-0.0295805939355,-0.1688126241
7900000000.0,-0.0303130476001,-0.170831167214,0.969686372851,-0.171064520298,0.969686372851,-0.171064520298,-0.0303130476001,-0.170831167214
8000000000.0,-0.0310535745481,-0.172844918921,0.968945844233,-0.173081280813,0.968945844233,-0.173081280813,-0.0310535745481,-0.172844918921
8100000000.0,-0.0318021351799,-0.174853836433,0.96819728192,-0.175093207451,0.96819728192,-0.175093207451,-0.0318021351799,-0.174853836433
8200000000.0,-0.0325586895663,-0.176857877217,0.96744072584,-0.177100257664,0.96744072584,-0.177100257664,-0.0325586895663,-0.176857877217
8300000000.0,-0.0333231974509,-0.178856998992,0.966676216252,-0.179102389162,0.966676216252,-0.179102389162,-0.0333231974509,-0.178856998992
8400000000.0,-0.0340956182539,-0.180851159749,0.965903793733,-0.181099559923,0.965903793733,-0.181099559923,-0.0340956182539,-0.180851159749
8500000000.0,-0.0348759110799,-0.182840317755,0.965123499181,-0.183091728207,0.965123499181,-0.183091728207,-0.0348759110799,-0.182840317755
8600000000.0,-0.0356640347213,-0.184824431573,0.964335373802,-0.185078852564,0.964335373802,-0.185078852564,-0.0356640347213,-0.184824431573
8700000000.0,-0.0364599476601,-0.186803460054,0.963539459114,-0.187060891838,0.963539459114,-0.187060891838,-0.0364599476601,-0.186803460054
8800000000.0,-0.0372636080777,-0.188777362363,0.962735796936,-0.189037805183,0.962735796936,-0.189037805183,-0.0372636080777,-0.188777362363
8900000000.0,-0.0380749738569,-0.190746097978,0.961924429385,-0.19100955207,0.961924429385,-0.19100955207,-0.0380749738569,-0.190746097978
9000000000.0,-0.0388940025865,-0.192709626699,0.961105398872,-0.19297609229,0.961105398872,-0.19297609229,-0.0388940025865,-0.192709626699
9100000000.0,-0.0397206515673,-0.194667908655,0.960278748097,-0.194937385965,0.960278748097,-0.194937385965,-0.0397206515673,-0.194667908655
9200000000.0,-0.0405548778178,-0.196620904316,0.959444520041,-0.196893393556,0.959444520041,-0.196893393556,-0.0405548778178,-0.196620904316
9300000000.0,-0.0413966380774,-0.198568574494,0.958602757965,-0.198844075869,0.958602757965,-0.198844075869,-0.0413966380774,-0.198568574494
9400000000.0,-0.0422458888129,-0.200510880353,0.957753505402,-0.200789394061,0.957753505402,-0.200789394061,-0.0422458888129,-0.200510880353
9500000000.0,-0.043102586222,-0.202447783411,0.956896806154,-0.202729309643,0.956896806154,-0.202729309643,-0.043102586222,-0.202447783411
9600000000.0,-0.0439666862422,-0.204379245555,0.956032704284,-0.204663784497,0.956032704284,-0.204663784497,-0.0439666862422,-0.204379245555
9700000000.0,-0.0448381445513,-0.206305229038,0.955161244113,-0.206592780868,0.955161244113,-0.206592780868,-0.0448381445513,-0.206305229038
9800000000.0,-0.0457169165749,-0.208225696484,0.954282470217,-0.208516261375,0.954282470217,-0.208516261375,-0.0457169165749,-0.208225696484
9900000000.0,-0.046602957492,-0.2101406109,0.953396427416,-0.210434189021,0.953396427416,-0.210434189021,-0.046602957492,-0.2101406109
10000000000.0,-0.0474962222398,-0.212049935677,0.952503160774,-0.212346527189,0.952503160774,-0.212346527189,-0.0474962222398,-0.212049935677
