freq (GHz),S11_real,S11_imag,S21_real,S21_imag,S12_real,S12_imag,S22_real,S22_imag
100000000.0,0.0630113912491,0.00186531742382,0.936986834939,-0.00248778616632,0.936986834939,-0.00248778616632,0.0630113912491,0.00186531742382
200000000.0,0.0634130146459,0.00372696449878,0.936584041456,-0.00497190454266,0.936584041456,-0.00497190454266,0.0634130146459,0.00372696449878
300000000.0,0.0637180739529,0.00558636478822,0.936277415673,-0.00745378067472,0.936277415673,-0.00745378067472,0.0637180739529,0.00558636478822
400000000.0,0.0639783273989,0.00744397581535,0.936015199278,-0.0099338737549,0.936015199278,-0.0099338737549,0.0639783273989,0.00744397581535
500000000.0,0.0642137745542,0.00930002990262,0.935777392627,-0.0124124176184,0.935777392627,-0.0124124176184,0.0642137745542,0.00930002990262
600000000.0,0.0644346466753,0.0111546594654,0.935553764394,-0.014889546092,0.935553764394,-0.014889546092,0.0644346466753,0.0111546594654
700000000.0,0.0646470053036,0.013007942052,0.935338252973,-0.0173653380619,0.935338252973,-0.0173653380619,0.0646470053036,0.013007942052
800000000.0,0.064854788398,0.0148599212491,0.935126920341,-0.0198398383957,0.935126920341,-0.0198398383957,0.064854788398,0.0148599212491
900000000.0,0.0650607225864,0.016710617917,0.934917039806,-0.0223130691889,0.934917039806,-0.0223130691889,0.0650607225864,0.016710617917
1000000000.0,0.0652667861664,0.0185600368462,0.934706633007,-0.0247850364288,0.934706633007,-0.0247850364288,0.0652667861664,0.0185600368462
1100000000.0,0.0654744668091,0.020408170987,0.934494212206,-0.02725573423,0.934494212206,-0.02725573423,0.0654744668091,0.020408170987
1200000000.0,0.065684915311,0.0222550042846,0.934278626542,-0.0297251476737,0.934278626542,-0.0297251476737,0.065684915311,0.0222550042846
1300000000.0,0.0658990424485,0.0241005136591,0.93405896517,-0.0321932547913,0.93405896517,-0.0321932547913,0.0658990424485,0.0241005136591
1400000000.0,0.0661175827175,0.0259446704382,0.933834493525,-0.0346600279992,0.933834493525,-0.0346600279992,0.0661175827175,0.0259446704382
1500000000.0,0.0663411378215,0.0277874414209,0.933604609832,-0.0371254351655,0.933604609832,-0.0371254351655,0.0663411378215,0.0277874414209
1600000000.0,0.0665702072517,0.0296287896883,0.933368814526,-0.039589440422,0.933368814526,-0.039589440422,0.0665702072517,0.0296287896883
1700000000.0,0.0668052103513,0.0314686752322,0.933126688189,-0.0420520047946,0.933126688189,-0.0420520047946,0.0668052103513,0.0314686752322
1800000000.0,0.0670465025931,0.0333070554526,0.932877875272,-0.0445130867025,0.932877875272,-0.0445130867025,0.0670465025931,0.0333070554526
1900000000.0,0.0672943878208,0.0351438855575,0.93262207185,-0.0469726423581,0.93262207185,-0.0469726423581,0.0672943878208,0.0351438855575
2000000000.0,0.0675491276146,0.036979118887,0.932359016262,-0.0494306260933,0.932359016262,-0.0494306260933,0.0675491276146,0.036979118887
2100000000.0,0.0678109485635,0.038812707181,0.932088481836,-0.0518869906274,0.932088481836,-0.0518869906274,0.0678109485635,0.038812707181
2200000000.0,0.06808004799,0.0406446008023,0.931810271161,-0.054341687291,0.931810271161,-0.054341687291,0.06808004799,0.0406446008023
2300000000.0,0.0683565985102,0.0424747489236,0.931524211535,-0.0567946662136,0.931524211535,-0.0567946662136,0.0683565985102,0.0424747489236
2400000000.0,0.0686407517071,0.0443030996866,0.931230151282,-0.0592458764839,0.931230151282,-0.0592458764839,0.0686407517071,0.0443030996866
2500000000.0,0.0689326411182,0.046129600338,0.930927956772,-0.0616952662856,0.930927956772,-0.0616952662856,0.0689326411182,0.046129600338
2600000000.0,0.0692323846877,0.0479541973469,0.930617509965,-0.0641427830155,0.930617509965,-0.0641427830155,0.0692323846877,0.0479541973469
2700000000.0,0.0695400867966,0.0497768365065,0.930298706382,-0.0665883733862,0.930298706382,-0.0665883733862,0.0695400867966,0.0497768365065
2800000000.0,0.0698558399547,0.0515974630233,0.929971453413,-0.069031983515,0.929971453413,-0.069031983515,0.0698558399547,0.0515974630233
2900000000.0,0.0701797262231,0.0534160215955,0.929635668894,-0.0714735590026,0.929635668894,-0.0714735590026,0.0701797262231,0.0534160215955
3000000000.0,0.0705118184152,0.055232456482,0.929291279906,-0.0739130450035,0.929291279906,-0.0739130450035,0.0705118184152,0.055232456482
3100000000.0,0.0708521811192,0.0570467115643,0.928938221753,-0.0763503862869,0.928938221753,-0.0763503862869,0.0708521811192,0.0570467115643
3200000000.0,0.0712008715725,0.0588587304015,0.928576437088,-0.0787855272929,0.928576437088,-0.0787855272929,0.0712008715725,0.0588587304015
3300000000.0,0.0715579404129,0.0606684562799,0.92820587516,-0.0812184121819,0.92820587516,-0.0812184121819,0.0715579404129,0.0606684562799
3400000000.0,0.0719234323288,0.0624758322576,0.927826491166,-0.0836489848797,0.927826491166,-0.0836489848797,0.0719234323288,0.0624758322576
3500000000.0,0.0722973866225,0.0642808012051,0.927438245686,-0.0860771891181,0.927438245686,-0.0860771891181,0.0722973866225,0.0642808012051
3600000000.0,0.0726798377027,0.0660833058421,0.927041104191,-0.0885029684722,0.927041104191,-0.0885029684722,0.0726798377027,0.0660833058421
3700000000.0,0.0730708155144,0.067883288771,0.926635036614,-0.090926266394,0.926635036614,-0.090926266394,0.0730708155144,0.067883288771
3800000000.0,0.0734703459175,0.0696806925083,0.926220016971,-0.0933470262437,0.926220016971,-0.0933470262437,0.0734703459175,0.0696806925083
3900000000.0,0.0738784510213,0.0714754595126,0.925796023025,-0.0957651913183,0.925796023025,-0.0957651913183,0.0738784510213,0.0714754595126
4000000000.0,0.0742951494794,0.0732675322108,0.925363035993,-0.098180704878,0.925363035993,-0.098180704878,0.0742951494794,0.0732675322108
4100000000.0,0.0747204567532,0.075056853023,0.924921040281,-0.10059351017,0.924921040281,-0.10059351017,0.0747204567532,0.075056853023
4200000000.0,0.0751543853454,0.0768433643845,0.924470023252,-0.103003550454,0.924470023252,-0.103003550454,0.0751543853454,0.0768433643845
4300000000.0,0.0755969450101,0.0786270087669,0.924009975015,-0.105410769018,0.924009975015,-0.105410769018,0.0755969450101,0.0786270087669
4400000000.0,0.0760481429399,0.0804077286984,0.923540888238,-0.107815109205,0.923540888238,-0.107815109205,0.0760481429399,0.0804077286984
4500000000.0,0.0765079839353,0.0821854667814,0.923062757979,-0.110216514425,0.923062757979,-0.110216514425,0.0765079839353,0.0821854667814
4600000000.0,0.0769764705565,0.0839601657106,0.922575581534,-0.112614928178,0.922575581534,-0.112614928178,0.0769764705565,0.0839601657106
4700000000.0,0.0774536032616,0.0857317682887,0.922079358297,-0.115010294065,0.922079358297,-0.115010294065,0.0774536032616,0.0857317682887
4800000000.0,0.0779393805312,0.087500217442,0.92157408964,-0.11740255581,0.92157408964,-0.11740255581,0.0779393805312,0.087500217442
4900000000.0,0.0784337989818,0.0892654562352,0.921059778794,-0.119791657267,0.921059778794,-0.119791657267,0.0784337989818,0.0892654562352
5000000000.0,0.0789368534691,0.0910274278847,0.920536430751,-0.122177542441,0.920536430751,-0.122177542441,0.0789368534691,0.0910274278847
5100000000.0,0.0794485371826,0.0927860757722,0.920004052163,-0.124560155498,0.920004052163,-0.124560155498,0.0794485371826,0.0927860757722
5200000000.0,0.0799688417318,0.0945413434566,0.919462651264,-0.126939440775,0.919462651264,-0.126939440775,0.0799688417318,0.0945413434566
5300000000.0,0.0804977572256,0.0962931746862,0.918912237784,-0.129315342796,0.918912237784,-0.129315342796,0.0804977572256,0.0962931746862
5400000000.0,0.0810352723447,0.09804151341,0.918352822877,-0.131687806284,0.918352822877,-0.131687806284,0.0810352723447,0.09804151341
5500000000.0,0.0815813744094,0.0997863037883,0.91778441906,-0.134056776166,0.91778441906,-0.134056776166,0.0815813744094,0.0997863037883
5600000000.0,0.0821360494407,0.101527490203,0.917207040141,-0.136422197589,0.917207040141,-0.136422197589,0.0821360494407,0.101527490203
5700000000.0,0.0826992822183,0.103265017268,0.916620701172,-0.138784015929,0.916620701172,-0.138784015929,0.0826992822183,0.103265017268
5800000000.0,0.0832710563333,0.104998829838,0.916025418387,-0.141142176798,0.916025418387,-0.141142176798,0.0832710563333,0.104998829838
5900000000.0,0.0838513542377,0.106728873017,0.915421209161,-0.143496626057,0.915421209161,-0.143496626057,0.0838513542377,0.106728873017
6000000000.0,0.0844401572902,0.10845509217,0.914808091957,-0.145847309819,0.914808091957,-0.145847309819,0.0844401572902,0.10845509217
6100000000.0,0.0850374457988,0.110177432928,0.914186086287,-0.148194174466,0.914186086287,-0.148194174466,0.0850374457988,0.110177432928
6200000000.0,0.0856431990613,0.111895841197,0.913555212671,-0.150537166647,0.913555212671,-0.150537166647,0.0856431990613,0.111895841197
6300000000.0,0.0862573954021,0.113610263167,0.9129154926,-0.152876233296,0.9129154926,-0.152876233296,0.0862573954021,0.113610263167
6400000000.0,0.0868800122077,0.115320645319,0.9122669485,-0.155211321632,0.9122669485,-0.155211321632,0.0868800122077,0.115320645319
6500000000.0,0.0875110259593,0.117026934431,0.911609603701,-0.15754237917,0.911609603701,-0.15754237917,0.0875110259593,0.117026934431
6600000000.0,0.0881504122639,0.118729077587,0.910943482405,-0.159869353725,0.910943482405,-0.159869353725,0.0881504122639,0.118729077587
6700000000.0,0.0887981458837,0.120427022182,0.910268609656,-0.162192193425,0.910268609656,-0.162192193425,0.0887981458837,0.120427022182
6800000000.0,0.0894542007633,0.12212071593,0.909585011312,-0.16451084671,0.909585011312,-0.16451084671,0.0894542007633,0.12212071593
6900000000.0,0.0901185500558,0.123810106871,0.908892714021,-0.166825262343,0.908892714021,-0.166825262343,0.0901185500558,0.123810106871
7000000000.0,0.0907911661481,0.125495143372,0.908191745198,-0.169135389416,0.908191745198,-0.169135389416,0.0907911661481,0.125495143372
7100000000.0,0.0914720206833,0.12717577414,0.907482132993,-0.171441177354,0.907482132993,-0.171441177354,0.0914720206833,0.12717577414
7200000000.0,0.0921610845839,0.128851948224,0.906763906281,-0.173742575921,0.906763906281,-0.173742575921,0.0921610845839,0.128851948224
7300000000.0,0.0928583280724,0.13052361502,0.906037094631,-0.17603953523,0.906037094631,-0.17603953523,0.0928583280724,0.13052361502
7400000000.0,0.0935637206919,0.132190724279,0.905301728288,-0.17833200574,0.905301728288,-0.17833200574,0.0935637206919,0.132190724279
7500000000.0,0.094277231325,0.133853226108,0.904557838159,-0.18061993827,0.904557838159,-0.18061993827,0.094277231325,0.133853226108
7600000000.0,0.0949988282128,0.13551107098,0.903805455788,-0.182903283998,0.903805455788,-0.182903283998,0.0949988282128,0.13551107098
7700000000.0,0.0957284789717,0.137164209735,0.90304461334,-0.185181994469,0.90304461334,-0.185181994469,0.0957284789717,0.137164209735
7800000000.0,0.0964661506115,0.138812593588,0.902275343588,-0.187456021599,0.902275343588,-0.187456021599,0.0964661506115,0.138812593588
7900000000.0,0.0972118095506,0.140456174132,0.901497679891,-0.189725317678,0.901497679891,-0.189725317678,0.0972118095506,0.140456174132
8000000000.0,0.0979654216322,0.142094903338,0.900711656181,-0.191989835379,0.900711656181,-0.191989835379,0.0979654216322,0.142094903338
8100000000.0,0.0987269521395,0.14372873357,0.899917306951,-0.194249527756,0.899917306951,-0.194249527756,0.0987269521395,0.14372873357
8200000000.0,0.0994963658096,0.145357617578,0.899114667233,-0.196504348254,0.899114667233,-0.196504348254,0.0994963658096,0.145357617578
8300000000.0,0.100273626848,0.146981508509,0.898303772593,-0.198754250709,0.898303772593,-0.198754250709,0.100273626848,0.146981508509
8400000000.0,0.101058698944,0.148600359908,0.897484659108,-0.200999189354,0.897484659108,-0.200999189354,0.101058698944,0.148600359908
8500000000.0,0.101851545278,0.150214125723,0.896657363361,-0.203239118823,0.896657363361,-0.203239118823,0.101851545278,0.150214125723
8600000000.0,0.102652128541,0.151822760307,0.895821922425,-0.205473994152,0.895821922425,-0.205473994152,0.102652128541,0.151822760307
8700000000.0,0.103460410944,0.153426218424,0.894978373848,-0.207703770788,0.894978373848,-0.207703770788,0.103460410944,0.153426218424
8800000000.0,0.104276354231,0.15502445525,0.894126755647,-0.209928404586,0.894126755647,-0.209928404586,0.104276354231,0.15502445525
8900000000.0,0.105099919686,0.156617426379,0.89326710629,-0.212147851816,0.89326710629,-0.212147851816,0.105099919686,0.156617426379
9000000000.0,0.105931068152,0.158205087822,0.892399464689,-0.214362069166,0.892399464689,-0.214362069166,0.105931068152,0.158205087822
9100000000.0,0.106769760036,0.159787396015,0.891523870188,-0.216571013744,0.891523870188,-0.216571013744,0.106769760036,0.159787396015
9200000000.0,0.107615955323,0.161364307818,0.890640362552,-0.218774643084,0.890640362552,-0.218774643084,0.107615955323,0.161364307818
9300000000.0,0.108469613586,0.162935780521,0.889748981954,-0.220972915142,0.889748981954,-0.220972915142,0.108469613586,0.162935780521
9400000000.0,0.109330693994,0.164501771845,0.888849768969,-0.223165788308,0.888849768969,-0.223165788308,0.109330693994,0.164501771845
9500000000.0,0.110199155325,0.166062239942,0.887942764562,-0.2253532214,0.887942764562,-0.2253532214,0.110199155325,0.166062239942
9600000000.0,0.111074955974,0.167617143404,0.887028010078,-0.227535173674,0.887028010078,-0.227535173674,0.111074955974,0.167617143404
9700000000.0,0.111958053964,0.16916644126,0.886105547231,-0.22971160482,0.886105547231,-0.22971160482,0.111958053964,0.16916644126
9800000000.0,0.112848406953,0.17071009298,0.885175418099,-0.23188247497,0.885175418099,-0.23188247497,0.112848406953,0.17071009298
9900000000.0,0.113745972248,0.172248058478,0.884237665109,-0.234047744694,0.884237665109,-0.234047744694,0.113745972248,0.172248058478
10000000000.0,0.114650706807,0.173780298115,0.883292331033,-0.23620737501,0.883292331033,-0.23620737501,0.114650706807,0.173780298115
