freq (GHz),S11_real,S11_imag,S21_real,S21_imag,S12_real,S12_imag,S22_real,S22_imag
100000000.0,-0.000517220371941,-0.0224483975262,0.999455924635,-0.0226075722501,0.999455924635,-0.0226075722501,-0.000517220371941,-0.0224483975262
200000000.0,-0.00205938202258,-0.044823885059,0.99791354168,-0.0451422915613,0.99791354168,-0.0451422915613,-0.00205938202258,-0.044823885059
300000000.0,-0.00460379115775,-0.0670575755706,0.995368932017,-0.0675352996511,0.995368932017,-0.0675352996511,-0.00460379115775,-0.0670575755706
400000000.0,-0.00813443339348,-0.0890823775633,0.991838086896,-0.0897195264247,0.991838086896,-0.0897195264247,-0.00813443339348,-0.0890823775633
500000000.0,-0.0126294697853,-0.110833510794,0.987342836353,-0.111630209076,0.987342836353,-0.111630209076,-0.0126294697853,-0.110833510794
600000000.0,-0.0180615849032,-0.132249066128,0.98191049126,-0.133205453149,0.98191049126,-0.133205453149,-0.0180615849032,-0.132249066128
700000000.0,-0.0243984057527,-0.153270530152,0.975573421892,-0.154386757773,0.975573421892,-0.154386757773,-0.0243984057527,-0.153270530152
800000000.0,-0.0316029799287,-0.17384325126,0.968368578868,-0.175119482146,0.968368578868,-0.175119482146,-0.0316029799287,-0.17384325126
900000000.0,-0.0396343012186,-0.193916835414,0.960336967143,-0.195353241561,0.960336967143,-0.195353241561,-0.0396343012186,-0.193916835414
1000000000.0,-0.0484478700631,-0.2134454649,0.951523085339,-0.215042226359,0.951523085339,-0.215042226359,-0.0484478700631,-0.2134454649
1100000000.0,-0.0579962759456,-0.232388136866,0.941974343247,-0.234145440627,0.941974343247,-0.234145440627,-0.0579962759456,-0.232388136866
1200000000.0,-0.0682297889554,-0.250708821203,0.931740470194,-0.2526268602,0.931740470194,-0.2526268602,-0.0682297889554,-0.250708821203
1300000000.0,-0.0790969483973,-0.268376539708,0.920872926393,-0.27045551193,0.920872926393,-0.27045551193,-0.0790969483973,-0.268376539708
1400000000.0,-0.0905451373077,-0.285365370442,0.909424328399,-0.287605478141,0.909424328399,-0.287605478141,-0.0905451373077,-0.285365370442
1500000000.0,-0.102521133022,-0.301654382876,0.897447898524,-0.304055831846,0.897447898524,-0.304055831846,-0.102521133022,-0.301654382876
1600000000.0,-0.114971625418,-0.317227510658,0.884996946578,-0.319790509586,0.884996946578,-0.319790509586,-0.114971625418,-0.317227510658
1700000000.0,-0.127843696052,-0.332073369763,0.872124390728,-0.334798129642,0.872124390728,-0.334798129642,-0.127843696052,-0.332073369763
1800000000.0,-0.14108525305,-0.346185030336,0.858882322596,-0.349071763938,0.858882322596,-0.349071763938,-0.14108525305,-0.346185030336
1900000000.0,-0.154645418214,-0.359559750791,0.845321620152,-0.362608672184,0.845321620152,-0.362608672184,-0.154645418214,-0.359559750791
2000000000.0,-0.168474864319,-0.372198682628,0.831491610406,-0.375410006744,0.831491610406,-0.375410006744,-0.168474864319,-0.372198682628
2100000000.0,-0.182526101981,-0.38410655418,0.817439782545,-0.387480496422,0.817439782545,-0.387480496422,-0.182526101981,-0.38410655418
2200000000.0,-0.196753716672,-0.39529134094,0.803211550914,-0.398828116833,0.803211550914,-0.398828116833,-0.196753716672,-0.39529134094
2300000000.0,-0.211114557518,-0.405763929506,0.788850066212,-0.409463754377,0.788850066212,-0.409463754377,-0.211114557518,-0.405763929506
2400000000.0,-0.225567880343,-0.415537781386,0.77439607245,-0.419400870081,0.77439607245,-0.419400870081,-0.225567880343,-0.415537781386
2500000000.0,-0.240075448098,-0.424628602108,0.759887806522,-0.428655168734,0.759887806522,-0.428655168734,-0.240075448098,-0.424628602108
2600000000.0,-0.254601592264,-0.433054020192,0.745360936798,-0.437244277896,0.745360936798,-0.437244277896,-0.254601592264,-0.433054020192
2700000000.0,-0.269113239137,-0.440833279763,0.730848536839,-0.445187440523,0.730848536839,-0.445187440523,-0.269113239137,-0.440833279763
2800000000.0,-0.283579905046,-0.447986949691,0.716381090178,-0.452505224144,0.716381090178,-0.452505224144,-0.283579905046,-0.447986949691
2900000000.0,-0.297973664607,-0.454536651492,0.701986522071,-0.459219248774,0.701986522071,-0.459219248774,-0.297973664607,-0.454536651492
3000000000.0,-0.31226909599,-0.460504807439,0.687690254219,-0.465351935049,0.687690254219,-0.465351935049,-0.31226909599,-0.460504807439
3100000000.0,-0.326443207074,-0.465914409815,0.673515278621,-0.470926273493,0.673515278621,-0.470926273493,-0.326443207074,-0.465914409815
3200000000.0,-0.340475346083,-0.470788811632,0.659482246939,-0.47596561526,0.659482246939,-0.47596561526,-0.340475346083,-0.470788811632
3300000000.0,-0.354347100046,-0.475151538766,0.645609572027,-0.480493484279,0.645609572027,-0.480493484279,-0.354347100046,-0.475151538766
3400000000.0,-0.368042184131,-0.479026123032,0.631913538608,-0.484533410345,0.631913538608,-0.484533410345,-0.368042184131,-0.479026123032
3500000000.0,-0.381546324562,-0.482435955469,0.618408420351,-0.488108782416,0.618408420351,-0.488108782416,-0.381546324562,-0.482435955469
3600000000.0,-0.394847137519,-0.485404158853,0.605106600974,-0.491242721138,0.605106600974,-0.491242721138,-0.394847137519,-0.485404158853
3700000000.0,-0.407934006103,-0.487953478315,0.592018697274,-0.493957969474,0.592018697274,-0.493957969474,-0.407934006103,-0.487953478315
3800000000.0,-0.420797957149,-0.490106188806,0.57915368232,-0.496276800178,0.57915368232,-0.496276800178,-0.420797957149,-0.490106188806
3900000000.0,-0.433431539369,-0.491884018098,0.566519007303,-0.498220938805,0.566519007303,-0.498220938805,-0.433431539369,-0.491884018098
4000000000.0,-0.445828704073,-0.493308083984,0.554120720821,-0.499811500919,0.554120720821,-0.499811500919,-0.445828704073,-0.493308083984
4100000000.0,-0.457984689433,-0.494398844333,0.541963584612,-0.501068942155,0.541963584612,-0.501068942155,-0.457984689433,-0.494398844333
4200000000.0,-0.469895909089,-0.495176058688,0.530051184949,-0.502013019826,0.530051184949,-0.502013019826,-0.469895909089,-0.495176058688
4300000000.0,-0.481559845661,-0.495658760157,0.518386039124,-0.502662764813,0.518386039124,-0.502662764813,-0.481559845661,-0.495658760157
4400000000.0,-0.492974949603,-0.495865236374,0.506969696602,-0.503036462541,0.506969696602,-0.503036462541,-0.492974949603,-0.495865236374
4500000000.0,-0.504140543655,-0.495813018428,0.49580283456,-0.503151641903,0.49580283456,-0.503151641903,-0.504140543655,-0.495813018428
4600000000.0,-0.515056733064,-0.495518876685,0.484885347671,-0.503025071094,0.484885347671,-0.503025071094,-0.515056733064,-0.495518876685
4700000000.0,-0.525724321614,-0.494998822551,0.474216432073,-0.502672759374,0.474216432073,-0.502672759374,-0.525724321614,-0.494998822551
4800000000.0,-0.536144733437,-0.494268115286,0.463794663556,-0.502109963884,0.463794663556,-0.502109963884,-0.536144733437,-0.494268115286
4900000000.0,-0.546319940503,-0.493341273061,0.453618070076,-0.501351200712,0.453618070076,-0.501351200712,-0.546319940503,-0.493341273061
5000000000.0,-0.556252395636,-0.492232087548,0.443684198734,-0.500410259476,0.443684198734,-0.500410259476,-0.556252395636,-0.492232087548
5100000000.0,-0.565944970861,-0.490953641374,0.433990177435,-0.49930022079,0.433990177435,-0.49930022079,-0.565944970861,-0.490953641374
5200000000.0,-0.575400900845,-0.489518327895,0.42453277144,-0.498033476033,0.42453277144,-0.498033476033,-0.575400900845,-0.489518327895
5300000000.0,-0.584623731202,-0.487937872753,0.415308435063,-0.496621748912,0.415308435063,-0.496621748912,-0.584623731202,-0.487937872753
5400000000.0,-0.593617271384,-0.486223356796,0.406313358786,-0.49507611838,0.406313358786,-0.49507611838,-0.593617271384,-0.486223356796
5500000000.0,-0.602385551886,-0.484385239956,0.397543512046,-0.49340704252,0.397543512046,-0.49340704252,-0.602385551886,-0.484385239956
5600000000.0,-0.610932785504,-0.482433385773,0.38899468198,-0.491624383061,0.38899468198,-0.491624383061,-0.610932785504,-0.482433385773
5700000000.0,-0.619263332363,-0.480377086251,0.380662508398,-0.489737430246,0.380662508398,-0.489737430246,-0.619263332363,-0.480377086251
5800000000.0,-0.627381668446,-0.478225086827,0.372542515251,-0.487754927795,0.372542515251,-0.487754927795,-0.627381668446,-0.478225086827
5900000000.0,-0.635292357382,-0.47598561124,0.364630138848,-0.485685097772,0.364630138848,-0.485685097772,-0.635292357382,-0.47598561124
6000000000.0,-0.643000025214,-0.473666386118,0.356920753082,-0.483535665182,0.356920753082,-0.483535665182,-0.643000025214,-0.473666386118
6100000000.0,-0.650509337933,-0.471274665163,0.3494096919,-0.481313882143,0.3494096919,-0.481313882143,-0.650509337933,-0.471274665163
6200000000.0,-0.65782498154,-0.468817252797,0.34209226924,-0.479026551546,0.34209226924,-0.479026551546,-0.65782498154,-0.468817252797
6300000000.0,-0.664951644421,-0.466300527197,0.334963796654,-0.476680050077,0.334963796654,-0.476680050077,-0.664951644421,-0.466300527197
6400000000.0,-0.67189400183,-0.463730462634,0.328019598828,-0.474280350565,0.328019598828,-0.474280350565,-0.67189400183,-0.463730462634
6500000000.0,-0.678656702303,-0.461112651067,0.321255027167,-0.471833043574,0.321255027167,-0.471833043574,-0.678656702303,-0.461112651067
6600000000.0,-0.685244355812,-0.458452322957,0.31466547164,-0.469343358212,0.31466547164,-0.469343358212,-0.685244355812,-0.458452322957
6700000000.0,-0.691661523502,-0.455754367268,0.308246371042,-0.466816182137,0.308246371042,-0.466816182137,-0.691661523502,-0.455754367268
6800000000.0,-0.697912708864,-0.453023350644,0.301993221825,-0.46425608073,0.301993221825,-0.46425608073,-0.697912708864,-0.453023350644
6900000000.0,-0.704002350192,-0.450263535752,0.295901585637,-0.461667315441,0.295901585637,-0.461667315441,-0.704002350192,-0.450263535752
7000000000.0,-0.709934814206,-0.447478898801,0.289967095699,-0.459053861304,0.289967095699,-0.459053861304,-0.709934814206,-0.447478898801
7100000000.0,-0.715714390719,-0.444673146231,0.284185462144,-0.456419423627,0.284185462144,-0.456419423627,-0.715714390719,-0.444673146231
7200000000.0,-0.721345288233,-0.441849730602,0.278552476409,-0.45376745388,0.278552476409,-0.45376745388,-0.721345288233,-0.441849730602
7300000000.0,-0.72683163038,-0.439011865683,0.27306401481,-0.451101164785,0.27306401481,-0.451101164785,-0.72683163038,-0.439011865683
7400000000.0,-0.732177453095,-0.436162540777,0.26771604135,-0.448423544639,0.26771604135,-0.448423544639,-0.732177453095,-0.436162540777
7500000000.0,-0.737386702467,-0.43330453429,0.262504609889,-0.44573737088,0.262504609889,-0.44573737088,-0.737386702467,-0.43330453429
7600000000.0,-0.742463233161,-0.430440426585,0.257425865704,-0.443045222946,0.257425865704,-0.443045222946,-0.742463233161,-0.430440426585
7700000000.0,-0.747410807371,-0.427572612135,0.252476046545,-0.440349494421,0.252476046545,-0.440349494421,-0.747410807371,-0.427572612135
7800000000.0,-0.752233094226,-0.424703311006,0.247651483227,-0.437652404522,0.247651483227,-0.437652404522,-0.752233094226,-0.424703311006
7900000000.0,-0.756933669599,-0.421834579699,0.242948599823,-0.434956008936,0.242948599823,-0.434956008936,-0.756933669599,-0.421834579699
8000000000.0,-0.761516016263,-0.41896832138,0.238363913502,-0.432262210055,0.238363913502,-0.432262210055,-0.761516016263,-0.41896832138
8100000000.0,-0.765983524365,-0.416106295522,0.233894034064,-0.429572766613,0.233894034064,-0.429572766613,-0.765983524365,-0.416106295522
8200000000.0,-0.770339492148,-0.413250126994,0.229535663207,-0.426889302774,0.229535663207,-0.426889302774,-0.770339492148,-0.413250126994
8300000000.0,-0.77458712692,-0.410401314611,0.225285593571,-0.424213316683,0.225285593571,-0.424213316683,-0.77458712692,-0.410401314611
8400000000.0,-0.778729546203,-0.407561239189,0.221140707577,-0.421546188521,0.221140707577,-0.421546188521,-0.778729546203,-0.407561239189
8500000000.0,-0.782769779059,-0.404731171116,0.217097976107,-0.418889188074,0.217097976107,-0.418889188074,-0.782769779059,-0.404731171116
8600000000.0,-0.786710767553,-0.401912277476,0.213154457042,-0.416243481853,0.213154457042,-0.416243481853,-0.786710767553,-0.401912277476
8700000000.0,-0.790555368327,-0.399105628735,0.209307293682,-0.413610139787,0.209307293682,-0.413610139787,-0.790555368327,-0.399105628735
8800000000.0,-0.79430635428,-0.396312205035,0.205553713074,-0.410990141508,0.205553713074,-0.410990141508,-0.79430635428,-0.396312205035
8900000000.0,-0.797966416318,-0.39353290209,0.201891024255,-0.408384382256,0.201891024255,-0.408384382256,-0.797966416318,-0.39353290209
9000000000.0,-0.801538165163,-0.390768536739,0.198316616446,-0.405793678419,0.198316616446,-0.405793678419,-0.801538165163,-0.390768536739
9100000000.0,-0.805024133218,-0.388019852139,0.194827957191,-0.403218772736,0.194827957191,-0.403218772736,-0.805024133218,-0.388019852139
9200000000.0,-0.80842677645,-0.385287522656,0.191422590464,-0.400660339181,0.191422590464,-0.400660339181,-0.80842677645,-0.385287522656
9300000000.0,-0.81174847631,-0.382572158435,0.188098134757,-0.398118987537,0.188098134757,-0.398118987537,-0.81174847631,-0.382572158435
9400000000.0,-0.814991541657,-0.379874309702,0.184852281156,-0.395595267691,0.184852281156,-0.395595267691,-0.814991541657,-0.379874309702
9500000000.0,-0.818158210684,-0.377194470787,0.18168279141,-0.393089673664,0.18168279141,-0.393089673664,-0.818158210684,-0.377194470787
9600000000.0,-0.821250652845,-0.3745330839,0.178587496008,-0.390602647381,0.178587496008,-0.390602647381,-0.821250652845,-0.3745330839
9700000000.0,-0.824270970768,-0.371890542669,0.175564292263,-0.38813458221,0.175564292263,-0.38813458221,-0.824270970768,-0.371890542669
9800000000.0,-0.827221202153,-0.369267195456,0.172611142421,-0.385685826278,0.172611142421,-0.385685826278,-0.827221202153,-0.369267195456
9900000000.0,-0.830103321645,-0.366663348464,0.169726071775,-0.383256685576,0.169726071775,-0.383256685576,-0.830103321645,-0.366663348464
10000000000.0,-0.832919242689,-0.364079268645,0.166907166824,-0.380847426869,0.166907166824,-0.380847426869,-0.832919242689,-0.364079268645
