freq (GHz),S11_real,S11_imag,S21_real,S21_imag,S12_real,S12_imag,S22_real,S22_imag
100000000.0,0.0019500660714,-0.000273253778057,0.99803298534,-0.00449746531794,0.99803298534,-0.00449746531794,0.0019500660714,-0.000273253778057
200000000.0,0.00195720121835,-0.000546603548205,0.997987126041,-0.00899478046236,0.997987126041,-0.00899478046236,0.00195720121835,-0.000546603548205
300000000.0,0.00195846952882,-0.000819998424666,0.997924356848,-0.0134919347032,0.997924356848,-0.0134919347032,0.00195846952882,-0.000819998424666
400000000.0,0.00195556129901,-0.00109341258741,0.997842986222,-0.0179888798123,0.997842986222,-0.0179888798123,0.00195556129901,-0.00109341258741
500000000.0,0.00194912654955,-0.0013668249668,0.997742362936,-0.0224855564901,0.997742362936,-0.0224855564901,0.00194912654955,-0.0013668249668
600000000.0,0.00193949628082,-0.00164021614969,0.997622154897,-0.0269818996107,0.997622154897,-0.0269818996107,0.00193949628082,-0.00164021614969
700000000.0,0.00192686573335,-0.00191356736799,0.997482165945,-0.0314778403328,0.997482165945,-0.0314778403328,0.00192686573335,-0.00191356736799
800000000.0,0.00191136124375,-0.00218686007657,0.997322269037,-0.0359733071824,0.997322269037,-0.0359733071824,0.00191136124375,-0.00218686007657
900000000.0,0.00189307000209,-0.00246007575228,0.997142376529,-0.0404682266898,0.997142376529,-0.0404682266898,0.00189307000209,-0.00246007575228
1000000000.0,0.00187205513126,-0.00273319579121,0.996942425124,-0.0449625238008,0.996942425124,-0.0449625238008,0.00187205513126,-0.00273319579121
1100000000.0,0.00184836406816,-0.00300620145402,0.996722367521,-0.0494561221599,0.996722367521,-0.0494561221599,0.00184836406816,-0.00300620145402
1200000000.0,0.00182203355775,-0.00327907383705,0.996482167439,-0.0539489443142,0.996482167439,-0.0539489443142,0.00182203355775,-0.00327907383705
1300000000.0,0.00179309279542,-0.00355179385771,0.996221796502,-0.0584409118677,0.996221796502,-0.0584409118677,0.00179309279542,-0.00355179385771
1400000000.0,0.00176156549322,-0.00382434224826,0.995941232183,-0.0629319455994,0.995941232183,-0.0629319455994,0.00176156549322,-0.00382434224826
1500000000.0,0.00172747128852,-0.00409669955462,0.995640456419,-0.0674219655583,0.995640456419,-0.0674219655583,0.00172747128852,-0.00409669955462
1600000000.0,0.0016908267342,-0.0043688461383,0.995319454634,-0.0719108911392,0.995319454634,-0.0719108911392,0.0016908267342,-0.0043688461383
1700000000.0,0.00165164601295,-0.00464076218012,0.994978215037,-0.0763986411468,0.994978215037,-0.0763986411468,0.00165164601295,-0.00464076218012
1800000000.0,0.0016099414643,-0.00491242768518,0.994616728111,-0.0808851338479,0.994616728111,-0.0808851338479,0.0016099414643,-0.00491242768518
1900000000.0,0.00156572398118,-0.00518382248848,0.994234986227,-0.0853702870167,0.994234986227,-0.0853702870167,0.00156572398118,-0.00518382248848
2000000000.0,0.00151900331354,-0.00545492626096,0.993832983351,-0.0898540179737,0.993832983351,-0.0898540179737,0.00151900331354,-0.00545492626096
2100000000.0,0.00146978830448,-0.00572571851573,0.993410714823,-0.0943362436191,0.993410714823,-0.0943362436191,0.00146978830448,-0.00572571851573
2200000000.0,0.00141808707629,-0.00599617861446,0.992968177174,-0.0988168804626,0.992968177174,-0.0988168804626,0.00141808707629,-0.00599617861446
2300000000.0,0.00136390717912,-0.00626628577371,0.992505367994,-0.103295844649,0.992505367994,-0.103295844649,0.00136390717912,-0.00626628577371
2400000000.0,0.00130725571086,-0.00653601907124,0.992022285815,-0.107773051984,0.992022285815,-0.107773051984,0.00130725571086,-0.00653601907124
2500000000.0,0.00124813941508,-0.00680535745225,0.991518930026,-0.112248417949,0.991518930026,-0.112248417949,0.00124813941508,-0.00680535745225
2600000000.0,0.00118656476159,-0.00707427973553,0.990995300799,-0.116721857729,0.990995300799,-0.116721857729,0.00118656476159,-0.00707427973553
2700000000.0,0.00112253801346,-0.00734276461951,0.990451399028,-0.121193286222,0.990451399028,-0.121193286222,0.00112253801346,-0.00734276461951
2800000000.0,0.00105606528305,-0.00761079068816,0.989887226284,-0.125662618059,0.989887226284,-0.125662618059,0.00105606528305,-0.00761079068816
2900000000.0,0.000987152579396,-0.00787833641686,0.989302784771,-0.130129767618,0.989302784771,-0.130129767618,0.000987152579396,-0.00787833641686
3000000000.0,0.000915805848418,-0.00814538017803,0.988698077295,-0.134594649036,0.988698077295,-0.134594649036,0.000915805848418,-0.00814538017803
3100000000.0,0.00084203100731,-0.0084119002468,0.988073107232,-0.139057176222,0.988073107232,-0.139057176222,0.00084203100731,-0.0084119002468
3200000000.0,0.000765833974153,-0.00867787480647,0.987427878509,-0.143517262871,0.987427878509,-0.143517262871,0.000765833974153,-0.00867787480647
3300000000.0,0.000687220693517,-0.0089432819539,0.986762395584,-0.14797482247,0.986762395584,-0.14797482247,0.000687220693518,-0.0089432819539
3400000000.0,0.000606197158747,-0.00920809970481,0.986076663424,-0.152429768313,0.986076663424,-0.152429768313,0.000606197158747,-0.00920809970481
3500000000.0,0.000522769431426,-0.009472305999,0.985370687497,-0.156882013509,0.985370687497,-0.156882013509,0.000522769431425,-0.009472305999
3600000000.0,0.000436943658485,-0.00973587870544,0.984644473756,-0.161331470989,0.984644473756,-0.161331470989,0.000436943658484,-0.00973587870544
3700000000.0,0.000348726087273,-0.00999879562734,0.983898028629,-0.165778053517,0.983898028629,-0.165778053517,0.000348726087273,-0.00999879562734
3800000000.0,0.000258123078914,-0.0102610345071,0.983131359014,-0.170221673699,0.983131359014,-0.170221673699,0.000258123078914,-0.0102610345071
3900000000.0,0.00016514112016,-0.0105225730311,0.982344472265,-0.174662243987,0.982344472265,-0.174662243987,0.00016514112016,-0.0105225730311
4000000000.0,6.97868339794e-05,-0.0107833888347,0.981537376193,-0.179099676691,0.981537376193,-0.179099676691,6.97868339794e-05,-0.0107833888347
4100000000.0,-2.79330109917e-05,-0.011043459507,0.980710079055,-0.183533883983,0.980710079055,-0.183533883983,-2.79330109917e-05,-0.011043459507
4200000000.0,-0.000128011491964,-0.0113027625951,0.97986258955,-0.187964777903,0.97986258955,-0.187964777903,-0.000128011491964,-0.0113027625951
4300000000.0,-0.000230441524355,-0.0115612756092,0.978994916819,-0.192392270371,0.978994916819,-0.192392270371,-0.000230441524355,-0.0115612756092
4400000000.0,-0.00033521585492,-0.0118189760273,0.978107070436,-0.196816273188,0.978107070436,-0.196816273188,-0.00033521585492,-0.0118189760273
4500000000.0,-0.000442327055531,-0.012075841299,0.977199060411,-0.201236698043,0.977199060411,-0.201236698043,-0.00044232705553,-0.012075841299
4600000000.0,-0.000551767517557,-0.0123318488506,0.976270897183,-0.20565345652,0.976270897183,-0.20565345652,-0.000551767517558,-0.0123318488506
4700000000.0,-0.000663529446765,-0.0125869760894,0.975322591617,-0.210066460106,0.975322591617,-0.210066460106,-0.000663529446765,-0.0125869760894
4800000000.0,-0.000777604858692,-0.0128412004079,0.974354155009,-0.214475620191,0.974354155009,-0.214475620191,-0.000777604858692,-0.0128412004079
4900000000.0,-0.000893985574439,-0.0130944991883,0.973365599078,-0.218880848079,0.973365599078,-0.218880848079,-0.00089398557444,-0.0130944991883
5000000000.0,-0.00101266321686,-0.0133468498067,0.972356935967,-0.223282054988,0.972356935967,-0.223282054988,-0.00101266321686,-0.0133468498067
5100000000.0,-0.00113362920707,-0.0135982296372,0.971328178241,-0.227679152061,0.971328178241,-0.227679152061,-0.00113362920707,-0.0135982296372
5200000000.0,-0.00125687476128,-0.0138486160565,0.970279338889,-0.232072050367,0.970279338889,-0.232072050367,-0.00125687476128,-0.0138486160565
5300000000.0,-0.00138239088794,-0.0140979864478,0.96921043132,-0.236460660904,0.96921043132,-0.236460660904,-0.00138239088794,-0.0140979864479
5400000000.0,-0.00151016838509,-0.014346318205,0.968121469364,-0.240844894611,0.968121469364,-0.240844894611,-0.00151016838509,-0.014346318205
5500000000.0,-0.00164019783802,-0.0145935887365,0.967012467273,-0.245224662366,0.967012467273,-0.245224662366,-0.00164019783802,-0.0145935887365
5600000000.0,-0.00177246961708,-0.0148397754698,0.965883439716,-0.249599874992,0.965883439716,-0.249599874992,-0.00177246961708,-0.0148397754698
5700000000.0,-0.00190697387573,-0.0150848558554,0.964734401785,-0.253970443265,0.964734401785,-0.253970443265,-0.00190697387573,-0.0150848558554
5800000000.0,-0.0020437005488,-0.0153288073703,0.963565368988,-0.258336277911,0.963565368988,-0.258336277911,-0.0020437005488,-0.0153288073703
5900000000.0,-0.00218263935089,-0.0155716075226,0.962376357257,-0.262697289621,0.962376357257,-0.262697289621,-0.00218263935089,-0.0155716075226
6000000000.0,-0.00232377977493,-0.0158132338551,0.961167382939,-0.267053389044,0.961167382939,-0.267053389044,-0.00232377977493,-0.0158132338551
6100000000.0,-0.00246711109091,-0.0160536639493,0.959938462803,-0.271404486799,0.959938462803,-0.271404486799,-0.00246711109091,-0.0160536639493
6200000000.0,-0.00261262234478,-0.0162928754292,0.958689614037,-0.275750493476,0.958689614037,-0.275750493476,-0.00261262234478,-0.0162928754292
6300000000.0,-0.00276030235742,-0.0165308459654,0.957420854248,-0.28009131964,0.957420854248,-0.28009131964,-0.00276030235742,-0.0165308459654
6400000000.0,-0.00291013972379,-0.0167675532785,0.956132201462,-0.284426875836,0.956132201462,-0.284426875836,-0.00291013972379,-0.0167675532785
6500000000.0,-0.00306212281218,-0.0170029751434,0.954823674127,-0.288757072593,0.954823674127,-0.288757072593,-0.00306212281218,-0.0170029751434
6600000000.0,-0.00321623976356,-0.0172370893926,0.953495291107,-0.293081820424,0.953495291107,-0.293081820424,-0.00321623976356,-0.0172370893926
6700000000.0,-0.00337247849111,-0.0174698739201,0.95214707169,-0.297401029838,0.95214707169,-0.297401029838,-0.00337247849111,-0.0174698739201
6800000000.0,-0.00353082667969,-0.0177013066855,0.950779035579,-0.301714611334,0.950779035579,-0.301714611334,-0.00353082667969,-0.0177013066855
6900000000.0,-0.00369127178565,-0.0179313657171,0.949391202902,-0.306022475412,0.949391202902,-0.306022475412,-0.00369127178565,-0.0179313657171
7000000000.0,-0.00385380103646,-0.0181600291158,0.947983594204,-0.310324532574,0.947983594204,-0.310324532574,-0.00385380103646,-0.0181600291158
7100000000.0,-0.00401840143067,-0.0183872750588,0.946556230451,-0.314620693326,0.946556230451,-0.314620693326,-0.00401840143067,-0.0183872750588
7200000000.0,-0.00418505973781,-0.0186130818033,0.945109133031,-0.318910868185,0.945109133031,-0.318910868185,-0.00418505973781,-0.0186130818033
7300000000.0,-0.00435376249841,-0.0188374276898,0.943642323749,-0.323194967679,0.943642323749,-0.323194967679,-0.00435376249841,-0.0188374276898
7400000000.0,-0.00452449602413,-0.019060291146,0.942155824834,-0.327472902355,0.942155824834,-0.327472902355,-0.00452449602413,-0.019060291146
7500000000.0,-0.00469724639789,-0.0192816506899,0.940649658933,-0.331744582777,0.940649658933,-0.331744582777,-0.00469724639789,-0.0192816506899
7600000000.0,-0.00487199947421,-0.0195014849339,0.939123849117,-0.336009919533,0.939123849117,-0.336009919533,-0.00487199947421,-0.0195014849339
7700000000.0,-0.00504874087945,-0.0197197725877,0.937578418874,-0.340268823238,0.937578418874,-0.340268823238,-0.00504874087945,-0.0197197725877
7800000000.0,-0.00522745601225,-0.0199364924621,0.936013392116,-0.344521204535,0.936013392116,-0.344521204535,-0.00522745601225,-0.0199364924621
7900000000.0,-0.00540813004398,-0.0201516234726,0.934428793175,-0.348766974103,0.934428793175,-0.348766974103,-0.00540813004398,-0.0201516234726
8000000000.0,-0.0055907479193,-0.0203651446421,0.932824646802,-0.353006042654,0.932824646802,-0.353006042654,-0.0055907479193,-0.0203651446421
8100000000.0,-0.00577529435669,-0.0205770351053,0.931200978171,-0.357238320942,0.931200978171,-0.357238320942,-0.00577529435669,-0.0205770351053
8200000000.0,-0.00596175384914,-0.0207872741113,0.929557812876,-0.361463719762,0.929557812876,-0.361463719762,-0.00596175384914,-0.0207872741113
8300000000.0,-0.00615011066488,-0.020995841027,0.927895176934,-0.365682149957,0.927895176934,-0.365682149957,-0.00615011066488,-0.020995841027
8400000000.0,-0.00634034884811,-0.0212027153409,0.926213096779,-0.369893522418,0.926213096779,-0.369893522418,-0.00634034884811,-0.0212027153409
8500000000.0,-0.00653245221984,-0.021407876666,0.924511599268,-0.374097748088,0.924511599268,-0.374097748088,-0.00653245221984,-0.021407876666
8600000000.0,-0.00672640437882,-0.0216113047429,0.922790711679,-0.378294737965,0.922790711679,-0.378294737965,-0.00672640437882,-0.0216113047429
8700000000.0,-0.00692218870238,-0.0218129794438,0.921050461711,-0.382484403108,0.921050461711,-0.382484403108,-0.00692218870238,-0.0218129794438
8800000000.0,-0.00711978834755,-0.0220128807746,0.91929087748,-0.386666654632,0.91929087748,-0.386666654632,-0.00711978834755,-0.0220128807746
8900000000.0,-0.00731918625198,-0.0222109888792,0.917511987526,-0.390841403723,0.917511987526,-0.390841403723,-0.00731918625198,-0.0222109888792
9000000000.0,-0.00752036513512,-0.0224072840418,0.915713820808,-0.39500856163,0.915713820808,-0.39500856163,-0.00752036513512,-0.0224072840418
9100000000.0,-0.00772330749932,-0.0226017466907,0.913896406705,-0.399168039673,0.913896406705,-0.399168039673,-0.00772330749932,-0.0226017466907
9200000000.0,-0.00792799563106,-0.0227943574007,0.912059775015,-0.403319749248,0.912059775015,-0.403319749248,-0.00792799563106,-0.0227943574007
9300000000.0,-0.00813441160214,-0.0229850968971,0.910203955955,-0.407463601823,0.910203955955,-0.407463601823,-0.00813441160214,-0.0229850968971
9400000000.0,-0.00834253727104,-0.0231739460577,0.908328980164,-0.411599508948,0.908328980164,-0.411599508948,-0.00834253727104,-0.0231739460577
9500000000.0,-0.00855235428418,-0.0233608859169,0.906434878697,-0.415727382255,0.906434878697,-0.415727382255,-0.00855235428418,-0.0233608859169
9600000000.0,-0.00876384407736,-0.0235458976678,0.90452168303,-0.41984713346,0.90452168303,-0.41984713346,-0.00876384407736,-0.0235458976678
9700000000.0,-0.00897698787716,-0.0237289626658,0.902589425056,-0.423958674367,0.902589425056,-0.423958674367,-0.00897698787716,-0.0237289626658
9800000000.0,-0.00919176670242,-0.0239100624312,0.900638137086,-0.42806191687,0.900638137086,-0.42806191687,-0.00919176670242,-0.0239100624312
9900000000.0,-0.00940816136571,-0.0240891786524,0.89866785185,-0.432156772958,0.89866785185,-0.432156772958,-0.00940816136571,-0.0240891786524
10000000000.0,-0.009626152475,-0.0242662931884,0.896678602495,-0.436243154712,0.896678602495,-0.436243154712,-0.009626152475,-0.0242662931884
