freq (GHz),S11_real,S11_imag,S21_real,S21_imag,S12_real,S12_imag,S22_real,S22_imag
100000000.0,-0.000369134404712,-0.019600451955,0.999539708147,-0.0201174914121,0.999539708147,-0.0201174914121,-0.000369134404712,-0.019600451955
200000000.0,-0.00157005134709,-0.0391532634438,0.998337769778,-0.0401874881112,0.998337769778,-0.0401874881112,-0.00157005134709,-0.0391532634438
300000000.0,-0.00355259366966,-0.0586123687655,0.996354094881,-0.0601640008045,0.996354094881,-0.0601640008045,-0.00355259366966,-0.0586123687655
400000000.0,-0.00630761514066,-0.0779323250709,0.993597750844,-0.0800016452022,0.993597750844,-0.0800016452022,-0.00630761514066,-0.0779323250709
500000000.0,-0.00982251357714,-0.0970686973096,0.990081309231,-0.0996560354634,0.990081309231,-0.0996560354634,-0.00982251357714,-0.0970686973096
600000000.0,-0.0140813499575,-0.115978400855,0.985820693155,-0.119084129811,0.985820693155,-0.119084129811,-0.0140813499575,-0.115978400855
700000000.0,-0.0190650177409,-0.134620015972,0.980834999457,-0.138244546547,0.980834999457,-0.138244546547,-0.0190650177409,-0.134620015972
800000000.0,-0.0247514482588,-0.152954073687,0.975146290231,-0.157097850855,0.975146290231,-0.157097850855,-0.0247514482588,-0.152954073687
900000000.0,-0.0311158457952,-0.170943310643,0.968779356368,-0.175606810301,0.968779356368,-0.175606810301,-0.0311158457952,-0.170943310643
1000000000.0,-0.0381309469879,-0.188552890554,0.961761457468,-0.193736616734,0.961761457468,-0.193736616734,-0.0381309469879,-0.188552890554
1100000000.0,-0.0457672992814,-0.205750590304,0.954122043001,-0.211455072748,0.954122043001,-0.211455072748,-0.0457672992814,-0.205750590304
1200000000.0,-0.0539935531435,-0.222506949498,0.945892459871,-0.228732741497,0.945892459871,-0.228732741497,-0.0539935531435,-0.222506949498
1300000000.0,-0.0627767628089,-0.23879538296,0.937105651529,-0.245543059425,0.937105651529,-0.245543059425,-0.0627767628089,-0.23879538296
1400000000.0,-0.0720826904609,-0.254592256465,0.927795853699,-0.261862412187,0.927795853699,-0.261862412187,-0.0720826904609,-0.254592256465
1500000000.0,-0.0818761090283,-0.269876926676,0.91799829152,-0.277670174745,0.91799829152,-0.277670174745,-0.0818761090283,-0.269876926676
1600000000.0,-0.0921210991286,-0.284631746892,0.907748882563,-0.292948717257,0.907748882563,-0.292948717257,-0.0921210991286,-0.284631746892
1700000000.0,-0.102781336135,-0.298842040777,0.897083949734,-0.307683378931,0.897083949734,-0.307683378931,-0.102781336135,-0.298842040777
1800000000.0,-0.113820363848,-0.312496046694,0.886039947577,-0.321862412465,0.886039947577,-0.321862412465,-0.113820363848,-0.312496046694
1900000000.0,-0.125201851791,-0.325584835586,0.874653204967,-0.335476902028,0.874653204967,-0.335476902028,-0.125201851791,-0.325584835586
2000000000.0,-0.136889833731,-0.338102205649,0.862959686573,-0.348520658026,0.862959686573,-0.348520658026,-0.136889833731,-0.338102205649
2100000000.0,-0.14884892558,-0.35004455714,0.850994774954,-0.36099009198,0.850994774954,-0.36099009198,-0.14884892558,-0.35004455714
2200000000.0,-0.16104452139,-0.361410750724,0.83879307455,-0.37288407496,0.83879307455,-0.37288407496,-0.16104452139,-0.361410750724
2300000000.0,-0.173442966688,-0.372201952761,0.82638823835,-0.38420378293,0.82638823835,-0.38420378293,-0.173442966688,-0.372201952761
2400000000.0,-0.186011708867,-0.382421470772,0.813812817486,-0.394952532281,0.813812817486,-0.394952532281,-0.186011708867,-0.382421470772
2500000000.0,-0.198719424803,-0.392074582212,0.801098133627,-0.405135608661,0.801098133627,-0.405135608661,-0.198719424803,-0.392074582212
2600000000.0,-0.211536126216,-0.401168359409,0.788274173602,-0.414760091967,0.788274173602,-0.414760091967,-0.211536126216,-0.401168359409
2700000000.0,-0.224433243656,-0.409711493311,0.775369505421,-0.423834680142,0.775369505421,-0.423834680142,-0.224433243656,-0.409711493311
2800000000.0,-0.237383690215,-0.417714118375,0.762411214554,-0.43236951411,0.762411214554,-0.43236951411,-0.237383690215,-0.417714118375
2900000000.0,-0.250361906307,-0.425187640662,0.749424859159,-0.440376005915,0.749424859159,-0.440376005915,-0.250361906307,-0.425187640662
3000000000.0,-0.263343886973,-0.432144570885,0.73643444277,-0.447866671807,0.73643444277,-0.447866671807,-0.263343886973,-0.432144570885
3100000000.0,-0.276307193296,-0.438598363874,0.723462402877,-0.454854971745,0.723462402877,-0.454854971745,-0.276307193296,-0.438598363874
3200000000.0,-0.289230949556,-0.444563265635,0.710529613782,-0.461355156493,0.710529613782,-0.461355156493,-0.289230949556,-0.444563265635
3300000000.0,-0.302095827751,-0.450054168922,0.697655402064,-0.467382123221,0.697655402064,-0.467382123221,-0.302095827751,-0.450054168922
3400000000.0,-0.314884021126,-0.455086477977,0.684857573062,-0.472951280277,0.684857573062,-0.472951280277,-0.314884021126,-0.455086477977
3500000000.0,-0.32757920826,-0.459675982886,0.672152446777,-0.478078421573,0.672152446777,-0.478078421573,-0.32757920826,-0.459675982886
3600000000.0,-0.340166509238,-0.463838743803,0.659554901706,-0.482779610832,0.659554901706,-0.482779610832,-0.340166509238,-0.463838743803
3700000000.0,-0.352632435301,-0.46759098509,0.647078425189,-0.487071075755,0.647078425189,-0.487071075755,-0.352632435301,-0.46759098509
3800000000.0,-0.364964833301,-0.470948999317,0.634735168955,-0.490969112044,0.634735168955,-0.490969112044,-0.364964833301,-0.470948999317
3900000000.0,-0.377152826164,-0.473929060901,0.622536008655,-0.494489997062,0.622536008655,-0.494489997062,-0.377152826164,-0.473929060901
4000000000.0,-0.389186750458,-0.476547349088,0.610490606301,-0.497649912835,0.610490606301,-0.497649912835,-0.389186750458,-0.476547349088
4100000000.0,-0.401058092031,-0.478819879882,0.598607474618,-0.500464878001,0.598607474618,-0.500464878001,-0.401058092031,-0.478819879882
4200000000.0,-0.412759420611,-0.480762446475,0.586894042455,-0.502950688254,0.586894042455,-0.502950688254,-0.412759420611,-0.480762446475
4300000000.0,-0.424284324101,-0.482390567683,0.575356720476,-0.505122864804,0.575356720476,-0.505122864804,-0.424284324101,-0.482390567683
4400000000.0,-0.43562734324,-0.483719443867,0.564000966513,-0.506996610303,0.564000966513,-0.506996610303,-0.43562734324,-0.483719443867
4500000000.0,-0.446783907175,-0.484763919786,0.552831349983,-0.50858677172,0.552831349983,-0.50858677172,-0.446783907175,-0.484763919786
4600000000.0,-0.45775027042,-0.485538453847,0.541851614934,-0.509907809601,0.541851614934,-0.509907809601,-0.45775027042,-0.485538453847
4700000000.0,-0.468523451569,-0.486057093201,0.531064741329,-0.510973773178,0.531064741329,-0.510973773178,-0.468523451569,-0.486057093201
4800000000.0,-0.479101174083,-0.486333454157,0.52047300426,-0.511798280797,0.52047300426,-0.511798280797,-0.479101174083,-0.486333454157
4900000000.0,-0.489481809387,-0.486380707394,0.510078030852,-0.512394505134,0.510078030852,-0.512394505134,-0.489481809387,-0.486380707394
5000000000.0,-0.499664322443,-0.486211567477,0.499880854688,-0.512775162728,0.499880854688,-0.512775162728,-0.499664322443,-0.486211567477
5100000000.0,-0.509648219937,-0.485838286211,0.48988196762,-0.512952507341,0.48988196762,-0.512952507341,-0.509648219937,-0.485838286211
5200000000.0,-0.519433501157,-0.485272649387,0.480081368895,-0.512938326713,0.480081368895,-0.512938326713,-0.519433501157,-0.485272649387
5300000000.0,-0.529020611595,-0.484525976517,0.470478611549,-0.512743942302,0.470478611549,-0.512743942302,-0.529020611595,-0.484525976517
5400000000.0,-0.53841039928,-0.483609123154,0.461072846074,-0.51238021162,0.461072846074,-0.51238021162,-0.53841039928,-0.483609123154
5500000000.0,-0.547604073828,-0.482532485474,0.451862861372,-0.511857532811,0.451862861372,-0.511857532811,-0.547604073828,-0.482532485474
5600000000.0,-0.556603168147,-0.481306006762,0.442847123043,-0.511185851151,0.442847123043,-0.511185851151,-0.556603168147,-0.481306006762
5700000000.0,-0.565409502744,-0.479939185542,0.434023809081,-0.510374667179,0.434023809081,-0.510374667179,-0.565409502744,-0.479939185542
5800000000.0,-0.574025152552,-0.478441085049,0.42539084305,-0.509433046179,0.42539084305,-0.509433046179,-0.574025152552,-0.478441085049
5900000000.0,-0.582452416176,-0.476820343829,0.416945924832,-0.508369628781,0.416945924832,-0.508369628781,-0.582452416176,-0.476820343829
6000000000.0,-0.590693787467,-0.475085187239,0.408686559054,-0.507192642469,0.408686559054,-0.507192642469,-0.590693787467,-0.475085187239
6100000000.0,-0.598751929314,-0.473243439653,0.400610081299,-0.505909913785,0.400610081299,-0.505909913785,-0.598751929314,-0.473243439653
6200000000.0,-0.606629649538,-0.471302537203,0.392713682208,-0.504528881082,0.392713682208,-0.504528881082,-0.606629649538,-0.471302537203
6300000000.0,-0.614329878784,-0.469269540912,0.38499442959,-0.503056607656,0.38499442959,-0.503056607656,-0.614329878784,-0.469269540912
6400000000.0,-0.621855650285,-0.467151150075,0.377449288655,-0.501499795131,0.377449288655,-0.501499795131,-0.621855650285,-0.467151150075
6500000000.0,-0.6292100814,-0.464953715783,0.37007514048,-0.499864796985,0.37007514048,-0.499864796985,-0.6292100814,-0.464953715783
6600000000.0,-0.636396356799,-0.46268325448,0.362868798818,-0.498157632112,0.362868798818,-0.498157632112,-0.636396356799,-0.46268325448
6700000000.0,-0.643417713205,-0.460345461477,0.355827025361,-0.496383998335,0.355827025361,-0.496383998335,-0.643417713205,-0.460345461477
6800000000.0,-0.650277425566,-0.457945724341,0.348946543566,-0.494549285801,0.348946543566,-0.494549285801,-0.650277425566,-0.457945724341
6900000000.0,-0.656978794577,-0.4554891361,0.342224051131,-0.492658590185,0.342224051131,-0.492658590185,-0.656978794577,-0.4554891361
7000000000.0,-0.663525135439,-0.452980508216,0.335656231235,-0.490716725668,0.335656231235,-0.490716725668,-0.663525135439,-0.452980508216
7100000000.0,-0.669919767775,-0.450424383282,0.329239762626,-0.488728237633,0.329239762626,-0.488728237633,-0.669919767775,-0.450424383282
7200000000.0,-0.676166006607,-0.447825047397,0.322971328641,-0.486697415042,0.322971328641,-0.486697415042,-0.676166006607,-0.447825047397
7300000000.0,-0.682267154307,-0.445186542211,0.316847625255,-0.484628302482,0.316847625255,-0.484628302482,-0.682267154307,-0.445186542211
7400000000.0,-0.688226493464,-0.442512676602,0.310865368212,-0.482524711845,0.310865368212,-0.482524711845,-0.688226493464,-0.442512676602
7500000000.0,-0.694047280564,-0.439807037977,0.305021299347,-0.48039023363,0.305021299347,-0.48039023363,-0.694047280564,-0.439807037977
7600000000.0,-0.699732740441,-0.437073003186,0.299312192135,-0.478228247856,0.299312192135,-0.478228247856,-0.699732740441,-0.437073003186
7700000000.0,-0.705286061414,-0.434313749041,0.293734856552,-0.476041934579,0.293734856552,-0.476041934579,-0.705286061414,-0.434313749041
7800000000.0,-0.710710391065,-0.431532262425,0.288286143296,-0.473834284011,0.288286143296,-0.473834284011,-0.710710391065,-0.431532262425
7900000000.0,-0.71600883259,-0.428731350019,0.282962947438,-0.47160810624,0.282962947438,-0.47160810624,-0.71600883259,-0.428731350019
8000000000.0,-0.721184441682,-0.425913647616,0.277762211538,-0.469366040544,0.277762211538,-0.469366040544,-0.721184441682,-0.425913647616
8100000000.0,-0.726240223887,-0.423081629049,0.272680928291,-0.467110564326,0.272680928291,-0.467110564326,-0.726240223887,-0.423081629049
8200000000.0,-0.731179132391,-0.42023761473,0.267716142731,-0.464844001645,0.267716142731,-0.464844001645,-0.731179132391,-0.42023761473
8300000000.0,-0.73600406621,-0.417383779807,0.26286495405,-0.462568531383,0.26286495405,-0.462568531383,-0.73600406621,-0.417383779807
8400000000.0,-0.740717868723,-0.414522161955,0.258124517065,-0.460286195027,0.258124517065,-0.460286195027,-0.740717868723,-0.414522161955
8500000000.0,-0.745323326527,-0.411654668801,0.253492043352,-0.457998904099,0.253492043352,-0.457998904099,-0.745323326527,-0.411654668801
8600000000.0,-0.749823168582,-0.408783085,0.248964802114,-0.455708447231,0.248964802114,-0.455708447231,-0.749823168582,-0.408783085
8700000000.0,-0.754220065609,-0.405909078971,0.244540120774,-0.453416496901,0.244540120774,-0.453416496901,-0.754220065609,-0.405909078971
8800000000.0,-0.75851662972,-0.403034209305,0.240215385348,-0.451124615843,0.240215385348,-0.451124615843,-0.75851662972,-0.403034209305
8900000000.0,-0.762715414252,-0.400159930857,0.235988040609,-0.448834263136,0.235988040609,-0.448834263136,-0.762715414252,-0.400159930857
9000000000.0,-0.766818913786,-0.397287600531,0.231855590069,-0.446546799992,0.231855590069,-0.446546799992,-0.766818913786,-0.397287600531
9100000000.0,-0.770829564325,-0.394418482779,0.227815595803,-0.44426349525,0.227815595803,-0.44426349525,-0.770829564325,-0.394418482779
9200000000.0,-0.774749743615,-0.391553754808,0.223865678121,-0.44198553059,0.223865678121,-0.44198553059,-0.774749743615,-0.391553754808
9300000000.0,-0.778581771592,-0.38869451153,0.220003515127,-0.439714005476,0.220003515127,-0.439714005476,-0.778581771592,-0.38869451153
9400000000.0,-0.782327910942,-0.385841770247,0.216226842157,-0.437449941845,0.216226842157,-0.437449941845,-0.782327910942,-0.385841770247
9500000000.0,-0.785990367752,-0.382996475093,0.212533451126,-0.43519428855,0.212533451126,-0.43519428855,-0.785990367752,-0.382996475093
9600000000.0,-0.789571292247,-0.380159501241,0.208921189794,-0.432947925562,0.208921189794,-0.432947925562,-0.789571292247,-0.380159501241
9700000000.0,-0.793072779596,-0.377331658887,0.205387960955,-0.430711667958,0.205387960955,-0.430711667958,-0.793072779596,-0.377331658887
9800000000.0,-0.796496870779,-0.37451369702,0.201931721573,-0.428486269687,0.201931721573,-0.428486269687,-0.796496870779,-0.37451369702
9900000000.0,-0.799845553508,-0.371706306986,0.198550481861,-0.426272427141,0.198550481861,-0.426272427141,-0.799845553508,-0.371706306986
10000000000.0,-0.80312076319,-0.368910125868,0.195242304317,-0.424070782525,0.195242304317,-0.424070782525,-0.80312076319,-0.368910125868
