freq (GHz),S11_real,S11_imag,S21_real,S21_imag,S12_real,S12_imag,S22_real,S22_imag
100000000.0,0.0485287122265,0.00320112325546,0.951468588614,-0.00432982396282,0.951468588614,-0.00432982396282,0.0485287122265,0.00320112325546
200000000.0,0.0488761399504,0.00639709634796,0.951118165768,-0.00865451056973,0.951118165768,-0.00865451056973,0.0488761399504,0.00639709634796
300000000.0,0.0491699423053,0.0095895592657,0.950820071973,-0.0129757091258,0.950820071973,-0.0129757091258,0.0491699423053,0.0095895592657
400000000.0,0.0494504542208,0.0127788690099,0.950533971985,-0.0172937845235,0.950533971985,-0.0172937845235,0.0494504542208,0.0127788690099
500000000.0,0.0497332256059,0.015965084319,0.95024431558,-0.0216088026744,0.95024431558,-0.0216088026744,0.0497332256059,0.015965084319
600000000.0,0.0500261860608,0.0191481321058,0.949943172832,-0.0259206971947,0.949943172832,-0.0259206971947,0.0500261860608,0.0191481321058
700000000.0,0.0503340124807,0.0223278672864,0.949625866504,-0.0302293293601,0.949625866504,-0.0302293293601,0.0503340124807,0.0223278672864
800000000.0,0.0506597244289,0.025504100567,0.949289376668,-0.034534515969,0.949289376668,-0.034534515969,0.0506597244289,0.025504100567
900000000.0,0.0510053950322,0.0286766134011,0.948931629814,-0.0388360443493,0.948931629814,-0.0388360443493,0.0510053950322,0.0286766134011
1000000000.0,0.051372511587,0.0318451668738,0.948551138236,-0.0431336812777,0.948551138236,-0.0431336812777,0.051372511587,0.0318451668738
1100000000.0,0.0517621761609,0.0350095073709,0.948146799435,-0.0474271786749,0.948146799435,-0.0474271786749,0.0517621761609,0.0350095073709
1200000000.0,0.0521752252118,0.0381693703998,0.947717776497,-0.051716277446,0.947717776497,-0.051716277446,0.0521752252118,0.0381693703998
1300000000.0,0.0526123049016,0.0413244832798,0.947263422782,-0.0560007101868,0.947263422782,-0.0560007101868,0.0526123049016,0.0413244832798
1400000000.0,0.0530739206378,0.0444745671064,0.946783232376,-0.0602802031602,0.946783232376,-0.0602802031602,0.0530739206378,0.0444745671064
1500000000.0,0.0535604708607,0.0476193382293,0.94627680631,-0.0645544777845,0.94627680631,-0.0645544777845,0.0535604708607,0.0476193382293
1600000000.0,0.0540722707953,0.0507585093935,0.945743828807,-0.0688232517836,0.945743828807,-0.0688232517836,0.0540722707953,0.0507585093935
1700000000.0,0.0546095695862,0.0538917906423,0.945184050143,-0.0730862400963,0.945184050143,-0.0730862400963,0.0546095695862,0.0538917906423
1800000000.0,0.0551725629385,0.0570188900445,0.944597274013,-0.0773431556106,0.944597274013,-0.0773431556106,0.0551725629385,0.0570188900445
1900000000.0,0.0557614026278,0.060139514292,0.943983348013,-0.0815937097663,0.943983348013,-0.0815937097663,0.0557614026278,0.060139514292
2000000000.0,0.0563762037786,0.0632533691991,0.943342156368,-0.085837613059,0.943342156368,-0.085837613059,0.0563762037786,0.0632533691991
2100000000.0,0.0570170505222,0.0663601601248,0.942673614273,-0.0900745754663,0.942673614273,-0.0900745754663,0.0570170505222,0.0663601601248
2200000000.0,0.0576840004561,0.0694595923358,0.941977663431,-0.094304306815,0.941977663431,-0.094304306815,0.0576840004561,0.0694595923358
2300000000.0,0.0583770882029,0.0725513713223,0.941254268498,-0.0985265170995,0.941254268498,-0.0985265170995,0.0583770882029,0.0725513713223
2400000000.0,0.0590963282838,0.0756352030748,0.940503414204,-0.102740916762,0.940503414204,-0.102740916762,0.0590963282838,0.0756352030748
2500000000.0,0.0598417174638,0.0787107943304,0.939725103015,-0.106947216942,0.939725103015,-0.106947216942,0.0598417174638,0.0787107943304
2600000000.0,0.0606132366841,0.0817778527937,0.938919353195,-0.111145129697,0.938919353195,-0.111145129697,0.0606132366841,0.0817778527937
2700000000.0,0.0614108526689,0.0848360873355,0.938086197204,-0.115334368207,0.938086197204,-0.115334368207,0.0614108526689,0.0848360873355
2800000000.0,0.0622345192744,0.0878852081745,0.937225680345,-0.119514646956,0.937225680345,-0.119514646956,0.0622345192744,0.0878852081745
2900000000.0,0.0630841786293,0.0909249270431,0.936337859623,-0.1236856819,0.936337859623,-0.1236856819,0.0630841786293,0.0909249270431
3000000000.0,0.0639597621073,0.0939549573408,0.935422802779,-0.127847190621,0.935422802779,-0.127847190621,0.0639597621073,0.0939549573408
3100000000.0,0.0648611911624,0.0969750142756,0.934480587448,-0.131998892475,0.934480587448,-0.131998892475,0.0648611911624,0.0969750142756
3200000000.0,0.0657883780518,0.0999848149964,0.93351130044,-0.136140508716,0.93351130044,-0.136140508716,0.0657883780518,0.0999848149964
3300000000.0,0.0667412264655,0.102984078716,0.932515037108,-0.140271762633,0.932515037108,-0.140271762633,0.0667412264655,0.102984078716
3400000000.0,0.067719632079,0.105972526828,0.931491900797,-0.144392379654,0.931491900797,-0.144392379654,0.067719632079,0.105972526828
3500000000.0,0.0687234830408,0.108949883013,0.930442002358,-0.148502087469,0.930442002358,-0.148502087469,0.0687234830408,0.108949883013
3600000000.0,0.069752660406,0.111915873345,0.92936545971,-0.152600616123,0.92936545971,-0.152600616123,0.069752660406,0.111915873345
3700000000.0,0.0708070385243,0.114870226386,0.928262397457,-0.15668769812,0.928262397457,-0.15668769812,0.0708070385243,0.114870226386
3800000000.0,0.0718864853883,0.117812673278,0.927132946537,-0.160763068515,0.927132946537,-0.160763068515,0.0718864853883,0.117812673278
3900000000.0,0.0729908629496,0.120742947834,0.925977243906,-0.164826465004,0.925977243906,-0.164826465004,0.0729908629496,0.120742947834
4000000000.0,0.0741200274059,0.123660786615,0.924795432252,-0.168877628002,0.924795432252,-0.168877628002,0.0741200274059,0.123660786615
4100000000.0,0.0752738294647,0.126565929015,0.923587659731,-0.172916300732,0.923587659731,-0.172916300732,0.0752738294647,0.126565929015
4200000000.0,0.0764521145849,0.129458117332,0.922354079727,-0.176942229291,0.922354079726,-0.176942229291,0.0764521145849,0.129458117332
4300000000.0,0.0776547232013,0.132337096844,0.921094850622,-0.180955162732,0.921094850622,-0.180955162732,0.0776547232013,0.132337096844
4400000000.0,0.0788814909331,0.135202615872,0.919810135595,-0.184954853126,0.919810135595,-0.184954853126,0.0788814909331,0.135202615872
4500000000.0,0.0801322487784,0.138054425849,0.918500102423,-0.188941055631,0.918500102423,-0.188941055631,0.0801322487784,0.138054425849
4600000000.0,0.0814068232975,0.140892281383,0.9171649233,-0.192913528554,0.9171649233,-0.192913528554,0.0814068232975,0.140892281383
4700000000.0,0.0827050367849,0.143715940311,0.915804774661,-0.196872033413,0.915804774661,-0.196872033413,0.0827050367849,0.143715940311
4800000000.0,0.0840267074332,0.146525163761,0.914419837024,-0.200816334987,0.914419837024,-0.200816334987,0.0840267074332,0.146525163761
4900000000.0,0.0853716494878,0.149319716201,0.913010294832,-0.204746201381,0.913010294832,-0.204746201381,0.0853716494878,0.149319716201
5000000000.0,0.0867396733955,0.152099365496,0.911576336304,-0.208661404067,0.911576336304,-0.208661404067,0.0867396733955,0.152099365496
5100000000.0,0.088130585946,0.154863882949,0.910118153295,-0.212561717939,0.910118153295,-0.212561717939,0.088130585946,0.154863882949
5200000000.0,0.0895441904081,0.157613043351,0.908635941158,-0.216446921358,0.908635941158,-0.216446921358,0.0895441904081,0.157613043351
5300000000.0,0.0909802866612,0.160346625025,0.907129898617,-0.220316796196,0.907129898617,-0.220316796196,0.0909802866612,0.160346625025
5400000000.0,0.0924386713217,0.163064409867,0.905600227634,-0.224171127877,0.905600227634,-0.224171127877,0.0924386713217,0.163064409867
5500000000.0,0.093919137866,0.165766183381,0.904047133291,-0.228009705416,0.904047133291,-0.228009705416,0.093919137866,0.165766183381
5600000000.0,0.0954214767492,0.168451734723,0.902470823671,-0.231832321458,0.902470823671,-0.231832321458,0.0954214767492,0.168451734723
5700000000.0,0.0969454755214,0.171120856725,0.900871509739,-0.23563877231,0.900871509739,-0.23563877231,0.0969454755214,0.171120856725
5800000000.0,0.09849091894,0.173773345939,0.899249405232,-0.239428857976,0.899249405232,-0.239428857976,0.09849091894,0.173773345939
5900000000.0,0.10005758908,0.176409002657,0.897604726547,-0.243202382185,0.897604726547,-0.243202382185,0.10005758908,0.176409002657
6000000000.0,0.101645265443,0.179027630943,0.895937692636,-0.246959152423,0.895937692636,-0.246959152423,0.101645265443,0.179027630943
6100000000.0,0.10325372506,0.181629038662,0.894248524898,-0.250698979953,0.894248524898,-0.250698979953,0.10325372506,0.181629038662
6200000000.0,0.104882742595,0.184213037496,0.892537447076,-0.254421679846,0.892537447076,-0.254421679846,0.104882742595,0.184213037496
6300000000.0,0.106532090451,0.186779442974,0.890804685159,-0.258127070998,0.890804685159,-0.258127070998,0.106532090451,0.186779442974
6400000000.0,0.108201538861,0.189328074486,0.889050467277,-0.261814976153,0.889050467277,-0.261814976153,0.108201538861,0.189328074486
6500000000.0,0.109890855994,0.191858755303,0.887275023609,-0.26548522192,0.887275023609,-0.26548522192,0.109890855994,0.191858755303
6600000000.0,0.111599808048,0.194371312595,0.885478586283,-0.269137638789,0.885478586283,-0.269137638789,0.111599808048,0.194371312595
6700000000.0,0.113328159341,0.19686557744,0.883661389281,-0.272772061146,0.883661389281,-0.272772061146,0.113328159341,0.19686557744
6800000000.0,0.115075672411,0.199341384842,0.88182366835,-0.276388327286,0.88182366835,-0.276388327286,0.115075672411,0.199341384842
6900000000.0,0.116842108103,0.201798573735,0.879965660906,-0.279986279423,0.879965660906,-0.279986279423,0.116842108103,0.201798573735
7000000000.0,0.118627225661,0.204236986999,0.878087605945,-0.283565763697,0.878087605945,-0.283565763697,0.118627225661,0.204236986999
7100000000.0,0.120430782817,0.206656471462,0.876189743954,-0.287126630186,0.876189743954,-0.287126630186,0.120430782817,0.206656471462
7200000000.0,0.122252535879,0.209056877904,0.874272316824,-0.290668732906,0.874272316824,-0.290668732906,0.122252535879,0.209056877904
7300000000.0,0.12409223982,0.211438061064,0.87233556776,-0.294191929817,0.87233556776,-0.294191929817,0.12409223982,0.211438061064
7400000000.0,0.125949648358,0.213799879642,0.870379741199,-0.297696082827,0.870379741199,-0.297696082827,0.125949648358,0.213799879642
7500000000.0,0.127824514046,0.216142196295,0.868405082725,-0.301181057788,0.868405082725,-0.301181057788,0.127824514046,0.216142196295
7600000000.0,0.129716588352,0.218464877638,0.866411838982,-0.304646724497,0.866411838982,-0.304646724497,0.129716588352,0.218464877638
7700000000.0,0.131625621745,0.220767794241,0.864400257596,-0.308092956695,0.864400257596,-0.308092956695,0.131625621745,0.220767794241
7800000000.0,0.13355136377,0.223050820624,0.862370587094,-0.311519632058,0.862370587094,-0.311519632058,0.13355136377,0.223050820624
7900000000.0,0.135493563133,0.22531383525,0.860323076822,-0.314926632195,0.860323076822,-0.314926632195,0.135493563133,0.22531383525
8000000000.0,0.137451967779,0.227556720519,0.858257976865,-0.318313842637,0.858257976865,-0.318313842637,0.137451967779,0.227556720519
8100000000.0,0.139426324968,0.229779362757,0.856175537972,-0.321681152833,0.856175537972,-0.321681152833,0.139426324968,0.229779362757
8200000000.0,0.141416381353,0.231981652205,0.85407601148,-0.325028456133,0.85407601148,-0.325028456133,0.141416381353,0.231981652205
8300000000.0,0.143421883056,0.234163483011,0.851959649234,-0.328355649782,0.851959649234,-0.328355649782,0.143421883056,0.234163483011
8400000000.0,0.14544257574,0.236324753209,0.849826703516,-0.331662634901,0.849826703516,-0.331662634901,0.14544257574,0.236324753209
8500000000.0,0.147478204686,0.238465364713,0.847677426972,-0.33494931648,0.847677426972,-0.33494931648,0.147478204686,0.238465364713
8600000000.0,0.149528514864,0.240585223293,0.845512072536,-0.338215603355,0.845512072536,-0.338215603355,0.149528514864,0.240585223293
8700000000.0,0.151593251004,0.242684238564,0.843330893364,-0.341461408192,0.843330893364,-0.341461408192,0.151593251004,0.242684238564
8800000000.0,0.153672157664,0.244762323963,0.841134142757,-0.344686647473,0.841134142757,-0.344686647473,0.153672157664,0.244762323963
8900000000.0,0.155764979303,0.246819396729,0.838922074099,-0.347891241472,0.838922074099,-0.347891241472,0.155764979303,0.246819396729
9000000000.0,0.157871460348,0.248855377888,0.836694940784,-0.351075114233,0.836694940784,-0.351075114233,0.157871460348,0.248855377888
9100000000.0,0.159991345258,0.250870192221,0.834452996151,-0.354238193554,0.834452996151,-0.354238193554,0.159991345258,0.250870192221
9200000000.0,0.162124378593,0.252863768249,0.832196493419,-0.357380410957,0.832196493419,-0.357380410957,0.162124378593,0.252863768249
9300000000.0,0.164270305079,0.254836038205,0.829925685621,-0.360501701667,0.829925685621,-0.360501701667,0.164270305079,0.254836038205
9400000000.0,0.166428869667,0.256786938008,0.827640825541,-0.363602004588,0.827640825541,-0.363602004588,0.166428869667,0.256786938008
9500000000.0,0.1685998176,0.258716407238,0.82534216565,-0.366681262273,0.82534216565,-0.366681262273,0.1685998176,0.258716407238
9600000000.0,0.170782894473,0.260624389108,0.823029958048,-0.369739420899,0.823029958048,-0.369739420899,0.170782894473,0.260624389108
9700000000.0,0.172977846292,0.262510830433,0.820704454401,-0.372776430238,0.820704454401,-0.372776430238,0.172977846292,0.262510830433
9800000000.0,0.175184419535,0.264375681607,0.818365905883,-0.375792243626,0.818365905883,-0.375792243626,0.175184419535,0.264375681607
9900000000.0,0.177402361208,0.266218896562,0.816014563119,-0.378786817938,0.816014563119,-0.378786817938,0.177402361208,0.266218896562
10000000000.0,0.179631418902,0.26804043275,0.813650676126,-0.381760113549,0.813650676126,-0.381760113549,0.179631418902,0.26804043275
