freq (GHz),S11_real,S11_imag,S21_real,S21_imag,S12_real,S12_imag,S22_real,S22_imag
100000000.0,-0.000284225234164,-0.0167168832187,0.999688967409,-0.0167718394599,0.999688967409,-0.0167718394599,-0.000284225234164,-0.0167168832187
200000000.0,-0.00114113841652,-0.0334039205121,0.998831866689,-0.0335138385979,0.998831866689,-0.0335138385979,-0.00114113841652,-0.0334039205121
300000000.0,-0.00255495997549,-0.0500328452435,0.997417900715,-0.0501977336905,0.997417900715,-0.0501977336905,-0.00255495997549,-0.0500328452435
400000000.0,-0.00452080670122,-0.0665757938732,0.995451929652,-0.0667956634428,0.995451929652,-0.0667956634428,-0.00452080670122,-0.0665757938732
500000000.0,-0.00703196936023,-0.0830054257154,0.992940653903,-0.0832802890723,0.992940653903,-0.0832802890723,-0.00703196936023,-0.0830054257154
600000000.0,-0.010079967637,-0.099295058944,0.989892549303,-0.0996249304294,0.989892549303,-0.0996249304294,-0.010079967637,-0.099295058944
700000000.0,-0.0136546217427,-0.115418804795,0.986317793006,-0.115803700257,0.986317793006,-0.115803700257,-0.0136546217427,-0.115418804795
800000000.0,-0.0177441371502,-0.131351695122,0.98222817784,-0.131791631785,0.98222817784,-0.131791631785,-0.0177441371502,-0.131351695122
900000000.0,-0.0223352008475,-0.147069800809,0.977637015649,-0.147564797155,0.977637015649,-0.147564797155,-0.0223352008475,-0.147069800809
1000000000.0,-0.0274130876507,-0.16255033939,0.972559030775,-0.163100415072,0.972559030775,-0.163100415072,-0.0274130876507,-0.16255033939
1100000000.0,-0.0329617750694,-0.177771770761,0.96701024508,-0.178376946512,0.96701024508,-0.178376946512,-0.0329617750694,-0.177771770761
1200000000.0,-0.0389640651405,-0.192713880108,0.961007856043,-0.193374177671,0.961007856043,-0.193374177671,-0.0389640651405,-0.192713880108
1300000000.0,-0.0454017116185,-0.207357847553,0.954570109527,-0.208073289613,0.954570109527,-0.208073289613,-0.0454017116185,-0.207357847553
1400000000.0,-0.0522555508823,-0.221686304188,0.947716168848,-0.222456914312,0.947716168848,-0.222456914312,-0.0522555508823,-0.221686304188
1500000000.0,-0.0595056349541,-0.235683374475,0.940465981733,-0.236509177055,0.940465981733,-0.236509177055,-0.0595056349541,-0.235683374475
1600000000.0,-0.0671313650651,-0.249334705135,0.932840146744,-0.250215725336,0.932840146744,-0.250215725336,-0.0671313650651,-0.249334705135
1700000000.0,-0.0751116242913,-0.262627480905,0.924859780631,-0.263563744618,0.924859780631,-0.263563744618,-0.0751116242913,-0.262627480905
1800000000.0,-0.0834249078696,-0.275550427668,0.91654638801,-0.276541961463,0.91654638801,-0.276541961463,-0.0834249078696,-0.275550427668
1900000000.0,-0.0920494499354,-0.28809380364,0.907921734618,-0.289140634725,0.907921734618,-0.289140634725,-0.0920494499354,-0.28809380364
2000000000.0,-0.100963345551,-0.300249379411,0.899007725285,-0.301351535591,0.899007725285,-0.301351535591,-0.100963345551,-0.300249379411
2100000000.0,-0.110144667035,-0.312010407751,0.889826287596,-0.313167917391,0.889826287596,-0.313167917391,-0.110144667035,-0.312010407751
2200000000.0,-0.119571573767,-0.323371584144,0.88039926209,-0.324584476135,0.88039926209,-0.324584476135,-0.119571573767,-0.323371584144
2300000000.0,-0.129222414767,-0.334328999109,0.870748299671,-0.335597302829,0.870748299671,-0.335597302829,-0.129222414767,-0.334328999109
2400000000.0,-0.139075823538,-0.344880083345,0.860894766772,-0.346203828633,0.860894766772,-0.346203828633,-0.139075823538,-0.344880083345
2500000000.0,-0.149110804774,-0.355023546797,0.85085965864,-0.356402763918,0.85085965864,-0.356402763918,-0.149110804774,-0.355023546797
2600000000.0,-0.159306812691,-0.364759312688,0.840663521006,-0.366194032304,0.840663521006,-0.366194032304,-0.159306812691,-0.364759312688
2700000000.0,-0.16964382087,-0.374088447569,0.830326380243,-0.375578700714,0.830326380243,-0.375578700714,-0.16964382087,-0.374088447569
2800000000.0,-0.180102383614,-0.383013088369,0.819867682004,-0.38455890642,0.819867682004,-0.38455890642,-0.180102383614,-0.383013088369
2900000000.0,-0.190663688934,-0.391536367401,0.80930623824,-0.393137782053,0.80930623824,-0.393137782053,-0.190663688934,-0.391536367401
3000000000.0,-0.20130960337,-0.399662336186,0.798660182375,-0.401319379427,0.798660182375,-0.401319379427,-0.20130960337,-0.399662336186
3100000000.0,-0.212022708936,-0.407395888919,0.787946932362,-0.40910859301,0.787946932362,-0.40910859301,-0.212022708936,-0.407395888919
3200000000.0,-0.222786332543,-0.414742686301,0.777183161258,-0.41651108375,0.777183161258,-0.41651108375,-0.222786332543,-0.414742686301
3300000000.0,-0.233584568316,-0.421709080392,0.766384774913,-0.423533203934,0.766384774913,-0.423533203934,-0.233584568316,-0.421709080392
3400000000.0,-0.244402293247,-0.42830204106,0.755566896308,-0.430181923636,0.755566896308,-0.430181923636,-0.244402293247,-0.42830204106
3500000000.0,-0.255225176677,-0.434529084528,0.744743856078,-0.436464759269,0.744743856078,-0.436464759269,-0.255225176677,-0.434529084528
3600000000.0,-0.266039684106,-0.44039820443,0.7339291887,-0.442389704633,0.7339291887,-0.442389704633,-0.266039684106,-0.44039820443
3700000000.0,-0.276833075842,-0.445917805725,0.723135633846,-0.447965164839,0.723135633846,-0.447965164839,-0.276833075842,-0.445917805725
3800000000.0,-0.287593401003,-0.451096641744,0.712375142378,-0.453199893352,0.712375142378,-0.453199893352,-0.287593401003,-0.451096641744
3900000000.0,-0.298309487387,-0.455943754583,0.701658886479,-0.458102932384,0.701658886479,-0.458102932384,-0.298309487387,-0.455943754583
4000000000.0,-0.308970927691,-0.460468418986,0.690997273436,-0.462683556784,0.690997273436,-0.462683556784,-0.308970927691,-0.460468418986
4100000000.0,-0.319568062572,-0.464680089826,0.680399962574,-0.466951221508,0.680399962574,-0.466951221508,-0.319568062572,-0.464680089826
4200000000.0,-0.330091961,-0.468588353211,0.669875884908,-0.470915512739,0.669875884908,-0.470915512739,-0.330091961,-0.468588353211
4300000000.0,-0.340534398334,-0.472202881247,0.659433265065,-0.474586102642,0.659433265065,-0.474586102642,-0.340534398334,-0.472202881247
4400000000.0,-0.350887832519,-0.475533390398,0.649079645085,-0.477972707725,0.649079645085,-0.477972707725,-0.350887832519,-0.475533390398
4500000000.0,-0.361145378795,-0.478589603392,0.638821909716,-0.481085050752,0.638821909716,-0.481085050752,-0.361145378795,-0.478589603392
4600000000.0,-0.371300783245,-0.481381214585,0.628666312861,-0.483932826098,0.628666312861,-0.483932826098,-0.371300783245,-0.481381214585
4700000000.0,-0.381348395505,-0.483917858648,0.618618504871,-0.486525668445,0.618618504871,-0.486525668445,-0.381348395505,-0.483917858648
4800000000.0,-0.391283140928,-0.48620908247,0.608683560384,-0.488873124682,0.608683560384,-0.488873124682,-0.391283140928,-0.48620908247
4900000000.0,-0.401100492435,-0.488264320107,0.598866006467,-0.490984628853,0.598866006467,-0.490984628853,-0.401100492435,-0.488264320107
5000000000.0,-0.410796442308,-0.490092870638,0.589169850827,-0.492869480016,0.589169850827,-0.492869480016,-0.410796442308,-0.490092870638
5100000000.0,-0.4203674741,-0.491703878754,0.5795986099,-0.494536822833,0.5795986099,-0.494536822833,-0.4203674741,-0.491703878754
5200000000.0,-0.429810534856,-0.493106317912,0.570155336632,-0.495995630721,0.570155336632,-0.495995630721,-0.429810534856,-0.493106317912
5300000000.0,-0.439123007775,-0.494308975892,0.560842647814,-0.497254691412,0.560842647814,-0.497254691412,-0.439123007775,-0.494308975892
5400000000.0,-0.448302685463,-0.495320442577,0.551662750832,-0.498322594732,0.551662750832,-0.498322594732,-0.448302685463,-0.495320442577
5500000000.0,-0.457347743859,-0.496149099797,0.542617469737,-0.49920772245,0.542617469737,-0.49920772245,-0.457347743859,-0.496149099797
5600000000.0,-0.466256716941,-0.496803113069,0.533708270543,-0.499918240011,0.533708270543,-0.499918240011,-0.466256716941,-0.496803113069
5700000000.0,-0.475028472276,-0.497290425077,0.524936285674,-0.500462090022,0.524936285674,-0.500462090022,-0.475028472276,-0.497290425077
5800000000.0,-0.48366218746,-0.497618750736,0.516302337526,-0.500846987314,0.516302337526,-0.500846987314,-0.48366218746,-0.497618750736
5900000000.0,-0.492157327507,-0.497795573699,0.507806961079,-0.501080415447,0.507806961079,-0.501080415447,-0.492157327507,-0.497795573699
6000000000.0,-0.500513623196,-0.497828144156,0.499450425545,-0.501169624518,0.499450425545,-0.501169624518,-0.500513623196,-0.497828144156
6100000000.0,-0.508731050404,-0.497723477816,0.49123275504,-0.501121630133,0.49123275504,-0.501121630133,-0.508731050404,-0.497723477816
6200000000.0,-0.516809810433,-0.497488355919,0.483153748254,-0.500943213426,0.483153748254,-0.500943213426,-0.516809810433,-0.497488355919
6300000000.0,-0.52475031133,-0.497129326187,0.475212997134,-0.500640922007,0.475212997134,-0.500640922007,-0.52475031133,-0.497129326187
6400000000.0,-0.53255315018,-0.496652704594,0.467409904589,-0.500221071732,0.467409904589,-0.500221071732,-0.53255315018,-0.496652704594
6500000000.0,-0.540219096381,-0.496064577851,0.459743701212,-0.499689749193,0.459743701212,-0.499689749193,-0.540219096381,-0.496064577851
6600000000.0,-0.547749075862,-0.495370806524,0.45221346107,-0.499052814832,0.45221346107,-0.499052814832,-0.547749075862,-0.495370806524
6700000000.0,-0.555144156231,-0.494577028694,0.444818116549,-0.4983159066,0.444818116549,-0.4983159066,-0.555144156231,-0.494577028694
6800000000.0,-0.562405532819,-0.493688664075,0.437556472309,-0.497484444078,0.437556472309,-0.497484444078,-0.562405532819,-0.493688664075
6900000000.0,-0.569534515605,-0.492710918525,0.430427218367,-0.496563632992,0.430427218367,-0.496563632992,-0.569534515605,-0.492710918525
7000000000.0,-0.576532516973,-0.491648788887,0.423428942333,-0.495558470045,0.423428942333,-0.495558470045,-0.576532516973,-0.491648788887
7100000000.0,-0.583401040278,-0.490507068094,0.416560140847,-0.494473748028,0.416560140847,-0.494473748028,-0.583401040278,-0.490507068094
7200000000.0,-0.590141669188,-0.48929035048,0.409819230235,-0.493314061133,0.409819230235,-0.493314061133,-0.590141669188,-0.48929035048
7300000000.0,-0.596756057759,-0.488003037267,0.403204556435,-0.492083810434,0.403204556435,-0.492083810434,-0.596756057759,-0.488003037267
7400000000.0,-0.603245921221,-0.486649342165,0.396714404211,-0.490787209495,0.396714404211,-0.490787209495,-0.603245921221,-0.486649342165
7500000000.0,-0.609613027429,-0.485233297058,0.390347005704,-0.489428290047,0.390347005704,-0.489428290047,-0.609613027429,-0.485233297058
7600000000.0,-0.615859188948,-0.483758757732,0.384100548344,-0.488010907726,0.384100548344,-0.488010907726,-0.615859188948,-0.483758757732
7700000000.0,-0.621986255739,-0.482229409629,0.377973182164,-0.48653874782,0.377973182164,-0.48653874782,-0.621986255739,-0.482229409629
7800000000.0,-0.627996108414,-0.480648773588,0.371963026548,-0.48501533101,0.371963026548,-0.48501533101,-0.627996108414,-0.480648773588
7900000000.0,-0.633890652023,-0.479020211546,0.36606817644,-0.483444019081,0.36606817644,-0.483444019081,-0.633890652023,-0.479020211546
8000000000.0,-0.639671810348,-0.477346932199,0.360286708055,-0.481828020568,0.360286708055,-0.481828020568,-0.639671810348,-0.477346932199
8100000000.0,-0.645341520664,-0.475631996582,0.354616684112,-0.480170396347,0.354616684112,-0.480170396347,-0.645341520664,-0.475631996582
8200000000.0,-0.650901728952,-0.473878323564,0.349056158625,-0.47847406513,0.349056158625,-0.47847406513,-0.650901728952,-0.473878323564
8300000000.0,-0.65635438552,-0.472088695248,0.343603181283,-0.476741808858,0.343603181283,-0.476741808858,-0.65635438552,-0.472088695248
8400000000.0,-0.661701441015,-0.470265762261,0.338255801433,-0.474976277997,0.338255801433,-0.474976277997,-0.661701441015,-0.470265762261
8500000000.0,-0.666944842801,-0.468412048918,0.333012071708,-0.473179996701,0.333012071708,-0.473179996701,-0.666944842801,-0.468412048918
8600000000.0,-0.67208653167,-0.466529958271,0.32787005131,-0.471355367861,0.32787005131,-0.471355367861,-0.67208653167,-0.466529958271
8700000000.0,-0.677128438875,-0.464621777018,0.322827808984,-0.469504678013,0.322827808984,-0.469504678013,-0.677128438875,-0.464621777018
8800000000.0,-0.682072483449,-0.462689680282,0.317883425691,-0.467630102116,0.317883425691,-0.467630102116,-0.682072483449,-0.462689680282
8900000000.0,-0.686920569801,-0.460735736245,0.313034997018,-0.465733708192,0.313034997018,-0.465733708192,-0.686920569801,-0.460735736245
9000000000.0,-0.691674585567,-0.458761910645,0.308280635326,-0.463817461817,0.308280635326,-0.463817461817,-0.691674585567,-0.458761910645
9100000000.0,-0.696336399688,-0.456770071129,0.30361847167,-0.461883230476,0.30361847167,-0.461883230476,-0.696336399688,-0.456770071129
9200000000.0,-0.700907860711,-0.454761991463,0.299046657498,-0.459932787773,0.299046657498,-0.459932787773,-0.700907860711,-0.454761991463
9300000000.0,-0.705390795286,-0.4527393556,0.294563366157,-0.457967817499,0.294563366157,-0.457967817499,-0.705390795286,-0.4527393556
9400000000.0,-0.709787006855,-0.450703761603,0.290166794201,-0.455989917559,0.290166794201,-0.455989917559,-0.709787006855,-0.450703761603
9500000000.0,-0.7140982745,-0.448656725432,0.285855162543,-0.454000603751,0.285855162543,-0.454000603751,-0.7140982745,-0.448656725432
9600000000.0,-0.71832635196,-0.446599684588,0.281626717441,-0.452001313418,0.281626717441,-0.452001313418,-0.71832635196,-0.446599684588
9700000000.0,-0.722472966785,-0.444534001626,0.277479731343,-0.449993408954,0.277479731343,-0.449993408954,-0.722472966785,-0.444534001626
9800000000.0,-0.726539819623,-0.442460967527,0.273412503596,-0.447978181184,0.273412503596,-0.447978181184,-0.726539819623,-0.442460967527
9900000000.0,-0.73052858363,-0.440381804944,0.269423361038,-0.445956852603,0.269423361038,-0.445956852603,-0.73052858363,-0.440381804944
10000000000.0,-0.734440903995,-0.438297671321,0.265510658481,-0.443930580498,0.265510658481,-0.443930580498,-0.734440903995,-0.438297671321
