freq (GHz),S11_real,S11_imag,S21_real,S21_imag,S12_real,S12_imag,S22_real,S22_imag
100000000.0,0.0194903733168,0.004047239535,0.98050517,-0.00590292340949,0.98050517,-0.00590292340949,0.0194903733168,0.004047239535
200000000.0,0.0196894274093,0.00809120221996,0.980299192367,-0.0118025987964,0.980299192367,-0.0118025987964,0.0196894274093,0.00809120221996
300000000.0,0.0199033013436,0.0121322080614,0.980074927367,-0.0176993681673,0.980074927367,-0.0176993681673,0.0199033013436,0.0121322080614
400000000.0,0.0201485711582,0.0161698999801,0.979815798203,-0.0235928932133,0.979815798203,-0.0235928932133,0.0201485711582,0.0161698999801
500000000.0,0.0204315854986,0.0202037644359,0.979515455349,-0.0294826775257,0.979515455349,-0.0294826775257,0.0204315854986,0.0202037644359
600000000.0,0.020755544075,0.0242332195903,0.979170698088,-0.0353681553175,0.979170698088,-0.0353681553175,0.020755544075,0.0242332195903
700000000.0,0.0211222974503,0.0282576471469,0.97877967472,-0.041248723551,0.97877967472,-0.041248723551,0.0211222974503,0.0282576471469
800000000.0,0.0215330040015,0.0322764072698,0.9783412256,-0.0471237570272,0.9783412256,-0.0471237570272,0.0215330040015,0.0322764072698
900000000.0,0.0219884224748,0.0362888467275,0.977854590588,-0.0529926166438,0.977854590588,-0.0529926166438,0.0219884224748,0.0362888467275
1000000000.0,0.0224890603068,0.0402943038299,0.977319260724,-0.0588546544118,0.977319260724,-0.0588546544118,0.0224890603068,0.0402943038299
1100000000.0,0.0230352561048,0.0442921116674,0.976734895751,-0.0647092167542,0.976734895751,-0.0647092167542,0.0230352561048,0.0442921116674
1200000000.0,0.0236272288266,0.048281600374,0.976101274938,-0.070555646814,0.976101274938,-0.070555646814,0.0236272288266,0.048281600374
1300000000.0,0.0242651087548,0.0522620987909,0.975418266105,-0.0763932861543,0.975418266105,-0.0763932861543,0.0242651087548,0.0522620987909
1400000000.0,0.0249489578915,0.0562329357457,0.974685805231,-0.082221476066,0.974685805231,-0.082221476066,0.0249489578915,0.0562329357457
1500000000.0,0.0256787838922,0.0601934410724,0.973903882518,-0.0880395586114,0.973903882518,-0.0880395586114,0.0256787838922,0.0601934410724
1600000000.0,0.0264545498887,0.0641429464509,0.973072532575,-0.0938468774841,0.973072532575,-0.0938468774841,0.0264545498887,0.0641429464509
1700000000.0,0.027276181607,0.0680807861174,0.972191827293,-0.0996427787358,0.972191827293,-0.0996427787358,0.027276181607,0.0680807861174
1800000000.0,0.0281435726495,0.0720062974793,0.971261870572,-0.105426611406,0.971261870572,-0.105426611406,0.0281435726495,0.0720062974793
1900000000.0,0.0290565885019,0.0759188216574,0.970282794311,-0.111197728078,0.970282794311,-0.111197728078,0.0290565885019,0.0759188216574
2000000000.0,0.0300150696346,0.0798177039734,0.969254755304,-0.116955485373,0.969254755304,-0.116955485373,0.0300150696346,0.0798177039734
2100000000.0,0.0310188339463,0.0837022943911,0.968177932806,-0.122699244408,0.968177932806,-0.122699244408,0.0310188339463,0.0837022943911
2200000000.0,0.0320676787252,0.0875719479235,0.967052526562,-0.128428371204,0.967052526562,-0.128428371204,0.0320676787252,0.0875719479235
2300000000.0,0.0331613822481,0.0914260250092,0.965878755219,-0.134142237077,0.965878755219,-0.134142237077,0.0331613822481,0.0914260250092
2400000000.0,0.0342997051057,0.0952638918645,0.964656854994,-0.139840218991,0.964656854994,-0.139840218991,0.0342997051057,0.0952638918645
2500000000.0,0.0354823913181,0.0990849208136,0.963387078559,-0.145521699898,0.963387078559,-0.145521699898,0.0354823913181,0.0990849208136
2600000000.0,0.0367091692878,0.1028884906,0.962069694096,-0.151186069056,0.962069694096,-0.151186069056,0.0367091692878,0.1028884906
2700000000.0,0.0379797526253,0.106673986684,0.960704984462,-0.156832722327,0.960704984462,-0.156832722327,0.0379797526253,0.106673986684
2800000000.0,0.0392938408747,0.110440801518,0.959293246471,-0.162461062463,0.959293246471,-0.162461062463,0.0392938408747,0.110440801518
2900000000.0,0.0406511201598,0.114188334819,0.957834790247,-0.168070499377,0.957834790247,-0.168070499377,0.0406511201598,0.114188334819
3000000000.0,0.0420512637662,0.117915993818,0.956329938641,-0.173660450402,0.956329938641,-0.173660450402,0.0420512637662,0.117915993818
3100000000.0,0.0434939326721,0.121623193506,0.954779026698,-0.179230340535,0.954779026698,-0.179230340535,0.0434939326721,0.121623193506
3200000000.0,0.0449787760384,0.125309356861,0.953182401175,-0.184779602674,0.953182401175,-0.184779602674,0.0449787760384,0.125309356861
3300000000.0,0.0465054316639,0.128973915071,0.951540420078,-0.190307677838,0.951540420078,-0.190307677838,0.0465054316639,0.128973915071
3400000000.0,0.0480735264138,0.132616307743,0.94985345224,-0.195814015384,0.94985345224,-0.195814015384,0.0480735264138,0.132616307743
3500000000.0,0.0496826766253,0.136235983104,0.948121876909,-0.201298073205,0.948121876909,-0.201298073205,0.0496826766253,0.136235983104
3600000000.0,0.0513324884943,0.13983239819,0.946346083371,-0.206759317929,0.946346083371,-0.206759317929,0.0513324884943,0.13983239819
3700000000.0,0.053022558447,0.143405019029,0.944526470569,-0.212197225098,0.944526470569,-0.212197225098,0.053022558447,0.143405019029
3800000000.0,0.0547524734981,0.146953320811,0.94266344675,-0.217611279343,0.94266344675,-0.217611279343,0.0547524734981,0.146953320811
3900000000.0,0.056521811599,0.150476788053,0.940757429119,-0.223000974553,0.940757429119,-0.223000974553,0.056521811599,0.150476788053
4000000000.0,0.0583301419759,0.153974914749,0.938808843495,-0.228365814023,0.938808843495,-0.228365814023,0.0583301419759,0.153974914749
4100000000.0,0.060177025461,0.157447204521,0.936818123984,-0.233705310611,0.936818123984,-0.233705310611,0.060177025461,0.157447204521
4200000000.0,0.0620620148171,0.160893170751,0.934785712657,-0.239018986867,0.934785712657,-0.239018986867,0.0620620148171,0.160893170751
4300000000.0,0.0639846550557,0.164312336709,0.932712059224,-0.244306375169,0.932712059224,-0.244306375169,0.0639846550557,0.164312336709
4400000000.0,0.0659444837513,0.167704235677,0.93059762073,-0.249567017843,0.93059762073,-0.249567017843,0.0659444837513,0.167704235677
4500000000.0,0.0679410313508,0.171068411053,0.928442861237,-0.254800467273,0.928442861237,-0.254800467273,0.0679410313508,0.171068411053
4600000000.0,0.0699738214787,0.174404416462,0.926248251522,-0.260006286008,0.926248251522,-0.260006286008,0.0699738214787,0.174404416462
4700000000.0,0.0720423712399,0.177711815842,0.924014268778,-0.265184046857,0.924014268778,-0.265184046857,0.0720423712399,0.177711815842
4800000000.0,0.0741461915178,0.18099018354,0.921741396311,-0.270333332977,0.921741396311,-0.270333332977,0.0741461915178,0.18099018354
4900000000.0,0.0762847872707,0.18423910438,0.919430123243,-0.275453737953,0.919430123243,-0.275453737953,0.0762847872707,0.18423910438
5000000000.0,0.078457657825,0.187458173743,0.917080944224,-0.280544865869,0.917080944224,-0.280544865869,0.078457657825,0.187458173743
5100000000.0,0.0806642971652,0.190646997623,0.914694359138,-0.285606331374,0.914694359138,-0.285606331374,0.0806642971652,0.190646997623
5200000000.0,0.0829041942216,0.193805192688,0.912270872817,-0.290637759734,0.912270872817,-0.290637759734,0.0829041942216,0.193805192688
5300000000.0,0.0851768331558,0.196932386321,0.909810994755,-0.295638786886,0.909810994755,-0.295638786886,0.0851768331558,0.196932386321
5400000000.0,0.087481693643,0.200028216663,0.907315238825,-0.300609059474,0.907315238825,-0.300609059474,0.087481693643,0.200028216663
5500000000.0,0.0898182511516,0.203092332647,0.904784122999,-0.305548234884,0.904784122999,-0.305548234884,0.0898182511516,0.203092332647
5600000000.0,0.0921859772209,0.206124394018,0.902218169073,-0.31045598127,0.902218169073,-0.31045598127,0.0921859772209,0.206124394018
5700000000.0,0.0945843397354,0.209124071356,0.899617902389,-0.315331977573,0.899617902389,-0.315331977573,0.0945843397354,0.209124071356
5800000000.0,0.0970128031963,0.212091046085,0.896983851569,-0.320175913533,0.896983851569,-0.320175913533,0.0970128031963,0.212091046085
5900000000.0,0.0994708289909,0.215025010475,0.894316548236,-0.32498748969,0.894316548236,-0.32498748969,0.0994708289909,0.215025010475
6000000000.0,0.101957875658,0.217925667638,0.891616526759,-0.329766417387,0.891616526759,-0.329766417387,0.101957875658,0.217925667638
6100000000.0,0.104473399152,0.220792731525,0.888884323983,-0.334512418757,0.888884323983,-0.334512418757,0.104473399152,0.220792731525
6200000000.0,0.107016853101,0.223625926899,0.88612047897,-0.339225226709,0.88612047897,-0.339225226709,0.107016853101,0.223625926899
6300000000.0,0.109587689065,0.226424989322,0.883325532744,-0.343904584904,0.883325532744,-0.343904584904,0.109587689065,0.226424989322
6400000000.0,0.112185356788,0.22918966512,0.880500028037,-0.348550247728,0.880500028037,-0.348550247728,0.112185356788,0.22918966512
6500000000.0,0.114809304449,0.231919711349,0.877644509037,-0.353161980259,0.877644509037,-0.353161980259,0.114809304449,0.231919711349
6600000000.0,0.117458978908,0.234614895754,0.874759521145,-0.357739558221,0.874759521145,-0.357739558221,0.117458978908,0.234614895754
6700000000.0,0.12013382595,0.23727499672,0.871845610728,-0.362282767943,0.871845610728,-0.362282767943,0.12013382595,0.23727499672
6800000000.0,0.122833290521,0.239899803223,0.868903324882,-0.366791406303,0.868903324882,-0.366791406303,0.122833290521,0.239899803223
6900000000.0,0.125556816966,0.242489114767,0.865933211195,-0.371265280672,0.865933211195,-0.371265280672,0.125556816966,0.242489114767
7000000000.0,0.128303849262,0.245042741324,0.862935817518,-0.375704208849,0.862935817518,-0.375704208849,0.128303849262,0.245042741324
7100000000.0,0.131073831241,0.247560503261,0.859911691735,-0.380108018992,0.859911691735,-0.380108018992,0.131073831241,0.247560503261
7200000000.0,0.133866206817,0.250042231269,0.856861381538,-0.384476549549,0.856861381538,-0.384476549549,0.133866206817,0.250042231269
7300000000.0,0.136680420204,0.252487766282,0.85378543421,-0.388809649173,0.85378543421,-0.388809649173,0.136680420204,0.252487766282
7400000000.0,0.139515916131,0.254896959396,0.850684396411,-0.393107176641,0.850684396411,-0.393107176641,0.139515916131,0.254896959396
7500000000.0,0.142372140053,0.257269671774,0.84755881396,-0.39736900077,0.84755881396,-0.39736900077,0.142372140053,0.257269671774
7600000000.0,0.14524853836,0.259605774563,0.844409231638,-0.401595000318,0.844409231638,-0.401595000318,0.14524853836,0.259605774563
7700000000.0,0.148144558574,0.261905148787,0.841236192977,-0.405785063891,0.841236192977,-0.405785063891,0.148144558574,0.261905148787
7800000000.0,0.151059649551,0.264167685254,0.838040240066,-0.409939089843,0.838040240066,-0.409939089843,0.151059649551,0.264167685254
7900000000.0,0.153993261671,0.266393284446,0.834821913359,-0.414056986169,0.834821913359,-0.414056986169,0.153993261671,0.266393284446
8000000000.0,0.156944847029,0.268581856412,0.831581751484,-0.418138670398,0.831581751484,-0.418138670398,0.156944847029,0.268581856412
8100000000.0,0.159913859617,0.270733320654,0.828320291057,-0.42218406948,0.828320291057,-0.42218406948,0.159913859617,0.270733320654
8200000000.0,0.162899755504,0.272847606017,0.825038066509,-0.426193119675,0.825038066509,-0.426193119675,0.162899755504,0.272847606017
8300000000.0,0.165901993012,0.274924650562,0.821735609902,-0.430165766427,0.821735609902,-0.430165766427,0.165901993012,0.274924650562
8400000000.0,0.168920032882,0.27696440145,0.818413450768,-0.434101964247,0.818413450768,-0.434101964247,0.168920032882,0.27696440145
8500000000.0,0.171953338442,0.278966814814,0.815072115937,-0.438001676589,0.815072115937,-0.438001676589,0.171953338442,0.278966814814
8600000000.0,0.175001375768,0.280931855635,0.811712129379,-0.441864875722,0.811712129379,-0.441864875722,0.175001375768,0.280931855635
8700000000.0,0.178063613835,0.282859497607,0.808334012048,-0.445691542596,0.808334012048,-0.445691542596,0.178063613835,0.282859497607
8800000000.0,0.181139524673,0.284749723009,0.804938281732,-0.449481666719,0.804938281732,-0.449481666719,0.181139524673,0.284749723009
8900000000.0,0.184228583511,0.286602522567,0.801525452903,-0.453235246011,0.801525452903,-0.453235246011,0.184228583511,0.286602522567
9000000000.0,0.187330268916,0.28841789532,0.798096036581,-0.456952286677,0.798096036581,-0.456952286677,0.187330268916,0.28841789532
9100000000.0,0.190444062931,0.290195848479,0.794650540191,-0.460632803064,0.794650540191,-0.460632803064,0.190444062931,0.290195848479
9200000000.0,0.193569451209,0.291936397287,0.791189467436,-0.46427681752,0.791189467436,-0.46427681752,0.193569451209,0.291936397287
9300000000.0,0.196705923135,0.293639564878,0.787713318167,-0.467884360255,0.787713318167,-0.467884360255,0.196705923135,0.293639564878
9400000000.0,0.199852971951,0.295305382132,0.784222588262,-0.471455469196,0.784222588262,-0.471455469196,0.199852971951,0.295305382132
9500000000.0,0.203010094874,0.296933887531,0.780717769508,-0.474990189839,0.780717769508,-0.474990189839,0.203010094874,0.296933887531
9600000000.0,0.206176793207,0.298525127012,0.777199349487,-0.478488575111,0.777199349487,-0.478488575111,0.206176793207,0.298525127012
9700000000.0,0.209352572445,0.30007915382,0.773667811468,-0.481950685216,0.773667811468,-0.481950685216,0.209352572445,0.30007915382
9800000000.0,0.212536942385,0.301596028364,0.770123634303,-0.485376587489,0.770123634303,-0.485376587489,0.212536942385,0.301596028364
9900000000.0,0.215729417216,0.303075818059,0.766567292328,-0.488766356247,0.766567292328,-0.488766356247,0.215729417216,0.303075818059
10000000000.0,0.218929515622,0.304518597186,0.762999255269,-0.492120072643,0.762999255269,-0.492120072643,0.218929515622,0.304518597186
