freq (GHz),S11_real,S11_imag,S21_real,S21_imag,S12_real,S12_imag,S22_real,S22_imag
100000000.0,0.000838218884576,-0.0061983856492,0.99904566617,-0.00802834101968,0.99904566617,-0.00802834101968,0.000838218884576,-0.0061983856492
200000000.0,0.000688016995097,-0.0123946053446,0.998878339328,-0.0160545019903,0.998878339328,-0.0160545019903,0.000688016995097,-0.0123946053446
300000000.0,0.000436814891744,-0.0185866206745,0.998609766967,-0.0240764843875,0.998609766967,-0.0240764843875,0.000436814891744,-0.0185866206745
400000000.0,8.5524211757e-05,-0.0247723927103,0.99823931369,-0.0320922760172,0.99823931369,-0.0320922760172,8.5524211757e-05,-0.0247723927103
500000000.0,-0.000365365300701,-0.0309498843765,0.997766874455,-0.0400998630355,0.997766874455,-0.0400998630355,-0.000365365300701,-0.0309498843765
600000000.0,-0.000915455568312,-0.0371170632613,0.99719254423,-0.0480972345434,0.99719254423,-0.0480972345434,-0.000915455568312,-0.0371170632613
700000000.0,-0.00156435650988,-0.0432719040464,0.996516533955,-0.0560823857016,0.996516533955,-0.0560823857016,-0.00156435650988,-0.0432719040464
800000000.0,-0.00231165576356,-0.0494123907124,0.995739139682,-0.0640533202735,0.995739139682,-0.0640533202735,-0.00231165576356,-0.0494123907124
900000000.0,-0.00315690547751,-0.0555365186045,0.994860728589,-0.0720080528846,0.994860728589,-0.0720080528846,-0.00315690547751,-0.0555365186045
1000000000.0,-0.00409961589838,-0.0616422964024,0.99388173163,-0.0799446111119,0.99388173163,-0.0799446111119,-0.00409961589839,-0.0616422964024
1100000000.0,-0.00513925210189,-0.0677277480164,0.992802639158,-0.0878610374606,0.992802639158,-0.0878610374606,-0.00513925210189,-0.0677277480164
1200000000.0,-0.006275232347,-0.073790914421,0.991623998025,-0.0957553912553,0.991623998025,-0.0957553912553,-0.006275232347,-0.073790914421
1300000000.0,-0.00750692734871,-0.0798298554335,0.990346409447,-0.10362575046,0.990346409447,-0.10362575046,-0.00750692734871,-0.0798298554335
1400000000.0,-0.00883366011193,-0.0858426514409,0.988970527298,-0.111470213438,0.988970527298,-0.111470213438,-0.00883366011193,-0.0858426514409
1500000000.0,-0.0102547061325,-0.091827405075,0.987497056626,-0.119286900647,0.987497056626,-0.119286900647,-0.0102547061325,-0.091827405075
1600000000.0,-0.0117692938531,-0.0977822428382,0.985926752306,-0.127073956293,0.985926752306,-0.127073956293,-0.0117692938531,-0.0977822428382
1700000000.0,-0.0133766053075,-0.103705316677,0.98426041775,-0.134829549911,0.98426041775,-0.134829549911,-0.0133766053075,-0.103705316677
1800000000.0,-0.0150757769076,-0.109594805502,0.982498903642,-0.142551877905,0.982498903642,-0.142551877905,-0.0150757769076,-0.109594805502
1900000000.0,-0.0168659003472,-0.115448916661,0.980643106684,-0.150239165025,0.980643106684,-0.150239165025,-0.0168659003472,-0.115448916661
2000000000.0,-0.0187460236006,-0.121265887346,0.978693968321,-0.157889665791,0.978693968321,-0.157889665791,-0.0187460236006,-0.121265887346
2100000000.0,-0.0207151520032,-0.127043985954,0.976652473451,-0.165501665858,0.976652473451,-0.165501665858,-0.0207151520032,-0.127043985954
2200000000.0,-0.0227722494008,-0.132781513386,0.974519649113,-0.173073483321,0.974519649113,-0.173073483321,-0.0227722494008,-0.132781513386
2300000000.0,-0.0249162393618,-0.138476804288,0.97229656314,-0.180603469963,0.97229656314,-0.180603469963,-0.0249162393618,-0.138476804288
2400000000.0,-0.0271460064432,-0.14412822823,0.969984322789,-0.188090012441,0.969984322789,-0.188090012441,-0.0271460064432,-0.14412822823
2500000000.0,-0.0294603975044,-0.149734190826,0.967584073342,-0.195531533406,0.967584073342,-0.195531533406,-0.0294603975044,-0.149734190826
2600000000.0,-0.0318582230653,-0.155293134787,0.965096996677,-0.20292649257,0.965096996677,-0.20292649257,-0.0318582230653,-0.155293134787
2700000000.0,-0.0343382587008,-0.160803540921,0.962524309815,-0.210273387695,0.962524309815,-0.210273387695,-0.0343382587008,-0.160803540921
2800000000.0,-0.036899246471,-0.166263929053,0.959867263443,-0.21757075553,0.959867263443,-0.21757075553,-0.036899246471,-0.166263929053
2900000000.0,-0.0395398963792,-0.171672858897,0.957127140415,-0.224817172679,0.957127140415,-0.224817172679,-0.0395398963792,-0.171672858897
3000000000.0,-0.0422588878568,-0.177028930848,0.954305254232,-0.232011256397,0.954305254232,-0.232011256397,-0.0422588878568,-0.177028930848
3100000000.0,-0.0450548712696,-0.182330786719,0.951402947507,-0.239151665333,0.951402947507,-0.239151665333,-0.0450548712696,-0.182330786719
3200000000.0,-0.0479264694424,-0.18757711041,0.948421590418,-0.246237100193,0.948421590418,-0.246237100193,-0.0479264694424,-0.18757711041
3300000000.0,-0.0508722791985,-0.192766628503,0.945362579142,-0.253266304347,0.945362579142,-0.253266304347,-0.0508722791985,-0.192766628503
3400000000.0,-0.0538908729106,-0.197898110806,0.942227334291,-0.260238064368,0.942227334291,-0.260238064368,-0.0538908729106,-0.197898110806
3500000000.0,-0.0569808000595,-0.202970370816,0.939017299335,-0.267151210503,0.939017299335,-0.267151210503,-0.0569808000595,-0.202970370816
3600000000.0,-0.0601405887983,-0.207982266133,0.935733939024,-0.274004617079,0.935733939024,-0.274004617079,-0.0601405887983,-0.207982266133
3700000000.0,-0.0633687475177,-0.212932698792,0.932378737809,-0.28079720285,0.932378737809,-0.28079720285,-0.0633687475177,-0.212932698792
3800000000.0,-0.0666637664105,-0.21782061555,0.928953198268,-0.287527931274,0.928953198268,-0.287527931274,-0.0666637664105,-0.21782061555
3900000000.0,-0.0700241190319,-0.222645008094,0.925458839539,-0.294195810726,0.925458839539,-0.294195810726,-0.0700241190319,-0.222645008094
4000000000.0,-0.0734482638529,-0.227404913199,0.921897195751,-0.300799894661,0.921897195751,-0.300799894661,-0.0734482638529,-0.227404913199
4100000000.0,-0.0769346458039,-0.232099412816,0.918269814481,-0.3073392817,0.918269814481,-0.3073392817,-0.0769346458039,-0.232099412816
4200000000.0,-0.0804816978061,-0.23672763411,0.914578255209,-0.313813115666,0.914578255209,-0.313813115666,-0.0804816978061,-0.23672763411
4300000000.0,-0.0840878422884,-0.24128874943,0.9108240878,-0.320220585564,0.9108240878,-0.320220585564,-0.0840878422884,-0.24128874943
4400000000.0,-0.0877514926866,-0.245781976232,0.907008890996,-0.326560925495,0.907008890996,-0.326560925495,-0.0877514926866,-0.245781976232
4500000000.0,-0.0914710549235,-0.250206576938,0.903134250931,-0.332833414524,0.903134250931,-0.332833414524,-0.0914710549235,-0.250206576938
4600000000.0,-0.0952449288678,-0.254561858744,0.89920175967,-0.339037376484,0.89920175967,-0.339037376484,-0.0952449288678,-0.254561858744
4700000000.0,-0.0990715097681,-0.258847173384,0.895213013769,-0.345172179744,0.895213013769,-0.345172179744,-0.0990715097681,-0.258847173384
4800000000.0,-0.102949189663,-0.263061916829,0.891169612861,-0.351237236905,0.891169612861,-0.351237236905,-0.102949189663,-0.263061916829
4900000000.0,-0.106876358762,-0.267205528949,0.887073158272,-0.35723200447,0.887073158272,-0.35723200447,-0.106876358762,-0.267205528949
5000000000.0,-0.110851406799,-0.271277493127,0.882925251662,-0.36315598245,0.882925251662,-0.36315598245,-0.110851406799,-0.271277493127
5100000000.0,-0.114872724354,-0.275277335823,0.878727493707,-0.369008713933,0.878727493707,-0.369008713933,-0.114872724354,-0.275277335823
5200000000.0,-0.118938704143,-0.279204626098,0.874481482797,-0.374789784612,0.874481482797,-0.374789784612,-0.118938704143,-0.279204626098
5300000000.0,-0.123047742274,-0.283058975103,0.870188813784,-0.380498822268,0.870188813784,-0.380498822268,-0.123047742274,-0.283058975103
5400000000.0,-0.127198239469,-0.286840035517,0.865851076754,-0.386135496216,0.865851076754,-0.386135496216,-0.127198239469,-0.286840035517
5500000000.0,-0.131388602251,-0.290547500964,0.86146985584,-0.391699516713,0.86146985584,-0.391699516713,-0.131388602251,-0.290547500964
5600000000.0,-0.135617244093,-0.294181105379,0.857046728069,-0.397190634336,0.857046728069,-0.397190634336,-0.135617244093,-0.294181105379
5700000000.0,-0.139882586527,-0.297740622357,0.852583262253,-0.402608639322,0.852583262253,-0.402608639322,-0.139882586527,-0.297740622357
5800000000.0,-0.14418306022,-0.301225864457,0.848081017906,-0.40795336088,0.848081017906,-0.40795336088,-0.14418306022,-0.301225864457
5900000000.0,-0.14851710601,-0.304636682491,0.843541544213,-0.413224666475,0.843541544213,-0.413224666475,-0.14851710601,-0.304636682491
6000000000.0,-0.152883175896,-0.307972964779,0.838966379032,-0.418422461085,0.838966379032,-0.418422461085,-0.152883175896,-0.307972964779
6100000000.0,-0.157279733996,-0.311234636379,0.834357047939,-0.423546686434,0.834357047939,-0.423546686434,-0.157279733996,-0.311234636379
6200000000.0,-0.161705257462,-0.3144216583,0.829715063307,-0.428597320203,0.829715063307,-0.428597320203,-0.161705257462,-0.3144216583
6300000000.0,-0.166158237353,-0.317534026691,0.825041923434,-0.433574375219,0.825041923434,-0.433574375219,-0.166158237353,-0.317534026691
6400000000.0,-0.170637179468,-0.320571772014,0.820339111707,-0.438477898631,0.820339111707,-0.438477898631,-0.170637179468,-0.320571772014
6500000000.0,-0.175140605141,-0.323534958195,0.815608095807,-0.443307971062,0.815608095807,-0.443307971062,-0.175140605141,-0.323534958195
6600000000.0,-0.179667051991,-0.326423681774,0.810850326954,-0.448064705752,0.810850326954,-0.448064705752,-0.179667051991,-0.326423681774
6700000000.0,-0.184215074638,-0.329238071023,0.806067239195,-0.452748247687,0.806067239195,-0.452748247687,-0.184215074638,-0.329238071023
6800000000.0,-0.18878324537,-0.331978285072,0.801260248731,-0.457358772717,0.801260248731,-0.457358772717,-0.18878324537,-0.331978285072
6900000000.0,-0.193370154778,-0.334644513014,0.796430753279,-0.461896486669,0.796430753279,-0.461896486669,-0.193370154778,-0.334644513014
7000000000.0,-0.197974412346,-0.337236973006,0.791580131486,-0.46636162444,0.791580131486,-0.46636162444,-0.197974412346,-0.337236973006
7100000000.0,-0.20259464701,-0.33975591137,0.786709742365,-0.470754449103,0.786709742365,-0.470754449103,-0.20259464701,-0.33975591137
7200000000.0,-0.207229507666,-0.342201601678,0.781820924787,-0.475075250994,0.781820924787,-0.475075250994,-0.207229507666,-0.342201601678
7300000000.0,-0.211877663649,-0.344574343846,0.776914996997,-0.479324346803,0.776914996997,-0.479324346803,-0.211877663649,-0.344574343846
7400000000.0,-0.216537805176,-0.346874463225,0.771993256175,-0.483502078665,0.771993256175,-0.483502078665,-0.216537805176,-0.346874463225
7500000000.0,-0.221208643744,-0.349102309682,0.767056978032,-0.487608813246,0.767056978032,-0.487608813246,-0.221208643744,-0.349102309682
7600000000.0,-0.2258889125,-0.3512582567,0.762107416441,-0.491644940838,0.762107416441,-0.491644940838,-0.2258889125,-0.3512582567
7700000000.0,-0.230577366571,-0.353342700467,0.757145803105,-0.49561087445,0.757145803105,-0.49561087445,-0.230577366571,-0.353342700467
7800000000.0,-0.235272783361,-0.355356058977,0.752173347259,-0.499507048909,0.752173347259,-0.499507048909,-0.235272783361,-0.355356058977
7900000000.0,-0.239973962815,-0.357298771131,0.747191235402,-0.503333919967,0.747191235402,-0.503333919967,-0.239973962815,-0.357298771131
8000000000.0,-0.244679727651,-0.359171295852,0.742200631067,-0.507091963406,0.742200631067,-0.507091963406,-0.244679727651,-0.359171295852
8100000000.0,-0.249388923557,-0.360974111204,0.737202674621,-0.510781674163,0.737202674621,-0.510781674163,-0.249388923557,-0.360974111204
8200000000.0,-0.25410041936,-0.362707713515,0.732198483093,-0.514403565455,0.732198483093,-0.514403565455,-0.25410041936,-0.362707713515
8300000000.0,-0.258813107164,-0.36437261652,0.727189150039,-0.517958167918,0.727189150039,-0.517958167918,-0.258813107164,-0.36437261652
8400000000.0,-0.26352590246,-0.365969350505,0.722175745424,-0.521446028754,0.722175745424,-0.521446028754,-0.26352590246,-0.365969350505
8500000000.0,-0.268237744206,-0.367498461468,0.717159315547,-0.524867710891,0.717159315547,-0.524867710891,-0.268237744206,-0.367498461468
8600000000.0,-0.272947594882,-0.368960510292,0.712140882982,-0.528223792158,0.712140882982,-0.528223792158,-0.272947594882,-0.368960510292
8700000000.0,-0.277654440515,-0.370356071929,0.707121446546,-0.531514864465,0.707121446546,-0.531514864465,-0.277654440515,-0.370356071929
8800000000.0,-0.282357290686,-0.371685734596,0.702101981301,-0.534741533004,0.702101981301,-0.534741533004,-0.282357290686,-0.371685734596
8900000000.0,-0.287055178509,-0.372950098992,0.697083438567,-0.537904415462,0.697083438567,-0.537904415462,-0.287055178509,-0.372950098992
9000000000.0,-0.29174716058,-0.374149777522,0.69206674597,-0.54100414125,0.69206674597,-0.54100414125,-0.29174716058,-0.374149777522
9100000000.0,-0.296432316919,-0.375285393538,0.687052807502,-0.54404135074,0.687052807502,-0.54404135074,-0.296432316919,-0.375285393538
9200000000.0,-0.301109750878,-0.376357580602,0.682042503613,-0.547016694529,0.682042503613,-0.547016694529,-0.301109750878,-0.376357580602
9300000000.0,-0.305778589034,-0.377366981756,0.677036691309,-0.549930832709,0.677036691309,-0.549930832709,-0.305778589034,-0.377366981756
9400000000.0,-0.310437981062,-0.378314248814,0.672036204286,-0.552784434163,0.672036204286,-0.552784434163,-0.310437981062,-0.378314248814
9500000000.0,-0.315087099591,-0.379200041669,0.667041853065,-0.555578175865,0.667041853065,-0.555578175865,-0.315087099591,-0.379200041669
9600000000.0,-0.319725140041,-0.380025027618,0.66205442516,-0.558312742209,0.66205442516,-0.558312742209,-0.319725140041,-0.380025027618
9700000000.0,-0.324351320447,-0.380789880699,0.657074685249,-0.560988824351,0.657074685249,-0.560988824351,-0.324351320447,-0.380789880699
9800000000.0,-0.32896488126,-0.381495281057,0.652103375368,-0.563607119564,0.652103375368,-0.563607119564,-0.32896488126,-0.381495281057
9900000000.0,-0.333565085142,-0.382141914312,0.647141215119,-0.566168330615,0.647141215119,-0.566168330615,-0.333565085142,-0.382141914312
10000000000.0,-0.338151216747,-0.382730470958,0.642188901891,-0.568673165162,0.642188901891,-0.568673165162,-0.338151216747,-0.382730470958
