freq (GHz),S11_real,S11_imag,S21_real,S21_imag,S12_real,S12_imag,S22_real,S22_imag
100000000.0,2.23416256917e-06,1.17763037012e-07,0.999996761062,-5.15761839997e-06,0.999996761062,-5.15761839997e-06,2.23416256917e-06,1.17763037056e-07
200000000.0,2.25016402133e-06,2.3552039735e-07,0.999996740328,-1.03152715489e-05,0.999996740328,-1.03152715489e-05,2.25016402156e-06,2.35520397281e-07
300000000.0,2.26133515557e-06,3.53260708543e-07,0.999996724357,-1.54729862516e-05,0.999996724357,-1.54729862516e-05,2.26133515557e-06,3.53260708529e-07
400000000.0,2.27007051046e-06,4.70975443069e-07,0.999996710799,-2.06307830131e-05,0.999996710799,-2.06307830131e-05,2.27007051046e-06,4.70975443088e-07
500000000.0,2.27727674273e-06,5.886674425e-07,0.999996698738,-2.57886692931e-05,0.999996698738,-2.57886692931e-05,2.27727674273e-06,5.88667442489e-07
600000000.0,2.2834274318e-06,7.06313968824e-07,0.999996687715,-3.09466770623e-05,0.999996687715,-3.09466770623e-05,2.2834274318e-06,7.06313968849e-07
700000000.0,2.28879045316e-06,8.23920706193e-07,0.999996677452,-3.61048091075e-05,0.999996677452,-3.61048091075e-05,2.28879045294e-06,8.23920706229e-07
800000000.0,2.29354735071e-06,9.41487654424e-07,0.999996667774,-4.12630733195e-05,0.999996667774,-4.12630733195e-05,2.29354735071e-06,9.41487654416e-07
900000000.0,2.29781572081e-06,1.05901197104e-06,0.999996658553,-4.642147997e-05,0.999996658553,-4.642147997e-05,2.29781572081e-06,1.05901197104e-06
1000000000.0,2.3016870454e-06,1.17649223487e-06,0.999996649706,-5.15800375313e-05,0.999996649706,-5.15800375313e-05,2.30168704562e-06,1.17649223489e-06
1100000000.0,2.30522776179e-06,1.29391991929e-06,0.999996641164,-5.67387612635e-05,0.999996641164,-5.67387612635e-05,2.30522776157e-06,1.2939199193e-06
1200000000.0,2.30848742921e-06,1.41129786635e-06,0.999996632876,-6.18976547869e-05,0.999996632876,-6.18976547869e-05,2.30848742921e-06,1.41129786636e-06
1300000000.0,2.3115080594e-06,1.52862181272e-06,0.999996624803,-6.70567285918e-05,0.999996624803,-6.70567285918e-05,2.31150805963e-06,1.52862181272e-06
1400000000.0,2.31432127173e-06,1.64588749503e-06,0.999996616911,-7.22159929621e-05,0.999996616911,-7.22159929621e-05,2.31432127151e-06,1.64588749504e-06
1500000000.0,2.31695388941e-06,1.76309633435e-06,0.999996609174,-7.73754523143e-05,0.999996609174,-7.73754523143e-05,2.31695388941e-06,1.76309633436e-06
1600000000.0,2.31942762841e-06,1.88025259389e-06,0.999996601569,-8.25351080592e-05,0.999996601569,-8.25351080592e-05,2.31942762818e-06,1.88025259391e-06
1700000000.0,2.32176131831e-06,1.99734561545e-06,0.99999659408,-8.76949763817e-05,0.99999659408,-8.76949763817e-05,2.32176131809e-06,1.99734561546e-06
1800000000.0,2.32397036859e-06,2.11437753065e-06,0.999996586689,-9.28550605435e-05,0.999996586689,-9.28550605435e-05,2.32397036859e-06,2.11437753062e-06
1900000000.0,2.32606845807e-06,2.23134620772e-06,0.999996579383,-9.8015367948e-05,0.999996579383,-9.8015367948e-05,2.32606845807e-06,2.23134620772e-06
2000000000.0,2.32806691036e-06,2.34825306783e-06,0.999996572151,-0.000103175902335,0.999996572151,-0.000103175902335,2.32806691036e-06,2.34825306783e-06
2100000000.0,2.32997594019e-06,2.46509526874e-06,0.999996564983,-0.000108336671603,0.999996564983,-0.000108336671603,2.32997594041e-06,2.46509526874e-06
2200000000.0,2.33180398612e-06,2.58186925772e-06,0.999996557869,-0.000113497684271,0.999996557869,-0.000113497684271,2.3318039859e-06,2.58186925771e-06
2300000000.0,2.3335591961e-06,2.69857929799e-06,0.999996550803,-0.00011865894095,0.999996550803,-0.00011865894095,2.33355919588e-06,2.69857929799e-06
2400000000.0,2.33524820836e-06,2.81522041575e-06,0.999996543777,-0.00012382045141,0.999996543777,-0.00012382045141,2.33524820858e-06,2.81522041576e-06
2500000000.0,2.33687710938e-06,2.93179474264e-06,0.999996536785,-0.000128982218237,0.999996536785,-0.000128982218237,2.3368771096e-06,2.93179474263e-06
2600000000.0,2.33845136033e-06,3.04829730477e-06,0.999996529822,-0.000134144251054,0.999996529822,-0.000134144251054,2.33845136055e-06,3.04829730477e-06
2700000000.0,2.33997560195e-06,3.16473591819e-06,0.999996522883,-0.000139306546626,0.999996522883,-0.000139306546626,2.33997560217e-06,3.16473591819e-06
2800000000.0,2.34145449762e-06,3.28109992468e-06,0.999996515964,-0.000144469120133,0.999996515964,-0.000144469120133,2.34145449762e-06,3.28109992468e-06
2900000000.0,2.3428918221e-06,3.39739571916e-06,0.99999650906,-0.000149631969639,0.99999650906,-0.000149631969639,2.34289182166e-06,3.39739571915e-06
3000000000.0,2.34429108259e-06,3.51362116997e-06,0.999996502168,-0.000154795101683,0.999996502168,-0.000154795101683,2.34429108281e-06,3.51362116997e-06
3100000000.0,2.34565563417e-06,3.62977450075e-06,0.999996495285,-0.000159958522396,0.999996495285,-0.000159958522396,2.34565563373e-06,3.62977450076e-06
3200000000.0,2.34698827284e-06,3.74585784314e-06,0.999996488408,-0.000165122233949,0.999996488408,-0.000165122233949,2.34698827284e-06,3.74585784315e-06
3300000000.0,2.34829194201e-06,3.86186657862e-06,0.999996481534,-0.000170286245221,0.999996481534,-0.000170286245221,2.34829194179e-06,3.86186657861e-06
3400000000.0,2.34956877265e-06,3.97780745731e-06,0.999996474661,-0.000175450553675,0.999996474661,-0.000175450553675,2.34956877243e-06,3.9778074573e-06
3500000000.0,2.35082120703e-06,4.09367586069e-06,0.999996467786,-0.000180615168101,0.999996467786,-0.000180615168101,2.35082120703e-06,4.09367586069e-06
3600000000.0,2.35205130017e-06,4.20947107823e-06,0.999996460907,-0.000185780093342,0.999996460907,-0.000185780093342,2.35205130017e-06,4.20947107823e-06
3700000000.0,2.35326092723e-06,4.32519524155e-06,0.999996454023,-0.000190945331361,0.999996454023,-0.000190945331361,2.35326092746e-06,4.32519524155e-06
3800000000.0,2.35445181063e-06,4.44084764011e-06,0.999996447131,-0.000196110886926,0.999996447131,-0.000196110886926,2.35445181018e-06,4.44084764011e-06
3900000000.0,2.35562563633e-06,4.55642862917e-06,0.999996440231,-0.000201276763706,0.999996440231,-0.000201276763706,2.35562563633e-06,4.55642862918e-06
4000000000.0,2.3567838483e-06,4.67193714296e-06,0.99999643332,-0.000206442966756,0.99999643332,-0.000206442966756,2.3567838483e-06,4.67193714295e-06
4100000000.0,2.35792786829e-06,4.78737495779e-06,0.999996426397,-0.00021160949826,0.999996426397,-0.00021160949826,2.35792786807e-06,4.78737495779e-06
4200000000.0,2.35905891666e-06,4.90274029732e-06,0.999996419461,-0.000216776363922,0.999996419461,-0.000216776363922,2.35905891643e-06,4.90274029732e-06
4300000000.0,2.3601782706e-06,5.01803600375e-06,0.999996412511,-0.000221943564801,0.999996412511,-0.000221943564801,2.3601782706e-06,5.01803600374e-06
4400000000.0,2.36128697351e-06,5.13326243233e-06,0.999996405545,-0.000227111104414,0.999996405545,-0.000227111104414,2.36128697373e-06,5.13326243233e-06
4500000000.0,2.36238614781e-06,5.24841567508e-06,0.999996398562,-0.000232278990515,0.999996398562,-0.000232278990515,2.36238614781e-06,5.24841567508e-06
4600000000.0,2.36347665306e-06,5.36350070582e-06,0.999996391562,-0.000237447221951,0.999996391562,-0.000237447221951,2.36347665283e-06,5.36350070582e-06
4700000000.0,2.36455943248e-06,5.47851681401e-06,0.999996384544,-0.000242615803228,0.999996384544,-0.000242615803228,2.36455943248e-06,5.478516814e-06
4800000000.0,2.36563536449e-06,5.59346257855e-06,0.999996377506,-0.000247784739541,0.999996377506,-0.000247784739541,2.36563536449e-06,5.59346257855e-06
4900000000.0,2.36670517006e-06,5.70834048637e-06,0.999996370448,-0.000252954032153,0.999996370448,-0.000252954032153,2.36670517029e-06,5.70834048637e-06
5000000000.0,2.36776959883e-06,5.82315053745e-06,0.99999636337,-0.000258123684792,0.99999636337,-0.000258123684792,2.36776959883e-06,5.82315053746e-06
5100000000.0,2.36882937221e-06,5.93789308711e-06,0.99999635627,-0.000263293700812,0.99999635627,-0.000263293700812,2.36882937243e-06,5.93789308711e-06
5200000000.0,2.36988508395e-06,6.05256849059e-06,0.999996349147,-0.000268464083544,0.999996349147,-0.000268464083544,2.36988508417e-06,6.05256849058e-06
5300000000.0,2.37093737909e-06,6.16717816899e-06,0.999996342002,-0.000273634835237,0.999996342002,-0.000273634835237,2.37093737931e-06,6.16717816899e-06
5400000000.0,2.3719867901e-06,6.28172212232e-06,0.999996334834,-0.00027880595954,0.999996334834,-0.00027880595954,2.3719867901e-06,6.28172212233e-06
5500000000.0,2.3730338885e-06,6.39620070588e-06,0.999996327642,-0.00028397745973,0.999996327642,-0.00028397745973,2.3730338885e-06,6.39620070588e-06
5600000000.0,2.37407914039e-06,6.51061498546e-06,0.999996320425,-0.000289149338355,0.999996320425,-0.000289149338355,2.37407914039e-06,6.51061498546e-06
5700000000.0,2.37512300139e-06,6.624967448e-06,0.999996313183,-0.000294321596528,0.999996313183,-0.000294321596528,2.37512300139e-06,6.62496744799e-06
5800000000.0,2.37616593801e-06,6.73925738293e-06,0.999996305916,-0.000299494238539,0.999996305916,-0.000299494238539,2.37616593779e-06,6.73925738292e-06
5900000000.0,2.37720836083e-06,6.85348336918e-06,0.999996298623,-0.000304667269378,0.999996298623,-0.000304667269378,2.37720836105e-06,6.85348336918e-06
6000000000.0,2.37825066418e-06,6.96765055822e-06,0.999996291305,-0.000309840687443,0.999996291305,-0.000309840687443,2.37825066396e-06,6.96765055822e-06
6100000000.0,2.37929319225e-06,7.08175664078e-06,0.999996283959,-0.00031501449858,0.999996283959,-0.00031501449858,2.37929319158e-06,7.08175664078e-06
6200000000.0,2.38033632716e-06,7.19580357086e-06,0.999996276587,-0.000320188704359,0.999996276587,-0.000320188704359,2.38033632693e-06,7.19580357085e-06
6300000000.0,2.3813803478e-06,7.30979276955e-06,0.999996269187,-0.000325363306867,0.999996269187,-0.000325363306867,2.3813803478e-06,7.30979276955e-06
6400000000.0,2.3824256199e-06,7.4237244145e-06,0.99999626176,-0.000330538309422,0.99999626176,-0.000330538309422,2.3824256199e-06,7.4237244145e-06
6500000000.0,2.38347238235e-06,7.53759957153e-06,0.999996254305,-0.000335713714443,0.999996254305,-0.000335713714443,2.38347238257e-06,7.53759957154e-06
6600000000.0,2.38452090717e-06,7.65142054993e-06,0.999996246822,-0.000340889523091,0.999996246822,-0.000340889523091,2.38452090717e-06,7.65142054993e-06
6700000000.0,2.38557150589e-06,7.7651853957e-06,0.99999623931,-0.000346065740779,0.99999623931,-0.000346065740779,2.38557150589e-06,7.7651853957e-06
6800000000.0,2.38662435459e-06,7.87889890501e-06,0.99999623177,-0.000351242366159,0.99999623177,-0.000351242366159,2.38662435481e-06,7.87889890502e-06
6900000000.0,2.38767972438e-06,7.99255876862e-06,0.999996224201,-0.000356419404976,0.999996224201,-0.000356419404976,2.38767972416e-06,7.99255876862e-06
7000000000.0,2.38873781089e-06,8.10616836161e-06,0.999996216603,-0.000361596857282,0.999996216603,-0.000361596857282,2.38873781111e-06,8.10616836162e-06
7100000000.0,2.38979882838e-06,8.219727684e-06,0.999996208976,-0.00036677472649,0.999996208976,-0.00036677472649,2.38979882838e-06,8.219727684e-06
7200000000.0,2.39086295184e-06,8.3332383345e-06,0.999996201319,-0.000371953014408,0.999996201319,-0.000371953014408,2.39086295184e-06,8.33323833451e-06
7300000000.0,2.39193036955e-06,8.44670173423e-06,0.999996193632,-0.00037713172301,0.999996193632,-0.00037713172301,2.39193036977e-06,8.44670173424e-06
7400000000.0,2.39300127136e-06,8.5601184161e-06,0.999996185915,-0.000382310855149,0.999996185915,-0.000382310855149,2.39300127136e-06,8.5601184161e-06
7500000000.0,2.39407580316e-06,8.67348926829e-06,0.999996178168,-0.000387490413313,0.999996178168,-0.000387490413313,2.39407580316e-06,8.67348926829e-06
7600000000.0,2.39515410105e-06,8.78681731063e-06,0.999996170392,-0.000392670397849,0.999996170392,-0.000392670397849,2.39515410128e-06,8.78681731063e-06
7700000000.0,2.39623632159e-06,8.90010201021e-06,0.999996162584,-0.00039785081265,0.999996162584,-0.00039785081265,2.39623632181e-06,8.90010201021e-06
7800000000.0,2.39732261975e-06,9.01334496577e-06,0.999996154746,-0.000403031659468,0.999996154746,-0.000403031659468,2.39732261975e-06,9.01334496577e-06
7900000000.0,2.39841308125e-06,9.12654830896e-06,0.999996146878,-0.000408212939512,0.999996146878,-0.000408212939512,2.39841308103e-06,9.12654830896e-06
8000000000.0,2.39950785286e-06,9.2397122174e-06,0.999996138979,-0.000413394655941,0.999996138979,-0.000413394655941,2.39950785286e-06,9.2397122174e-06
8100000000.0,2.40060703205e-06,9.35283900039e-06,0.999996131049,-0.00041857680977,0.999996131049,-0.00041857680977,2.40060703205e-06,9.35283900039e-06
8200000000.0,2.40171074672e-06,9.4659290132e-06,0.999996123087,-0.000423759403965,0.999996123087,-0.000423759403965,2.40171074672e-06,9.4659290132e-06
8300000000.0,2.40281907482e-06,9.57898456511e-06,0.999996115095,-0.000428942439528,0.999996115095,-0.000428942439528,2.40281907482e-06,9.57898456511e-06
8400000000.0,2.40393212692e-06,9.69200636667e-06,0.999996107071,-0.000434125919053,0.999996107071,-0.000434125919053,2.40393212692e-06,9.69200636667e-06
8500000000.0,2.40504995808e-06,9.80499708244e-06,0.999996099017,-0.000439309843174,0.999996099017,-0.000439309843174,2.40504995763e-06,9.80499708243e-06
8600000000.0,2.4061726831e-06,9.91795653477e-06,0.99999609093,-0.00044449421536,0.99999609093,-0.00044449421536,2.4061726831e-06,9.91795653477e-06
8700000000.0,2.40730037593e-06,1.00308861448e-05,0.999996082812,-0.000449679037476,0.999996082812,-0.000449679037476,2.40730037593e-06,1.00308861448e-05
8800000000.0,2.40843310717e-06,1.01437889323e-05,0.999996074663,-0.00045486430978,0.999996074663,-0.00045486430978,2.40843310717e-06,1.01437889323e-05
8900000000.0,2.40957093656e-06,1.0256664542e-05,0.999996066482,-0.000460050035901,0.999996066482,-0.000460050035901,2.40957093656e-06,1.0256664542e-05
9000000000.0,2.4107139287e-06,1.03695161714e-05,0.999996058269,-0.000465236215908,0.999996058269,-0.000465236215908,2.4107139287e-06,1.03695161714e-05
9100000000.0,2.41186213912e-06,1.04823445311e-05,0.999996050025,-0.000470422852351,0.999996050025,-0.000470422852351,2.41186213912e-06,1.04823445311e-05
9200000000.0,2.41301564241e-06,1.05951510421e-05,0.999996041748,-0.000475609947067,0.999996041748,-0.000475609947067,2.41301564241e-06,1.05951510421e-05
9300000000.0,2.414174469e-06,1.07079367702e-05,0.99999603344,-0.000480797502238,0.99999603344,-0.000480797502238,2.41417446922e-06,1.07079367702e-05
9400000000.0,2.41533868794e-06,1.08207042024e-05,0.9999960251,-0.000485985518623,0.9999960251,-0.000485985518623,2.41533868794e-06,1.08207042024e-05
9500000000.0,2.41650831789e-06,1.09334542269e-05,0.999996016727,-0.000491173998575,0.999996016727,-0.000491173998575,2.41650831789e-06,1.09334542269e-05
9600000000.0,2.41768342124e-06,1.10461886201e-05,0.999996008323,-0.000496362943552,0.999996008323,-0.000496362943552,2.4176834208e-06,1.10461886201e-05
9700000000.0,2.41886402574e-06,1.11589095135e-05,0.999995999886,-0.000501552354653,0.999995999886,-0.000501552354653,2.41886402574e-06,1.11589095135e-05
9800000000.0,2.42005017048e-06,1.12716186835e-05,0.999995991417,-0.000506742233327,0.999995991417,-0.000506742233327,2.42005017048e-06,1.12716186835e-05
9900000000.0,2.4212418912e-06,1.13843155973e-05,0.999995982916,-0.000511932583329,0.999995982916,-0.000511932583329,2.42124189143e-06,1.13843155973e-05
10000000000.0,2.42243921744e-06,1.14970039852e-05,0.999995974383,-0.000517123404145,0.999995974383,-0.000517123404145,2.42243921722e-06,1.14970039852e-05
