freq (GHz),S11_real,S11_imag,S21_real,S21_imag,S12_real,S12_imag,S22_real,S22_imag
100000000.0,-0.00448315155471,-0.0663195221887,0.995501489759,-0.0664057379117,0.995501489759,-0.0664057379117,-0.00448315155471,-0.0663195221887
200000000.0,-0.0175821738402,-0.13086955546,0.982402351261,-0.131042036755,0.982402351261,-0.131042036755,-0.0175821738402,-0.13086955546
300000000.0,-0.0386122250814,-0.192058853494,0.961372202683,-0.192317674736,0.961372202683,-0.192317674736,-0.0386122250814,-0.192058853494
400000000.0,-0.0665450024456,-0.24857408526,0.933439333642,-0.248919338406,0.933439333642,-0.248919338406,-0.0665450024456,-0.24857408526
500000000.0,-0.100120532617,-0.299455978002,0.89986371237,-0.299887768626,0.89986371237,-0.299887768626,-0.100120532617,-0.299455978002
600000000.0,-0.137975779347,-0.344124356516,0.862008372521,-0.344642800933,0.862008372521,-0.344642800933,-0.137975779347,-0.344124356516
700000000.0,-0.178761556454,-0.382357244773,0.821222498734,-0.38296246777,0.821222498734,-0.38296246777,-0.178761556454,-0.382357244773
800000000.0,-0.221233357388,-0.414237184042,0.778750596553,-0.414929316998,0.778750596553,-0.414929316998,-0.221233357388,-0.414237184042
900000000.0,-0.264310286579,-0.440080474071,0.735673560843,-0.440859653385,0.735673560843,-0.440859653385,-0.264310286579,-0.440080474071
1000000000.0,-0.307103505334,-0.46036330508,0.692880229778,-0.46122967081,0.692880229778,-0.46122967081,-0.307103505334,-0.46036330508
1100000000.0,-0.348920073296,-0.475654691969,0.651063543319,-0.476608386686,0.651063543319,-0.476608386686,-0.348920073296,-0.475654691969
1200000000.0,-0.389249741093,-0.486561627778,0.610733750524,-0.487602795567,0.610733750524,-0.487602795567,-0.389249741093,-0.486561627778
1300000000.0,-0.427741890836,-0.493688146595,0.572241469027,-0.494816932203,0.572241469027,-0.494816932203,-0.427741890836,-0.493688146595
1400000000.0,-0.464178379844,-0.497607492848,0.535804841298,-0.498824040963,0.535804841298,-0.498824040963,-0.464178379844,-0.497607492848
1500000000.0,-0.498446290608,-0.498845281056,0.501536784668,-0.500149735684,0.501536784668,-0.500149735684,-0.498446290608,-0.498845281056
1600000000.0,-0.530512996724,-0.497871100677,0.469469925389,-0.499263604625,0.469469925389,-0.499263604625,-0.530512996724,-0.497871100677
1700000000.0,-0.560404724295,-0.495096135832,0.439578037225,-0.496576830271,0.439578037225,-0.496576830271,-0.560404724295,-0.495096135832
1800000000.0,-0.588188949796,-0.490874751674,0.411793643585,-0.492443775783,0.411793643585,-0.492443775783,-0.588188949796,-0.490874751674
1900000000.0,-0.613960469555,-0.485508461845,0.386021948039,-0.487165952517,0.386021948039,-0.487165952517,-0.613960469555,-0.485508461845
2000000000.0,-0.637830715362,-0.47925112928,0.362151518703,-0.480997220889,0.362151518703,-0.480997220889,-0.637830715362,-0.47925112928
2100000000.0,-0.659919792475,-0.472314618753,0.340062250237,-0.474149442972,0.340062250237,-0.474149442972,-0.659919792475,-0.472314618753
2200000000.0,-0.680350714771,-0.464874401867,0.31963112869,-0.466798087535,0.31963112869,-0.466798087535,-0.680350714771,-0.464874401867
2300000000.0,-0.699245361036,-0.457074820305,0.300736275208,-0.459087493325,0.300736275208,-0.459087493325,-0.699245361036,-0.457074820305
2400000000.0,-0.716721746677,-0.44903385459,0.283259674321,-0.451135637869,0.283259674321,-0.451135637869,-0.716721746677,-0.44903385459
2500000000.0,-0.732892279211,-0.440847338583,0.267088918456,-0.443038351997,0.267088918456,-0.443038351997,-0.732892279211,-0.440847338583
2600000000.0,-0.747862734502,-0.432592617639,0.252118231694,-0.434872978026,0.252118231694,-0.434872978026,-0.747862734502,-0.432592617639
2700000000.0,-0.761731750079,-0.424331681743,0.23824897646,-0.426701502911,0.23824897646,-0.426701502911,-0.761731750079,-0.424331681743
2800000000.0,-0.774590680712,-0.416113822077,0.225389797937,-0.41857321484,0.225389797937,-0.41857321484,-0.774590680712,-0.416113822077
2900000000.0,-0.786523700618,-0.407977866273,0.213456521868,-0.410526938494,0.213456521868,-0.410526938494,-0.786523700618,-0.407977866273
3000000000.0,-0.797608067126,-0.39995404807,0.202371890883,-0.40259290472,0.202371890883,-0.40259290472,-0.797608067126,-0.39995404807
3100000000.0,-0.807914484098,-0.392065564039,0.192065201084,-0.394794307266,0.192065201084,-0.394794307266,-0.807914484098,-0.392065564039
3200000000.0,-0.817507521043,-0.384329865117,0.182471882927,-0.387148594322,0.182471882927,-0.387148594322,-0.817507521043,-0.384329865117
3300000000.0,-0.826446057066,-0.376759725142,0.173533057276,-0.379668537063,0.173533057276,-0.379668537063,-0.826446057066,-0.376759725142
3400000000.0,-0.834783728501,-0.369364122903,0.165195087764,-0.372363111703,0.165195087764,-0.372363111703,-0.834783728501,-0.369364122903
3500000000.0,-0.8425693662,-0.36214896894,0.157409143513,-0.365238226299,0.157409143513,-0.365238226299,-0.8425693662,-0.36214896894
3600000000.0,-0.849847413494,-0.355117703509,0.150130781163,-0.35829731872,0.150130781163,-0.35829731872,-0.849847413494,-0.355117703509
3700000000.0,-0.856658319563,-0.348271787889,0.143319551508,-0.351541847955,0.143319551508,-0.351541847955,-0.856658319563,-0.348271787889
3800000000.0,-0.863038905431,-0.341611107571,0.136938633498,-0.344971697296,0.136938633498,-0.344971697296,-0.863038905431,-0.341611107571
3900000000.0,-0.86902270161,-0.335134302709,0.1309544966,-0.338585504805,0.1309544966,-0.338585504805,-0.86902270161,-0.335134302709
4000000000.0,-0.874640257563,-0.328839038634,0.125336591326,-0.33238093381,0.125336591326,-0.33238093381,-0.874640257563,-0.328839038634
4100000000.0,-0.879919423966,-0.322722226965,0.120057066979,-0.326354894026,0.120057066979,-0.326354894026,-0.879919423966,-0.322722226965
4200000000.0,-0.884885609162,-0.316780206063,0.115090515194,-0.320503722003,0.115090515194,-0.320503722003,-0.884885609162,-0.316780206063
4300000000.0,-0.88956201154,-0.311008887998,0.110413737564,-0.314823328096,0.110413737564,-0.314823328096,-0.88956201154,-0.311008887998
4400000000.0,-0.893969829613,-0.305403877987,0.106005535554,-0.309309315892,0.106005535554,-0.309309315892,-0.893969829613,-0.305403877987
4500000000.0,-0.898128451664,-0.299960571164,0.101846520862,-0.303957078989,0.101846520862,-0.303957078989,-0.898128451664,-0.299960571164
4600000000.0,-0.902055626752,-0.294674230719,0.0979189444118,-0.298761879124,0.0979189444118,-0.298761879124,-0.902055626752,-0.294674230719
4700000000.0,-0.905767618782,-0.289540050723,0.09420654228,-0.293718908999,0.09420654228,-0.293718908999,-0.905767618782,-0.289540050723
4800000000.0,-0.909279345274,-0.284553206359,0.0906943969279,-0.288823342511,0.0906943969279,-0.288823342511,-0.909279345274,-0.284553206359
4900000000.0,-0.912604502321,-0.279708893822,0.087368812247,-0.284070374645,0.087368812247,-0.284070374645,-0.912604502321,-0.279708893822
5000000000.0,-0.915755677102,-0.275002361735,0.084217201039,-0.27945525289,0.084217201039,-0.27945525289,-0.915755677102,-0.275002361735
5100000000.0,-0.91874444923,-0.27042893561,0.081227983676,-0.2749733017,0.081227983676,-0.2749733017,-0.91874444923,-0.27042893561
5200000000.0,-0.921581482049,-0.265984036624,0.0783904967978,-0.270619941261,0.0783904967978,-0.270619941261,-0.921581482049,-0.265984036624
5300000000.0,-0.924276604928,-0.261663195737,0.0756949110179,-0.266390701611,0.0756949110179,-0.266390701611,-0.924276604928,-0.261663195737
5400000000.0,-0.926838887479,-0.257462064017,0.0731321567085,-0.262281232961,0.0731321567085,-0.262281232961,-0.926838887479,-0.257462064017
5500000000.0,-0.929276706526,-0.253376419886,0.0706938570302,-0.25828731294,0.0706938570302,-0.25828731294,-0.929276706526,-0.253376419886
5600000000.0,-0.931597806579,-0.249402173856,0.0683722674579,-0.254404851325,0.0683722674579,-0.254404851325,-0.931597806579,-0.249402173856
5700000000.0,-0.933809354479,-0.245535371251,0.0661602211328,-0.250629892765,0.0661602211328,-0.250629892765,-0.933809354479,-0.245535371251
5800000000.0,-0.935917988828,-0.241772193308,0.0640510794403,-0.246958617874,0.0640510794403,-0.246958617874,-0.935917988828,-0.241772193308
5900000000.0,-0.93792986471,-0.238108956974,0.0620386872778,-0.243387343034,0.0620386872778,-0.243387343034,-0.93792986471,-0.238108956974
6000000000.0,-0.939850694223,-0.234542113694,0.0601173325335,-0.23991251917,0.0601173325335,-0.23991251917,-0.939850694223,-0.234542113694
6100000000.0,-0.941685783211,-0.231068247377,0.0582817093472,-0.236530729725,0.0582817093472,-0.236530729725,-0.941685783211,-0.231068247377
6200000000.0,-0.943440064607,-0.227684071756,0.0565268847716,-0.233238688008,0.0565268847716,-0.233238688008,-0.943440064607,-0.227684071756
6300000000.0,-0.94511812871,-0.224386427272,0.0548482684913,-0.230033234083,0.0548482684913,-0.230033234083,-0.94511812871,-0.224386427272
6400000000.0,-0.946724250715,-0.221172277605,0.0532415852951,-0.226911331296,0.0532415852951,-0.226911331296,-0.946724250715,-0.221172277605
6500000000.0,-0.948262415761,-0.218038705963,0.0517028500282,-0.223870062561,0.0517028500282,-0.223870062561,-0.948262415761,-0.218038705963
6600000000.0,-0.949736341746,-0.214982911202,0.0502283447791,-0.220906626479,0.0502283447791,-0.220906626479,-0.949736341746,-0.214982911202
6700000000.0,-0.951149500116,-0.212002203842,0.0488145980845,-0.21801833335,0.0488145980845,-0.21801833335,-0.951149500116,-0.212002203842
6800000000.0,-0.952505134844,-0.209094002036,0.0474583659548,-0.215202601148,0.0474583659548,-0.215202601148,-0.952505134844,-0.209094002036
6900000000.0,-0.953806279758,-0.206255827535,0.0461566145467,-0.212456951475,0.0461566145467,-0.212456951475,-0.953806279758,-0.206255827535
7000000000.0,-0.95505577438,-0.203485301684,0.0449065043235,-0.209779005559,0.0449065043235,-0.209779005559,-0.95505577438,-0.203485301684
7100000000.0,-0.956256278412,-0.200780141464,0.0437053755643,-0.207166480298,0.0437053755643,-0.207166480298,-0.956256278412,-0.200780141464
7200000000.0,-0.957410285015,-0.198138155622,0.0425507350946,-0.204617184385,0.0425507350946,-0.204617184385,-0.957410285015,-0.198138155622
7300000000.0,-0.95852013296,-0.195557240884,0.0414402441243,-0.20212901452,0.0414402441243,-0.20212901452,-0.95852013296,-0.195557240884
7400000000.0,-0.959588017795,-0.193035378277,0.0403717070911,-0.19969995173,0.0403717070911,-0.19969995173,-0.959588017795,-0.193035378277
7500000000.0,-0.960616002078,-0.19057062956,0.0393430614183,-0.197328057802,0.0393430614183,-0.197328057802,-0.960616002078,-0.19057062956
7600000000.0,-0.961606024797,-0.188161133775,0.0383523681016,-0.19501147183,0.0383523681016,-0.19501147183,-0.961606024797,-0.188161133775
7700000000.0,-0.962559910023,-0.185805103922,0.0373978030537,-0.192748406891,0.0373978030537,-0.192748406891,-0.962559910023,-0.185805103922
7800000000.0,-0.963479374877,-0.183500823752,0.0364776491361,-0.190537146833,0.0364776491361,-0.190537146833,-0.963479374877,-0.183500823752
7900000000.0,-0.96436603687,-0.181246644692,0.0355902888192,-0.188376043205,0.0355902888192,-0.188376043205,-0.96436603687,-0.181246644692
8000000000.0,-0.965221420673,-0.179040982887,0.0347341974151,-0.186263512294,0.0347341974151,-0.186263512294,-0.965221420673,-0.179040982887
8100000000.0,-0.966046964359,-0.176882316369,0.0339079368332,-0.184198032293,0.0339079368332,-0.184198032293,-0.966046964359,-0.176882316369
8200000000.0,-0.966844025169,-0.174769182344,0.0331101498145,-0.182178140589,0.0331101498145,-0.182178140589,-0.966844025169,-0.174769182344
8300000000.0,-0.967613884841,-0.172700174595,0.0323395546021,-0.180202431164,0.0323395546021,-0.180202431164,-0.967613884841,-0.172700174595
8400000000.0,-0.96835775454,-0.170673941004,0.0315949400132,-0.178269552115,0.0315949400132,-0.178269552115,-0.96835775454,-0.170673941004
8500000000.0,-0.969076779418,-0.168689181173,0.0308751608771,-0.176378203281,0.0308751608771,-0.176378203281,-0.969076779418,-0.168689181173
8600000000.0,-0.96977204284,-0.166744644171,0.0301791338099,-0.174527133977,0.0301791338099,-0.174527133977,-0.96977204284,-0.166744644171
8700000000.0,-0.970444570301,-0.164839126361,0.0295058332974,-0.172715140834,0.0295058332974,-0.172715140834,-0.970444570301,-0.164839126361
8800000000.0,-0.971095333059,-0.162971469346,0.0288542880625,-0.170941065733,0.0288542880625,-0.170941065733,-0.971095333059,-0.162971469346
8900000000.0,-0.971725251508,-0.161140557997,0.0282235776915,-0.169203793841,0.0282235776915,-0.169203793841,-0.971725251508,-0.161140557997
9000000000.0,-0.972335198311,-0.15934531858,0.0276128295017,-0.167502251731,0.0276128295017,-0.167502251731,-0.972335198311,-0.15934531858
9100000000.0,-0.972926001313,-0.157584716963,0.0270212156285,-0.165835405592,0.0270212156285,-0.165835405592,-0.972926001313,-0.157584716963
9200000000.0,-0.973498446249,-0.155857756915,0.0264479503165,-0.164202259527,0.0264479503165,-0.164202259527,-0.973498446249,-0.155857756915
9300000000.0,-0.974053279267,-0.154163478477,0.0258922873971,-0.162601853922,0.0258922873971,-0.162601853922,-0.974053279267,-0.154163478477
9400000000.0,-0.974591209277,-0.152500956413,0.0253535179396,-0.161033263901,0.0253535179396,-0.161033263901,-0.974591209277,-0.152500956413
9500000000.0,-0.975112910141,-0.150869298735,0.0248309680618,-0.159495597842,0.0248309680618,-0.159495597842,-0.975112910141,-0.150869298735
9600000000.0,-0.975619022713,-0.149267645293,0.0243239968875,-0.157987995975,0.0243239968875,-0.157987995975,-0.975619022713,-0.149267645293
9700000000.0,-0.976110156748,-0.147695166431,0.0238319946413,-0.156509629036,0.0238319946413,-0.156509629036,-0.976110156748,-0.147695166431
9800000000.0,-0.976586892679,-0.146151061715,0.0233543808681,-0.155059696988,0.0233543808681,-0.155059696988,-0.976586892679,-0.146151061715
9900000000.0,-0.977049783281,-0.144634558704,0.0228906027708,-0.153637427803,0.0228906027708,-0.153637427803,-0.977049783281,-0.144634558704
10000000000.0,-0.977499355227,-0.143144911795,0.022440133655,-0.152242076295,0.022440133655,-0.152242076295,-0.977499355227,-0.143144911795
