freq (GHz),S11_real,S11_imag,S21_real,S21_imag,S12_real,S12_imag,S22_real,S22_imag
100000000.0,0.0356930274219,0.00279695408147,0.964304236709,-0.00394392130601,0.964304236709,-0.00394392130601,0.0356930274219,0.00279695408147
200000000.0,0.035953948162,0.00559050219178,0.964040248078,-0.00788444592279,0.964040248078,-0.00788444592279,0.035953948162,0.00559050219178
300000000.0,0.036176180301,0.00838170870605,0.963813615756,-0.0118226454722,0.963813615756,-0.0118226454722,0.036176180301,0.00838170870605
400000000.0,0.0363897662774,0.0111707946241,0.963594297058,-0.0157587471125,0.963594297058,-0.0157587471125,0.0363897662774,0.0111707946241
500000000.0,0.0366062884024,0.0139577849171,0.963370709426,-0.0196927814269,0.963370709426,-0.0196927814269,0.0366062884024,0.0139577849171
600000000.0,0.036831654371,0.0167426179019,0.963136944905,-0.0236246919874,0.963136944905,-0.0236246919874,0.036831654371,0.0167426179019
700000000.0,0.0370693502604,0.019525184543,0.962889517145,-0.027554374754,0.962889517145,-0.027554374754,0.0370693502604,0.019525184543
800000000.0,0.0373216286722,0.0223053466984,0.96262617325,-0.031481696378,0.96262617325,-0.031481696378,0.0373216286722,0.0223053466984
900000000.0,0.0375900381295,0.0250829469339,0.962345364385,-0.0354065040545,0.962345364385,-0.0354065040545,0.0375900381295,0.0250829469339
1000000000.0,0.0378756915982,0.0278578143489,0.962045977251,-0.0393286313752,0.962045977251,-0.0393286313752,0.0378756915982,0.0278578143489
1100000000.0,0.0381794158535,0.0306297682892,0.961727184721,-0.0432479020603,0.961727184721,-0.0432479020603,0.0381794158535,0.0306297682892
1200000000.0,0.0385018405405,0.0333986208455,0.961388356776,-0.0471641324731,0.961388356776,-0.0471641324731,0.0385018405405,0.0333986208455
1300000000.0,0.0388434542439,0.0361641786112,0.961029004436,-0.0510771333883,0.961029004436,-0.0510771333883,0.0388434542439,0.0361641786112
1400000000.0,0.0392046413664,0.0389262439608,0.960648742881,-0.0549867112812,0.960648742881,-0.0549867112812,0.0392046413664,0.0389262439608
1500000000.0,0.0395857072771,0.0416846160118,0.960247266307,-0.0588926692963,0.960247266307,-0.0588926692963,0.0395857072771,0.0416846160118
1600000000.0,0.0399868959873,0.0444390913636,0.959824330242,-0.0627948079935,0.959824330242,-0.0627948079935,0.0399868959873,0.0444390913636
1700000000.0,0.0404084028989,0.0471894646811,0.959379738806,-0.0666929259368,0.959379738806,-0.0666929259368,0.0404084028989,0.0471894646811
1800000000.0,0.0408503842074,0.0499355291627,0.958913335302,-0.070586820167,0.958913335302,-0.070586820167,0.0408503842074,0.0499355291627
1900000000.0,0.0413129639721,0.052677076924,0.958424995149,-0.0744762865895,0.958424995149,-0.0744762865895,0.0413129639721,0.052677076924
2000000000.0,0.041796239526,0.0554138993161,0.957914620472,-0.0783611202962,0.957914620472,-0.0783611202962,0.041796239526,0.0554138993161
2100000000.0,0.0423002856773,0.0581457871946,0.957382135898,-0.0822411158376,0.957382135898,-0.0822411158376,0.0423002856773,0.0581457871946
2200000000.0,0.0428251580197,0.0608725311495,0.956827485249,-0.086116067455,0.956827485249,-0.086116067455,0.0428251580197,0.0608725311495
2300000000.0,0.0433708955704,0.0635939217038,0.956250628902,-0.0899857692826,0.956250628902,-0.0899857692826,0.0433708955704,0.0635939217038
2400000000.0,0.0439375228987,0.0663097494883,0.955651541662,-0.093850015523,0.955651541662,-0.093850015523,0.0439375228987,0.0663097494883
2500000000.0,0.04452505186,0.0690198053945,0.955030211027,-0.0977086006036,0.955030211027,-0.0977086006036,0.04452505186,0.0690198053945
2600000000.0,0.0451334830223,0.0717238807129,0.95438663576,-0.101561319315,0.95438663576,-0.101561319315,0.0451334830223,0.0717238807129
2700000000.0,0.0457628068506,0.0744217672561,0.953720824711,-0.105407966939,0.953720824711,-0.105407966939,0.0457628068506,0.0744217672561
2800000000.0,0.0464130046978,0.0771132574712,0.953032795816,-0.109248339356,0.953032795816,-0.109248339356,0.0464130046978,0.0771132574712
2900000000.0,0.0470840496409,0.0797981445423,0.95232257527,-0.113082233158,0.95232257527,-0.113082233158,0.0470840496409,0.0797981445423
3000000000.0,0.0477759071915,0.0824762224845,0.951590196814,-0.116909445735,0.951590196814,-0.116909445735,0.0477759071915,0.0824762224845
3100000000.0,0.0484885359037,0.0851472862312,0.950835701123,-0.120729775368,0.950835701123,-0.120729775368,0.0484885359037,0.0851472862312
3200000000.0,0.0492218878986,0.0878111317153,0.950059135288,-0.124543021313,0.950059135288,-0.124543021313,0.0492218878986,0.0878111317153
3300000000.0,0.0499759093179,0.0904675559446,0.949260552357,-0.128348983873,0.949260552357,-0.128348983873,0.0499759093179,0.0904675559446
3400000000.0,0.0507505407209,0.0931163570726,0.948440010942,-0.132147464472,0.948440010942,-0.132147464472,0.0507505407209,0.0931163570726
3500000000.0,0.0515457174327,0.0957573344661,0.947597574868,-0.135938265722,0.947597574868,-0.135938265722,0.0515457174327,0.0957573344661
3600000000.0,0.0523613698513,0.0983902887674,0.946733312869,-0.13972119149,0.946733312869,-0.13972119149,0.0523613698513,0.0983902887674
3700000000.0,0.0531974237207,0.101015021955,0.945847298311,-0.143496046954,0.945847298311,-0.143496046954,0.0531974237207,0.101015021955
3800000000.0,0.0540538003753,0.103631337399,0.944939608951,-0.147262638664,0.944939608951,-0.147262638664,0.0540538003753,0.103631337399
3900000000.0,0.0549304169581,0.106239039917,0.944010326717,-0.151020774593,0.944010326717,-0.151020774593,0.0549304169581,0.106239039917
4000000000.0,0.0558271866195,0.108837935825,0.943059537513,-0.154770264196,0.943059537513,-0.154770264196,0.0558271866195,0.108837935825
4100000000.0,0.0567440186957,0.111427832985,0.942087331033,-0.158510918451,0.942087331033,-0.158510918451,0.0567440186957,0.111427832985
4200000000.0,0.0576808188734,0.114008540855,0.941093800603,-0.162242549914,0.941093800603,-0.162242549914,0.0576808188734,0.114008540855
4300000000.0,0.0586374893393,0.116579870532,0.940079043032,-0.165964972761,0.940079043032,-0.165964972761,0.0586374893393,0.116579870532
4400000000.0,0.059613928919,0.119141634797,0.939043158466,-0.169678002832,0.939043158466,-0.169678002832,0.059613928919,0.119141634797
4500000000.0,0.0606100332045,0.121693648154,0.937986250268,-0.173381457675,0.937986250268,-0.173381457675,0.0606100332045,0.121693648154
4600000000.0,0.0616256946735,0.124235726873,0.936908424896,-0.177075156584,0.936908424896,-0.177075156584,0.0616256946735,0.124235726873
4700000000.0,0.0626608028009,0.126767689027,0.93580979179,-0.18075892064,0.93580979179,-0.18075892064,0.0626608028009,0.126767689027
4800000000.0,0.0637152441626,0.129289354526,0.934690463272,-0.184432572745,0.934690463272,-0.184432572745,0.0637152441626,0.129289354526
4900000000.0,0.0647889025342,0.131800545158,0.933550554443,-0.188095937662,0.933550554443,-0.188095937662,0.0647889025342,0.131800545158
5000000000.0,0.0658816589838,0.134301084619,0.932390183094,-0.191748842046,0.932390183094,-0.191748842046,0.0658816589838,0.134301084619
5100000000.0,0.0669933919602,0.136790798547,0.931209469613,-0.19539111448,0.931209469613,-0.19539111448,0.0669933919602,0.136790798547
5200000000.0,0.0681239773767,0.139269514553,0.930008536909,-0.199022585502,0.930008536909,-0.199022585502,0.0681239773767,0.139269514553
5300000000.0,0.0692732886918,0.14173706225,0.928787510323,-0.202643087641,0.928787510323,-0.202643087641,0.0692732886918,0.14173706225
5400000000.0,0.0704411969859,0.144193273285,0.927546517556,-0.206252455443,0.927546517556,-0.206252455443,0.0704411969859,0.144193273285
5500000000.0,0.0716275710354,0.146637981364,0.926285688596,-0.2098505255,0.926285688596,-0.2098505255,0.0716275710354,0.146637981364
5600000000.0,0.072832277384,0.14907102228,0.925005155641,-0.213437136476,0.925005155641,-0.213437136476,0.072832277384,0.14907102228
5700000000.0,0.0740551804118,0.151492233938,0.923705053037,-0.217012129135,0.923705053037,-0.217012129135,0.0740551804118,0.151492233938
5800000000.0,0.0752961424022,0.153901456379,0.922385517205,-0.220575346361,0.922385517205,-0.220575346361,0.0752961424022,0.153901456379
5900000000.0,0.0765550236067,0.156298531804,0.921046686581,-0.224126633189,0.921046686581,-0.224126633189,0.0765550236067,0.156298531804
6000000000.0,0.0778316823083,0.158683304596,0.919688701551,-0.227665836819,0.919688701551,-0.227665836819,0.0778316823083,0.158683304596
6100000000.0,0.0791259748829,0.16105562134,0.918311704386,-0.231192806644,0.918311704386,-0.231192806644,0.0791259748829,0.16105562134
6200000000.0,0.0804377558596,0.163415330845,0.916915839189,-0.234707394267,0.916915839189,-0.234707394267,0.0804377558596,0.163415330845
6300000000.0,0.0817668779797,0.165762284162,0.915501251829,-0.23820945352,0.915501251829,-0.23820945352,0.0817668779797,0.165762284162
6400000000.0,0.0831131922544,0.168096334603,0.914068089888,-0.241698840487,0.914068089888,-0.241698840487,0.0831131922544,0.168096334603
6500000000.0,0.0844765480211,0.170417337757,0.912616502601,-0.245175413515,0.912616502601,-0.245175413515,0.0844765480211,0.170417337757
6600000000.0,0.0858567929993,0.172725151506,0.911146640804,-0.248639033233,0.911146640804,-0.248639033233,0.0858567929993,0.172725151506
6700000000.0,0.087253773345,0.175019636043,0.909658656877,-0.252089562569,0.909658656877,-0.252089562569,0.087253773345,0.175019636043
6800000000.0,0.088667333705,0.177300653882,0.908152704692,-0.255526866762,0.908152704692,-0.255526866762,0.088667333705,0.177300653882
6900000000.0,0.090097317269,0.179568069873,0.906628939555,-0.258950813379,0.906628939555,-0.258950813379,0.090097317269,0.179568069873
7000000000.0,0.0915435658227,0.181821751217,0.905087518162,-0.262361272322,0.905087518162,-0.262361272322,0.0915435658227,0.181821751217
7100000000.0,0.0930059197986,0.184061567474,0.903528598542,-0.265758115844,0.903528598542,-0.265758115844,0.0930059197986,0.184061567474
7200000000.0,0.0944842183274,0.186287390575,0.901952340005,-0.269141218559,0.901952340005,-0.269141218559,0.0944842183274,0.186287390575
7300000000.0,0.0959782992876,0.188499094831,0.900358903097,-0.272510457451,0.900358903097,-0.272510457451,0.0959782992876,0.188499094831
7400000000.0,0.0974879993557,0.190696556943,0.898748449545,-0.275865711883,0.898748449545,-0.275865711883,0.0974879993557,0.190696556943
7500000000.0,0.0990131540547,0.192879656009,0.897121142214,-0.279206863605,0.897121142214,-0.279206863605,0.0990131540547,0.192879656009
7600000000.0,0.100553597803,0.19504827353,0.895477145053,-0.282533796763,0.895477145053,-0.282533796763,0.100553597803,0.19504827353
7700000000.0,0.102109163961,0.19720229342,0.893816623048,-0.285846397901,0.893816623048,-0.285846397901,0.102109163961,0.19720229342
7800000000.0,0.103679684881,0.199341602005,0.892139742179,-0.289144555974,0.892139742179,-0.289144555974,0.103679684881,0.199341602005
7900000000.0,0.105264991952,0.201466088036,0.890446669368,-0.292428162344,0.890446669368,-0.292428162344,0.105264991952,0.201466088036
8000000000.0,0.106864915645,0.203575642685,0.888737572434,-0.295697110788,0.888737572434,-0.295697110788,0.106864915645,0.203575642685
8100000000.0,0.108479285563,0.20567015955,0.887012620051,-0.298951297505,0.887012620051,-0.298951297505,0.108479285563,0.20567015955
8200000000.0,0.110107930482,0.207749534661,0.885271981696,-0.302190621109,0.885271981696,-0.302190621109,0.110107930482,0.207749534661
8300000000.0,0.111750678399,0.209813666476,0.883515827609,-0.305414982638,0.883515827609,-0.305414982638,0.111750678399,0.209813666476
8400000000.0,0.113407356575,0.211862455885,0.881744328747,-0.308624285554,0.881744328747,-0.308624285554,0.113407356575,0.211862455885
8500000000.0,0.115077791578,0.213895806208,0.87995765674,-0.311818435739,0.87995765674,-0.311818435739,0.115077791578,0.213895806208
8600000000.0,0.116761809329,0.215913623196,0.878155983848,-0.314997341495,0.878155983848,-0.314997341495,0.116761809329,0.215913623196
8700000000.0,0.118459235143,0.217915815026,0.876339482917,-0.318160913548,0.876339482917,-0.318160913548,0.118459235143,0.217915815026
8800000000.0,0.120169893773,0.219902292302,0.874508327336,-0.321309065037,0.874508327336,-0.321309065037,0.120169893773,0.219902292302
8900000000.0,0.121893609451,0.22187296805,0.872662690997,-0.324441711518,0.872662690997,-0.324441711518,0.121893609451,0.22187296805
9000000000.0,0.123630205932,0.223827757715,0.870802748251,-0.327558770957,0.870802748251,-0.327558770957,0.123630205932,0.223827757715
9100000000.0,0.12537950653,0.225766579154,0.868928673869,-0.330660163726,0.868928673869,-0.330660163726,0.12537950653,0.225766579154
9200000000.0,0.127141334166,0.227689352635,0.867040642999,-0.333745812597,0.867040642999,-0.333745812597,0.127141334166,0.227689352635
9300000000.0,0.128915511401,0.229596000828,0.865138831126,-0.336815642739,0.865138831126,-0.336815642739,0.128915511401,0.229596000828
9400000000.0,0.130701860482,0.231486448798,0.863223414035,-0.339869581708,0.863223414035,-0.339869581708,0.130701860482,0.231486448798
9500000000.0,0.132500203378,0.233360624001,0.861294567767,-0.342907559443,0.861294567767,-0.342907559443,0.132500203378,0.233360624001
9600000000.0,0.134310361818,0.235218456274,0.859352468584,-0.345929508256,0.859352468584,-0.345929508256,0.134310361818,0.235218456274
9700000000.0,0.136132157334,0.237059877824,0.85739729293,-0.348935362825,0.85739729293,-0.348935362825,0.136132157334,0.237059877824
9800000000.0,0.137965411293,0.238884823224,0.85542921739,-0.351925060182,0.85542921739,-0.351925060182,0.137965411293,0.238884823224
9900000000.0,0.139809944939,0.2406932294,0.853448418655,-0.35489853971,0.853448418655,-0.35489853971,0.139809944939,0.2406932294
10000000000.0,0.141665579428,0.242485035623,0.851455073486,-0.357855743125,0.851455073486,-0.357855743125,0.141665579428,0.242485035623
