freq (GHz),S11_real,S11_imag,S21_real,S21_imag,S12_real,S12_imag,S22_real,S22_imag
100000000.0,0.00636611488547,0.001322001438,0.993622425864,-0.00503969349598,0.993622425864,-0.00503969349598,0.00636611488547,0.001322001438
200000000.0,0.00642672302742,0.00264333063531,0.993537506954,-0.0100786957192,0.993537506954,-0.0100786957192,0.00642672302742,0.00264333063531
300000000.0,0.00648962705277,0.00396405930582,0.99343643959,-0.0151170661256,0.99343643959,-0.0151170661256,0.00648962705277,0.00396405930582
400000000.0,0.00656031408149,0.00528411879663,0.993313735389,-0.0201547190705,0.993313735389,-0.0201547190705,0.00656031408149,0.00528411879663
500000000.0,0.00664089256954,0.00660340817551,0.993167284402,-0.0251915342384,0.993167284402,-0.0251915342384,0.00664089256954,0.00660340817551
600000000.0,0.00673243303437,0.0079218123984,0.992996014398,-0.0302273756311,0.992996014398,-0.0302273756311,0.00673243303437,0.0079218123984
700000000.0,0.00683556302338,0.00923920881481,0.992799295897,-0.0352620984906,0.992799295897,-0.0352620984906,0.00683556302338,0.00923920881481
800000000.0,0.00695068422806,0.0105554701796,0.992576725071,-0.0402955525595,0.992576725071,-0.0402955525595,0.00695068422806,0.0105554701796
900000000.0,0.00707806913894,0.0118704662707,0.992328027092,-0.0453275838625,0.992328027092,-0.0453275838625,0.00707806913894,0.0118704662707
1000000000.0,0.0072179100297,0.0131840648486,0.992053007156,-0.0503580357798,0.992053007156,-0.0503580357798,0.0072179100297,0.0131840648486
1100000000.0,0.00737034618215,0.0144961322696,0.991751523263,-0.055386749744,0.991751523263,-0.055386749744,0.00737034618215,0.0144961322696
1200000000.0,0.00753548010625,0.0158065338989,0.991423470003,-0.0604135657165,0.991423470003,-0.0604135657165,0.00753548010625,0.0158065338989
1300000000.0,0.00771338774356,0.0171151344034,0.991068768357,-0.0654383225301,0.991068768357,-0.0654383225301,0.00771338774356,0.0171151344034
1400000000.0,0.0079041251734,0.0184217979667,0.990687358998,-0.0704608581429,0.990687358998,-0.0704608581429,0.0079041251734,0.0184217979667
1500000000.0,0.00810773318245,0.0197263884519,0.990279197719,-0.0754810098336,0.990279197719,-0.0754810098336,0.00810773318245,0.0197263884519
1600000000.0,0.00832424047446,0.0210287695292,0.989844252236,-0.0804986143547,0.989844252236,-0.0804986143547,0.00832424047446,0.0210287695292
1700000000.0,0.00855366598388,0.022328804778,0.98938249987,-0.085513508057,0.98938249987,-0.085513508057,0.00855366598388,0.022328804778
1800000000.0,0.00879602058122,0.0236263577707,0.988893925852,-0.0905255269918,0.988893925852,-0.0905255269918,0.00879602058122,0.0236263577707
1900000000.0,0.00905130835498,0.0249212921425,0.988378522038,-0.0955345069962,0.988378522038,-0.0955345069962,0.00905130835498,0.0249212921425
2000000000.0,0.00931952759205,0.0262134716514,0.987836285935,-0.100540283767,0.987836285935,-0.100540283767,0.00931952759205,0.0262134716514
2100000000.0,0.00960067153914,0.0275027602304,0.987267219943,-0.105542692923,0.987267219943,-0.105542692923,0.00960067153914,0.0275027602304
2200000000.0,0.00989472900244,0.0287890220324,0.986671330757,-0.110541570063,0.986671330757,-0.110541570063,0.00989472900244,0.0287890220324
2300000000.0,0.0102016848259,0.0300721214718,0.98604862889,-0.115536750812,0.98604862889,-0.115536750812,0.0102016848259,0.0300721214718
2400000000.0,0.0105215202771,0.0313519232611,0.985399128293,-0.12052807087,0.985399128293,-0.12052807087,0.0105215202771,0.0313519232611
2500000000.0,0.0108542133619,0.0326282924446,0.984722846039,-0.125515366048,0.984722846039,-0.125515366048,0.0108542133619,0.0326282924446
2600000000.0,0.0111997390835,0.0339010944294,0.98401980207,-0.130498472307,0.98401980207,-0.130498472307,0.0111997390835,0.0339010944294
2700000000.0,0.0115580696578,0.0351701950149,0.983290018979,-0.135477225794,0.983290018979,-0.135477225794,0.0115580696578,0.0351701950149
2800000000.0,0.0119291746942,0.0364354604196,0.982533521837,-0.140451462872,0.982533521837,-0.140451462872,0.0119291746942,0.0364354604196
2900000000.0,0.0123130213481,0.037696757307,0.981750338039,-0.145421020148,0.981750338039,-0.145421020148,0.0123130213481,0.037696757307
3000000000.0,0.0127095744512,0.0389539528099,0.980940497176,-0.150385734505,0.980940497176,-0.150385734505,0.0127095744512,0.0389539528099
3100000000.0,0.0131187966232,0.0402069145541,0.980104030927,-0.155345443125,0.980104030927,-0.155345443125,0.0131187966232,0.0402069145541
3200000000.0,0.0135406483685,0.0414555106801,0.979240972963,-0.160299983517,0.979240972963,-0.160299983517,0.0135406483685,0.0414555106801
3300000000.0,0.0139750881604,0.0426996098654,0.978351358863,-0.165249193538,0.978351358863,-0.165249193538,0.0139750881604,0.0426996098654
3400000000.0,0.0144220725151,0.0439390813448,0.977435226045,-0.170192911419,0.977435226045,-0.170192911419,0.0144220725151,0.0439390813448
3500000000.0,0.0148815560571,0.0451737949309,0.976492613701,-0.175130975786,0.976492613701,-0.175130975786,0.0148815560571,0.0451737949309
3600000000.0,0.0153534915774,0.0464036210333,0.975523562741,-0.18006322568,0.975523562741,-0.18006322568,0.0153534915774,0.0464036210333
3700000000.0,0.015837830085,0.0476284306781,0.974528115741,-0.184989500578,0.974528115741,-0.184989500578,0.015837830085,0.0476284306781
3800000000.0,0.0163345208545,0.0488480955263,0.973506316899,-0.189909640414,0.973506316899,-0.189909640414,0.0163345208545,0.0488480955263
3900000000.0,0.0168435114682,0.0500624878919,0.972458211996,-0.194823485599,0.972458211996,-0.194823485599,0.0168435114682,0.0500624878919
4000000000.0,0.0173647478549,0.0512714807595,0.971383848356,-0.199730877037,0.971383848356,-0.199730877037,0.0173647478549,0.0512714807595
4100000000.0,0.0178981743257,0.0524749478022,0.970283274811,-0.204631656144,0.970283274811,-0.204631656144,0.0178981743257,0.0524749478022
4200000000.0,0.0184437336066,0.0536727633981,0.969156541676,-0.209525664865,0.969156541676,-0.209525664865,0.0184437336066,0.0536727633981
4300000000.0,0.0190013668697,0.0548648026472,0.968003700711,-0.214412745696,0.968003700711,-0.214412745696,0.0190013668697,0.0548648026472
4400000000.0,0.0195710137607,0.0560509413878,0.966824805101,-0.219292741694,0.966824805101,-0.219292741694,0.0195710137607,0.0560509413878
4500000000.0,0.0201526124269,0.0572310562126,0.965619909427,-0.224165496497,0.965619909427,-0.224165496497,0.0201526124269,0.0572310562126
4600000000.0,0.0207460995413,0.0584050244844,0.964389069646,-0.22903085434,0.964389069646,-0.22903085434,0.0207460995413,0.0584050244844
4700000000.0,0.0213514103276,0.0595727243517,0.963132343063,-0.233888660068,0.963132343063,-0.233888660068,0.0213514103276,0.0595727243517
4800000000.0,0.0219684785823,0.0607340347642,0.961849788313,-0.238738759157,0.961849788313,-0.238738759157,0.0219684785823,0.0607340347642
4900000000.0,0.0225972366972,0.0618888354873,0.96054146534,-0.243580997722,0.96054146534,-0.243580997722,0.0225972366972,0.0618888354873
5000000000.0,0.0232376156799,0.0630370071173,0.95920743538,-0.248415222535,0.95920743538,-0.248415222535,0.0232376156799,0.0630370071173
5100000000.0,0.0238895451743,0.0641784310956,0.957847760935,-0.253241281042,0.957847760935,-0.253241281042,0.0238895451743,0.0641784310956
5200000000.0,0.0245529534801,0.0653129897234,0.956462505762,-0.25805902137,0.956462505762,-0.25805902137,0.0245529534801,0.0653129897234
5300000000.0,0.0252277675721,0.0664405661753,0.955051734853,-0.262868292348,0.955051734853,-0.262868292348,0.0252277675721,0.0664405661753
5400000000.0,0.0259139131186,0.0675610445133,0.953615514416,-0.267668943516,0.953615514416,-0.267668943516,0.0259139131186,0.0675610445133
5500000000.0,0.0266113144995,0.0686743097004,0.95215391186,-0.272460825139,0.95215391186,-0.272460825139,0.0266113144995,0.0686743097004
5600000000.0,0.0273198948242,0.0697802476141,0.950666995778,-0.277243788221,0.950666995778,-0.277243788221,0.0273198948242,0.0697802476141
5700000000.0,0.028039575949,0.070878745059,0.949154835932,-0.282017684516,0.949154835932,-0.282017684516,0.028039575949,0.070878745059
5800000000.0,0.0287702784942,0.0719696897805,0.947617503235,-0.28678236654,0.947617503235,-0.28678236654,0.0287702784942,0.0719696897805
5900000000.0,0.0295119218612,0.0730529704768,0.946055069737,-0.291537687588,0.946055069737,-0.291537687588,0.0295119218612,0.0730529704768
6000000000.0,0.0302644242491,0.0741284768116,0.944467608609,-0.296283501737,0.944467608609,-0.296283501737,0.0302644242491,0.0741284768116
6100000000.0,0.0310277026712,0.0751960994266,0.942855194127,-0.301019663865,0.942855194127,-0.301019663865,0.0310277026712,0.0751960994266
6200000000.0,0.0318016729715,0.076255729953,0.941217901661,-0.30574602966,0.941217901661,-0.30574602966,0.0318016729715,0.076255729953
6300000000.0,0.0325862498412,0.077307261024,0.939555807653,-0.310462455629,0.939555807653,-0.310462455629,0.0325862498412,0.077307261024
6400000000.0,0.0333813468341,0.0783505862856,0.937868989609,-0.315168799111,0.937868989609,-0.315168799111,0.0333813468341,0.0783505862856
6500000000.0,0.0341868763834,0.0793856004087,0.936157526078,-0.319864918288,0.936157526078,-0.319864918288,0.0341868763834,0.0793856004087
6600000000.0,0.0350027498176,0.0804121990997,0.934421496645,-0.324550672192,0.934421496645,-0.324550672192,0.0350027498176,0.0804121990997
6700000000.0,0.0358288773758,0.0814302791118,0.932660981909,-0.32922592072,0.932660981909,-0.32922592072,0.0358288773758,0.0814302791118
6800000000.0,0.0366651682243,0.0824397382557,0.930876063472,-0.333890524639,0.930876063472,-0.333890524639,0.0366651682243,0.0824397382557
6900000000.0,0.037511530472,0.0834404754098,0.929066823923,-0.338544345597,0.929066823923,-0.338544345597,0.037511530472,0.0834404754098
7000000000.0,0.0383678711863,0.0844323905308,0.927233346826,-0.343187246134,0.927233346826,-0.343187246134,0.0383678711863,0.0844323905308
7100000000.0,0.0392340964086,0.0854153846637,0.925375716704,-0.34781908969,0.925375716704,-0.34781908969,0.0392340964086,0.0854153846637
7200000000.0,0.0401101111705,0.0863893599515,0.923494019024,-0.352439740613,0.923494019024,-0.352439740613,0.0401101111705,0.0863893599515
7300000000.0,0.0409958195092,0.0873542196451,0.921588340182,-0.357049064167,0.921588340182,-0.357049064167,0.0409958195092,0.0873542196451
7400000000.0,0.0418911244832,0.0883098681126,0.919658767492,-0.361646926545,0.919658767492,-0.361646926545,0.0418911244832,0.0883098681126
7500000000.0,0.0427959281881,0.0892562108483,0.917705389167,-0.366233194869,0.917705389167,-0.366233194869,0.0427959281881,0.0892562108483
7600000000.0,0.0437101317721,0.0901931544821,0.91572829431,-0.370807737207,0.91572829431,-0.370807737207,0.0437101317721,0.0901931544821
7700000000.0,0.0446336354519,0.0911206067878,0.913727572894,-0.375370422573,0.913727572894,-0.375370422573,0.0446336354519,0.0911206067878
7800000000.0,0.0455663385285,0.0920384766921,0.911703315751,-0.379921120938,0.911703315751,-0.379921120938,0.0455663385285,0.0920384766921
7900000000.0,0.0465081394025,0.0929466742826,0.909655614556,-0.384459703237,0.909655614556,-0.384459703237,0.0465081394025,0.0929466742826
8000000000.0,0.04745893559,0.0938451108161,0.907584561816,-0.388986041375,0.907584561816,-0.388986041375,0.04745893559,0.0938451108161
8100000000.0,0.0484186237386,0.0947336987264,0.90549025085,-0.393500008236,0.90549025085,-0.393500008236,0.0484186237386,0.0947336987264
8200000000.0,0.0493870996424,0.0956123516321,0.903372775781,-0.398001477686,0.903372775781,-0.398001477686,0.0493870996424,0.0956123516321
8300000000.0,0.0503642582586,0.0964809843439,0.901232231515,-0.40249032458,0.901232231515,-0.40249032458,0.0503642582586,0.0964809843439
8400000000.0,0.0513499937225,0.0973395128721,0.899068713732,-0.40696642477,0.899068713732,-0.40696642477,0.0513499937225,0.0973395128721
8500000000.0,0.0523441993637,0.0981878544333,0.896882318869,-0.411429655111,0.896882318869,-0.411429655111,0.0523441993637,0.0981878544333
8600000000.0,0.0533467677213,0.0990259274574,0.894673144107,-0.415879893462,0.894673144107,-0.415879893462,0.0533467677213,0.0990259274574
8700000000.0,0.0543575905606,0.0998536515943,0.892441287354,-0.420317018696,0.892441287354,-0.420317018696,0.0543575905606,0.0998536515943
8800000000.0,0.0553765588876,0.10067094772,0.890186847234,-0.424740910704,0.890186847234,-0.424740910704,0.0553765588876,0.10067094772
8900000000.0,0.0564035629659,0.101477737944,0.88790992307,-0.429151450399,0.88790992307,-0.429151450399,0.0564035629659,0.101477737944
9000000000.0,0.0574384923316,0.102273945612,0.885610614872,-0.43354851972,0.885610614872,-0.43354851972,0.0574384923316,0.102273945612
9100000000.0,0.0584812358096,0.103059495315,0.883289023321,-0.437932001637,0.883289023321,-0.437932001637,0.0584812358096,0.103059495315
9200000000.0,0.0595316815292,0.103834312896,0.880945249753,-0.442301780157,0.880945249753,-0.442301780157,0.0595316815292,0.103834312896
9300000000.0,0.0605897169396,0.104598325449,0.87857939615,-0.446657740326,0.87857939615,-0.446657740326,0.0605897169396,0.104598325449
9400000000.0,0.0616552288259,0.10535146133,0.87619156512,-0.450999768232,0.87619156512,-0.450999768232,0.0616552288259,0.10535146133
9500000000.0,0.062728103325,0.106093650161,0.873781859886,-0.45532775101,0.873781859886,-0.45532775101,0.062728103325,0.106093650161
9600000000.0,0.0638082259408,0.106824822831,0.871350384269,-0.459641576845,0.871350384269,-0.459641576845,0.0638082259408,0.106824822831
9700000000.0,0.0648954815605,0.107544911507,0.868897242678,-0.463941134975,0.868897242678,-0.463941134975,0.0648954815605,0.107544911507
9800000000.0,0.0659897544698,0.108253849631,0.866422540091,-0.468226315693,0.866422540091,-0.468226315693,0.0659897544698,0.108253849631
9900000000.0,0.0670909283691,0.108951571929,0.863926382045,-0.472497010351,0.863926382045,-0.472497010351,0.0670909283691,0.108951571929
10000000000.0,0.0681988863887,0.109638014413,0.861408874618,-0.476753111362,0.861408874618,-0.476753111362,0.0681988863887,0.109638014413
