freq (GHz),S11_real,S11_imag,S21_real,S21_imag,S12_real,S12_imag,S22_real,S22_imag
100000000.0,0.00350055781105,0.0018183453763,0.99649200082,-0.0045860081284,0.99649200082,-0.0045860081284,0.00350055781105,0.0018183453763
200000000.0,0.00354765659457,0.0036362373668,0.996430791066,-0.00917161796335,0.996430791066,-0.00917161796335,0.00354765659457,0.0036362373668
300000000.0,0.00360536711215,0.00545363127427,0.99635129876,-0.0137568165316,0.99635129876,-0.0137568165316,0.00360536711215,0.00545363127427
400000000.0,0.00367670744853,0.00727040454481,0.996250504219,-0.0183415036806,0.996250504219,-0.0183415036806,0.00367670744853,0.00727040454481
500000000.0,0.00376283511113,0.00908641677889,0.996127247997,-0.0229255566288,0.996127247997,-0.0229255566288,0.00376283511113,0.00908641677889
600000000.0,0.00386433562003,0.010901519866,0.99598094233,-0.0275088417055,0.99598094233,-0.0275088417055,0.00386433562003,0.010901519866
700000000.0,0.00398154997783,0.0127155616266,0.995811243685,-0.0320912188168,0.995811243685,-0.0320912188168,0.00398154997783,0.0127155616266
800000000.0,0.0041146941459,0.014528387504,0.995617933308,-0.0366725436346,0.995617933308,-0.0366725436346,0.0041146941459,0.014528387504
900000000.0,0.00426391222259,0.0163398414773,0.995400864059,-0.0412526688391,0.995400864059,-0.0412526688391,0.00426391222259,0.0163398414773
1000000000.0,0.00442930338884,0.0181497666059,0.99515993348,-0.0458314448965,0.99515993348,-0.0458314448965,0.00442930338884,0.0181497666059
1100000000.0,0.00461093688184,0.0199580053789,0.994895068834,-0.0504087205826,0.994895068834,-0.0504087205826,0.00461093688184,0.0199580053789
1200000000.0,0.00480886091492,0.0217643999537,0.994606218194,-0.054984343354,0.994606218194,-0.054984343354,0.00480886091492,0.0217643999537
1300000000.0,0.00502310828835,0.0235687923261,0.99429334484,-0.0595581596246,0.99429334484,-0.0595581596246,0.00502310828835,0.0235687923261
1400000000.0,0.00525370007707,0.025371024457,0.993956423584,-0.0641300149776,0.993956423584,-0.0641300149776,0.00525370007707,0.025371024457
1500000000.0,0.00550064814381,0.0271709383698,0.993595438259,-0.0686997543344,0.993595438259,-0.0686997543344,0.00550064814381,0.0271709383698
1600000000.0,0.00576395690494,0.0289683762285,0.993210379966,-0.0732672220913,0.993210379966,-0.0732672220913,0.00576395690494,0.0289683762285
1700000000.0,0.0060436246038,0.0307631804009,0.992801245798,-0.0778322622339,0.992801245798,-0.0778322622339,0.0060436246038,0.0307631804009
1800000000.0,0.00633964425011,0.0325551935119,0.992368037916,-0.0823947184335,0.992368037916,-0.0823947184335,0.00633964425011,0.0325551935119
1900000000.0,0.00665200432684,0.0343442584889,0.991910762841,-0.0869544341311,0.991910762841,-0.0869544341311,0.00665200432684,0.0343442584889
2000000000.0,0.00698068933156,0.0361302186021,0.99142943092,-0.0915112526101,0.99142943092,-0.0915112526101,0.00698068933156,0.0361302186021
2100000000.0,0.00732568019774,0.0379129174999,0.990924055909,-0.0960650170611,0.990924055909,-0.0960650170611,0.00732568019774,0.0379129174999
2200000000.0,0.00768695462741,0.0396921992404,0.990394654645,-0.100615570641,0.990394654645,-0.100615570641,0.00768695462741,0.0396921992404
2300000000.0,0.00806448735725,0.0414679083215,0.989841246783,-0.105162756524,0.989841246783,-0.105162756524,0.00806448735725,0.0414679083215
2400000000.0,0.00845825037412,0.0432398897077,0.989263854586,-0.109706417951,0.989263854586,-0.109706417951,0.00845825037412,0.0432398897077
2500000000.0,0.00886821309167,0.0450079888552,0.988662502749,-0.114246398275,0.988662502749,-0.114246398275,0.00886821309167,0.0450079888552
2600000000.0,0.00929434249664,0.0467720517367,0.98803721826,-0.118782541002,0.98803721826,-0.118782541002,0.00929434249664,0.0467720517367
2700000000.0,0.00973660327125,0.0485319248634,0.987388030278,-0.123314689827,0.987388030278,-0.123314689827,0.00973660327125,0.0485319248634
2800000000.0,0.0101949578967,0.0502874553073,0.986714970032,-0.127842688673,0.986714970032,-0.127842688673,0.0101949578967,0.0502874553073
2900000000.0,0.0106693667413,0.0520384907217,0.98601807074,-0.132366381727,0.98601807074,-0.132366381727,0.0106693667413,0.0520384907217
3000000000.0,0.011159788137,0.0537848793618,0.985297367531,-0.136885613468,0.985297367531,-0.136885613468,0.011159788137,0.0537848793618
3100000000.0,0.0116661784449,0.0555264701042,0.984552897383,-0.1414002287,0.984552897383,-0.1414002287,0.0116661784449,0.0555264701042
3200000000.0,0.0121884921135,0.0572631124658,0.983784699068,-0.145910072585,0.983784699068,-0.145910072585,0.0121884921135,0.0572631124658
3300000000.0,0.0127266817301,0.0589946566225,0.982992813104,-0.150414990665,0.982992813104,-0.150414990665,0.0127266817301,0.0589946566225
3400000000.0,0.0132806980662,0.060720953427,0.98217728171,-0.154914828895,0.98217728171,-0.154914828895,0.0132806980662,0.060720953427
3500000000.0,0.013850490119,0.0624418544272,0.981338148766,-0.159409433664,0.981338148766,-0.159409433664,0.013850490119,0.0624418544272
3600000000.0,0.0144360051483,0.0641572118826,0.980475459781,-0.163898651827,0.980475459781,-0.163898651827,0.0144360051483,0.0641572118826
3700000000.0,0.0150371887107,0.0658668787821,0.979589261859,-0.168382330721,0.979589261859,-0.168382330721,0.0150371887107,0.0658668787821
3800000000.0,0.0156539846911,0.0675707088605,0.978679603669,-0.172860318199,0.978679603669,-0.172860318199,0.0156539846911,0.0675707088605
3900000000.0,0.0162863353314,0.0692685566147,0.97774653542,-0.177332462642,0.97774653542,-0.177332462642,0.0162863353314,0.0692685566147
4000000000.0,0.0169341812578,0.0709602773199,0.976790108834,-0.18179861299,0.976790108834,-0.18179861299,0.0169341812578,0.0709602773199
4100000000.0,0.0175974615066,0.0726457270459,0.975810377121,-0.186258618761,0.975810377121,-0.186258618761,0.0175974615066,0.0726457270459
4200000000.0,0.0182761135474,0.0743247626722,0.974807394959,-0.190712330068,0.974807394959,-0.190712330068,0.0182761135474,0.0743247626722
4300000000.0,0.0189700733069,0.0759972419034,0.973781218472,-0.195159597648,0.973781218472,-0.195159597648,0.0189700733069,0.0759972419034
4400000000.0,0.0196792751904,0.0776630232849,0.97273190521,-0.199600272875,0.97273190521,-0.199600272875,0.0196792751904,0.0776630232849
4500000000.0,0.0204036521024,0.079321966217,0.971659514126,-0.20403420778,0.971659514126,-0.20403420778,0.0204036521024,0.079321966217
4600000000.0,0.0211431354676,0.0809739309703,0.970564105563,-0.208461255076,0.970564105563,-0.208461255076,0.0211431354676,0.0809739309703
4700000000.0,0.02189765525,0.0826187786998,0.96944574123,-0.21288126817,0.96944574123,-0.21288126817,0.02189765525,0.0826187786998
4800000000.0,0.0226671399722,0.0842563714589,0.968304484188,-0.217294101184,0.968304484188,-0.217294101184,0.0226671399722,0.0842563714589
4900000000.0,0.0234515167341,0.0858865722141,0.967140398832,-0.221699608972,0.967140398832,-0.221699608972,0.0234515167341,0.0858865722141
5000000000.0,0.0242507112307,0.087509244858,0.965953550871,-0.226097647141,0.965953550871,-0.226097647141,0.0242507112307,0.087509244858
5100000000.0,0.0250646477707,0.0891242542233,0.964744007316,-0.230488072061,0.964744007316,-0.230488072061,0.0250646477707,0.0891242542233
5200000000.0,0.0258932492935,0.0907314660962,0.963511836458,-0.234870740888,0.963511836458,-0.234870740888,0.0258932492935,0.0907314660962
5300000000.0,0.0267364373871,0.0923307472293,0.962257107857,-0.239245511577,0.962257107857,-0.239245511577,0.0267364373871,0.0923307472293
5400000000.0,0.0275941323047,0.0939219653545,0.960979892323,-0.243612242899,0.960979892323,-0.243612242899,0.0275941323047,0.0939219653545
5500000000.0,0.0284662529824,0.095504989196,0.9596802619,-0.247970794453,0.9596802619,-0.247970794453,0.0284662529824,0.095504989196
5600000000.0,0.0293527170555,0.0970796884824,0.958358289849,-0.252321026689,0.958358289849,-0.252321026689,0.0293527170555,0.0970796884824
5700000000.0,0.0302534408755,0.0986459339591,0.957014050636,-0.256662800914,0.957014050636,-0.256662800914,0.0302534408755,0.0986459339591
5800000000.0,0.0311683395268,0.1002035974,0.955647619913,-0.260995979311,0.955647619913,-0.260995979311,0.0311683395268,0.1002035974
5900000000.0,0.0320973268432,0.101752551621,0.954259074501,-0.265320424954,0.954259074501,-0.265320424954,0.0320973268432,0.101752551621
6000000000.0,0.0330403154247,0.103292670489,0.95284849238,-0.269636001818,0.95284849238,-0.269636001818,0.0330403154247,0.103292670489
6100000000.0,0.0339972166533,0.104823828934,0.951415952666,-0.273942574797,0.951415952666,-0.273942574797,0.0339972166533,0.104823828934
6200000000.0,0.0349679407103,0.106345902962,0.949961535601,-0.278240009711,0.949961535601,-0.278240009711,0.0349679407103,0.106345902962
6300000000.0,0.0359523965921,0.107858769664,0.948485322535,-0.282528173327,0.948485322535,-0.282528173327,0.0359523965921,0.107858769664
6400000000.0,0.036950492127,0.109362307228,0.946987395911,-0.286806933364,0.946987395911,-0.286806933364,0.036950492127,0.109362307228
6500000000.0,0.0379621339912,0.110856394947,0.945467839246,-0.291076158508,0.945467839246,-0.291076158508,0.0379621339912,0.110856394947
6600000000.0,0.0389872277255,0.112340913234,0.943926737123,-0.295335718426,0.943926737123,-0.295335718426,0.0389872277255,0.112340913234
6700000000.0,0.0400256777517,0.113815743625,0.942364175165,-0.299585483774,0.942364175165,-0.299585483774,0.0400256777517,0.113815743625
6800000000.0,0.0410773873887,0.115280768798,0.940780240028,-0.30382532621,0.940780240028,-0.30382532621,0.0410773873887,0.115280768798
6900000000.0,0.0421422588692,0.116735872572,0.939175019382,-0.308055118405,0.939175019382,-0.308055118405,0.0421422588692,0.116735872572
7000000000.0,0.0432201933559,0.118180939925,0.937548601892,-0.312274734055,0.937548601892,-0.312274734055,0.0432201933559,0.118180939925
7100000000.0,0.0443110909583,0.119615857,0.935901077208,-0.316484047887,0.935901077208,-0.316484047887,0.0443110909583,0.119615857
7200000000.0,0.0454148507486,0.121040511112,0.934232535945,-0.320682935674,0.934232535945,-0.320682935674,0.0454148507486,0.121040511112
7300000000.0,0.0465313707785,0.122454790758,0.932543069668,-0.324871274243,0.932543069668,-0.324871274243,0.0465313707785,0.122454790758
7400000000.0,0.0476605480956,0.123858585627,0.930832770875,-0.329048941481,0.930832770875,-0.329048941481,0.0476605480956,0.123858585627
7500000000.0,0.04880227876,0.125251786607,0.929101732986,-0.333215816352,0.929101732986,-0.333215816352,0.04880227876,0.125251786607
7600000000.0,0.0499564578605,0.126634285791,0.927350050318,-0.337371778898,0.927350050318,-0.337371778898,0.0499564578605,0.126634285791
7700000000.0,0.0511229795315,0.128005976488,0.92557781808,-0.341516710252,0.92557781808,-0.341516710252,0.0511229795315,0.128005976488
7800000000.0,0.0523017369692,0.129366753229,0.923785132345,-0.345650492647,0.923785132345,-0.345650492647,0.0523017369692,0.129366753229
7900000000.0,0.0534926224485,0.130716511773,0.921972090045,-0.349773009419,0.921972090045,-0.349773009419,0.0534926224485,0.130716511773
8000000000.0,0.0546955273389,0.132055149115,0.920138788946,-0.35388414502,0.920138788946,-0.35388414502,0.0546955273389,0.132055149115
8100000000.0,0.0559103421221,0.133382563495,0.918285327638,-0.357983785026,0.918285327638,-0.357983785026,0.0559103421221,0.133382563495
8200000000.0,0.0571369564074,0.1346986544,0.916411805515,-0.362071816138,0.916411805515,-0.362071816138,0.0571369564074,0.1346986544
8300000000.0,0.0583752589493,0.136003322574,0.914518322761,-0.366148126196,0.914518322761,-0.366148126196,0.0583752589493,0.136003322574
8400000000.0,0.0596251376634,0.137296470023,0.912604980332,-0.370212604182,0.912604980332,-0.370212604182,0.0596251376634,0.137296470023
8500000000.0,0.0608864796432,0.13857800002,0.910671879942,-0.374265140226,0.910671879942,-0.374265140226,0.0608864796432,0.13857800002
8600000000.0,0.0621591711768,0.139847817111,0.908719124045,-0.378305625614,0.908719124045,-0.378305625614,0.0621591711768,0.139847817111
8700000000.0,0.0634430977635,0.141105827121,0.906746815817,-0.382333952794,0.906746815817,-0.382333952794,0.0634430977635,0.141105827121
8800000000.0,0.0647381441299,0.14235193716,0.904755059145,-0.38635001538,0.904755059145,-0.38635001538,0.0647381441299,0.14235193716
8900000000.0,0.0660441942471,0.143586055624,0.902743958607,-0.390353708159,0.902743958607,-0.390353708159,0.0660441942471,0.143586055624
9000000000.0,0.0673611313469,0.144808092204,0.900713619454,-0.394344927094,0.900713619454,-0.394344927094,0.0673611313469,0.144808092204
9100000000.0,0.0686888379384,0.146017957889,0.8986641476,-0.398323569332,0.8986641476,-0.398323569332,0.0686888379384,0.146017957889
9200000000.0,0.0700271958247,0.147215564969,0.896595649598,-0.402289533205,0.896595649598,-0.402289533205,0.0700271958247,0.147215564969
9300000000.0,0.0713760861189,0.148400827042,0.894508232629,-0.406242718238,0.894508232629,-0.406242718238,0.0713760861189,0.148400827042
9400000000.0,0.0727353892612,0.149573659014,0.892402004486,-0.41018302515,0.892402004486,-0.41018302515,0.0727353892612,0.149573659014
9500000000.0,0.0741049850351,0.150733977104,0.890277073554,-0.41411035586,0.890277073554,-0.41411035586,0.0741049850351,0.150733977104
9600000000.0,0.0754847525837,0.151881698849,0.888133548797,-0.418024613488,0.888133548797,-0.418024613488,0.0754847525837,0.151881698849
9700000000.0,0.0768745704263,0.153016743105,0.885971539739,-0.421925702362,0.885971539739,-0.421925702362,0.0768745704263,0.153016743105
9800000000.0,0.0782743164747,0.154139030052,0.883791156451,-0.425813528018,0.883791156451,-0.425813528018,0.0782743164747,0.154139030052
9900000000.0,0.0796838680495,0.155248481193,0.881592509535,-0.429687997205,0.881592509535,-0.429687997205,0.0796838680495,0.155248481193
10000000000.0,0.0811031018965,0.15634501936,0.879375710102,-0.433549017885,0.879375710102,-0.433549017885,0.0811031018965,0.15634501936
