freq (GHz),S11_real,S11_imag,S21_real,S21_imag,S12_real,S12_imag,S22_real,S22_imag
100000000.0,-0.000340268223658,-0.0208015373624,0.999414235489,-0.0212215733112,0.999414235489,-0.0212215733112,-0.000340268223658,-0.0208015373624
200000000.0,-0.00168279738978,-0.0415458617768,0.998069769974,-0.0423859539671,0.998069769974,-0.0423859539671,-0.00168279738978,-0.0415458617768
300000000.0,-0.00389932504105,-0.0621780290086,0.995851552183,-0.063438211192,0.995851552183,-0.063438211192,-0.00389932504105,-0.0621780290086
400000000.0,-0.00697811785022,-0.0826440784697,0.992771104093,-0.0843243953878,0.992771104093,-0.0843243953878,-0.00697811785022,-0.0826440784697
500000000.0,-0.0109031370035,-0.102891488754,0.988844383429,-0.104991994996,0.988844383429,-0.104991994996,-0.0109031370035,-0.102891488754
600000000.0,-0.0156541985291,-0.12286960878,0.984091532933,-0.125390368055,0.984091532933,-0.125390368055,-0.0156541985291,-0.12286960878
700000000.0,-0.0212072166991,-0.142530056174,0.978536614033,-0.145471140785,0.978536614033,-0.145471140785,-0.0212072166991,-0.142530056174
800000000.0,-0.0275344981785,-0.161827076426,0.972207304337,-0.165188566869,0.972207304337,-0.165188566869,-0.0275344981785,-0.161827076426
900000000.0,-0.0346050752241,-0.180717857652,0.965134560727,-0.184499842285,0.965134560727,-0.184499842285,-0.0346050752241,-0.180717857652
1000000000.0,-0.0423850692024,-0.199162797072,0.95735225396,-0.203365371846,0.95735225396,-0.203365371846,-0.0423850692024,-0.199162797072
1100000000.0,-0.050838076256,-0.217125716664,0.948896781959,-0.221748984886,0.948896781959,-0.221748984886,-0.050838076256,-0.217125716664
1200000000.0,-0.0599255671452,-0.234574026742,0.939806669358,-0.239618098879,0.939806669358,-0.239618098879,-0.0599255671452,-0.234574026742
1300000000.0,-0.0696072935402,-0.251478837517,0.930122160812,-0.256943831009,0.930122160812,-0.256943831009,-0.0696072935402,-0.251478837517
1400000000.0,-0.0798416934396,-0.267815019813,0.919884815333,-0.273701058919,0.919884815333,-0.273701058919,-0.0798416934396,-0.267815019813
1500000000.0,-0.0905862889478,-0.283561217243,0.909137108331,-0.289868432895,0.909137108331,-0.289868432895,-0.0905862889478,-0.283561217243
1600000000.0,-0.101798070337,-0.298699812969,0.897922047435,-0.305428342642,0.897922047435,-0.305428342642,-0.101798070337,-0.298699812969
1700000000.0,-0.11343386112,-0.313216854974,0.886282807332,-0.320366842562,0.886282807332,-0.320366842562,-0.11343386112,-0.313216854974
1800000000.0,-0.125450659719,-0.327101944276,0.874262388035,-0.334673539985,0.874262388035,-0.334673539985,-0.125450659719,-0.327101944276
1900000000.0,-0.137805954232,-0.340348090931,0.861903300066,-0.348341451175,0.861903300066,-0.348341451175,-0.137805954232,-0.340348090931
2000000000.0,-0.150458007676,-0.352951542864,0.849247279176,-0.361366830167,0.849247279176,-0.361366830167,-0.150458007676,-0.352951542864
2100000000.0,-0.16336611198,-0.36491159262,0.836335032329,-0.373748975533,0.836335032329,-0.373748975533,-0.16336611198,-0.36491159262
2200000000.0,-0.176490809795,-0.37623036706,0.823206015864,-0.38549002007,0.823206015864,-0.38549002007,-0.176490809795,-0.37623036706
2300000000.0,-0.189794083942,-0.386912604787,0.80989824603,-0.396594708246,0.80989824603,-0.396594708246,-0.189794083942,-0.386912604787
2400000000.0,-0.203239514975,-0.396965425839,0.796448141412,-0.407070165882,0.796448141412,-0.407070165882,-0.203239514975,-0.396965425839
2500000000.0,-0.216792407891,-0.406398097757,0.782890396206,-0.416925666238,0.782890396206,-0.416925666238,-0.216792407891,-0.406398097757
2600000000.0,-0.230419889481,-0.415221801754,0.769257882864,-0.426172396179,0.769257882864,-0.426172396179,-0.230419889481,-0.415221801754
2700000000.0,-0.244090978175,-0.423449402236,0.755581582235,-0.434823225699,0.755581582235,-0.434823225699,-0.244090978175,-0.423449402236
2800000000.0,-0.257776628524,-0.43109522245,0.741890539078,-0.442892483573,0.741890539078,-0.442892483573,-0.257776628524,-0.43109522245
2900000000.0,-0.27144975261,-0.438174828587,0.728211840653,-0.450395741465,0.728211840653,-0.450395741465,-0.27144975261,-0.438174828587
3000000000.0,-0.285085220804,-0.444704824194,0.714570615948,-0.457349608341,0.714570615948,-0.457349608341,-0.285085220804,-0.444704824194
3100000000.0,-0.298659844332,-0.450702656335,0.700990053118,-0.463771536633,0.700990053118,-0.463771536633,-0.298659844332,-0.450702656335
3200000000.0,-0.312152342047,-0.456186434547,0.687491432705,-0.469679641196,0.687491432705,-0.469679641196,-0.312152342047,-0.456186434547
3300000000.0,-0.325543293782,-0.461174763273,0.674094174286,-0.475092531743,0.674094174286,-0.475092531743,-0.325543293782,-0.461174763273
3400000000.0,-0.338815082512,-0.465686588135,0.660815894304,-0.480029159127,0.660815894304,-0.480029159127,-0.338815082512,-0.465686588135
3500000000.0,-0.351951827432,-0.46974105617,0.647672472991,-0.484508675566,0.647672472991,-0.484508675566,-0.351951827432,-0.46974105617
3600000000.0,-0.364939309897,-0.473357389852,0.634678128427,-0.488550308681,0.634678128427,-0.488550308681,-0.364939309897,-0.473357389852
3700000000.0,-0.377764893983,-0.47655477462,0.621845495973,-0.492173249015,0.621845495973,-0.492173249015,-0.377764893983,-0.47655477462
3800000000.0,-0.390417443283,-0.479352259383,0.609185711481,-0.495396550545,0.609185711481,-0.495396550545,-0.390417443283,-0.479352259383
3900000000.0,-0.402887235328,-0.481768669442,0.596708496864,-0.498239043604,0.596708496864,-0.498239043604,-0.402887235328,-0.481768669442
4000000000.0,-0.415165874888,-0.483822531096,0.584422246798,-0.500719259491,0.584422246798,-0.500719259491,-0.415165874888,-0.483822531096
4100000000.0,-0.427246207218,-0.485532007221,0.572334115477,-0.502855366046,0.572334115477,-0.502855366046,-0.427246207218,-0.485532007221
4200000000.0,-0.439122232144,-0.486914842988,0.560450102521,-0.504665113374,0.560450102521,-0.504665113374,-0.439122232144,-0.486914842988
4300000000.0,-0.450789019772,-0.487988320939,0.548775137271,-0.506165788924,0.548775137271,-0.506165788924,-0.450789019772,-0.487988320939
4400000000.0,-0.46224262842,-0.488769224605,0.537313160853,-0.5073741811,0.537313160853,-0.5073741811,-0.46224262842,-0.488769224605
4500000000.0,-0.473480025288,-0.489273809851,0.526067205508,-0.508306550619,0.526067205508,-0.508306550619,-0.473480025288,-0.489273809851
4600000000.0,-0.484499010244,-0.489517783196,0.51503947081,-0.508978608822,0.51503947081,-0.508978608822,-0.484499010244,-0.489517783196
4700000000.0,-0.495298143018,-0.489516286355,0.504231396465,-0.50940550222,0.504231396465,-0.50940550222,-0.495298143018,-0.489516286355
4800000000.0,-0.50587667401,-0.489283886288,0.493643731505,-0.509601802548,0.493643731505,-0.509601802548,-0.50587667401,-0.489283886288
4900000000.0,-0.516234478837,-0.488834570117,0.483276599744,-0.509581501679,0.483276599744,-0.509581501679,-0.516234478837,-0.488834570117
5000000000.0,-0.526371996683,-0.48818174427,0.47312956142,-0.509358010771,0.47312956142,-0.509358010771,-0.526371996683,-0.48818174427
5100000000.0,-0.536290172475,-0.487338237304,0.46320167103,-0.50894416309,0.46320167103,-0.50894416309,-0.536290172475,-0.487338237304
5200000000.0,-0.545990402827,-0.486316305862,0.453491531372,-0.508352219967,0.453491531372,-0.508352219967,-0.545990402827,-0.486316305862
5300000000.0,-0.555474485716,-0.485127643301,0.443997343882,-0.50759387943,0.443997343882,-0.50759387943,-0.555474485716,-0.485127643301
5400000000.0,-0.564744573759,-0.483783390556,0.434716955347,-0.506680287067,0.434716955347,-0.506680287067,-0.564744573759,-0.483783390556
5500000000.0,-0.573803130989,-0.482294148842,0.425647901132,-0.50562204873,0.425647901132,-0.50562204873,-0.573803130989,-0.482294148842
5600000000.0,-0.582652892987,-0.48066999386,0.416787445052,-0.504429244736,0.416787445052,-0.504429244736,-0.582652892987,-0.48066999386
5700000000.0,-0.59129683021,-0.478920491178,0.408132616037,-0.50311144526,0.408132616037,-0.50311144526,-0.59129683021,-0.478920491178
5800000000.0,-0.599738114367,-0.477054712529,0.399680241759,-0.501677726626,0.399680241759,-0.501677726626,-0.599738114367,-0.477054712529
5900000000.0,-0.607980087666,-0.475081252776,0.391426979386,-0.500136688272,0.391426979386,-0.500136688272,-0.607980087666,-0.475081252776
6000000000.0,-0.616026234777,-0.473008247334,0.383369343617,-0.498496470177,0.383369343617,-0.498496470177,-0.616026234777,-0.473008247334
6100000000.0,-0.623880157325,-0.470843389867,0.375503732188,-0.496764770557,0.375503732188,-0.496764770557,-0.623880157325,-0.470843389867
6200000000.0,-0.631545550774,-0.468593950097,0.367826448994,-0.494948863677,0.367826448994,-0.494948863677,-0.631545550774,-0.468593950097
6300000000.0,-0.639026183509,-0.466266791605,0.360333724994,-0.493055617645,0.360333724994,-0.493055617645,-0.639026183509,-0.466266791605
6400000000.0,-0.646325877995,-0.463868389484,0.353021737069,-0.491091512078,0.353021737069,-0.491091512078,-0.646325877995,-0.463868389484
6500000000.0,-0.653448493827,-0.461404847775,0.345886624958,-0.489062655526,0.345886624958,-0.489062655526,-0.653448493827,-0.461404847775
6600000000.0,-0.660397912548,-0.458881916584,0.338924506443,-0.4869748026,0.338924506443,-0.4869748026,-0.660397912548,-0.458881916584
6700000000.0,-0.6671780241,-0.45630500883,0.332131490906,-0.484833370714,0.332131490906,-0.484833370714,-0.6671780241,-0.45630500883
6800000000.0,-0.67379271476,-0.453679216562,0.325503691381,-0.482643456407,0.325503691381,-0.482643456407,-0.67379271476,-0.453679216562
6900000000.0,-0.68024585645,-0.451009326808,0.319037235252,-0.480409851189,0.319037235252,-0.480409851189,-0.68024585645,-0.451009326808
7000000000.0,-0.686541297313,-0.44829983692,0.312728273674,-0.478137056888,0.312728273674,-0.478137056888,-0.686541297313,-0.44829983692
7100000000.0,-0.692682853425,-0.445554969398,0.306572989863,-0.475829300477,0.306572989863,-0.475829300477,-0.692682853425,-0.445554969398
7200000000.0,-0.698674301562,-0.442778686171,0.300567606324,-0.473490548352,0.300567606324,-0.473490548352,-0.698674301562,-0.442778686171
7300000000.0,-0.704519372921,-0.439974702331,0.294708391135,-0.471124520069,0.294708391135,-0.471124520069,-0.704519372921,-0.439974702331
7400000000.0,-0.710221747704,-0.437146499306,0.288991663362,-0.468734701517,0.288991663362,-0.468734701517,-0.710221747704,-0.437146499306
7500000000.0,-0.715785050488,-0.434297337489,0.283413797686,-0.466324357547,0.283413797686,-0.466324357547,-0.715785050488,-0.434297337489
7600000000.0,-0.721212846307,-0.431430268306,0.277971228325,-0.46389654404,0.277971228325,-0.46389654404,-0.721212846307,-0.431430268306
7700000000.0,-0.726508637375,-0.428548145749,0.272660452309,-0.461454119442,0.272660452309,-0.461454119442,-0.726508637375,-0.428548145749
7800000000.0,-0.731675860384,-0.42565363737,0.267478032179,-0.458999755762,0.267478032179,-0.458999755762,-0.731675860384,-0.42565363737
7900000000.0,-0.736717884326,-0.422749234762,0.262420598169,-0.456535949043,0.262420598169,-0.456535949043,-0.736717884326,-0.422749234762
8000000000.0,-0.741638008779,-0.419837263523,0.257484849922,-0.454065029339,0.257484849922,-0.454065029339,-0.741638008779,-0.419837263523
8100000000.0,-0.746439462607,-0.416919892734,0.252667557783,-0.451589170183,0.252667557783,-0.451589170183,-0.746439462607,-0.416919892734
8200000000.0,-0.751125403036,-0.413999143956,0.247965563725,-0.449110397595,0.247965563725,-0.449110397595,-0.751125403036,-0.413999143956
8300000000.0,-0.755698915061,-0.411076899776,0.243375781948,-0.446630598616,0.243375781948,-0.446630598616,-0.755698915061,-0.411076899776
8400000000.0,-0.760163011145,-0.408154911894,0.238895199173,-0.444151529409,0.238895199173,-0.444151529409,-0.760163011145,-0.408154911894
8500000000.0,-0.764520631177,-0.405234808803,0.234520874687,-0.441674822927,0.234520874687,-0.441674822927,-0.764520631177,-0.405234808803
8600000000.0,-0.768774642661,-0.402318103047,0.230249940151,-0.439201996182,0.230249940151,-0.439201996182,-0.768774642661,-0.402318103047
8700000000.0,-0.772927841108,-0.399406198097,0.226079599215,-0.436734457114,0.226079599215,-0.436734457114,-0.772927841108,-0.399406198097
8800000000.0,-0.776982950596,-0.396500394847,0.222007126947,-0.434273511093,0.222007126947,-0.434273511093,-0.776982950596,-0.396500394847
8900000000.0,-0.780942624493,-0.393601897764,0.21802986912,-0.431820367063,0.21802986912,-0.431820367063,-0.780942624493,-0.393601897764
9000000000.0,-0.784809446306,-0.390711820687,0.214145241359,-0.429376143348,0.214145241359,-0.429376143348,-0.784809446306,-0.390711820687
9100000000.0,-0.788585930642,-0.387831192309,0.210350728179,-0.426941873132,0.210350728179,-0.426941873132,-0.788585930642,-0.387831192309
9200000000.0,-0.792274524268,-0.384960961353,0.206643881925,-0.424518509633,0.206643881925,-0.424518509633,-0.792274524268,-0.384960961353
9300000000.0,-0.795877607255,-0.382102001452,0.203022321629,-0.422106930989,0.203022321629,-0.422106930989,-0.795877607255,-0.382102001452
9400000000.0,-0.799397494186,-0.379255115756,0.199483731803,-0.419707944859,0.199483731803,-0.419707944859,-0.799397494186,-0.379255115756
9500000000.0,-0.802836435417,-0.376421041271,0.196025861177,-0.417322292768,0.196025861177,-0.417322292768,-0.802836435417,-0.376421041271
9600000000.0,-0.806196618391,-0.373600452957,0.192646521381,-0.414950654201,0.192646521381,-0.414950654201,-0.806196618391,-0.373600452957
9700000000.0,-0.809480168979,-0.370793967581,0.18934358561,-0.41259365046,0.18934358561,-0.41259365046,-0.809480168979,-0.370793967581
9800000000.0,-0.812689152854,-0.368002147352,0.186114987248,-0.410251848297,0.186114987248,-0.410251848297,-0.812689152854,-0.368002147352
9900000000.0,-0.815825576876,-0.365225503345,0.182958718481,-0.40792576334,0.182958718481,-0.40792576334,-0.815825576876,-0.365225503345
10000000000.0,-0.818891390498,-0.362464498725,0.179872828894,-0.405615863317,0.179872828894,-0.405615863317,-0.818891390498,-0.362464498725
