freq (GHz),S11_real,S11_imag,S21_real,S21_imag,S12_real,S12_imag,S22_real,S22_imag
100000000.0,0.00555372829663,0.00218101295756,0.9944378549,-0.00519973526259,0.9944378549,-0.00519973526259,0.00555372829663,0.00218101295756
200000000.0,0.00562336862285,0.00436123431183,0.994351667362,-0.0103987188978,0.994351667362,-0.0103987188978,0.00562336862285,0.00436123431183
300000000.0,0.00570610955471,0.00654062482537,0.994243247496,-0.0155969371804,0.994243247496,-0.0155969371804,0.00570610955471,0.00654062482537
400000000.0,0.00580673120503,0.00871900261958,0.994107813477,-0.0207942259764,0.994107813477,-0.0207942259764,0.00580673120503,0.00871900261958
500000000.0,0.00592706555401,0.0108961529363,0.993943531242,-0.0259903843089,0.993943531242,-0.0259903843089,0.00592706555401,0.0108961529363
600000000.0,0.00606803775824,0.0130718466926,0.993749473198,-0.0311851942527,0.993749473198,-0.0311851942527,0.00606803775824,0.0130718466926
700000000.0,0.00623018497093,0.0152458471629,0.993525099425,-0.0363784283032,0.993525099425,-0.0363784283032,0.00623018497093,0.0152458471629
800000000.0,0.00641384565189,0.0174179130957,0.993270068379,-0.0415698529056,0.993270068379,-0.0415698529056,0.00641384565189,0.0174179130957
900000000.0,0.00661924383763,0.0195878004044,0.992984152634,-0.0467592304174,0.992984152634,-0.0467592304174,0.00661924383763,0.0195878004044
1000000000.0,0.00684653184609,0.0217552631831,0.992667196191,-0.0519463203173,0.992667196191,-0.0519463203173,0.00684653184609,0.0217552631831
1100000000.0,0.00709581401094,0.0239200543659,0.992319090751,-0.0571308800061,0.992319090751,-0.0571308800061,0.00709581401094,0.0239200543659
1200000000.0,0.0073671608225,0.0260819261813,0.991939761585,-0.0623126653704,0.991939761585,-0.0623126653704,0.0073671608225,0.0260819261813
1300000000.0,0.00766061782471,0.0282406304817,0.991529158641,-0.0674914311976,0.991529158641,-0.0674914311976,0.00766061782471,0.0282406304817
1400000000.0,0.00797621146432,0.0303959189921,0.991087250706,-0.0726669314946,0.991087250706,-0.0726669314946,0.00797621146432,0.0303959189921
1500000000.0,0.00831395307885,0.0325475435059,0.990614021422,-0.0778389197398,0.990614021422,-0.0778389197398,0.00831395307885,0.0325475435059
1600000000.0,0.00867384170007,0.0346952560427,0.990109466489,-0.0830071490888,0.990109466489,-0.0830071490888,0.00867384170007,0.0346952560427
1700000000.0,0.00905586607734,0.0368388089803,0.989573591645,-0.088171372547,0.989573591645,-0.088171372547,0.00905586607734,0.0368388089803
1800000000.0,0.00946000617178,0.0389779551672,0.989006411181,-0.0933313431157,0.989006411181,-0.0933313431157,0.00946000617178,0.0389779551672
1900000000.0,0.00988623428203,0.0411124480209,0.988407946814,-0.0984868139209,0.988407946814,-0.0984868139209,0.00988623428203,0.0411124480209
2000000000.0,0.0103345159082,0.0432420416147,0.987778226835,-0.103637538326,0.987778226835,-0.103637538326,0.0103345159082,0.0432420416147
2100000000.0,0.0108048104255,0.0453664907571,0.987117285429,-0.108783270034,0.987117285429,-0.108783270034,0.0108048104255,0.0453664907571
2200000000.0,0.011297071618,0.0474855510635,0.986425162157,-0.113923763178,0.986425162157,-0.113923763178,0.011297071618,0.0474855510635
2300000000.0,0.0118112481066,0.049598979023,0.985701901521,-0.11905877241,0.985701901521,-0.11905877241,0.0118112481066,0.049598979023
2400000000.0,0.012347283698,0.051706532061,0.984947552625,-0.124188052975,0.984947552625,-0.124188052975,0.012347283698,0.051706532061
2500000000.0,0.0129051176715,0.053807968598,0.984162168887,-0.129311360786,0.984162168887,-0.129311360786,0.0129051176715,0.053807968598
2600000000.0,0.0134846850185,0.0559030481052,0.983345807807,-0.134428452493,0.983345807807,-0.134428452493,0.0134846850185,0.0559030481052
2700000000.0,0.0140859166443,0.0579915311586,0.982498530764,-0.13953908555,0.982498530764,-0.13953908555,0.0140859166443,0.0579915311586
2800000000.0,0.0147087395398,0.0600731794893,0.981620402848,-0.144643018273,0.981620402848,-0.144643018273,0.0147087395398,0.0600731794893
2900000000.0,0.0153530769306,0.0621477560335,0.980711492715,-0.149740009905,0.980711492715,-0.149740009905,0.0153530769306,0.0621477560335
3000000000.0,0.0160188484055,0.0642150249797,0.979771872459,-0.154829820665,0.979771872459,-0.154829820665,0.0160188484055,0.0642150249797
3100000000.0,0.0167059700305,0.066274751815,0.978801617501,-0.159912211809,0.978801617501,-0.159912211809,0.0167059700304,0.066274751815
3200000000.0,0.0174143544498,0.0683267033701,0.977800806492,-0.16498694568,0.977800806492,-0.16498694568,0.0174143544498,0.0683267033701
3300000000.0,0.0181439109771,0.0703706478627,0.976769521219,-0.170053785757,0.976769521219,-0.170053785757,0.0181439109771,0.0703706478627
3400000000.0,0.0188945456768,0.0724063549399,0.975707846531,-0.175112496709,0.975707846531,-0.175112496709,0.0188945456768,0.0724063549399
3500000000.0,0.0196661614402,0.07443359572,0.974615870262,-0.180162844434,0.974615870262,-0.180162844434,0.0196661614402,0.07443359572
3600000000.0,0.0204586580544,0.0764521428323,0.973493683164,-0.185204596115,0.973493683164,-0.185204596115,0.0204586580544,0.0764521428323
3700000000.0,0.0212719322668,0.0784617704574,0.972341378845,-0.190237520258,0.972341378845,-0.190237520258,0.0212719322668,0.0784617704574
3800000000.0,0.0221058778458,0.0804622543653,0.971159053709,-0.195261386735,0.971159053709,-0.195261386735,0.0221058778458,0.0804622543653
3900000000.0,0.0229603856376,0.0824533719532,0.969946806902,-0.200275966831,0.969946806902,-0.200275966831,0.0229603856376,0.0824533719532
4000000000.0,0.0238353436206,0.0844349022825,0.968704740258,-0.205281033282,0.968704740258,-0.205281033282,0.0238353436206,0.0844349022825
4100000000.0,0.0247306369573,0.0864066261151,0.96743295825,-0.210276360314,0.96743295825,-0.210276360314,0.0247306369573,0.0864066261151
4200000000.0,0.0256461480439,0.0883683259483,0.96613156794,-0.215261723685,0.96613156794,-0.215261723685,0.0256461480439,0.0883683259483
4300000000.0,0.0265817565586,0.0903197860498,0.964800678933,-0.220236900721,0.964800678933,-0.220236900721,0.0265817565586,0.0903197860498
4400000000.0,0.0275373395085,0.0922607924913,0.963440403331,-0.225201670352,0.963440403331,-0.225201670352,0.0275373395085,0.0922607924913
4500000000.0,0.0285127712748,0.0941911331815,0.962050855691,-0.230155813151,0.962050855691,-0.230155813151,0.0285127712748,0.0941911331815
4600000000.0,0.0295079236578,0.0961105978983,0.960632152978,-0.235099111365,0.960632152978,-0.235099111365,0.0295079236578,0.0961105978983
4700000000.0,0.0305226659204,0.0980189783208,0.959184414523,-0.240031348955,0.959184414523,-0.240031348955,0.0305226659204,0.0980189783208
4800000000.0,0.0315568648311,0.0999160680595,0.957707761986,-0.244952311621,0.957707761986,-0.244952311621,0.0315568648311,0.0999160680595
4900000000.0,0.0326103847069,0.101801662687,0.956202319307,-0.249861786842,0.956202319307,-0.249861786842,0.0326103847069,0.101801662687
5000000000.0,0.0336830874547,0.103675559767,0.954668212671,-0.254759563902,0.954668212671,-0.254759563902,0.0336830874547,0.103675559767
5100000000.0,0.0347748326133,0.105537558882,0.953105570464,-0.259645433926,0.953105570464,-0.259645433926,0.0347748326133,0.105537558882
5200000000.0,0.0358854773949,0.107387461665,0.951514523235,-0.264519189905,0.951514523235,-0.264519189905,0.0358854773949,0.107387461665
5300000000.0,0.0370148767255,0.10922507182,0.949895203652,-0.269380626724,0.949895203652,-0.269380626724,0.0370148767255,0.10922507182
5400000000.0,0.0381628832865,0.111050195155,0.948247746469,-0.274229541195,0.948247746469,-0.274229541195,0.0381628832865,0.111050195155
5500000000.0,0.0393293475546,0.112862639604,0.946572288477,-0.279065732083,0.946572288477,-0.279065732083,0.0393293475546,0.112862639604
5600000000.0,0.0405141178431,0.114662215254,0.944868968472,-0.283889000127,0.944868968472,-0.283889000127,0.0405141178431,0.114662215254
5700000000.0,0.0417170403418,0.116448734368,0.943137927212,-0.288699148072,0.943137927212,-0.288699148072,0.0417170403418,0.116448734368
5800000000.0,0.0429379591575,0.118222011408,0.941379307378,-0.293495980692,0.941379307378,-0.293495980692,0.0429379591575,0.118222011408
5900000000.0,0.0441767163544,0.119981863059,0.939593253533,-0.29827930481,0.939593253533,-0.29827930481,0.0441767163544,0.119981863059
6000000000.0,0.0454331519944,0.121728108251,0.937779912086,-0.303048929326,0.937779912086,-0.303048929326,0.0454331519944,0.121728108251
6100000000.0,0.0467071041771,0.123460568182,0.935939431247,-0.307804665237,0.935939431247,-0.307804665237,0.0467071041771,0.123460568182
6200000000.0,0.0479984090802,0.125179066334,0.934071960992,-0.312546325659,0.934071960992,-0.312546325659,0.0479984090802,0.125179066334
6300000000.0,0.0493069009999,0.126883428497,0.932177653024,-0.317273725848,0.932177653024,-0.317273725848,0.0493069009999,0.126883428497
6400000000.0,0.0506324123907,0.128573482787,0.930256660727,-0.321986683218,0.930256660727,-0.321986683218,0.0506324123907,0.128573482787
6500000000.0,0.0519747739059,0.130249059665,0.928309139135,-0.326685017361,0.928309139135,-0.326685017361,0.0519747739059,0.130249059665
6600000000.0,0.0533338144378,0.131909991953,0.926335244884,-0.331368550068,0.926335244884,-0.331368550068,0.0533338144378,0.131909991953
6700000000.0,0.0547093611578,0.133556114853,0.92433513618,-0.336037105342,0.92433513618,-0.336037105342,0.0547093611578,0.133556114853
6800000000.0,0.0561012395564,0.135187265963,0.922308972752,-0.340690509418,0.922308972752,-0.340690509418,0.0561012395564,0.135187265963
6900000000.0,0.0575092734839,0.136803285291,0.92025691582,-0.345328590777,0.92025691582,-0.345328590777,0.0575092734839,0.136803285291
7000000000.0,0.0589332851903,0.138404015272,0.918179128048,-0.349951180162,0.918179128048,-0.349951180162,0.0589332851903,0.138404015272
7100000000.0,0.0603730953652,0.139989300781,0.916075773509,-0.354558110592,0.916075773509,-0.354558110592,0.0603730953652,0.139989300781
7200000000.0,0.0618285231784,0.141558989147,0.913947017642,-0.359149217377,0.913947017642,-0.359149217377,0.0618285231784,0.141558989147
7300000000.0,0.0632993863198,0.143112930164,0.911793027218,-0.363724338128,0.911793027218,-0.363724338128,0.0632993863198,0.143112930164
7400000000.0,0.0647855010395,0.144650976106,0.909613970292,-0.368283312773,0.909613970292,-0.368283312773,0.0647855010395,0.144650976106
7500000000.0,0.0662866821876,0.146172981735,0.907410016171,-0.372825983564,0.907410016171,-0.372825983564,0.0662866821876,0.146172981735
7600000000.0,0.0678027432545,0.147678804316,0.90518133537,-0.377352195091,0.90518133537,-0.377352195091,0.0678027432545,0.147678804316
7700000000.0,0.0693334964108,0.149168303622,0.902928099574,-0.381861794291,0.902928099574,-0.381861794291,0.0693334964108,0.149168303622
7800000000.0,0.0708787525469,0.150641341946,0.900650481598,-0.386354630455,0.900650481598,-0.386354630455,0.0708787525469,0.150641341946
7900000000.0,0.0724383213128,0.152097784109,0.898348655347,-0.390830555239,0.898348655347,-0.390830555239,0.0724383213128,0.152097784109
8000000000.0,0.0740120111581,0.153537497469,0.896022795778,-0.395289422671,0.896022795778,-0.395289422671,0.0740120111581,0.153537497469
8100000000.0,0.0755996293712,0.154960351926,0.893673078862,-0.399731089157,0.893673078862,-0.399731089157,0.0755996293712,0.154960351926
8200000000.0,0.0772009821188,0.156366219928,0.89129968154,-0.404155413489,0.89129968154,-0.404155413489,0.0772009821188,0.156366219928
8300000000.0,0.0788158744856,0.157754976483,0.888902781688,-0.408562256847,0.888902781688,-0.408562256847,0.0788158744856,0.157754976483
8400000000.0,0.0804441105131,0.159126499154,0.886482558078,-0.412951482809,0.886482558078,-0.412951482809,0.0804441105131,0.159126499154
8500000000.0,0.0820854932388,0.160480668073,0.884039190336,-0.417322957349,0.884039190336,-0.417322957349,0.0820854932388,0.160480668073
8600000000.0,0.0837398247355,0.161817365938,0.881572858908,-0.421676548847,0.881572858908,-0.421676548847,0.0837398247355,0.161817365938
8700000000.0,0.0854069061493,0.163136478022,0.879083745016,-0.426012128086,0.879083745016,-0.426012128086,0.0854069061493,0.163136478022
8800000000.0,0.0870865377391,0.164437892171,0.876572030626,-0.430329568256,0.876572030626,-0.430329568256,0.0870865377391,0.164437892171
8900000000.0,0.0887785189143,0.165721498806,0.874037898402,-0.434628744957,0.874037898402,-0.434628744957,0.0887785189143,0.165721498806
9000000000.0,0.0904826482736,0.166987190927,0.871481531675,-0.438909536198,0.871481531675,-0.438909536198,0.0904826482736,0.166987190927
9100000000.0,0.0921987236427,0.168234864114,0.868903114404,-0.443171822398,0.868903114404,-0.443171822398,0.0921987236427,0.168234864114
9200000000.0,0.0939265421123,0.169464416523,0.866302831132,-0.447415486383,0.866302831132,-0.447415486383,0.0939265421123,0.169464416523
9300000000.0,0.0956659000754,0.170675748889,0.863680866958,-0.451640413389,0.863680866958,-0.451640413389,0.0956659000754,0.170675748889
9400000000.0,0.0974165932654,0.171868764523,0.861037407492,-0.455846491055,0.861037407492,-0.455846491055,0.0974165932654,0.171868764523
9500000000.0,0.0991784167925,0.173043369312,0.858372638822,-0.460033609426,0.858372638822,-0.460033609426,0.0991784167925,0.173043369312
9600000000.0,0.100951165181,0.174199471713,0.855686747477,-0.464201660946,0.855686747477,-0.464201660946,0.100951165181,0.174199471713
9700000000.0,0.102734632407,0.175336982755,0.85297992039,-0.468350540453,0.85297992039,-0.468350540453,0.102734632407,0.175336982755
9800000000.0,0.104528611931,0.176455816034,0.85025234486,-0.472480145181,0.85025234486,-0.472480145181,0.104528611931,0.176455816034
9900000000.0,0.106332896739,0.177555887703,0.847504208518,-0.476590374749,0.847504208518,-0.476590374749,0.106332896739,0.177555887703
10000000000.0,0.108147279377,0.178637116479,0.844735699293,-0.480681131157,0.844735699293,-0.480681131157,0.108147279377,0.178637116479
