freq (GHz),S11_real,S11_imag,S21_real,S21_imag,S12_real,S12_imag,S22_real,S22_imag
100000000.0,-0.000230683603817,-0.0161719723603,0.999663425113,-0.0165005518362,0.999663425113,-0.0165005518362,-0.000230683603817,-0.0161719723603
200000000.0,-0.00104637509624,-0.0323167598161,0.998846850715,-0.0329739559221,0.998846850715,-0.0329739559221,-0.00104637509624,-0.0323167598161
300000000.0,-0.00239248324332,-0.0484084124939,0.99749993409,-0.0493942826235,0.99749993409,-0.0493942826235,-0.00239248324332,-0.0484084124939
400000000.0,-0.00426466582156,-0.0644212701318,0.995626926276,-0.0657358875,0.995626926276,-0.0657358875,-0.00426466582156,-0.0644212701318
500000000.0,-0.00665697075824,-0.0803300915128,0.993233744322,-0.0819735429312,0.993233744322,-0.0819735429312,-0.00665697075824,-0.0803300915128
600000000.0,-0.00956186346192,-0.0961101819453,0.990327904977,-0.0980825663496,0.990327904977,-0.0980825663496,-0.00956186346192,-0.0961101819453
700000000.0,-0.0129702805309,-0.111737515481,0.986918461089,-0.114038942842,0.986918461089,-0.114038942842,-0.0129702805309,-0.111737515481
800000000.0,-0.0168716976341,-0.127188850232,0.983015930129,-0.129819440693,0.983015930129,-0.129819440693,-0.0168716976341,-0.127188850232
900000000.0,-0.0212542084527,-0.14244183552,0.978632213646,-0.145401718688,0.978632213646,-0.145401718688,-0.0212542084527,-0.14244183552
1000000000.0,-0.0261046129823,-0.157475109841,0.973780508155,-0.160764424182,0.973780508155,-0.160764424182,-0.0261046129823,-0.157475109841
1100000000.0,-0.0314085137805,-0.172268388798,0.968475208443,-0.175887281115,0.968475208443,-0.175887281115,-0.0314085137805,-0.172268388798
1200000000.0,-0.037150418801,-0.186802542359,0.962731804468,-0.190751167323,0.962731804468,-0.190751167323,-0.037150418801,-0.186802542359
1300000000.0,-0.0433138494542,-0.201059660956,0.95656677313,-0.205338180696,0.95656677313,-0.205338180696,-0.0433138494542,-0.201059660956
1400000000.0,-0.0498814525352,-0.215023110153,0.949997466235,-0.219631693879,0.949997466235,-0.219631693879,-0.0498814525352,-0.215023110153
1500000000.0,-0.0568351146754,-0.228677573756,0.943041995968,-0.23361639741,0.943041995968,-0.23361639741,-0.0568351146754,-0.228677573756
1600000000.0,-0.0641560780073,-0.242009085414,0.935719119174,-0.247278331363,0.935719119174,-0.247278331363,-0.0641560780073,-0.242009085414
1700000000.0,-0.0718250557845,-0.255005048943,0.928048121707,-0.260604905679,0.928048121707,-0.260604905679,-0.0718250557845,-0.255005048943
1800000000.0,-0.0798223467709,-0.267654247696,0.920048704007,-0.27358490957,0.920048704007,-0.27358490957,-0.0798223467709,-0.267654247696
1900000000.0,-0.0881279472993,-0.279946843486,0.911740869023,-0.286208510451,0.911740869023,-0.286208510451,-0.0881279472993,-0.279946843486
2000000000.0,-0.0967216599996,-0.291874365639,0.903144813471,-0.298467243013,0.903144813471,-0.298467243013,-0.0967216599996,-0.291874365639
2100000000.0,-0.105583198305,-0.303429690868,0.894280823312,-0.310353989114,0.894280823312,-0.310353989114,-0.105583198305,-0.303429690868
2200000000.0,-0.114692285965,-0.314607014731,0.885169174236,-0.321862949242,0.885169174236,-0.321862949242,-0.114692285965,-0.314607014731
2300000000.0,-0.124028750904,-0.32540181548,0.875830037789,-0.332989606385,0.875830037789,-0.332989606385,-0.124028750904,-0.32540181548
2400000000.0,-0.133572612901,-0.335810811158,0.866283393691,-0.343730683132,0.866283393691,-0.343730683132,-0.133572612901,-0.335810811158
2500000000.0,-0.143304164674,-0.345831910826,0.856548948746,-0.354084092915,0.856548948746,-0.354084092915,-0.143304164674,-0.345831910826
2600000000.0,-0.153204046067,-0.355464160787,0.846646062651,-0.364048886236,0.846646062651,-0.364048886236,-0.153204046067,-0.355464160787
2700000000.0,-0.163253311162,-0.364707686677,0.836593680883,-0.373625192774,0.836593680883,-0.373625192774,-0.163253311162,-0.364707686677
2800000000.0,-0.173433488226,-0.373563632281,0.826410274747,-0.382814160203,0.826410274747,-0.382814160203,-0.173433488226,-0.373563632281
2900000000.0,-0.183726632497,-0.38203409587,0.816113788587,-0.391617890537,0.816113788587,-0.391617890537,-0.183726632497,-0.38203409587
3000000000.0,-0.194115371925,-0.390122064838,0.805721594047,-0.40003937478,0.805721594047,-0.40003937478,-0.194115371925,-0.390122064838
3100000000.0,-0.204582946011,-0.397831349362,0.795250451226,-0.408082426583,0.795250451226,-0.408082426583,-0.204582946011,-0.397831349362
3200000000.0,-0.215113238001,-0.405166515732,0.784716476487,-0.41575161559,0.784716476487,-0.41575161559,-0.215113238001,-0.405166515732
3300000000.0,-0.225690800707,-0.412132819975,0.77413511663,-0.423052201058,0.77413511663,-0.423052201058,-0.225690800707,-0.412132819975
3400000000.0,-0.236300876306,-0.418736142295,0.763521129099,-0.429990066313,0.763521129099,-0.429990066313,-0.236300876306,-0.418736142295
3500000000.0,-0.246929410462,-0.424982922826,0.752888567851,-0.436571654499,0.752888567851,-0.436571654499,-0.246929410462,-0.424982922826
3600000000.0,-0.257563061183,-0.430880099095,0.742250774505,-0.44280390605,0.742250774505,-0.44280390605,-0.257563061183,-0.430880099095
3700000000.0,-0.268189202817,-0.436435045559,0.731620374343,-0.448694198234,0.731620374343,-0.448694198234,-0.268189202817,-0.436435045559
3800000000.0,-0.278795925597,-0.441655515515,0.721009276761,-0.454250287062,0.721009276761,-0.454250287062,-0.278795925597,-0.441655515515
3900000000.0,-0.289372031175,-0.446549585606,0.710428679742,-0.459480251805,0.710428679742,-0.459480251805,-0.289372031175,-0.446549585606
4000000000.0,-0.299907024543,-0.451125603125,0.69988907793,-0.464392442295,0.69988907793,-0.464392442295,-0.299907024543,-0.451125603125
4100000000.0,-0.310391102768,-0.45539213624,0.689400273892,-0.46899542916,0.689400273892,-0.46899542916,-0.310391102768,-0.45539213624
4200000000.0,-0.320815140927,-0.459357927247,0.678971392191,-0.473297957078,0.678971392191,-0.473297957078,-0.320815140927,-0.459357927247
4300000000.0,-0.331170675625,-0.463031848884,0.668610895858,-0.477308901094,0.668610895858,-0.477308901094,-0.331170675625,-0.463031848884
4400000000.0,-0.341449886468,-0.46642286374,0.658326604927,-0.481037226032,0.658326604927,-0.481037226032,-0.341449886468,-0.46642286374
4500000000.0,-0.351645575808,-0.469539986729,0.648125716684,-0.484491948978,0.648125716684,-0.484491948978,-0.351645575808,-0.469539986729
4600000000.0,-0.361751147109,-0.472392250596,0.638014827305,-0.487682104781,0.638014827305,-0.487682104781,-0.361751147109,-0.472392250596
4700000000.0,-0.371760582196,-0.474988674382,0.627999954602,-0.490616714526,0.627999954602,-0.490616714526,-0.371760582196,-0.474988674382
4800000000.0,-0.381668417689,-0.477338234763,0.618086561596,-0.493304756877,0.618086561596,-0.493304756877,-0.381668417689,-0.477338234763
4900000000.0,-0.391469720837,-0.479449840166,0.608279580676,-0.495755142192,0.608279580676,-0.495755142192,-0.391469720837,-0.479449840166
5000000000.0,-0.401160065001,-0.48133230754,0.598583438118,-0.497976689297,0.598583438118,-0.497976689297,-0.401160065001,-0.48133230754
5100000000.0,-0.410735504971,-0.482994341657,0.589002078772,-0.499978104793,0.589002078772,-0.499978104793,-0.410735504971,-0.482994341657
5200000000.0,-0.420192552294,-0.48444451682,0.579538990726,-0.501767964765,0.579538990726,-0.501767964765,-0.420192552294,-0.48444451682
5300000000.0,-0.429528150779,-0.485691260834,0.570197229809,-0.503354698755,0.570197229809,-0.503354698755,-0.429528150779,-0.485691260834
5400000000.0,-0.438739652301,-0.486742841101,0.560979443782,-0.504746575857,0.560979443782,-0.504746575857,-0.438739652301,-0.486742841101
5500000000.0,-0.447824793034,-0.487607352704,0.551887896105,-0.505951692809,0.551887896105,-0.505951692809,-0.447824793034,-0.487607352704
5600000000.0,-0.456781670205,-0.488292708333,0.542924489186,-0.506977963916,0.542924489186,-0.506977963916,-0.456781670205,-0.488292708333
5700000000.0,-0.465608719449,-0.48880662993,0.534090787023,-0.507833112698,0.534090787023,-0.507833112698,-0.465608719449,-0.48880662993
5800000000.0,-0.474304692846,-0.489156641895,0.525388037169,-0.508524665102,0.525388037169,-0.508524665102,-0.474304692846,-0.489156641895
5900000000.0,-0.482868637681,-0.489350065755,0.51681719197,-0.509059944166,0.51681719197,-0.509059944166,-0.482868637681,-0.489350065755
6000000000.0,-0.491299875977,-0.489394016141,0.508378929033,-0.509446066006,0.508378929033,-0.509446066006,-0.491299875977,-0.489394016141
6100000000.0,-0.499597984834,-0.489295397977,0.500073670888,-0.509689936996,0.500073670888,-0.509689936996,-0.499597984834,-0.489295397977
6200000000.0,-0.507762777591,-0.489060904744,0.491901603824,-0.509798252049,0.491901603824,-0.509798252049,-0.507762777591,-0.489060904744
6300000000.0,-0.515794285823,-0.488697017742,0.483862695893,-0.509777493864,0.483862695893,-0.509777493864,-0.515794285823,-0.488697017742
6400000000.0,-0.523692742191,-0.488210006211,0.475956714059,-0.50963393306,0.475956714059,-0.50963393306,-0.523692742191,-0.488210006211
6500000000.0,-0.531458564127,-0.48760592825,0.468183240514,-0.509373629092,0.468183240514,-0.509373629092,-0.531458564127,-0.48760592825
6600000000.0,-0.539092338363,-0.486890632423,0.460541688151,-0.509002431861,0.460541688151,-0.509002431861,-0.539092338363,-0.486890632423
6700000000.0,-0.546594806275,-0.486069759975,0.453031315214,-0.50852598393,0.453031315214,-0.50852598393,-0.546594806275,-0.486069759975
6800000000.0,-0.553966850049,-0.485148747589,0.445651239139,-0.507949723281,0.445651239139,-0.507949723281,-0.553966850049,-0.485148747589
6900000000.0,-0.56120947963,-0.4841328306,0.438400449599,-0.50727888653,0.438400449599,-0.50727888653,-0.56120947963,-0.4841328306
7000000000.0,-0.568323820439,-0.483027046607,0.431277820792,-0.506518512545,0.431277820792,-0.506518512545,-0.568323820439,-0.483027046607
7100000000.0,-0.575311101841,-0.481836239427,0.424282122968,-0.505673446397,0.424282122968,-0.505673446397,-0.575311101841,-0.481836239427
7200000000.0,-0.582172646326,-0.480565063329,0.41741203325,-0.504748343596,0.41741203325,-0.504748343596,-0.582172646326,-0.480565063329
7300000000.0,-0.58890985939,-0.479217987504,0.410666145759,-0.503747674563,0.410666145759,-0.503747674563,-0.58890985939,-0.479217987504
7400000000.0,-0.595524220066,-0.477799300717,0.404042981071,-0.502675729284,0.404042981071,-0.502675729284,-0.595524220066,-0.477799300717
7500000000.0,-0.602017272108,-0.476313116118,0.397540995042,-0.501536622116,0.397540995042,-0.501536622116,-0.602017272108,-0.476313116118
7600000000.0,-0.608390615771,-0.474763376149,0.391158587027,-0.500334296705,0.391158587027,-0.500334296705,-0.608390615771,-0.474763376149
7700000000.0,-0.614645900169,-0.473153857543,0.384894107517,-0.499072530976,0.384894107517,-0.499072530976,-0.614645900169,-0.473153857543
7800000000.0,-0.620784816188,-0.471488176356,0.378745865232,-0.497754942175,0.378745865232,-0.497754942175,-0.620784816188,-0.471488176356
7900000000.0,-0.626809089915,-0.469769793037,0.372712133687,-0.496384991932,0.372712133687,-0.496384991932,-0.626809089915,-0.469769793037
8000000000.0,-0.632720476561,-0.468002017482,0.366791157273,-0.494965991321,0.366791157273,-0.494965991321,-0.632720476561,-0.468002017482
8100000000.0,-0.638520754857,-0.466188014077,0.36098115686,-0.493501105903,0.36098115686,-0.493501105903,-0.638520754857,-0.466188014077
8200000000.0,-0.644211721875,-0.464330806696,0.355280334972,-0.49199336072,0.355280334972,-0.49199336072,-0.644211721875,-0.464330806696
8300000000.0,-0.64979518828,-0.462433283642,0.349686880541,-0.490445645246,0.349686880541,-0.490445645246,-0.64979518828,-0.462433283642
8400000000.0,-0.65527297396,-0.460498202528,0.344198973274,-0.48886071826,0.344198973274,-0.48886071826,-0.65527297396,-0.460498202528
8500000000.0,-0.660646904024,-0.458528195066,0.338814787653,-0.487241212641,0.338814787653,-0.487241212641,-0.660646904024,-0.458528195066
8600000000.0,-0.665918805147,-0.456525771778,0.333532496593,-0.485589640076,0.333532496593,-0.485589640076,-0.665918805147,-0.456525771778
8700000000.0,-0.671090502232,-0.454493326599,0.328350274779,-0.483908395668,0.328350274779,-0.483908395668,-0.671090502232,-0.454493326599
8800000000.0,-0.676163815375,-0.452433141382,0.323266301704,-0.482199762439,0.323266301704,-0.482199762439,-0.676163815375,-0.452433141382
8900000000.0,-0.681140557105,-0.450347390291,0.318278764419,-0.48046591572,0.318278764419,-0.48046591572,-0.681140557105,-0.450347390291
9000000000.0,-0.686022529894,-0.448238144077,0.313385860037,-0.478708927438,0.313385860037,-0.478708927438,-0.686022529894,-0.448238144077
9100000000.0,-0.690811523906,-0.446107374239,0.308585797974,-0.476930770266,0.308585797974,-0.476930770266,-0.690811523906,-0.446107374239
9200000000.0,-0.695509314966,-0.443956957068,0.303876801981,-0.475133321672,0.303876801981,-0.475133321672,-0.695509314966,-0.443956957068
9300000000.0,-0.700117662757,-0.44178867756,0.299257111952,-0.473318367838,0.299257111952,-0.473318367838,-0.700117662757,-0.44178867756
9400000000.0,-0.704638309194,-0.439604233216,0.294724985545,-0.471487607451,0.294724985545,-0.471487607451,-0.704638309194,-0.439604233216
9500000000.0,-0.709072976989,-0.437405237714,0.290278699619,-0.469642655383,0.290278699619,-0.469642655383,-0.709072976989,-0.437405237714
9600000000.0,-0.713423368385,-0.435193224462,0.285916551501,-0.467785046239,0.285916551501,-0.467785046239,-0.713423368385,-0.435193224462
9700000000.0,-0.71769116404,-0.432969650027,0.281636860098,-0.465916237791,0.281636860098,-0.465916237791,-0.71769116404,-0.432969650027
9800000000.0,-0.721878022054,-0.430735897445,0.277437966874,-0.464037614285,0.277437966874,-0.464037614285,-0.721878022054,-0.430735897445
9900000000.0,-0.725985577138,-0.428493279413,0.273318236683,-0.462150489636,0.273318236683,-0.462150489636,-0.725985577138,-0.428493279413
10000000000.0,-0.730015439888,-0.426243041361,0.269276058484,-0.4602561105,0.269276058484,-0.4602561105,-0.730015439888,-0.426243041361
