freq (GHz),S11_real,S11_imag,S21_real,S21_imag,S12_real,S12_imag,S22_real,S22_imag
100000000.0,0.00038492705458,2.13020983828e-05,0.99961406786,-2.67724481733e-05,0.99961406786,-2.67724481733e-05,0.00038492705458,2.13020983828e-05
200000000.0,0.000387459825343,4.26040636961e-05,0.999611529973,-5.35448315368e-05,0.999611529973,-5.35448315368e-05,0.000387459825343,4.26040636962e-05
300000000.0,0.000389301878523,6.39060547409e-05,0.999609682773,-8.03173440184e-05,0.999609682773,-8.03173440184e-05,0.000389301878523,6.39060547409e-05
400000000.0,0.000390790058646,8.52081540173e-05,0.999608189417,-0.000107090095189,0.999608189417,-0.000107090095189,0.000390790058646,8.52081540172e-05
500000000.0,0.000392054512037,0.000106510423573,0.999606919757,-0.000133863170203,0.999606919757,-0.000133863170203,0.000392054512037,0.000106510423573
600000000.0,0.000393161821404,0.000127812915673,0.999605807211,-0.000160636641592,0.999605807211,-0.000160636641592,0.000393161821403,0.000127812915673
700000000.0,0.000394151442544,0.000149115676661,0.999604812323,-0.000187410574295,0.999604812323,-0.000187410574295,0.000394151442545,0.000149115676661
800000000.0,0.000395049018379,0.000170418749429,0.99960390945,-0.000214185027664,0.99960390945,-0.000214185027664,0.000395049018379,0.000170418749429
900000000.0,0.000395872314529,0.000191722173886,0.999603080827,-0.000240960057591,0.999603080827,-0.000240960057591,0.000395872314529,0.000191722173886
1000000000.0,0.000396634233418,0.000213025988184,0.99960231355,-0.000267735716923,0.99960231355,-0.000267735716923,0.000396634233419,0.000213025988184
1100000000.0,0.000397344489055,0.000234330229091,0.999601597907,-0.000294512056206,0.999601597907,-0.000294512056206,0.000397344489055,0.000234330229091
1200000000.0,0.000398010607964,0.000255634932711,0.99960092637,-0.000321289123751,0.99960092637,-0.000321289123751,0.000398010607964,0.000255634932711
1300000000.0,0.000398638558812,0.000276940133571,0.999600292971,-0.000348066967132,0.999600292971,-0.000348066967132,0.000398638558812,0.00027694013357
1400000000.0,0.000399233167634,0.000298245866439,0.999599692884,-0.000374845631802,0.999599692884,-0.000374845631802,0.000399233167634,0.000298245866439
1500000000.0,0.000399798400713,0.00031955216454,0.999599122142,-0.000401625163229,0.999599122142,-0.000401625163229,0.000399798400714,0.00031955216454
1600000000.0,0.000400337562571,0.00034085906172,0.999598577441,-0.000428405604997,0.999598577441,-0.000428405604997,0.000400337562571,0.00034085906172
1700000000.0,0.000400853439963,0.000362166591392,0.999598055993,-0.000455187000083,0.999598055993,-0.000455187000083,0.000400853439963,0.000362166591392
1800000000.0,0.000401348408677,0.000383474786016,0.999597555424,-0.000481969391556,0.999597555424,-0.000481969391556,0.000401348408676,0.000383474786016
1900000000.0,0.000401824511614,0.000404783679035,0.999597073691,-0.000508752820791,0.999597073691,-0.000508752820791,0.000401824511614,0.000404783679035
2000000000.0,0.000402283520837,0.000426093302451,0.999596609021,-0.000535537330016,0.999596609021,-0.000535537330016,0.000402283520837,0.000426093302451
2100000000.0,0.000402726983922,0.000447403689747,0.999596159866,-0.000562322959496,0.999596159866,-0.000562322959496,0.000402726983922,0.000447403689747
2200000000.0,0.000403156262219,0.000468714873071,0.999595724866,-0.000589109750439,0.999595724866,-0.000589109750439,0.000403156262219,0.000468714873071
2300000000.0,0.000403572559704,0.000490026885096,0.999595302817,-0.000615897743215,0.999595302817,-0.000615897743215,0.000403572559704,0.000490026885096
2400000000.0,0.000403976947192,0.000511339758783,0.999594892646,-0.000642686977656,0.999594892646,-0.000642686977656,0.000403976947192,0.000511339758783
2500000000.0,0.000404370381631,0.00053265352689,0.999594493398,-0.000669477493606,0.999594493398,-0.000669477493606,0.000404370381631,0.00053265352689
2600000000.0,0.00040475372259,0.000553968221829,0.999594104214,-0.000696269331119,0.999594104214,-0.000696269331119,0.00040475372259,0.000553968221829
2700000000.0,0.00040512774432,0.000575283877084,0.999593724318,-0.00072306252908,0.999593724318,-0.00072306252908,0.00040512774432,0.000575283877084
2800000000.0,0.000405493147803,0.000596600525338,0.999593353009,-0.000749857127119,0.999593353009,-0.000749857127119,0.000405493147803,0.000596600525338
2900000000.0,0.000405850569752,0.000617918199846,0.999592989652,-0.00077665316427,0.999592989652,-0.00077665316427,0.000405850569752,0.000617918199847
3000000000.0,0.000406200589985,0.000639236933815,0.999592633666,-0.000803450679631,0.999592633666,-0.000803450679631,0.000406200589984,0.000639236933815
3100000000.0,0.000406543738381,0.00066055676079,0.99959228452,-0.000830249711991,0.99959228452,-0.000830249711991,0.000406543738381,0.00066055676079
3200000000.0,0.000406880500862,0.000681877714216,0.999591941731,-0.000857050300304,0.999591941731,-0.000857050300304,0.000406880500862,0.000681877714216
3300000000.0,0.000407211323475,0.000703199827744,0.99959160485,-0.000883852483402,0.99959160485,-0.000883852483402,0.000407211323476,0.000703199827744
3400000000.0,0.0004075366176,0.000724523135271,0.999591273467,-0.00091065629997,0.999591273467,-0.00091065629997,0.0004075366176,0.000724523135271
3500000000.0,0.000407856762516,0.000745847670849,0.999590947203,-0.000937461788658,0.999590947203,-0.000937461788658,0.000407856762516,0.000745847670849
3600000000.0,0.000408172109591,0.000767173468777,0.999590625706,-0.000964268988008,0.999590625706,-0.000964268988008,0.000408172109591,0.000767173468777
3700000000.0,0.000408482984275,0.000788500563148,0.999590308651,-0.000991077936913,0.999590308651,-0.000991077936913,0.000408482984275,0.000788500563148
3800000000.0,0.000408789689121,0.000809828988698,0.999589995735,-0.00101788867379,0.999589995735,-0.00101788867379,0.000408789689121,0.000809828988698
3900000000.0,0.00040909250567,0.000831158780177,0.999589686676,-0.00104470123721,0.999589686676,-0.00104470123721,0.00040909250567,0.000831158780177
4000000000.0,0.000409391696408,0.000852489972266,0.999589381212,-0.001071515666,0.999589381212,-0.001071515666,0.000409391696408,0.000852489972266
4100000000.0,0.00040968750635,0.000873822600233,0.999589079099,-0.00109833199861,0.999589079099,-0.00109833199861,0.00040968750635,0.000873822600233
4200000000.0,0.000409980164831,0.000895156699141,0.999588780106,-0.00112515027386,0.999588780106,-0.00112515027386,0.00040998016483,0.000895156699141
4300000000.0,0.000410269886394,0.000916492304687,0.99958848402,-0.00115197053018,0.99958848402,-0.00115197053018,0.000410269886394,0.000916492304687
4400000000.0,0.000410556872518,0.000937829452401,0.999588190638,-0.00117879280638,0.999588190638,-0.00117879280638,0.000410556872518,0.000937829452401
4500000000.0,0.000410841312236,0.000959168178136,0.999587899771,-0.00120561714114,0.999587899771,-0.00120561714114,0.000410841312236,0.000959168178135
4600000000.0,0.000411123383479,0.000980508517843,0.999587611242,-0.00123244357332,0.999587611242,-0.00123244357332,0.000411123383479,0.000980508517843
4700000000.0,0.000411403253714,0.00100185050782,0.999587324884,-0.00125927214163,0.999587324884,-0.00125927214163,0.000411403253714,0.00100185050782
4800000000.0,0.000411681080734,0.0010231941845,0.999587040538,-0.00128610288489,0.999587040538,-0.00128610288489,0.000411681080734,0.0010231941845
4900000000.0,0.00041195701355,0.00104453958435,0.999586758055,-0.00131293584214,0.999586758055,-0.00131293584214,0.000411957013551,0.00104453958435
5000000000.0,0.000412231192833,0.00106588674429,0.999586477295,-0.0013397710522,0.999586477295,-0.0013397710522,0.000412231192833,0.00106588674429
5100000000.0,0.000412503751656,0.0010872357013,0.999586198124,-0.0013666085541,0.999586198124,-0.0013666085541,0.000412503751656,0.0010872357013
5200000000.0,0.000412774815955,0.00110858649253,0.999585920417,-0.00139344838694,0.999585920417,-0.00139344838694,0.000412774815956,0.00110858649253
5300000000.0,0.000413044505058,0.00112993915544,0.999585644054,-0.00142029058977,0.999585644054,-0.00142029058977,0.000413044505058,0.00112993915544
5400000000.0,0.000413312932143,0.00115129372754,0.999585368923,-0.00144713520183,0.999585368923,-0.00144713520183,0.000413312932142,0.00115129372754
5500000000.0,0.000413580204556,0.00117265024667,0.999585094915,-0.00147398226234,0.999585094915,-0.00147398226234,0.000413580204556,0.00117265024667
5600000000.0,0.000413846424316,0.00119400875081,0.999584821929,-0.00150083181057,0.999584821929,-0.00150083181057,0.000413846424316,0.00119400875081
5700000000.0,0.000414111688448,0.00121536927797,0.999584549867,-0.0015276838861,0.999584549867,-0.0015276838861,0.000414111688448,0.00121536927797
5800000000.0,0.000414376089139,0.00123673186662,0.999584278639,-0.00155453852827,0.999584278639,-0.00155453852827,0.000414376089139,0.00123673186662
5900000000.0,0.00041463971421,0.00125809655535,0.999584008154,-0.00158139577658,0.999584008154,-0.00158139577658,0.00041463971421,0.00125809655535
6000000000.0,0.000414902647391,0.00127946338284,0.999583738331,-0.0016082556707,0.999583738331,-0.0016082556707,0.000414902647391,0.00127946338284
6100000000.0,0.000415164968394,0.00130083238809,0.999583469089,-0.00163511825027,0.999583469089,-0.00163511825027,0.000415164968394,0.00130083238809
6200000000.0,0.000415426753323,0.00132220361023,0.999583200352,-0.00166198355507,0.999583200352,-0.00166198355507,0.000415426753323,0.00132220361023
6300000000.0,0.000415688074838,0.00134357708858,0.999582932047,-0.00168885162492,0.999582932047,-0.00168885162492,0.000415688074838,0.00134357708858
6400000000.0,0.00041594900234,0.00136495286261,0.999582664105,-0.00171572249982,0.999582664105,-0.00171572249982,0.00041594900234,0.00136495286261
6500000000.0,0.000416209602111,0.00138633097216,0.99958239646,-0.00174259621963,0.99958239646,-0.00174259621963,0.000416209602111,0.00138633097216
6600000000.0,0.000416469937623,0.001407711457,0.999582129048,-0.00176947282458,0.999582129048,-0.00176947282458,0.000416469937623,0.001407711457
6700000000.0,0.000416730069549,0.00142909435725,0.999581861809,-0.00179635235482,0.999581861809,-0.00179635235482,0.000416730069549,0.00142909435725
6800000000.0,0.000416990055912,0.00145047971339,0.999581594684,-0.00182323485038,0.999581594684,-0.00182323485038,0.000416990055911,0.00145047971339
6900000000.0,0.000417249952481,0.00147186756551,0.999581327618,-0.001850120352,0.999581327618,-0.001850120352,0.000417249952482,0.00147186756551
7000000000.0,0.000417509812477,0.00149325795465,0.999581060557,-0.00187700889974,0.999581060557,-0.00187700889974,0.000417509812477,0.00149325795465
7100000000.0,0.00041776968711,0.00151465092137,0.999580793451,-0.00190390053438,0.999580793451,-0.00190390053438,0.00041776968711,0.00151465092137
7200000000.0,0.000418029625377,0.00153604650693,0.99958052625,-0.00193079529629,0.99958052625,-0.00193079529629,0.000418029625377,0.00153604650693
7300000000.0,0.000418289674391,0.00155744475246,0.999580258907,-0.00195769322628,0.999580258907,-0.00195769322628,0.000418289674391,0.00155744475246
7400000000.0,0.000418549879341,0.00157884569934,0.999579991377,-0.00198459436513,0.999579991377,-0.00198459436513,0.000418549879341,0.00157884569934
7500000000.0,0.000418810283601,0.00160024938922,0.999579723617,-0.00201149875364,0.999579723617,-0.00201149875364,0.000418810283601,0.00160024938922
7600000000.0,0.000419070928922,0.00162165586392,0.999579455584,-0.00203840643275,0.999579455584,-0.00203840643275,0.000419070928922,0.00162165586392
7700000000.0,0.000419331855438,0.00164306516523,0.999579187239,-0.00206531744366,0.999579187239,-0.00206531744366,0.000419331855437,0.00164306516523
7800000000.0,0.00041959310168,0.00166447733557,0.999578918543,-0.00209223182723,0.999578918543,-0.00209223182723,0.00041959310168,0.00166447733557
7900000000.0,0.000419854704762,0.00168589241702,0.99957864946,-0.00211914962495,0.99957864946,-0.00211914962495,0.000419854704762,0.00168589241702
8000000000.0,0.00042011670043,0.00170731045221,0.999578379952,-0.00214607087801,0.999578379952,-0.00214607087801,0.00042011670043,0.00170731045221
8100000000.0,0.000420379123039,0.00172873148392,0.999578109986,-0.00217299562771,0.999578109986,-0.00217299562771,0.00042037912304,0.00172873148392
8200000000.0,0.000420642005752,0.00175015555475,0.999577839529,-0.00219992391585,0.999577839529,-0.00219992391585,0.000420642005752,0.00175015555475
8300000000.0,0.000420905380457,0.00177158270809,0.999577568549,-0.00222685578368,0.999577568549,-0.00222685578368,0.000420905380457,0.00177158270809
8400000000.0,0.000421169277933,0.00179301298702,0.999577297015,-0.00225379127303,0.999577297015,-0.00225379127303,0.000421169277933,0.00179301298702
8500000000.0,0.000421433727841,0.00181444643496,0.999577024897,-0.00228073042569,0.999577024897,-0.00228073042569,0.00042143372784,0.00181444643496
8600000000.0,0.0004216987588,0.00183588309545,0.999576752167,-0.00230767328356,0.999576752167,-0.00230767328356,0.0004216987588,0.00183588309545
8700000000.0,0.000421964398389,0.00185732301236,0.999576478797,-0.00233461988852,0.999576478797,-0.00233461988852,0.000421964398389,0.00185732301236
8800000000.0,0.000422230673253,0.00187876622972,0.999576204761,-0.00236157028254,0.999576204761,-0.00236157028254,0.000422230673253,0.00187876622972
8900000000.0,0.000422497609135,0.00190021279141,0.999575930032,-0.00238852450801,0.999575930032,-0.00238852450801,0.000422497609135,0.00190021279141
9000000000.0,0.000422765230831,0.00192166274199,0.999575654586,-0.00241548260694,0.999575654586,-0.00241548260694,0.000422765230831,0.00192166274199
9100000000.0,0.000423033562373,0.00194311612573,0.999575378399,-0.00244244462185,0.999575378399,-0.00244244462185,0.000423033562373,0.00194311612573
9200000000.0,0.000423302626888,0.0019645729875,0.999575101448,-0.00246941059497,0.999575101448,-0.00246941059497,0.000423302626888,0.0019645729875
9300000000.0,0.000423572446824,0.00198603337193,0.999574823711,-0.00249638056902,0.999574823711,-0.00249638056902,0.000423572446824,0.00198603337193
9400000000.0,0.000423843043839,0.00200749732416,0.999574545165,-0.0025233545865,0.999574545165,-0.0025233545865,0.000423843043839,0.00200749732416
9500000000.0,0.000424114438865,0.00202896488925,0.999574265789,-0.00255033269024,0.999574265789,-0.00255033269024,0.000424114438864,0.00202896488925
9600000000.0,0.000424386652157,0.00205043611275,0.999573985564,-0.00257731492285,0.999573985564,-0.00257731492285,0.000424386652157,0.00205043611275
9700000000.0,0.000424659703322,0.00207191104003,0.99957370447,-0.0026043013274,0.99957370447,-0.0026043013274,0.000424659703322,0.00207191104003
9800000000.0,0.000424933611358,0.00209338971674,0.999573422488,-0.00263129194694,0.999573422488,-0.00263129194694,0.000424933611358,0.00209338971674
9900000000.0,0.000425208394614,0.00211487218889,0.999573139599,-0.00265828682443,0.999573139599,-0.00265828682443,0.000425208394615,0.00211487218889
10000000000.0,0.000425484070869,0.00213635850255,0.999572855786,-0.00268528600305,0.999572855786,-0.00268528600305,0.000425484070869,0.00213635850255
