freq (GHz),S11_real,S11_imag,S21_real,S21_imag,S12_real,S12_imag,S22_real,S22_imag
100000000.0,0.0442672850294,0.00280064200385,0.9557306806,-0.0035842430549,0.9557306806,-0.0035842430549,0.0442672850294,0.00280064200385
200000000.0,0.0445769676642,0.00559736386084,0.95541933993,-0.0071645750999,0.95541933993,-0.0071645750999,0.0445769676642,0.00559736386084
300000000.0,0.0448317411596,0.00839149136189,0.955162284578,-0.010742327893,0.955162284578,-0.010742327893,0.0448317411596,0.00839149136189
400000000.0,0.0450685853013,0.0111833580696,0.954922534618,-0.0143178399191,0.954922534618,-0.0143178399191,0.0450685853013,0.0111833580696
500000000.0,0.0453017673014,0.0139730665976,0.954685822702,-0.0178912181867,0.954685822702,-0.0178912181867,0.0453017673014,0.0139730665976
600000000.0,0.0455385713735,0.0167606173208,0.954444864478,-0.0214624671199,0.954444864478,-0.0214624671199,0.0455385713735,0.0167606173208
700000000.0,0.0457833016197,0.0195459546427,0.954195355698,-0.0250315349185,0.954195355698,-0.0250315349185,0.0457833016197,0.0195459546427
800000000.0,0.0460387443534,0.0223289884772,0.953934509897,-0.0285983350946,0.953934509897,-0.0285983350946,0.0460387443534,0.0223289884772
900000000.0,0.0463068197858,0.0251096058023,0.953660406704,-0.032162758064,0.953660406704,-0.032162758064,0.0463068197858,0.0251096058023
1000000000.0,0.0465889126385,0.0278876775146,0.953371661232,-0.035724678025,0.953371661232,-0.035724678025,0.0465889126385,0.0278876775146
1100000000.0,0.0468860560816,0.0306630627938,0.953067240133,-0.0392839573431,0.953067240133,-0.0392839573431,0.0468860560816,0.0306630627938
1200000000.0,0.0471990414281,0.0334356120362,0.952746351913,-0.0428404494982,0.952746351913,-0.0428404494982,0.0471990414281,0.0334356120362
1300000000.0,0.0475284872049,0.0362051689128,0.952408377853,-0.0463940011545,0.952408377853,-0.0463940011545,0.0475284872049,0.0362051689128
1400000000.0,0.0478748845909,0.0389715718646,0.952052826573,-0.0499444536648,0.952052826573,-0.0499444536648,0.0478748845909,0.0389715718646
1500000000.0,0.048238628405,0.0417346552211,0.951679303047,-0.0534916441968,0.951679303047,-0.0534916441968,0.048238628405,0.0417346552211
1600000000.0,0.0486200388897,0.0444942500587,0.951287486815,-0.0570354065973,0.951287486815,-0.0570354065973,0.0486200388897,0.0444942500587
1700000000.0,0.0490193774238,0.0472501848735,0.950877116274,-0.0605755720708,0.950877116274,-0.0605755720708,0.0490193774238,0.0472501848735
1800000000.0,0.049436858111,0.0500022861187,0.950447977087,-0.0641119697212,0.950447977087,-0.0641119697212,0.049436858111,0.0500022861187
1900000000.0,0.0498726564947,0.052750378642,0.94999989347,-0.0676444269933,0.94999989347,-0.0676444269933,0.0498726564947,0.052750378642
2000000000.0,0.0503269162238,0.0554942860461,0.949532721525,-0.0711727700366,0.949532721525,-0.0711727700366,0.0503269162238,0.0554942860461
2100000000.0,0.050799754231,0.0582338309909,0.949046344061,-0.0746968240107,0.949046344061,-0.0746968240107,0.050799754231,0.0582338309909
2200000000.0,0.0512912648087,0.0609688354495,0.948540666523,-0.0782164133436,0.948540666523,-0.0782164133436,0.0512912648087,0.0609688354495
2300000000.0,0.0518015228587,0.0636991209276,0.948015613734,-0.081731361954,0.948015613734,-0.081731361954,0.0518015228587,0.0636991209276
2400000000.0,0.0523305865105,0.0664245086539,0.947471127286,-0.0852414934435,0.947471127286,-0.0852414934435,0.0523305865105,0.0664245086539
2500000000.0,0.0528784992539,0.0691448197467,0.946907163399,-0.0887466312655,0.946907163399,-0.0887466312655,0.0528784992539,0.0691448197467
2600000000.0,0.0534452916919,0.0718598753612,0.946323691176,-0.0922465988735,0.946323691176,-0.0922465988735,0.0534452916919,0.0718598753612
2700000000.0,0.0540309829931,0.0745694968204,0.945720691143,-0.0957412198547,0.945720691143,-0.0957412198547,0.0540309829931,0.0745694968204
2800000000.0,0.0546355821071,0.0772735057331,0.945098154042,-0.0992303180484,0.945098154042,-0.0992303180484,0.0546355821071,0.0772735057331
2900000000.0,0.0552590887861,0.0799717240998,0.9444560798,-0.102713717654,0.9444560798,-0.102713717654,0.0552590887861,0.0799717240998
3000000000.0,0.0559014944534,0.0826639744104,0.94379447667,-0.10619124333,0.94379447667,-0.10619124333,0.0559014944534,0.0826639744104
3100000000.0,0.0565627829431,0.0853500797322,0.943113360484,-0.109662720282,0.943113360484,-0.109662720282,0.0565627829431,0.0853500797322
3200000000.0,0.0572429311366,0.0880298637918,0.94241275402,-0.113127974347,0.94241275402,-0.113127974347,0.0572429311366,0.0880298637918
3300000000.0,0.0579419095129,0.0907031510506,0.941692686453,-0.116586832069,0.941692686453,-0.116586832069,0.0579419095129,0.0907031510506
3400000000.0,0.0586596826265,0.0933697667751,0.940953192873,-0.120039120772,0.940953192873,-0.120039120772,0.0586596826265,0.0933697667751
3500000000.0,0.0593962095258,0.0960295371025,0.940194313871,-0.123484668623,0.940194313871,-0.123484668623,0.0593962095258,0.0960295371025
3600000000.0,0.0601514441201,0.098682289102,0.939416095169,-0.126923304698,0.939416095169,-0.126923304698,0.0601514441201,0.098682289102
3700000000.0,0.0609253355053,0.101327850833,0.938618587295,-0.130354859037,0.938618587295,-0.130354859037,0.0609253355053,0.101327850833
3800000000.0,0.0617178282514,0.103966051397,0.937801845298,-0.133779162703,0.937801845298,-0.133779162703,0.0617178282514,0.103966051397
3900000000.0,0.0625288626603,0.106596720995,0.936965928487,-0.137196047829,0.936965928487,-0.137196047829,0.0625288626603,0.106596720995
4000000000.0,0.063358374997,0.10921969097,0.9361109002,-0.140605347674,0.9361109002,-0.140605347674,0.063358374997,0.10921969097
4100000000.0,0.0642062976969,0.111834793856,0.935236827601,-0.144006896664,0.935236827601,-0.144006896664,0.0642062976969,0.111834793856
4200000000.0,0.0650725595546,0.114441863423,0.934343781485,-0.147400530441,0.934343781485,-0.147400530441,0.0650725595546,0.114441863423
4300000000.0,0.0659570858948,0.117040734717,0.933431836112,-0.150786085901,0.933431836112,-0.150786085901,0.0659570858948,0.117040734717
4400000000.0,0.0668597987289,0.119631244102,0.932501069049,-0.154163401242,0.932501069049,-0.154163401242,0.0668597987289,0.119631244102
4500000000.0,0.067780616898,0.122213229298,0.931551561025,-0.157532315993,0.931551561025,-0.157532315993,0.067780616898,0.122213229298
4600000000.0,0.0687194562052,0.124786529416,0.930583395802,-0.160892671061,0.930583395802,-0.160892671061,0.0687194562052,0.124786529416
4700000000.0,0.0696762295379,0.127350984996,0.929596660052,-0.164244308759,0.929596660052,-0.164244308759,0.0696762295379,0.127350984996
4800000000.0,0.0706508469809,0.129906438039,0.928591443242,-0.167587072846,0.928591443242,-0.167587072846,0.0706508469809,0.129906438039
4900000000.0,0.0716432159221,0.132452732039,0.927567837529,-0.170920808556,0.927567837529,-0.170920808556,0.0716432159221,0.132452732039
5000000000.0,0.0726532411517,0.134989712016,0.926525937664,-0.174245362629,0.926525937664,-0.174245362629,0.0726532411517,0.134989712016
5100000000.0,0.0736808249549,0.137517224543,0.925465840893,-0.177560583345,0.925465840893,-0.177560583345,0.0736808249549,0.137517224543
5200000000.0,0.0747258671995,0.140035117776,0.924387646876,-0.18086632055,0.924387646876,-0.18086632055,0.0747258671995,0.140035117776
5300000000.0,0.0757882654186,0.142543241484,0.923291457602,-0.184162425684,0.923291457602,-0.184162425684,0.0757882654186,0.142543241484
5400000000.0,0.0768679148892,0.145041447069,0.922177377308,-0.187448751806,0.922177377308,-0.187448751806,0.0768679148892,0.145041447069
5500000000.0,0.0779647087071,0.147529587598,0.921045512406,-0.190725153626,0.921045512406,-0.190725153626,0.0779647087071,0.147529587598
5600000000.0,0.0790785378579,0.150007517823,0.919895971415,-0.193991487522,0.919895971415,-0.193991487522,0.0790785378579,0.150007517823
5700000000.0,0.0802092912857,0.152475094204,0.918728864886,-0.197247611567,0.918728864886,-0.197247611567,0.0802092912857,0.152475094204
5800000000.0,0.0813568559583,0.154932174936,0.917544305344,-0.200493385551,0.917544305344,-0.200493385551,0.0813568559583,0.154932174936
5900000000.0,0.0825211169306,0.157378619965,0.916342407217,-0.203728671004,0.916342407217,-0.203728671004,0.0825211169306,0.157378619965
6000000000.0,0.083701957405,0.159814291009,0.915123286782,-0.206953331213,0.915123286782,-0.206953331213,0.083701957405,0.159814291009
6100000000.0,0.0848992587906,0.16223905158,0.913887062104,-0.210167231247,0.913887062104,-0.210167231247,0.0848992587906,0.16223905158
6200000000.0,0.0861129007602,0.164652767003,0.912633852977,-0.213370237969,0.912633852977,-0.213370237969,0.0861129007602,0.164652767003
6300000000.0,0.0873427613051,0.167055304429,0.911363780872,-0.216562220061,0.911363780872,-0.216562220061,0.0873427613051,0.167055304429
6400000000.0,0.0885887167894,0.169446532857,0.910076968879,-0.219743048036,0.910076968879,-0.219743048036,0.0885887167894,0.169446532857
6500000000.0,0.0898506420021,0.171826323146,0.90877354166,-0.222912594257,0.90877354166,-0.222912594257,0.0898506420021,0.171826323146
6600000000.0,0.0911284102081,0.174194548034,0.907453625395,-0.226070732951,0.907453625395,-0.226070732951,0.0911284102081,0.174194548034
6700000000.0,0.0924218931985,0.176551082148,0.906117347731,-0.229217340224,0.906117347731,-0.229217340224,0.0924218931985,0.176551082148
6800000000.0,0.0937309613389,0.178895802022,0.904764837736,-0.232352294075,0.904764837736,-0.232352294075,0.0937309613389,0.178895802022
6900000000.0,0.0950554836176,0.181228586107,0.903396225849,-0.235475474408,0.903396225849,-0.235475474408,0.0950554836176,0.181228586107
7000000000.0,0.0963953276922,0.183549314784,0.902011643835,-0.238586763046,0.902011643835,-0.238586763046,0.0963953276922,0.183549314784
7100000000.0,0.0977503599359,0.185857870375,0.900611224735,-0.241686043742,0.900611224735,-0.241686043742,0.0977503599359,0.185857870375
7200000000.0,0.0991204454824,0.188154137153,0.899195102829,-0.244773202187,0.899195102829,-0.244773202187,0.0991204454824,0.188154137153
7300000000.0,0.10050544827,0.190438001354,0.897763413582,-0.247848126026,0.897763413582,-0.247848126026,0.10050544827,0.190438001354
7400000000.0,0.101905231088,0.192709351182,0.896316293606,-0.250910704859,0.896316293606,-0.250910704859,0.101905231088,0.192709351182
7500000000.0,0.103319655614,0.194968076823,0.894853880618,-0.253960830256,0.894853880618,-0.253960830256,0.103319655614,0.194968076823
7600000000.0,0.104748582463,0.197214070446,0.89337631339,-0.256998395765,0.89337631339,-0.256998395765,0.104748582463,0.197214070446
7700000000.0,0.106191871224,0.199447226216,0.891883731719,-0.260023296912,0.891883731719,-0.260023296912,0.106191871224,0.199447226216
7800000000.0,0.107649380505,0.201667440296,0.890376276375,-0.263035431217,0.890376276375,-0.263035431217,0.107649380505,0.201667440296
7900000000.0,0.109120967971,0.203874610856,0.888854089065,-0.266034698192,0.888854089065,-0.266034698192,0.109120967971,0.203874610856
8000000000.0,0.110606490385,0.206068638073,0.887317312394,-0.269020999349,0.887317312394,-0.269020999349,0.110606490385,0.206068638073
8100000000.0,0.112105803649,0.208249424142,0.885766089822,-0.271994238207,0.885766089822,-0.271994238207,0.112105803649,0.208249424142
8200000000.0,0.11361876284,0.210416873274,0.88420056563,-0.27495432029,0.88420056563,-0.27495432029,0.11361876284,0.210416873274
8300000000.0,0.115145222253,0.2125708917,0.882620884875,-0.277901153135,0.882620884875,-0.277901153135,0.115145222253,0.2125708917
8400000000.0,0.116685035436,0.214711387677,0.881027193355,-0.280834646293,0.881027193355,-0.280834646293,0.116685035436,0.214711387677
8500000000.0,0.118238055227,0.216838271483,0.879419637573,-0.283754711329,0.879419637573,-0.283754711329,0.118238055227,0.216838271483
8600000000.0,0.119804133795,0.218951455426,0.877798364697,-0.286661261826,0.877798364697,-0.286661261826,0.119804133795,0.218951455426
8700000000.0,0.121383122675,0.221050853836,0.876163522523,-0.289554213383,0.876163522523,-0.289554213383,0.121383122675,0.221050853836
8800000000.0,0.122974872803,0.223136383074,0.874515259441,-0.292433483617,0.874515259441,-0.292433483617,0.122974872803,0.223136383074
8900000000.0,0.124579234553,0.225207961523,0.872853724397,-0.295298992162,0.872853724397,-0.295298992162,0.124579234553,0.225207961523
9000000000.0,0.126196057774,0.227265509592,0.871179066858,-0.298150660667,0.871179066858,-0.298150660667,0.126196057774,0.227265509592
9100000000.0,0.127825191825,0.229308949711,0.869491436775,-0.300988412794,0.869491436775,-0.300988412794,0.127825191825,0.229308949711
9200000000.0,0.129466485608,0.23133820633,0.867790984554,-0.303812174218,0.867790984554,-0.303812174218,0.129466485608,0.23133820633
9300000000.0,0.131119787602,0.233353205917,0.866077861013,-0.30662187262,0.866077861013,-0.30662187262,0.131119787602,0.233353205917
9400000000.0,0.132784945901,0.235353876954,0.864352217355,-0.309417437689,0.864352217355,-0.309417437689,0.132784945901,0.235353876954
9500000000.0,0.134461808243,0.237340149929,0.862614205132,-0.312198801113,0.862614205132,-0.312198801113,0.134461808243,0.237340149929
9600000000.0,0.136150222047,0.239311957338,0.860863976211,-0.314965896577,0.860863976211,-0.314965896577,0.136150222047,0.239311957338
9700000000.0,0.137850034441,0.241269233676,0.859101682743,-0.317718659758,0.859101682743,-0.317718659758,0.137850034441,0.241269233676
9800000000.0,0.139561092301,0.243211915429,0.857327477129,-0.320457028318,0.857327477129,-0.320457028318,0.139561092301,0.243211915429
9900000000.0,0.141283242277,0.245139941076,0.855541511989,-0.3231809419,0.855541511989,-0.3231809419,0.141283242277,0.245139941076
10000000000.0,0.143016330828,0.247053251072,0.853743940128,-0.325890342121,0.853743940128,-0.325890342121,0.143016330828,0.247053251072
