freq (GHz),S11_real,S11_imag,S21_real,S21_imag,S12_real,S12_imag,S22_real,S22_imag
100000000.0,2.71556933855e-05,-0.00417300450626,0.999924162212,-0.00466205542959,0.999924162212,-0.00466205542959,2.71556933857e-05,-0.00417300450626
200000000.0,-3.51892924408e-05,-0.0083457787057,0.999860760123,-0.00932392883868,0.999860760123,-0.00932392883868,-3.51892924408e-05,-0.0083457787057
300000000.0,-0.00013653676874,-0.01251799063,0.999758294427,-0.013985313911,0.999758294427,-0.013985313911,-0.00013653676874,-0.01251799063
400000000.0,-0.000276838986797,-0.0166892632745,0.999616724046,-0.01864585336,0.999616724046,-0.01864585336,-0.000276838986796,-0.0166892632745
500000000.0,-0.000456070529703,-0.0208591958818,0.999436040198,-0.0233051631721,0.999436040198,-0.0233051631721,-0.000456070529703,-0.0208591958818
600000000.0,-0.000674208677341,-0.0250273716255,0.999216248112,-0.0279628413077,0.999216248112,-0.0279628413077,-0.000674208677341,-0.0250273716255
700000000.0,-0.000931228105872,-0.029193361661,0.998957362712,-0.0326184722697,0.998957362712,-0.0326184722697,-0.000931228105872,-0.029193361661
800000000.0,-0.00122709875284,-0.0333567276574,0.998659407243,-0.0372716299443,0.998659407243,-0.0372716299443,-0.00122709875284,-0.0333567276574
900000000.0,-0.00156178472704,-0.0375170235525,0.99832241281,-0.0419218795615,0.99832241281,-0.0419218795615,-0.00156178472704,-0.0375170235525
1000000000.0,-0.00193524365468,-0.0416737968667,0.997946418241,-0.0465687791537,0.997946418241,-0.0465687791537,-0.00193524365468,-0.0416737968667
1100000000.0,-0.00234742624053,-0.0458265897372,0.99753147009,-0.0512118806968,0.99753147009,-0.0512118806968,-0.00234742624053,-0.0458265897372
1200000000.0,-0.00279827594966,-0.0499749397704,0.997077622697,-0.0558507310462,0.997077622697,-0.0558507310462,-0.00279827594966,-0.0499749397704
1300000000.0,-0.0032877287642,-0.0541183807674,0.996584938268,-0.0604848727271,0.996584938268,-0.0604848727271,-0.0032877287642,-0.0541183807674
1400000000.0,-0.0038157129913,-0.0582564433568,0.996053486962,-0.0651138446214,0.996053486962,-0.0651138446214,-0.0038157129913,-0.0582564433568
1500000000.0,-0.00438214910837,-0.0623886555607,0.99548334697,-0.0697371825777,0.99548334697,-0.0697371825777,-0.00438214910837,-0.0623886555607
1600000000.0,-0.00498694963751,-0.0665145433079,0.994874604596,-0.074354419962,0.994874604596,-0.074354419962,-0.00498694963751,-0.0665145433079
1700000000.0,-0.00563001904359,-0.0706336309066,0.994227354317,-0.0789650881619,0.994227354317,-0.0789650881619,-0.00563001904359,-0.0706336309066
1800000000.0,-0.00631125365246,-0.0747454414839,0.993541698842,-0.0835687170549,0.993541698842,-0.0835687170549,-0.00631125365246,-0.0747454414839
1900000000.0,-0.00703054158671,-0.0788494973994,0.992817749153,-0.088164835445,0.992817749153,-0.088164835445,-0.00703054158671,-0.0788494973994
2000000000.0,-0.00778776271711,-0.0829453206361,0.992055624544,-0.0927529714759,0.992055624544,-0.0927529714759,-0.00778776271711,-0.0829453206361
2100000000.0,-0.00858278862833,-0.0870324331718,0.991255452638,-0.0973326530213,0.991255452638,-0.0973326530213,-0.00858278862833,-0.0870324331718
2200000000.0,-0.00941548259781,-0.0911103573355,0.990417369404,-0.101903408058,0.990417369404,-0.101903408058,-0.00941548259781,-0.0911103573355
2300000000.0,-0.0102856995869,-0.0951786161483,0.989541519155,-0.106464765024,0.989541519155,-0.106464765024,-0.0102856995869,-0.0951786161483
2400000000.0,-0.0111932862433,-0.0992367336525,0.988628054542,-0.111016253159,0.988628054542,-0.111016253159,-0.0111932862433,-0.0992367336525
2500000000.0,-0.0121380809149,-0.103284235228,0.987677136535,-0.115557402835,0.987677136535,-0.115557402835,-0.0121380809149,-0.103284235228
2600000000.0,-0.0131199136732,-0.107320647899,0.986688934397,-0.120087745878,0.986688934397,-0.120087745878,-0.0131199136732,-0.107320647899
2700000000.0,-0.0141386063471,-0.111345500633,0.985663625644,-0.124606815869,0.985663625644,-0.124606815869,-0.0141386063471,-0.111345500633
2800000000.0,-0.0151939725657,-0.115358324623,0.984601396006,-0.129114148449,0.984601396006,-0.129114148449,-0.0151939725657,-0.115358324623
2900000000.0,-0.0162858178106,-0.119358653573,0.983502439365,-0.133609281602,0.983502439365,-0.133609281602,-0.0162858178106,-0.119358653573
3000000000.0,-0.0174139394758,-0.123346023965,0.9823669577,-0.138091755937,0.9823669577,-0.138091755937,-0.0174139394758,-0.123346023965
3100000000.0,-0.018578126937,-0.127319975322,0.981195161013,-0.142561114957,0.981195161013,-0.142561114957,-0.018578126937,-0.127319975322
3200000000.0,-0.0197781616278,-0.131280050463,0.979987267251,-0.147016905325,0.979987267251,-0.147016905325,-0.0197781616278,-0.131280050463
3300000000.0,-0.0210138171239,-0.135225795752,0.978743502223,-0.151458677113,0.978743502223,-0.151458677113,-0.0210138171239,-0.135225795752
3400000000.0,-0.0222848592347,-0.139156761335,0.977464099507,-0.155885984054,0.977464099507,-0.155885984054,-0.0222848592347,-0.139156761335
3500000000.0,-0.0235910461014,-0.143072501378,0.97614930035,-0.16029838378,0.97614930035,-0.16029838378,-0.0235910461014,-0.143072501378
3600000000.0,-0.0249321283021,-0.146972574287,0.974799353564,-0.164695438051,0.974799353564,-0.164695438051,-0.0249321283021,-0.146972574287
3700000000.0,-0.0263078489631,-0.15085654293,0.973414515413,-0.169076712982,0.973414515413,-0.169076712982,-0.0263078489631,-0.15085654293
3800000000.0,-0.0277179438761,-0.154723974849,0.971995049496,-0.173441779258,0.971995049496,-0.173441779258,-0.0277179438761,-0.154723974849
3900000000.0,-0.0291621416216,-0.158574442462,0.970541226623,-0.177790212345,0.970541226623,-0.177790212345,-0.0291621416216,-0.158574442462
4000000000.0,-0.0306401636976,-0.162407523265,0.969053324684,-0.182121592694,0.969053324684,-0.182121592694,-0.0306401636976,-0.162407523265
4100000000.0,-0.0321517246535,-0.166222800019,0.96753162852,-0.186435505933,0.96753162852,-0.186435505933,-0.0321517246535,-0.166222800019
4200000000.0,-0.0336965322289,-0.170019860936,0.965976429778,-0.190731543055,0.965976429778,-0.190731543055,-0.0336965322289,-0.170019860936
4300000000.0,-0.0352742874975,-0.173798299854,0.964388026772,-0.195009300606,0.964388026772,-0.195009300606,-0.0352742874975,-0.173798299854
4400000000.0,-0.036884685015,-0.177557716413,0.96276672433,-0.199268380849,0.96276672433,-0.199268380849,-0.036884685015,-0.177557716413
4500000000.0,-0.0385274129717,-0.181297716211,0.961112833647,-0.20350839194,0.961112833647,-0.20350839194,-0.0385274129717,-0.181297716211
4600000000.0,-0.0402021533483,-0.185017910968,0.959426672122,-0.207728948084,0.959426672122,-0.207728948084,-0.0402021533483,-0.185017910968
4700000000.0,-0.0419085820765,-0.188717918671,0.957708563205,-0.211929669689,0.957708563205,-0.211929669689,-0.0419085820765,-0.188717918671
4800000000.0,-0.0436463692021,-0.192397363719,0.955958836227,-0.216110183511,0.955958836227,-0.216110183511,-0.0436463692021,-0.192397363719
4900000000.0,-0.0454151790516,-0.196055877059,0.954177826237,-0.220270122798,0.954177826237,-0.220270122798,-0.0454151790516,-0.196055877059
5000000000.0,-0.0472146704018,-0.199693096319,0.952365873834,-0.224409127418,0.952365873834,-0.224409127418,-0.0472146704018,-0.199693096319
5100000000.0,-0.0490444966525,-0.203308665927,0.950523324988,-0.228526843987,0.950523324988,-0.228526843987,-0.0490444966525,-0.203308665927
5200000000.0,-0.050904306001,-0.206902237228,0.948650530872,-0.232622925987,0.948650530872,-0.232622925987,-0.050904306001,-0.206902237228
5300000000.0,-0.0527937416193,-0.210473468599,0.946747847681,-0.23669703388,0.946747847681,-0.23669703388,-0.0527937416193,-0.210473468599
5400000000.0,-0.0547124418332,-0.214022025544,0.944815636454,-0.240748835214,0.944815636454,-0.240748835214,-0.0547124418332,-0.214022025544
5500000000.0,-0.0566600403035,-0.2175475808,0.942854262892,-0.244778004718,0.942854262892,-0.244778004718,-0.0566600403035,-0.2175475808
5600000000.0,-0.0586361662082,-0.221049814419,0.940864097177,-0.248784224401,0.940864097177,-0.248784224401,-0.0586361662082,-0.221049814419
5700000000.0,-0.0606404444267,-0.224528413858,0.938845513788,-0.252767183631,0.938845513788,-0.252767183631,-0.0606404444267,-0.224528413858
5800000000.0,-0.0626724957247,-0.227983074054,0.936798891313,-0.256726579221,0.936798891313,-0.256726579221,-0.0626724957247,-0.227983074054
5900000000.0,-0.0647319369403,-0.231413497495,0.934724612267,-0.260662115497,0.934724612267,-0.260662115497,-0.0647319369403,-0.231413497495
6000000000.0,-0.0668183811708,-0.234819394287,0.932623062902,-0.264573504367,0.932623062902,-0.264573504367,-0.0668183811708,-0.234819394287
6100000000.0,-0.0689314379599,-0.238200482209,0.930494633022,-0.268460465382,0.930494633022,-0.268460465382,-0.0689314379599,-0.238200482209
6200000000.0,-0.0710707134855,-0.241556486771,0.928339715794,-0.272322725789,0.928339715794,-0.272322725789,-0.0710707134855,-0.241556486771
6300000000.0,-0.0732358107474,-0.244887141255,0.92615870756,-0.276160020579,0.92615870756,-0.276160020579,-0.0732358107474,-0.244887141255
6400000000.0,-0.0754263297552,-0.248192186761,0.92395200765,-0.279972092532,0.92395200765,-0.279972092532,-0.0754263297552,-0.248192186761
6500000000.0,-0.0776418677155,-0.251471372237,0.921720018193,-0.283758692248,0.921720018193,-0.283758692248,-0.0776418677155,-0.251471372237
6600000000.0,-0.0798820192197,-0.254724454511,0.919463143932,-0.287519578184,0.919463143932,-0.287519578184,-0.0798820192197,-0.254724454511
6700000000.0,-0.08214637643,-0.257951198315,0.917181792037,-0.291254516673,0.917181792037,-0.291254516673,-0.08214637643,-0.257951198315
6800000000.0,-0.0844345292655,-0.261151376299,0.914876371917,-0.294963281945,0.914876371917,-0.294963281945,-0.0844345292655,-0.261151376299
6900000000.0,-0.0867460655871,-0.264324769049,0.912547295036,-0.298645656141,0.912547295036,-0.298645656141,-0.0867460655871,-0.264324769049
7000000000.0,-0.0890805713817,-0.267471165087,0.910194974731,-0.302301429319,0.910194974731,-0.302301429319,-0.0890805713817,-0.267471165087
7100000000.0,-0.0914376309442,-0.270590360878,0.907819826026,-0.305930399462,0.907819826026,-0.305930399462,-0.0914376309442,-0.270590360878
7200000000.0,-0.0938168270596,-0.273682160824,0.905422265455,-0.309532372466,0.905422265455,-0.309532372466,-0.0938168270596,-0.273682160824
7300000000.0,-0.0962177411822,-0.276746377256,0.903002710878,-0.313107162141,0.903002710878,-0.313107162141,-0.0962177411822,-0.276746377256
7400000000.0,-0.0986399536142,-0.27978283042,0.900561581304,-0.316654590195,0.900561581304,-0.316654590195,-0.0986399536142,-0.27978283042
7500000000.0,-0.101083043682,-0.282791348456,0.898099296715,-0.320174486214,0.898099296715,-0.320174486214,-0.101083043682,-0.282791348456
7600000000.0,-0.10354658991,-0.285771767382,0.895616277894,-0.323666687645,0.895616277894,-0.323666687645,-0.10354658991,-0.285771767382
7700000000.0,-0.106030170195,-0.288723931058,0.893112946245,-0.327131039762,0.893112946245,-0.327131039762,-0.106030170195,-0.288723931058
7800000000.0,-0.108533361975,-0.291647691158,0.890589723634,-0.330567395641,0.890589723634,-0.330567395641,-0.108533361975,-0.291647691158
7900000000.0,-0.111055742396,-0.294542907131,0.888047032208,-0.333975616121,0.888047032208,-0.333975616121,-0.111055742396,-0.294542907131
8000000000.0,-0.113596888481,-0.297409446163,0.88548529424,-0.337355569762,0.88548529424,-0.337355569762,-0.113596888481,-0.297409446163
8100000000.0,-0.116156377293,-0.30024718313,0.882904931961,-0.340707132803,0.882904931961,-0.340707132803,-0.116156377293,-0.30024718313
8200000000.0,-0.118733786091,-0.303056000549,0.880306367396,-0.344030189115,0.880306367396,-0.344030189115,-0.118733786091,-0.303056000549
8300000000.0,-0.121328692494,-0.305835788525,0.877690022214,-0.347324630145,0.877690022214,-0.347324630145,-0.121328692494,-0.305835788525
8400000000.0,-0.123940674633,-0.308586444695,0.875056317566,-0.350590354861,0.875056317566,-0.350590354861,-0.123940674633,-0.308586444695
8500000000.0,-0.126569311307,-0.311307874166,0.872405673933,-0.353827269696,0.872405673933,-0.353827269696,-0.126569311307,-0.311307874166
8600000000.0,-0.129214182127,-0.313999989455,0.86973851098,-0.357035288477,0.86973851098,-0.357035288477,-0.129214182127,-0.313999989455
8700000000.0,-0.131874867668,-0.316662710418,0.867055247404,-0.360214332367,0.867055247404,-0.360214332367,-0.131874867668,-0.316662710418
8800000000.0,-0.134550949611,-0.31929596418,0.864356300795,-0.36336432979,0.864356300795,-0.36336432979,-0.134550949611,-0.31929596418
8900000000.0,-0.137242010885,-0.321899685066,0.861642087494,-0.36648521636,0.861642087494,-0.36648521636,-0.137242010885,-0.321899685066
9000000000.0,-0.1399476358,-0.32447381452,0.858913022451,-0.369576934802,0.858913022451,-0.369576934802,-0.1399476358,-0.32447381452
9100000000.0,-0.142667410189,-0.327018301026,0.856169519096,-0.37263943488,0.856169519096,-0.37263943488,-0.142667410189,-0.327018301026
9200000000.0,-0.145400921532,-0.329533100029,0.853411989207,-0.375672673306,0.853411989207,-0.375672673306,-0.145400921532,-0.329533100029
9300000000.0,-0.148147759091,-0.332018173851,0.850640842777,-0.378676613667,0.850640842777,-0.378676613667,-0.148147759091,-0.332018173851
9400000000.0,-0.150907514026,-0.334473491598,0.847856487897,-0.381651226329,0.847856487897,-0.381651226329,-0.150907514026,-0.334473491598
9500000000.0,-0.153679779526,-0.336899029079,0.845059330626,-0.384596488353,0.845059330626,-0.384596488353,-0.153679779526,-0.336899029079
9600000000.0,-0.15646415092,-0.33929476871,0.842249774881,-0.387512383403,0.842249774881,-0.387512383403,-0.15646415092,-0.33929476871
9700000000.0,-0.159260225796,-0.341660699419,0.839428222317,-0.390398901653,0.839428222317,-0.390398901653,-0.159260225796,-0.341660699419
9800000000.0,-0.16206760411,-0.343996816557,0.836595072215,-0.393256039691,0.836595072215,-0.393256039691,-0.16206760411,-0.343996816557
9900000000.0,-0.164885888294,-0.346303121795,0.833750721379,-0.396083800425,0.833750721379,-0.396083800425,-0.164885888294,-0.346303121795
10000000000.0,-0.167714683364,-0.348579623027,0.830895564027,-0.398882192981,0.830895564027,-0.398882192981,-0.167714683364,-0.348579623027
