freq (GHz),S11_real,S11_imag,S21_real,S21_imag,S12_real,S12_imag,S22_real,S22_imag
100000000.0,-7.05527859006e-05,-0.00818742630832,0.999918215657,-0.00824542629868,0.999918215657,-0.00824542629868,-7.0552785901e-05,-0.00818742630832
200000000.0,-0.0002811250722,-0.0163705373597,0.999707561683,-0.016486553971,0.999707561683,-0.016486553971,-0.0002811250722,-0.0163705373597
300000000.0,-0.000626423344261,-0.0245456540076,0.999362197697,-0.0247197122283,0.999362197697,-0.0247197122283,-0.000626423344261,-0.0245456540076
400000000.0,-0.00110609029474,-0.0327092019854,0.998882471343,-0.0329413330483,0.998882471343,-0.0329413330483,-0.00110609029474,-0.0327092019854
500000000.0,-0.00171965046784,-0.0408576743328,0.998268854372,-0.0411479145862,0.998268854372,-0.0411479145862,-0.00171965046784,-0.0408576743328
600000000.0,-0.00246651176821,-0.0489876212262,0.997521936994,-0.0493360113544,0.997521936994,-0.0493360113544,-0.00246651176821,-0.0489876212262
700000000.0,-0.00334596810949,-0.0570956468844,0.996642424184,-0.0575022313098,0.996642424184,-0.0575022313098,-0.00334596810949,-0.0570956468844
800000000.0,-0.00435720225541,-0.0651784093573,0.995631132459,-0.0656432357529,0.995631132459,-0.0656432357529,-0.00435720225541,-0.0651784093573
900000000.0,-0.00549928873851,-0.0732326216647,0.994488986788,-0.0737557405426,0.994488986788,-0.0737557405426,-0.00549928873851,-0.0732326216647
1000000000.0,-0.00677119684889,-0.0812550536397,0.993217017519,-0.0818365179952,0.993217017519,-0.0818365179952,-0.00677119684889,-0.0812550536397
1100000000.0,-0.00817179369966,-0.0892425341493,0.991816357267,-0.0898823991466,0.991816357267,-0.0898823991466,-0.00817179369966,-0.0892425341493
1200000000.0,-0.00969984737289,-0.0971919534903,0.990288237737,-0.0978902761832,0.990288237737,-0.0978902761832,-0.00969984737289,-0.0971919534903
1300000000.0,-0.0113540301503,-0.105100265864,0.988633986478,-0.105857104944,0.988633986478,-0.105857104944,-0.0113540301503,-0.105100265864
1400000000.0,-0.0131329218257,-0.112964491844,0.986855023559,-0.113779907414,0.986855023559,-0.113779907414,-0.0131329218257,-0.112964491844
1500000000.0,-0.0150350130979,-0.120781720799,0.984952858165,-0.121655774165,0.984952858165,-0.121655774165,-0.0150350130979,-0.120781720799
1600000000.0,-0.0170587090383,-0.128549113232,0.98292908513,-0.129481866715,0.98292908513,-0.129481866715,-0.0170587090383,-0.128549113232
1700000000.0,-0.019202332629,-0.136263903014,0.980785381387,-0.13725541978,0.980785381387,-0.13725541978,-0.019202332629,-0.136263903014
1800000000.0,-0.0214641283617,-0.143923399497,0.978523502375,-0.144973743395,0.978523502375,-0.144973743395,-0.0214641283617,-0.143923399497
1900000000.0,-0.0238422658949,-0.151524989488,0.97614527837,-0.15263422491,0.97614527837,-0.15263422491,-0.0238422658949,-0.151524989488
2000000000.0,-0.0263348437559,-0.159066139082,0.973652610792,-0.160234330828,0.973652610792,-0.160234330828,-0.0263348437559,-0.159066139082
2100000000.0,-0.0289398930852,-0.166544395343,0.971047468449,-0.167771608499,0.971047468449,-0.167771608499,-0.0289398930852,-0.166544395343
2200000000.0,-0.0316553814098,-0.173957387823,0.968331883771,-0.175243687653,0.968331883771,-0.175243687653,-0.0316553814098,-0.173957387823
2300000000.0,-0.0344792164423,-0.181302829932,0.965507949003,-0.182648281773,0.965507949003,-0.182648281773,-0.0344792164423,-0.181302829932
2400000000.0,-0.037409249893,-0.188578520133,0.9625778124,-0.189983189302,0.9625778124,-0.189983189302,-0.037409249893,-0.188578520133
2500000000.0,-0.0404432812885,-0.195782342983,0.959543674402,-0.197246294696,0.959543674402,-0.197246294696,-0.0404432812885,-0.195782342983
2600000000.0,-0.0435790617898,-0.20291227001,0.956407783815,-0.204435569299,0.956407783815,-0.204435569299,-0.0435790617898,-0.20291227001
2700000000.0,-0.0468142979982,-0.20996636042,0.95317243401,-0.211549072065,0.95317243401,-0.211549072065,-0.0468142979982,-0.20996636042
2800000000.0,-0.0501466557459,-0.216942761649,0.949839959129,-0.218584950114,0.949839959129,-0.218584950114,-0.0501466557459,-0.216942761649
2900000000.0,-0.0535737638579,-0.223839709757,0.946412730321,-0.22554143913,0.946412730321,-0.22554143913,-0.0535737638579,-0.223839709757
3000000000.0,-0.0570932178833,-0.230655529655,0.942893152014,-0.232416863599,0.942893152014,-0.232416863599,-0.0570932178833,-0.230655529655
3100000000.0,-0.0607025837835,-0.237388635192,0.939283658224,-0.239209636893,0.939283658224,-0.239209636893,-0.0607025837835,-0.237388635192
3200000000.0,-0.0643994015748,-0.244037529077,0.935586708916,-0.245918261204,0.935586708916,-0.245918261204,-0.0643994015748,-0.244037529077
3300000000.0,-0.0681811889152,-0.250600802666,0.931804786411,-0.252541327332,0.931804786411,-0.252541327332,-0.0681811889152,-0.250600802666
3400000000.0,-0.0720454446313,-0.257077135598,0.927940391865,-0.259077514327,0.927940391865,-0.259077514327,-0.0720454446313,-0.257077135598
3500000000.0,-0.0759896521779,-0.263465295302,0.923996041805,-0.265525588996,0.923996041805,-0.265525588996,-0.0759896521779,-0.263465295302
3600000000.0,-0.0800112830258,-0.269764136358,0.919974264744,-0.271884405275,0.919974264744,-0.271884405275,-0.0800112830258,-0.269764136358
3700000000.0,-0.0841077999712,-0.275972599747,0.91587759787,-0.278152903474,0.91587759787,-0.278152903474,-0.0841077999712,-0.275972599747
3800000000.0,-0.0882766603632,-0.282089711967,0.911708583819,-0.2843301094,0.911708583819,-0.2843301094,-0.0882766603632,-0.282089711967
3900000000.0,-0.0925153192436,-0.288114584033,0.907469767535,-0.290415133363,0.907469767535,-0.290415133363,-0.0925153192436,-0.288114584033
4000000000.0,-0.0968212323962,-0.294046410373,0.903163693221,-0.296407169068,0.903163693221,-0.296407169068,-0.0968212323962,-0.294046410373
4100000000.0,-0.1011918593,-0.299884467615,0.898792901384,-0.302305492409,0.898792901384,-0.302305492409,-0.1011918593,-0.299884467615
4200000000.0,-0.105624665987,-0.305628113275,0.894359925981,-0.308109460157,0.894359925981,-0.308109460157,-0.105624665987,-0.305628113275
4300000000.0,-0.110117127792,-0.311276784352,0.889867291663,-0.313818508561,0.889867291663,-0.313818508561,-0.110117127792,-0.311276784352
4400000000.0,-0.114666732009,-0.316829995842,0.885317511126,-0.319432151859,0.885317511126,-0.319432151859,-0.114666732009,-0.316829995842
4500000000.0,-0.119270980435,-0.322287339167,0.880713082563,-0.324949980708,0.880713082563,-0.324949980708,-0.119270980435,-0.322287339167
4600000000.0,-0.123927391803,-0.32764848053,0.876056487228,-0.33037166055,0.876056487228,-0.33037166055,-0.123927391803,-0.32764848053
4700000000.0,-0.128633504117,-0.332913159206,0.871350187109,-0.335696929892,0.871350187109,-0.335696929892,-0.128633504117,-0.332913159206
4800000000.0,-0.133386876866,-0.338081185771,0.866596622706,-0.340925598545,0.866596622706,-0.340925598545,-0.133386876866,-0.338081185771
4900000000.0,-0.138185093134,-0.343152440273,0.861798210926,-0.346057545794,0.861798210926,-0.346057545794,-0.138185093134,-0.343152440273
5000000000.0,-0.143025761598,-0.348126870359,0.856957343083,-0.351092718522,0.856957343083,-0.351092718522,-0.143025761598,-0.348126870359
5100000000.0,-0.147906518412,-0.353004489352,0.852076383015,-0.356031129297,0.852076383015,-0.356031129297,-0.147906518412,-0.353004489352
5200000000.0,-0.152825028982,-0.357785374298,0.847157665305,-0.36087285441,0.847157665305,-0.36087285441,-0.152825028982,-0.357785374298
5300000000.0,-0.157778989636,-0.362469663977,0.84220349362,-0.365618031893,0.84220349362,-0.365618031893,-0.157778989636,-0.362469663977
5400000000.0,-0.162766129177,-0.367057556888,0.837216139148,-0.370266859505,0.837216139148,-0.370266859505,-0.162766129177,-0.367057556888
5500000000.0,-0.167784210329,-0.371549309216,0.832197839156,-0.374819592694,0.832197839156,-0.374819592694,-0.167784210329,-0.371549309216
5600000000.0,-0.172831031088,-0.37594523278,0.827150795644,-0.379276542553,0.827150795644,-0.379276542553,-0.172831031088,-0.37594523278
5700000000.0,-0.177904425947,-0.380245692972,0.822077174108,-0.383638073754,0.822077174108,-0.383638073754,-0.177904425947,-0.380245692972
5800000000.0,-0.183002267042,-0.384451106691,0.816979102408,-0.387904602485,0.816979102408,-0.387904602485,-0.183002267042,-0.384451106691
5900000000.0,-0.188122465176,-0.388561940274,0.811858669734,-0.392076594381,0.811858669734,-0.392076594381,-0.188122465176,-0.388561940274
6000000000.0,-0.193262970758,-0.392578707431,0.80671792567,-0.39615456246,0.80671792567,-0.39615456246,-0.193262970758,-0.392578707431
6100000000.0,-0.198421774641,-0.396501967188,0.801558879357,-0.400139065065,0.801558879357,-0.400139065065,-0.198421774641,-0.396501967188
6200000000.0,-0.203596908862,-0.400332321839,0.796383498751,-0.404030703815,0.796383498751,-0.404030703815,-0.203596908862,-0.400332321839
6300000000.0,-0.208786447302,-0.404070414916,0.791193709968,-0.40783012158,0.791193709968,-0.40783012158,-0.208786447302,-0.404070414916
6400000000.0,-0.213988506242,-0.407716929172,0.785991396718,-0.41153800046,0.785991396718,-0.41153800046,-0.213988506242,-0.407716929172
6500000000.0,-0.21920124485,-0.411272584593,0.780778399831,-0.415155059799,0.780778399831,-0.415155059799,-0.21920124485,-0.411272584593
6600000000.0,-0.22442286557,-0.41473813643,0.775556516854,-0.418682054216,0.775556516854,-0.418682054216,-0.22442286557,-0.41473813643
6700000000.0,-0.229651614445,-0.418114373257,0.770327501742,-0.422119771664,0.770327501742,-0.422119771664,-0.229651614445,-0.418114373257
6800000000.0,-0.234885781354,-0.421402115064,0.765093064611,-0.425469031523,0.765093064611,-0.425469031523,-0.234885781354,-0.421402115064
6900000000.0,-0.240123700177,-0.424602211378,0.759854871573,-0.428730682722,0.759854871573,-0.428730682722,-0.240123700177,-0.424602211378
7000000000.0,-0.245363748897,-0.427715539424,0.754614544644,-0.431905601894,0.754614544644,-0.431905601894,-0.245363748897,-0.427715539424
7100000000.0,-0.250604349623,-0.430743002313,0.749373661707,-0.434994691577,0.749373661707,-0.434994691577,-0.250604349623,-0.430743002313
7200000000.0,-0.255843968563,-0.433685527281,0.744133756554,-0.437998878436,0.744133756554,-0.437998878436,-0.255843968563,-0.433685527281
7300000000.0,-0.26108111592,-0.436544063957,0.738896318973,-0.440919111548,0.738896318973,-0.440919111548,-0.26108111592,-0.436544063957
7400000000.0,-0.266314345746,-0.43931958268,0.73366279491,-0.443756360705,0.73366279491,-0.443756360705,-0.266314345746,-0.43931958268
7500000000.0,-0.271542255732,-0.442013072855,0.728434586671,-0.446511614777,0.728434586671,-0.446511614777,-0.271542255732,-0.442013072855
7600000000.0,-0.276763486947,-0.44462554135,0.723213053181,-0.449185880111,0.723213053181,-0.449185880111,-0.276763486947,-0.44462554135
7700000000.0,-0.281976723535,-0.447158010947,0.717999510293,-0.451780178973,0.717999510293,-0.451780178973,-0.281976723535,-0.447158010947
7800000000.0,-0.287180692358,-0.449611518826,0.712795231142,-0.454295548043,0.712795231142,-0.454295548043,-0.287180692358,-0.449611518826
7900000000.0,-0.292374162601,-0.451987115106,0.707601446538,-0.456733036946,0.707601446538,-0.456733036946,-0.292374162601,-0.451987115106
8000000000.0,-0.297555945342,-0.454285861421,0.7024193454,-0.459093706835,0.7024193454,-0.459093706835,-0.297555945342,-0.454285861421
8100000000.0,-0.302724893072,-0.456508829556,0.697250075234,-0.461378629024,0.697250075234,-0.461378629024,-0.302724893072,-0.456508829556
8200000000.0,-0.307879899195,-0.458657100118,0.692094742632,-0.463588883656,0.692094742632,-0.463588883656,-0.307879899195,-0.458657100118
8300000000.0,-0.313019897488,-0.460731761257,0.686954413813,-0.465725558432,0.686954413813,-0.465725558432,-0.313019897488,-0.460731761257
8400000000.0,-0.318143861535,-0.462733907438,0.681830115191,-0.467789747375,0.681830115191,-0.467789747375,-0.318143861535,-0.462733907438
8500000000.0,-0.323250804136,-0.464664638257,0.676722833963,-0.469782549645,0.676722833963,-0.469782549645,-0.323250804136,-0.464664638257
8600000000.0,-0.328339776685,-0.466525057296,0.671633518729,-0.471705068405,0.671633518729,-0.471705068405,-0.328339776685,-0.466525057296
8700000000.0,-0.33340986854,-0.468316271038,0.666563080133,-0.473558409722,0.666563080133,-0.473558409722,-0.33340986854,-0.468316271038
8800000000.0,-0.338460206356,-0.470039387816,0.661512391513,-0.475343681526,0.661512391513,-0.475343681526,-0.338460206356,-0.470039387816
8900000000.0,-0.343489953416,-0.471695516809,0.656482289584,-0.4770619926,0.656482289584,-0.4770619926,-0.343489953416,-0.471695516809
9000000000.0,-0.348498308941,-0.473285767087,0.651473575123,-0.478714451628,0.651473575123,-0.478714451628,-0.348498308941,-0.473285767087
9100000000.0,-0.353484507382,-0.474811246694,0.646487013675,-0.480302166276,0.646487013675,-0.480302166276,-0.353484507382,-0.474811246694
9200000000.0,-0.35844781771,-0.476273061778,0.641523336266,-0.481826242321,0.641523336266,-0.481826242321,-0.35844781771,-0.476273061778
9300000000.0,-0.363387542691,-0.477672315757,0.636583240129,-0.483287782824,0.636583240129,-0.483287782824,-0.363387542691,-0.477672315757
9400000000.0,-0.368303018151,-0.479010108537,0.631667389434,-0.484687887335,0.631667389434,-0.484687887335,-0.368303018151,-0.479010108537
9500000000.0,-0.373193612244,-0.480287535757,0.626776416027,-0.48602765115,0.626776416027,-0.48602765115,-0.373193612244,-0.480287535757
9600000000.0,-0.378058724701,-0.481505688084,0.62191092017,-0.487308164599,0.62191092017,-0.487308164599,-0.378058724701,-0.481505688084
9700000000.0,-0.382897786094,-0.482665650542,0.617071471291,-0.488530512378,0.617071471291,-0.488530512377,-0.382897786094,-0.482665650542
9800000000.0,-0.387710257082,-0.483768501878,0.612258608729,-0.489695772911,0.612258608729,-0.489695772911,-0.387710257082,-0.483768501878
9900000000.0,-0.392495627665,-0.484815313966,0.607472842481,-0.490805017762,0.607472842481,-0.490805017762,-0.392495627665,-0.484815313966
10000000000.0,-0.397253416437,-0.485807151249,0.602714653951,-0.491859311065,0.602714653951,-0.491859311065,-0.397253416437,-0.485807151249
