freq (GHz),S11_real,S11_imag,S21_real,S21_imag,S12_real,S12_imag,S22_real,S22_imag
100000000.0,-0.00497291769436,-0.0700660326591,0.994935913132,-0.0702613091454,0.994935913132,-0.0702613091454,-0.00497291769436,-0.0700660326591
200000000.0,-0.0195923445753,-0.138059093013,0.980315805185,-0.138449665819,0.980315805185,-0.138449665819,-0.0195923445753,-0.138059093013
300000000.0,-0.0429805130795,-0.202124688078,0.956927073439,-0.20271058872,0.956927073439,-0.20271058872,-0.0429805130795,-0.202124688078
400000000.0,-0.0738817167085,-0.260763309104,0.926025346021,-0.261544578643,0.926025346021,-0.261544578643,-0.0738817167085,-0.260763309104
500000000.0,-0.110775781686,-0.312923359534,0.889130766665,-0.3139000475,0.889130766665,-0.3139000475,-0.110775781686,-0.312923359534
600000000.0,-0.152045416811,-0.358023334872,0.847860611305,-0.359195498548,0.847860611305,-0.359195498548,-0.152045416811,-0.358023334872
700000000.0,-0.196122960978,-0.395913409447,0.803782532055,-0.397281113338,0.803782532055,-0.397281113338,-0.196122960978,-0.395913409447
800000000.0,-0.241598212464,-0.42679694682,0.758306724821,-0.428360262235,0.758306724821,-0.428360262235,-0.241598212464,-0.42679694682
900000000.0,-0.287281952444,-0.451134568618,0.712622404412,-0.452893573319,0.712622404412,-0.452893573319,-0.287281952444,-0.451134568618
1000000000.0,-0.332229726836,-0.469549426886,0.667674021997,-0.471504204792,0.667674021997,-0.471504204792,-0.332229726836,-0.469549426886
1100000000.0,-0.375735761991,-0.482745623504,0.624167349034,-0.484896264432,0.624167349034,-0.484896264432,-0.375735761991,-0.482745623504
1200000000.0,-0.417308062918,-0.491445154721,0.582594378811,-0.493791754154,0.582594378811,-0.493791754154,-0.417308062918,-0.491445154721
1300000000.0,-0.456634283802,-0.496343865128,0.543267455784,-0.498886524012,0.543267455784,-0.498886524012,-0.456634283802,-0.496343865128
1400000000.0,-0.493545393809,-0.498084022886,0.506355609683,-0.500822847437,0.506355609683,-0.500822847437,-0.493545393809,-0.498084022886
1500000000.0,-0.527981548387,-0.497239933261,0.471918684141,-0.500175034799,0.471918684141,-0.500175034799,-0.527981548387,-0.497239933261
1600000000.0,-0.559962453352,-0.494312917712,0.439936972566,-0.497444412496,0.439936972566,-0.497444412496,-0.559962453352,-0.494312917712
1700000000.0,-0.589563025434,-0.489732476036,0.410335557563,-0.493060485122,0.410335557563,-0.493060485122,-0.589563025434,-0.489732476036
1800000000.0,-0.616894245914,-0.483861148262,0.383003457271,-0.487385797366,0.383003457271,-0.487385797366,-0.616894245914,-0.483861148262
1900000000.0,-0.642088631429,-0.477001285198,0.357808154545,-0.480722704564,0.357808154545,-0.480722704564,-0.642088631429,-0.477001285198
2000000000.0,-0.665289561638,-0.46940252169,0.334606269269,-0.473320845975,0.334606269269,-0.473320845975,-0.665289561638,-0.46940252169
2100000000.0,-0.686643689546,-0.46126919627,0.31325114803,-0.46538456443,0.31325114803,-0.46538456443,-0.686643689546,-0.46126919627
2200000000.0,-0.706295734007,-0.452767283139,0.2935980716,-0.457079838321,0.2935980716,-0.457079838321,-0.706295734007,-0.452767283139
2300000000.0,-0.724385063053,-0.444030620485,0.275507671604,-0.448540509931,0.275507671604,-0.448540509931,-0.724385063053,-0.444030620485
2400000000.0,-0.741043591244,-0.435166358737,0.258848033167,-0.439873733685,0.258848033167,-0.439873733685,-0.741043591244,-0.435166358737
2500000000.0,-0.756394619161,-0.426259636211,0.24349585541,-0.431164651809,0.24349585541,-0.431164651809,-0.756394619161,-0.426259636211
2600000000.0,-0.770552332273,-0.417377535927,0.229336952585,-0.42248035115,0.229336952585,-0.42248035115,-0.770552332273,-0.417377535927
2700000000.0,-0.783621748617,-0.408572399296,0.216266306392,-0.413873176861,0.216266306392,-0.413873176861,-0.783621748617,-0.408572399296
2800000000.0,-0.795698961287,-0.399884579422,0.204187823485,-0.405383485719,0.204187823485,-0.405383485719,-0.795698961287,-0.399884579422
2900000000.0,-0.806871565001,-0.391344715092,0.193013908905,-0.397041920105,0.193013908905,-0.397041920105,-0.806871565001,-0.391344715092
3000000000.0,-0.817219188502,-0.382975600241,0.182664933677,-0.388871277488,0.182664933677,-0.388871277488,-0.817219188502,-0.382975600241
3100000000.0,-0.826814078497,-0.374793715387,0.173068650869,-0.38088804185,0.173068650869,-0.38088804185,-0.826814078497,-0.374793715387
3200000000.0,-0.835721698381,-0.366810478631,0.164159596867,-0.373103634696,0.164159596867,-0.373103634696,-0.835721698381,-0.366810478631
3300000000.0,-0.844001317514,-0.359033265286,0.155878502099,-0.365525434688,0.155878502099,-0.365525434688,-0.844001317514,-0.359033265286
3400000000.0,-0.851706575829,-0.351466237392,0.148171726423,-0.358157607159,0.148171726423,-0.358157607159,-0.851706575829,-0.351466237392
3500000000.0,-0.858886014761,-0.34411101747,0.1409907282,-0.351001777872,0.1409907282,-0.351001777872,-0.858886014761,-0.34411101747
3600000000.0,-0.865583569865,-0.33696723496,0.13429157167,-0.344057579458,0.13429157167,-0.344057579458,-0.865583569865,-0.33696723496
3700000000.0,-0.871839023391,-0.330032968758,0.128034474387,-0.337323093961,0.128034474387,-0.337323093961,-0.871839023391,-0.330032968758
3800000000.0,-0.877688417025,-0.323305105058,0.122183394466,-0.33079521068,0.122183394466,-0.33079521068,-0.877688417025,-0.323305105058
3900000000.0,-0.883164426227,-0.316779626216,0.116705656252,-0.324469915031,0.116705656252,-0.324469915031,-0.883164426227,-0.316779626216
4000000000.0,-0.888296698346,-0.310451843462,0.1115716122,-0.31834252127,0.1115716122,-0.31834252127,-0.888296698346,-0.310451843462
4100000000.0,-0.893112157066,-0.304316583945,0.106754338434,-0.312407859534,0.106754338434,-0.312407859534,-0.893112157066,-0.304316583945
4200000000.0,-0.897635275915,-0.298368340623,0.102229361233,-0.306660425736,0.102229361233,-0.306660425736,-0.897635275915,-0.298368340623
4300000000.0,-0.901888323582,-0.292601391956,0.0979744117134,-0.301094501258,0.0979744117134,-0.301094501258,-0.901888323582,-0.292601391956
4400000000.0,-0.905891583705,-0.287009897062,0.0939692060472,-0.295704248111,0.0939692060472,-0.295704248111,-0.905891583705,-0.287009897062
4500000000.0,-0.909663551635,-0.281587970941,0.0901952486886,-0.290483784161,0.0901952486886,-0.290483784161,-0.909663551635,-0.281587970941
4600000000.0,-0.913221110542,-0.276329743523,0.0866356562748,-0.285427242177,0.0866356562748,-0.285427242177,-0.913221110542,-0.276329743523
4700000000.0,-0.916579688998,-0.271229405593,0.0832750000402,-0.280528815762,0.0832750000402,-0.280528815762,-0.916579688998,-0.271229405593
4800000000.0,-0.919753402011,-0.266281244102,0.0800991647836,-0.27578279466,0.0800991647836,-0.27578279466,-0.919753402011,-0.266281244102
4900000000.0,-0.922755177279,-0.261479668867,0.0770952226111,-0.271183591462,0.0770952226111,-0.271183591462,-0.922755177279,-0.261479668867
5000000000.0,-0.925596868273,-0.25681923234,0.0742513198568,-0.266725761376,0.0742513198568,-0.266725761376,-0.925596868273,-0.25681923234
5100000000.0,-0.928289355567,-0.252294643791,0.0715565757484,-0.262404016411,0.0715565757484,-0.262404016411,-0.928289355567,-0.252294643791
5200000000.0,-0.930842637712,-0.247900778997,0.0690009915372,-0.258213235066,0.0690009915372,-0.258213235066,-0.930842637712,-0.247900778997
5300000000.0,-0.93326591278,-0.243632686344,0.0665753689518,-0.254148468437,0.0665753689518,-0.254148468437,-0.93326591278,-0.243632686344
5400000000.0,-0.935567651605,-0.239485590066,0.0642712369584,-0.250204943456,0.0642712369584,-0.250204943456,-0.935567651605,-0.239485590066
5500000000.0,-0.937755663616,-0.235454891235,0.0620807859256,-0.246378063881,0.0620807859256,-0.246378063881,-0.937755663616,-0.235454891235
5600000000.0,-0.939837156072,-0.231536166958,0.0599968083901,-0.242663409494,0.0599968083901,-0.242663409494,-0.939837156072,-0.231536166958
5700000000.0,-0.941818787406,-0.227725168203,0.0580126457131,-0.239056733936,0.0580126457131,-0.239056733936,-0.941818787406,-0.227725168203
5800000000.0,-0.943706715315,-0.224017816569,0.0561221399931,-0.235553961464,0.0561221399931,-0.235553961464,-0.943706715315,-0.224017816569
5900000000.0,-0.945506640142,-0.220410200243,0.0543195906758,-0.232151182923,0.0543195906758,-0.232151182923,-0.945506640142,-0.220410200243
6000000000.0,-0.947223844077,-0.216898569383,0.0525997153624,-0.228844651122,0.0525997153624,-0.228844651122,-0.947223844077,-0.216898569383
6100000000.0,-0.948863226586,-0.213479331072,0.050957614374,-0.225630775794,0.050957614374,-0.225630775794,-0.948863226586,-0.213479331072
6200000000.0,-0.950429336485,-0.210149043997,0.0493887386809,-0.222506118273,0.0493887386809,-0.222506118273,-0.950429336485,-0.210149043997
6300000000.0,-0.951926400994,-0.206904412957,0.0478888608452,-0.219467386002,0.0478888608452,-0.219467386002,-0.951926400994,-0.206904412957
6400000000.0,-0.953358352095,-0.203742283278,0.0464540486691,-0.216511426955,0.0464540486691,-0.216511426955,-0.953358352095,-0.203742283278
6500000000.0,-0.954728850446,-0.200659635227,0.0450806412717,-0.213635224045,0.0450806412717,-0.213635224045,-0.954728850446,-0.200659635227
6600000000.0,-0.956041307132,-0.197653578451,0.0437652273479,-0.210835889568,0.0437652273479,-0.210835889568,-0.956041307132,-0.197653578451
6700000000.0,-0.957298903432,-0.194721346512,0.0425046253912,-0.20811065974,0.0425046253912,-0.20811065974,-0.957298903432,-0.194721346512
6800000000.0,-0.958504608838,-0.191860291526,0.0412958656852,-0.205456889331,0.0412958656852,-0.205456889331,-0.958504608838,-0.191860291526
6900000000.0,-0.95966119746,-0.189067878941,0.0401361738886,-0.202872046453,0.0401361738886,-0.202872046453,-0.95966119746,-0.189067878941
7000000000.0,-0.96077126301,-0.186341682477,0.0390229560584,-0.200353707492,0.0390229560584,-0.200353707492,-0.96077126301,-0.186341682477
7100000000.0,-0.961837232477,-0.183679379232,0.0379537849724,-0.197899552221,0.0379537849724,-0.197899552221,-0.961837232477,-0.183679379232
7200000000.0,-0.962861378628,-0.181078744959,0.0369263876254,-0.195507359075,0.0369263876254,-0.195507359075,-0.962861378628,-0.181078744959
7300000000.0,-0.963845831453,-0.178537649534,0.0359386337886,-0.193175000618,0.0359386337886,-0.193175000618,-0.963845831453,-0.178537649534
7400000000.0,-0.964792588642,-0.176054052597,0.0349885255311,-0.190900439193,0.0349885255311,-0.190900439193,-0.964792588642,-0.176054052597
7500000000.0,-0.96570352519,-0.173625999389,0.0340741876143,-0.188681722747,0.0340741876143,-0.188681722747,-0.96570352519,-0.173625999389
7600000000.0,-0.966580402208,-0.171251616755,0.0331938586781,-0.186516980849,0.0331938586781,-0.186516980849,-0.966580402208,-0.171251616755
7700000000.0,-0.967424875024,-0.168929109342,0.032345883147,-0.184404420873,0.032345883147,-0.184404420873,-0.967424875024,-0.168929109342
7800000000.0,-0.968238500615,-0.166656755954,0.0315287037893,-0.18234232437,0.0315287037893,-0.18234232437,-0.968238500615,-0.166656755954
7900000000.0,-0.969022744461,-0.164432906093,0.0307408548732,-0.180329043597,0.0307408548732,-0.180329043597,-0.969022744461,-0.164432906093
8000000000.0,-0.969778986837,-0.16225597665,0.0299809558634,-0.178362998215,0.0299809558634,-0.178362998215,-0.969778986837,-0.16225597665
8100000000.0,-0.970508528629,-0.160124448762,0.0292477056135,-0.176442672146,0.0292477056135,-0.176442672146,-0.970508528629,-0.160124448762
8200000000.0,-0.971212596688,-0.158036864821,0.0285398770089,-0.174566610581,0.0285398770089,-0.174566610581,-0.971212596688,-0.158036864821
8300000000.0,-0.971892348775,-0.155991825626,0.0278563120216,-0.172733417131,0.0278563120216,-0.172733417131,-0.971892348775,-0.155991825626
8400000000.0,-0.97254887813,-0.153987987672,0.0271959171428,-0.170941751123,0.0271959171428,-0.170941751123,-0.97254887813,-0.153987987672
8500000000.0,-0.973183217693,-0.152024060582,0.0265576591584,-0.169190325027,0.0265576591584,-0.169190325027,-0.973183217693,-0.152024060582
8600000000.0,-0.973796344016,-0.15009880466,0.0259405612419,-0.167477902008,0.0259405612419,-0.167477902008,-0.973796344016,-0.15009880466
8700000000.0,-0.974389180878,-0.148211028561,0.0253436993353,-0.165803293607,0.0253436993353,-0.165803293607,-0.974389180878,-0.148211028561
8800000000.0,-0.974962602638,-0.146359587091,0.024766198796,-0.164165357525,0.024766198796,-0.164165357525,-0.974962602638,-0.146359587091
8900000000.0,-0.975517437348,-0.144543379099,0.0242072312868,-0.162562995533,0.0242072312868,-0.162562995533,-0.975517437348,-0.144543379099
9000000000.0,-0.976054469638,-0.142761345492,0.0236660118899,-0.160995151473,0.0236660118899,-0.160995151473,-0.976054469638,-0.142761345492
9100000000.0,-0.976574443394,-0.141012467332,0.0231417964268,-0.159460809366,0.0231417964268,-0.159460809366,-0.976574443394,-0.141012467332
9200000000.0,-0.977078064251,-0.139295764043,0.022633878967,-0.157958991613,0.022633878967,-0.157958991613,-0.977078064251,-0.139295764043
9300000000.0,-0.977566001909,-0.137610291694,0.0221415895118,-0.156488757281,0.0221415895118,-0.156488757281,-0.977566001909,-0.137610291694
9400000000.0,-0.978038892288,-0.135955141379,0.0216642918375,-0.155049200484,0.0216642918375,-0.155049200484,-0.978038892288,-0.135955141379
9500000000.0,-0.97849733954,-0.134329437669,0.0212013814883,-0.153639448832,0.0212013814883,-0.153639448832,-0.97849733954,-0.134329437669
9600000000.0,-0.978941917913,-0.13273233714,0.0207522839047,-0.152258661968,0.0207522839047,-0.152258661968,-0.978941917913,-0.13273233714
9700000000.0,-0.979373173502,-0.131163026985,0.0203164526791,-0.150906030167,0.0203164526791,-0.150906030167,-0.979373173502,-0.131163026985
9800000000.0,-0.979791625876,-0.129620723677,0.0198933679271,-0.149580773013,0.0198933679271,-0.149580773013,-0.979791625876,-0.129620723677
9900000000.0,-0.980197769593,-0.128104671715,0.0194825347678,-0.148282138135,0.0194825347678,-0.148282138135,-0.980197769593,-0.128104671715
10000000000.0,-0.980592075628,-0.126614142413,0.0190834819037,-0.147009400006,0.0190834819037,-0.147009400006,-0.980592075628,-0.126614142413
