freq (GHz),S11_real,S11_imag,S21_real,S21_imag,S12_real,S12_imag,S22_real,S22_imag
100000000.0,0.000421728006224,4.82952813753e-05,0.999576265145,-0.000808483873283,0.999576265145,-0.000808483873283,0.000421728006224,4.82952813753e-05
200000000.0,0.000424316232924,9.65834640852e-05,0.999572092068,-0.00161697103041,0.999572092068,-0.00161697103041,0.000424316232924,9.65834640852e-05
300000000.0,0.000426239615176,0.000144864992913,0.999568005788,-0.00242546758537,0.999568005788,-0.00242546758537,0.000426239615176,0.000144864992913
400000000.0,0.000427864363663,0.000193139389379,0.999563640034,-0.0032339773196,0.999563640034,-0.0032339773196,0.000427864363662,0.000193139389379
500000000.0,0.000429331368419,0.000241406059098,0.999558853847,-0.00404250318458,0.999558853847,-0.00404250318458,0.000429331368419,0.000241406059098
600000000.0,0.000430712404292,0.000289664397256,0.999553575373,-0.00485104765321,0.999553575373,-0.00485104765321,0.000430712404292,0.000289664397256
700000000.0,0.000432049819885,0.000337913817846,0.999547762177,-0.00565961287374,0.999547762177,-0.00565961287374,0.000432049819885,0.000337913817846
800000000.0,0.000433371016037,0.0003861537627,0.999541386764,-0.00646820075426,0.999541386764,-0.00646820075426,0.000433371016037,0.0003861537627
900000000.0,0.000434694889347,0.000434383704147,0.999534430136,-0.00727681301492,0.999534430136,-0.00727681301492,0.000434694889347,0.000434383704147
1000000000.0,0.000436035096761,0.000482603145155,0.999526878529,-0.00808545122294,0.999526878529,-0.00808545122294,0.000436035096761,0.000482603145155
1100000000.0,0.000437401869502,0.000530811618328,0.9995187216,-0.00889411681769,0.9995187216,-0.00889411681769,0.000437401869502,0.000530811618328
1200000000.0,0.000438803093441,0.000579008684846,0.999509951344,-0.00970281112902,0.999509951344,-0.00970281112902,0.00043880309344,0.000579008684846
1300000000.0,0.000440244988527,0.000627193932837,0.999500561417,-0.0105115353918,0.999500561417,-0.0105115353918,0.000440244988527,0.000627193932837
1400000000.0,0.000441732555167,0.00067536697621,0.999490546692,-0.011320290757,0.999490546692,-0.011320290757,0.000441732555166,0.00067536697621
1500000000.0,0.000443269878264,0.00072352745333,0.999479902952,-0.0121290783007,0.999479902952,-0.0121290783007,0.000443269878264,0.00072352745333
1600000000.0,0.000444860340666,0.000771675025758,0.999468626675,-0.0129378990318,0.999468626675,-0.0129378990318,0.000444860340666,0.000771675025758
1700000000.0,0.000446506776934,0.000819809377125,0.999456714889,-0.0137467538979,0.999456714889,-0.0137467538979,0.000446506776934,0.000819809377125
1800000000.0,0.00044821158658,0.000867930212169,0.999444165048,-0.014555643791,0.999444165048,-0.014555643791,0.00044821158658,0.000867930212169
1900000000.0,0.000449976819108,0.000916037255714,0.999430974956,-0.0153645695516,0.999430974956,-0.0153645695516,0.000449976819107,0.000916037255714
2000000000.0,0.000451804238946,0.000964130251792,0.999417142697,-0.016173531973,0.999417142697,-0.016173531973,0.000451804238946,0.000964130251792
2100000000.0,0.000453695375822,0.0010122089629,0.999402666587,-0.0169825318042,0.999402666587,-0.0169825318042,0.000453695375823,0.0010122089629
2200000000.0,0.000455651564332,0.00106027316913,0.999387545134,-0.0177915697534,0.999387545134,-0.0177915697534,0.000455651564332,0.00106027316913
2300000000.0,0.000457673975412,0.00110832266756,0.999371777007,-0.0186006464903,0.999371777007,-0.0186006464903,0.000457673975412,0.00110832266756
2400000000.0,0.000459763641661,0.00115635727158,0.99935536101,-0.0194097626487,0.99935536101,-0.0194097626487,0.000459763641661,0.00115635727158
2500000000.0,0.000461921477892,0.00120437681024,0.999338296065,-0.0202189188285,0.999338296065,-0.0202189188285,0.000461921477892,0.00120437681024
2600000000.0,0.000464148297995,0.00125238112774,0.999320581188,-0.0210281155976,0.999320581188,-0.0210281155976,0.000464148297995,0.00125238112774
2700000000.0,0.000466444828847,0.00130037008288,0.999302215484,-0.0218373534935,0.999302215484,-0.0218373534935,0.000466444828847,0.00130037008288
2800000000.0,0.000468811721911,0.00134834354854,0.999283198129,-0.0226466330253,0.999283198129,-0.0226466330253,0.000468811721911,0.00134834354854
2900000000.0,0.000471249562963,0.00139630141125,0.999263528363,-0.0234559546746,0.999263528363,-0.0234559546746,0.000471249562963,0.00139630141125
3000000000.0,0.000473758880297,0.00144424357068,0.999243205481,-0.0242653188972,0.999243205481,-0.0242653188972,0.000473758880297,0.00144424357068
3100000000.0,0.000476340151691,0.00149216993931,0.999222228829,-0.0250747261241,0.999222228829,-0.0250747261241,0.000476340151691,0.00149216993931
3200000000.0,0.000478993810363,0.00154008044196,0.999200597792,-0.0258841767628,0.999200597792,-0.0258841767628,0.000478993810363,0.00154008044196
3300000000.0,0.000481720250075,0.00158797501543,0.999178311798,-0.0266936711981,0.999178311798,-0.0266936711981,0.000481720250075,0.00158797501543
3400000000.0,0.000484519829547,0.0016358536082,0.999155370303,-0.0275032097933,0.999155370303,-0.0275032097933,0.000484519829547,0.0016358536082
3500000000.0,0.000487392876272,0.00168371618,0.999131772797,-0.0283127928909,0.999131772797,-0.0283127928909,0.000487392876272,0.00168371618
3600000000.0,0.000490339689845,0.00173156270155,0.999107518795,-0.0291224208136,0.999107518795,-0.0291224208136,0.000490339689844,0.00173156270155
3700000000.0,0.000493360544866,0.00177939315426,0.999082607835,-0.0299320938647,0.999082607835,-0.0299320938647,0.000493360544866,0.00177939315426
3800000000.0,0.000496455693497,0.00182720752988,0.999057039477,-0.0307418123295,0.999057039477,-0.0307418123295,0.000496455693497,0.00182720752988
3900000000.0,0.000499625367701,0.00187500583023,0.999030813302,-0.0315515764754,0.999030813302,-0.0315515764754,0.000499625367701,0.00187500583023
4000000000.0,0.00050286978123,0.00192278806701,0.999003928904,-0.0323613865527,0.999003928904,-0.0323613865527,0.00050286978123,0.00192278806701
4100000000.0,0.000506189131387,0.00197055426144,0.998976385896,-0.0331712427952,0.998976385896,-0.0331712427952,0.000506189131386,0.00197055426144
4200000000.0,0.000509583600585,0.00201830444405,0.998948183903,-0.0339811454211,0.998948183903,-0.0339811454211,0.000509583600585,0.00201830444405
4300000000.0,0.000513053357751,0.00206603865448,0.998919322566,-0.0347910946329,0.998919322566,-0.0347910946329,0.000513053357751,0.00206603865448
4400000000.0,0.000516598559569,0.0021137569412,0.998889801532,-0.0356010906185,0.998889801532,-0.0356010906185,0.000516598559569,0.0021137569412
4500000000.0,0.000520219351603,0.0021614593613,0.998859620464,-0.0364111335513,0.998859620464,-0.0364111335513,0.000520219351602,0.0021614593613
4600000000.0,0.000523915869302,0.00220914598028,0.99882877903,-0.0372212235909,0.99882877903,-0.0372212235909,0.000523915869302,0.00220914598028
4700000000.0,0.000527688238913,0.0022568168719,0.99879727691,-0.0380313608833,0.99879727691,-0.0380313608833,0.000527688238913,0.0022568168719
4800000000.0,0.000531536578297,0.00230447211788,0.998765113791,-0.0388415455617,0.998765113791,-0.0388415455617,0.000531536578297,0.00230447211788
4900000000.0,0.000535460997672,0.00235211180779,0.998732289365,-0.0396517777464,0.998732289365,-0.0396517777464,0.000535460997672,0.00235211180779
5000000000.0,0.000539461600293,0.00239973603884,0.998698803335,-0.0404620575455,0.998698803335,-0.0404620575455,0.000539461600293,0.00239973603884
5100000000.0,0.000543538483061,0.0024473449157,0.998664655405,-0.0412723850553,0.998664655405,-0.0412723850553,0.000543538483061,0.0024473449157
5200000000.0,0.000547691737081,0.00249493855033,0.998629845288,-0.0420827603604,0.998629845288,-0.0420827603604,0.000547691737081,0.00249493855033
5300000000.0,0.000551921448179,0.00254251706182,0.998594372701,-0.0428931835342,0.998594372701,-0.0428931835342,0.000551921448179,0.00254251706182
5400000000.0,0.000556227697365,0.00259008057624,0.998558237365,-0.0437036546392,0.998558237365,-0.0437036546392,0.000556227697365,0.00259008057624
5500000000.0,0.000560610561258,0.00263762922644,0.998521439007,-0.0445141737271,0.998521439007,-0.0445141737271,0.000560610561258,0.00263762922644
5600000000.0,0.000565070112486,0.00268516315194,0.998483977356,-0.0453247408396,0.998483977356,-0.0453247408396,0.000565070112486,0.00268516315194
5700000000.0,0.000569606420044,0.00273268249878,0.998445852146,-0.046135356008,0.998445852146,-0.046135356008,0.000569606420044,0.00273268249878
5800000000.0,0.000574219549626,0.00278018741937,0.998407063114,-0.046946019254,0.998407063114,-0.046946019254,0.000574219549626,0.00278018741937
5900000000.0,0.000578909563934,0.00282767807233,0.998367609998,-0.0477567305896,0.998367609998,-0.0477567305896,0.000578909563934,0.00282767807233
6000000000.0,0.00058367652296,0.00287515462239,0.998327492543,-0.0485674900178,0.998327492543,-0.0485674900178,0.00058367652296,0.00287515462239
6100000000.0,0.000588520484253,0.00292261724024,0.998286710492,-0.0493782975322,0.998286710492,-0.0493782975322,0.000588520484252,0.00292261724024
6200000000.0,0.000593441503155,0.00297006610242,0.998245263595,-0.0501891531177,0.998245263595,-0.0501891531177,0.000593441503155,0.00297006610242
6300000000.0,0.000598439633032,0.00301750139118,0.998203151599,-0.0510000567507,0.998203151599,-0.0510000567507,0.000598439633032,0.00301750139118
6400000000.0,0.000603514925487,0.00306492329436,0.998160374257,-0.051811008399,0.998160374257,-0.051811008399,0.000603514925486,0.00306492329436
6500000000.0,0.000608667430543,0.00311233200528,0.998116931323,-0.0526220080224,0.998116931323,-0.0526220080224,0.000608667430543,0.00311233200528
6600000000.0,0.00061389719684,0.00315972772264,0.998072822552,-0.0534330555725,0.998072822552,-0.0534330555725,0.00061389719684,0.00315972772264
6700000000.0,0.000619204271794,0.00320711065036,0.998028047701,-0.0542441509932,0.998028047701,-0.0542441509932,0.000619204271794,0.00320711065036
6800000000.0,0.000624588701755,0.00325448099754,0.997982606527,-0.0550552942209,0.997982606527,-0.0550552942209,0.000624588701755,0.00325448099754
6900000000.0,0.000630050532164,0.00330183897831,0.997936498792,-0.0558664851843,0.997936498792,-0.0558664851843,0.000630050532164,0.00330183897831
7000000000.0,0.000635589807683,0.00334918481173,0.997889724255,-0.0566777238049,0.997889724255,-0.0566777238049,0.000635589807683,0.00334918481173
7100000000.0,0.000641206572327,0.00339651872171,0.997842282679,-0.0574890099973,0.997842282679,-0.0574890099973,0.000641206572327,0.00339651872171
7200000000.0,0.000646900869587,0.00344384093689,0.997794173827,-0.0583003436688,0.997794173827,-0.0583003436688,0.000646900869588,0.00344384093689
7300000000.0,0.000652672742544,0.00349115169054,0.997745397463,-0.0591117247201,0.997745397463,-0.0591117247201,0.000652672742543,0.00349115169054
7400000000.0,0.000658522233973,0.00353845122054,0.997695953351,-0.0599231530453,0.997695953351,-0.0599231530453,0.000658522233973,0.00353845122054
7500000000.0,0.000664449386449,0.00358573976916,0.997645841258,-0.0607346285319,0.997645841258,-0.0607346285319,0.000664449386449,0.00358573976916
7600000000.0,0.000670454242439,0.00363301758308,0.997595060949,-0.061546151061,0.997595060949,-0.061546151061,0.000670454242439,0.00363301758308
7700000000.0,0.000676536844392,0.00368028491327,0.997543612193,-0.0623577205077,0.997543612193,-0.0623577205077,0.000676536844392,0.00368028491327
7800000000.0,0.00068269723482,0.00372754201487,0.997491494756,-0.0631693367407,0.997491494756,-0.0631693367407,0.000682697234821,0.00372754201487
7900000000.0,0.00068893545639,0.00377478914717,0.997438708407,-0.0639809996229,0.997438708407,-0.0639809996229,0.00068893545639,0.00377478914717
8000000000.0,0.000695251551983,0.00382202657349,0.997385252915,-0.0647927090115,0.997385252915,-0.0647927090115,0.000695251551983,0.00382202657349
8100000000.0,0.000701645564775,0.00386925456111,0.997331128049,-0.0656044647577,0.997331128049,-0.0656044647577,0.000701645564775,0.00386925456111
8200000000.0,0.000708117538305,0.00391647338116,0.997276333579,-0.0664162667073,0.997276333579,-0.0664162667073,0.000708117538305,0.00391647338116
8300000000.0,0.000714667516531,0.00396368330862,0.997220869274,-0.0672281147006,0.997220869274,-0.0672281147006,0.000714667516531,0.00396368330862
8400000000.0,0.000721295543901,0.00401088462217,0.997164734906,-0.0680400085725,0.997164734906,-0.0680400085725,0.000721295543901,0.00401088462217
8500000000.0,0.000728001665404,0.00405807760416,0.997107930245,-0.0688519481526,0.997107930245,-0.0688519481526,0.000728001665404,0.00405807760416
8600000000.0,0.000734785926624,0.00410526254053,0.997050455061,-0.0696639332653,0.997050455061,-0.0696639332653,0.000734785926624,0.00410526254053
8700000000.0,0.000741648373796,0.00415243972074,0.996992309127,-0.0704759637301,0.996992309127,-0.0704759637301,0.000741648373796,0.00415243972074
8800000000.0,0.000748589053852,0.00419960943768,0.996933492213,-0.0712880393615,0.996933492213,-0.0712880393615,0.000748589053852,0.00419960943768
8900000000.0,0.000755608014469,0.00424677198766,0.996874004091,-0.072100159969,0.996874004091,-0.072100159969,0.000755608014469,0.00424677198766
9000000000.0,0.000762705304113,0.00429392767027,0.996813844534,-0.0729123253575,0.996813844534,-0.0729123253575,0.000762705304113,0.00429392767027
9100000000.0,0.000769880972083,0.00434107678839,0.996753013312,-0.0737245353272,0.996753013312,-0.0737245353272,0.000769880972083,0.00434107678839
9200000000.0,0.00077713506855,0.00438821964805,0.996691510198,-0.0745367896736,0.996691510198,-0.0745367896736,0.00077713506855,0.00438821964805
9300000000.0,0.000784467644596,0.00443535655845,0.996629334965,-0.0753490881878,0.996629334965,-0.0753490881878,0.000784467644596,0.00443535655845
9400000000.0,0.00079187875225,0.00448248783184,0.996566487383,-0.0761614306565,0.996566487383,-0.0761614306565,0.00079187875225,0.00448248783184
9500000000.0,0.000799368444527,0.00452961378349,0.996502967227,-0.0769738168621,0.996502967227,-0.0769738168621,0.000799368444527,0.00452961378349
9600000000.0,0.000806936775457,0.00457673473162,0.996438774267,-0.0777862465825,0.996438774267,-0.0777862465825,0.000806936775457,0.00457673473162
9700000000.0,0.000814583800119,0.00462385099734,0.996373908277,-0.0785987195917,0.996373908277,-0.0785987195917,0.00081458380012,0.00462385099734
9800000000.0,0.000822309574674,0.00467096290462,0.996308369029,-0.0794112356596,0.996308369029,-0.0794112356596,0.000822309574674,0.00467096290462
9900000000.0,0.000830114156389,0.00471807078019,0.996242156295,-0.0802237945519,0.996242156295,-0.0802237945519,0.00083011415639,0.00471807078019
10000000000.0,0.000837997603674,0.00476517495355,0.996175269847,-0.0810363960305,0.996175269847,-0.0810363960305,0.000837997603673,0.00476517495355
