freq (GHz),S11_real,S11_imag,S21_real,S21_imag,S12_real,S12_imag,S22_real,S22_imag
100000000.0,0.000137722825728,-7.141242758e-05,0.999860836228,-0.000312571042393,0.999860836228,-0.000312571042393,0.000137722825728,-7.14124275801e-05
200000000.0,0.0001384008356,-0.000142826655219,0.99985956981,-0.000625144479475,0.99985956981,-0.000625144479475,0.0001384008356,-0.000142826655219
300000000.0,0.000138791063168,-0.000214243259052,0.999858443707,-0.000937722007197,0.999858443707,-0.000937722007197,0.000138791063167,-0.000214243259052
400000000.0,0.000139013437797,-0.000285662747432,0.999857337974,-0.00125030485097,0.999857337974,-0.00125030485097,0.000139013437797,-0.000285662747432
500000000.0,0.000139114085226,-0.000357085565985,0.999856206472,-0.00156289403543,0.999856206472,-0.00156289403543,0.000139114085226,-0.000357085565985
600000000.0,0.000139116495683,-0.000428512111226,0.999855025695,-0.00187549045829,0.999855025695,-0.00187549045829,0.000139116495683,-0.000428512111226
700000000.0,0.000139034524144,-0.00049994274201,0.99985378177,-0.00218809492787,0.99985378177,-0.00218809492787,0.000139034524144,-0.00049994274201
800000000.0,0.000138877131919,-0.000571377786776,0.999852465716,-0.00250070818442,0.999852465716,-0.00250070818442,0.000138877131919,-0.000571377786776
900000000.0,0.000138650496482,-0.000642817547737,0.999851071336,-0.00281333091296,0.999851071336,-0.00281333091296,0.000138650496482,-0.000642817547737
1000000000.0,0.000138359080452,-0.000714262306107,0.999849594145,-0.00312596375431,0.999849594145,-0.00312596375431,0.000138359080452,-0.000714262306107
1100000000.0,0.000138006225351,-0.000785712322983,0.999848030778,-0.00343860730996,0.999848030778,-0.00343860730996,0.000138006225351,-0.000785712322983
1200000000.0,0.000137594505328,-0.000857167843619,0.999846378638,-0.00375126214943,0.999846378638,-0.00375126214943,0.000137594505328,-0.000857167843619
1300000000.0,0.000137125949374,-0.000928629097,0.99984463567,-0.00406392881207,0.99984463567,-0.00406392881207,0.000137125949374,-0.000928629097
1400000000.0,0.000136602187568,-0.00100009629923,0.999842800219,-0.00437660781226,0.999842800219,-0.00437660781226,0.000136602187568,-0.00100009629923
1500000000.0,0.000136024550396,-0.00107156965364,0.999840870926,-0.00468929964097,0.999840870926,-0.00468929964097,0.000136024550396,-0.00107156965364
1600000000.0,0.000135394138695,-0.00114304935181,0.999838846664,-0.00500200476791,0.999838846664,-0.00500200476791,0.000135394138695,-0.00114304935181
1700000000.0,0.00013471187389,-0.00121453557503,0.999836726481,-0.00531472364404,0.999836726481,-0.00531472364404,0.00013471187389,-0.00121453557503
1800000000.0,0.000133978535048,-0.00128602849458,0.99983450957,-0.00562745670259,0.99983450957,-0.00562745670259,0.000133978535048,-0.00128602849458
1900000000.0,0.000133194786664,-0.00135752827236,0.999832195235,-0.00594020436041,0.999832195235,-0.00594020436041,0.000133194786663,-0.00135752827236
2000000000.0,0.000132361199913,-0.00142903506185,0.999829782874,-0.00625296701958,0.999829782874,-0.00625296701958,0.000132361199913,-0.00142903506185
2100000000.0,0.000131478269095,-0.00150054900807,0.999827271961,-0.00656574506778,0.999827271961,-0.00656574506778,0.000131478269095,-0.00150054900807
2200000000.0,0.000130546424577,-0.00157207024855,0.999824662034,-0.00687853887983,0.999824662034,-0.00687853887983,0.000130546424577,-0.00157207024855
2300000000.0,0.00012956604307,-0.00164359891346,0.999821952682,-0.0071913488181,0.999821952682,-0.0071913488181,0.00012956604307,-0.00164359891346
2400000000.0,0.000128537455905,-0.00171513512602,0.99981914354,-0.00750417523339,0.99981914354,-0.00750417523339,0.000128537455905,-0.00171513512602
2500000000.0,0.000127460955729,-0.00178667900271,0.999816234282,-0.00781701846535,0.999816234282,-0.00781701846535,0.000127460955729,-0.00178667900271
2600000000.0,0.000126336802037,-0.00185823065396,0.999813224612,-0.00812987884352,0.999813224612,-0.00812987884352,0.000126336802037,-0.00185823065396
2700000000.0,0.000125165225681,-0.00192979018391,0.999810114265,-0.00844275668731,0.999810114265,-0.00844275668731,0.000125165225681,-0.00192979018391
2800000000.0,0.000123946432675,-0.00200135769108,0.999806902997,-0.00875565230691,0.999806902997,-0.00875565230691,0.000123946432675,-0.00200135769108
2900000000.0,0.000122680607361,-0.00207293326841,0.99980359059,-0.00906856600351,0.99980359059,-0.00906856600351,0.000122680607361,-0.00207293326841
3000000000.0,0.000121367915079,-0.00214451700342,0.999800176839,-0.0093814980697,0.999800176839,-0.0093814980697,0.000121367915079,-0.00214451700342
3100000000.0,0.00012000850445,-0.00221610897856,0.999796661559,-0.00969444878995,0.999796661559,-0.00969444878995,0.00012000850445,-0.00221610897856
3200000000.0,0.000118602509297,-0.00228770927143,0.999793044577,-0.010007418441,0.999793044577,-0.010007418441,0.000118602509297,-0.00228770927143
3300000000.0,0.000117150050329,-0.0023593179547,0.999789325736,-0.0103204072918,0.999789325736,-0.0103204072918,0.000117150050329,-0.0023593179547
3400000000.0,0.000115651236561,-0.00243093509652,0.999785504886,-0.0106334156045,0.999785504886,-0.0106334156045,0.00011565123656,-0.00243093509652
3500000000.0,0.000114106166557,-0.0025025607606,0.99978158189,-0.010946443634,0.99978158189,-0.010946443634,0.000114106166557,-0.0025025607606
3600000000.0,0.000112514929524,-0.00257419500628,0.999777556619,-0.0112594916286,0.999777556619,-0.0112594916286,0.000112514929524,-0.00257419500628
3700000000.0,0.000110877606242,-0.0026458378887,0.999773428952,-0.0115725598301,0.999773428952,-0.0115725598301,0.000110877606242,-0.0026458378887
3800000000.0,0.0001091942699,-0.00271748945914,0.999769198775,-0.0118856484743,0.999769198775,-0.0118856484743,0.0001091942699,-0.00271748945914
3900000000.0,0.000107464986825,-0.00278914976471,0.999764865982,-0.0121987577908,0.999764865982,-0.0121987577908,0.000107464986825,-0.00278914976471
4000000000.0,0.00010568981712,-0.00286081884886,0.99976043047,-0.0125118880036,0.99976043047,-0.0125118880036,0.000105689817121,-0.00286081884886
4100000000.0,0.000103868815244,-0.00293249675129,0.999755892145,-0.0128250393308,0.999755892145,-0.0128250393308,0.000103868815244,-0.00293249675129
4200000000.0,0.00010200203051,-0.00300418350809,0.999751250915,-0.0131382119853,0.999751250915,-0.0131382119853,0.00010200203051,-0.00300418350809
4300000000.0,0.000100089507537,-0.00307587915179,0.999746506693,-0.0134514061747,0.999746506693,-0.0134514061747,0.000100089507537,-0.00307587915179
4400000000.0,9.81312866646e-05,-0.00314758371164,0.999741659397,-0.0137646221014,0.999741659397,-0.0137646221014,9.81312866646e-05,-0.00314758371164
4500000000.0,9.61274043021e-05,-0.00321929721345,0.999736708947,-0.014077859963,0.999736708947,-0.014077859963,9.61274043025e-05,-0.00321929721345
4600000000.0,9.40778932608e-05,-0.00329101967988,0.999731655268,-0.0143911199521,0.999731655268,-0.0143911199521,9.4077893261e-05,-0.00329101967988
4700000000.0,9.1982783045e-05,-0.00336275113032,0.999726498288,-0.0147044022568,0.999726498288,-0.0147044022568,9.19827830452e-05,-0.00336275113032
4800000000.0,8.98421001196e-05,-0.0034344915812,0.999721237935,-0.0150177070606,0.999721237935,-0.0150177070606,8.98421001199e-05,-0.0034344915812
4900000000.0,8.76558681404e-05,-0.00350624104588,0.999715874144,-0.0153310345426,0.999715874144,-0.0153310345426,8.76558681404e-05,-0.00350624104588
5000000000.0,8.5424108184e-05,-0.00357799953478,0.999710406849,-0.0156443848775,0.999710406849,-0.0156443848775,8.54241081842e-05,-0.00357799953478
5100000000.0,8.31468389324e-05,-0.00364976705547,0.999704835987,-0.015957758236,0.999704835987,-0.015957758236,8.31468389324e-05,-0.00364976705547
5200000000.0,8.08240768626e-05,-0.00372154361271,0.999699161498,-0.0162711547845,0.999699161498,-0.0162711547845,8.08240768626e-05,-0.00372154361271
5300000000.0,7.84558364038e-05,-0.00379332920858,0.999693383323,-0.0165845746856,0.999693383323,-0.0165845746856,7.84558364038e-05,-0.00379332920858
5400000000.0,7.60421300887e-05,-0.00386512384237,0.999687501404,-0.016898018098,0.999687501404,-0.016898018098,7.60421300887e-05,-0.00386512384237
5500000000.0,7.35829686938e-05,-0.00393692751091,0.999681515686,-0.0172114851767,0.999681515686,-0.0172114851767,7.35829686938e-05,-0.00393692751091
5600000000.0,7.10783613587e-05,-0.00400874020828,0.999675426115,-0.0175249760727,0.999675426115,-0.0175249760727,7.10783613587e-05,-0.00400874020828
5700000000.0,6.85283157054e-05,-0.00408056192623,0.999669232638,-0.0178384909337,0.999669232638,-0.0178384909337,6.85283157054e-05,-0.00408056192623
5800000000.0,6.59328379451e-05,-0.00415239265392,0.999662935204,-0.0181520299038,0.999662935204,-0.0181520299038,6.59328379451e-05,-0.00415239265392
5900000000.0,6.32919329728e-05,-0.00422423237824,0.999656533762,-0.0184655931238,0.999656533762,-0.0184655931238,6.32919329728e-05,-0.00422423237824
6000000000.0,6.06056044616e-05,-0.00429608108359,0.999650028263,-0.0187791807309,0.999650028263,-0.0187791807309,6.06056044612e-05,-0.00429608108359
6100000000.0,5.78738549404e-05,-0.00436793875216,0.99964341866,-0.0190927928592,0.99964341866,-0.0190927928592,5.78738549406e-05,-0.00436793875216
6200000000.0,5.50966858754e-05,-0.00443980536388,0.999636704904,-0.0194064296395,0.999636704904,-0.0194064296395,5.50966858757e-05,-0.00443980536388
6300000000.0,5.2274097742e-05,-0.00451168089643,0.999629886949,-0.0197200911995,0.999629886949,-0.0197200911995,5.22740977418e-05,-0.00451168089643
6400000000.0,4.94060900866e-05,-0.00458356532531,0.99962296475,-0.0200337776639,0.99962296475,-0.0200337776639,4.94060900864e-05,-0.00458356532531
6500000000.0,4.64926615924e-05,-0.00465545862395,0.999615938262,-0.0203474891544,0.999615938262,-0.0203474891544,4.64926615922e-05,-0.00465545862395
6600000000.0,4.35338101341e-05,-0.00472736076365,0.999608807442,-0.0206612257897,0.999608807442,-0.0206612257897,4.35338101341e-05,-0.00472736076365
6700000000.0,4.05295328334e-05,-0.00479927171367,0.999601572244,-0.0209749876856,0.999601572244,-0.0209749876856,4.05295328332e-05,-0.00479927171367
6800000000.0,3.74798261058e-05,-0.00487119144125,0.999594232628,-0.0212887749551,0.999594232628,-0.0212887749551,3.74798261058e-05,-0.00487119144125
6900000000.0,3.43846857098e-05,-0.00494311991169,0.999586788551,-0.0216025877086,0.999586788551,-0.0216025877086,3.438468571e-05,-0.00494311991169
7000000000.0,3.12441067876e-05,-0.00501505708835,0.99957923997,-0.0219164260535,0.99957923997,-0.0219164260535,3.12441067876e-05,-0.00501505708835
7100000000.0,2.80580839072e-05,-0.00508700293266,0.999571586846,-0.0222302900949,0.999571586846,-0.0222302900949,2.80580839076e-05,-0.00508700293266
7200000000.0,2.4826611102e-05,-0.00515895740422,0.999563829137,-0.0225441799352,0.999563829137,-0.0225441799352,2.48266111018e-05,-0.00515895740422
7300000000.0,2.15496819003e-05,-0.00523092046079,0.999555966804,-0.022858095674,0.999555966804,-0.022858095674,2.15496819e-05,-0.00523092046079
7400000000.0,1.8227289365e-05,-0.00530289205833,0.999547999807,-0.0231720374087,0.999547999807,-0.0231720374087,1.82272893652e-05,-0.00530289205833
7500000000.0,1.4859426124e-05,-0.00537487215104,0.999539928106,-0.0234860052342,0.999539928106,-0.0234860052342,1.48594261238e-05,-0.00537487215104
7600000000.0,1.14460843936e-05,-0.00544686069137,0.999531751662,-0.0237999992429,0.999531751662,-0.0237999992429,1.14460843934e-05,-0.00544686069137
7700000000.0,7.98725601503e-06,-0.0055188576301,0.999523470438,-0.024114019525,0.999523470438,-0.024114019525,7.98725601503e-06,-0.0055188576301
7800000000.0,4.48293247346e-06,-0.00559086291631,0.999515084394,-0.0244280661683,0.999515084394,-0.0244280661683,4.48293247324e-06,-0.00559086291631
7900000000.0,9.33104925327e-07,-0.00566287649739,0.999506593494,-0.0247421392584,0.999506593494,-0.0247421392584,9.33104925327e-07,-0.00566287649739
8000000000.0,-2.66223577772e-06,-0.00573489831921,0.999497997699,-0.0250562388785,0.999497997699,-0.0250562388785,-2.66223577805e-06,-0.00573489831921
8100000000.0,-6.30309906935e-06,-0.00580692832599,0.999489296972,-0.0253703651098,0.999489296972,-0.0253703651098,-6.30309906913e-06,-0.00580692832599
8200000000.0,-9.98949464681e-06,-0.0058789664604,0.999480491276,-0.0256845180314,0.999480491276,-0.0256845180314,-9.9894946467e-06,-0.0058789664604
8300000000.0,-1.37214324483e-05,-0.00595101266355,0.999471580574,-0.0259986977201,0.999471580574,-0.0259986977201,-1.37214324482e-05,-0.00595101266355
8400000000.0,-1.74989226418e-05,-0.0060230668751,0.999462564831,-0.0263129042508,0.999462564831,-0.0263129042508,-1.74989226414e-05,-0.0060230668751
8500000000.0,-2.13219755999e-05,-0.00609512903317,0.999453444009,-0.0266271376963,0.999453444009,-0.0266271376963,-2.13219756e-05,-0.00609512903317
8600000000.0,-2.51906018893e-05,-0.00616719907441,0.999444218072,-0.0269413981274,0.999444218072,-0.0269413981274,-2.51906018894e-05,-0.00616719907441
8700000000.0,-2.91048122512e-05,-0.0062392769341,0.999434886986,-0.0272556856131,0.999434886986,-0.0272556856131,-2.91048122513e-05,-0.0062392769341
8800000000.0,-3.30646175881e-05,-0.00631136254603,0.999425450713,-0.0275700002202,0.999425450713,-0.0275700002202,-3.30646175881e-05,-0.00631136254603
8900000000.0,-3.7070028949e-05,-0.00638345584263,0.999415909219,-0.0278843420137,0.999415909219,-0.0278843420137,-3.70700289489e-05,-0.00638345584263
9000000000.0,-4.11210575146e-05,-0.00645555675498,0.999406262468,-0.028198711057,0.999406262468,-0.028198711057,-4.11210575147e-05,-0.00645555675498
9100000000.0,-4.52177145918e-05,-0.00652766521279,0.999396510425,-0.0285131074113,0.999396510425,-0.0285131074113,-4.52177145918e-05,-0.00652766521279
9200000000.0,-4.93600115903e-05,-0.00659978114447,0.999386653056,-0.0288275311364,0.999386653056,-0.0288275311364,-4.93600115903e-05,-0.00659978114447
9300000000.0,-5.35479600191e-05,-0.00667190447709,0.999376690324,-0.0291419822898,0.999376690324,-0.0291419822898,-5.35479600193e-05,-0.00667190447709
9400000000.0,-5.77815714726e-05,-0.00674403513645,0.999366622197,-0.0294564609279,0.999366622197,-0.0294564609279,-5.77815714726e-05,-0.00674403513645
9500000000.0,-6.20608576226e-05,-0.00681617304711,0.999356448639,-0.0297709671049,0.999356448639,-0.0297709671049,-6.20608576226e-05,-0.00681617304711
9600000000.0,-6.63858302037e-05,-0.00688831813238,0.999346169616,-0.0300855008735,0.999346169616,-0.0300855008735,-6.63858302035e-05,-0.00688831813238
9700000000.0,-7.07565010074e-05,-0.00696047031429,0.999335785093,-0.0304000622848,0.999335785093,-0.0304000622848,-7.07565010076e-05,-0.00696047031429
9800000000.0,-7.51728818734e-05,-0.00703262951375,0.999325295037,-0.0307146513882,0.999325295037,-0.0307146513882,-7.51728818734e-05,-0.00703262951375
9900000000.0,-7.96349846788e-05,-0.00710479565045,0.999314699413,-0.0310292682316,0.999314699413,-0.0310292682316,-7.96349846788e-05,-0.00710479565045
10000000000.0,-8.41428213288e-05,-0.00717696864289,0.999303998188,-0.0313439128612,0.999303998188,-0.0313439128612,-8.41428213291e-05,-0.00717696864289
