freq (GHz),S11_real,S11_imag,S21_real,S21_imag,S12_real,S12_imag,S22_real,S22_imag
100000000.0,-0.0105511934875,-0.101679512259,0.989430634835,-0.101758528382,0.989430634835,-0.101758528382,-0.0105511934875,-0.101679512259
200000000.0,-0.0407342794644,-0.197116498176,0.95924741509,-0.197274565001,0.95924741509,-0.197274565001,-0.0407342794644,-0.197116498176
300000000.0,-0.0870668733443,-0.281328274801,0.9129147123,-0.281565444251,0.9129147123,-0.281565444251,-0.0870668733443,-0.281328274801
400000000.0,-0.144828891605,-0.351279697462,0.855152594364,-0.351596034152,0.855152594364,-0.351596034152,-0.144828891605,-0.351279697462
500000000.0,-0.209106597769,-0.405979714813,0.790874791763,-0.406375293413,0.790874791763,-0.406375293413,-0.209106597769,-0.405979714813
600000000.0,-0.275597298824,-0.446082062466,0.724383994457,-0.446556965805,0.724383994457,-0.446556965805,-0.275597298824,-0.446082062466
700000000.0,-0.341016125636,-0.473276678223,0.658965069774,-0.473830995781,0.658965069774,-0.473830995781,-0.341016125636,-0.473276678223
800000000.0,-0.403155967915,-0.48971630423,0.596825126832,-0.490350130894,0.596825126832,-0.490350130894,-0.403155967915,-0.48971630423
900000000.0,-0.460738788279,-0.497599816488,0.539242202199,-0.498313251491,0.539242202199,-0.498313251491,-0.460738788279,-0.497599816488
1000000000.0,-0.513188151438,-0.498928665514,0.486792730573,-0.49972181152,0.486792730573,-0.49972181152,-0.513188151438,-0.498928665514
1100000000.0,-0.560405669169,-0.495399372022,0.439575099725,-0.496272334332,0.439575099725,-0.496272334332,-0.560405669169,-0.495399372022
1200000000.0,-0.602588712958,-0.488383034701,0.397391937817,-0.489335920564,0.397391937817,-0.489335920564,-0.602588712958,-0.488383034701
1300000000.0,-0.64009756201,-0.478951165578,0.359882965361,-0.479984083583,0.359882965361,-0.479984083583,-0.64009756201,-0.478951165578
1400000000.0,-0.673366138668,-0.467920671244,0.326614259784,-0.469033730801,0.326614259784,-0.469033730801,-0.673366138668,-0.467920671244
1500000000.0,-0.702846077844,-0.455902425978,0.297134185979,-0.457095736861,0.297134185979,-0.457095736861,-0.702846077844,-0.455902425978
1600000000.0,-0.728974177146,-0.443345831693,0.271005946175,-0.444619503645,0.271005946175,-0.444619503645,-0.728974177146,-0.443345831693
1700000000.0,-0.752155264244,-0.430576469892,0.247824712561,-0.43193061229,0.247824712561,-0.43193061229,-0.752155264244,-0.430576469892
1800000000.0,-0.772754720423,-0.417826423221,0.227225103727,-0.419261144789,0.227225103727,-0.419261144789,-0.772754720423,-0.417826423221
1900000000.0,-0.791096749104,-0.405257966668,0.208882916148,-0.406773375236,0.208882916148,-0.406773375236,-0.791096749104,-0.405257966668
2000000000.0,-0.807465852944,-0.392981715872,0.192513647069,-0.394577918169,0.192513647069,-0.394577918169,-0.807465852944,-0.392981715872
2100000000.0,-0.822109936195,-0.38107034658,0.177869392154,-0.382747448072,0.177869392154,-0.382747448072,-0.822109936195,-0.38107034658
2200000000.0,-0.835244079929,-0.369568872937,0.164735070254,-0.371326977691,0.164735070254,-0.371326977691,-0.835244079929,-0.369568872937
2300000000.0,-0.847054441632,-0.358502299509,0.152924523812,-0.360341510082,0.152924523812,-0.360341510082,-0.847054441632,-0.358502299509
2400000000.0,-0.857701982007,-0.34788129216,0.142276792063,-0.349801709525,0.142276792063,-0.349801709525,-0.857701982007,-0.34788129216
2500000000.0,-0.867325873978,-0.337706365762,0.132652702026,-0.339708089244,0.132652702026,-0.339708089244,-0.867325873978,-0.337706365762
2600000000.0,-0.876046538188,-0.327970966913,0.123931833003,-0.330054094148,0.123931833003,-0.330054094148,-0.876046538188,-0.327970966913
2700000000.0,-0.88396829954,-0.318663735964,0.116009860042,-0.320828362876,0.116009860042,-0.320828362876,-0.88396829954,-0.318663735964
2800000000.0,-0.891181685836,-0.309770160666,0.108796255296,-0.312016381462,0.108796255296,-0.312016381462,-0.891181685836,-0.309770160666
2900000000.0,-0.897765401966,-0.301273779389,0.102212313831,-0.30360168656,0.102212313831,-0.30360168656,-0.897765401966,-0.301273779389
3000000000.0,-0.903788017372,-0.293157051134,0.0961894661662,-0.29556673547,0.0961894661662,-0.29556673547,-0.903788017372,-0.293157051134
3100000000.0,-0.909309404253,-0.285401979258,0.090667840065,-0.287893529874,0.090667840065,-0.287893529874,-0.909309404253,-0.285401979258
3200000000.0,-0.914381961465,-0.277990553358,0.0855950366363,-0.280564057727,0.0855950366363,-0.280564057727,-0.914381961465,-0.277990553358
3300000000.0,-0.919051655476,-0.270905057091,0.0809250893779,-0.273560601081,0.0809250893779,-0.273560601081,-0.919051655476,-0.270905057091
3400000000.0,-0.923358905911,-0.264128277357,0.0766175786354,-0.266865945277,0.0766175786354,-0.266865945277,-0.923358905911,-0.264128277357
3500000000.0,-0.927339339435,-0.257643641167,0.0726368777113,-0.260463515815,0.0726368777113,-0.260463515815,-0.927339339435,-0.257643641167
3600000000.0,-0.931024432319,-0.251435299715,0.0689515103084,-0.254337462433,0.0689515103084,-0.254337462433,-0.931024432319,-0.251435299715
3700000000.0,-0.934442058899,-0.245488174169,0.0655336020623,-0.248472704897,0.0655336020623,-0.248472704897,-0.934442058899,-0.245488174169
3800000000.0,-0.937616960529,-0.239787973941,0.0623584115927,-0.242854951274,0.0623584115927,-0.242854951274,-0.937616960529,-0.239787973941
3900000000.0,-0.940571147288,-0.234321195432,0.0594039287965,-0.237470696682,0.0594039287965,-0.237470696682,-0.940571147288,-0.234321195432
4000000000.0,-0.943324242763,-0.229075107172,0.0566505300612,-0.232307208427,0.0566505300612,-0.232307208427,-0.943324242763,-0.229075107172
4100000000.0,-0.945893780599,-0.224037725727,0.0540806817193,-0.227352501911,0.0540806817193,-0.227352501911,-0.945893780599,-0.224037725727
4200000000.0,-0.948295460091,-0.2191977856,0.0516786844539,-0.222595310538,0.0516786844539,-0.222595310538,-0.948295460091,-0.2191977856
4300000000.0,-0.950543366956,-0.214544705481,0.0494304525243,-0.218025051955,0.0494304525243,-0.218025051955,-0.950543366956,-0.214544705481
4400000000.0,-0.952650164448,-0.210068552563,0.0473233226559,-0.213631792377,0.0473233226559,-0.213631792377,-0.952650164448,-0.210068552563
4500000000.0,-0.95462725915,-0.205760006171,0.0453458882458,-0.209406210207,0.0453458882458,-0.209406210207,-0.95462725915,-0.205760006171
4600000000.0,-0.956484945112,-0.201610321566,0.0434878552226,-0.205339559849,0.0434878552226,-0.205339559849,-0.956484945112,-0.201610321566
4700000000.0,-0.95823252944,-0.197611294548,0.0417399164598,-0.201423636299,0.0417399164598,-0.201423636299,-0.95823252944,-0.197611294548
4800000000.0,-0.959878441949,-0.193755227273,0.0400936421246,-0.19765074097,0.0400936421246,-0.19765074097,-0.959878441949,-0.193755227273
4900000000.0,-0.961430331097,-0.190034895536,0.0385413837383,-0.194013648966,0.0385413837383,-0.194013648966,-0.961430331097,-0.190034895536
5000000000.0,-0.962895148105,-0.186443517694,0.0370761900603,-0.190505578011,0.0370761900603,-0.190505578011,-0.962895148105,-0.186443517694
5100000000.0,-0.964279220856,-0.182974725307,0.0356917331903,-0.187120159084,0.0356917331903,-0.187120159084,-0.964279220856,-0.182974725307
5200000000.0,-0.965588318943,-0.179622535516,0.0343822435164,-0.183851408797,0.0343822435164,-0.183851408797,-0.965588318943,-0.179622535516
5300000000.0,-0.966827711044,-0.17638132515,0.0331424523408,-0.180693703499,0.0331424523408,-0.180693703499,-0.966827711044,-0.17638132515
5400000000.0,-0.968002215628,-0.173245806504,0.031967541178,-0.177641755055,0.031967541178,-0.177641755055,-0.968002215628,-0.173245806504
5500000000.0,-0.969116245836,-0.170211004752,0.0308530968676,-0.174690588254,0.0308530968676,-0.174690588254,-0.969116245836,-0.170211004752
5600000000.0,-0.970173849298,-0.167272236886,0.029795071761,-0.171835519753,0.029795071761,-0.171835519753,-0.970173849298,-0.167272236886
5700000000.0,-0.971178743509,-0.164425092131,0.0287897483461,-0.169072138483,0.0287897483461,-0.169072138483,-0.971178743509,-0.164425092131
5800000000.0,-0.972134347314,-0.161665413735,0.0278337077598,-0.16639628744,0.0278337077598,-0.16639628744,-0.972134347314,-0.161665413735
5900000000.0,-0.973043808982,-0.158989282043,0.026923801714,-0.163804046762,0.026923801714,-0.163804046762,-0.973043808982,-0.158989282043
6000000000.0,-0.973910031282,-0.156392998793,0.0260571274223,-0.161291718015,0.0260571274223,-0.161291718015,-0.973910031282,-0.156392998793
6100000000.0,-0.97473569391,-0.153873072526,0.025231005171,-0.158855809609,0.025231005171,-0.158855809609,-0.97473569391,-0.153873072526
6200000000.0,-0.975523273583,-0.151426205051,0.0244429582235,-0.156493023259,0.0244429582235,-0.156493023259,-0.975523273583,-0.151426205051
6300000000.0,-0.976275062077,-0.149049278877,0.023690694787,-0.154200241417,0.023690694787,-0.154200241417,-0.976275062077,-0.149049278877
6400000000.0,-0.976993182427,-0.146739345554,0.0229720918064,-0.151974515606,0.0229720918064,-0.151974515606,-0.976993182427,-0.146739345554
6500000000.0,-0.977679603521,-0.144493614843,0.022285180377,-0.149813055595,0.022285180377,-0.149813055595,-0.977679603521,-0.144493614843
6600000000.0,-0.978336153241,-0.142309444661,0.0216281325972,-0.147713219344,0.0216281325972,-0.147713219344,-0.978336153241,-0.142309444661
6700000000.0,-0.978964530334,-0.140184331746,0.0209992497008,-0.145672503661,0.0209992497008,-0.145672503661,-0.978964530334,-0.140184331746
6800000000.0,-0.979566315139,-0.138115902976,0.0203969513313,-0.143688535524,0.0203969513313,-0.143688535524,-0.979566315139,-0.138115902976
6900000000.0,-0.980142979292,-0.136101907309,0.0198197658331,-0.141759064019,0.0198197658331,-0.141759064019,-0.980142979292,-0.136101907309
7000000000.0,-0.980695894526,-0.134140208278,0.0192663214536,-0.139881952837,0.0192663214536,-0.139881952837,-0.980695894526,-0.134140208278
7100000000.0,-0.981226340655,-0.132228777022,0.0187353383597,-0.138055173297,0.0187353383597,-0.138055173297,-0.981226340655,-0.132228777022
7200000000.0,-0.981735512827,-0.130365685783,0.0182256213844,-0.136276797851,0.0182256213844,-0.136276797851,-0.981735512827,-0.130365685783
7300000000.0,-0.982224528121,-0.128549101869,0.0177360534281,-0.134544994037,0.0177360534281,-0.134544994037,-0.982224528121,-0.128549101869
7400000000.0,-0.982694431559,-0.126777282014,0.0172655894495,-0.132858018846,0.0172655894495,-0.132858018846,-0.982694431559,-0.126777282014
7500000000.0,-0.983146201583,-0.125048567134,0.0168132509857,-0.131214213468,0.0168132509857,-0.131214213468,-0.983146201583,-0.125048567134
7600000000.0,-0.983580755059,-0.123361377421,0.0163781211506,-0.129611998398,0.0163781211506,-0.129611998398,-0.983580755059,-0.123361377421
7700000000.0,-0.983998951849,-0.121714207783,0.0159593400632,-0.128049868861,0.0159593400632,-0.128049868861,-0.983998951849,-0.121714207783
7800000000.0,-0.984401598988,-0.120105623569,0.0155561006658,-0.126526390549,0.0155561006658,-0.126526390549,-0.984401598988,-0.120105623569
7900000000.0,-0.98478945452,-0.11853425659,0.0151676448939,-0.125040195631,0.0151676448939,-0.125040195631,-0.98478945452,-0.11853425659
8000000000.0,-0.985163231007,-0.11699880139,0.014793260164,-0.123589979029,0.014793260164,-0.123589979029,-0.985163231007,-0.11699880139
8100000000.0,-0.985523598753,-0.115498011764,0.0144322761519,-0.122174494934,0.0144322761519,-0.122174494934,-0.985523598753,-0.115498011764
8200000000.0,-0.985871188761,-0.114030697498,0.0140840618314,-0.120792553545,0.0140840618314,-0.120792553545,-0.985871188761,-0.114030697498
8300000000.0,-0.986206595459,-0.112595721315,0.0137480227524,-0.119443018016,0.0137480227524,-0.119443018016,-0.986206595459,-0.112595721315
8400000000.0,-0.986530379206,-0.11119199602,0.0134235985349,-0.118124801597,0.0134235985349,-0.118124801597,-0.986530379206,-0.11119199602
8500000000.0,-0.986843068597,-0.109818481816,0.0131102605608,-0.116836864952,0.0131102605608,-0.116836864952,-0.986843068597,-0.109818481816
8600000000.0,-0.987145162594,-0.108474183793,0.0128075098448,-0.115578213648,0.0128075098448,-0.115578213648,-0.987145162594,-0.108474183793
8700000000.0,-0.987437132492,-0.10715814957,0.0125148750699,-0.114347895796,0.0125148750699,-0.114347895796,-0.987437132492,-0.10715814957
8800000000.0,-0.98771942373,-0.105869467082,0.0122319107726,-0.113144999833,0.0122319107726,-0.113144999833,-0.98771942373,-0.105869467082
8900000000.0,-0.987992457573,-0.104607262497,0.0119581956642,-0.111968652448,0.0119581956642,-0.111968652448,-0.987992457573,-0.104607262497
9000000000.0,-0.988256632664,-0.103370698267,0.0116933310788,-0.110818016623,0.0116933310788,-0.110818016623,-0.988256632664,-0.103370698267
9100000000.0,-0.98851232646,-0.102158971285,0.0114369395349,-0.109692289795,0.0114369395349,-0.109692289795,-0.98851232646,-0.102158971285
9200000000.0,-0.988759896566,-0.10097131116,0.0111886634025,-0.108590702128,0.0111886634025,-0.108590702128,-0.988759896566,-0.10097131116
9300000000.0,-0.988999681972,-0.0998069785855,0.0109481636669,-0.107512514886,0.0109481636669,-0.107512514886,-0.988999681972,-0.0998069785855
9400000000.0,-0.989232004201,-0.0986652638114,0.010715118781,-0.106457018897,0.010715118781,-0.106457018897,-0.989232004201,-0.0986652638114
9500000000.0,-0.989457168371,-0.0975454851947,0.0104892235991,-0.105423533107,0.0104892235991,-0.105423533107,-0.989457168371,-0.0975454851947
9600000000.0,-0.989675464194,-0.0964469878409,0.0102701883856,-0.104411403224,0.0102701883856,-0.104411403224,-0.989675464194,-0.0964469878409
9700000000.0,-0.989887166891,-0.095369142318,0.0100577378928,-0.103420000428,0.0100577378928,-0.103420000428,-0.989887166891,-0.095369142318
9800000000.0,-0.990092538054,-0.0943113434448,0.00985161050196,-0.102448720159,0.00985161050196,-0.102448720159,-0.990092538054,-0.0943113434448
9900000000.0,-0.990291826445,-0.0932730091465,0.00965155742381,-0.101496980974,0.00965155742381,-0.101496980974,-0.990291826445,-0.0932730091465
10000000000.0,-0.990485268745,-0.0922535793733,0.00945734195202,-0.100564223464,0.00945734195202,-0.100564223464,-0.990485268745,-0.0922535793733
