freq (GHz),S11_real,S11_imag,S21_real,S21_imag,S12_real,S12_imag,S22_real,S22_imag
100000000.0,-0.000780154731125,-0.0275644411905,0.999197656359,-0.0276678533003,0.999197656359,-0.0276678533003,-0.000780154731125,-0.0275644411905
200000000.0,-0.00308977490557,-0.0549966623555,0.9968878686,-0.0552035203853,0.9968878686,-0.0552035203853,-0.00308977490557,-0.0549966623555
300000000.0,-0.00689649913703,-0.0821711126011,0.993081004215,-0.0824814674611,0.993081004215,-0.0824814674611,-0.00689649913703,-0.0821711126011
400000000.0,-0.0121649539851,-0.10896661805,0.987812417552,-0.109380533441,0.987812417552,-0.109380533441,-0.0121649539851,-0.10896661805
500000000.0,-0.0188471343634,-0.135267952711,0.98113010637,-0.135785502805,0.98113010637,-0.135785502805,-0.0188471343634,-0.135267952711
600000000.0,-0.0268835004292,-0.160967340601,0.973093606775,-0.16158860842,0.973093606775,-0.16158860842,-0.0268835004292,-0.160967340601
700000000.0,-0.0362042839637,-0.18596576269,0.963772684779,-0.186690838859,0.963772684779,-0.186690838859,-0.0362042839637,-0.18596576269
800000000.0,-0.0467309549818,-0.210174021405,0.953245868928,-0.211003003126,0.953245868928,-0.211003003126,-0.0467309549818,-0.210174021405
900000000.0,-0.0583777957323,-0.233513539018,0.941598875976,-0.234446529201,0.941598875976,-0.234446529201,-0.0583777957323,-0.233513539018
1000000000.0,-0.0710535283318,-0.255916881757,0.928922983075,-0.256953988262,0.928922983075,-0.256953988262,-0.0710535283318,-0.255916881757
1100000000.0,-0.08466294434,-0.277328014138,0.915313398108,-0.278469349113,0.915313398108,-0.278469349113,-0.08466294434,-0.277328014138
1200000000.0,-0.0991084891147,-0.29770229856,0.900867675281,-0.298947977842,0.900867675281,-0.298947977842,-0.0991084891147,-0.29770229856
1300000000.0,-0.114291760204,-0.317006263613,0.885684216693,-0.318356406198,0.885684216693,-0.318356406198,-0.114291760204,-0.317006263613
1400000000.0,-0.130114886663,-0.335217170722,0.869860892997,-0.336671898281,0.869860892997,-0.336671898281,-0.130114886663,-0.335217170722
1500000000.0,-0.146481764437,-0.352322412687,0.853493808004,-0.353881849127,0.853493808004,-0.353881849127,-0.146481764437,-0.352322412687
1600000000.0,-0.16329913121,-0.368318779518,0.836676223819,-0.369983050589,0.836676223819,-0.369983050589,-0.16329913121,-0.368318779518
1700000000.0,-0.180477471968,-0.38321162691,0.819497655274,-0.384980859841,0.819497655274,-0.384980859841,-0.180477471968,-0.38321162691
1800000000.0,-0.197931753536,-0.397013981087,0.802043135383,-0.39888830426,0.802043135383,-0.39888830426,-0.197931753536,-0.397013981087
1900000000.0,-0.215581992347,-0.409745610944,0.78439264757,-0.411725153593,0.78439264757,-0.411725153593,-0.215581992347,-0.409745610944
2000000000.0,-0.23335366449,-0.42143209476,0.766620715618,-0.423516986702,0.766620715618,-0.423516986702,-0.23335366449,-0.42143209476
2100000000.0,-0.251177970702,-0.432103904625,0.748796138674,-0.434294276011,0.748796138674,-0.434294276011,-0.251177970702,-0.432103904625
2200000000.0,-0.268991971414,-0.441795527372,0.730981856201,-0.444091508465,0.730981856201,-0.444091508465,-0.268991971414,-0.441795527372
2300000000.0,-0.28673860838,-0.450544636574,0.713234926345,-0.452946357544,0.713234926345,-0.452946357544,-0.28673860838,-0.450544636574
2400000000.0,-0.304366629927,-0.458391326104,0.69560660069,-0.460898916849,0.69560660069,-0.460898916849,-0.304366629927,-0.458391326104
2500000000.0,-0.321830436636,-0.465377412179,0.678142478571,-0.467991002157,0.678142478571,-0.467991002157,-0.321830436636,-0.465377412179
2600000000.0,-0.339089863514,-0.471545807584,0.6608827249,-0.474265525664,0.6608827249,-0.474265525664,-0.339089863514,-0.471545807584
2700000000.0,-0.35610991349,-0.476939969176,0.643862336677,-0.47976594351,0.643862336677,-0.47976594351,-0.35610991349,-0.476939969176
2800000000.0,-0.372860455624,-0.48160341757,0.627111444771,-0.484535775469,0.627111444771,-0.484535775469,-0.372860455624,-0.48160341757
2900000000.0,-0.389315899844,-0.485579326258,0.610655639188,-0.488618194091,0.610655639188,-0.488618194091,-0.389315899844,-0.485579326258
3000000000.0,-0.405454858322,-0.488910176181,0.594516307693,-0.492055679282,0.594516307693,-0.492055679282,-0.405454858322,-0.488910176181
3100000000.0,-0.421259802043,-0.49163747093,0.578710979244,-0.494889733515,0.578710979244,-0.494889733515,-0.421259802043,-0.49163747093
3200000000.0,-0.436716719534,-0.49380150723,0.563253665256,-0.497160652325,0.563253665256,-0.497160652325,-0.436716719534,-0.49380150723
3300000000.0,-0.451814783344,-0.495441195118,0.548155193126,-0.498907344503,0.548155193126,-0.498907344503,-0.451814783344,-0.495441195118
3400000000.0,-0.466546028575,-0.49659392222,0.5334235277,-0.500167196369,0.5334235277,-0.500167196369,-0.466546028575,-0.49659392222
3500000000.0,-0.480905046664,-0.497295456618,0.519064077494,-0.500975974661,0.519064077494,-0.500975974661,-0.480905046664,-0.497295456618
3600000000.0,-0.494888696643,-0.497579883114,0.505079983428,-0.501367762799,0.505079983428,-0.501367762799,-0.494888696643,-0.497579883114
3700000000.0,-0.508495835317,-0.497479567994,0.49147238865,-0.501374925654,0.49147238865,-0.501374925654,-0.508495835317,-0.497479567994
3800000000.0,-0.521727067118,-0.497025147806,0.478240688687,-0.501028098338,0.478240688687,-0.501028098338,-0.521727067118,-0.497025147806
3900000000.0,-0.534584513856,-0.496245538086,0.465382761684,-0.500356194934,0.465382761684,-0.500356194934,-0.534584513856,-0.496245538086
4000000000.0,-0.54707160417,-0.495167958385,0.452895178964,-0.499386433526,0.452895178964,-0.499386433526,-0.54707160417,-0.495167958385
4100000000.0,-0.559192882142,-0.493817970382,0.440773396404,-0.498144374319,0.440773396404,-0.498144374319,-0.559192882142,-0.493817970382
4200000000.0,-0.570953834317,-0.492219526256,0.429011927423,-0.496653968013,0.429011927423,-0.496653968013,-0.570953834317,-0.492219526256
4300000000.0,-0.582360734169,-0.490395024875,0.41760449851,-0.494937612002,0.41760449851,-0.494937612002,-0.582360734169,-0.490395024875
4400000000.0,-0.593420502968,-0.488365373726,0.406544188359,-0.493016212298,0.406544188359,-0.493016212298,-0.593420502968,-0.488365373726
4500000000.0,-0.604140585927,-0.486150054777,0.395823551724,-0.490909249405,0.395823551724,-0.490909249405,-0.604140585927,-0.486150054777
4600000000.0,-0.614528842471,-0.48376719282,0.385434729145,-0.48863484666,0.385434729145,-0.48863484666,-0.614528842471,-0.48376719282
4700000000.0,-0.62459344949,-0.481233625026,0.375369543703,-0.486209839793,0.375369543703,-0.486209839793,-0.62459344949,-0.481233625026
4800000000.0,-0.634342816442,-0.478564970712,0.365619585905,-0.483649846692,0.365619585905,-0.483649846692,-0.634342816442,-0.478564970712
4900000000.0,-0.64378551124,-0.475775700495,0.35617628781,-0.48096933657,0.35617628781,-0.48096933657,-0.64378551124,-0.475775700495
5000000000.0,-0.652930195866,-0.47287920419,0.347030987407,-0.478181697848,0.347030987407,-0.478181697848,-0.652930195866,-0.47287920419
5100000000.0,-0.661785570768,-0.469887856918,0.338174984218,-0.47529930428,0.338174984218,-0.47529930428,-0.661785570768,-0.469887856918
5200000000.0,-0.670360327112,-0.46681308307,0.329599587048,-0.472333578911,0.329599587048,-0.472333578911,-0.670360327112,-0.46681308307
5300000000.0,-0.678663106067,-0.463665417814,0.321296154702,-0.469295055585,0.321296154702,-0.469295055585,-0.678663106067,-0.463665417814
5400000000.0,-0.68670246433,-0.460454565966,0.313256130458,-0.466193437822,0.313256130458,-0.466193437822,-0.68670246433,-0.460454565966
5500000000.0,-0.694486845197,-0.457189458088,0.305471070991,-0.46303765491,0.305471070991,-0.46303765491,-0.694486845197,-0.457189458088
5600000000.0,-0.702024554536,-0.45387830375,0.297932670409,-0.459835915172,0.297932670409,-0.459835915172,-0.702024554536,-0.45387830375
5700000000.0,-0.709323741061,-0.450528641927,0.290632779973,-0.456595756366,0.290632779973,-0.456595756366,-0.709323741061,-0.450528641927
5800000000.0,-0.716392380404,-0.447147388564,0.283563424027,-0.453324093245,0.283563424027,-0.453324093245,-0.716392380404,-0.447147388564
5900000000.0,-0.723238262483,-0.443740881336,0.276716812629,-0.450027262319,0.276716812629,-0.450027262319,-0.723238262483,-0.443740881336
6000000000.0,-0.729868981764,-0.440314921687,0.270085351288,-0.446711063898,0.270085351288,-0.446711063898,-0.729868981764,-0.440314921687
6100000000.0,-0.736291930023,-0.436874814229,0.263661648208,-0.443380801486,0.263661648208,-0.443380801486,-0.736291930023,-0.436874814229
6200000000.0,-0.742514291269,-0.433425403607,0.257438519355,-0.44004131865,0.257438519355,-0.44004131865,-0.742514291269,-0.433425403607
6300000000.0,-0.748543038534,-0.429971108927,0.251408991676,-0.436697033447,0.251408991676,-0.436697033447,-0.748543038534,-0.429971108927
6400000000.0,-0.754384932259,-0.42651595588,0.245566304708,-0.433351970546,0.245566304708,-0.433351970546,-0.754384932259,-0.42651595588
6500000000.0,-0.760046520038,-0.423063606662,0.239903910835,-0.430009791152,0.239903910835,-0.430009791152,-0.760046520038,-0.423063606662
6600000000.0,-0.765534137515,-0.419617387819,0.234415474393,-0.426673820845,0.234415474393,-0.426673820845,-0.765534137515,-0.419617387819
6700000000.0,-0.770853910254,-0.41618031613,0.229094869797,-0.423347075471,0.229094869797,-0.423347075471,-0.770853910254,-0.41618031613
6800000000.0,-0.776011756408,-0.41275512265,0.223936178872,-0.420032285176,0.223936178872,-0.420032285176,-0.776011756408,-0.41275512265
6900000000.0,-0.781013390071,-0.409344275018,0.218933687504,-0.416731916721,0.218933687504,-0.416731916721,-0.781013390071,-0.409344275018
7000000000.0,-0.785864325164,-0.405949998148,0.214081881754,-0.413448194168,0.214081881754,-0.413448194168,-0.785864325164,-0.405949998148
7100000000.0,-0.790569879761,-0.4025742934,0.209375443527,-0.410183118051,0.209375443527,-0.410183118051,-0.790569879761,-0.4025742934
7200000000.0,-0.795135180771,-0.399218956335,0.204809245893,-0.406938483136,0.204809245893,-0.406938483136,-0.795135180771,-0.399218956335
7300000000.0,-0.799565168876,-0.395885593155,0.200378348152,-0.403715894852,0.200378348152,-0.403715894852,-0.799565168876,-0.395885593155
7400000000.0,-0.803864603672,-0.392575635907,0.196077990688,-0.400516784502,0.196077990688,-0.400516784502,-0.803864603672,-0.392575635907
7500000000.0,-0.808038068948,-0.389290356547,0.191903589693,-0.397342423324,0.191903589693,-0.397342423324,-0.808038068948,-0.389290356547
7600000000.0,-0.81208997805,-0.386030879944,0.187850731804,-0.394193935494,0.187850731804,-0.394193935494,-0.81208997805,-0.386030879944
7700000000.0,-0.816024579288,-0.38279819589,0.183915168689,-0.391072310134,0.183915168689,-0.391072310134,-0.816024579288,-0.38279819589
7800000000.0,-0.819845961358,-0.379593170199,0.180092811635,-0.387978412416,0.180092811635,-0.387978412416,-0.819845961358,-0.379593170199
7900000000.0,-0.823558058728,-0.376416554958,0.176379726155,-0.384912993807,0.176379726155,-0.384912993807,-0.823558058728,-0.376416554958
8000000000.0,-0.827164656989,-0.373268997989,0.17277212664,-0.381876701532,0.17277212664,-0.381876701532,-0.827164656989,-0.373268997989
8100000000.0,-0.830669398119,-0.370151051582,0.169266371093,-0.37887008731,0.169266371093,-0.37887008731,-0.830669398119,-0.370151051582
8200000000.0,-0.834075785672,-0.367063180557,0.165858955942,-0.375893615411,0.165858955942,-0.375893615411,-0.834075785672,-0.367063180557
8300000000.0,-0.837387189858,-0.364005769696,0.162546510958,-0.372947670089,0.162546510958,-0.372947670089,-0.837387189858,-0.364005769696
8400000000.0,-0.840606852508,-0.360979130607,0.159325794294,-0.370032562447,0.159325794294,-0.370032562447,-0.840606852508,-0.360979130607
8500000000.0,-0.843737891914,-0.357983508045,0.156193687636,-0.367148536755,0.156193687636,-0.367148536755,-0.843737891914,-0.357983508045
8600000000.0,-0.846783307548,-0.355019085744,0.153147191497,-0.364295776284,0.153147191497,-0.364295776284,-0.846783307548,-0.355019085744
8700000000.0,-0.849745984632,-0.352085991793,0.150183420636,-0.361474408681,0.150183420636,-0.361474408681,-0.849745984632,-0.352085991793
8800000000.0,-0.85262869858,-0.349184303593,0.14729959962,-0.358684510924,0.14729959962,-0.358684510924,-0.85262869858,-0.349184303593
8900000000.0,-0.855434119293,-0.346314052419,0.144493058531,-0.355926113885,0.144493058531,-0.355926113885,-0.855434119293,-0.346314052419
9000000000.0,-0.858164815317,-0.343475227628,0.141761228805,-0.353199206538,0.141761228805,-0.353199206538,-0.858164815317,-0.343475227628
9100000000.0,-0.860823257854,-0.340667780536,0.139101639221,-0.350503739832,0.139101639221,-0.350503739832,-0.860823257854,-0.340667780536
9200000000.0,-0.863411824636,-0.33789162798,0.136511912029,-0.347839630259,0.136511912029,-0.347839630259,-0.863411824636,-0.33789162798
9300000000.0,-0.865932803658,-0.335146655608,0.133989759216,-0.345206763138,0.133989759216,-0.345206763138,-0.865932803658,-0.335146655608
9400000000.0,-0.868388396773,-0.332432720902,0.131532978911,-0.342604995639,0.131532978911,-0.342604995639,-0.868388396773,-0.332432720902
9500000000.0,-0.870780723155,-0.329749655961,0.129139451921,-0.340034159566,0.129139451921,-0.340034159566,-0.870780723155,-0.329749655961
9600000000.0,-0.873111822624,-0.327097270062,0.126807138409,-0.337494063919,0.126807138409,-0.337494063919,-0.873111822624,-0.327097270062
9700000000.0,-0.875383658847,-0.324475352012,0.124534074689,-0.334984497246,0.124534074689,-0.334984497246,-0.875383658847,-0.324475352012
9800000000.0,-0.877598122414,-0.321883672321,0.122318370152,-0.332505229807,0.122318370152,-0.332505229807,-0.877598122414,-0.321883672321
9900000000.0,-0.879757033787,-0.319321985186,0.120158204319,-0.330056015572,0.120158204319,-0.330056015572,-0.879757033787,-0.319321985186
10000000000.0,-0.881862146136,-0.316790030323,0.118051824001,-0.327636594041,0.118051824001,-0.327636594041,-0.881862146136,-0.316790030323
