freq (GHz),S11_real,S11_imag,S21_real,S21_imag,S12_real,S12_imag,S22_real,S22_imag
100000000.0,2.35991456303e-05,-0.00278969927016,0.999952173695,-0.00311677146045,0.999952173695,-0.00311677146045,2.35991456303e-05,-0.00278969927016
200000000.0,-5.13755971898e-06,-0.00557943623517,0.99992279215,-0.00623361092269,0.99992279215,-0.00623361092269,-5.13755971909e-06,-0.00557943623517
300000000.0,-5.13315570143e-05,-0.0083691705633,0.999875969984,-0.0093504939246,0.999875969984,-0.0093504939246,-5.13315570146e-05,-0.0083691705633
400000000.0,-0.000114955774284,-0.0111588335655,0.999811672682,-0.0124673639362,0.999811672682,-0.0124673639362,-0.000114955774285,-0.0111588335655
500000000.0,-0.000196001954481,-0.0139483415699,0.999729884824,-0.0155841475788,0.999729884824,-0.0155841475788,-0.000196001954481,-0.0139483415699
600000000.0,-0.000294467218919,-0.0167376007019,0.999630597213,-0.018700760043,0.999630597213,-0.018700760043,-0.000294467218919,-0.0167376007019
700000000.0,-0.000410350523845,-0.0195265093644,0.999513803741,-0.0218171078933,0.999513803741,-0.0218171078933,-0.000410350523845,-0.0195265093644
800000000.0,-0.000543651282159,-0.0223149597565,0.999379500338,-0.0249330907817,0.999379500338,-0.0249330907817,-0.000543651282159,-0.0223149597565
900000000.0,-0.000694368689101,-0.0251028388993,0.999227684564,-0.0280486026017,0.999227684564,-0.0280486026017,-0.000694368689101,-0.0251028388993
1000000000.0,-0.00086250133498,-0.0278900293791,0.999058355453,-0.0311635323225,0.999058355453,-0.0311635323225,-0.00086250133498,-0.0278900293791
1100000000.0,-0.0010480469547,-0.030676409914,0.998871513456,-0.0342777646231,0.998871513456,-0.0342777646231,-0.0010480469547,-0.030676409914
1200000000.0,-0.00125100225054,-0.0334618558029,0.99866716044,-0.0373911803928,0.99866716044,-0.0373911803928,-0.00125100225054,-0.0334618558029
1300000000.0,-0.00147136275813,-0.0362462392927,0.99844529971,-0.0405036571396,0.99844529971,-0.0405036571396,-0.00147136275813,-0.0362462392927
1400000000.0,-0.00170912273994,-0.0390294298869,0.998205936041,-0.0436150693328,0.998205936041,-0.0436150693328,-0.00170912273994,-0.0390294298869
1500000000.0,-0.00196427509743,-0.04181129461,0.997949075713,-0.0467252886943,0.997949075713,-0.0467252886943,-0.00196427509743,-0.04181129461
1600000000.0,-0.00223681129681,-0.0445916982388,0.997674726555,-0.0498341844537,0.997674726555,-0.0498341844537,-0.00223681129681,-0.0445916982388
1700000000.0,-0.00252672130493,-0.0473705035068,0.997382897977,-0.0529416235724,0.997382897977,-0.0529416235724,-0.00252672130493,-0.0473705035068
1800000000.0,-0.00283399353333,-0.0501475712882,0.997073601016,-0.0560474709451,0.997073601016,-0.0560474709451,-0.00283399353333,-0.0501475712882
1900000000.0,-0.0031586147888,-0.0529227607648,0.996746848364,-0.0591515895819,0.996746848364,-0.0591515895819,-0.0031586147888,-0.0529227607648
2000000000.0,-0.00350057022959,-0.0556959295792,0.996402654406,-0.0622538407742,0.996402654406,-0.0622538407742,-0.00350057022959,-0.0556959295792
2100000000.0,-0.00385984332627,-0.0584669339756,0.996041035246,-0.0653540842481,0.996041035246,-0.0653540842481,-0.00385984332627,-0.0584669339756
2200000000.0,-0.00423641582698,-0.0612356289317,0.995662008744,-0.0684521783068,0.995662008744,-0.0684521783068,-0.00423641582698,-0.0612356289317
2300000000.0,-0.00463026772622,-0.0640018682817,0.995265594532,-0.0715479799629,0.995265594532,-0.0715479799629,-0.00463026772622,-0.0640018682817
2400000000.0,-0.00504137723715,-0.0667655048316,0.994851814044,-0.074641345063,0.994851814044,-0.074641345063,-0.00504137723715,-0.0667655048316
2500000000.0,-0.00546972076701,-0.0695263904691,0.994420690539,-0.077732128405,0.994420690539,-0.077732128405,-0.00546972076701,-0.0695263904691
2600000000.0,-0.00591527289529,-0.0722843762673,0.993972249112,-0.0808201838494,0.993972249112,-0.0808201838494,-0.00591527289529,-0.0722843762673
2700000000.0,-0.00637800635468,-0.0750393125828,0.993506516721,-0.0839053644244,0.993506516721,-0.0839053644244,-0.00637800635468,-0.0750393125828
2800000000.0,-0.00685789201442,-0.0777910491512,0.993023522194,-0.086987522427,0.993023522194,-0.086987522427,-0.00685789201442,-0.0777910491512
2900000000.0,-0.00735489886597,-0.0805394351762,0.992523296245,-0.0900665095186,0.992523296245,-0.0900665095186,-0.00735489886597,-0.0805394351762
3000000000.0,-0.00786899401099,-0.0832843194168,0.992005871487,-0.0931421768172,0.992005871487,-0.0931421768172,-0.00786899401099,-0.0832843194168
3100000000.0,-0.00840014265122,-0.0860255502705,0.991471282435,-0.0962143749852,0.991471282435,-0.0962143749852,-0.00840014265122,-0.0860255502705
3200000000.0,-0.00894830808054,-0.0887629758533,0.99091956552,-0.0992829543149,0.99091956552,-0.0992829543149,-0.00894830808054,-0.0887629758533
3300000000.0,-0.00951345167871,-0.0914964440769,0.990350759091,-0.10234776481,0.990350759091,-0.10234776481,-0.00951345167871,-0.0914964440769
3400000000.0,-0.010095532907,-0.0942258027233,0.989764903417,-0.105408656263,0.989764903417,-0.105408656263,-0.010095532907,-0.0942258027233
3500000000.0,-0.0106945093056,-0.0969508995171,0.989162040694,-0.108465478334,0.989162040694,-0.108465478334,-0.0106945093056,-0.0969508995171
3600000000.0,-0.0113103364925,-0.0996715821949,0.98854221504,-0.11151808062,0.98854221504,-0.11151808062,-0.0113103364925,-0.0996715821949
3700000000.0,-0.0119429681638,-0.102387698573,0.987905472499,-0.114566312732,0.987905472499,-0.114566312732,-0.0119429681638,-0.102387698573
3800000000.0,-0.0125923560963,-0.105099096613,0.987251861036,-0.117610024355,0.987251861036,-0.117610024355,-0.0125923560963,-0.105099096613
3900000000.0,-0.0132584501503,-0.107805624485,0.986581430534,-0.120649065323,0.986581430534,-0.120649065323,-0.0132584501503,-0.107805624485
4000000000.0,-0.0139411982746,-0.110507130628,0.985894232789,-0.123683285678,0.985894232789,-0.123683285678,-0.0139411982746,-0.110507130628
4100000000.0,-0.014640546513,-0.113203463813,0.985190321501,-0.126712535736,0.985190321501,-0.126712535736,-0.014640546513,-0.113203463813
4200000000.0,-0.0153564390112,-0.115894473196,0.984469752274,-0.129736666143,0.984469752274,-0.129736666143,-0.0153564390112,-0.115894473196
4300000000.0,-0.0160888180257,-0.118580008378,0.983732582596,-0.132755527938,0.983732582596,-0.132755527938,-0.0160888180257,-0.118580008378
4400000000.0,-0.0168376239336,-0.121259919458,0.98297887184,-0.13576897261,0.98297887184,-0.13576897261,-0.0168376239336,-0.121259919458
4500000000.0,-0.0176027952431,-0.123934057087,0.982208681245,-0.138776852149,0.982208681245,-0.138776852149,-0.0176027952431,-0.123934057087
4600000000.0,-0.018384268606,-0.126602272519,0.981422073909,-0.141779019103,0.981422073909,-0.141779019103,-0.018384268606,-0.126602272519
4700000000.0,-0.0191819788306,-0.12926441766,0.980619114773,-0.144775326631,0.980619114773,-0.144775326631,-0.0191819788306,-0.12926441766
4800000000.0,-0.0199958588953,-0.131920345118,0.979799870608,-0.147765628551,0.979799870608,-0.147765628551,-0.0199958588953,-0.131920345118
4900000000.0,-0.0208258399641,-0.13456990825,0.978964409999,-0.150749779388,0.978964409999,-0.150749779388,-0.0208258399641,-0.13456990825
5000000000.0,-0.0216718514022,-0.137212961206,0.978112803332,-0.153727634428,0.978112803332,-0.153727634428,-0.0216718514022,-0.137212961206
5100000000.0,-0.0225338207926,-0.139849358978,0.977245122772,-0.156699049755,0.977245122772,-0.156699049755,-0.0225338207926,-0.139849358978
5200000000.0,-0.023411673954,-0.142478957438,0.976361442252,-0.159663882303,0.976361442252,-0.159663882303,-0.023411673954,-0.142478957438
5300000000.0,-0.0243053349591,-0.145101613382,0.975461837447,-0.162621989899,0.975461837447,-0.162621989899,-0.0243053349591,-0.145101613382
5400000000.0,-0.0252147261534,-0.147717184572,0.974546385762,-0.165573231299,0.974546385762,-0.165573231299,-0.0252147261534,-0.147717184572
5500000000.0,-0.0261397681759,-0.150325529774,0.973615166308,-0.168517466235,0.973615166308,-0.168517466235,-0.0261397681759,-0.150325529774
5600000000.0,-0.027080379979,-0.152926508795,0.97266825988,-0.171454555454,0.97266825988,-0.171454555454,-0.027080379979,-0.152926508795
5700000000.0,-0.0280364788498,-0.155519982524,0.97170574894,-0.174384360754,0.97170574894,-0.174384360754,-0.0280364788498,-0.155519982524
5800000000.0,-0.0290079804327,-0.158105812965,0.970727717593,-0.177306745021,0.970727717593,-0.177306745021,-0.0290079804327,-0.158105812965
5900000000.0,-0.0299947987512,-0.16068386327,0.969734251564,-0.180221572267,0.969734251564,-0.180221572267,-0.0299947987512,-0.16068386327
6000000000.0,-0.0309968462314,-0.163253997779,0.968725438174,-0.183128707665,0.968725438174,-0.183128707665,-0.0309968462314,-0.163253997779
6100000000.0,-0.0320140337257,-0.165816082046,0.967701366318,-0.186028017581,0.967701366318,-0.186028017581,-0.0320140337257,-0.165816082046
6200000000.0,-0.033046270537,-0.168369982873,0.966662126442,-0.188919369607,0.966662126442,-0.188919369607,-0.033046270537,-0.168369982873
6300000000.0,-0.0340934644433,-0.170915568343,0.965607810513,-0.191802632593,0.965607810513,-0.191802632593,-0.0340934644433,-0.170915568343
6400000000.0,-0.0351555217229,-0.173452707846,0.964538512,-0.194677676677,0.964538512,-0.194677676677,-0.0351555217229,-0.173452707846
6500000000.0,-0.0362323471805,-0.175981272107,0.963454325844,-0.197544373313,0.963454325844,-0.197544373313,-0.0362323471805,-0.175981272107
6600000000.0,-0.0373238441726,-0.178501133217,0.962355348435,-0.200402595304,0.962355348435,-0.200402595304,-0.0373238441726,-0.178501133217
6700000000.0,-0.0384299146345,-0.181012164656,0.961241677582,-0.203252216821,0.961241677582,-0.203252216821,-0.0384299146345,-0.181012164656
6800000000.0,-0.039550459107,-0.183514241322,0.96011341249,-0.206093113439,0.96011341249,-0.206093113439,-0.039550459107,-0.183514241322
6900000000.0,-0.0406853767637,-0.186007239549,0.958970653728,-0.208925162155,0.958970653728,-0.208925162155,-0.0406853767637,-0.186007239549
7000000000.0,-0.0418345654382,-0.188491037139,0.957813503208,-0.211748241412,0.957813503208,-0.211748241412,-0.0418345654382,-0.188491037139
7100000000.0,-0.0429979216528,-0.190965513378,0.95664206415,-0.214562231129,0.95664206415,-0.214562231129,-0.0429979216528,-0.190965513378
7200000000.0,-0.0441753406455,-0.19343054906,0.955456441059,-0.217367012716,0.955456441059,-0.217367012716,-0.0441753406455,-0.19343054906
7300000000.0,-0.0453667163995,-0.195886026508,0.954256739695,-0.2201624691,0.954256739695,-0.2201624691,-0.0453667163995,-0.195886026508
7400000000.0,-0.0465719416712,-0.198331829593,0.953043067042,-0.222948484741,0.953043067042,-0.222948484741,-0.0465719416712,-0.198331829593
7500000000.0,-0.0477909080194,-0.200767843753,0.951815531283,-0.225724945657,0.951815531283,-0.225724945657,-0.0477909080194,-0.200767843753
7600000000.0,-0.0490235058342,-0.203193956012,0.95057424177,-0.22849173944,0.95057424177,-0.22849173944,-0.0490235058342,-0.203193956012
7700000000.0,-0.0502696243665,-0.205610054996,0.949319308991,-0.231248755269,0.949319308991,-0.231248755269,-0.0502696243665,-0.205610054996
7800000000.0,-0.0515291517573,-0.208016030951,0.948050844545,-0.233995883937,0.948050844545,-0.233995883937,-0.0515291517573,-0.208016030951
7900000000.0,-0.0528019750673,-0.210411775755,0.946768961111,-0.236733017858,0.946768961111,-0.236733017858,-0.0528019750673,-0.210411775755
8000000000.0,-0.0540879803069,-0.212797182937,0.945473772417,-0.239460051085,0.945473772417,-0.239460051085,-0.0540879803069,-0.212797182937
8100000000.0,-0.0553870524656,-0.215172147687,0.944165393212,-0.242176879326,0.944165393212,-0.242176879326,-0.0553870524656,-0.215172147687
8200000000.0,-0.0566990755422,-0.217536566873,0.942843939234,-0.244883399956,0.942843939234,-0.244883399956,-0.0566990755422,-0.217536566873
8300000000.0,-0.058023932575,-0.219890339049,0.941509527182,-0.247579512028,0.941509527182,-0.247579512028,-0.058023932575,-0.219890339049
8400000000.0,-0.0593615056714,-0.22223336447,0.940162274685,-0.250265116289,0.940162274685,-0.250265116289,-0.0593615056714,-0.22223336447
8500000000.0,-0.0607116760385,-0.224565545099,0.938802300272,-0.252940115186,0.938802300272,-0.252940115186,-0.0607116760385,-0.224565545099
8600000000.0,-0.0620743240129,-0.226886784622,0.937429723342,-0.255604412881,0.937429723342,-0.255604412881,-0.0620743240129,-0.226886784622
8700000000.0,-0.063449329091,-0.229196988451,0.936044664133,-0.258257915257,0.936044664133,-0.258257915257,-0.063449329091,-0.229196988451
8800000000.0,-0.0648365699593,-0.231496063739,0.934647243692,-0.260900529928,0.934647243692,-0.260900529928,-0.0648365699593,-0.231496063739
8900000000.0,-0.0662359245243,-0.233783919382,0.933237583846,-0.263532166248,0.933237583846,-0.263532166248,-0.0662359245243,-0.233783919382
9000000000.0,-0.0676472699426,-0.23606046603,0.931815807172,-0.266152735316,0.931815807172,-0.266152735316,-0.0676472699426,-0.23606046603
9100000000.0,-0.0690704826515,-0.238325616089,0.930382036966,-0.268762149985,0.930382036966,-0.268762149985,-0.0690704826515,-0.238325616089
9200000000.0,-0.0705054383981,-0.240579283732,0.92893639721,-0.271360324868,0.92893639721,-0.271360324868,-0.0705054383981,-0.240579283732
9300000000.0,-0.07195201227,-0.242821384901,0.92747901255,-0.273947176338,0.92747901255,-0.273947176338,-0.07195201227,-0.242821384901
9400000000.0,-0.0734100787248,-0.245051837309,0.926010008257,-0.27652262254,0.926010008257,-0.27652262254,-0.0734100787248,-0.245051837309
9500000000.0,-0.0748795116199,-0.247270560448,0.924529510204,-0.27908658339,0.924529510204,-0.27908658339,-0.0748795116199,-0.247270560448
9600000000.0,-0.0763601842423,-0.24947747559,0.923037644835,-0.281638980579,0.923037644835,-0.281638980579,-0.0763601842423,-0.24947747559
9700000000.0,-0.0778519693377,-0.251672505789,0.92153453913,-0.284179737577,0.92153453913,-0.284179737577,-0.0778519693377,-0.251672505789
9800000000.0,-0.0793547391404,-0.253855575881,0.920020320585,-0.286708779632,0.920020320585,-0.286708779632,-0.0793547391404,-0.253855575881
9900000000.0,-0.0808683654021,-0.25602661249,0.918495117174,-0.289226033774,0.918495117174,-0.289226033774,-0.0808683654021,-0.25602661249
10000000000.0,-0.0823927194214,-0.258185544022,0.916959057326,-0.291731428815,0.916959057326,-0.291731428815,-0.0823927194214,-0.258185544022
