freq (GHz),S11_real,S11_imag,S21_real,S21_imag,S12_real,S12_imag,S22_real,S22_imag
100000000.0,0.00117663024169,-0.00295442876399,0.998772968898,-0.0060721375249,0.998772968898,-0.0060721375249,0.00117663024169,-0.00295442876399
200000000.0,0.00112656315944,-0.005908396251,0.99869212814,-0.0121437377699,0.99869212814,-0.0121437377699,0.00112656315944,-0.005908396251
300000000.0,0.0010385357097,-0.00886142300986,0.998567760714,-0.01821437257,0.998567760714,-0.01821437257,0.0010385357097,-0.00886142300986
400000000.0,0.000913601302006,-0.0118130364078,0.998398846705,-0.0242835916053,0.998398846705,-0.0242835916053,0.000913601302006,-0.0118130364078
500000000.0,0.000752182475843,-0.014762763939,0.998185010888,-0.0303509371926,0.998185010888,-0.0303509371926,0.000752182475843,-0.014762763939
600000000.0,0.000554513411291,-0.0177101327913,0.997926080382,-0.0364159477363,0.997926080382,-0.0364159477363,0.000554513411291,-0.0177101327913
700000000.0,0.000320752328644,-0.0206546699473,0.997621972367,-0.042478159299,0.997621972367,-0.042478159299,0.000320752328644,-0.0206546699473
800000000.0,5.10224833987e-05,-0.0235959023833,0.997272653154,-0.0485371065135,0.997272653154,-0.0485371065135,5.10224833989e-05,-0.0235959023833
900000000.0,-0.000254569592985,-0.0265333572814,0.996878119995,-0.0545923231955,0.996878119995,-0.0545923231955,-0.000254569592986,-0.0265333572814
1000000000.0,-0.000595924855766,-0.0294665622373,0.996438391873,-0.0606433427989,0.996438391873,-0.0606433427989,-0.000595924855767,-0.0294665622373
1100000000.0,-0.00097294661999,-0.0323950454588,0.995953504383,-0.066689698777,0.995953504383,-0.066689698777,-0.00097294661999,-0.0323950454588
1200000000.0,-0.00138553751391,-0.0353183359557,0.995423506685,-0.0727309248859,0.995423506685,-0.0727309248859,-0.00138553751391,-0.0353183359557
1300000000.0,-0.00183359757134,-0.0382359637216,0.994848459577,-0.0787665554482,0.994848459577,-0.0787665554482,-0.00183359757134,-0.0382359637216
1400000000.0,-0.00231702298763,-0.0411474599097,0.994228434228,-0.0847961255897,0.994228434228,-0.0847961255897,-0.00231702298763,-0.0411474599097
1500000000.0,-0.0028357052825,-0.0440523570021,0.9935635113,-0.0908191714551,0.9935635113,-0.0908191714551,-0.0028357052825,-0.0440523570021
1600000000.0,-0.00338953072314,-0.0469501889749,0.992853780326,-0.0968352304097,0.992853780326,-0.0968352304097,-0.00338953072313,-0.0469501889749
1700000000.0,-0.00397837992016,-0.0498404914584,0.992099339249,-0.102843841228,0.992099339249,-0.102843841228,-0.00397837992016,-0.0498404914584
1800000000.0,-0.00460212754197,-0.0527228018941,0.991300294073,-0.108844544276,0.991300294073,-0.108844544276,-0.00460212754197,-0.0527228018941
1900000000.0,-0.00526064211264,-0.0555966596881,0.99045675859,-0.114836881679,0.99045675859,-0.114836881679,-0.00526064211264,-0.0555966596881
2000000000.0,-0.00595378587026,-0.0584616063615,0.989568854152,-0.120820397492,0.989568854152,-0.120820397492,-0.00595378587026,-0.0584616063615
2100000000.0,-0.0066814146701,-0.0613171856973,0.988636709493,-0.126794637858,0.988636709493,-0.126794637858,-0.0066814146701,-0.0613171856973
2200000000.0,-0.00744337792175,-0.0641629438857,0.987660460568,-0.132759151163,0.987660460568,-0.132759151163,-0.00744337792175,-0.0641629438857
2300000000.0,-0.00823951855257,-0.0669984296655,0.986640250411,-0.138713488187,0.986640250411,-0.138713488187,-0.00823951855257,-0.0669984296655
2400000000.0,-0.00906967299181,-0.0698231944641,0.985576229014,-0.144657202254,0.985576229014,-0.144657202254,-0.00906967299181,-0.0698231944641
2500000000.0,-0.00993367117151,-0.0726367925344,0.98446855321,-0.150589849371,0.98446855321,-0.150589849371,-0.00993367117151,-0.0726367925344
2600000000.0,-0.010831336541,-0.0754387810889,0.983317386564,-0.156510988371,0.983317386564,-0.156510988371,-0.010831336541,-0.0754387810889
2700000000.0,-0.0117624860926,-0.0782287204328,0.982122899273,-0.162420181048,0.982122899273,-0.162420181048,-0.0117624860926,-0.0782287204328
2800000000.0,-0.0127269303973,-0.0810061740929,0.980885268062,-0.168316992292,0.980885268062,-0.168316992292,-0.0127269303973,-0.0810061740929
2900000000.0,-0.0137244736484,-0.0837707089454,0.979604676087,-0.174200990221,0.979604676087,-0.174200990221,-0.0137244736484,-0.0837707089454
3000000000.0,-0.0147549137121,-0.0865218953405,0.978281312845,-0.180071746304,0.978281312845,-0.180071746304,-0.0147549137121,-0.0865218953405
3100000000.0,-0.0158180421847,-0.0892593072254,0.976915374069,-0.185928835489,0.976915374069,-0.185928835489,-0.0158180421847,-0.0892593072254
3200000000.0,-0.0169136444554,-0.0919825222637,0.97550706164,-0.191771836327,0.97550706164,-0.191771836327,-0.0169136444554,-0.0919825222637
3300000000.0,-0.0180414997737,-0.0946911219533,0.974056583488,-0.197600331086,0.974056583488,-0.197600331086,-0.0180414997737,-0.0946911219533
3400000000.0,-0.019201381322,-0.0973846917413,0.972564153493,-0.203413905871,0.972564153493,-0.203413905871,-0.019201381322,-0.0973846917413
3500000000.0,-0.0203930562915,-0.100062821137,0.971029991396,-0.209212150734,0.971029991396,-0.209212150734,-0.0203930562915,-0.100062821137
3600000000.0,-0.0216162859625,-0.10272510382,0.969454322689,-0.21499465979,0.969454322689,-0.21499465979,-0.0216162859625,-0.10272510382
3700000000.0,-0.0228708257882,-0.105371137749,0.967837378526,-0.220761031318,0.967837378526,-0.220761031318,-0.0228708257882,-0.105371137749
3800000000.0,-0.0241564254813,-0.108000525269,0.966179395615,-0.226510867872,0.966179395615,-0.226510867872,-0.0241564254813,-0.108000525269
3900000000.0,-0.0254728291039,-0.110612873205,0.964480616119,-0.232243776379,0.964480616119,-0.232243776379,-0.0254728291039,-0.110612873205
4000000000.0,-0.0268197751604,-0.113207792972,0.962741287552,-0.23795936824,0.962741287552,-0.23795936824,-0.0268197751604,-0.113207792972
4100000000.0,-0.0281969966925,-0.115784900664,0.960961662672,-0.243657259425,0.960961662672,-0.243657259425,-0.0281969966925,-0.115784900664
4200000000.0,-0.0296042213771,-0.118343817148,0.95914199938,-0.249337070568,0.95914199938,-0.249337070568,-0.0296042213771,-0.118343817148
4300000000.0,-0.0310411716266,-0.12088416816,0.957282560603,-0.254998427055,0.957282560603,-0.254998427055,-0.0310411716266,-0.12088416816
4400000000.0,-0.0325075646906,-0.123405584388,0.955383614194,-0.260640959114,0.955383614194,-0.260640959114,-0.0325075646906,-0.123405584388
4500000000.0,-0.0340031127605,-0.125907701559,0.953445432816,-0.2662643019,0.953445432816,-0.2662643019,-0.0340031127605,-0.125907701559
4600000000.0,-0.0355275230755,-0.128390160525,0.951468293833,-0.271868095573,0.951468293833,-0.271868095573,-0.0355275230755,-0.128390160525
4700000000.0,-0.0370804980306,-0.130852607334,0.949452479195,-0.277451985379,0.949452479195,-0.277451985379,-0.0370804980306,-0.130852607334
4800000000.0,-0.038661735286,-0.133294693315,0.947398275325,-0.283015621726,0.947398275325,-0.283015621726,-0.038661735286,-0.133294693315
4900000000.0,-0.0402709278782,-0.135716075149,0.945305973003,-0.288558660255,0.945305973003,-0.288558660255,-0.0402709278782,-0.135716075149
5000000000.0,-0.0419077643325,-0.138116414936,0.94317586725,-0.294080761912,0.94317586725,-0.294080761912,-0.0419077643325,-0.138116414936
5100000000.0,-0.0435719287768,-0.140495380268,0.941008257212,-0.29958159301,0.941008257212,-0.29958159301,-0.0435719287768,-0.140495380268
5200000000.0,-0.0452631010569,-0.142852644292,0.938803446037,-0.305060825298,0.938803446037,-0.305060825298,-0.0452631010569,-0.142852644292
5300000000.0,-0.0469809568521,-0.145187885771,0.936561740762,-0.310518136018,0.936561740762,-0.310518136018,-0.0469809568521,-0.145187885771
5400000000.0,-0.0487251677928,-0.147500789142,0.934283452188,-0.315953207962,0.934283452188,-0.315953207962,-0.0487251677928,-0.147500789142
5500000000.0,-0.0504954015784,-0.149791044574,0.931968894763,-0.32136572953,0.931968894763,-0.32136572953,-0.0504954015784,-0.149791044574
5600000000.0,-0.0522913220964,-0.152058348021,0.929618386458,-0.326755394775,0.929618386458,-0.326755394775,-0.0522913220964,-0.152058348021
5700000000.0,-0.0541125895416,-0.154302401269,0.927232248647,-0.332121903459,0.927232248647,-0.332121903459,-0.0541125895416,-0.154302401269
5800000000.0,-0.0559588605368,-0.156522911986,0.92481080598,-0.337464961091,0.92481080598,-0.337464961091,-0.0559588605368,-0.156522911986
5900000000.0,-0.0578297882535,-0.158719593763,0.92235438627,-0.342784278973,0.92235438627,-0.342784278973,-0.0578297882535,-0.158719593763
6000000000.0,-0.0597250225331,-0.160892166159,0.919863320358,-0.34807957424,0.919863320358,-0.34807957424,-0.0597250225331,-0.160892166159
6100000000.0,-0.0616442100084,-0.163040354732,0.917337941998,-0.353350569892,0.917337941998,-0.353350569892,-0.0616442100084,-0.163040354732
6200000000.0,-0.0635869942259,-0.165163891083,0.914778587731,-0.358596994832,0.914778587731,-0.358596994832,-0.0635869942259,-0.165163891083
6300000000.0,-0.0655530157677,-0.167262512879,0.912185596758,-0.363818583891,0.912185596758,-0.363818583891,-0.0655530157677,-0.167262512879
6400000000.0,-0.0675419123738,-0.16933596389,0.909559310821,-0.36901507786,0.909559310821,-0.36901507786,-0.0675419123738,-0.16933596389
6500000000.0,-0.0695533190645,-0.171383994009,0.906900074078,-0.37418622351,0.906900074078,-0.37418622351,-0.0695533190645,-0.171383994009
6600000000.0,-0.0715868682624,-0.173406359278,0.904208232976,-0.379331773618,0.904208232976,-0.379331773618,-0.0715868682624,-0.173406359278
6700000000.0,-0.0736421899147,-0.175402821909,0.901484136132,-0.384451486979,0.901484136132,-0.384451486979,-0.0736421899147,-0.175402821909
6800000000.0,-0.0757189116152,-0.1773731503,0.898728134207,-0.389545128427,0.898728134207,-0.389545128427,-0.0757189116152,-0.1773731503
6900000000.0,-0.077816658726,-0.179317119051,0.895940579784,-0.394612468845,0.895940579784,-0.394612468845,-0.077816658726,-0.179317119051
7000000000.0,-0.0799350544986,-0.181234508975,0.893121827245,-0.399653285174,0.893121827245,-0.399653285174,-0.0799350544986,-0.181234508975
7100000000.0,-0.0820737201949,-0.183125107107,0.890272232649,-0.404667360424,0.890272232649,-0.404667360424,-0.0820737201949,-0.183125107107
7200000000.0,-0.0842322752077,-0.184988706712,0.887392153612,-0.409654483672,0.887392153612,-0.409654483672,-0.0842322752077,-0.184988706712
7300000000.0,-0.0864103371806,-0.186825107286,0.884481949182,-0.414614450069,0.884481949182,-0.414614450069,-0.0864103371806,-0.186825107286
7400000000.0,-0.0886075221271,-0.18863411456,0.881541979724,-0.419547060834,0.881541979724,-0.419547060834,-0.0886075221271,-0.18863411456
7500000000.0,-0.0908234445492,-0.190415540498,0.878572606797,-0.424452123255,0.878572606797,-0.424452123255,-0.0908234445492,-0.190415540498
7600000000.0,-0.0930577175551,-0.192169203289,0.875574193034,-0.429329450678,0.875574193034,-0.429329450678,-0.0930577175551,-0.192169203289
7700000000.0,-0.0953099529764,-0.193894927346,0.872547102028,-0.4341788625,0.872547102028,-0.4341788625,-0.0953099529764,-0.193894927346
7800000000.0,-0.0975797614841,-0.195592543292,0.869491698211,-0.439000184157,0.869491698211,-0.439000184157,-0.0975797614841,-0.195592543292
7900000000.0,-0.0998667527037,-0.197261887953,0.866408346742,-0.443793247109,0.866408346742,-0.443793247109,-0.0998667527037,-0.197261887953
8000000000.0,-0.102170535329,-0.198902804338,0.863297413388,-0.448557888825,0.863297413388,-0.448557888825,-0.102170535329,-0.198902804338
8100000000.0,-0.104490717237,-0.200515141627,0.860159264411,-0.453293952763,0.860159264411,-0.453293952763,-0.104490717237,-0.200515141627
8200000000.0,-0.106826905597,-0.202098755152,0.856994266455,-0.458001288346,0.856994266455,-0.458001288346,-0.106826905597,-0.202098755152
8300000000.0,-0.109178706984,-0.203653506371,0.853802786437,-0.462679750942,0.853802786437,-0.462679750942,-0.109178706984,-0.203653506371
8400000000.0,-0.111545727486,-0.205179262853,0.850585191432,-0.467329201836,0.850585191432,-0.467329201836,-0.111545727486,-0.205179262853
8500000000.0,-0.113927572817,-0.206675898243,0.847341848566,-0.471949508202,0.847341848566,-0.471949508202,-0.113927572817,-0.206675898243
8600000000.0,-0.116323848417,-0.208143292241,0.844073124908,-0.476540543071,0.844073124908,-0.476540543071,-0.116323848417,-0.208143292241
8700000000.0,-0.118734159565,-0.20958133057,0.840779387363,-0.481102185302,0.840779387363,-0.481102185302,-0.118734159565,-0.20958133057
8800000000.0,-0.121158111478,-0.210989904945,0.837461002568,-0.485634319544,0.837461002568,-0.485634319544,-0.121158111478,-0.210989904945
8900000000.0,-0.123595309418,-0.212368913034,0.834118336784,-0.490136836198,0.834118336784,-0.490136836198,-0.123595309418,-0.212368913034
9000000000.0,-0.12604535879,-0.213718258431,0.830751755801,-0.494609631383,0.830751755801,-0.494609631383,-0.12604535879,-0.213718258431
9100000000.0,-0.128507865244,-0.215037850612,0.827361624828,-0.499052606891,0.827361624828,-0.499052606891,-0.128507865244,-0.215037850612
9200000000.0,-0.130982434774,-0.216327604895,0.823948308402,-0.503465670146,0.823948308402,-0.503465670146,-0.130982434774,-0.216327604895
9300000000.0,-0.133468673813,-0.217587442403,0.820512170285,-0.507848734161,0.820512170285,-0.507848734161,-0.133468673813,-0.217587442403
9400000000.0,-0.135966189331,-0.218817290018,0.81705357337,-0.512201717488,0.81705357337,-0.512201717488,-0.135966189331,-0.218817290018
9500000000.0,-0.138474588926,-0.220017080336,0.813572879585,-0.516524544175,0.813572879585,-0.516524544175,-0.138474588926,-0.220017080336
9600000000.0,-0.140993480916,-0.221186751623,0.810070449804,-0.520817143713,0.810070449804,-0.520817143713,-0.140993480916,-0.221186751623
9700000000.0,-0.143522474433,-0.222326247762,0.80654664375,-0.525079450985,0.80654664375,-0.525079450985,-0.143522474433,-0.222326247762
9800000000.0,-0.146061179508,-0.223435518211,0.80300181991,-0.529311406214,0.80300181991,-0.529311406214,-0.146061179508,-0.223435518211
9900000000.0,-0.148609207159,-0.224514517946,0.799436335445,-0.533512954911,0.799436335445,-0.533512954911,-0.148609207159,-0.224514517946
10000000000.0,-0.151166169476,-0.225563207411,0.795850546107,-0.537684047815,0.795850546107,-0.537684047815,-0.151166169476,-0.225563207411
