freq (GHz),S11_real,S11_imag,S21_real,S21_imag,S12_real,S12_imag,S22_real,S22_imag
100000000.0,-0.0139841889216,-0.117021581561,0.985944224993,-0.117123731642,0.985944224993,-0.117123731642,-0.0139841889216,-0.117021581561
200000000.0,-0.0535601531819,-0.22461637934,0.946367754798,-0.224820687569,0.946367754798,-0.224820687569,-0.0535601531819,-0.22461637934
300000000.0,-0.112829610657,-0.315774394436,0.887097903388,-0.316080873718,0.887097903388,-0.316080873718,-0.112829610657,-0.315774394436
400000000.0,-0.184295801231,-0.38704880187,0.815631369377,-0.387457469098,0.815631369377,-0.387457469098,-0.184295801231,-0.38704880187
500000000.0,-0.260817377815,-0.438342544427,0.739109476296,-0.438853420061,0.739109476296,-0.438853420061,-0.260817377815,-0.438342544427
600000000.0,-0.336826443263,-0.471827999345,0.663100109336,-0.472441107126,0.663100109336,-0.472441107126,-0.336826443263,-0.471827999345
700000000.0,-0.408665149202,-0.490732496173,0.591261109844,-0.491447862915,0.591261109844,-0.491447862915,-0.408665149202,-0.490732496173
800000000.0,-0.474348205741,-0.498430059011,0.525577763176,-0.499247714437,0.525577763176,-0.499247714437,-0.474348205741,-0.498430059011
900000000.0,-0.533108063403,-0.497934894897,0.466817615693,-0.4988548715,0.466817615693,-0.4988548715,-0.533108063403,-0.497934894897
1000000000.0,-0.584950170604,-0.491706979537,0.414975216731,-0.492729312463,0.414975216731,-0.492729312463,-0.584950170604,-0.491706979537
1100000000.0,-0.630310022022,-0.48164145257,0.369615069929,-0.482766179516,0.369615069929,-0.482766179516,-0.630310022022,-0.48164145257
1200000000.0,-0.669822583865,-0.469142106961,0.330102207785,-0.470369268085,0.330102207785,-0.470369268085,-0.669822583865,-0.469142106961
1300000000.0,-0.704182123326,-0.455219501476,0.295742362083,-0.456549139313,0.295742362083,-0.456549139313,-0.704182123326,-0.455219501476
1400000000.0,-0.734064691648,-0.44058471283,0.265859480758,-0.44201687222,0.265859480758,-0.44201687222,-0.734064691648,-0.44058471283
1500000000.0,-0.760090168318,-0.425727805537,0.239833683647,-0.427262533555,0.239833683647,-0.427262533555,-0.760090168318,-0.425727805537
1600000000.0,-0.782807564107,-0.410979126763,0.21711595942,-0.412616472657,0.21711595942,-0.412616472657,-0.782807564107,-0.410979126763
1700000000.0,-0.802693084868,-0.396555297119,0.197230101754,-0.398295312251,0.197230101754,-0.398295312251,-0.802693084868,-0.396555297119
1800000000.0,-0.820154603626,-0.382592875614,0.179768237219,-0.384435613404,0.179768237219,-0.384435613404,-0.820154603626,-0.382592875614
1900000000.0,-0.835538887511,-0.369172619203,0.164383598339,-0.371118135079,0.164383598339,-0.371118135079,-0.835538887511,-0.369172619203
2000000000.0,-0.849139584431,-0.356336787665,0.150782536906,-0.358385139015,0.150782536906,-0.358385139015,-0.849139584431,-0.356336787665
2100000000.0,-0.861204951185,-0.344101402844,0.138716795857,-0.34625264897,0.138716795857,-0.34625264897,-0.861204951185,-0.344101402844
2200000000.0,-0.871944859198,-0.332464889522,0.127976503532,-0.334719091597,0.127976503532,-0.334719091597,-0.871944859198,-0.332464889522
2300000000.0,-0.881536916401,-0.321414139638,0.118384051791,-0.323771360666,0.118384051791,-0.323771360666,-0.881536916401,-0.321414139638
2400000000.0,-0.890131700109,-0.310928749257,0.109788863134,-0.313389054035,0.109788863134,-0.313389054035,-0.890131700109,-0.310928749257
2500000000.0,-0.897857169716,-0.300983962906,0.102062977997,-0.303547417985,0.102062977997,-0.303547417985,-0.897857169716,-0.300983962906
2600000000.0,-0.904822357061,-0.291552704838,0.0950973643855,-0.294219378492,0.0950973643855,-0.294219378492,-0.904822357061,-0.291552704838
2700000000.0,-0.911120437847,-0.282606966103,0.0887988464582,-0.285376928293,0.0887988464582,-0.285376928293,-0.911120437847,-0.282606966103
2800000000.0,-0.916831281575,-0.274118737711,0.083087554583,-0.276992060056,0.083087554583,-0.276992060056,-0.916831281575,-0.274118737711
2900000000.0,-0.922023566743,-0.266060624606,0.0778948101427,-0.269037380354,0.0778948101427,-0.269037380354,-0.922023566743,-0.266060624606
3000000000.0,-0.92675653593,-0.258406235832,0.0731613704458,-0.261486499828,0.0731613704458,-0.261486499828,-0.92675653593,-0.258406235832
3100000000.0,-0.931081453712,-0.251130418514,0.0688359708126,-0.254314267177,0.0688359708126,-0.254314267177,-0.931081453712,-0.251130418514
3200000000.0,-0.935042819773,-0.244209383581,0.0648741114599,-0.247496894877,0.0648741114599,-0.247496894877,-0.935042819773,-0.244209383581
3300000000.0,-0.938679380466,-0.237620757226,0.0612370459432,-0.241012010644,0.0612370459432,-0.241012010644,-0.938679380466,-0.237620757226
3400000000.0,-0.942024974333,-0.231343582169,0.0578909356315,-0.234838658699,0.0578909356315,-0.234838658699,-0.942024974333,-0.231343582169
3500000000.0,-0.9451092407,-0.225358285781,0.0548061411164,-0.228957267891,0.0548061411164,-0.228957267891,-0.9451092407,-0.225358285781
3600000000.0,-0.94795821514,-0.219646627056,0.0519566267442,-0.22334959867,0.0519566267442,-0.22334959867,-0.94795821514,-0.219646627056
3700000000.0,-0.950594831298,-0.214191630879,0.0493194587933,-0.217998677362,0.0493194587933,-0.217998677362,-0.950594831298,-0.214191630879
3800000000.0,-0.953039345011,-0.208977515457,0.0468743813526,-0.212888723591,0.0468743813526,-0.212888723591,-0.953039345011,-0.208977515457
3900000000.0,-0.9553096938,-0.203989616958,0.0446034568305,-0.208005074927,0.0446034568305,-0.208005074927,-0.9553096938,-0.203989616958
4000000000.0,-0.957421802457,-0.199214314109,0.042490760366,-0.203334111484,0.042490760366,-0.203334111484,-0.957421802457,-0.199214314109
4100000000.0,-0.959389843558,-0.194638954573,0.0405221193141,-0.198863182294,0.0405221193141,-0.198863182294,-0.959389843558,-0.194638954573
4200000000.0,-0.961226460185,-0.190251784258,0.0386848905288,-0.19458053462,0.0386848905288,-0.19458053462,-0.961226460185,-0.190251784258
4300000000.0,-0.962942956856,-0.186041880277,0.0369677694279,-0.190475246916,0.0369677694279,-0.190475246916,-0.962942956856,-0.186041880277
4400000000.0,-0.964549463664,-0.18199908791,0.0353606258563,-0.186537165788,0.0353606258563,-0.186537165788,-0.964549463664,-0.18199908791
4500000000.0,-0.966055077751,-0.178113961732,0.0338543626095,-0.182756847129,0.0338543626095,-0.182756847129,-0.966055077751,-0.178113961732
4600000000.0,-0.967467985577,-0.17437771091,0.0324407931669,-0.17912550141,0.0324407931669,-0.17912550141,-0.967467985577,-0.17437771091
4700000000.0,-0.968795568853,-0.170782148547,0.0311125357584,-0.175634943028,0.0311125357584,-0.175634943028,-0.968795568853,-0.170782148547
4800000000.0,-0.970044496552,-0.167319644923,0.0298629213512,-0.172277543545,0.0298629213512,-0.172277543545,-0.970044496552,-0.167319644923
4900000000.0,-0.971220805027,-0.163983084409,0.0286859135343,-0.169046188607,0.0286859135343,-0.169046188607,-0.971220805027,-0.163983084409
5000000000.0,-0.972329967933,-0.160765825841,0.0275760385956,-0.165934238316,0.0275760385956,-0.165934238316,-0.972329967933,-0.160765825841
5100000000.0,-0.973376957392,-0.157661666105,0.0265283243557,-0.162935490816,0.0265283243557,-0.162935490816,-0.973376957392,-0.157661666105
5200000000.0,-0.974366297621,-0.154664806707,0.0255382465391,-0.160044148863,0.0255382465391,-0.160044148863,-0.974366297621,-0.154664806707
5300000000.0,-0.975302112057,-0.151769823086,0.0246016816538,-0.157254789141,0.0246016816538,-0.157254789141,-0.975302112057,-0.151769823086
5400000000.0,-0.976188164842,-0.148971636468,0.0237148654994,-0.154562334112,0.0237148654994,-0.154562334112,-0.976188164842,-0.148971636468
5500000000.0,-0.977027897441,-0.146265488033,0.0228743565561,-0.151962026191,0.0228743565561,-0.151962026191,-0.977027897441,-0.146265488033
5600000000.0,-0.977824461003,-0.143646915219,0.0220770036169,-0.149449404043,0.0220770036169,-0.149449404043,-0.977824461003,-0.143646915219
5700000000.0,-0.978580745043,-0.141111729974,0.0213199171127,-0.14702028084,0.0213199171127,-0.14702028084,-0.978580745043,-0.141111729974
5800000000.0,-0.979299402883,-0.138655998782,0.0206004436631,-0.144670724284,0.0206004436631,-0.144670724284,-0.979299402883,-0.138655998782
5900000000.0,-0.979982874289,-0.136276024326,0.0199161434466,-0.142397038277,0.0199161434466,-0.142397038277,-0.979982874289,-0.136276024326
6000000000.0,-0.980633405625,-0.133968328633,0.019264770042,-0.140195746059,0.019264770042,-0.140195746059,-0.980633405625,-0.133968328633
6100000000.0,-0.981253067845,-0.131729637581,0.0186442524397,-0.138063574719,0.0186442524397,-0.138063574719,-0.981253067845,-0.131729637581
6200000000.0,-0.981843772569,-0.12955686664,0.0180526789627,-0.135997440938,0.0180526789627,-0.135997440938,-0.981843772569,-0.12955686664
6300000000.0,-0.982407286481,-0.127447107752,0.0174882828687,-0.133994437865,0.0174882828687,-0.133994437865,-0.982407286481,-0.127447107752
6400000000.0,-0.982945244243,-0.125397617239,0.0169494294394,-0.132051823033,0.0169494294394,-0.132051823033,-0.982945244243,-0.125397617239
6500000000.0,-0.98345916009,-0.123405804667,0.0164346043826,-0.130167007214,0.0164346043826,-0.130167007214,-0.98345916009,-0.123405804667
6600000000.0,-0.983950438262,-0.121469222562,0.0159424033997,-0.128337544142,0.0159424033997,-0.128337544142,-0.983950438262,-0.121469222562
6700000000.0,-0.984420382405,-0.119585556924,0.0154715227858,-0.126561121024,0.0154715227858,-0.126561121024,-0.984420382405,-0.119585556924
6800000000.0,-0.984870204053,-0.117752618462,0.0150207509493,-0.124835549779,0.0150207509493,-0.124835549779,-0.984870204053,-0.117752618462
6900000000.0,-0.985301030288,-0.115968334493,0.0145889607496,-0.123158758935,0.0145889607496,-0.123158758935,-0.985301030288,-0.115968334493
7000000000.0,-0.985713910672,-0.114230741447,0.0141751025637,-0.121528786131,0.0141751025637,-0.121528786131,-0.985713910672,-0.114230741447
7100000000.0,-0.986109823533,-0.112537977921,0.0137781980055,-0.119943771183,0.0137781980055,-0.119943771183,-0.986109823533,-0.112537977921
7200000000.0,-0.986489681656,-0.110888278261,0.0133973342275,-0.118401949648,0.0133973342275,-0.118401949648,-0.986489681656,-0.110888278261
7300000000.0,-0.986854337467,-0.109279966588,0.0130316587451,-0.116901646869,0.0130316587451,-0.116901646869,-0.986854337467,-0.109279966588
7400000000.0,-0.987204587734,-0.107711451276,0.0126803747291,-0.115441272441,0.0126803747291,-0.115441272441,-0.987204587734,-0.107711451276
7500000000.0,-0.987541177853,-0.106181219813,0.0123427367194,-0.114019315077,0.0123427367194,-0.114019315077,-0.987541177853,-0.106181219813
7600000000.0,-0.987864805762,-0.104687834025,0.0120180467172,-0.112634337835,0.0120180467172,-0.112634337835,-0.987864805762,-0.104687834025
7700000000.0,-0.988176125503,-0.103229925644,0.0117056506181,-0.111284973676,0.0117056506181,-0.111284973676,-0.988176125503,-0.103229925644
7800000000.0,-0.988475750481,-0.101806192174,0.0114049349532,-0.109969921343,0.0114049349532,-0.109969921343,-0.988475750481,-0.101806192174
7900000000.0,-0.988764256446,-0.100415393045,0.0111153239075,-0.108687941509,0.0111153239075,-0.108687941509,-0.988764256446,-0.100415393045
8000000000.0,-0.989042184226,-0.0990563460314,0.0108362765897,-0.107437853195,0.0108362765897,-0.107437853195,-0.989042184226,-0.0990563460314
8100000000.0,-0.989310042225,-0.0977279239092,0.0105672845295,-0.106218530427,0.0105672845295,-0.106218530427,-0.989310042225,-0.0977279239092
8200000000.0,-0.989568308725,-0.0964290513363,0.0103078693805,-0.105028899122,0.0103078693805,-0.105028899122,-0.989568308725,-0.0964290513363
8300000000.0,-0.989817433991,-0.0951587019411,0.0100575808105,-0.103867934171,0.0100575808105,-0.103867934171,-0.989817433991,-0.0951587019411
8400000000.0,-0.990057842213,-0.0939158956012,0.00981599456129,-0.10273465672,0.00981599456129,-0.10273465672,-0.990057842213,-0.0939158956012
8500000000.0,-0.990289933294,-0.092699695899,0.00958271066322,-0.101628131627,0.00958271066322,-0.101628131627,-0.990289933294,-0.092699695899
8600000000.0,-0.990514084491,-0.0915092077409,0.00935735179009,-0.10054746508,0.00935735179009,-0.10054746508,-0.990514084491,-0.0915092077409
8700000000.0,-0.990730651935,-0.0903435751283,0.00913956174224,-0.0994918023681,0.00913956174224,-0.0994918023681,-0.990730651935,-0.0903435751283
8800000000.0,-0.990939972029,-0.0892019790696,0.0089290040466,-0.0984603257951,0.0089290040466,-0.0984603257951,-0.990939972029,-0.0892019790696
8900000000.0,-0.991142362742,-0.0880836356229,0.00872536066335,-0.0974522527209,0.00872536066335,-0.0974522527209,-0.991142362742,-0.0880836356229
9000000000.0,-0.991338124805,-0.0869877940596,0.00852833079023,-0.0964668337262,0.00852833079023,-0.0964668337262,-0.991338124805,-0.0869877940596
9100000000.0,-0.991527542817,-0.0859137351412,0.0083376297561,-0.0955033508896,0.0083376297561,-0.0955033508896,-0.991527542817,-0.0859137351412
9200000000.0,-0.991710886269,-0.084860769501,0.00815298799622,-0.0945611161689,0.00815298799622,-0.0945611161689,-0.991710886269,-0.084860769501
9300000000.0,-0.991888410497,-0.0838282361232,0.0079741501025,-0.0936394698809,0.0079741501025,-0.0936394698809,-0.991888410497,-0.0838282361232
9400000000.0,-0.992060357557,-0.0828155009135,0.0078008739425,-0.0927377792717,0.0078008739425,-0.0927377792717,-0.992060357557,-0.0828155009135
9500000000.0,-0.99222695705,-0.0818219553531,0.00763292984158,-0.0918554371718,0.00763292984158,-0.0918554371718,-0.99222695705,-0.0818219553531
9600000000.0,-0.992388426876,-0.0808470152333,0.00747009982307,-0.0909918607298,0.00747009982307,-0.0909918607298,-0.992388426876,-0.0808470152333
9700000000.0,-0.992544973943,-0.079890119463,0.00731217690183,-0.0901464902206,0.00731217690183,-0.0901464902206,-0.992544973943,-0.079890119463
9800000000.0,-0.992696794823,-0.0789507289444,0.007158964427,-0.0893187879217,0.007158964427,-0.0893187879217,-0.992696794823,-0.0789507289444
9900000000.0,-0.992844076368,-0.0780283255142,0.00701027547,-0.0885082370536,0.00701027547,-0.0885082370536,-0.992844076368,-0.0780283255142
10000000000.0,-0.992986996274,-0.077122410944,0.00686593225433,-0.0877143407813,0.00686593225433,-0.0877143407813,-0.992986996274,-0.077122410944
