freq (GHz),S11_real,S11_imag,S21_real,S21_imag,S12_real,S12_imag,S22_real,S22_imag
100000000.0,0.000166897121295,2.02315854013e-05,0.999831983139,-0.000138866026241,0.999831983139,-0.000138866026241,0.000166897121295,2.02315854013e-05
200000000.0,0.000167966407142,4.04626832374e-05,0.999830780036,-0.000277732388574,0.999830780036,-0.000277732388574,0.000167966407142,4.04626832375e-05
300000000.0,0.000168745441159,6.06933600589e-05,0.999829853107,-0.000416599591525,0.999829853107,-0.000416599591525,0.000168745441159,6.06933600588e-05
400000000.0,0.000169379650851,8.09236071518e-05,0.999829056925,-0.000555467965724,0.999829056925,-0.000555467965724,0.000169379650851,8.09236071518e-05
500000000.0,0.000169925041078,0.000101153404812,0.999828335483,-0.000694337778452,0.999828335483,-0.000694337778452,0.000169925041078,0.000101153404812
600000000.0,0.00017041017186,0.000121382729072,0.999827660221,-0.000833209262217,0.999827660221,-0.000833209262217,0.00017041017186,0.000121382729072
700000000.0,0.000170851913051,0.000141611555232,0.999827014266,-0.000972082625556,0.999827014266,-0.000972082625556,0.000170851913051,0.000141611555232
800000000.0,0.000171261193186,0.000161839859844,0.99982638669,-0.00111095805844,0.99982638669,-0.00111095805844,0.000171261193186,0.000161839859844
900000000.0,0.000171645558481,0.000182067619641,0.999825769944,-0.00124983573772,0.999825769944,-0.00124983573772,0.000171645558481,0.000182067619642
1000000000.0,0.000172010470879,0.000202294813024,0.999825158565,-0.00138871582846,0.999825158565,-0.00138871582846,0.000172010470879,0.000202294813024
1100000000.0,0.000172360028707,0.000222521419334,0.999824548454,-0.00152759848658,0.999824548454,-0.00152759848658,0.000172360028707,0.000222521419334
1200000000.0,0.000172697396261,0.000242747419058,0.999823936444,-0.00166648386012,0.999823936444,-0.00166648386012,0.000172697396261,0.000242747419058
1300000000.0,0.000173025074189,0.000262972793732,0.999823320034,-0.0018053720903,0.999823320034,-0.0018053720903,0.000173025074189,0.000262972793732
1400000000.0,0.000173345076994,0.00028319752631,0.999822697206,-0.00194426331203,0.999822697206,-0.00194426331203,0.000173345076993,0.00028319752631
1500000000.0,0.000173659054068,0.000303421600919,0.999822066311,-0.00208315765476,0.999822066311,-0.00208315765476,0.000173659054068,0.000303421600919
1600000000.0,0.000173968374702,0.000323645002545,0.999821425976,-0.00222205524332,0.999821425976,-0.00222205524332,0.000173968374702,0.000323645002545
1700000000.0,0.000174274189351,0.000343867717026,0.99982077505,-0.00236095619835,0.99982077505,-0.00236095619835,0.000174274189351,0.000343867717026
1800000000.0,0.000174577474619,0.000364089731656,0.999820112553,-0.00249986063605,0.999820112553,-0.00249986063605,0.000174577474619,0.000364089731656
1900000000.0,0.000174879067302,0.000384311034293,0.999819437648,-0.00263876866936,0.999819437648,-0.00263876866936,0.000174879067302,0.000384311034293
2000000000.0,0.000175179690145,0.000404531614013,0.99981874961,-0.00277768040756,0.99981874961,-0.00277768040756,0.000175179690144,0.000404531614013
2100000000.0,0.000175479971958,0.000424751460797,0.999818047807,-0.00291659595681,0.999818047807,-0.00291659595681,0.000175479971958,0.000424751460797
2200000000.0,0.000175780463433,0.000444970565102,0.999817331688,-0.00305551542075,0.999817331688,-0.00305551542075,0.000175780463433,0.000444970565101
2300000000.0,0.000176081649613,0.000465188918633,0.999816600764,-0.00319443889992,0.999816600764,-0.00319443889992,0.000176081649613,0.000465188918633
2400000000.0,0.000176383960055,0.000485406513723,0.999815854604,-0.00333336649248,0.999815854604,-0.00333336649248,0.000176383960055,0.000485406513723
2500000000.0,0.000176687776992,0.0005056233435,0.999815092824,-0.00347229829422,0.999815092824,-0.00347229829422,0.000176687776992,0.0005056233435
2600000000.0,0.00017699344206,0.000525839401979,0.99981431508,-0.00361123439854,0.99981431508,-0.00361123439854,0.00017699344206,0.000525839401979
2700000000.0,0.00017730126186,0.000546054683638,0.999813521063,-0.00375017489702,0.999813521063,-0.00375017489702,0.00017730126186,0.000546054683638
2800000000.0,0.000177611512575,0.000566269184033,0.999812710494,-0.00388911987884,0.999812710494,-0.00388911987884,0.000177611512575,0.000566269184033
2900000000.0,0.000177924443838,0.000586482899112,0.999811883122,-0.0040280694316,0.999811883122,-0.0040280694316,0.000177924443837,0.000586482899112
3000000000.0,0.000178240282003,0.000606695825593,0.999811038718,-0.004167023641,0.999811038718,-0.004167023641,0.000178240282003,0.000606695825593
3100000000.0,0.000178559232948,0.000626907960979,0.999810177073,-0.00430598259088,0.999810177073,-0.00430598259088,0.000178559232948,0.000626907960978
3200000000.0,0.000178881484407,0.000647119303272,0.999809297998,-0.00444494636357,0.999809297998,-0.00444494636357,0.000178881484407,0.000647119303272
3300000000.0,0.00017920720805,0.000667329851029,0.999808401319,-0.00458391503991,0.999808401319,-0.00458391503991,0.00017920720805,0.000667329851029
3400000000.0,0.000179536561189,0.000687539603668,0.999807486874,-0.00472288869899,0.999807486874,-0.00472288869899,0.000179536561189,0.000687539603668
3500000000.0,0.000179869688335,0.000707748561004,0.999806554519,-0.00486186741863,0.999806554519,-0.00486186741863,0.000179869688335,0.000707748561004
3600000000.0,0.000180206722501,0.000727956723536,0.999805604116,-0.00500085127521,0.999805604116,-0.00500085127521,0.000180206722501,0.000727956723536
3700000000.0,0.000180547786371,0.000748164092292,0.999804635541,-0.00513984034377,0.999804635541,-0.00513984034377,0.000180547786371,0.000748164092292
3800000000.0,0.000180892993294,0.000768370668824,0.999803648678,-0.00527883469814,0.999803648678,-0.00527883469814,0.000180892993294,0.000768370668824
3900000000.0,0.000181242448202,0.000788576455248,0.999802643419,-0.00541783441088,0.999802643419,-0.00541783441088,0.000181242448202,0.000788576455248
4000000000.0,0.000181596248369,0.000808781454283,0.999801619665,-0.00555683955329,0.999801619665,-0.00555683955329,0.000181596248369,0.000808781454283
4100000000.0,0.000181954484127,0.000828985669107,0.999800577322,-0.0056958501956,0.999800577322,-0.0056958501956,0.000181954484127,0.000828985669107
4200000000.0,0.00018231723948,0.000849189103358,0.999799516303,-0.00583486640698,0.999799516303,-0.00583486640698,0.000182317239481,0.000849189103358
4300000000.0,0.000182684592655,0.000869391761332,0.999798436529,-0.00597388825536,0.999798436529,-0.00597388825536,0.000182684592655,0.000869391761332
4400000000.0,0.000183056616595,0.000889593647617,0.999797337922,-0.00611291580786,0.999797337922,-0.00611291580786,0.000183056616595,0.000889593647617
4500000000.0,0.0001834333794,0.000909794767438,0.999796220413,-0.00625194913042,0.999796220413,-0.00625194913042,0.0001834333794,0.000909794767438
4600000000.0,0.000183814944726,0.00092999512641,0.999795083935,-0.00639098828811,0.999795083935,-0.00639098828811,0.000183814944725,0.00092999512641
4700000000.0,0.000184201372141,0.000950194730662,0.999793928425,-0.00653003334498,0.999793928425,-0.00653003334498,0.000184201372141,0.000950194730662
4800000000.0,0.000184592717452,0.000970393586737,0.999792753825,-0.00666908436425,0.999792753825,-0.00666908436425,0.000184592717452,0.000970393586737
4900000000.0,0.000184989032982,0.000990591701657,0.99979156008,-0.0068081414082,0.99979156008,-0.0068081414082,0.000184989032982,0.000990591701657
5000000000.0,0.000185390367855,0.00101078908281,0.999790347137,-0.00694720453831,0.999790347137,-0.00694720453831,0.000185390367855,0.00101078908281
5100000000.0,0.000185796768211,0.00103098573812,0.999789114949,-0.00708627381515,0.999789114949,-0.00708627381515,0.000185796768211,0.00103098573812
5200000000.0,0.000186208277451,0.00105118167586,0.999787863468,-0.00722534929852,0.999787863468,-0.00722534929852,0.000186208277451,0.00105118167586
5300000000.0,0.00018662493641,0.00107137690477,0.999786592651,-0.00736443104742,0.999786592651,-0.00736443104742,0.00018662493641,0.00107137690477
5400000000.0,0.00018704678356,0.00109157143394,0.999785302456,-0.00750351912009,0.999785302456,-0.00750351912009,0.000187046783559,0.00109157143394
5500000000.0,0.000187473855156,0.00111176527292,0.999783992844,-0.00764261357401,0.999783992844,-0.00764261357401,0.000187473855156,0.00111176527292
5600000000.0,0.000187906185406,0.0011319584316,0.999782663779,-0.00778171446596,0.999782663779,-0.00778171446596,0.000187906185406,0.0011319584316
5700000000.0,0.000188343806596,0.00115215092028,0.999781315224,-0.007920821852,0.999781315224,-0.007920821852,0.000188343806596,0.00115215092028
5800000000.0,0.000188786749227,0.00117234274969,0.999779947147,-0.00805993578744,0.999779947147,-0.00805993578744,0.000188786749227,0.00117234274969
5900000000.0,0.000189235042128,0.0011925339309,0.999778559516,-0.00819905632696,0.999778559516,-0.00819905632696,0.000189235042129,0.0011925339309
6000000000.0,0.000189688712571,0.00121272447527,0.9997771523,-0.00833818352467,0.9997771523,-0.00833818352467,0.000189688712571,0.00121272447527
6100000000.0,0.000190147786355,0.00123291439465,0.99977572547,-0.00847731743389,0.99977572547,-0.00847731743389,0.000190147786355,0.00123291439465
6200000000.0,0.000190612287919,0.00125310370126,0.999774279,-0.00861645810731,0.999774279,-0.00861645810731,0.000190612287919,0.00125310370126
6300000000.0,0.000191082240413,0.00127329240748,0.999772812862,-0.00875560559722,0.999772812862,-0.00875560559722,0.000191082240413,0.00127329240748
6400000000.0,0.000191557665784,0.00129348052632,0.999771327033,-0.00889475995502,0.999771327033,-0.00889475995502,0.000191557665784,0.00129348052632
6500000000.0,0.000192038584848,0.00131366807089,0.999769821487,-0.00903392123174,0.999769821487,-0.00903392123174,0.000192038584848,0.00131366807089
6600000000.0,0.000192525017352,0.00133385505476,0.999768296203,-0.00917308947774,0.999768296203,-0.00917308947774,0.000192525017352,0.00133385505476
6700000000.0,0.000193016982049,0.00135404149183,0.999766751158,-0.00931226474285,0.999766751158,-0.00931226474285,0.000193016982049,0.00135404149183
6800000000.0,0.000193514496747,0.0013742273963,0.999765186332,-0.00945144707634,0.999765186332,-0.00945144707634,0.000193514496747,0.0013742273963
6900000000.0,0.000194017578369,0.00139441278268,0.999763601705,-0.00959063652697,0.999763601705,-0.00959063652697,0.000194017578369,0.00139441278268
7000000000.0,0.000194526243,0.00141459766583,0.999761997257,-0.00972983314294,0.999761997257,-0.00972983314294,0.000194526243,0.00141459766583
7100000000.0,0.000195040505938,0.00143478206091,0.999760372969,-0.00986903697199,0.999760372969,-0.00986903697199,0.000195040505938,0.00143478206091
7200000000.0,0.000195560381735,0.00145496598346,0.999758728826,-0.0100082480612,0.999758728826,-0.0100082480612,0.000195560381735,0.00145496598346
7300000000.0,0.000196085884248,0.00147514944917,0.999757064808,-0.0101474664575,0.999757064808,-0.0101474664575,0.000196085884248,0.00147514944917
7400000000.0,0.000196617026663,0.00149533247418,0.9997553809,-0.0102866922069,0.9997553809,-0.0102866922069,0.000196617026663,0.00149533247418
7500000000.0,0.000197153821541,0.00151551507489,0.999753677087,-0.0104259253552,0.999753677087,-0.0104259253552,0.000197153821541,0.00151551507489
7600000000.0,0.000197696280853,0.00153569726793,0.999751953353,-0.0105651659478,0.999751953353,-0.0105651659478,0.000197696280853,0.00153569726793
7700000000.0,0.000198244416006,0.00155587907032,0.999750209684,-0.0107044140294,0.999750209684,-0.0107044140294,0.000198244416006,0.00155587907032
7800000000.0,0.00019879823788,0.0015760604993,0.999748446065,-0.0108436696445,0.999748446065,-0.0108436696445,0.00019879823788,0.0015760604993
7900000000.0,0.000199357756848,0.00159624157238,0.999746662484,-0.010982932837,0.999746662484,-0.010982932837,0.000199357756848,0.00159624157238
8000000000.0,0.000199922982812,0.00161642230742,0.999744858926,-0.0111222036504,0.999744858926,-0.0111222036504,0.000199922982812,0.00161642230742
8100000000.0,0.000200493925218,0.00163660272249,0.99974303538,-0.0112614821279,0.99974303538,-0.0112614821279,0.000200493925218,0.00163660272249
8200000000.0,0.000201070593089,0.00165678283597,0.999741191833,-0.0114007683121,0.999741191833,-0.0114007683121,0.000201070593089,0.00165678283597
8300000000.0,0.000201652995041,0.00167696266647,0.999739328273,-0.0115400622453,0.999739328273,-0.0115400622453,0.000201652995041,0.00167696266647
8400000000.0,0.000202241139302,0.00169714223294,0.999737444689,-0.0116793639694,0.999737444689,-0.0116793639694,0.000202241139302,0.00169714223294
8500000000.0,0.00020283503374,0.00171732155449,0.99973554107,-0.011818673526,0.99973554107,-0.011818673526,0.00020283503374,0.00171732155449
8600000000.0,0.000203434685874,0.00173750065056,0.999733617406,-0.011957990956,0.999733617406,-0.011957990956,0.000203434685874,0.00173750065056
8700000000.0,0.000204040102896,0.00175767954083,0.999731673685,-0.0120973163004,0.999731673685,-0.0120973163004,0.000204040102896,0.00175767954083
8800000000.0,0.000204651291682,0.00177785824525,0.999729709897,-0.0122366495993,0.999729709897,-0.0122366495993,0.000204651291683,0.00177785824525
8900000000.0,0.000205268258818,0.00179803678394,0.999727726034,-0.012375990893,0.999727726034,-0.012375990893,0.000205268258818,0.00179803678394
9000000000.0,0.000205891010602,0.0018182151774,0.999725722085,-0.0125153402209,0.999725722085,-0.0125153402209,0.000205891010601,0.0018182151774
9100000000.0,0.000206519553064,0.00183839344625,0.999723698041,-0.0126546976225,0.999723698041,-0.0126546976225,0.000206519553064,0.00183839344625
9200000000.0,0.000207153891985,0.0018585716114,0.999721653894,-0.0127940631366,0.999721653894,-0.0127940631366,0.000207153891986,0.0018585716114
9300000000.0,0.000207794032901,0.00187874969401,0.999719589634,-0.0129334368019,0.999719589634,-0.0129334368019,0.000207794032901,0.00187874969401
9400000000.0,0.000208439981116,0.00189892771547,0.999717505252,-0.0130728186567,0.999717505252,-0.0130728186567,0.000208439981116,0.00189892771547
9500000000.0,0.00020909174172,0.00191910569736,0.999715400742,-0.0132122087389,0.999715400742,-0.0132122087389,0.00020909174172,0.00191910569736
9600000000.0,0.000209749319591,0.00193928366159,0.999713276093,-0.0133516070862,0.999713276093,-0.0133516070862,0.000209749319591,0.00193928366159
9700000000.0,0.000210412719412,0.00195946163015,0.999711131299,-0.0134910137358,0.999711131299,-0.0134910137358,0.000210412719412,0.00195946163015
9800000000.0,0.000211081945676,0.00197963962539,0.999708966352,-0.0136304287249,0.999708966352,-0.0136304287249,0.000211081945676,0.00197963962539
9900000000.0,0.000211757002699,0.00199981766981,0.999706781245,-0.01376985209,0.999706781245,-0.01376985209,0.000211757002699,0.00199981766981
10000000000.0,0.000212437894625,0.00201999578614,0.999704575969,-0.0139092838677,0.999704575969,-0.0139092838677,0.000212437894625,0.00201999578614
