freq (GHz),S11_real,S11_imag,S21_real,S21_imag,S12_real,S12_imag,S22_real,S22_imag
100000000.0,0.000171677996412,-0.00480449645665,0.999755637305,-0.00623267414398,0.999755637305,-0.00623267414398,0.000171677996412,-0.00480449645665
200000000.0,7.78559953583e-05,-0.00960834627497,0.999655944541,-0.0124647823557,0.999655944541,-0.0124647823557,7.78559953585e-05,-0.00960834627497
300000000.0,-7.62111816638e-05,-0.0144107986787,0.999494685444,-0.018695625952,0.999494685444,-0.018695625952,-7.62111816639e-05,-0.0144107986787
400000000.0,-0.000290322292599,-0.019211049632,0.999271702193,-0.024924441416,0.999271702193,-0.024924441416,-0.000290322292599,-0.019211049632
500000000.0,-0.000564372255604,-0.024008267428,0.998986961289,-0.0311504323315,0.998986961289,-0.0311504323315,-0.000564372255604,-0.024008267428
600000000.0,-0.000898274615868,-0.0288016021674,0.998640478026,-0.0373727807982,0.998640478026,-0.0373727807982,-0.000898274615868,-0.0288016021674
700000000.0,-0.00129194141796,-0.0335901908661,0.998232297772,-0.0435906534847,0.998232297772,-0.0435906534847,-0.00129194141796,-0.0335901908661
800000000.0,-0.00174527559668,-0.0383731607312,0.997762489425,-0.0498032054568,0.997762489425,-0.0498032054568,-0.00174527559668,-0.0383731607312
900000000.0,-0.00225816741474,-0.0431496315008,0.997231142687,-0.0560095828752,0.997231142687,-0.0560095828752,-0.00225816741474,-0.0431496315008
1000000000.0,-0.00283049253946,-0.0479187172495,0.996638366807,-0.0622089250496,0.996638366807,-0.0622089250496,-0.00283049253946,-0.0479187172495
1100000000.0,-0.00346211089416,-0.0526795278605,0.995984289963,-0.0684003660928,0.995984289963,-0.0684003660928,-0.00346211089416,-0.0526795278605
1200000000.0,-0.00415286592215,-0.0574311702771,0.995269058955,-0.0745830363105,0.995269058955,-0.0745830363105,-0.00415286592215,-0.0574311702771
1300000000.0,-0.00490258409253,-0.0621727496026,0.994492839035,-0.0807560634087,0.994492839035,-0.0807560634087,-0.00490258409253,-0.0621727496026
1400000000.0,-0.00571107456043,-0.0669033700898,0.993655813822,-0.0869185735695,0.993655813822,-0.0869185735695,-0.00571107456043,-0.0669033700898
1500000000.0,-0.0065781289329,-0.0716221360478,0.99275818524,-0.0930696924293,0.99275818524,-0.0930696924293,-0.0065781289329,-0.0716221360478
1600000000.0,-0.00750352111242,-0.0763281526867,0.991800173472,-0.0992085459818,0.991800173472,-0.0992085459818,-0.00750352111242,-0.0763281526867
1700000000.0,-0.00848700720019,-0.0810205269114,0.990782016908,-0.105334261422,0.990782016908,-0.105334261422,-0.00848700720019,-0.0810205269114
1800000000.0,-0.00952832544804,-0.0856983680752,0.989703972089,-0.11144596794,0.989703972089,-0.11144596794,-0.00952832544804,-0.0856983680752
1900000000.0,-0.0106271962512,-0.0903607886999,0.98856631363,-0.117542797482,0.98856631363,-0.117542797482,-0.0106271962512,-0.0903607886999
2000000000.0,-0.0117833221767,-0.0950069051661,0.987369334134,-0.123623885468,0.987369334134,-0.123623885468,-0.0117833221767,-0.0950069051661
2100000000.0,-0.0129963880234,-0.0996358383792,0.986113344085,-0.129688371488,0.986113344085,-0.129688371488,-0.0129963880234,-0.0996358383792
2200000000.0,-0.014266060911,-0.104246714412,0.984798671718,-0.135735399968,0.984798671718,-0.135735399968,-0.014266060911,-0.104246714412
2300000000.0,-0.015591990395,-0.108838665127,0.98342566288,-0.141764120819,0.98342566288,-0.141764120819,-0.015591990395,-0.108838665127
2400000000.0,-0.0169738086071,-0.113410828781,0.981994680866,-0.147773690054,0.981994680866,-0.147773690054,-0.0169738086071,-0.113410828781
2500000000.0,-0.0184111304182,-0.117962350608,0.980506106235,-0.153763270395,0.980506106235,-0.153763270395,-0.0184111304182,-0.117962350608
2600000000.0,-0.0199035536231,-0.122492383391,0.978960336611,-0.159732031855,0.978960336611,-0.159732031855,-0.0199035536231,-0.122492383391
2700000000.0,-0.0214506591467,-0.127000088007,0.977357786467,-0.165679152309,0.977357786467,-0.165679152309,-0.0214506591467,-0.127000088007
2800000000.0,-0.023052011269,-0.131484633971,0.975698886887,-0.171603818035,0.975698886887,-0.171603818035,-0.023052011269,-0.131484633971
2900000000.0,-0.0247071578694,-0.135945199947,0.973984085314,-0.177505224254,0.973984085314,-0.177505224254,-0.0247071578694,-0.135945199947
3000000000.0,-0.0264156306887,-0.140380974256,0.972213845281,-0.183382575636,0.972213845281,-0.183382575636,-0.0264156306887,-0.140380974256
3100000000.0,-0.0281769456077,-0.144791155361,0.970388646128,-0.189235086806,0.970388646128,-0.189235086806,-0.0281769456077,-0.144791155361
3200000000.0,-0.0299906029431,-0.14917495234,0.9685089827,-0.195061982818,0.9685089827,-0.195061982818,-0.0299906029431,-0.14917495234
3300000000.0,-0.0318560877574,-0.15353158534,0.966575365031,-0.200862499626,0.966575365031,-0.200862499626,-0.0318560877574,-0.15353158534
3400000000.0,-0.0337728701847,-0.157860286017,0.964588318018,-0.206635884526,0.964588318018,-0.206635884526,-0.0337728701847,-0.157860286017
3500000000.0,-0.0357404057695,-0.16216029796,0.962548381077,-0.212381396592,0.962548381077,-0.212381396592,-0.0357404057695,-0.16216029796
3600000000.0,-0.0377581358196,-0.166430877099,0.960456107789,-0.218098307089,0.960456107789,-0.218098307089,-0.0377581358196,-0.166430877099
3700000000.0,-0.0398254877702,-0.170671292093,0.95831206553,-0.22378589987,0.95831206553,-0.22378589987,-0.0398254877702,-0.170671292093
3800000000.0,-0.0419418755608,-0.174880824706,0.956116835098,-0.229443471757,0.956116835098,-0.229443471757,-0.0419418755608,-0.174880824706
3900000000.0,-0.0441067000225,-0.179058770167,0.953871010319,-0.235070332908,0.953871010319,-0.235070332908,-0.0441067000225,-0.179058770167
4000000000.0,-0.046319349276,-0.183204437507,0.951575197648,-0.240665807158,0.951575197648,-0.240665807158,-0.046319349276,-0.183204437507
4100000000.0,-0.0485791991382,-0.187317149887,0.949230015765,-0.246229232356,0.949230015765,-0.246229232356,-0.0485791991382,-0.187317149887
4200000000.0,-0.050885613539,-0.191396244902,0.946836095152,-0.251759960671,0.946836095152,-0.251759960671,-0.050885613539,-0.191396244902
4300000000.0,-0.0532379449447,-0.195441074875,0.944394077672,-0.257257358892,0.944394077672,-0.257257358892,-0.0532379449447,-0.195441074875
4400000000.0,-0.0556355347898,-0.199451007129,0.941904616134,-0.262720808704,0.941904616134,-0.262720808704,-0.0556355347898,-0.199451007129
4500000000.0,-0.0580777139157,-0.203425424242,0.939368373855,-0.268149706949,0.939368373855,-0.268149706949,-0.0580777139157,-0.203425424242
4600000000.0,-0.0605638030137,-0.207363724287,0.936786024216,-0.273543465871,0.936786024216,-0.273543465871,-0.0605638030137,-0.207363724287
4700000000.0,-0.0630931130758,-0.211265321058,0.934158250208,-0.278901513339,0.934158250208,-0.278901513339,-0.0630931130758,-0.211265321058
4800000000.0,-0.0656649458478,-0.21512964427,0.931485743984,-0.284223293061,0.931485743984,-0.284223293061,-0.0656649458478,-0.21512964427
4900000000.0,-0.0682785942876,-0.218956139748,0.928769206394,-0.289508264769,0.928769206394,-0.289508264769,-0.0682785942876,-0.218956139748
5000000000.0,-0.0709333430267,-0.222744269603,0.926009346524,-0.294755904402,0.926009346524,-0.294755904402,-0.0709333430267,-0.222744269603
5100000000.0,-0.0736284688337,-0.226493512378,0.923206881237,-0.299965704255,0.923206881237,-0.299965704255,-0.0736284688337,-0.226493512378
5200000000.0,-0.0763632410803,-0.230203363197,0.9203625347,-0.305137173128,0.9203625347,-0.305137173128,-0.0763632410803,-0.230203363197
5300000000.0,-0.0791369222082,-0.233873333873,0.917477037921,-0.310269836443,0.917477037921,-0.310269836443,-0.0791369222082,-0.233873333873
5400000000.0,-0.0819487681974,-0.237502953023,0.914551128277,-0.315363236355,0.914551128277,-0.315363236355,-0.0819487681974,-0.237502953023
5500000000.0,-0.0847980290332,-0.241091766152,0.911585549049,-0.320416931845,0.911585549049,-0.320416931845,-0.0847980290332,-0.241091766152
5600000000.0,-0.0876839491744,-0.244639335724,0.908581048953,-0.325430498788,0.908581048953,-0.325430498788,-0.0876839491744,-0.244639335724
5700000000.0,-0.0906057680188,-0.24814524122,0.905538381674,-0.330403530019,0.905538381674,-0.330403530019,-0.0906057680188,-0.24814524122
5800000000.0,-0.0935627203681,-0.251609079179,0.902458305399,-0.335335635372,0.902458305399,-0.335335635372,-0.0935627203681,-0.251609079179
5900000000.0,-0.0965540368903,-0.25503046322,0.899341582356,-0.340226441706,0.899341582356,-0.340226441706,-0.0965540368903,-0.25503046322
6000000000.0,-0.0995789445786,-0.258409024057,0.896188978354,-0.345075592923,0.896188978354,-0.345075592923,-0.0995789445786,-0.258409024057
6100000000.0,-0.102636667208,-0.261744409488,0.893001262327,-0.349882749957,0.893001262327,-0.349882749957,-0.102636667208,-0.261744409488
6200000000.0,-0.105726425788,-0.26503628438,0.88977920588,-0.354647590765,0.88977920588,-0.354647590765,-0.105726425788,-0.26503628438
6300000000.0,-0.108847439009,-0.268284330633,0.88652358284,-0.359369810288,0.88652358284,-0.359369810288,-0.108847439009,-0.268284330633
6400000000.0,-0.111998923689,-0.271488247133,0.883235168815,-0.364049120408,0.883235168815,-0.364049120408,-0.111998923689,-0.271488247133
6500000000.0,-0.115180095207,-0.274647749689,0.879914740753,-0.36868524989,0.879914740753,-0.36868524989,-0.115180095207,-0.274647749689
6600000000.0,-0.11839016794,-0.277762570962,0.876563076511,-0.373277944306,0.876563076511,-0.373277944306,-0.11839016794,-0.277762570962
6700000000.0,-0.121628355685,-0.280832460371,0.873180954425,-0.377826965949,0.873180954425,-0.377826965949,-0.121628355685,-0.280832460371
6800000000.0,-0.124893872084,-0.283857183999,0.869769152894,-0.382332093738,0.869769152894,-0.382332093738,-0.124893872084,-0.283857183999
6900000000.0,-0.128185931033,-0.28683652448,0.866328449963,-0.386793123104,0.866328449963,-0.386793123104,-0.128185931033,-0.28683652448
7000000000.0,-0.131503747089,-0.289770280869,0.86285962292,-0.391209865869,0.86285962292,-0.391209865869,-0.131503747089,-0.289770280869
7100000000.0,-0.13484653587,-0.292658268515,0.859363447893,-0.39558215011,0.859363447893,-0.39558215011,-0.13484653587,-0.292658268515
7200000000.0,-0.138213514442,-0.295500318909,0.855840699461,-0.399909820017,0.855840699461,-0.399909820017,-0.138213514442,-0.295500318909
7300000000.0,-0.141603901708,-0.298296279527,0.852292150273,-0.404192735734,0.852292150273,-0.404192735734,-0.141603901708,-0.298296279527
7400000000.0,-0.145016918773,-0.301046013668,0.848718570668,-0.408430773199,0.848718570668,-0.408430773199,-0.145016918773,-0.301046013668
7500000000.0,-0.148451789321,-0.303749400272,0.845120728317,-0.41262382396,0.845120728317,-0.41262382396,-0.148451789321,-0.303749400272
7600000000.0,-0.151907739959,-0.306406333736,0.841499387855,-0.416771794998,0.841499387855,-0.416771794998,-0.151907739959,-0.306406333736
7700000000.0,-0.155384000577,-0.309016723719,0.837855310545,-0.420874608529,0.837855310545,-0.420874608529,-0.155384000577,-0.309016723719
7800000000.0,-0.158879804677,-0.311580494942,0.83418925393,-0.424932201805,0.83418925393,-0.424932201805,-0.158879804677,-0.311580494942
7900000000.0,-0.162394389707,-0.314097586971,0.830501971506,-0.4289445269,0.830501971506,-0.4289445269,-0.162394389707,-0.314097586971
8000000000.0,-0.165926997379,-0.316567954002,0.826794212405,-0.432911550495,0.826794212405,-0.432911550495,-0.165926997379,-0.316567954002
8100000000.0,-0.169476873979,-0.318991564636,0.823066721079,-0.436833253654,0.823066721079,-0.436833253654,-0.169476873979,-0.318991564636
8200000000.0,-0.173043270666,-0.321368401643,0.819320237006,-0.44070963159,0.819320237006,-0.44070963159,-0.173043270666,-0.321368401643
8300000000.0,-0.176625443765,-0.323698461726,0.815555494395,-0.444540693426,0.815555494395,-0.444540693426,-0.176625443765,-0.323698461726
8400000000.0,-0.180222655043,-0.325981755276,0.811773221907,-0.448326461957,0.811773221907,-0.448326461957,-0.180222655043,-0.325981755276
8500000000.0,-0.183834171981,-0.32821830612,0.807974142384,-0.452066973395,0.807974142384,-0.452066973395,-0.183834171981,-0.32821830612
8600000000.0,-0.187459268036,-0.330408151269,0.804158972589,-0.455762277117,0.804158972589,-0.455762277117,-0.187459268036,-0.330408151269
8700000000.0,-0.191097222886,-0.332551340657,0.800328422955,-0.459412435405,0.800328422955,-0.459412435405,-0.191097222886,-0.332551340657
8800000000.0,-0.194747322673,-0.334647936876,0.796483197348,-0.463017523185,0.796483197348,-0.463017523185,-0.194747322673,-0.334647936876
8900000000.0,-0.198408860234,-0.336698014907,0.792623992831,-0.466577627758,0.792623992831,-0.466577627758,-0.198408860234,-0.336698014907
9000000000.0,-0.202081135314,-0.338701661855,0.788751499448,-0.47009284853,0.788751499448,-0.47009284853,-0.202081135314,-0.338701661855
9100000000.0,-0.205763454783,-0.340658976668,0.784866400016,-0.473563296739,0.784866400016,-0.473563296739,-0.205763454783,-0.340658976668
9200000000.0,-0.209455132829,-0.342570069864,0.78096936992,-0.476989095177,0.78096936992,-0.476989095177,-0.209455132829,-0.342570069864
9300000000.0,-0.213155491153,-0.344435063251,0.777061076927,-0.480370377915,0.777061076927,-0.480370377915,-0.213155491153,-0.344435063251
9400000000.0,-0.216863859141,-0.346254089643,0.773142181005,-0.483707290018,0.773142181005,-0.483707290018,-0.216863859141,-0.346254089643
9500000000.0,-0.220579574042,-0.348027292584,0.769213334154,-0.486999987266,0.769213334154,-0.486999987266,-0.220579574042,-0.348027292584
9600000000.0,-0.22430198112,-0.349754826057,0.765275180244,-0.490248635869,0.765275180244,-0.490248635869,-0.22430198112,-0.349754826057
9700000000.0,-0.228030433809,-0.351436854204,0.761328354864,-0.493453412184,0.761328354864,-0.493453412184,-0.228030433809,-0.351436854204
9800000000.0,-0.231764293851,-0.353073551037,0.757373485182,-0.496614502428,0.757373485182,-0.496614502428,-0.231764293851,-0.353073551037
9900000000.0,-0.235502931429,-0.354665100155,0.753411189815,-0.499732102397,0.753411189815,-0.499732102397,-0.235502931429,-0.354665100155
10000000000.0,-0.239245725288,-0.356211694457,0.749442078704,-0.502806417172,0.749442078704,-0.502806417172,-0.239245725288,-0.356211694457
