freq (GHz),S11_real,S11_imag,S21_real,S21_imag,S12_real,S12_imag,S22_real,S22_imag
100000000.0,0.00558429527116,0.00228489068755,0.994407167259,-0.00533996148042,0.994407167259,-0.00533996148042,0.00558429527116,0.00228489068755
200000000.0,0.0056567417037,0.00456893882415,0.994317831755,-0.0106791057164,0.994317831755,-0.0106791057164,0.0056567417037,0.00456893882415
300000000.0,0.00574397319088,0.00685208426791,0.994204358453,-0.0160173910174,0.994204358453,-0.0160173910174,0.00574397319088,0.00685208426791
400000000.0,0.0058507927638,0.00913411885531,0.994061942831,-0.0213546217202,0.994061942831,-0.0213546217202,0.0058507927638,0.00913411885531
500000000.0,0.00597903948277,0.0114148003145,0.993888744,-0.0266905650246,0.993888744,-0.0266905650246,0.00597903948277,0.0114148003145
600000000.0,0.00612964040892,0.0136938715171,0.993683832748,-0.0320249712735,0.993683832748,-0.0320249712735,0.00612964040892,0.0136938715171
700000000.0,0.00630313211113,0.0159710674147,0.993446670045,-0.0373575814166,0.993446670045,-0.0373575814166,0.00630313211113,0.0159710674147
800000000.0,0.00649985094873,0.0182461182799,0.993176916768,-0.0426881305652,0.993176916768,-0.0426881305652,0.00649985094873,0.0182461182799
900000000.0,0.00672001777178,0.020518751468,0.992874349016,-0.0480163499627,0.992874349016,-0.0480163499627,0.00672001777178,0.020518751468
1000000000.0,0.00696378084271,0.0227886924796,0.992538815191,-0.0533419681941,0.992538815191,-0.0533419681941,0.00696378084271,0.0227886924796
1100000000.0,0.007231239691,0.0250556656545,0.992170212155,-0.0586647119869,0.992170212155,-0.0586647119869,0.007231239691,0.0250556656545
1200000000.0,0.00752245932621,0.0273193946523,0.991768471019,-0.0639843067751,0.991768471019,-0.0639843067751,0.00752245932621,0.0273193946523
1300000000.0,0.00783747918068,0.029579602804,0.991333548209,-0.0693004771156,0.991333548209,-0.0693004771156,0.00783747918068,0.029579602804
1400000000.0,0.00817631898968,0.0318360133801,0.990865419589,-0.0746129470084,0.990865419589,-0.0746129470084,0.00817631898968,0.0318360133801
1500000000.0,0.00853898280119,0.034088349803,0.990364076457,-0.079921440152,0.990364076457,-0.079921440152,0.00853898280119,0.034088349803
1600000000.0,0.00892546179559,0.036336335821,0.989829522731,-0.0852256801527,0.989829522731,-0.0852256801527,0.00892546179559,0.036336335821
1700000000.0,0.0093357363217,0.0385796956547,0.989261772914,-0.0905253907016,0.989261772914,-0.0905253907016,0.0093357363217,0.0385796956547
1800000000.0,0.00976977740121,0.0408181541234,0.988660850593,-0.0958202957258,0.988660850593,-0.0958202957258,0.00976977740121,0.0408181541234
1900000000.0,0.0102275478633,0.0430514367565,0.988026787313,-0.101110119523,0.988026787313,-0.101110119523,0.0102275478633,0.0430514367565
2000000000.0,0.0107090032162,0.0452792698933,0.987359621701,-0.106394586878,0.987359621701,-0.106394586878,0.0107090032162,0.0452792698933
2100000000.0,0.0112140923281,0.0475013807745,0.986659398795,-0.111673423176,0.986659398795,-0.111673423176,0.0112140923281,0.0475013807745
2200000000.0,0.0117427579673,0.0497174976258,0.9859261695,-0.116946354494,0.9859261695,-0.116946354494,0.0117427579673,0.0497174976258
2300000000.0,0.0122949372368,0.0519273497363,0.985159990163,-0.122213107699,0.985159990163,-0.122213107699,0.0122949372368,0.0519273497363
2400000000.0,0.0128705619294,0.0541306675326,0.984360922215,-0.127473410529,0.984360922215,-0.127473410529,0.0128705619294,0.0541306675326
2500000000.0,0.0134695588206,0.0563271826485,0.983529031883,-0.132726991674,0.983529031883,-0.132726991674,0.0134695588206,0.0563271826485
2600000000.0,0.0140918499141,0.0585166279915,0.982664389945,-0.137973580856,0.982664389945,-0.137973580856,0.0140918499141,0.0585166279915
2700000000.0,0.0147373526504,0.0606987378071,0.981767071525,-0.143212908894,0.981767071525,-0.143212908894,0.0147373526504,0.0606987378071
2800000000.0,0.0154059800841,0.0628732477399,0.980837155917,-0.14844470778,0.980837155917,-0.14844470778,0.0154059800841,0.0628732477399
2900000000.0,0.0160976410398,0.0650398948934,0.979874726431,-0.153668710741,0.979874726431,-0.153668710741,0.0160976410398,0.0650398948934
3000000000.0,0.0168122402468,0.0671984178871,0.978879870259,-0.158884652307,0.978879870259,-0.158884652307,0.0168122402468,0.0671984178871
3100000000.0,0.0175496784601,0.0693485569129,0.977852678359,-0.164092268367,0.977852678359,-0.164092268367,0.0175496784601,0.0693485569129
3200000000.0,0.0183098525678,0.0714900537887,0.976793245345,-0.169291296232,0.976793245345,-0.169291296232,0.0183098525678,0.0714900537887
3300000000.0,0.0190926556893,0.0736226520116,0.975701669394,-0.174481474692,0.975701669394,-0.174481474692,0.0190926556893,0.0736226520116
3400000000.0,0.0198979772641,0.0757460968095,0.974578052154,-0.179662544073,0.974578052154,-0.179662544073,0.0198979772641,0.0757460968095
3500000000.0,0.0207257031344,0.077860135191,0.973422498669,-0.184834246289,0.973422498669,-0.184834246289,0.0207257031344,0.077860135191
3600000000.0,0.0215757156217,0.0799645159948,0.972235117298,-0.189996324894,0.972235117298,-0.189996324894,0.0215757156217,0.0799645159948
3700000000.0,0.0224478935992,0.0820589899374,0.971016019648,-0.195148525139,0.971016019648,-0.195148525139,0.0224478935992,0.0820589899374
3800000000.0,0.0233421125593,0.0841433096598,0.969765320505,-0.200290594014,0.969765320505,-0.200290594014,0.0233421125593,0.0841433096598
3900000000.0,0.024258244679,0.0862172297733,0.968483137771,-0.205422280303,0.968483137771,-0.205422280303,0.024258244679,0.0862172297733
4000000000.0,0.0251961588818,0.0882805069041,0.967169592402,-0.210543334626,0.967169592402,-0.210543334626,0.0251961588818,0.0882805069041
4100000000.0,0.0261557208974,0.0903328997372,0.965824808353,-0.215653509488,0.965824808353,-0.215653509488,0.0261557208974,0.0903328997372
4200000000.0,0.0271367933201,0.0923741690585,0.964448912516,-0.220752559327,0.964448912516,-0.220752559327,0.0271367933201,0.0923741690585
4300000000.0,0.0281392356652,0.0944040777967,0.963042034665,-0.225840240549,0.963042034665,-0.225840240549,0.0281392356652,0.0944040777967
4400000000.0,0.0291629044241,0.0964223910642,0.961604307407,-0.230916311578,0.961604307407,-0.230916311578,0.0291629044241,0.0964223910642
4500000000.0,0.0302076531183,0.0984288761961,0.960135866123,-0.235980532894,0.960135866123,-0.235980532894,0.0302076531183,0.0984288761961
4600000000.0,0.0312733323531,0.100423302789,0.958636848917,-0.241032667074,0.958636848917,-0.241032667074,0.0312733323531,0.100423302789
4700000000.0,0.0323597898696,0.102405442741,0.957107396566,-0.246072478832,0.957107396566,-0.246072478832,0.0323597898696,0.102405442741
4800000000.0,0.0334668705972,0.104375070282,0.955547652469,-0.251099735054,0.955547652469,-0.251099735054,0.0334668705972,0.104375070282
4900000000.0,0.0345944167045,0.106331962018,0.953957762592,-0.256114204838,0.953957762592,-0.256114204838,0.0345944167045,0.106331962018
5000000000.0,0.0357422676509,0.10827589696,0.952337875423,-0.261115659529,0.952337875423,-0.261115659529,0.0357422676509,0.10827589696
5100000000.0,0.0369102602372,0.11020665656,0.950688141919,-0.266103872752,0.950688141919,-0.266103872752,0.0369102602372,0.11020665656
5200000000.0,0.038098228656,0.112124024742,0.949008715457,-0.27107862045,0.949008715457,-0.27107862045,0.038098228656,0.112124024742
5300000000.0,0.0393060045423,0.114027787938,0.947299751784,-0.27603968091,0.947299751784,-0.27603968091,0.0393060045423,0.114027787938
5400000000.0,0.0405334170235,0.115917735114,0.945561408966,-0.2809868348,0.945561408966,-0.2809868348,0.0405334170235,0.115917735114
5500000000.0,0.0417802927699,0.117793657803,0.943793847341,-0.2859198652,0.943793847341,-0.2859198652,0.0417802927699,0.117793657803
5600000000.0,0.0430464560444,0.119655350134,0.94199722947,-0.290838557625,0.94199722947,-0.290838557625,0.0430464560444,0.119655350134
5700000000.0,0.0443317287526,0.121502608858,0.940171720082,-0.295742700062,0.940171720082,-0.295742700062,0.0443317287526,0.121502608858
5800000000.0,0.0456359304928,0.123335233379,0.938317486031,-0.30063208299,0.938317486031,-0.30063208299,0.0456359304928,0.123335233379
5900000000.0,0.0469588786061,0.125153025774,0.936434696244,-0.305506499412,0.936434696244,-0.305506499412,0.0469588786061,0.125153025774
6000000000.0,0.0483003882262,0.126955790826,0.93452352167,-0.310365744877,0.93452352167,-0.310365744877,0.0483003882262,0.126955790826
6100000000.0,0.0496602723293,0.128743336042,0.932584135234,-0.315209617504,0.932584135234,-0.315209617504,0.0496602723293,0.128743336042
6200000000.0,0.0510383417842,0.130515471677,0.930616711784,-0.320037918009,0.930616711784,-0.320037918009,0.0510383417842,0.130515471677
6300000000.0,0.0524344054023,0.13227201076,0.928621428043,-0.324850449723,0.928621428043,-0.324850449723,0.0524344054023,0.13227201076
6400000000.0,0.0538482699875,0.134012769111,0.926598462559,-0.329647018616,0.926598462559,-0.329647018616,0.0538482699875,0.134012769111
6500000000.0,0.0552797403861,0.135737565367,0.924547995657,-0.334427433316,0.924547995657,-0.334427433316,0.0552797403861,0.135737565367
6600000000.0,0.0567286195369,0.137446220993,0.922470209387,-0.339191505129,0.922470209387,-0.339191505129,0.0567286195369,0.137446220993
6700000000.0,0.0581947085213,0.139138560309,0.920365287475,-0.343939048056,0.920365287475,-0.343939048056,0.0581947085213,0.139138560309
6800000000.0,0.0596778066128,0.140814410501,0.918233415276,-0.348669878813,0.918233415276,-0.348669878813,0.0596778066128,0.140814410501
6900000000.0,0.0611777113275,0.142473601644,0.91607477972,-0.353383816844,0.91607477972,-0.353383816844,0.0611777113275,0.142473601644
7000000000.0,0.0626942184734,0.144115966711,0.913889569267,-0.358080684338,0.913889569267,-0.358080684338,0.0626942184734,0.144115966711
7100000000.0,0.0642271222007,0.145741341592,0.911677973853,-0.362760306241,0.911677973853,-0.362760306241,0.0642271222007,0.145741341592
7200000000.0,0.0657762150515,0.147349565106,0.909440184843,-0.367422510275,0.909440184843,-0.367422510275,0.0657762150515,0.147349565106
7300000000.0,0.0673412880094,0.148940479015,0.907176394982,-0.372067126945,0.907176394982,-0.372067126945,0.0673412880094,0.148940479015
7400000000.0,0.068922130549,0.150513928036,0.904886798345,-0.376693989549,0.904886798345,-0.376693989549,0.068922130549,0.150513928036
7500000000.0,0.0705185306859,0.15206975985,0.902571590287,-0.381302934197,0.902571590287,-0.381302934197,0.0705185306859,0.15206975985
7600000000.0,0.0721302750258,0.153607825114,0.900230967394,-0.385893799809,0.900230967394,-0.385893799809,0.0721302750258,0.153607825114
7700000000.0,0.0737571488137,0.155127977469,0.897865127436,-0.390466428134,0.897865127436,-0.390466428134,0.0737571488137,0.155127977469
7800000000.0,0.0753989359835,0.15663007355,0.895474269314,-0.39502066375,0.895474269314,-0.39502066375,0.0753989359835,0.15663007355
7900000000.0,0.0770554192067,0.158113972991,0.893058593014,-0.399556354075,0.893058593014,-0.399556354075,0.0770554192067,0.158113972991
8000000000.0,0.0787263799413,0.159579538434,0.890618299559,-0.40407334937,0.890618299559,-0.40407334937,0.0787263799413,0.159579538434
8100000000.0,0.0804115984808,0.161026635532,0.888153590958,-0.408571502746,0.888153590958,-0.408571502746,0.0804115984808,0.161026635532
8200000000.0,0.0821108540021,0.162455132957,0.88566467016,-0.413050670166,0.88566467016,-0.413050670166,0.0821108540021,0.162455132957
8300000000.0,0.0838239246146,0.1638649024,0.883151741004,-0.417510710451,0.883151741004,-0.417510710451,0.0838239246146,0.1638649024
8400000000.0,0.0855505874076,0.165255818576,0.880615008172,-0.421951485277,0.880615008172,-0.421951485277,0.0855505874076,0.165255818576
8500000000.0,0.0872906184984,0.166627759228,0.878054677143,-0.426372859183,0.878054677143,-0.426372859183,0.0872906184984,0.166627759228
8600000000.0,0.0890437930802,0.167980605125,0.87547095414,-0.430774699563,0.87547095414,-0.430774699563,0.0890437930802,0.167980605125
8700000000.0,0.0908098854688,0.169314240065,0.872864046089,-0.435156876674,0.872864046089,-0.435156876674,0.0908098854688,0.169314240065
8800000000.0,0.0925886691503,0.170628550872,0.87023416057,-0.43951926363,0.87023416057,-0.43951926363,0.0925886691503,0.170628550872
8900000000.0,0.0943799168276,0.171923427398,0.86758150577,-0.443861736399,0.86758150577,-0.443861736399,0.0943799168276,0.171923427398
9000000000.0,0.0961834004669,0.173198762521,0.864906290434,-0.448184173804,0.864906290434,-0.448184173804,0.0961834004669,0.173198762521
9100000000.0,0.0979988913438,0.174454452138,0.862208723824,-0.452486457515,0.862208723824,-0.452486457515,0.0979988913438,0.174454452138
9200000000.0,0.0998261600895,0.175690395166,0.859489015671,-0.456768472047,0.859489015671,-0.456768472047,0.0998261600895,0.175690395166
9300000000.0,0.101664976736,0.176906493537,0.856747376128,-0.461030104753,0.856747376128,-0.461030104753,0.101664976736,0.176906493537
9400000000.0,0.103515110761,0.178102652191,0.853984015726,-0.465271245821,0.853984015726,-0.465271245821,0.103515110761,0.178102652191
9500000000.0,0.105376331133,0.179278779072,0.851199145331,-0.469491788262,0.851199145331,-0.469491788262,0.105376331133,0.179278779072
9600000000.0,0.107248406357,0.180434785122,0.848392976097,-0.473691627905,0.848392976097,-0.473691627905,0.107248406357,0.180434785122
9700000000.0,0.109131104515,0.181570584273,0.845565719425,-0.477870663391,0.845565719425,-0.477870663391,0.109131104515,0.181570584273
9800000000.0,0.111024193314,0.182686093437,0.842717586917,-0.482028796159,0.842717586917,-0.482028796159,0.111024193314,0.182686093437
9900000000.0,0.112927440127,0.183781232502,0.839848790332,-0.486165930438,0.839848790332,-0.486165930438,0.112927440127,0.183781232502
10000000000.0,0.114840612036,0.184855924318,0.836959541547,-0.490281973239,0.836959541547,-0.490281973239,0.114840612036,0.184855924318
