freq (GHz),S11_real,S11_imag,S21_real,S21_imag,S12_real,S12_imag,S22_real,S22_imag
100000000.0,-0.00025015983631,-0.0159630904072,0.999698257931,-0.0162493806833,0.999698257931,-0.0162493806833,-0.000250159836311,-0.0159630904072
200000000.0,-0.00104348021299,-0.0318999637841,0.998904463355,-0.0324726327004,0.998904463355,-0.0324726327004,-0.00104348021299,-0.0318999637841
300000000.0,-0.0023524109765,-0.0477856644411,0.997595065111,-0.0486448455399,0.997595065111,-0.0486448455399,-0.0023524109765,-0.0477856644411
400000000.0,-0.00417284202916,-0.0635955235917,0.995774128781,-0.0647413845382,0.995774128781,-0.0647413845382,-0.00417284202916,-0.0635955235917
500000000.0,-0.00649912140643,-0.0793052732533,0.99344728914,-0.0807380099934,0.99344728914,-0.0807380099934,-0.00649912140643,-0.0793052732533
600000000.0,-0.00932408971065,-0.0948911634077,0.990621696741,-0.0966109961675,0.990621696741,-0.0966109961675,-0.00932408971065,-0.0948911634077
700000000.0,-0.0126391324655,-0.110330075607,0.987305960753,-0.112337245846,0.987305960753,-0.112337245846,-0.0126391324655,-0.110330075607
800000000.0,-0.0164342441821,-0.125599630749,0.983510083139,-0.127894398699,0.983510083139,-0.127894398699,-0.0164342441821,-0.125599630749
900000000.0,-0.0206981022422,-0.140678289599,0.979245383998,-0.14326093219,0.979245383998,-0.14326093219,-0.0206981022422,-0.140678289599
1000000000.0,-0.0254181493232,-0.155545444984,0.97452441875,-0.158416254063,0.97452441875,-0.158416254063,-0.0254181493232,-0.155545444984
1100000000.0,-0.0305806831751,-0.170181504834,0.969360888139,-0.173340785604,0.969360888139,-0.173340785604,-0.0305806831751,-0.170181504834
1200000000.0,-0.0361709525524,-0.184567965434,0.963769542174,-0.188016035058,0.963769542174,-0.188016035058,-0.0361709525524,-0.184567965434
1300000000.0,-0.0421732580797,-0.198687474405,0.957766079184,-0.202424660765,0.957766079184,-0.202424660765,-0.0421732580797,-0.198687474405
1400000000.0,-0.0485710568188,-0.212523883146,0.951367041196,-0.216550523711,0.951367041196,-0.216550523711,-0.0485710568188,-0.212523883146
1500000000.0,-0.0553470693106,-0.226062288584,0.944589706861,-0.230378729391,0.944589706861,-0.230378729391,-0.0553470693106,-0.226062288584
1600000000.0,-0.0624833878922,-0.239289064277,0.93745198311,-0.243895658996,0.93745198311,-0.243895658996,-0.0624833878922,-0.239289064277
1700000000.0,-0.0699615851327,-0.252191881025,0.929972296703,-0.257088990105,0.929972296703,-0.257088990105,-0.0699615851327,-0.252191881025
1800000000.0,-0.077762821292,-0.264759717305,0.922169486753,-0.269947707193,0.922169486753,-0.269947707193,-0.077762821292,-0.264759717305
1900000000.0,-0.0858679497856,-0.276982859938,0.914062699259,-0.282462102359,0.914062699259,-0.282462102359,-0.0858679497856,-0.276982859938
2000000000.0,-0.0942576197227,-0.288852895523,0.905671284555,-0.29462376682,0.905671284555,-0.29462376682,-0.0942576197227,-0.288852895523
2100000000.0,-0.102912374685,-0.300362693247,0.897014698528,-0.306425573776,0.897014698528,-0.306425573776,-0.102912374685,-0.300362693247
2200000000.0,-0.111812747015,-0.311506379755,0.888112408324,-0.317861653323,0.888112408324,-0.317861653323,-0.111812747015,-0.311506379755
2300000000.0,-0.120939347002,-0.32227930681,0.878983803163,-0.328927360164,0.878983803163,-0.328927360164,-0.120939347002,-0.32227930681
2400000000.0,-0.130272946432,-0.332678012531,0.869648110781,-0.339619234882,0.869648110781,-0.339619234882,-0.130272946432,-0.332678012531
2500000000.0,-0.139794556132,-0.342700176984,0.860124319889,-0.349934959576,0.860124319889,-0.349934959576,-0.139794556132,-0.342700176984
2600000000.0,-0.149485497176,-0.352344572961,0.85043110896,-0.35987330867,0.85043110896,-0.35987330867,-0.149485497176,-0.352344572961
2700000000.0,-0.159327465585,-0.361611012707,0.840586781533,-0.369434095674,0.840586781533,-0.369434095674,-0.159327465585,-0.361611012707
2800000000.0,-0.169302590405,-0.370500291411,0.830609208129,-0.378618116709,0.830609208129,-0.378618116709,-0.169302590405,-0.370500291411
2900000000.0,-0.179393485151,-0.379014128191,0.820515774812,-0.387427091514,0.820515774812,-0.387427091514,-0.179393485151,-0.379014128191
3000000000.0,-0.189583292686,-0.387155105291,0.810323338301,-0.395863602676,0.810323338301,-0.395863602676,-0.189583292686,-0.387155105291
3100000000.0,-0.199855723672,-0.394926606178,0.800048187527,-0.403931033747,0.800048187527,-0.403931033747,-0.199855723672,-0.394926606178
3200000000.0,-0.210195088784,-0.402332753139,0.789706011414,-0.411633506867,0.789706011414,-0.411633506867,-0.210195088784,-0.402332753139
3300000000.0,-0.220586324936,-0.409378344968,0.779311872651,-0.418975820468,0.779311872651,-0.418975820468,-0.220586324936,-0.409378344968
3400000000.0,-0.231015015824,-0.416068795238,0.768880187154,-0.425963387575,0.768880187154,-0.425963387575,-0.231015015824,-0.416068795238
3500000000.0,-0.24146740709,-0.422410071644,0.758424708897,-0.432602175154,0.758424708897,-0.432602175154,-0.24146740709,-0.422410071644
3600000000.0,-0.251930416479,-0.428408636775,0.747958519754,-0.438898644917,0.747958519754,-0.438898644917,-0.251930416479,-0.428408636775
3700000000.0,-0.262391639348,-0.43407139071,0.737494023996,-0.444859695918,0.737494023996,-0.444859695918,-0.262391639348,-0.43407139071
3800000000.0,-0.272839349907,-0.439405615676,0.727042947044,-0.450492609239,0.727042947044,-0.450492609239,-0.272839349907,-0.439405615676
3900000000.0,-0.283262498582,-0.444418923054,0.716616338106,-0.455804995004,0.716616338106,-0.455804995004,-0.283262498582,-0.444418923054
4000000000.0,-0.293650705884,-0.449119202885,0.706224576311,-0.460804741898,0.706224576311,-0.460804741898,-0.293650705884,-0.449119202885
4100000000.0,-0.30399425316,-0.453514576037,0.695877379954,-0.465499969349,0.695877379954,-0.465499969349,-0.30399425316,-0.453514576037
4200000000.0,-0.314284070593,-0.457613349139,0.685583818501,-0.469898982468,0.685583818501,-0.469898982468,-0.314284070593,-0.457613349139
4300000000.0,-0.32451172281,-0.461423972325,0.675352326974,-0.474010229808,0.675352326974,-0.474010229808,-0.32451172281,-0.461423972325
4400000000.0,-0.334669392437,-0.464954999839,0.665190722404,-0.477842263981,0.665190722404,-0.477842263981,-0.334669392437,-0.464954999839
4500000000.0,-0.344749861914,-0.468215053489,0.655106222007,-0.481403705111,0.655106222007,-0.481403705111,-0.344749861914,-0.468215053489
4600000000.0,-0.354746493881,-0.471212788919,0.645105462804,-0.484703207126,0.645105462804,-0.484703207126,-0.354746493881,-0.471212788919
4700000000.0,-0.364653210411,-0.473956864658,0.635194522388,-0.487749426806,0.635194522388,-0.487749426806,-0.364653210411,-0.473956864658
4800000000.0,-0.374464471339,-0.476455913868,0.625378940589,-0.490550995542,0.625378940589,-0.490550995542,-0.374464471339,-0.476455913868
4900000000.0,-0.384175251938,-0.478718518707,0.615663741804,-0.493116493706,0.615663741804,-0.493116493706,-0.384175251938,-0.478718518707
5000000000.0,-0.393781020154,-0.480753187212,0.606053457762,-0.495454427538,0.606053457762,-0.495454427538,-0.393781020154,-0.480753187212
5100000000.0,-0.403277713575,-0.482568332586,0.596552150547,-0.49757320844,0.596552150547,-0.49757320844,-0.403277713575,-0.482568332586
5200000000.0,-0.412661716341,-0.484172254775,0.587163435699,-0.499481134559,0.587163435699,-0.499481134559,-0.412661716341,-0.484172254775
5300000000.0,-0.421929836112,-0.485573124216,0.577890505237,-0.501186374535,0.577890505237,-0.501186374535,-0.421929836112,-0.485573124216
5400000000.0,-0.431079281259,-0.486778967626,0.568736150472,-0.502696953301,0.568736150472,-0.502696953301,-0.431079281259,-0.486778967626
5500000000.0,-0.440107638372,-0.4877976557,0.559702784497,-0.50402073978,0.559702784497,-0.50402073978,-0.440107638372,-0.4877976557
5600000000.0,-0.449012850205,-0.488636892604,0.550792464246,-0.505165436385,0.550792464246,-0.505165436385,-0.449012850205,-0.488636892604
5700000000.0,-0.457793194121,-0.489304207124,0.542006912042,-0.506138570166,0.542006912042,-0.506138570166,-0.457793194121,-0.489304207124
5800000000.0,-0.466447261134,-0.489806945348,0.533347536563,-0.506947485504,0.533347536563,-0.506947485504,-0.466447261134,-0.489806945348
5900000000.0,-0.474973935581,-0.490152264774,0.524815453162,-0.50759933821,0.524815453162,-0.50759933821,-0.474973935581,-0.490152264774
6000000000.0,-0.483372375485,-0.490347129699,0.516411503507,-0.50810109093,0.516411503507,-0.50810109093,-0.483372375485,-0.490347129699
6100000000.0,-0.491641993646,-0.490398307814,0.508136274495,-0.508459509727,0.508136274495,-0.508459509727,-0.491641993646,-0.490398307814
6200000000.0,-0.499782439473,-0.490312367858,0.499990116412,-0.508681161753,0.499990116412,-0.508681161753,-0.499782439473,-0.490312367858
6300000000.0,-0.507793581584,-0.490095678262,0.491973160334,-0.508772413881,0.491973160334,-0.508772413881,-0.507793581584,-0.490095678262
6400000000.0,-0.51567549119,-0.489754406666,0.484085334751,-0.508739432231,0.484085334751,-0.508739432231,-0.51567549119,-0.489754406666
6500000000.0,-0.52342842625,-0.489294520222,0.476326381401,-0.508588182474,0.476326381401,-0.508588182474,-0.52342842625,-0.489294520222
6600000000.0,-0.531052816406,-0.488721786604,0.468695870342,-0.508324430842,0.468695870342,-0.508324430842,-0.531052816406,-0.488721786604
6700000000.0,-0.538549248692,-0.488041775638,0.461193214241,-0.507953745759,0.461193214241,-0.507953745759,-0.538549248692,-0.488041775638
6800000000.0,-0.545918453997,-0.487259861482,0.453817681909,-0.507481500021,0.453817681909,-0.507481500021,-0.545918453997,-0.487259861482
6900000000.0,-0.553161294279,-0.486381225282,0.446568411091,-0.506912873454,0.446568411091,-0.506912873454,-0.553161294279,-0.486381225282
7000000000.0,-0.560278750495,-0.485410858247,0.439444420531,-0.506252855991,0.439444420531,-0.506252855991,-0.560278750495,-0.485410858247
7100000000.0,-0.567271911249,-0.484353565077,0.432444621329,-0.5055062511,0.432444621329,-0.5055062511,-0.567271911249,-0.484353565077
7200000000.0,-0.574141962112,-0.4832139677,0.425567827616,-0.504677679519,0.425567827616,-0.504677679519,-0.574141962112,-0.4832139677
7300000000.0,-0.580890175612,-0.481996509259,0.418812766569,-0.503771583244,0.418812766569,-0.503771583244,-0.580890175612,-0.481996509259
7400000000.0,-0.587517901851,-0.480705458307,0.412178087788,-0.502792229729,0.412178087788,-0.502792229729,-0.587517901851,-0.480705458307
7500000000.0,-0.594026559738,-0.479344913174,0.405662372069,-0.501743716248,0.405662372069,-0.501743716248,-0.594026559738,-0.479344913174
7600000000.0,-0.600417628801,-0.477918806466,0.399264139586,-0.500629974394,0.399264139586,-0.500629974394,-0.600417628801,-0.477918806466
7700000000.0,-0.60669264156,-0.476430909659,0.392981857525,-0.499454774678,0.392981857525,-0.499454774678,-0.60669264156,-0.476430909659
7800000000.0,-0.612853176426,-0.474884837767,0.386813947177,-0.498221731191,0.386813947177,-0.498221731191,-0.612853176426,-0.474884837767
7900000000.0,-0.618900851109,-0.473284054046,0.380758790536,-0.496934306314,0.380758790536,-0.496934306314,-0.618900851109,-0.473284054046
8000000000.0,-0.624837316504,-0.471631874725,0.374814736409,-0.495595815442,0.374814736409,-0.495595815442,-0.624837316504,-0.471631874725
8100000000.0,-0.630664251033,-0.469931473728,0.368980106079,-0.494209431713,0.368980106079,-0.494209431713,-0.630664251033,-0.469931473728
8200000000.0,-0.636383355408,-0.468185887378,0.363253198536,-0.492778190707,0.363253198536,-0.492778190707,-0.636383355408,-0.468185887378
8300000000.0,-0.641996347808,-0.466398019066,0.357632295301,-0.491304995114,0.357632295301,-0.491304995114,-0.641996347808,-0.466398019066
8400000000.0,-0.647504959436,-0.464570643862,0.352115664875,-0.489792619351,0.352115664875,-0.489792619351,-0.647504959436,-0.464570643862
8500000000.0,-0.65291093043,-0.462706413074,0.346701566819,-0.488243714115,0.346701566819,-0.488243714115,-0.65291093043,-0.462706413074
8600000000.0,-0.65821600612,-0.460807858723,0.341388255504,-0.486660810857,0.341388255504,-0.486660810857,-0.65821600612,-0.460807858723
8700000000.0,-0.663421933591,-0.45887739794,0.336173983544,-0.485046326184,0.336173983544,-0.485046326184,-0.663421933591,-0.45887739794
8800000000.0,-0.668530458556,-0.456917337276,0.331057004925,-0.483402566163,0.331057004925,-0.483402566163,-0.668530458556,-0.456917337276
8900000000.0,-0.673543322496,-0.454929876906,0.326035577865,-0.48173173053,0.326035577865,-0.48173173053,-0.673543322496,-0.454929876906
9000000000.0,-0.678462260063,-0.452917114744,0.321107967407,-0.480035916799,0.321107967407,-0.480035916799,-0.678462260063,-0.452917114744
9100000000.0,-0.683288996731,-0.450881050444,0.316272447775,-0.478317124266,0.316272447775,-0.478317124266,-0.683288996731,-0.450881050444
9200000000.0,-0.688025246665,-0.448823589295,0.311527304497,-0.476577257905,0.311527304497,-0.476577257905,-0.688025246665,-0.448823589295
9300000000.0,-0.692672710805,-0.446746546011,0.306870836329,-0.474818132151,0.306870836329,-0.474818132151,-0.692672710805,-0.446746546011
9400000000.0,-0.697233075145,-0.444651648398,0.302301356968,-0.473041474575,0.302301356968,-0.473041474575,-0.697233075145,-0.444651648398
9500000000.0,-0.701708009197,-0.442540540918,0.297817196594,-0.471248929441,0.297817196594,-0.471248929441,-0.701708009197,-0.442540540918
9600000000.0,-0.706099164618,-0.440414788136,0.293416703242,-0.469442061158,0.293416703242,-0.469442061158,-0.706099164618,-0.440414788136
9700000000.0,-0.710408174,-0.438275878057,0.289098244008,-0.467622357608,0.289098244008,-0.467622357608,-0.710408174,-0.438275878057
9800000000.0,-0.714636649798,-0.436125225343,0.284860206123,-0.465791233374,0.284860206123,-0.465791233374,-0.714636649798,-0.436125225343
9900000000.0,-0.718786183403,-0.433964174432,0.280700997887,-0.463950032848,0.280700997887,-0.463950032848,-0.718786183403,-0.433964174432
10000000000.0,-0.722858344323,-0.431794002534,0.276619049473,-0.462100033234,0.276619049473,-0.462100033234,-0.722858344323,-0.431794002534
