freq (GHz),S11_real,S11_imag,S21_real,S21_imag,S12_real,S12_imag,S22_real,S22_imag
100000000.0,0.100522641651,0.00385266680385,0.899474140668,-0.00521931276269,0.899474140668,-0.00521931276269,0.100522641651,0.00385266680385
200000000.0,0.101183433352,0.00769263407928,0.898809193033,-0.0104259332455,0.898809193033,-0.0104259332455,0.101183433352,0.00769263407928
300000000.0,0.101726288977,0.0115241934707,0.898260242304,-0.0156241617344,0.898260242304,-0.0156241617344,0.101726288977,0.0115241934707
400000000.0,0.102230359711,0.0153484200343,0.897748136579,-0.020815081412,0.897748136579,-0.020815081412,0.102230359711,0.0153484200343
500000000.0,0.1027261492,0.019165641916,0.897242371563,-0.0259990282936,0.897242371563,-0.0259990282936,0.1027261492,0.019165641916
600000000.0,0.103229201227,0.0229758576178,0.896727402842,-0.0311760085834,0.896727402842,-0.0311760085834,0.103229201227,0.0229758576178
700000000.0,0.103748672371,0.0267788859619,0.896194073203,-0.0363458486845,0.896194073203,-0.0363458486845,0.103748672371,0.0267788859619
800000000.0,0.104290463561,0.0305744357394,0.895636481068,-0.0415082648759,0.895636481068,-0.0415082648759,0.104290463561,0.0305744357394
900000000.0,0.104858615542,0.0343621432104,0.895050585015,-0.0466629008298,0.895050585015,-0.0466629008298,0.104858615542,0.0343621432104
1000000000.0,0.105456016766,0.0381415943919,0.894433495889,-0.0518093499133,0.894433495889,-0.0518093499133,0.105456016766,0.0381415943919
1100000000.0,0.106084797191,0.0419123392936,0.893783082989,-0.056947169432,0.893783082989,-0.056947169432,0.106084797191,0.0419123392936
1200000000.0,0.106746563129,0.0456739015255,0.893097739228,-0.0620758902466,0.893097739228,-0.0620758902466,0.106746563129,0.0456739015255
1300000000.0,0.107442545111,0.0494257850773,0.892376233257,-0.0671950235567,0.892376233257,-0.0671950235567,0.107442545111,0.0494257850773
1400000000.0,0.108173695174,0.0531674792783,0.891617612182,-0.0723040658655,0.891617612182,-0.0723040658655,0.108173695174,0.0531674792783
1500000000.0,0.108940753223,0.0568984625405,0.890821135195,-0.0774025027269,0.890821135195,-0.0774025027269,0.108940753223,0.0568984625405
1600000000.0,0.109744293703,0.0606182052601,0.889986226906,-0.0824898116497,0.889986226906,-0.0824898116497,0.109744293703,0.0606182052601
1700000000.0,0.110584759281,0.064326172118,0.889112443658,-0.0875654644013,0.889112443658,-0.0875654644013,0.110584759281,0.064326172118
1800000000.0,0.111462485713,0.0680218239435,0.888199448659,-0.092628928873,0.888199448659,-0.092628928873,0.111462485713,0.0680218239435
1900000000.0,0.112377720571,0.0717046192505,0.887246993254,-0.0976796706183,0.887246993254,-0.0976796706183,0.112377720571,0.0717046192505
2000000000.0,0.113330637593,0.0753740155251,0.886254902575,-0.102717154143,0.886254902575,-0.102717154143,0.113330637593,0.0753740155251
2100000000.0,0.114321347857,0.079029470321,0.885223064366,-0.107740844,0.885223064366,-0.107740844,0.114321347857,0.079029470321
2200000000.0,0.115349908606,0.0826704422033,0.884151420159,-0.112750205737,0.884151420159,-0.112750205737,0.115349908606,0.0826704422033
2300000000.0,0.116416330306,0.086296391571,0.883039958214,-0.117744706719,0.883039958214,-0.117744706719,0.116416330306,0.086296391571
2400000000.0,0.117520582371,0.0899067813825,0.881888707794,-0.122723816854,0.881888707794,-0.122723816854,0.117520582371,0.0899067813825
2500000000.0,0.118662597844,0.0935010778002,0.880697734485,-0.127687009241,0.880697734485,-0.127687009241,0.118662597844,0.0935010778002
2600000000.0,0.119842277277,0.0970787507683,0.879467136313,-0.132633760745,0.879467136313,-0.132633760745,0.119842277277,0.0970787507683
2700000000.0,0.121059491976,0.100639274535,0.878197040501,-0.137563552524,0.878197040501,-0.137563552524,0.121059491976,0.100639274535
2800000000.0,0.122314086739,0.104182128127,0.876887600732,-0.1424758705,0.876887600732,-0.1424758705,0.122314086739,0.104182128127
2900000000.0,0.123605882188,0.107706795783,0.875538994813,-0.147370205798,0.875538994813,-0.147370205798,0.123605882188,0.107706795783
3000000000.0,0.124934676774,0.111212767352,0.87415142267,-0.15224605514,0.87415142267,-0.15224605514,0.124934676774,0.111212767352
3100000000.0,0.12630024852,0.114699538659,0.872725104611,-0.157102921216,0.872725104611,-0.157102921216,0.12630024852,0.114699538659
3200000000.0,0.127702356537,0.118166611846,0.871260279803,-0.161940313022,0.871260279803,-0.161940313022,0.127702356537,0.118166611846
3300000000.0,0.129140742362,0.121613495685,0.869757204935,-0.166757746173,0.869757204935,-0.166757746173,0.129140742362,0.121613495685
3400000000.0,0.13061513115,0.125039705871,0.868216153029,-0.171554743202,0.868216153029,-0.171554743202,0.13061513115,0.125039705871
3500000000.0,0.132125232737,0.128444765292,0.866637412375,-0.176330833823,0.866637412375,-0.176330833823,0.132125232737,0.128444765292
3600000000.0,0.133670742595,0.131828204288,0.865021285575,-0.181085555195,0.865021285575,-0.181085555195,0.133670742595,0.131828204288
3700000000.0,0.135251342705,0.135189560879,0.863368088671,-0.185818452151,0.863368088671,-0.185818452151,0.135251342705,0.135189560879
3800000000.0,0.136866702348,0.138528380991,0.861678150352,-0.19052907742,0.861678150352,-0.19052907742,0.136866702348,0.138528380991
3900000000.0,0.138516478837,0.141844218661,0.859951811227,-0.195216991837,0.859951811227,-0.195216991837,0.138516478837,0.141844218661
4000000000.0,0.14020031819,0.145136636225,0.858189423145,-0.199881764527,0.858189423145,-0.199881764527,0.14020031819,0.145136636225
4100000000.0,0.141917855756,0.148405204497,0.856391348573,-0.20452297309,0.856391348573,-0.20452297309,0.141917855756,0.148405204497
4200000000.0,0.143668716804,0.151649502936,0.854557960005,-0.209140203763,0.854557960005,-0.209140203763,0.143668716804,0.151649502936
4300000000.0,0.145452517075,0.154869119797,0.852689639414,-0.213733051573,0.852689639414,-0.213733051573,0.145452517075,0.154869119797
4400000000.0,0.147268863295,0.158063652273,0.850786777732,-0.218301120479,0.850786777732,-0.218301120479,0.147268863295,0.158063652273
4500000000.0,0.149117353677,0.161232706623,0.848849774355,-0.222844023504,0.848849774355,-0.222844023504,0.149117353677,0.161232706623
4600000000.0,0.150997578382,0.164375898298,0.846879036674,-0.227361382852,0.846879036674,-0.227361382852,0.150997578382,0.164375898298
4700000000.0,0.152909119973,0.167492852041,0.844874979632,-0.231852830022,0.844874979632,-0.231852830022,0.152909119973,0.167492852041
4800000000.0,0.154851553838,0.170583201995,0.842838025288,-0.2363180059,0.842838025288,-0.2363180059,0.154851553838,0.170583201995
4900000000.0,0.156824448608,0.173646591786,0.840768602408,-0.240756560857,0.840768602408,-0.240756560857,0.156824448608,0.173646591786
5000000000.0,0.15882736655,0.176682674605,0.838667146068,-0.245168154823,0.838667146068,-0.245168154823,0.15882736655,0.176682674605
5100000000.0,0.160859863952,0.17969111328,0.836534097272,-0.249552457359,0.836534097272,-0.249552457359,0.160859863952,0.17969111328
5200000000.0,0.162921491495,0.182671580336,0.834369902575,-0.253909147721,0.834369902575,-0.253909147721,0.162921491495,0.182671580336
5300000000.0,0.165011794608,0.185623758048,0.832175013731,-0.258237914913,0.832175013731,-0.258237914913,0.165011794608,0.185623758048
5400000000.0,0.167130313826,0.188547338489,0.829949887337,-0.262538457729,0.829949887337,-0.262538457729,0.167130313826,0.188547338489
5500000000.0,0.169276585119,0.191442023561,0.827694984498,-0.266810484793,0.827694984498,-0.266810484793,0.169276585119,0.191442023561
5600000000.0,0.171450140232,0.194307525028,0.825410770492,-0.271053714585,0.825410770492,-0.271053714585,0.171450140232,0.194307525028
5700000000.0,0.173650507,0.197143564533,0.823097714453,-0.275267875464,0.823097714453,-0.275267875464,0.173650507,0.197143564533
5800000000.0,0.175877209667,0.199949873613,0.820756289051,-0.279452705678,0.820756289051,-0.279452705678,0.175877209667,0.199949873613
5900000000.0,0.17812976919,0.202726193705,0.818386970191,-0.283607953371,0.818386970191,-0.283607953371,0.17812976919,0.202726193705
6000000000.0,0.180407703538,0.205472276141,0.815990236707,-0.287733376584,0.815990236707,-0.287733376584,0.180407703538,0.205472276141
6100000000.0,0.182710527987,0.208187882144,0.813566570078,-0.291828743241,0.813566570078,-0.291828743241,0.182710527987,0.208187882144
6200000000.0,0.185037755404,0.210872782807,0.811116454132,-0.295893831139,0.811116454132,-0.295893831139,0.185037755404,0.210872782807
6300000000.0,0.187388896525,0.213526759074,0.808640374775,-0.29992842792,0.808640374775,-0.29992842792,0.187388896525,0.213526759074
6400000000.0,0.189763460232,0.21614960171,0.806138819712,-0.303932331046,0.806138819712,-0.303932331046,0.189763460232,0.21614960171
6500000000.0,0.192160953817,0.218741111267,0.803612278183,-0.307905347766,0.803612278183,-0.307905347766,0.192160953817,0.218741111267
6600000000.0,0.194580883244,0.22130109804,0.801061240701,-0.311847295068,0.801061240701,-0.311847295068,0.194580883244,0.22130109804
6700000000.0,0.197022753405,0.223829382024,0.798486198795,-0.315757999639,0.798486198795,-0.315757999639,0.197022753405,0.223829382024
6800000000.0,0.199486068367,0.226325792857,0.795887644763,-0.319637297807,0.795887644763,-0.319637297807,0.199486068367,0.226325792857
6900000000.0,0.20197033162,0.228790169765,0.793266071426,-0.323485035487,0.793266071426,-0.323485035487,0.20197033162,0.228790169765
7000000000.0,0.20447504631,0.231222361494,0.79062197189,-0.327301068115,0.79062197189,-0.327301068115,0.20447504631,0.231222361494
7100000000.0,0.206999715476,0.233622226247,0.787955839315,-0.331085260577,0.787955839315,-0.331085260577,0.206999715476,0.233622226247
7200000000.0,0.209543842276,0.235989631603,0.785268166685,-0.33483748714,0.785268166685,-0.33483748714,0.209543842276,0.235989631603
7300000000.0,0.212106930204,0.238324454447,0.782559446589,-0.33855763137,0.782559446589,-0.33855763137,0.212106930204,0.238324454447
7400000000.0,0.214688483315,0.240626580876,0.779830171001,-0.342245586051,0.779830171001,-0.342245586051,0.214688483315,0.240626580876
7500000000.0,0.217288006428,0.242895906121,0.777080831075,-0.345901253095,0.777080831075,-0.345901253095,0.217288006428,0.242895906121
7600000000.0,0.219905005334,0.245132334451,0.774311916933,-0.349524543451,0.774311916933,-0.349524543451,0.219905005334,0.245132334451
7700000000.0,0.222538986995,0.247335779074,0.771523917468,-0.35311537701,0.771523917468,-0.35311537701,0.222538986995,0.247335779074
7800000000.0,0.225189459743,0.249506162043,0.768717320153,-0.356673682505,0.768717320153,-0.356673682505,0.225189459743,0.249506162043
7900000000.0,0.227855933461,0.251643414147,0.765892610843,-0.360199397404,0.765892610843,-0.360199397404,0.227855933461,0.251643414147
8000000000.0,0.230537919774,0.25374747481,0.763050273599,-0.36369246781,0.763050273599,-0.36369246781,0.230537919774,0.25374747481
8100000000.0,0.233234932226,0.255818291974,0.760190790504,-0.367152848345,0.760190790504,-0.367152848345,0.233234932226,0.255818291974
8200000000.0,0.235946486449,0.257855821989,0.757314641493,-0.370580502036,0.757314641493,-0.370580502036,0.235946486449,0.257855821989
8300000000.0,0.238672100336,0.259860029495,0.754422304183,-0.373975400203,0.754422304183,-0.373975400203,0.238672100336,0.259860029495
8400000000.0,0.241411294205,0.261830887306,0.751514253709,-0.377337522337,0.751514253709,-0.377337522337,0.241411294205,0.261830887306
8500000000.0,0.244163590948,0.263768376283,0.748590962569,-0.380666855978,0.748590962569,-0.380666855978,0.244163590948,0.263768376283
8600000000.0,0.246928516195,0.265672485212,0.745652900469,-0.38396339659,0.745652900469,-0.38396339659,0.246928516195,0.265672485212
8700000000.0,0.24970559845,0.267543210678,0.742700534177,-0.387227147435,0.742700534177,-0.387227147435,0.24970559845,0.267543210678
8800000000.0,0.252494369243,0.269380556936,0.739734327379,-0.390458119446,0.739734327379,-0.390458119446,0.252494369243,0.269380556936
8900000000.0,0.255294363259,0.271184535776,0.736754740544,-0.393656331094,0.736754740544,-0.393656331094,0.255294363259,0.271184535776
9000000000.0,0.258105118476,0.272955166397,0.733762230791,-0.396821808253,0.733762230791,-0.396821808253,0.258105118476,0.272955166397
9100000000.0,0.260926176289,0.274692475268,0.730757251759,-0.399954584072,0.730757251759,-0.399954584072,0.260926176289,0.274692475268
9200000000.0,0.26375708163,0.276396495991,0.727740253488,-0.403054698834,0.727740253488,-0.403054698834,0.26375708163,0.276396495991
9300000000.0,0.266597383092,0.27806726917,0.724711682304,-0.406122199819,0.724711682304,-0.406122199819,0.266597383092,0.27806726917
9400000000.0,0.269446633032,0.279704842264,0.7216719807,-0.409157141169,0.7216719807,-0.409157141169,0.269446633032,0.279704842264
9500000000.0,0.272304387685,0.281309269457,0.718621587232,-0.412159583746,0.718621587232,-0.412159583746,0.272304387685,0.281309269457
9600000000.0,0.275170207266,0.282880611509,0.715560936419,-0.415129594992,0.715560936419,-0.415129594992,0.275170207266,0.282880611509
9700000000.0,0.278043656064,0.284418935618,0.712490458638,-0.418067248787,0.712490458638,-0.418067248787,0.278043656064,0.284418935618
9800000000.0,0.280924302538,0.285924315282,0.709410580039,-0.420972625309,0.709410580039,-0.420972625309,0.280924302538,0.285924315282
9900000000.0,0.283811719406,0.287396830149,0.706321722449,-0.423845810891,0.706321722449,-0.423845810891,0.283811719406,0.287396830149
10000000000.0,0.286705483726,0.288836565881,0.703224303292,-0.426686897876,0.703224303292,-0.426686897876,0.286705483726,0.288836565881
