freq (GHz),S11_real,S11_imag,S21_real,S21_imag,S12_real,S12_imag,S22_real,S22_imag
100000000.0,-4.61429845773e-05,-0.00907106996434,0.999860364522,-0.00918557542858,0.999860364522,-0.00918557542858,-4.61429845774e-05,-0.00907106996434
200000000.0,-0.000304780927616,-0.0181372088326,0.999601070346,-0.0183662233048,0.999601070346,-0.0183662233048,-0.000304780927615,-0.0181372088326
300000000.0,-0.000729803884542,-0.027193847094,0.999175539455,-0.0275373761351,0.999175539455,-0.0275373761351,-0.000729803884542,-0.027193847094
400000000.0,-0.00132073930594,-0.0362364367008,0.998584163931,-0.0366944874378,0.998584163931,-0.0366944874378,-0.00132073930594,-0.0362364367008
500000000.0,-0.00207697442099,-0.0452604558733,0.997827525701,-0.0458330367832,0.997827525701,-0.0458330367832,-0.00207697442099,-0.0452604558733
600000000.0,-0.00299774065485,-0.0542614155897,0.996906377679,-0.0549485363613,0.996906377679,-0.0549485363613,-0.00299774065485,-0.0542614155897
700000000.0,-0.00408211125224,-0.0632348664433,0.99582163741,-0.0640365378767,0.99582163741,-0.0640365378767,-0.00408211125224,-0.0632348664433
800000000.0,-0.00532900204355,-0.0721764055399,0.994574383124,-0.0730926394689,0.994574383124,-0.0730926394689,-0.00532900204355,-0.0721764055399
900000000.0,-0.00673717346215,-0.0810816833447,0.993165850303,-0.0821124925748,0.993165850303,-0.0821124925748,-0.00673717346215,-0.0810816833447
1000000000.0,-0.00830523326802,-0.0899464103986,0.991597428246,-0.0910918086539,0.991597428246,-0.0910918086539,-0.00830523326802,-0.0899464103986
1100000000.0,-0.0100316397783,-0.0987663638647,0.989870656434,-0.100026365744,0.989870656434,-0.100026365744,-0.0100316397783,-0.0987663638647
1200000000.0,-0.0119147055111,-0.107537393874,0.987987220661,-0.108912014811,0.987987220661,-0.108912014811,-0.0119147055111,-0.107537393874
1300000000.0,-0.0139526011906,-0.116255429638,0.985948948869,-0.117744685868,0.985948948869,-0.117744685868,-0.0139526011906,-0.116255429638
1400000000.0,-0.0161433600795,-0.124916485316,0.98375780673,-0.126520393843,0.98375780673,-0.126520393843,-0.0161433600795,-0.124916485316
1500000000.0,-0.018484882608,-0.133516665607,0.981415892942,-0.135235244179,0.981415892942,-0.135235244179,-0.018484882608,-0.133516665607
1600000000.0,-0.0209749412753,-0.142052171053,0.978925434284,-0.143885438133,0.978925434284,-0.143885438133,-0.0209749412753,-0.142052171053
1700000000.0,-0.0236111858003,-0.150519303045,0.976288780435,-0.152467277789,0.976288780435,-0.152467277789,-0.0236111858003,-0.150519303045
1800000000.0,-0.026391148496,-0.158914468502,0.973508398571,-0.16097717074,0.973508398571,-0.16097717074,-0.026391148496,-0.158914468502
1900000000.0,-0.0293122498469,-0.16723418424,0.970586867771,-0.169411634452,0.970586867771,-0.169411634452,-0.0293122498469,-0.16723418424
2000000000.0,-0.032371804263,-0.175475080985,0.967526873249,-0.177767300284,0.967526873249,-0.177767300284,-0.032371804263,-0.175475080985
2100000000.0,-0.0355670259901,-0.183633907059,0.964331200433,-0.186040917173,0.964331200433,-0.186040917173,-0.0355670259901,-0.183633907059
2200000000.0,-0.0388950351508,-0.191707531711,0.961002728916,-0.194229354966,0.961002728916,-0.194229354966,-0.0388950351508,-0.191707531711
2300000000.0,-0.0423528638929,-0.19969294809,0.957544426297,-0.202329607396,0.957544426297,-0.202329607396,-0.0423528638929,-0.19969294809
2400000000.0,-0.0459374626242,-0.207587275876,0.953959341949,-0.21033879471,0.953959341949,-0.21033879471,-0.0459374626242,-0.207587275876
2500000000.0,-0.0496457063087,-0.215387763547,0.950250600708,-0.21825416594,0.950250600708,-0.21825416594,-0.0496457063087,-0.215387763547
2600000000.0,-0.0534744008019,-0.223091790292,0.946421396543,-0.226073100816,0.946421396543,-0.226073100816,-0.0534744008019,-0.223091790292
2700000000.0,-0.0574202892052,-0.230696867582,0.942474986194,-0.233793111335,0.942474986194,-0.233793111335,-0.0574202892052,-0.230696867582
2800000000.0,-0.0614800582153,-0.238200640384,0.938414682821,-0.24141184298,0.938414682821,-0.24141184298,-0.0614800582153,-0.238200640384
2900000000.0,-0.0656503444506,-0.245600888043,0.934243849677,-0.2489270756,0.934243849677,-0.2489270756,-0.0656503444506,-0.245600888043
3000000000.0,-0.0699277407327,-0.252895524825,0.929965893822,-0.256336723951,0.929965893822,-0.256336723951,-0.0699277407327,-0.252895524825
3100000000.0,-0.0743088023051,-0.260082600136,0.925584259905,-0.263638837922,0.925584259905,-0.263638837922,-0.0743088023051,-0.260082600136
3200000000.0,-0.0787900529708,-0.267160298427,0.921102424025,-0.270831602432,0.921102424025,-0.270831602432,-0.0787900529708,-0.267160298427
3300000000.0,-0.0833679911317,-0.274126938786,0.916523887689,-0.277913337032,0.916523887689,-0.277913337032,-0.0833679911317,-0.274126938786
3400000000.0,-0.0880390957135,-0.280980974249,0.911852171889,-0.284882495206,0.911852171889,-0.284882495206,-0.0880390957135,-0.280980974249
3500000000.0,-0.0927998319621,-0.287720990809,0.907090811302,-0.291737663391,0.907090811302,-0.291737663391,-0.0927998319621,-0.287720990809
3600000000.0,-0.0976466570957,-0.294345706177,0.902243348637,-0.298477559727,0.902243348637,-0.298477559727,-0.0976466570957,-0.294345706177
3700000000.0,-0.102576025803,-0.300853968268,0.897313329141,-0.305101032554,0.897313329141,-0.305101032554,-0.102576025803,-0.300853968268
3800000000.0,-0.107584395573,-0.307244753456,0.892304295263,-0.311607058659,0.892304295263,-0.311607058659,-0.107584395573,-0.307244753456
3900000000.0,-0.112668231848,-0.313517164594,0.887219781502,-0.317994741304,0.887219781502,-0.317994741304,-0.112668231848,-0.313517164594
4000000000.0,-0.117824012987,-0.31967042883,0.882063309444,-0.324263308031,0.882063309444,-0.324263308031,-0.117824012987,-0.31967042883
4100000000.0,-0.123048235041,-0.325703895212,0.876838382988,-0.330412108282,0.876838382988,-0.330412108282,-0.123048235041,-0.325703895212
4200000000.0,-0.128337416322,-0.331617032121,0.871548483774,-0.336440610817,0.871548483774,-0.336440610817,-0.128337416322,-0.331617032121
4300000000.0,-0.133688101763,-0.337409424527,0.866197066825,-0.342348400983,0.866197066825,-0.342348400983,-0.133688101763,-0.337409424527
4400000000.0,-0.139096867069,-0.3430807711,0.860787556391,-0.348135177817,0.860787556391,-0.348135177817,-0.139096867069,-0.3430807711
4500000000.0,-0.144560322655,-0.348630881174,0.855323342018,-0.353800751016,0.855323342018,-0.353800751016,-0.144560322655,-0.348630881174
4600000000.0,-0.15007511736,-0.354059671599,0.849807774826,-0.359345037781,0.849807774826,-0.359345037781,-0.15007511736,-0.354059671599
4700000000.0,-0.155637941949,-0.35936716347,0.844244164015,-0.364768059556,0.844244164015,-0.364768059556,-0.155637941949,-0.35936716347
4800000000.0,-0.161245532383,-0.364553478776,0.838635773589,-0.37006993867,0.838635773589,-0.37006993867,-0.161245532383,-0.364553478776
4900000000.0,-0.166894672883,-0.369618836958,0.832985819293,-0.375250894898,0.832985819293,-0.375250894898,-0.166894672883,-0.369618836958
5000000000.0,-0.172582198764,-0.374563551405,0.827297465779,-0.380311241959,0.827297465779,-0.380311241959,-0.172582198764,-0.374563551405
5100000000.0,-0.178304999059,-0.379388025899,0.821573823983,-0.385251383954,0.821573823983,-0.385251383954,-0.178304999059,-0.379388025899
5200000000.0,-0.184060018926,-0.384092751008,0.815817948719,-0.390071811769,0.815817948719,-0.390071811769,-0.184060018926,-0.384092751008
5300000000.0,-0.18984426184,-0.388678300463,0.810032836482,-0.394773099445,0.810032836482,-0.394773099445,-0.18984426184,-0.388678300463
5400000000.0,-0.195654791584,-0.39314532751,0.80422142346,-0.399355900533,0.80422142346,-0.399355900533,-0.195654791584,-0.39314532751
5500000000.0,-0.201488734036,-0.397494561257,0.79838658375,-0.40382094444,0.79838658375,-0.40382094444,-0.201488734036,-0.397494561257
5600000000.0,-0.207343278751,-0.401726803026,0.792531127769,-0.408169032782,0.792531127769,-0.408169032782,-0.207343278751,-0.401726803026
5700000000.0,-0.213215680364,-0.405842922716,0.78665780086,-0.412401035746,0.78665780086,-0.412401035746,-0.213215680364,-0.405842922716
5800000000.0,-0.219103259788,-0.409843855194,0.780769282081,-0.416517888482,0.780769282081,-0.416517888482,-0.219103259788,-0.409843855194
5900000000.0,-0.225003405251,-0.413730596712,0.774868183185,-0.42052058752,0.774868183185,-0.42052058752,-0.225003405251,-0.413730596712
6000000000.0,-0.230913573142,-0.417504201367,0.768957047756,-0.424410187232,0.768957047756,-0.424410187232,-0.230913573142,-0.417504201367
6100000000.0,-0.236831288701,-0.421165777608,0.763038350532,-0.428187796334,0.763038350532,-0.428187796334,-0.236831288701,-0.421165777608
6200000000.0,-0.242754146541,-0.424716484797,0.757114496878,-0.431854574452,0.757114496878,-0.431854574452,-0.242754146541,-0.424716484797
6300000000.0,-0.248679811022,-0.428157529824,0.751187822412,-0.435411728735,0.751187822412,-0.435411728735,-0.248679811022,-0.428157529824
6400000000.0,-0.254606016475,-0.4314901638,0.745260592783,-0.43886051055,0.745260592783,-0.43886051055,-0.254606016475,-0.4314901638
6500000000.0,-0.260530567283,-0.434715678808,0.739335003585,-0.442202212229,0.739335003585,-0.442202212229,-0.260530567283,-0.434715678808
6600000000.0,-0.266451337842,-0.437835404738,0.733413180403,-0.445438163908,0.733413180403,-0.445438163908,-0.266451337842,-0.437835404738
6700000000.0,-0.272366272384,-0.440850706194,0.727497178984,-0.448569730433,0.727497178984,-0.448569730433,-0.272366272384,-0.440850706194
6800000000.0,-0.278273384687,-0.443762979494,0.721588985529,-0.451598308358,0.721588985529,-0.451598308358,-0.278273384687,-0.443762979494
6900000000.0,-0.284170757681,-0.446573649743,0.71569051709,-0.454525323022,0.71569051709,-0.454525323022,-0.284170757681,-0.446573649743
7000000000.0,-0.29005654294,-0.449284168001,0.709803622073,-0.457352225715,0.709803622073,-0.457352225715,-0.29005654294,-0.449284168001
7100000000.0,-0.295928960085,-0.451896008546,0.703930080838,-0.460080490941,0.703930080838,-0.460080490941,-0.295928960085,-0.451896008546
7200000000.0,-0.301786296094,-0.454410666219,0.698071606388,-0.462711613761,0.698071606388,-0.462711613761,-0.301786296094,-0.454410666219
7300000000.0,-0.307626904531,-0.456829653867,0.692229845141,-0.46524710724,0.692229845141,-0.46524710724,-0.307626904531,-0.456829653867
7400000000.0,-0.313449204697,-0.459154499881,0.686406377776,-0.467688499983,0.686406377776,-0.467688499983,-0.313449204697,-0.459154499881
7500000000.0,-0.319251680714,-0.461386745826,0.680602720153,-0.470037333767,0.680602720153,-0.470037333767,-0.319251680714,-0.461386745826
7600000000.0,-0.325032880541,-0.463527944169,0.674820324295,-0.472295161265,0.674820324295,-0.472295161265,-0.325032880541,-0.463527944169
7700000000.0,-0.330791414937,-0.465579656096,0.669060579425,-0.474463543867,0.669060579425,-0.474463543867,-0.330791414937,-0.465579656096
7800000000.0,-0.336525956366,-0.46754344943,0.663324813062,-0.476544049596,0.663324813062,-0.476544049596,-0.336525956366,-0.46754344943
7900000000.0,-0.342235237861,-0.469420896636,0.657614292154,-0.478538251113,0.657614292154,-0.478538251113,-0.342235237861,-0.469420896636
8000000000.0,-0.347918051845,-0.471213572924,0.651930224261,-0.480447723822,0.651930224261,-0.480447723822,-0.347918051845,-0.471213572924
8100000000.0,-0.353573248912,-0.472923054439,0.64627375877,-0.482274044059,0.64627375877,-0.482274044059,-0.353573248912,-0.472923054439
8200000000.0,-0.359199736586,-0.474550916544,0.640645988143,-0.484018787375,0.640645988143,-0.484018787375,-0.359199736586,-0.474550916544
8300000000.0,-0.364796478039,-0.476098732191,0.635047949186,-0.485683526905,0.635047949186,-0.485683526905,-0.364796478039,-0.476098732191
8400000000.0,-0.370362490802,-0.477568070378,0.629480624354,-0.487269831828,0.629480624354,-0.487269831828,-0.370362490802,-0.477568070378
8500000000.0,-0.375896845449,-0.478960494692,0.623944943055,-0.48877926591,0.623944943055,-0.48877926591,-0.375896845449,-0.478960494692
8600000000.0,-0.381398664264,-0.480277561935,0.618441782987,-0.490213386127,0.618441782987,-0.490213386127,-0.381398664264,-0.480277561935
8700000000.0,-0.386867119909,-0.481520820828,0.612971971473,-0.491573741376,0.612971971473,-0.491573741376,-0.386867119909,-0.481520820828
8800000000.0,-0.392301434072,-0.482691810805,0.607536286806,-0.492861871257,0.607536286806,-0.492861871257,-0.392301434072,-0.482691810805
8900000000.0,-0.397700876119,-0.483792060868,0.602135459603,-0.494079304941,0.602135459603,-0.494079304941,-0.397700876119,-0.483792060868
9000000000.0,-0.403064761742,-0.484823088526,0.596770174156,-0.495227560101,0.596770174156,-0.495227560101,-0.403064761742,-0.484823088526
9100000000.0,-0.408392451614,-0.485786398809,0.591441069775,-0.49630814193,0.591441069775,-0.49630814193,-0.408392451614,-0.485786398809
9200000000.0,-0.413683350038,-0.486683483345,0.586148742139,-0.497322542213,0.586148742139,-0.497322542213,-0.413683350038,-0.486683483345
9300000000.0,-0.418936903616,-0.487515819505,0.580893744629,-0.498272238481,0.580893744629,-0.498272238481,-0.418936903616,-0.487515819505
9400000000.0,-0.424152599919,-0.488284869622,0.575676589659,-0.499158693218,0.575676589659,-0.499158693218,-0.424152599919,-0.488284869622
9500000000.0,-0.42932996617,-0.488992080257,0.570497749989,-0.49998335314,0.570497749989,-0.49998335314,-0.42932996617,-0.488992080257
9600000000.0,-0.43446856794,-0.489638881545,0.565357660029,-0.500747648529,0.565357660029,-0.500747648529,-0.43446856794,-0.489638881545
9700000000.0,-0.439568007865,-0.490226686578,0.560256717128,-0.501452992627,0.560256717128,-0.501452992627,-0.439568007865,-0.490226686578
9800000000.0,-0.444627924368,-0.490756890863,0.555195282845,-0.502100781085,0.555195282845,-0.502100781085,-0.444627924368,-0.490756890863
9900000000.0,-0.449647990412,-0.491230871819,0.550173684202,-0.502692391464,0.550173684202,-0.502692391464,-0.449647990412,-0.491230871819
10000000000.0,-0.454627912261,-0.491649988332,0.545192214916,-0.503229182792,0.545192214916,-0.503229182792,-0.454627912261,-0.491649988332
