freq (GHz),S11_real,S11_imag,S21_real,S21_imag,S12_real,S12_imag,S22_real,S22_imag
100000000.0,0.0592203766269,0.00262555844494,0.940776109266,-0.00410848912068,0.940776109266,-0.00410848912068,0.0592203766269,0.00262555844494
200000000.0,0.0596209380643,0.00524560737577,0.940370787849,-0.00821147282733,0.940370787849,-0.00821147282733,0.0596209380643,0.00524560737577
300000000.0,0.0599445165561,0.00786206338717,0.940040202875,-0.0123108735875,0.940040202875,-0.0123108735875,0.0599445165561,0.00786206338717
400000000.0,0.0602398357881,0.0104754400162,0.939735630154,-0.0164072102271,0.939735630154,-0.0164072102271,0.0602398357881,0.0104754400162
500000000.0,0.060525692972,0.0130859245926,0.939438272004,-0.0205006750729,0.939438272004,-0.0205006750729,0.060525692972,0.0130859245926
600000000.0,0.0608116845877,0.0156935601493,0.939138531483,-0.024591315966,0.939138531483,-0.024591315966,0.0608116845877,0.0156935601493
700000000.0,0.0611034806896,0.0182983107704,0.938830738061,-0.0286791016612,0.938830738061,-0.0286791016612,0.0611034806896,0.0182983107704
800000000.0,0.0614047516888,0.0209000919107,0.938511220836,-0.0327639521783,0.938511220836,-0.0327639521783,0.0614047516888,0.0209000919107
900000000.0,0.0617180270195,0.023498786693,0.938177449858,-0.0368457551191,0.938177449858,-0.0368457551191,0.0617180270195,0.023498786693
1000000000.0,0.0620451307515,0.0260942555686,0.937827600516,-0.0409243753431,0.937827600516,-0.0409243753431,0.0620451307515,0.0260942555686
1100000000.0,0.0623874239423,0.0286863424648,0.93746031118,-0.0449996611248,0.93746031118,-0.0449996611248,0.0623874239423,0.0286863424648
1200000000.0,0.0627459491655,0.0312748789136,0.937074538675,-0.0490714482906,0.937074538675,-0.0490714482906,0.0627459491655,0.0312748789136
1300000000.0,0.0631215215138,0.0338596869453,0.936669467274,-0.0531395631186,0.936669467274,-0.0531395631186,0.0631215215138,0.0338596869453
1400000000.0,0.0635147884641,0.0364405811895,0.936244448831,-0.057203824445,0.936244448831,-0.057203824445,0.0635147884641,0.0364405811895
1500000000.0,0.0639262707043,0.0390173704449,0.935798961956,-0.0612640452374,0.935798961956,-0.0612640452374,0.0639262707043,0.0390173704449
1600000000.0,0.0643563908317,0.0415898588828,0.935332583315,-0.0653200338022,0.935332583315,-0.0653200338022,0.0643563908317,0.0415898588828
1700000000.0,0.0648054940535,0.0441578469894,0.934844966927,-0.0693715947292,0.934844966927,-0.0693715947292,0.0648054940535,0.0441578469894
1800000000.0,0.065273863454,0.0467211323176,0.934335828898,-0.0734185296467,0.934335828898,-0.0734185296467,0.065273863454,0.0467211323176
1900000000.0,0.0657617314749,0.049279510098,0.933804935941,-0.0774606378335,0.933804935941,-0.0774606378335,0.0657617314749,0.049279510098
2000000000.0,0.0662692886977,0.0518327737418,0.933252096593,-0.0814977167247,0.933252096593,-0.0814977167247,0.0662692886977,0.0518327737418
2100000000.0,0.0667966906641,0.0543807152621,0.932677154393,-0.0855295623335,0.932677154393,-0.0855295623335,0.0667966906641,0.0543807152621
2200000000.0,0.0673440632465,0.0569231256295,0.932079982512,-0.089555969609,0.932079982512,-0.089555969609,0.0673440632465,0.0569231256295
2300000000.0,0.0679115069281,0.0594597950771,0.931460479473,-0.0935767327422,0.931460479473,-0.0935767327422,0.0679115069281,0.0594597950771
2400000000.0,0.0684991002532,0.0619905133644,0.9308185657,-0.0975916454308,0.9308185657,-0.0975916454308,0.0684991002532,0.0619905133644
2500000000.0,0.0691069026362,0.064515070008,0.930154180711,-0.101600501111,0.930154180711,-0.101600501111,0.0691069026362,0.064515070008
2600000000.0,0.0697349566707,0.0670332544847,0.929467280805,-0.105603093162,0.929467280805,-0.105603093162,0.0697349566707,0.0670332544847
2700000000.0,0.0703832900439,0.0695448564123,0.92875783715,-0.109599215085,0.92875783715,-0.109599215085,0.0703832900439,0.0695448564123
2800000000.0,0.0710519171372,0.0720496657117,0.928025834183,-0.113588660672,0.928025834183,-0.113588660672,0.0710519171372,0.0720496657117
2900000000.0,0.0717408403733,0.0745474727528,0.92727126826,-0.117571224144,0.92727126826,-0.117571224144,0.0717408403733,0.0745474727528
3000000000.0,0.0724500513597,0.0770380684876,0.926494146515,-0.121546700293,0.926494146515,-0.121546700293,0.0724500513597,0.0770380684876
3100000000.0,0.0731795318647,0.0795212445712,0.925694485882,-0.125514884596,0.925694485882,-0.125514884596,0.0731795318647,0.0795212445712
3200000000.0,0.0739292546562,0.0819967934733,0.924872312259,-0.129475573334,0.924872312259,-0.129475573334,0.0739292546562,0.0819967934733
3300000000.0,0.0746991842269,0.0844645085808,0.924027659779,-0.13342856369,0.924027659779,-0.13342856369,0.0746991842269,0.0844645085808
3400000000.0,0.075489277425,0.0869241842937,0.923160570183,-0.137373653847,0.923160570183,-0.137373653847,0.075489277425,0.0869241842937
3500000000.0,0.076299484006,0.0893756161135,0.922271092263,-0.141310643077,0.922271092263,-0.141310643077,0.076299484006,0.0893756161135
3600000000.0,0.0771297471174,0.0918186007264,0.921359281384,-0.145239331824,0.921359281384,-0.145239331824,0.0771297471174,0.0918186007264
3700000000.0,0.0779800037277,0.0942529360813,0.920425199049,-0.149159521785,0.920425199049,-0.149159521785,0.0779800037277,0.0942529360813
3800000000.0,0.0788501850068,0.0966784214627,0.919468912524,-0.153071015976,0.919468912524,-0.153071015976,0.0788501850068,0.0966784214627
3900000000.0,0.0797402166669,0.0990948575601,0.91849049449,-0.156973618813,0.91849049449,-0.156973618813,0.0797402166669,0.0990948575601
4000000000.0,0.0806500192665,0.101502046533,0.917490022746,-0.160867136165,0.917490022746,-0.160867136165,0.0806500192665,0.101502046533
4100000000.0,0.0815795084865,0.103899792074,0.916467579929,-0.164751375427,0.916467579929,-0.164751375427,0.0815795084865,0.103899792074
4200000000.0,0.0825285953784,0.106287899466,0.915423253267,-0.16862614557,0.915423253267,-0.16862614557,0.0825285953784,0.106287899466
4300000000.0,0.0834971865915,0.108666175637,0.91435713435,-0.172491257206,0.91435713435,-0.172491257206,0.0834971865915,0.108666175637
4400000000.0,0.0844851845795,0.111034429219,0.913269318928,-0.176346522633,0.913269318928,-0.176346522633,0.0844851845795,0.111034429219
4500000000.0,0.0854924877908,0.11339247059,0.912159906713,-0.18019175589,0.912159906713,-0.18019175589,0.0854924877908,0.11339247059
4600000000.0,0.0865189908433,0.115740111931,0.911029001213,-0.184026772807,0.911029001213,-0.184026772807,0.0865189908433,0.115740111931
4700000000.0,0.0875645846869,0.118077167266,0.909876709562,-0.187851391048,0.909876709562,-0.187851391048,0.0875645846869,0.118077167266
4800000000.0,0.0886291567534,0.120403452508,0.908703142375,-0.191665430156,0.908703142375,-0.191665430156,0.0886291567534,0.120403452508
4900000000.0,0.0897125910975,0.122718785503,0.907508413603,-0.195468711599,0.907508413603,-0.195468711599,0.0897125910975,0.122718785503
5000000000.0,0.0908147685279,0.125022986067,0.906292640406,-0.199261058804,0.906292640406,-0.199261058804,0.0908147685279,0.125022986067
5100000000.0,0.0919355667312,0.12731587603,0.905055943027,-0.203042297201,0.905055943027,-0.203042297201,0.0919355667312,0.12731587603
5200000000.0,0.0930748603878,0.129597279264,0.903798444675,-0.206812254259,0.903798444675,-0.206812254259,0.0930748603878,0.129597279264
5300000000.0,0.0942325212829,0.131867021727,0.902520271414,-0.210570759517,0.902520271414,-0.210570759517,0.0942325212829,0.131867021727
5400000000.0,0.0954084184104,0.134124931492,0.901221552064,-0.214317644624,0.901221552064,-0.214317644624,0.0954084184104,0.134124931492
5500000000.0,0.0966024180728,0.136370838781,0.899902418093,-0.218052743368,0.899902418093,-0.218052743368,0.0966024180728,0.136370838781
5600000000.0,0.0978143839765,0.138604575993,0.898563003528,-0.221775891708,0.898563003528,-0.221775891708,0.0978143839765,0.138604575993
5700000000.0,0.0990441773223,0.140825977738,0.897203444861,-0.225486927799,0.897203444861,-0.225486927799,0.0990441773223,0.140825977738
5800000000.0,0.100291656894,0.14303488086,0.895823880965,-0.229185692029,0.895823880965,-0.229185692029,0.100291656894,0.14303488086
5900000000.0,0.10155667914,0.145231124465,0.894424453003,-0.232872027035,0.894424453003,-0.232872027035,0.10155667914,0.145231124465
6000000000.0,0.102839098258,0.14741454995,0.893005304355,-0.236545777737,0.893005304355,-0.236545777737,0.102839098258,0.14741454995
6100000000.0,0.104138766272,0.149585001022,0.891566580533,-0.240206791357,0.891566580533,-0.240206791357,0.104138766272,0.149585001022
6200000000.0,0.105455533106,0.151742323721,0.890108429107,-0.243854917443,0.890108429107,-0.243854917443,0.105455533106,0.151742323721
6300000000.0,0.106789246662,0.153886366447,0.888630999635,-0.247490007892,0.888630999635,-0.247490007892,0.106789246662,0.153886366447
6400000000.0,0.108139752887,0.156016979972,0.887134443585,-0.251111916968,0.887134443585,-0.251111916968,0.108139752887,0.156016979972
6500000000.0,0.109506895848,0.158134017468,0.885618914267,-0.254720501324,0.885618914267,-0.254720501324,0.109506895848,0.158134017468
6600000000.0,0.110890517797,0.160237334517,0.884084566769,-0.258315620017,0.884084566769,-0.258315620017,0.110890517797,0.160237334517
6700000000.0,0.112290459236,0.162326789133,0.882531557885,-0.261897134528,0.882531557885,-0.261897134528,0.112290459236,0.162326789133
6800000000.0,0.113706558986,0.164402241777,0.880960046051,-0.265464908773,0.880960046051,-0.265464908773,0.113706558986,0.164402241777
6900000000.0,0.115138654248,0.16646355537,0.879370191286,-0.269018809124,0.879370191286,-0.269018809124,0.115138654248,0.16646355537
7000000000.0,0.116586580668,0.168510595306,0.877762155121,-0.272558704418,0.877762155121,-0.272558704418,0.116586580668,0.168510595306
7100000000.0,0.118050172395,0.170543229467,0.876136100547,-0.27608446597,0.876136100547,-0.27608446597,0.118050172395,0.170543229467
7200000000.0,0.11952926214,0.172561328235,0.874492191947,-0.279595967588,0.874492191947,-0.279595967588,0.11952926214,0.172561328235
7300000000.0,0.121023681243,0.174564764499,0.872830595043,-0.283093085579,0.872830595043,-0.283093085579,0.121023681243,0.174564764499
7400000000.0,0.12253325972,0.176553413667,0.871151476833,-0.286575698761,0.871151476833,-0.286575698761,0.12253325972,0.176553413667
7500000000.0,0.124057826331,0.178527153672,0.869455005538,-0.290043688469,0.869455005538,-0.290043688469,0.124057826331,0.178527153672
7600000000.0,0.125597208626,0.180485864983,0.867741350541,-0.293496938567,0.867741350541,-0.293496938567,0.125597208626,0.180485864983
7700000000.0,0.127151233008,0.18242943061,0.866010682338,-0.296935335449,0.866010682338,-0.296935335449,0.127151233008,0.18242943061
7800000000.0,0.128719724786,0.184357736108,0.864263172476,-0.30035876805,0.864263172476,-0.30035876805,0.128719724786,0.184357736108
7900000000.0,0.130302508223,0.186270669582,0.862498993506,-0.303767127847,0.862498993506,-0.303767127847,0.130302508223,0.186270669582
8000000000.0,0.131899406598,0.188168121695,0.860718318925,-0.307160308861,0.860718318925,-0.307160308861,0.131899406598,0.188168121695
8100000000.0,0.133510242252,0.190049985662,0.858921323126,-0.310538207666,0.858921323126,-0.310538207666,0.133510242252,0.190049985662
8200000000.0,0.13513483664,0.191916157262,0.857108181347,-0.313900723386,0.857108181347,-0.313900723386,0.13513483664,0.191916157262
8300000000.0,0.136773010385,0.193766534832,0.855279069618,-0.317247757695,0.855279069618,-0.317247757695,0.136773010385,0.193766534832
8400000000.0,0.138424583326,0.195601019268,0.853434164711,-0.320579214823,0.853434164711,-0.320579214823,0.138424583326,0.195601019268
8500000000.0,0.140089374567,0.197419514028,0.851573644094,-0.323895001549,0.851573644094,-0.323895001549,0.140089374567,0.197419514028
8600000000.0,0.141767202527,0.199221925126,0.849697685877,-0.327195027202,0.849697685877,-0.327195027202,0.141767202527,0.199221925126
8700000000.0,0.143457884986,0.201008161134,0.847806468767,-0.330479203661,0.847806468767,-0.330479203661,0.143457884986,0.201008161134
8800000000.0,0.145161239137,0.202778133175,0.84590017202,-0.333747445347,0.84590017202,-0.333747445347,0.145161239137,0.202778133175
8900000000.0,0.146877081629,0.204531754918,0.843978975392,-0.336999669222,0.843978975392,-0.336999669222,0.146877081629,0.204531754918
9000000000.0,0.148605228615,0.206268942581,0.842043059096,-0.340235794785,0.842043059096,-0.340235794785,0.148605228615,0.206268942581
9100000000.0,0.150345495795,0.207989614916,0.840092603752,-0.343455744064,0.840092603752,-0.343455744064,0.150345495795,0.207989614916
9200000000.0,0.152097698465,0.209693693209,0.838127790347,-0.34665944161,0.838127790347,-0.34665944161,0.152097698465,0.209693693209
9300000000.0,0.153861651561,0.211381101269,0.836148800187,-0.349846814493,0.836148800187,-0.349846814493,0.153861651561,0.211381101269
9400000000.0,0.155637169699,0.213051765425,0.83415581485,-0.353017792291,0.83415581485,-0.353017792291,0.155637169699,0.213051765425
9500000000.0,0.157424067222,0.214705614513,0.832149016152,-0.356172307082,0.832149016152,-0.356172307082,0.157424067222,0.214705614513
9600000000.0,0.159222158242,0.216342579869,0.830128586095,-0.359310293437,0.830128586095,-0.359310293437,0.159222158242,0.216342579869
9700000000.0,0.16103125668,0.217962595318,0.828094706829,-0.362431688406,0.828094706829,-0.362431688406,0.16103125668,0.217962595318
9800000000.0,0.162851176311,0.219565597167,0.826047560611,-0.365536431514,0.826047560611,-0.365536431514,0.162851176311,0.219565597167
9900000000.0,0.164681730801,0.221151524188,0.823987329761,-0.368624464742,0.823987329761,-0.368624464742,0.164681730801,0.221151524188
10000000000.0,0.166522733751,0.222720317612,0.821914196625,-0.371695732523,0.821914196625,-0.371695732523,0.166522733751,0.222720317612
