freq (GHz),S11_real,S11_imag,S21_real,S21_imag,S12_real,S12_imag,S22_real,S22_imag
100000000.0,-0.000409793345751,-0.0200183560757,0.999563788433,-0.0201004535921,0.999563788433,-0.0201004535921,-0.000409793345751,-0.0200183560757
200000000.0,-0.00163517978965,-0.0399856676534,0.998338211493,-0.040149875677,0.998338211493,-0.040149875677,-0.00163517978965,-0.0399856676534
300000000.0,-0.00365743117082,-0.059853451617,0.996315808321,-0.0600997898365,0.996315808321,-0.0600997898365,-0.00365743117082,-0.059853451617
400000000.0,-0.00646655822104,-0.0795741731897,0.993506545472,-0.0799026664119,0.993506545472,-0.0799026664119,-0.00646655822104,-0.0795741731897
500000000.0,-0.0100488691759,-0.0991015562408,0.989924106003,-0.0995122335702,0.989924106003,-0.0995122335702,-0.0100488691759,-0.0991015562408
600000000.0,-0.0143871369599,-0.11839091362,0.985585712568,-0.118883807904,0.985585712568,-0.118883807904,-0.0143871369599,-0.11839091362
700000000.0,-0.0194608065333,-0.137399462041,0.980511917605,-0.13797460945,0.980511917605,-0.13797460945,-0.0194608065333,-0.137399462041
800000000.0,-0.0252462360731,-0.156086610612,0.974726361254,-0.156744050303,0.974726361254,-0.156744050303,-0.0252462360731,-0.156086610612
900000000.0,-0.03171696684,-0.17441421702,0.968255501096,-0.175153990853,0.968255501096,-0.175153990853,-0.03171696684,-0.17441421702
1000000000.0,-0.0388440163304,-0.192346807481,0.961128318796,-0.193168959775,0.961128318796,-0.193168959775,-0.0388440163304,-0.192346807481
1100000000.0,-0.0465961890534,-0.209851757985,0.953376009216,-0.210756335303,0.953376009216,-0.210756335303,-0.0465961890534,-0.209851757985
1200000000.0,-0.0549403991685,-0.226899435519,0.945031657711,-0.227886486476,0.945031657711,-0.227886486476,-0.0549403991685,-0.226899435519
1300000000.0,-0.0638419992796,-0.243463298965,0.936129911289,-0.244532874055,0.936129911289,-0.244532874055,-0.0638419992796,-0.243463298965
1400000000.0,-0.0732651098889,-0.259519960305,0.926706649138,-0.260672111741,0.926706649138,-0.260672111741,-0.0732651098889,-0.259519960305
1500000000.0,-0.083172944373,-0.275049207557,0.916798657624,-0.276283989125,0.916798657624,-0.276283989125,-0.083172944373,-0.275049207557
1600000000.0,-0.09352812479,-0.290033991578,0.906443314474,-0.291351458501,0.906443314474,-0.291351458501,-0.09352812479,-0.290033991578
1700000000.0,-0.104292984378,-0.304460379437,0.895678286267,-0.305860588256,0.895678286267,-0.305860588256,-0.104292984378,-0.304460379437
1800000000.0,-0.115429853209,-0.318317477543,0.884541242776,-0.319800485992,0.884541242776,-0.319800485992,-0.115429853209,-0.318317477543
1900000000.0,-0.126901324089,-0.331597327983,0.873069591058,-0.333163194887,0.873069591058,-0.333163194887,-0.126901324089,-0.331597327983
2000000000.0,-0.13867049646,-0.344294781808,0.861300231553,-0.345943566978,0.861300231553,-0.345943566978,-0.13867049646,-0.344294781808
2100000000.0,-0.15070119667,-0.356407353026,0.849269337808,-0.358139117164,0.849269337808,-0.358139117164,-0.15070119667,-0.356407353026
2200000000.0,-0.162958173611,-0.367935057101,0.837012160837,-0.369749861712,0.837012160837,-0.369749861712,-0.162958173611,-0.367935057101
2300000000.0,-0.175407269263,-0.378880237636,0.824562858575,-0.380778144941,0.824562858575,-0.380778144941,-0.175407269263,-0.378880237636
2400000000.0,-0.188015564206,-0.389247384743,0.811954350369,-0.391228457602,0.811954350369,-0.391228457602,-0.188015564206,-0.389247384743
2500000000.0,-0.200751498591,-0.399042948374,0.799218195996,-0.401107250211,0.799218195996,-0.401107250211,-0.200751498591,-0.399042948374
2600000000.0,-0.213584969464,-0.408275149606,0.786384498348,-0.41042274434,0.786384498348,-0.41042274434,-0.213584969464,-0.408275149606
2700000000.0,-0.226487405617,-0.416953792556,0.773481828575,-0.419184744534,0.773481828575,-0.419184744534,-0.226487405617,-0.416953792556
2800000000.0,-0.239431821401,-0.425090079274,0.760537172272,-0.427404453207,0.760537172272,-0.427404453207,-0.239431821401,-0.425090079274
2900000000.0,-0.252392851114,-0.432696429629,0.747575895091,-0.435094290538,0.747575895091,-0.435094290538,-0.252392851114,-0.432696429629
3000000000.0,-0.265346765699,-0.439786307866,0.734621726043,-0.442267721025,0.734621726043,-0.442267721025,-0.265346765699,-0.439786307866
3100000000.0,-0.278271473539,-0.446374057196,0.7216967567,-0.448939088079,0.7216967567,-0.448939088079,-0.278271473539,-0.446374057196
3200000000.0,-0.291146507184,-0.452474743463,0.708821454472,-0.455123457696,0.708821454472,-0.455123457696,-0.291146507184,-0.452474743463
3300000000.0,-0.303952997795,-0.458104008674,0.69601468816,-0.460836471993,0.69601468816,-0.460836471993,-0.303952997795,-0.458104008674
3400000000.0,-0.316673639073,-0.463277934905,0.683293764025,-0.466094213107,0.683293764025,-0.466094213107,-0.316673639073,-0.463277934905
3500000000.0,-0.329292642326,-0.468012918873,0.670674470726,-0.470913077782,0.670674470726,-0.470913077782,-0.329292642326,-0.468012918873
3600000000.0,-0.341795684264,-0.472325557279,0.658171131518,-0.475309662704,0.658171131518,-0.475309662704,-0.341795684264,-0.472325557279
3700000000.0,-0.354169848974,-0.476232542833,0.645796662284,-0.479300660536,0.645796662284,-0.479300660536,-0.354169848974,-0.476232542833
3800000000.0,-0.366403565422,-0.479750570763,0.633562634028,-0.482902766422,0.633562634028,-0.482902766422,-0.366403565422,-0.479750570763
3900000000.0,-0.378486541691,-0.482896255456,0.621479338638,-0.486132594637,0.621479338638,-0.486132594637,-0.378486541691,-0.482896255456
4000000000.0,-0.390409697043,-0.485686056824,0.609555856824,-0.489006604956,0.609555856824,-0.489006604956,-0.390409697043,-0.485686056824
4100000000.0,-0.40216509277,-0.488136215899,0.597800127267,-0.491541038239,0.597800127267,-0.491541038239,-0.40216509277,-0.488136215899
4200000000.0,-0.413745862661,-0.490262699101,0.586219016154,-0.493751860717,0.586219016154,-0.493751860717,-0.413745862661,-0.490262699101
4300000000.0,-0.425146143818,-0.492081150622,0.574818386358,-0.495654716365,0.574818386358,-0.495654716364,-0.425146143818,-0.492081150622
4400000000.0,-0.436361008417,-0.493606852316,0.563603165678,-0.497264886799,0.563603165678,-0.497264886799,-0.436361008417,-0.493606852316
4500000000.0,-0.447386396944,-0.494854690499,0.552577413607,-0.49859725808,0.552577413607,-0.49859725808,-0.447386396944,-0.494854690499
4600000000.0,-0.458219053305,-0.495839129063,0.541744386215,-0.499666293827,0.541744386215,-0.499666293827,-0.458219053305,-0.495839129063
4700000000.0,-0.468856462157,-0.496574188328,0.531106598824,-0.500486014064,0.531106598824,-0.500486014064,-0.468856462157,-0.496574188328
4800000000.0,-0.479296788708,-0.497073429044,0.520665886206,-0.501069979239,0.520665886206,-0.501069979239,-0.479296788708,-0.497073429044
4900000000.0,-0.489538821186,-0.497349941036,0.510423460111,-0.501431278853,0.510423460111,-0.501431278853,-0.489538821186,-0.497349941036
5000000000.0,-0.499581916107,-0.497416335952,0.500379964005,-0.501582524222,0.500379964005,-0.501582524222,-0.499581916107,-0.497416335952
5100000000.0,-0.509425946424,-0.497284743652,0.490535524914,-0.501535844859,0.490535524914,-0.501535844859,-0.509425946424,-0.497284743652
5200000000.0,-0.519071252598,-0.496966811779,0.48088980236,-0.501302888052,0.48088980236,-0.501302888052,-0.519071252598,-0.496966811779
5300000000.0,-0.528518596596,-0.4964737081,0.471442034356,-0.500894821204,0.471442034356,-0.500894821204,-0.528518596596,-0.4964737081
5400000000.0,-0.537769118785,-0.495816125242,0.462191080519,-0.500322336567,0.462191080519,-0.500322336567,-0.537769118785,-0.495816125242
5500000000.0,-0.546824297667,-0.495004287458,0.453135462329,-0.499595658012,0.453135462329,-0.499595658012,-0.546824297667,-0.495004287458
5600000000.0,-0.55568591239,-0.494047959118,0.44427340062,-0.498724549522,0.44427340062,-0.498724549522,-0.55568591239,-0.494047959118
5700000000.0,-0.564356007938,-0.492956454637,0.435602850392,-0.497718325119,0.435602850392,-0.497718325119,-0.564356007938,-0.492956454637
5800000000.0,-0.572836862902,-0.491738649572,0.42712153304,-0.496585859962,0.42712153304,-0.496585859962,-0.572836862902,-0.491738649572
5900000000.0,-0.581130959714,-0.490402992669,0.418826966112,-0.495335602392,0.418826966112,-0.495335602392,-0.581130959714,-0.490402992669
6000000000.0,-0.589240957245,-0.488957518638,0.410716490725,-0.493975586716,0.410716490725,-0.493975586716,-0.589240957245,-0.488957518638
6100000000.0,-0.59716966562,-0.4874098615,0.402787296737,-0.492513446543,0.402787296737,-0.492513446543,-0.59716966562,-0.4874098615
6200000000.0,-0.60492002315,-0.485767268311,0.395036445824,-0.490956428521,0.395036445824,-0.490956428521,-0.60492002315,-0.485767268311
6300000000.0,-0.612495075245,-0.484036613159,0.387460892558,-0.489311406324,0.387460892558,-0.489311406324,-0.612495075245,-0.484036613159
6400000000.0,-0.619897955195,-0.48222441128,0.380057503638,-0.487584894774,0.380057503638,-0.487584894774,-0.619897955195,-0.48222441128
6500000000.0,-0.627131866684,-0.480336833211,0.372823075364,-0.485783063995,0.372823075364,-0.485783063995,-0.627131866684,-0.480336833211
6600000000.0,-0.634200067942,-0.478379718881,0.365754349493,-0.483911753503,0.365754349493,-0.483911753503,-0.634200067942,-0.478379718881
6700000000.0,-0.641105857404,-0.47635859156,0.358848027576,-0.481976486154,0.358848027576,-0.481976486154,-0.641105857404,-0.47635859156
6800000000.0,-0.64785256078,-0.474278671608,0.352100783891,-0.479982481895,0.352100783891,-0.479982481895,-0.64785256078,-0.474278671608
6900000000.0,-0.65444351942,-0.472144889966,0.345509277073,-0.477934671258,0.345509277073,-0.477934671258,-0.65444351942,-0.472144889966
7000000000.0,-0.660882079894,-0.469961901349,0.33907016054,-0.475837708547,0.33907016054,-0.475837708547,-0.660882079894,-0.469961901349
7100000000.0,-0.667171584672,-0.467734097098,0.33278009181,-0.473695984698,0.33278009181,-0.473695984698,-0.667171584672,-0.467734097098
7200000000.0,-0.67331536383,-0.465465617675,0.326635740793,-0.471513639767,0.326635740793,-0.471513639767,-0.67331536383,-0.465465617675
7300000000.0,-0.6793167277,-0.463160364768,0.320633797145,-0.469294575042,0.320633797145,-0.469294575042,-0.6793167277,-0.463160364768
7400000000.0,-0.685178960374,-0.460822012996,0.314770976763,-0.467042464742,0.314770976763,-0.467042464742,-0.685178960374,-0.460822012996
7500000000.0,-0.690905314001,-0.458454021198,0.309044027486,-0.464760767313,0.309044027486,-0.464760767313,-0.690905314001,-0.458454021198
7600000000.0,-0.696499003801,-0.456059643316,0.30344973408,-0.462452736304,0.30344973408,-0.462452736304,-0.696499003801,-0.456059643316
7700000000.0,-0.701963203742,-0.453641938838,0.297984922568,-0.460121430815,0.297984922568,-0.460121430815,-0.701963203742,-0.453641938838
7800000000.0,-0.707301042809,-0.451203782839,0.292646463952,-0.457769725537,0.292646463952,-0.457769725537,-0.707301042809,-0.451203782839
7900000000.0,-0.712515601818,-0.448747875586,0.287431277406,-0.455400320361,0.287431277406,-0.455400320361,-0.712515601818,-0.448747875586
8000000000.0,-0.717609910725,-0.446276751751,0.282336332961,-0.453015749579,0.282336332961,-0.453015749579,-0.717609910725,-0.446276751751
8100000000.0,-0.722586946382,-0.443792789193,0.277358653756,-0.450618390685,0.277358653756,-0.450618390685,-0.722586946382,-0.443792789193
8200000000.0,-0.727449630689,-0.441298217368,0.272495317878,-0.448210472766,0.272495317878,-0.448210472766,-0.727449630689,-0.441298217368
8300000000.0,-0.73220082912,-0.438795125331,0.267743459844,-0.445794084518,0.267743459844,-0.445794084518,-0.73220082912,-0.438795125331
8400000000.0,-0.73684334957,-0.436285469377,0.263100271748,-0.443371181879,0.263100271748,-0.443371181879,-0.73684334957,-0.436285469377
8500000000.0,-0.741379941492,-0.433771080301,0.258563004125,-0.440943595296,0.258563004125,-0.440943595296,-0.741379941492,-0.433771080301
8600000000.0,-0.745813295308,-0.43125367032,0.254128966544,-0.438513036639,0.254128966544,-0.438513036639,-0.745813295308,-0.43125367032
8700000000.0,-0.750146042045,-0.428734839644,0.249795527967,-0.436081105777,0.249795527967,-0.436081105777,-0.750146042045,-0.428734839644
8800000000.0,-0.754380753184,-0.426216082718,0.245560116904,-0.433649296823,0.245560116904,-0.433649296823,-0.754380753184,-0.426216082718
8900000000.0,-0.758519940691,-0.423698794156,0.241420221376,-0.431219004063,0.241420221376,-0.431219004063,-0.758519940691,-0.423698794156
9000000000.0,-0.762566057222,-0.421184274367,0.23737338872,-0.428791527578,0.23737338872,-0.428791527578,-0.762566057222,-0.421184274367
9100000000.0,-0.766521496463,-0.418673734885,0.233417225239,-0.426368078589,0.233417225239,-0.426368078589,-0.766521496463,-0.418673734885
9200000000.0,-0.770388593598,-0.416168303434,0.229549395738,-0.423949784505,0.229549395738,-0.423949784505,-0.770388593598,-0.416168303434
9300000000.0,-0.774169625895,-0.413669028714,0.225767622941,-0.42153769372,0.225767622941,-0.42153769372,-0.774169625895,-0.413669028714
9400000000.0,-0.777866813383,-0.411176884943,0.222069686807,-0.419132780152,0.222069686807,-0.419132780152,-0.777866813383,-0.411176884943
9500000000.0,-0.781482319612,-0.408692776151,0.218453423778,-0.416735947536,0.218453423778,-0.416735947536,-0.781482319612,-0.408692776151
9600000000.0,-0.78501825249,-0.406217540248,0.214916725937,-0.414348033492,0.214916725937,-0.414348033492,-0.78501825249,-0.406217540248
9700000000.0,-0.78847666517,-0.40375195287,0.211457540119,-0.411969813372,0.211457540119,-0.411969813372,-0.78847666517,-0.40375195287
9800000000.0,-0.791859557002,-0.401296731013,0.208073866967,-0.409602003895,0.208073866967,-0.409602003895,-0.791859557002,-0.401296731013
9900000000.0,-0.795168874515,-0.398852536478,0.204763759941,-0.407245266591,0.204763759941,-0.407245266591,-0.795168874515,-0.398852536478
10000000000.0,-0.798406512438,-0.396419979119,0.201525324303,-0.404900211047,0.201525324303,-0.404900211047,-0.798406512438,-0.396419979119
