freq (GHz),S11_real,S11_imag,S21_real,S21_imag,S12_real,S12_imag,S22_real,S22_imag
100000000.0,0.000667375362923,6.9233798909e-05,0.999331528282,-0.000166403261162,0.999331528282,-0.000166403261162,0.000667375362923,6.92337989089e-05
200000000.0,0.000671792361056,0.00013846553474,0.999327005484,-0.000332804711045,0.999327005484,-0.000332804711045,0.000671792361056,0.00013846553474
300000000.0,0.000675045291452,0.000207696052405,0.999323637309,-0.000499205333676,0.999323637309,-0.000499205333676,0.000675045291453,0.000207696052405
400000000.0,0.000677715438463,0.000276925645877,0.999320842472,-0.00066560553121,0.999320842472,-0.00066560553121,0.000677715438463,0.000276925645877
500000000.0,0.00068002695096,0.000346154480649,0.999318396825,-0.000832005562059,0.999318396825,-0.000832005562059,0.00068002695096,0.000346154480649
600000000.0,0.000682094282479,0.000415382665606,0.999316185912,-0.000998405617421,0.999316185912,-0.000998405617421,0.000682094282479,0.000415382665606
700000000.0,0.000683985125642,0.000484610278286,0.999314142043,-0.00116480585017,0.999314142043,-0.00116480585017,0.000683985125642,0.000484610278286
800000000.0,0.000685743389054,0.000553837377038,0.999312221306,-0.00133120638823,0.999312221306,-0.00133120638823,0.000685743389054,0.000553837377038
900000000.0,0.000687399434559,0.000623064007053,0.999310393341,-0.00149760734241,0.999310393341,-0.00149760734241,0.000687399434559,0.000623064007052
1000000000.0,0.0006889752666,0.000692290204823,0.999308636142,-0.00166400881034,0.999308636142,-0.00166400881034,0.0006889752666,0.000692290204823
1100000000.0,0.000690487419207,0.000761515999889,0.999306933175,-0.00183041088006,0.999306933175,-0.00183041088006,0.000690487419207,0.000761515999889
1200000000.0,0.000691948676592,0.000830741416931,0.999305271655,-0.00199681363164,0.999305271655,-0.00199681363164,0.000691948676592,0.00083074141693
1300000000.0,0.000693369156016,0.000899966476616,0.999303641465,-0.00216321713887,0.999303641465,-0.00216321713887,0.000693369156016,0.000899966476616
1400000000.0,0.000694757020173,0.000969191196468,0.999302034441,-0.0023296214703,0.999302034441,-0.0023296214703,0.000694757020173,0.000969191196468
1500000000.0,0.000696118962449,0.0010384155915,0.999300443889,-0.00249602669005,0.999300443889,-0.00249602669005,0.000696118962449,0.0010384155915
1600000000.0,0.000697460548138,0.00110763967476,0.999298864244,-0.00266243285833,0.999298864244,-0.00266243285833,0.000697460548137,0.00110763967476
1700000000.0,0.000698786460207,0.00117686345757,0.999297290822,-0.00282884003209,0.999297290822,-0.00282884003209,0.000698786460207,0.00117686345757
1800000000.0,0.000700100680776,0.00124608694984,0.999295719641,-0.00299524826541,0.999295719641,-0.00299524826541,0.000700100680776,0.00124608694984
1900000000.0,0.000701406627165,0.00131531016011,0.999294147283,-0.00316165760994,0.999294147283,-0.00316165760994,0.000701406627165,0.00131531016011
2000000000.0,0.000702707256009,0.00138453309621,0.99929257079,-0.00332806811482,0.99929257079,-0.00332806811482,0.000702707256009,0.00138453309621
2100000000.0,0.00070400514409,0.00145375576492,0.999290987585,-0.00349447982727,0.999290987585,-0.00349447982727,0.00070400514409,0.00145375576492
2200000000.0,0.000705302551937,0.00152297817225,0.999289395408,-0.00366089279276,0.999289395408,-0.00366089279276,0.000705302551938,0.00152297817225
2300000000.0,0.000706601474197,0.00159220032367,0.999287792262,-0.00382730705493,0.999287792262,-0.00382730705493,0.000706601474196,0.00159220032367
2400000000.0,0.000707903680482,0.00166142222407,0.999286176378,-0.00399372265594,0.999286176378,-0.00399372265594,0.000707903680482,0.00166142222407
2500000000.0,0.000709210748441,0.00173064387773,0.999284546177,-0.00416013963672,0.999284546177,-0.00416013963672,0.000709210748441,0.00173064387773
2600000000.0,0.000710524090769,0.0017998652888,0.999282900246,-0.00432655803655,0.999282900246,-0.00432655803655,0.000710524090769,0.0017998652888
2700000000.0,0.000711844977737,0.00186908646072,0.999281237315,-0.00449297789393,0.999281237315,-0.00449297789393,0.000711844977737,0.00186908646072
2800000000.0,0.000713174555802,0.00193830739678,0.999279556235,-0.00465939924604,0.999279556235,-0.00465939924604,0.000713174555802,0.00193830739678
2900000000.0,0.000714513863314,0.00200752810015,0.999277855969,-0.00482582212891,0.999277855969,-0.00482582212891,0.000714513863314,0.00200752810015
3000000000.0,0.000715863843726,0.00207674857339,0.999276135571,-0.00499224657795,0.999276135571,-0.00499224657795,0.000715863843726,0.00207674857339
3100000000.0,0.00071722535687,0.00214596881914,0.999274394182,-0.00515867262741,0.999274394182,-0.00515867262741,0.00071722535687,0.00214596881914
3200000000.0,0.000718599188495,0.00221518883979,0.999272631015,-0.00532510031072,0.999272631015,-0.00532510031072,0.000718599188495,0.00221518883979
3300000000.0,0.000719986058596,0.00228440863746,0.99927084535,-0.00549152966067,0.99927084535,-0.00549152966067,0.000719986058596,0.00228440863746
3400000000.0,0.00072138662846,0.00235362821429,0.999269036523,-0.00565796070913,0.999269036523,-0.00565796070913,0.00072138662846,0.00235362821429
3500000000.0,0.000722801506865,0.00242284757216,0.999267203927,-0.00582439348739,0.999267203927,-0.00582439348739,0.000722801506865,0.00242284757216
3600000000.0,0.000724231255441,0.00249206671295,0.999265346997,-0.00599082802598,0.999265346997,-0.00599082802598,0.000724231255442,0.00249206671295
3700000000.0,0.000725676393375,0.00256128563833,0.999263465216,-0.00615726435493,0.999263465216,-0.00615726435493,0.000725676393375,0.00256128563833
3800000000.0,0.000727137401505,0.00263050435002,0.9992615581,-0.00632370250352,0.9992615581,-0.00632370250352,0.000727137401505,0.00263050435002
3900000000.0,0.000728614725942,0.00269972284958,0.999259625204,-0.00649014250059,0.999259625204,-0.00649014250059,0.000728614725943,0.00269972284958
4000000000.0,0.000730108781326,0.00276894113863,0.999257666111,-0.00665658437429,0.999257666111,-0.00665658437429,0.000730108781326,0.00276894113863
4100000000.0,0.0007316199536,0.00283815921858,0.999255680436,-0.00682302815243,0.999255680436,-0.00682302815243,0.0007316199536,0.00283815921858
4200000000.0,0.000733148602563,0.00290737709094,0.999253667816,-0.00698947386221,0.999253667816,-0.00698947386221,0.000733148602562,0.00290737709094
4300000000.0,0.000734695064122,0.00297659475712,0.999251627917,-0.00715592153041,0.999251627917,-0.00715592153041,0.000734695064123,0.00297659475712
4400000000.0,0.000736259652293,0.00304581221861,0.999249560423,-0.00732237118325,0.999249560423,-0.00732237118325,0.000736259652293,0.00304581221861
4500000000.0,0.000737842661021,0.00311502947675,0.999247465039,-0.00748882284669,0.999247465039,-0.00748882284669,0.00073784266102,0.00311502947675
4600000000.0,0.000739444365771,0.00318424653298,0.999245341488,-0.00765527654615,0.999245341488,-0.00765527654615,0.00073944436577,0.00318424653298
4700000000.0,0.000741065025028,0.00325346338869,0.999243189513,-0.00782173230669,0.999243189513,-0.00782173230669,0.000741065025028,0.00325346338869
4800000000.0,0.000742704881576,0.00332268004526,0.999241008868,-0.007988190153,0.999241008868,-0.007988190153,0.000742704881577,0.00332268004526
4900000000.0,0.000744364163714,0.00339189650414,0.999238799326,-0.00815465010937,0.999238799326,-0.00815465010937,0.000744364163714,0.00339189650414
5000000000.0,0.00074604308633,0.00346111276674,0.99923656067,-0.00832111219976,0.99923656067,-0.00832111219976,0.000746043086331,0.00346111276674
5100000000.0,0.000747741851878,0.00353032883447,0.999234292696,-0.0084875764478,0.999234292696,-0.0084875764478,0.000747741851878,0.00353032883447
5200000000.0,0.00074946065128,0.00359954470886,0.999231995214,-0.00865404287673,0.999231995214,-0.00865404287673,0.00074946065128,0.00359954470885
5300000000.0,0.000751199664734,0.00366876039135,0.999229668042,-0.00882051150952,0.999229668042,-0.00882051150952,0.000751199664735,0.00366876039135
5400000000.0,0.00075295906247,0.00373797588345,0.999227311009,-0.00898698236886,0.999227311009,-0.00898698236886,0.00075295906247,0.00373797588345
5500000000.0,0.000754739005413,0.00380719118671,0.999224923953,-0.00915345547708,0.999224923953,-0.00915345547708,0.000754739005414,0.00380719118671
5600000000.0,0.000756539645819,0.00387640630271,0.999222506721,-0.00931993085625,0.999222506721,-0.00931993085625,0.000756539645819,0.00387640630271
5700000000.0,0.000758361127845,0.00394562123306,0.999220059169,-0.00948640852815,0.999220059169,-0.00948640852815,0.000758361127845,0.00394562123306
5800000000.0,0.000760203588082,0.00401483597939,0.999217581158,-0.00965288851433,0.999217581158,-0.00965288851433,0.000760203588082,0.00401483597939
5900000000.0,0.000762067156029,0.00408405054337,0.999215072558,-0.00981937083606,0.999215072558,-0.00981937083606,0.000762067156029,0.00408405054337
6000000000.0,0.000763951954539,0.00415326492675,0.999212533246,-0.0099858555143,0.999212533246,-0.0099858555143,0.000763951954539,0.00415326492675
6100000000.0,0.000765858100252,0.00422247913128,0.999209963103,-0.0101523425698,0.999209963103,-0.0101523425698,0.000765858100251,0.00422247913128
6200000000.0,0.000767785703948,0.00429169315877,0.999207362019,-0.0103188320232,0.999207362019,-0.0103188320232,0.000767785703948,0.00429169315877
6300000000.0,0.000769734870922,0.00436090701105,0.999204729887,-0.0104853238947,0.999204729887,-0.0104853238947,0.000769734870922,0.00436090701105
6400000000.0,0.000771705701301,0.00443012069003,0.999202066606,-0.0106518182044,0.999202066606,-0.0106518182044,0.000771705701301,0.00443012069003
6500000000.0,0.000773698290352,0.00449933419767,0.99919937208,-0.0108183149721,0.99919937208,-0.0108183149721,0.000773698290352,0.00449933419767
6600000000.0,0.000775712728754,0.00456854753593,0.999196646217,-0.0109848142175,0.999196646217,-0.0109848142175,0.000775712728753,0.00456854753593
6700000000.0,0.000777749102869,0.00463776070688,0.999193888929,-0.01115131596,0.999193888929,-0.01115131596,0.000777749102869,0.00463776070688
6800000000.0,0.000779807494988,0.0047069737126,0.999191100135,-0.0113178202188,0.999191100135,-0.0113178202188,0.000779807494989,0.0047069737126
6900000000.0,0.000781887983558,0.00477618655518,0.999188279754,-0.0114843270131,0.999188279754,-0.0114843270131,0.000781887983558,0.00477618655518
7000000000.0,0.000783990643375,0.00484539923689,0.99918542771,-0.0116508363615,0.99918542771,-0.0116508363615,0.000783990643375,0.00484539923689
7100000000.0,0.000786115545813,0.00491461175995,0.999182543931,-0.0118173482827,0.999182543931,-0.0118173482827,0.000786115545813,0.00491461175995
7200000000.0,0.000788262758981,0.00498382412663,0.999179628349,-0.0119838627954,0.999179628349,-0.0119838627954,0.000788262758981,0.00498382412663
7300000000.0,0.000790432347918,0.00505303633929,0.999176680897,-0.0121503799177,0.999176680897,-0.0121503799177,0.000790432347918,0.00505303633929
7400000000.0,0.000792624374735,0.00512224840034,0.999173701512,-0.0123168996677,0.999173701512,-0.0123168996677,0.000792624374735,0.00512224840034
7500000000.0,0.00079483889878,0.00519146031226,0.999170690133,-0.0124834220634,0.999170690133,-0.0124834220634,0.00079483889878,0.00519146031226
7600000000.0,0.000797075976781,0.00526067207753,0.999167646704,-0.0126499471227,0.999167646704,-0.0126499471227,0.000797075976781,0.00526067207753
7700000000.0,0.000799335662967,0.00532988369872,0.999164571168,-0.0128164748632,0.999164571168,-0.0128164748632,0.000799335662967,0.00532988369872
7800000000.0,0.000801618009211,0.00539909517848,0.999161463474,-0.0129830053022,0.999161463474,-0.0129830053022,0.000801618009211,0.00539909517848
7900000000.0,0.000803923065122,0.00546830651948,0.999158323569,-0.0131495384572,0.999158323569,-0.0131495384572,0.000803923065122,0.00546830651948
8000000000.0,0.000806250878193,0.00553751772444,0.999155151407,-0.0133160743454,0.999155151407,-0.0133160743454,0.000806250878193,0.00553751772444
8100000000.0,0.000808601493868,0.00560672879616,0.99915194694,-0.0134826129837,0.99915194694,-0.0134826129837,0.000808601493868,0.00560672879616
8200000000.0,0.000810974955664,0.00567593973749,0.999148710124,-0.0136491543891,0.999148710124,-0.0136491543891,0.000810974955664,0.00567593973749
8300000000.0,0.000813371305252,0.00574515055137,0.999145440916,-0.0138156985782,0.999145440916,-0.0138156985782,0.000813371305252,0.00574515055137
8400000000.0,0.000815790582554,0.00581436124072,0.999142139276,-0.0139822455677,0.999142139276,-0.0139822455677,0.000815790582554,0.00581436124072
8500000000.0,0.000818232825817,0.00588357180857,0.999138805163,-0.014148795374,0.999138805163,-0.014148795374,0.000818232825817,0.00588357180857
8600000000.0,0.000820698071695,0.005952782258,0.999135438541,-0.0143153480136,0.999135438541,-0.0143153480136,0.000820698071694,0.005952782258
8700000000.0,0.000823186355318,0.00602199259215,0.999132039373,-0.0144819035026,0.999132039373,-0.0144819035026,0.000823186355318,0.00602199259215
8800000000.0,0.000825697710372,0.00609120281421,0.999128607625,-0.0146484618571,0.999128607625,-0.0146484618571,0.000825697710372,0.00609120281421
8900000000.0,0.000828232169153,0.00616041292742,0.999125143263,-0.014815023093,0.999125143263,-0.014815023093,0.000828232169153,0.00616041292742
9000000000.0,0.000830789762637,0.0062296229351,0.999121646255,-0.0149815872263,0.999121646255,-0.0149815872263,0.000830789762637,0.0062296229351
9100000000.0,0.000833370520538,0.00629883284061,0.99911811657,-0.0151481542726,0.99911811657,-0.0151481542726,0.000833370520538,0.00629883284061
9200000000.0,0.000835974471359,0.00636804264736,0.99911455418,-0.0153147242475,0.99911455418,-0.0153147242475,0.000835974471359,0.00636804264736
9300000000.0,0.000838601642454,0.00643725235886,0.999110959054,-0.0154812971666,0.999110959054,-0.0154812971666,0.000838601642454,0.00643725235886
9400000000.0,0.000841252060067,0.00650646197863,0.999107331167,-0.0156478730452,0.999107331167,-0.0156478730452,0.000841252060067,0.00650646197863
9500000000.0,0.000843925749395,0.00657567151024,0.999103670492,-0.0158144518986,0.999103670492,-0.0158144518986,0.000843925749395,0.00657567151024
9600000000.0,0.000846622734617,0.00664488095738,0.999099977004,-0.0159810337419,0.999099977004,-0.0159810337419,0.000846622734617,0.00664488095738
9700000000.0,0.000849343038947,0.00671409032375,0.999096250678,-0.0161476185903,0.999096250678,-0.0161476185903,0.000849343038947,0.00671409032375
9800000000.0,0.000852086684677,0.00678329961309,0.999092491492,-0.0163142064586,0.999092491492,-0.0163142064586,0.000852086684677,0.00678329961309
9900000000.0,0.000854853693207,0.00685250882925,0.999088699422,-0.0164807973618,0.999088699422,-0.0164807973618,0.000854853693207,0.00685250882925
10000000000.0,0.000857644085089,0.00692171797612,0.999084874446,-0.0166473913146,0.999084874446,-0.0166473913146,0.000857644085089,0.00692171797612
