freq (GHz),S11_real,S11_imag,S21_real,S21_imag,S12_real,S12_imag,S22_real,S22_imag
100000000.0,0.000152790385685,-0.00119492766578,0.999839242495,-0.00169376622839,0.999839242495,-0.00169376622839,0.000152790385685,-0.00119492766578
200000000.0,0.000146379272946,-0.00238985614737,0.999830341232,-0.00338753776114,0.999830341232,-0.00338753776114,0.000146379272946,-0.00238985614737
300000000.0,0.000135646699637,-0.00358478068946,0.999817415775,-0.00508131415639,0.999817415775,-0.00508131415639,0.000135646699637,-0.00358478068946
400000000.0,0.000120727805179,-0.00477969384805,0.99980033052,-0.0067750910027,0.99980033052,-0.0067750910027,0.000120727805179,-0.00477969384805
500000000.0,0.00010167434505,-0.00597458674326,0.999779033231,-0.00846886196066,0.999779033231,-0.00846886196066,0.00010167434505,-0.00597458674326
600000000.0,7.85125346459e-05,-0.00716944953746,0.999753497217,-0.0101626194411,0.999753497217,-0.0101626194411,7.85125346461e-05,-0.00716944953746
700000000.0,5.12577403402e-05,-0.00836427168438,0.999723706666,-0.0118563549454,0.999723706666,-0.0118563549454,5.125774034e-05,-0.00836427168438
800000000.0,1.99198384474e-05,-0.00955904208095,0.999689651297,-0.0135500592684,0.999689651297,-0.0135500592684,1.99198384474e-05,-0.00955904208095
900000000.0,-1.54943991368e-05,-0.0107537491675,0.999651323986,-0.0152437226305,0.999651323986,-0.0152437226305,-1.54943991366e-05,-0.0107537491675
1000000000.0,-5.4980095237e-05,-0.0119483809995,0.99960871957,-0.0169373347713,0.99960871957,-0.0169373347713,-5.49800952372e-05,-0.0119483809995
1100000000.0,-9.85335943113e-05,-0.0131429252999,0.999561834176,-0.0186308850177,0.999561834176,-0.0186308850177,-9.85335943117e-05,-0.0131429252999
1200000000.0,-0.000146152060706,-0.0143373695004,0.999510664833,-0.0203243623366,0.999510664833,-0.0203243623366,-0.000146152060706,-0.0143373695004
1300000000.0,-0.000197833225278,-0.0155317007734,0.999455209221,-0.0220177553762,0.999455209221,-0.0220177553762,-0.000197833225278,-0.0155317007734
1400000000.0,-0.000253575218299,-0.0167259060583,0.999395465512,-0.0237110524986,0.999395465512,-0.0237110524986,-0.000253575218299,-0.0167259060583
1500000000.0,-0.000313376455071,-0.0179199720825,0.99933143226,-0.0254042418078,0.99933143226,-0.0254042418078,-0.000313376455071,-0.0179199720825
1600000000.0,-0.000377235555141,-0.0191138853802,0.999263108324,-0.0270973111723,0.999263108324,-0.0270973111723,-0.000377235555141,-0.0191138853802
1700000000.0,-0.000445151283699,-0.0203076323074,0.999190492816,-0.0287902482445,0.999190492816,-0.0287902482445,-0.000445151283699,-0.0203076323074
1800000000.0,-0.000517122508007,-0.0215011990553,0.999113585062,-0.0304830404772,0.999113585062,-0.0304830404772,-0.000517122508007,-0.0215011990553
1900000000.0,-0.000593148164381,-0.022694571662,0.999032384568,-0.0321756751384,0.999032384568,-0.0321756751384,-0.000593148164381,-0.022694571662
2000000000.0,-0.000673227232663,-0.0238877360224,0.998946891005,-0.0338681393235,0.998946891005,-0.0338681393235,-0.000673227232663,-0.0238877360224
2100000000.0,-0.000757358716161,-0.0250806778976,0.998857104186,-0.0355604199671,0.998857104186,-0.0355604199671,-0.000757358716161,-0.0250806778976
2200000000.0,-0.00084554162564,-0.0262733829231,0.998763024059,-0.0372525038525,0.998763024059,-0.0372525038525,-0.00084554162564,-0.0262733829231
2300000000.0,-0.000937774966389,-0.0274658366156,0.998664650689,-0.0389443776211,0.998664650689,-0.0389443776211,-0.00093777496639,-0.0274658366156
2400000000.0,-0.00103405772761,-0.02865802438,0.998561984261,-0.0406360277802,0.998561984261,-0.0406360277802,-0.00103405772761,-0.02865802438
2500000000.0,-0.00113438887362,-0.0298499315157,0.998455025063,-0.0423274407106,0.998455025063,-0.0423274407106,-0.00113438887362,-0.0298499315157
2600000000.0,-0.00123876733651,-0.0310415432217,0.998343773489,-0.0440186026733,0.998343773489,-0.0440186026733,-0.00123876733651,-0.0310415432217
2700000000.0,-0.00134719200989,-0.0322328446019,0.998228230031,-0.0457094998159,0.998228230031,-0.0457094998159,-0.00134719200989,-0.0322328446019
2800000000.0,-0.00145966174357,-0.0334238206699,0.998108395279,-0.0474001181779,0.998108395279,-0.0474001181779,-0.00145966174357,-0.0334238206699
2900000000.0,-0.00157617533899,-0.0346144563534,0.997984269914,-0.0490904436964,0.997984269914,-0.0490904436964,-0.00157617533899,-0.0346144563534
3000000000.0,-0.00169673154519,-0.0358047364985,0.997855854711,-0.050780462211,0.997855854711,-0.050780462211,-0.00169673154519,-0.0358047364985
3100000000.0,-0.00182132905539,-0.0369946458733,0.997723150535,-0.0524701594685,0.997723150535,-0.0524701594685,-0.00182132905539,-0.0369946458733
3200000000.0,-0.00194996650385,-0.0381841691718,0.997586158341,-0.0541595211268,0.997586158341,-0.0541595211268,-0.00194996650385,-0.0381841691718
3300000000.0,-0.0020826424632,-0.039373291017,0.997444879169,-0.0558485327596,0.997444879169,-0.0558485327596,-0.0020826424632,-0.039373291017
3400000000.0,-0.00221935544196,-0.0405619959647,0.99729931415,-0.05753717986,0.99729931415,-0.05753717986,-0.00221935544196,-0.0405619959647
3500000000.0,-0.0023601038824,-0.0417502685061,0.997149464501,-0.0592254478439,0.997149464501,-0.0592254478439,-0.0023601038824,-0.0417502685061
3600000000.0,-0.00250488615855,-0.0429380930711,0.996995331525,-0.0609133220539,0.996995331525,-0.0609133220539,-0.00250488615855,-0.0429380930711
3700000000.0,-0.00265370057443,-0.0441254540309,0.996836916613,-0.0626007877624,0.996836916613,-0.0626007877624,-0.00265370057443,-0.0441254540309
3800000000.0,-0.00280654536243,-0.0453123357009,0.996674221239,-0.0642878301746,0.996674221239,-0.0642878301746,-0.00280654536243,-0.0453123357009
3900000000.0,-0.0029634186818,-0.046498722343,0.996507246966,-0.0659744344318,0.996507246966,-0.0659744344318,-0.00296341868179,-0.046498722343
4000000000.0,-0.00312431861734,-0.0476845981685,0.996335995443,-0.0676605856141,0.996335995443,-0.0676605856141,-0.00312431861734,-0.0476845981685
4100000000.0,-0.00328924317812,-0.04886994734,0.996160468403,-0.069346268743,0.996160468403,-0.069346268743,-0.00328924317812,-0.04886994734
4200000000.0,-0.00345819029636,-0.0500547539741,0.995980667667,-0.0710314687846,0.995980667667,-0.0710314687846,-0.00345819029636,-0.0500547539741
4300000000.0,-0.00363115782632,-0.0512390021436,0.995796595141,-0.0727161706514,0.995796595141,-0.0727161706514,-0.00363115782632,-0.0512390021436
4400000000.0,-0.00380814354335,-0.0524226758794,0.995608252819,-0.0744003592055,0.995608252819,-0.0744003592055,-0.00380814354335,-0.0524226758794
4500000000.0,-0.00398914514297,-0.0536057591728,0.995415642779,-0.0760840192605,0.995415642779,-0.0760840192605,-0.00398914514297,-0.0536057591728
4600000000.0,-0.00417416024002,-0.0547882359774,0.995218767188,-0.0777671355839,0.995218767188,-0.0777671355839,-0.00417416024002,-0.0547882359774
4700000000.0,-0.00436318636784,-0.0559700902113,0.995017628298,-0.0794496928995,0.995017628298,-0.0794496928995,-0.00436318636784,-0.0559700902113
4800000000.0,-0.00455622097757,-0.0571513057588,0.99481222845,-0.0811316758894,0.99481222845,-0.0811316758894,-0.00455622097757,-0.0571513057588
4900000000.0,-0.00475326143743,-0.0583318664723,0.99460257007,-0.0828130691962,0.99460257007,-0.0828130691962,-0.00475326143743,-0.0583318664723
5000000000.0,-0.00495430503208,-0.0595117561742,0.994388655674,-0.0844938574249,0.994388655674,-0.0844938574249,-0.00495430503208,-0.0595117561742
5100000000.0,-0.00515934896203,-0.0606909586586,0.994170487862,-0.0861740251452,0.994170487862,-0.0861740251452,-0.00515934896203,-0.0606909586586
5200000000.0,-0.00536839034305,-0.0618694576931,0.993948069326,-0.087853556893,0.993948069326,-0.087853556893,-0.00536839034305,-0.0618694576931
5300000000.0,-0.00558142620567,-0.0630472370204,0.993721402844,-0.0895324371727,0.993721402844,-0.0895324371727,-0.00558142620567,-0.0630472370204
5400000000.0,-0.00579845349466,-0.0642242803601,0.99349049128,-0.0912106504588,0.99349049128,-0.0912106504588,-0.00579845349466,-0.0642242803601
5500000000.0,-0.00601946906857,-0.0654005714103,0.99325533759,-0.0928881811978,0.99325533759,-0.0928881811978,-0.00601946906857,-0.0654005714103
5600000000.0,-0.00624446969932,-0.0665760938489,0.993015944817,-0.0945650138099,0.993015944817,-0.0945650138099,-0.00624446969932,-0.0665760938489
5700000000.0,-0.00647345207177,-0.0677508313357,0.992772316093,-0.0962411326909,0.992772316093,-0.0962411326909,-0.00647345207177,-0.0677508313357
5800000000.0,-0.00670641278334,-0.0689247675136,0.992524454637,-0.0979165222136,0.992524454637,-0.0979165222136,-0.00670641278334,-0.0689247675136
5900000000.0,-0.0069433483437,-0.07009788601,0.992272363761,-0.0995911667299,0.992272363761,-0.0995911667299,-0.0069433483437,-0.07009788601
6000000000.0,-0.00718425517439,-0.0712701704385,0.992016046862,-0.101265050572,0.992016046862,-0.101265050572,-0.00718425517439,-0.0712701704385
6100000000.0,-0.00742912960854,-0.0724416044004,0.991755507428,-0.102938158054,0.991755507428,-0.102938158054,-0.00742912960854,-0.0724416044004
6200000000.0,-0.00767796789061,-0.0736121714858,0.991490749038,-0.104610473473,0.991490749038,-0.104610473473,-0.00767796789061,-0.0736121714858
6300000000.0,-0.00793076617608,-0.0747818552756,0.991221775359,-0.106281981114,0.991221775359,-0.106281981114,-0.00793076617608,-0.0747818552756
6400000000.0,-0.00818752053125,-0.075950639342,0.990948590147,-0.107952665244,0.990948590147,-0.107952665244,-0.00818752053125,-0.075950639342
6500000000.0,-0.00844822693301,-0.077118507251,0.990671197249,-0.109622510123,0.990671197249,-0.109622510123,-0.00844822693301,-0.077118507251
6600000000.0,-0.00871288126865,-0.0782854425626,0.990389600602,-0.111291499998,0.990389600602,-0.111291499998,-0.00871288126865,-0.0782854425626
6700000000.0,-0.00898147933565,-0.079451428833,0.990103804232,-0.112959619107,0.990103804232,-0.112959619107,-0.00898147933565,-0.079451428833
6800000000.0,-0.00925401684154,-0.0806164496154,0.989813812256,-0.114626851681,0.989813812256,-0.114626851681,-0.00925401684154,-0.0806164496154
6900000000.0,-0.00953048940376,-0.0817804884616,0.98951962888,-0.116293181946,0.98951962888,-0.116293181946,-0.00953048940376,-0.0817804884616
7000000000.0,-0.00981089254947,-0.082943528923,0.989221258401,-0.11795859412,0.989221258401,-0.11795859412,-0.00981089254947,-0.082943528923
7100000000.0,-0.0100952217156,-0.0841055545521,0.988918705207,-0.119623072422,0.988918705207,-0.119623072422,-0.0100952217156,-0.0841055545521
7200000000.0,-0.0103834722484,-0.0852665489036,0.988611973775,-0.121286601065,0.988611973775,-0.121286601065,-0.0103834722484,-0.0852665489036
7300000000.0,-0.0106756394039,-0.0864264955358,0.988301068671,-0.122949164264,0.988301068671,-0.122949164264,-0.0106756394039,-0.0864264955358
7400000000.0,-0.0109717183473,-0.0875853780115,0.987985994554,-0.124610746233,0.987985994554,-0.124610746233,-0.0109717183473,-0.0875853780115
7500000000.0,-0.0112717041532,-0.0887431798994,0.987666756171,-0.126271331189,0.987666756171,-0.126271331189,-0.0112717041532,-0.0887431798994
7600000000.0,-0.0115755918057,-0.0898998847754,0.987343358361,-0.12793090335,0.987343358361,-0.12793090335,-0.0115755918057,-0.0898998847754
7700000000.0,-0.0118833761979,-0.0910554762236,0.987015806053,-0.129589446941,0.987015806053,-0.129589446941,-0.0118833761979,-0.0910554762236
7800000000.0,-0.0121950521325,-0.0922099378374,0.986684104264,-0.131246946192,0.986684104264,-0.131246946192,-0.0121950521325,-0.0922099378374
7900000000.0,-0.0125106143211,-0.0933632532209,0.986348258103,-0.132903385338,0.986348258103,-0.132903385338,-0.0125106143211,-0.0933632532209
8000000000.0,-0.0128300573849,-0.0945154059896,0.98600827277,-0.134558748624,0.98600827277,-0.134558748624,-0.0128300573849,-0.0945154059896
8100000000.0,-0.0131533758544,-0.0956663797721,0.985664153552,-0.136213020303,0.985664153552,-0.136213020303,-0.0131533758544,-0.0956663797721
8200000000.0,-0.0134805641694,-0.0968161582107,0.985315905829,-0.13786618464,0.985315905829,-0.13786618464,-0.0134805641694,-0.0968161582107
8300000000.0,-0.0138116166791,-0.0979647249627,0.984963535069,-0.13951822591,0.984963535069,-0.13951822591,-0.0138116166791,-0.0979647249627
8400000000.0,-0.0141465276423,-0.0991120637017,0.98460704683,-0.141169128401,0.98460704683,-0.141169128401,-0.0141465276423,-0.0991120637017
8500000000.0,-0.0144852912272,-0.100258158118,0.984246446761,-0.142818876415,0.984246446761,-0.142818876415,-0.0144852912272,-0.100258158118
8600000000.0,-0.0148279015118,-0.101402991921,0.983881740598,-0.144467454269,0.983881740598,-0.144467454269,-0.0148279015118,-0.101402991921
8700000000.0,-0.0151743524839,-0.102546548838,0.983512934169,-0.146114846297,0.983512934169,-0.146114846297,-0.0151743524839,-0.102546548838
8800000000.0,-0.0155246380411,-0.103688812618,0.98314003339,-0.147761036848,0.98314003339,-0.147761036848,-0.0155246380411,-0.103688812618
8900000000.0,-0.0158787519908,-0.10482976703,0.982763044265,-0.149406010292,0.982763044265,-0.149406010292,-0.0158787519908,-0.10482976703
9000000000.0,-0.0162366880509,-0.105969395866,0.98238197289,-0.151049751017,0.98238197289,-0.151049751017,-0.0162366880509,-0.105969395866
9100000000.0,-0.0165984398494,-0.107107682943,0.981996825447,-0.15269224343,0.981996825447,-0.15269224343,-0.0165984398494,-0.107107682943
9200000000.0,-0.0169640009247,-0.108244612099,0.981607608208,-0.154333471962,0.981607608208,-0.154333471962,-0.0169640009247,-0.108244612099
9300000000.0,-0.0173333647258,-0.109380167199,0.981214327533,-0.155973421064,0.981214327533,-0.155973421064,-0.0173333647258,-0.109380167199
9400000000.0,-0.0177065246125,-0.110514332136,0.98081698987,-0.157612075214,0.98081698987,-0.157612075214,-0.0177065246125,-0.110514332136
9500000000.0,-0.0180834738556,-0.111647090828,0.980415601756,-0.159249418911,0.980415601756,-0.159249418911,-0.0180834738556,-0.111647090828
9600000000.0,-0.0184642056369,-0.112778427221,0.980010169816,-0.160885436681,0.980010169816,-0.160885436681,-0.0184642056369,-0.112778427221
9700000000.0,-0.0188487130498,-0.113908325293,0.97960070076,-0.162520113077,0.97960070076,-0.162520113077,-0.0188487130498,-0.113908325293
9800000000.0,-0.0192369890991,-0.115036769049,0.979187201389,-0.164153432679,0.979187201389,-0.164153432679,-0.0192369890991,-0.115036769049
9900000000.0,-0.0196290267014,-0.116163742527,0.978769678589,-0.165785380097,0.978769678589,-0.165785380097,-0.0196290267014,-0.116163742527
10000000000.0,-0.0200248186855,-0.117289229797,0.978348139333,-0.167415939967,0.978348139333,-0.167415939967,-0.0200248186855,-0.117289229797
