freq (GHz),S11_real,S11_imag,S21_real,S21_imag,S12_real,S12_imag,S22_real,S22_imag
100000000.0,0.00387952292125,0.00225498509465,0.996114348876,-0.004660262038,0.996114348876,-0.004660262038,0.00387952292126,0.00225498509465
200000000.0,0.00393584617771,0.00450940612176,0.996047104099,-0.00931999974996,0.996047104099,-0.00931999974996,0.00393584617771,0.00450940612177
300000000.0,0.00400647964233,0.00676318925273,0.995959754996,-0.0139791645569,0.995959754996,-0.0139791645569,0.00400647964233,0.00676318925273
400000000.0,0.00409476356409,0.00901616698052,0.99584896027,-0.0186376079894,0.99584896027,-0.0186376079894,0.00409476356409,0.00901616698052
500000000.0,0.00420197716501,0.0112681501348,0.995713439418,-0.0232951567325,0.995713439418,-0.0232951567325,0.00420197716501,0.0112681501348
600000000.0,0.00432876560346,0.0135189401013,0.995552545789,-0.0279516259171,0.995552545789,-0.0279516259171,0.00432876560346,0.0135189401013
700000000.0,0.00447550260636,0.0157683332367,0.995365903963,-0.0326068240838,0.995365903963,-0.0326068240838,0.00447550260636,0.0157683332367
800000000.0,0.00464242277293,0.0180161229348,0.995153277455,-0.0372605555808,0.995153277455,-0.0372605555808,0.00464242277293,0.0180161229348
900000000.0,0.00482968046225,0.0202621007515,0.994914509841,-0.0419126219088,0.994914509841,-0.0419126219088,0.00482968046225,0.0202621007515
1000000000.0,0.00503737963175,0.0225060570841,0.994649494925,-0.0465628225556,0.994649494925,-0.0465628225556,0.00503737963176,0.0225060570841
1100000000.0,0.00526559041901,0.0247477816144,0.994358160161,-0.0512109555547,0.994358160161,-0.0512109555547,0.00526559041901,0.0247477816144
1200000000.0,0.00551435902018,0.0269870636155,0.994040456785,-0.0558568178812,0.994040456785,-0.0558568178812,0.00551435902018,0.0269870636155
1300000000.0,0.00578371390462,0.0292236921762,0.993696353601,-0.0605002057467,0.993696353601,-0.0605002057467,0.00578371390462,0.0292236921762
1400000000.0,0.00607366990026,0.0314574563714,0.993325832904,-0.0651409148264,0.993325832904,-0.0651409148264,0.00607366990026,0.0314574563714
1500000000.0,0.00638423097885,0.0336881453971,0.992928887696,-0.0697787404415,0.992928887696,-0.0697787404415,0.00638423097885,0.0336881453971
1600000000.0,0.00671539221392,0.0359155486806,0.992505519733,-0.0744134777088,0.992505519733,-0.0744134777088,0.00671539221391,0.0359155486806
1700000000.0,0.00706714119384,0.0381394559727,0.992055738117,-0.0790449216665,0.992055738117,-0.0790449216665,0.00706714119384,0.0381394559727
1800000000.0,0.00743945906547,0.0403596574276,0.991579558251,-0.083672867383,0.991579558251,-0.083672867383,0.00743945906547,0.0403596574276
1900000000.0,0.00783232132051,0.0425759436728,0.991077001061,-0.088297110052,0.991077001061,-0.088297110052,0.00783232132051,0.0425759436728
2000000000.0,0.0082456983991,0.0447881058715,0.990548092392,-0.0929174450772,0.990548092392,-0.0929174450772,0.0082456983991,0.0447881058715
2100000000.0,0.00867955616068,0.04699593578,0.989992862541,-0.0975336681484,0.989992862541,-0.0975336681484,0.00867955616068,0.04699593578
2200000000.0,0.00913385625704,0.0491992257998,0.989411345884,-0.102145575312,0.989411345884,-0.102145575312,0.00913385625704,0.0491992257998
2300000000.0,0.00960855643198,0.0513977690266,0.988803580583,-0.106752963034,0.988803580583,-0.106752963034,0.00960855643198,0.0513977690266
2400000000.0,0.0101036107653,0.0535913592966,0.988169608339,-0.111355628263,0.988169608339,-0.111355628263,0.0101036107653,0.0535913592966
2500000000.0,0.0106189698739,0.0557797912294,0.987509474197,-0.115953368483,0.987509474197,-0.115953368483,0.0106189698739,0.0557797912294
2600000000.0,0.0111545810798,0.0579628602703,0.986823226379,-0.120545981766,0.986823226379,-0.120545981766,0.0111545810798,0.0579628602703
2700000000.0,0.0117103885517,0.0601403627295,0.98611091614,-0.125133266828,0.98611091614,-0.125133266828,0.0117103885517,0.0601403627295
2800000000.0,0.0122863334262,0.0623120958207,0.985372597656,-0.12971502307,0.985372597656,-0.12971502307,0.0122863334262,0.0623120958207
2900000000.0,0.012882353912,0.0644778576983,0.984608327916,-0.134291050629,0.984608327916,-0.134291050629,0.012882353912,0.0644778576983
3000000000.0,0.0134983853815,0.0666374474932,0.983818166632,-0.138861150417,0.983818166632,-0.138861150417,0.0134983853815,0.0666374474932
3100000000.0,0.0141343604511,0.0687906653475,0.983002176163,-0.14342512417,0.983002176163,-0.14342512417,0.0141343604511,0.0687906653475
3200000000.0,0.0147902090526,0.070937312449,0.982160421442,-0.147982774483,0.982160421442,-0.147982774483,0.0147902090526,0.070937312449
3300000000.0,0.0154658584982,0.0730771910639,0.981292969914,-0.152533904853,0.981292969914,-0.152533904853,0.0154658584982,0.0730771910639
3400000000.0,0.016161233539,0.0752101045693,0.98039989148,-0.157078319715,0.98039989148,-0.157078319715,0.016161233539,0.0752101045693
3500000000.0,0.0168762564183,0.077335857485,0.979481258441,-0.161615824483,0.979481258441,-0.161615824483,0.0168762564183,0.077335857485
3600000000.0,0.0176108469219,0.0794542555044,0.978537145451,-0.166146225582,0.978537145451,-0.166146225582,0.0176108469219,0.0794542555044
3700000000.0,0.0183649224245,0.0815651055246,0.977567629474,-0.170669330486,0.977567629474,-0.170669330486,0.0183649224245,0.0815651055246
3800000000.0,0.0191383979327,0.0836682156765,0.976572789738,-0.17518494775,0.976572789738,-0.17518494775,0.0191383979327,0.0836682156765
3900000000.0,0.0199311861268,0.0857633953533,0.975552707695,-0.179692887047,0.975552707695,-0.179692887047,0.0199311861268,0.0857633953533
4000000000.0,0.0207431974002,0.0878504552397,0.974507466985,-0.184192959197,0.974507466985,-0.184192959197,0.0207431974002,0.0878504552397
4100000000.0,0.0215743398965,0.0899292073392,0.973437153397,-0.1886849762,0.973437153397,-0.1886849762,0.0215743398965,0.0899292073392
4200000000.0,0.0224245195465,0.091999465002,0.972341854835,-0.193168751268,0.972341854835,-0.193168751268,0.0224245195465,0.091999465002
4300000000.0,0.0232936401033,0.0940610429513,0.971221661282,-0.197644098852,0.971221661282,-0.197644098852,0.0232936401033,0.0940610429513
4400000000.0,0.0241816031762,0.0961137573099,0.970076664767,-0.202110834676,0.970076664767,-0.202110834676,0.0241816031762,0.0961137573099
4500000000.0,0.0250883082647,0.0981574256261,0.968906959334,-0.206568775763,0.968906959334,-0.206568775763,0.0250883082647,0.0981574256261
4600000000.0,0.026013652791,0.100191866898,0.967712641006,-0.211017740464,0.967712641006,-0.211017740464,0.026013652791,0.100191866898
4700000000.0,0.0269575321324,0.102216901601,0.966493807758,-0.215457548483,0.966493807758,-0.215457548483,0.0269575321324,0.102216901601
4800000000.0,0.0279198396533,0.104232351706,0.965250559482,-0.219888020909,0.965250559482,-0.219888020909,0.0279198396533,0.104232351706
4900000000.0,0.0289004667365,0.10623804071,0.963982997957,-0.224308980235,0.963982997957,-0.224308980235,0.0289004667365,0.10623804071
5000000000.0,0.0298993028146,0.108233793655,0.962691226821,-0.228720250389,0.962691226821,-0.228720250389,0.0298993028146,0.108233793655
5100000000.0,0.0309162354008,0.110219437151,0.961375351536,-0.233121656758,0.961375351536,-0.233121656758,0.0309162354008,0.110219437151
5200000000.0,0.0319511501198,0.1121947994,0.960035479361,-0.237513026209,0.960035479361,-0.237513026209,0.0319511501198,0.1121947994
5300000000.0,0.0330039307385,0.114159710216,0.958671719323,-0.241894187116,0.958671719323,-0.241894187116,0.0330039307385,0.114159710216
5400000000.0,0.0340744591965,0.116114001044,0.957284182181,-0.24626496938,0.957284182181,-0.24626496938,0.0340744591965,0.116114001044
5500000000.0,0.0351626156362,0.118057504984,0.955872980405,-0.250625204453,0.955872980405,-0.250625204453,0.0351626156362,0.118057504984
5600000000.0,0.0362682784339,0.119990056811,0.954438228136,-0.25497472536,0.954438228136,-0.25497472536,0.0362682784339,0.119990056811
5700000000.0,0.0373913242297,0.12191149299,0.952980041164,-0.259313366718,0.952980041164,-0.259313366718,0.0373913242297,0.12191149299
5800000000.0,0.0385316279579,0.123821651701,0.951498536894,-0.26364096476,0.951498536894,-0.26364096476,0.0385316279579,0.123821651701
5900000000.0,0.0396890628774,0.125720372852,0.949993834318,-0.267957357349,0.949993834318,-0.267957357349,0.0396890628774,0.125720372852
6000000000.0,0.0408635006021,0.127607498098,0.948466053983,-0.272262384003,0.948466053983,-0.272262384003,0.0408635006021,0.127607498098
6100000000.0,0.0420548111313,0.129482870863,0.946915317962,-0.27655588591,0.946915317962,-0.27655588591,0.0420548111313,0.129482870863
6200000000.0,0.04326286288,0.13134633635,0.945341749825,-0.280837705948,0.945341749825,-0.280837705948,0.04326286288,0.13134633635
6300000000.0,0.0444875227093,0.133197741561,0.943745474607,-0.285107688702,0.943745474607,-0.285107688702,0.0444875227093,0.133197741561
6400000000.0,0.045728655957,0.135036935312,0.94212661878,-0.289365680479,0.94212661878,-0.289365680479,0.045728655957,0.135036935312
6500000000.0,0.0469861264679,0.136863768248,0.940485310218,-0.293611529325,0.940485310218,-0.293611529325,0.0469861264679,0.136863768248
6600000000.0,0.0482597966245,0.138678092858,0.938821678175,-0.297845085045,0.938821678175,-0.297845085045,0.0482597966245,0.138678092858
6700000000.0,0.0495495273774,0.140479763489,0.937135853246,-0.30206619921,0.937135853246,-0.30206619921,0.0495495273774,0.140479763489
6800000000.0,0.050855178276,0.142268636357,0.935427967343,-0.306274725179,0.935427967343,-0.306274725179,0.050855178276,0.142268636357
6900000000.0,0.0521766074989,0.144044569566,0.93369815366,-0.310470518106,0.93369815366,-0.310470518106,0.0521766074989,0.144044569566
7000000000.0,0.0535136718847,0.145807423114,0.931946546647,-0.314653434961,0.931946546647,-0.314653434961,0.0535136718847,0.145807423114
7100000000.0,0.0548662269625,0.147557058909,0.930173281976,-0.318823334535,0.930173281976,-0.318823334535,0.0548662269625,0.147557058909
7200000000.0,0.0562341269829,0.149293340779,0.928378496512,-0.322980077459,0.928378496512,-0.322980077459,0.0562341269829,0.149293340779
7300000000.0,0.0576172249479,0.151016134483,0.926562328282,-0.327123526209,0.926562328282,-0.327123526209,0.0576172249479,0.151016134483
7400000000.0,0.0590153726426,0.152725307721,0.924724916446,-0.331253545124,0.924724916446,-0.331253545124,0.0590153726426,0.152725307721
7500000000.0,0.0604284206648,0.154420730145,0.922866401265,-0.335370000409,0.922866401265,-0.335370000409,0.0604284206648,0.154420730145
7600000000.0,0.0618562184565,0.156102273368,0.92098692407,-0.339472760152,0.92098692407,-0.339472760152,0.0618562184565,0.156102273368
7700000000.0,0.063298614334,0.15776981097,0.919086627232,-0.343561694328,0.919086627232,-0.343561694328,0.063298614334,0.15776981097
7800000000.0,0.0647554555188,0.159423218512,0.917165654133,-0.34763667481,0.917165654133,-0.34763667481,0.0647554555188,0.159423218512
7900000000.0,0.0662265881681,0.161062373536,0.915224149134,-0.351697575379,0.915224149134,-0.351697575379,0.0662265881681,0.161062373536
8000000000.0,0.0677118574051,0.162687155582,0.913262257545,-0.355744271726,0.913262257545,-0.355744271726,0.0677118574051,0.162687155582
8100000000.0,0.06921110735,0.164297446183,0.911280125594,-0.359776641466,0.911280125594,-0.359776641466,0.06921110735,0.164297446183
8200000000.0,0.07072418115,0.165893128884,0.909277900397,-0.36379456414,0.909277900397,-0.36379456414,0.07072418115,0.165893128884
8300000000.0,0.0722509210099,0.167474089235,0.907255729927,-0.367797921223,0.907255729927,-0.367797921223,0.0722509210099,0.167474089235
8400000000.0,0.0737911682223,0.169040214807,0.905213762987,-0.371786596129,0.905213762987,-0.371786596129,0.0737911682223,0.169040214807
8500000000.0,0.0753447631981,0.17059139519,0.903152149176,-0.375760474214,0.903152149176,-0.375760474214,0.0753447631981,0.17059139519
8600000000.0,0.0769115454964,0.172127521998,0.901071038857,-0.379719442786,0.901071038857,-0.379719442786,0.0769115454964,0.172127521998
8700000000.0,0.0784913538546,0.173648488877,0.898970583136,-0.383663391102,0.898970583136,-0.383663391102,0.0784913538546,0.173648488877
8800000000.0,0.0800840262186,0.175154191501,0.896850933822,-0.387592210377,0.896850933822,-0.387592210377,0.0800840262186,0.175154191501
8900000000.0,0.0816893997724,0.176644527583,0.894712243401,-0.391505793782,0.894712243401,-0.391505793782,0.0816893997724,0.176644527583
9000000000.0,0.0833073109682,0.178119396869,0.89255466501,-0.395404036454,0.89255466501,-0.395404036454,0.0833073109682,0.178119396869
9100000000.0,0.0849375955556,0.179578701147,0.890378352401,-0.399286835487,0.890378352401,-0.399286835487,0.0849375955556,0.179578701147
9200000000.0,0.0865800886115,0.181022344243,0.888183459914,-0.403154089943,0.888183459914,-0.403154089943,0.0865800886115,0.181022344243
9300000000.0,0.0882346245694,0.182450232023,0.885970142449,-0.40700570085,0.885970142449,-0.40700570085,0.0882346245694,0.182450232023
9400000000.0,0.0899010372485,0.183862272397,0.883738555437,-0.4108415712,0.883738555437,-0.4108415712,0.0899010372485,0.183862272397
9500000000.0,0.0915791598831,0.185258375312,0.881488854807,-0.414661605951,0.881488854807,-0.414661605951,0.0915791598831,0.185258375312
9600000000.0,0.093268825151,0.18663845276,0.879221196961,-0.418465712026,0.879221196961,-0.418465712026,0.093268825151,0.18663845276
9700000000.0,0.0949698652029,0.188002418768,0.876935738743,-0.422253798313,0.876935738743,-0.422253798313,0.0949698652029,0.188002418768
9800000000.0,0.0966821116906,0.189350189404,0.874632637412,-0.426025775664,0.874632637412,-0.426025775664,0.0966821116906,0.189350189404
9900000000.0,0.0984053957958,0.190681682769,0.872312050611,-0.429781556888,0.872312050611,-0.429781556888,0.0984053957958,0.190681682769
10000000000.0,0.100139548258,0.191996818999,0.869974136343,-0.433521056757,0.869974136343,-0.433521056757,0.100139548258,0.191996818999
