freq (GHz),S11_real,S11_imag,S21_real,S21_imag,S12_real,S12_imag,S22_real,S22_imag
100000000.0,0.0615964995502,0.00465988681416,0.938399545995,-0.00633101184585,0.938399545995,-0.00633101184585,0.0615964995502,0.00465988681416
200000000.0,0.0620716994729,0.00930973976256,0.937918536976,-0.0126520023975,0.937918536976,-0.0126520023975,0.0620716994729,0.00930973976256
300000000.0,0.0625063952031,0.013952128432,0.937475176574,-0.0189655553114,0.937475176574,-0.0189655553114,0.0625063952031,0.013952128432
400000000.0,0.0629509598256,0.0185872491437,0.937019090882,-0.0252718800844,0.937019090882,-0.0252718800844,0.0629509598256,0.0185872491437
500000000.0,0.063424740415,0.0232147493591,0.936530931998,-0.0315706369058,0.936530931998,-0.0315706369058,0.063424740415,0.0232147493591
600000000.0,0.0639375382559,0.0278340359653,0.936000897765,-0.0378612450996,0.936000897765,-0.0378612450996,0.0639375382559,0.0278340359653
700000000.0,0.0644950726942,0.0324443862504,0.935423267899,-0.0441429941783,0.935423267899,-0.0441429941783,0.0644950726942,0.0324443862504
800000000.0,0.0651009762666,0.0370449996259,0.934794408853,-0.0504150956146,0.934794408853,-0.0504150956146,0.0651009762666,0.0370449996259
900000000.0,0.065757683444,0.0416350256431,0.93411188506,-0.0566767108881,0.93411188506,-0.0566767108881,0.065757683444,0.0416350256431
1000000000.0,0.0664668813372,0.0462135807968,0.933374008232,-0.0629269683117,0.933374008232,-0.0629269683117,0.0664668813372,0.0462135807968
1100000000.0,0.067229760385,0.0507797593935,0.932579586658,-0.0691649739158,0.932579586658,-0.0691649739158,0.067229760385,0.0507797593935
1200000000.0,0.0680471638514,0.055332641009,0.931727775716,-0.0753898189187,0.931727775716,-0.0753898189187,0.0680471638514,0.055332641009
1300000000.0,0.0689196819866,0.0598712958592,0.930817983701,-0.0816005851066,0.930817983701,-0.0816005851066,0.0689196819866,0.0598712958592
1400000000.0,0.0698477140194,0.0643947888266,0.929849809834,-0.0877963488686,0.929849809834,-0.0877963488686,0.0698477140194,0.0643947888266
1500000000.0,0.0708315104979,0.0689021825862,0.928823001925,-0.093976184329,0.928823001925,-0.093976184329,0.0708315104979,0.0689021825862
1600000000.0,0.0718712031232,0.0733925401053,0.92773742653,-0.100139165852,0.92773742653,-0.100139165852,0.0718712031232,0.0733925401053
1700000000.0,0.0729668263455,0.0778649266943,0.926593047362,-0.106284370098,0.926593047362,-0.106284370098,0.0729668263455,0.0778649266943
1800000000.0,0.0741183333721,0.0823184117281,0.925389909278,-0.112410877748,0.925389909278,-0.112410877748,0.0741183333721,0.0823184117281
1900000000.0,0.075325608288,0.0867520701184,0.924128126157,-0.118517774979,0.924128126157,-0.118517774979,0.075325608288,0.0867520701184
2000000000.0,0.0765884754116,0.0911649835944,0.922807871549,-0.124604154749,0.922807871549,-0.124604154749,0.0765884754116,0.0911649835944
2100000000.0,0.0779067066459,0.0955562418316,0.921429371318,-0.130669117929,0.921429371318,-0.130669117929,0.0779067066459,0.0955562418316
2200000000.0,0.0792800273516,0.0999249434607,0.919992897772,-0.136711774311,0.919992897772,-0.136711774311,0.0792800273516,0.0999249434607
2300000000.0,0.0807081211131,0.104270196975,0.918498764896,-0.14273124352,0.918498764896,-0.14273124352,0.0807081211131,0.104270196975
2400000000.0,0.0821906336641,0.108591121558,0.916947324424,-0.148726655843,0.916947324424,-0.148726655843,0.0821906336641,0.108591121558
2500000000.0,0.0837271761685,0.112886847837,0.915338962561,-0.154697152984,0.915338962561,-0.154697152984,0.0837271761685,0.112886847837
2600000000.0,0.0853173279986,0.117156518579,0.913674097202,-0.160641888762,0.913674097202,-0.160641888762,0.0853173279986,0.117156518579
2700000000.0,0.0869606391207,0.12139928933,0.911953175549,-0.166560029751,0.911953175549,-0.166560029751,0.0869606391207,0.12139928933
2800000000.0,0.088656632169,0.125614329014,0.910176672033,-0.17245075588,0.910176672033,-0.17245075588,0.088656632169,0.125614329014
2900000000.0,0.0904048042707,0.129800820481,0.908345086494,-0.178313260984,0.908345086494,-0.178313260984,0.0904048042707,0.129800820481
3000000000.0,0.09220462867,0.133957961021,0.906458942549,-0.184146753317,0.906458942549,-0.184146753317,0.09220462867,0.133957961021
3100000000.0,0.0940555561912,0.138084962843,0.904518786138,-0.189950456032,0.904518786138,-0.189950456032,0.0940555561912,0.138084962843
3200000000.0,0.0959570165678,0.142181053514,0.902525184187,-0.195723607623,0.902525184187,-0.195723607623,0.0959570165678,0.142181053514
3300000000.0,0.097908419663,0.146245476378,0.900478723393,-0.201465462345,0.900478723393,-0.201465462345,0.097908419663,0.146245476378
3400000000.0,0.0999091566006,0.150277490935,0.898380009087,-0.207175290588,0.898380009087,-0.207175290588,0.0999091566006,0.150277490935
3500000000.0,0.101958600819,0.154276373196,0.896229664185,-0.212852379242,0.896229664185,-0.212852379242,0.101958600819,0.154276373196
3600000000.0,0.104056109065,0.158241416012,0.894028328193,-0.218496032018,0.894028328193,-0.218496032018,0.104056109065,0.158241416012
3700000000.0,0.10620102233,0.162171929372,0.891776656268,-0.224105569753,0.891776656268,-0.224105569753,0.10620102233,0.162171929372
3800000000.0,0.108392666746,0.166067240685,0.889475318324,-0.22968033069,0.889475318324,-0.22968033069,0.108392666746,0.166067240685
3900000000.0,0.110630354438,0.169926695027,0.88712499818,-0.235219670725,0.88712499818,-0.235219670725,0.110630354438,0.169926695027
4000000000.0,0.112913384344,0.173749655372,0.884726392735,-0.240722963638,0.884726392735,-0.240722963638,0.112913384344,0.173749655372
4100000000.0,0.11524104301,0.177535502795,0.88228021118,-0.246189601302,0.88228021118,-0.246189601302,0.11524104301,0.177535502795
4200000000.0,0.117612605353,0.181283636659,0.879787174231,-0.251618993862,0.879787174231,-0.251618993862,0.117612605353,0.181283636659
4300000000.0,0.120027335402,0.18499347477,0.877248013385,-0.257010569898,0.877248013385,-0.257010569898,0.120027335402,0.18499347477
4400000000.0,0.122484487025,0.188664453522,0.874663470199,-0.262363776566,0.874663470199,-0.262363776566,0.122484487025,0.188664453522
4500000000.0,0.124983304625,0.192296028015,0.872034295588,-0.267678079717,0.872034295588,-0.267678079717,0.124983304625,0.192296028015
4600000000.0,0.127523023834,0.195887672148,0.869361249136,-0.272952963993,0.869361249136,-0.272952963993,0.127523023834,0.195887672148
4700000000.0,0.130102872175,0.199438878705,0.866645098425,-0.27818793291,0.866645098425,-0.27818793291,0.130102872175,0.199438878705
4800000000.0,0.132722069726,0.202949159409,0.863886618385,-0.283382508915,0.863886618385,-0.283382508915,0.132722069726,0.202949159409
4900000000.0,0.135379829751,0.206418044965,0.861086590647,-0.288536233428,0.861086590647,-0.288536233428,0.135379829751,0.206418044965
5000000000.0,0.138075359336,0.20984508508,0.858245802919,-0.293648666861,0.858245802919,-0.293648666861,0.138075359336,0.20984508508
5100000000.0,0.140807859999,0.213229848466,0.855365048369,-0.298719388627,0.855365048369,-0.298719388627,0.140807859999,0.213229848466
5200000000.0,0.14357652829,0.216571922828,0.852445125024,-0.303747997121,0.852445125024,-0.303747997121,0.14357652829,0.216571922828
5300000000.0,0.146380556386,0.219870914832,0.849486835181,-0.308734109692,0.849486835181,-0.308734109692,0.146380556386,0.219870914832
5400000000.0,0.149219132663,0.22312645006,0.846490984829,-0.313677362598,0.846490984829,-0.313677362598,0.149219132663,0.22312645006
5500000000.0,0.152091442265,0.22633817294,0.843458383083,-0.318577410938,0.843458383083,-0.318577410938,0.152091442265,0.22633817294
5600000000.0,0.154996667651,0.229505746673,0.840389841632,-0.323433928577,0.840389841632,-0.323433928577,0.154996667651,0.229505746673
5700000000.0,0.157933989144,0.232628853139,0.837286174196,-0.32824660805,0.837286174196,-0.32824660805,0.157933989144,0.232628853139
5800000000.0,0.160902585456,0.235707192783,0.834148195998,-0.333015160453,0.834148195998,-0.333015160453,0.160902585456,0.235707192783
5900000000.0,0.163901634203,0.238740484495,0.830976723246,-0.337739315322,0.830976723246,-0.337739315322,0.163901634203,0.238740484495
6000000000.0,0.166930312415,0.241728465474,0.827772572624,-0.342418820496,0.827772572624,-0.342418820496,0.166930312415,0.241728465474
6100000000.0,0.169987797028,0.244670891078,0.824536560803,-0.347053441966,0.824536560803,-0.347053441966,0.169987797028,0.244670891078
6200000000.0,0.173073265362,0.247567534661,0.82126950396,-0.351642963716,0.82126950396,-0.351642963716,0.173073265362,0.247567534661
6300000000.0,0.176185895596,0.250418187398,0.817972217301,-0.356187187545,0.817972217301,-0.356187187545,0.176185895596,0.250418187398
6400000000.0,0.179324867219,0.253222658103,0.814645514613,-0.360685932887,0.814645514613,-0.360685932887,0.179324867219,0.253222658103
6500000000.0,0.182489361477,0.255980773027,0.811290207812,-0.365139036608,0.811290207812,-0.365139036608,0.182489361477,0.255980773027
6600000000.0,0.185678561808,0.258692375655,0.807907106516,-0.369546352803,0.807907106516,-0.369546352803,0.185678561808,0.258692375655
6700000000.0,0.188891654256,0.261357326486,0.804497017619,-0.373907752579,0.804497017619,-0.373907752579,0.188891654256,0.261357326486
6800000000.0,0.192127827884,0.263975502807,0.801060744888,-0.378223123825,0.801060744888,-0.378223123825,0.192127827884,0.263975502807
6900000000.0,0.195386275166,0.266546798459,0.797599088565,-0.382492370981,0.797599088565,-0.382492370981,0.195386275166,0.266546798459
7000000000.0,0.198666192371,0.269071123591,0.794112844982,-0.386715414791,0.794112844982,-0.386715414791,0.198666192371,0.269071123591
7100000000.0,0.201966779931,0.271548404408,0.790602806198,-0.390892192051,0.790602806198,-0.390892192051,0.201966779931,0.271548404408
7200000000.0,0.205287242799,0.273978582911,0.787069759633,-0.395022655352,0.787069759633,-0.395022655352,0.205287242799,0.273978582911
7300000000.0,0.208626790798,0.276361616633,0.783514487727,-0.399106772812,0.783514487727,-0.399106772812,0.208626790798,0.276361616633
7400000000.0,0.211984638945,0.278697478365,0.779937767605,-0.403144527803,0.779937767605,-0.403144527803,0.211984638945,0.278697478365
7500000000.0,0.21536000778,0.280986155875,0.77634037076,-0.407135918673,0.77634037076,-0.407135918673,0.21536000778,0.280986155875
7600000000.0,0.218752123666,0.283227651627,0.772723062741,-0.411080958461,0.772723062741,-0.411080958461,0.218752123666,0.283227651627
7700000000.0,0.222160219088,0.285421982489,0.769086602861,-0.414979674611,0.769086602861,-0.414979674611,0.222160219088,0.285421982489
7800000000.0,0.225583532936,0.287569179443,0.765431743911,-0.418832108673,0.765431743911,-0.418832108673,0.225583532936,0.287569179443
7900000000.0,0.229021310772,0.289669287281,0.761759231892,-0.422638316009,0.761759231892,-0.422638316009,0.229021310772,0.289669287281
8000000000.0,0.232472805092,0.291722364309,0.758069805753,-0.426398365491,0.758069805753,-0.426398365491,0.232472805092,0.291722364309
8100000000.0,0.23593727557,0.293728482039,0.754364197148,-0.430112339194,0.754364197148,-0.430112339194,0.23593727557,0.293728482039
8200000000.0,0.23941398929,0.295687724884,0.750643130197,-0.433780332092,0.750643130197,-0.433780332092,0.23941398929,0.295687724884
8300000000.0,0.242902220974,0.297600189843,0.746907321268,-0.437402451746,0.746907321268,-0.437402451746,0.242902220974,0.297600189843
8400000000.0,0.246401253189,0.299465986198,0.743157478763,-0.440978817992,0.743157478763,-0.440978817992,0.246401253189,0.299465986198
8500000000.0,0.249910376543,0.301285235188,0.739394302919,-0.444509562627,0.739394302919,-0.444509562627,0.249910376543,0.301285235188
8600000000.0,0.25342888988,0.303058069708,0.735618485619,-0.447994829096,0.735618485619,-0.447994829096,0.25342888988,0.303058069708
8700000000.0,0.256956100448,0.304784633983,0.731830710218,-0.451434772178,0.731830710218,-0.451434772178,0.256956100448,0.304784633983
8800000000.0,0.26049132407,0.306465083255,0.728031651374,-0.454829557664,0.728031651374,-0.454829557664,0.26049132407,0.306465083255
8900000000.0,0.264033885296,0.308099583471,0.724221974896,-0.458179362048,0.724221974896,-0.458179362048,0.264033885296,0.308099583471
9000000000.0,0.267583117546,0.30968831096,0.720402337598,-0.461484372206,0.720402337598,-0.461484372206,0.267583117546,0.30968831096
9100000000.0,0.271138363245,0.311231452124,0.716573387166,-0.464744785084,0.716573387166,-0.464744785084,0.271138363245,0.311231452124
9200000000.0,0.274698973942,0.312729203119,0.712735762036,-0.467960807381,0.712735762036,-0.467960807381,0.274698973942,0.312729203119
9300000000.0,0.278264310425,0.314181769545,0.708890091279,-0.471132655238,0.708890091279,-0.471132655238,0.278264310425,0.314181769545
9400000000.0,0.281833742823,0.31558936613,0.705036994499,-0.474260553923,0.705036994499,-0.474260553923,0.281833742823,0.31558936613
9500000000.0,0.285406650699,0.316952216426,0.701177081741,-0.477344737525,0.701177081741,-0.477344737525,0.285406650699,0.316952216426
9600000000.0,0.288982423133,0.318270552492,0.697310953405,-0.480385448642,0.697310953405,-0.480385448642,0.288982423133,0.318270552492
9700000000.0,0.292560458793,0.319544614598,0.693439200171,-0.483382938076,0.693439200171,-0.483382938076,0.292560458793,0.319544614598
9800000000.0,0.296140166005,0.320774650913,0.689562402935,-0.486337464531,0.689562402935,-0.486337464531,0.296140166005,0.320774650913
9900000000.0,0.299720962806,0.321960917209,0.685681132755,-0.48924929431,0.685681132755,-0.48924929431,0.299720962806,0.321960917209
10000000000.0,0.303302276992,0.32310367656,0.681795950795,-0.492118701019,0.681795950795,-0.492118701019,0.303302276992,0.32310367656
