freq (GHz),S11_real,S11_imag,S21_real,S21_imag,S12_real,S12_imag,S22_real,S22_imag
100000000.0,7.93565365966e-05,-0.00186410682565,0.999906165104,-0.0024491267584,0.999906165104,-0.0024491267584,7.93565365966e-05,-0.00186410682565
200000000.0,6.41567409487e-05,-0.00372824241601,0.999889280311,-0.00489830473244,0.999889280311,-0.00489830473244,6.41567409485e-05,-0.00372824241601
300000000.0,3.96732532637e-05,-0.0055924011236,0.999863070086,-0.00734754125442,0.999863070086,-0.00734754125442,3.96732532637e-05,-0.0055924011236
400000000.0,5.97904682609e-06,-0.0074565646457,0.999827458021,-0.0097968279178,0.999827458021,-0.0097968279178,5.97904682609e-06,-0.0074565646457
500000000.0,-3.68990134929e-05,-0.0093207080604,0.999782413573,-0.0122461482472,0.999782413573,-0.0122461482472,-3.68990134929e-05,-0.0093207080604
600000000.0,-8.89481721352e-05,-0.0111848019925,0.999727920247,-0.0146954803882,0.999727920247,-0.0146954803882,-8.89481721356e-05,-0.0111848019925
700000000.0,-0.000150161618918,-0.0130488137323,0.999663967566,-0.0171447984861,0.999663967566,-0.0171447984861,-0.000150161618918,-0.0130488137323
800000000.0,-0.000220535486556,-0.0149127079141,0.999590548176,-0.0195940735184,0.999590548176,-0.0195940735184,-0.000220535486556,-0.0149127079141
900000000.0,-0.000300067496676,-0.01677644697,0.999507656569,-0.0220432738474,0.999507656569,-0.0220432738474,-0.000300067496676,-0.01677644697
1000000000.0,-0.000388756260286,-0.018639991453,0.999415288462,-0.0244923656145,0.999415288462,-0.0244923656145,-0.000388756260286,-0.018639991453
1100000000.0,-0.00048660087852,-0.0205033002806,0.999313440457,-0.0269413130337,0.999313440457,-0.0269413130337,-0.00048660087852,-0.0205033002806
1200000000.0,-0.000593600696362,-0.0223663309228,0.999202109846,-0.0293900786199,0.999202109846,-0.0293900786199,-0.000593600696362,-0.0223663309228
1300000000.0,-0.000709755140834,-0.0242290395541,0.999081294504,-0.0318386233705,0.999081294504,-0.0318386233705,-0.000709755140834,-0.0242290395541
1400000000.0,-0.000835063608915,-0.026091381178,0.998950992816,-0.0342869069148,0.998950992816,-0.0342869069148,-0.000835063608915,-0.026091381178
1500000000.0,-0.00096952538638,-0.0279533097313,0.998811203636,-0.0367348876384,0.998811203636,-0.0367348876384,-0.00096952538638,-0.0279533097313
1600000000.0,-0.00111313958668,-0.0298147781734,0.998661926265,-0.0391825227892,0.998661926265,-0.0391825227892,-0.00111313958668,-0.0298147781734
1700000000.0,-0.00126590510342,-0.0316757385634,0.998503160432,-0.0416297685686,0.998503160432,-0.0416297685686,-0.00126590510342,-0.0316757385634
1800000000.0,-0.00142782057229,-0.033536142128,0.998334906293,-0.0440765802115,0.998334906293,-0.0440765802115,-0.00142782057229,-0.033536142128
1900000000.0,-0.00159888433984,-0.0353959393217,0.998157164421,-0.0465229120569,0.998157164421,-0.0465229120569,-0.00159888433984,-0.0353959393217
2000000000.0,-0.00177909443738,-0.0372550798808,0.997969935812,-0.048968717611,0.997969935812,-0.048968717611,-0.00177909443738,-0.0372550798808
2100000000.0,-0.00196844855866,-0.039113512872,0.997773221884,-0.0514139496038,0.997773221884,-0.0514139496038,-0.00196844855866,-0.039113512872
2200000000.0,-0.00216694404062,-0.0409711867371,0.997567024483,-0.0538585600409,0.997567024483,-0.0538585600409,-0.00216694404062,-0.0409711867371
2300000000.0,-0.00237457784649,-0.0428280493338,0.997351345885,-0.0563025002508,0.997351345885,-0.0563025002508,-0.00237457784649,-0.0428280493338
2400000000.0,-0.00259134655088,-0.0446840479735,0.997126188803,-0.058745720928,0.997126188803,-0.058745720928,-0.00259134655088,-0.0446840479735
2500000000.0,-0.00281724632643,-0.0465391294561,0.996891556391,-0.061188172173,0.996891556391,-0.061188172173,-0.00281724632643,-0.0465391294561
2600000000.0,-0.00305227293182,-0.0483932401031,0.996647452251,-0.0636298035303,0.996647452251,-0.0636298035303,-0.00305227293182,-0.0483932401031
2700000000.0,-0.00329642170094,-0.0502463257879,0.996393880434,-0.0660705640227,0.996393880434,-0.0660705640227,-0.00329642170094,-0.0502463257879
2800000000.0,-0.00354968753307,-0.0520983319649,0.996130845454,-0.0685104021845,0.996130845454,-0.0685104021845,-0.00354968753307,-0.0520983319649
2900000000.0,-0.00381206488388,-0.053949203697,0.995858352284,-0.0709492660921,0.995858352284,-0.0709492660921,-0.00381206488388,-0.053949203697
3000000000.0,-0.00408354775727,-0.055798885681,0.995576406365,-0.0733871033932,0.995576406365,-0.0733871033932,-0.00408354775727,-0.055798885681
3100000000.0,-0.00436412969786,-0.0576473222729,0.995285013613,-0.0758238613346,0.995285013613,-0.0758238613346,-0.00436412969786,-0.0576473222729
3200000000.0,-0.0046538037841,-0.0594944575108,0.994984180421,-0.0782594867883,0.994984180421,-0.0782594867883,-0.0046538037841,-0.0594944575108
3300000000.0,-0.00495256262201,-0.0613402351379,0.994673913663,-0.0806939262771,0.994673913663,-0.0806939262771,-0.00495256262201,-0.0613402351379
3400000000.0,-0.00526039833935,-0.0631845986236,0.994354220699,-0.0831271259977,0.994354220699,-0.0831271259977,-0.00526039833935,-0.0631845986236
3500000000.0,-0.00557730258036,-0.0650274911847,0.99402510938,-0.0855590318445,0.99402510938,-0.0855590318445,-0.00557730258036,-0.0650274911847
3600000000.0,-0.00590326650092,-0.0668688558049,0.993686588051,-0.0879895894314,0.993686588051,-0.0879895894314,-0.00590326650092,-0.0668688558049
3700000000.0,-0.00623828076409,-0.0687086352542,0.993338665551,-0.0904187441127,0.993338665551,-0.0904187441127,-0.00623828076409,-0.0687086352542
3800000000.0,-0.0065823355361,-0.0705467721075,0.992981351223,-0.092846441004,0.992981351223,-0.092846441004,-0.0065823355361,-0.0705467721075
3900000000.0,-0.0069354204827,-0.0723832087623,0.992614654911,-0.0952726250014,0.992614654911,-0.0952726250014,-0.0069354204827,-0.0723832087623
4000000000.0,-0.00729752476582,-0.0742178874564,0.992238586964,-0.0976972408011,0.992238586964,-0.0976972408011,-0.00729752476582,-0.0742178874564
4100000000.0,-0.00766863704063,-0.0760507502846,0.99185315824,-0.100120232917,0.99185315824,-0.100120232917,-0.00766863704063,-0.0760507502846
4200000000.0,-0.00804874545287,-0.0778817392148,0.991458380107,-0.1025415457,0.991458380107,-0.1025415457,-0.00804874545287,-0.0778817392148
4300000000.0,-0.00843783763647,-0.0797107961044,0.991054264445,-0.104961123353,0.991054264445,-0.104961123353,-0.00843783763647,-0.0797107961044
4400000000.0,-0.00883590071152,-0.0815378627152,0.990640823648,-0.10737890995,0.990640823648,-0.10737890995,-0.00883590071152,-0.0815378627152
4500000000.0,-0.00924292128244,-0.0833628807286,0.990218070623,-0.10979484945,0.990218070623,-0.10979484945,-0.00924292128244,-0.0833628807286
4600000000.0,-0.0096588854365,-0.0851857917605,0.989786018796,-0.112208885717,0.989786018796,-0.112208885717,-0.0096588854365,-0.0851857917605
4700000000.0,-0.0100837787425,-0.0870065373752,0.989344682109,-0.114620962529,0.989344682109,-0.114620962529,-0.0100837787425,-0.0870065373752
4800000000.0,-0.0105175862498,-0.0888250590994,0.988894075022,-0.117031023599,0.988894075022,-0.117031023599,-0.0105175862498,-0.0888250590994
4900000000.0,-0.0109602924875,-0.090641298436,0.988434212513,-0.119439012588,0.988434212513,-0.119439012588,-0.0109602924875,-0.090641298436
5000000000.0,-0.0114118814638,-0.0924551968771,0.987965110081,-0.121844873115,0.987965110081,-0.121844873115,-0.0114118814638,-0.0924551968771
5100000000.0,-0.0118723366659,-0.0942666959168,0.987486783741,-0.124248548777,0.987486783741,-0.124248548777,-0.0118723366659,-0.0942666959168
5200000000.0,-0.0123416410597,-0.0960757370644,0.986999250029,-0.12664998316,0.986999250029,-0.12664998316,-0.0123416410597,-0.0960757370644
5300000000.0,-0.0128197770897,-0.0978822618562,0.986502526001,-0.129049119851,0.986502526001,-0.129049119851,-0.0128197770897,-0.0978822618562
5400000000.0,-0.0133067266797,-0.0996862118678,0.985996629228,-0.131445902453,0.985996629228,-0.131445902453,-0.0133067266797,-0.0996862118678
5500000000.0,-0.013802471233,-0.101487528726,0.985481577801,-0.133840274596,0.985481577801,-0.133840274596,-0.013802471233,-0.101487528726
5600000000.0,-0.0143069916331,-0.103286154121,0.984957390329,-0.13623217995,0.984957390329,-0.13623217995,-0.0143069916331,-0.103286154121
5700000000.0,-0.0148202682446,-0.105082029816,0.984424085935,-0.138621562238,0.984424085935,-0.138621562238,-0.0148202682446,-0.105082029816
5800000000.0,-0.0153422809141,-0.106875097659,0.983881684258,-0.141008365247,0.983881684258,-0.141008365247,-0.0153422809141,-0.106875097659
5900000000.0,-0.0158730089717,-0.108665299596,0.983330205451,-0.143392532837,0.983330205451,-0.143392532837,-0.0158730089717,-0.108665299596
6000000000.0,-0.0164124312318,-0.110452577679,0.982769670178,-0.145774008959,0.982769670178,-0.145774008959,-0.0164124312318,-0.110452577679
6100000000.0,-0.0169605259952,-0.112236874076,0.982200099615,-0.148152737658,0.982200099615,-0.148152737658,-0.0169605259952,-0.112236874076
6200000000.0,-0.0175172710504,-0.114018131082,0.981621515447,-0.15052866309,0.981621515447,-0.15052866309,-0.0175172710504,-0.114018131082
6300000000.0,-0.0180826436758,-0.115796291133,0.981033939865,-0.152901729529,0.981033939865,-0.152901729529,-0.0180826436758,-0.115796291133
6400000000.0,-0.0186566206411,-0.117571296807,0.980437395566,-0.15527188138,0.980437395566,-0.15527188138,-0.0186566206411,-0.117571296807
6500000000.0,-0.01923917821,-0.119343090843,0.97983190575,-0.157639063185,0.97983190575,-0.157639063185,-0.01923917821,-0.119343090843
6600000000.0,-0.0198302921421,-0.121111616144,0.979217494117,-0.160003219639,0.979217494117,-0.160003219639,-0.0198302921421,-0.121111616144
6700000000.0,-0.0204299376954,-0.12287681579,0.978594184865,-0.162364295596,0.978594184865,-0.162364295596,-0.0204299376954,-0.12287681579
6800000000.0,-0.0210380896291,-0.124638633044,0.97796200269,-0.164722236076,0.97796200269,-0.164722236076,-0.0210380896291,-0.124638633044
6900000000.0,-0.0216547222056,-0.126397011363,0.977320972776,-0.16707698628,0.977320972776,-0.16707698628,-0.0216547222056,-0.126397011363
7000000000.0,-0.022279809194,-0.128151894406,0.976671120802,-0.169428491598,0.976671120802,-0.169428491598,-0.022279809194,-0.128151894406
7100000000.0,-0.0229133238726,-0.129903226044,0.976012472933,-0.171776697612,0.976012472933,-0.171776697612,-0.0229133238726,-0.129903226044
7200000000.0,-0.023555239032,-0.131650950366,0.975345055816,-0.174121550113,0.975345055816,-0.174121550113,-0.023555239032,-0.131650950366
7300000000.0,-0.0242055269783,-0.133395011687,0.97466889658,-0.176462995104,0.97466889658,-0.176462995104,-0.0242055269783,-0.133395011687
7400000000.0,-0.0248641595361,-0.135135354559,0.973984022834,-0.178800978811,0.973984022834,-0.178800978811,-0.0248641595361,-0.135135354559
7500000000.0,-0.0255311080524,-0.136871923778,0.973290462658,-0.181135447691,0.973290462658,-0.181135447691,-0.0255311080524,-0.136871923778
7600000000.0,-0.0262063433995,-0.138604664388,0.972588244606,-0.183466348439,0.972588244606,-0.183466348439,-0.0262063433995,-0.138604664388
7700000000.0,-0.0268898359788,-0.140333521693,0.971877397695,-0.185793627996,0.971877397695,-0.185793627996,-0.0268898359788,-0.140333521693
7800000000.0,-0.0275815557246,-0.142058441263,0.971157951411,-0.188117233558,0.971157951411,-0.188117233558,-0.0275815557246,-0.142058441263
7900000000.0,-0.0282814721075,-0.143779368942,0.970429935696,-0.190437112582,0.970429935696,-0.190437112582,-0.0282814721075,-0.143779368942
8000000000.0,-0.0289895541386,-0.145496250851,0.969693380948,-0.192753212796,0.969693380948,-0.192753212796,-0.0289895541386,-0.145496250851
8100000000.0,-0.0297057703733,-0.147209033403,0.96894831802,-0.195065482203,0.96894831802,-0.195065482203,-0.0297057703733,-0.147209033403
8200000000.0,-0.0304300889154,-0.1489176633,0.968194778209,-0.19737386909,0.968194778209,-0.19737386909,-0.0304300889154,-0.1489176633
8300000000.0,-0.0311624774211,-0.150622087548,0.96743279326,-0.199678322034,0.96743279326,-0.199678322034,-0.0311624774211,-0.150622087548
8400000000.0,-0.0319029031033,-0.152322253459,0.966662395353,-0.20197878991,0.966662395353,-0.20197878991,-0.0319029031033,-0.152322253459
8500000000.0,-0.0326513327358,-0.154018108658,0.965883617108,-0.204275221899,0.965883617108,-0.204275221899,-0.0326513327358,-0.154018108658
8600000000.0,-0.0334077326578,-0.155709601091,0.965096491573,-0.206567567488,0.965096491573,-0.206567567488,-0.0334077326578,-0.155709601091
8700000000.0,-0.0341720687783,-0.15739667903,0.964301052223,-0.208855776484,0.964301052223,-0.208855776484,-0.0341720687783,-0.15739667903
8800000000.0,-0.0349443065804,-0.159079291078,0.963497332955,-0.211139799018,0.963497332955,-0.211139799018,-0.0349443065804,-0.159079291078
8900000000.0,-0.0357244111261,-0.160757386176,0.962685368085,-0.213419585547,0.962685368085,-0.213419585547,-0.0357244111261,-0.160757386176
9000000000.0,-0.0365123470609,-0.162430913608,0.961865192339,-0.215695086865,0.961865192339,-0.215695086865,-0.0365123470609,-0.162430913608
9100000000.0,-0.0373080786185,-0.164099823008,0.961036840854,-0.217966254107,0.961036840854,-0.217966254107,-0.0373080786185,-0.164099823008
9200000000.0,-0.0381115696256,-0.165764064364,0.960200349167,-0.220233038755,0.960200349167,-0.220233038755,-0.0381115696256,-0.165764064364
9300000000.0,-0.0389227835067,-0.167423588024,0.959355753217,-0.22249539264,0.959355753217,-0.22249539264,-0.0389227835067,-0.167423588024
9400000000.0,-0.0397416832889,-0.169078344701,0.958503089334,-0.224753267955,0.958503089334,-0.224753267955,-0.0397416832889,-0.169078344701
9500000000.0,-0.0405682316072,-0.170728285478,0.957642394237,-0.227006617253,0.957642394237,-0.227006617253,-0.0405682316072,-0.170728285478
9600000000.0,-0.0414023907089,-0.172373361813,0.95677370503,-0.229255393454,0.95677370503,-0.229255393454,-0.0414023907089,-0.172373361813
9700000000.0,-0.0422441224594,-0.174013525543,0.955897059193,-0.231499549853,0.955897059193,-0.231499549853,-0.0422441224594,-0.174013525543
9800000000.0,-0.0430933883467,-0.175648728891,0.955012494582,-0.233739040122,0.955012494582,-0.233739040122,-0.0430933883467,-0.175648728891
9900000000.0,-0.0439501494868,-0.177278924467,0.954120049419,-0.235973818313,0.954120049419,-0.235973818313,-0.0439501494868,-0.177278924467
10000000000.0,-0.0448143666289,-0.178904065278,0.953219762291,-0.23820383887,0.953219762291,-0.23820383887,-0.0448143666289,-0.178904065278
