freq (GHz),S11_real,S11_imag,S21_real,S21_imag,S12_real,S12_imag,S22_real,S22_imag
100000000.0,0.00119213068541,-0.00166883307016,0.998779384957,-0.00485370008879,0.998779384957,-0.00485370008879,0.00119213068541,-0.00166883307016
200000000.0,0.00117283053725,-0.00333754686041,0.9987286405,-0.00970718879591,0.9987286405,-0.00970718879591,0.00117283053725,-0.00333754686041
300000000.0,0.00113523377029,-0.00500597311333,0.998653635769,-0.0145603364501,0.998653635769,-0.0145603364501,0.00113523377029,-0.00500597311333
400000000.0,0.00108038415264,-0.0066739525705,0.998553333066,-0.0194129927398,0.998553333066,-0.0194129927398,0.00108038415264,-0.0066739525705
500000000.0,0.00100868648777,-0.00834132688539,0.998427336531,-0.0242650006177,0.998427336531,-0.0242650006177,0.00100868648777,-0.00834132688539
600000000.0,0.00092035083056,-0.0100079376716,0.998275448022,-0.0291161993219,0.998275448022,-0.0291161993219,0.00092035083056,-0.0100079376716
700000000.0,0.000815505319791,-0.0116736262894,0.998097554348,-0.0339664256627,0.998097554348,-0.0339664256627,0.000815505319791,-0.0116736262894
800000000.0,0.000694237332049,-0.0133382338112,0.997893586176,-0.038815514717,0.997893586176,-0.038815514717,0.000694237332049,-0.0133382338112
900000000.0,0.000556611796716,-0.015001601041,0.997663499754,-0.0436633002565,0.997663499754,-0.0436633002565,0.000556611796716,-0.015001601041
1000000000.0,0.000402680476614,-0.0166635685524,0.997407267666,-0.048509615038,0.997407267666,-0.048509615038,0.000402680476614,-0.0166635685524
1100000000.0,0.000232487126279,-0.0183239767316,0.997124873702,-0.053354291013,0.997124873702,-0.053354291013,0.000232487126279,-0.0183239767316
1200000000.0,4.60705657324e-05,-0.0199826658213,0.99681630981,-0.0581971594871,0.99681630981,-0.0581971594871,4.60705657326e-05,-0.0199826658213
1300000000.0,-0.000156533385347,-0.021639475963,0.996481574179,-0.0630380512463,0.996481574179,-0.0630380512463,-0.000156533385347,-0.021639475963
1400000000.0,-0.000375290635975,-0.0232942472385,0.996120669986,-0.0678767966603,0.996120669986,-0.0678767966603,-0.000375290635975,-0.0232942472385
1500000000.0,-0.000610167957111,-0.024946819709,0.995733604543,-0.0727132257699,0.995733604543,-0.0727132257699,-0.000610167957111,-0.024946819709
1600000000.0,-0.000861132372816,-0.0265970334525,0.9953203887,-0.0775471683611,0.9953203887,-0.0775471683611,-0.000861132372816,-0.0265970334525
1700000000.0,-0.00112815072154,-0.0282447286001,0.994881036414,-0.082378454032,0.994881036414,-0.082378454032,-0.00112815072154,-0.0282447286001
1800000000.0,-0.00141118933309,-0.0298897453707,0.994415564437,-0.0872069122502,0.994415564437,-0.0872069122502,-0.00141118933309,-0.0298897453707
1900000000.0,-0.00171021378621,-0.0315319241045,0.993923992075,-0.0920323724072,0.993923992075,-0.0920323724072,-0.00171021378621,-0.0315319241045
2000000000.0,-0.0020251887239,-0.0331711052955,0.993406341013,-0.0968546638658,0.993406341013,-0.0968546638658,-0.0020251887239,-0.0331711052955
2100000000.0,-0.00235607771062,-0.0348071296229,0.992862635167,-0.101673616006,0.992862635167,-0.101673616006,-0.00235607771062,-0.0348071296229
2200000000.0,-0.00270284312071,-0.0364398379822,0.992292900583,-0.106489058268,0.992292900583,-0.106489058268,-0.00270284312071,-0.0364398379822
2300000000.0,-0.0030654460503,-0.0380690715146,0.991697165339,-0.111300820188,0.991697165339,-0.111300820188,-0.0030654460503,-0.0380690715146
2400000000.0,-0.00344384624727,-0.0396946716369,0.991075459483,-0.11610873144,0.991075459483,-0.11610873144,-0.00344384624727,-0.0396946716369
2500000000.0,-0.00383800205521,-0.04131648007,0.990427814967,-0.12091262187,0.990427814967,-0.12091262187,-0.00383800205521,-0.04131648007
2600000000.0,-0.00424787036837,-0.0429343388671,0.989754265601,-0.125712321529,0.989754265601,-0.125712321529,-0.00424787036837,-0.0429343388671
2700000000.0,-0.0046734065955,-0.0445480904414,0.989054847012,-0.130507660707,0.989054847012,-0.130507660707,-0.0046734065955,-0.0445480904414
2800000000.0,-0.00511456463065,-0.0461575775934,0.988329596609,-0.135298469965,0.988329596609,-0.135298469965,-0.00511456463065,-0.0461575775934
2900000000.0,-0.00557129682988,-0.0477626435378,0.987578553553,-0.140084580165,0.987578553553,-0.140084580165,-0.00557129682988,-0.0477626435378
3000000000.0,-0.00604355399259,-0.0493631319299,0.986801758726,-0.144865822499,0.986801758726,-0.144865822499,-0.00604355399259,-0.0493631319299
3100000000.0,-0.00653128534697,-0.0509588868918,0.985999254714,-0.149642028519,0.985999254714,-0.149642028519,-0.00653128534697,-0.0509588868918
3200000000.0,-0.00703443853863,-0.0525497530378,0.985171085782,-0.154413030164,0.985171085782,-0.154413030164,-0.00703443853863,-0.0525497530378
3300000000.0,-0.00755295962218,-0.0541355755002,0.984317297853,-0.159178659791,0.984317297853,-0.159178659791,-0.00755295962218,-0.0541355755002
3400000000.0,-0.00808679305512,-0.0557161999543,0.983437938494,-0.163938750196,0.983437938494,-0.163938750196,-0.00808679305512,-0.0557161999543
3500000000.0,-0.00863588169389,-0.0572914726429,0.982533056897,-0.168693134645,0.982533056897,-0.168693134645,-0.00863588169389,-0.0572914726429
3600000000.0,-0.0092001667917,-0.0588612404012,0.981602703862,-0.173441646898,0.981602703862,-0.173441646898,-0.0092001667917,-0.0588612404012
3700000000.0,-0.00977958799794,-0.0604253506808,0.980646931784,-0.178184121233,0.980646931784,-0.178184121233,-0.00977958799795,-0.0604253506808
3800000000.0,-0.0103740833591,-0.0619836515734,0.979665794639,-0.182920392473,0.979665794639,-0.182920392473,-0.0103740833591,-0.0619836515734
3900000000.0,-0.0109835893206,-0.0635359918348,0.978659347968,-0.18765029601,0.978659347968,-0.18765029601,-0.0109835893206,-0.0635359918348
4000000000.0,-0.0116080407305,-0.0650822209082,0.977627648863,-0.192373667827,0.977627648863,-0.192373667827,-0.0116080407305,-0.0650822209082
4100000000.0,-0.0122473708433,-0.0666221889468,0.976570755956,-0.197090344522,0.976570755956,-0.197090344522,-0.0122473708433,-0.0666221889468
4200000000.0,-0.012901511325,-0.0681557468373,0.975488729405,-0.201800163332,0.975488729405,-0.201800163332,-0.012901511325,-0.0681557468373
4300000000.0,-0.0135703922597,-0.069682746222,0.974381630878,-0.206502962157,0.974381630878,-0.206502962157,-0.0135703922597,-0.069682746222
4400000000.0,-0.0142539421557,-0.0712030395213,0.973249523541,-0.211198579578,0.973249523541,-0.211198579578,-0.0142539421557,-0.0712030395213
4500000000.0,-0.0149520879535,-0.0727164799554,0.972092472049,-0.215886854883,0.972092472049,-0.215886854883,-0.0149520879535,-0.0727164799554
4600000000.0,-0.0156647550337,-0.0742229215663,0.970910542526,-0.220567628085,0.970910542526,-0.220567628085,-0.0156647550337,-0.0742229215663
4700000000.0,-0.0163918672257,-0.0757222192393,0.969703802556,-0.225240739947,0.969703802556,-0.225240739947,-0.0163918672257,-0.0757222192393
4800000000.0,-0.0171333468174,-0.077214228724,0.968472321169,-0.229906031999,0.968472321169,-0.229906031999,-0.0171333468174,-0.077214228724
4900000000.0,-0.0178891145646,-0.0786988066553,0.967216168826,-0.234563346563,0.967216168826,-0.234563346563,-0.0178891145646,-0.0786988066553
5000000000.0,-0.0186590897022,-0.080175810574,0.965935417405,-0.239212526767,0.965935417405,-0.239212526767,-0.0186590897022,-0.080175810574
5100000000.0,-0.019443189954,-0.0816450989473,0.96463014019,-0.243853416571,0.96463014019,-0.243853416571,-0.019443189954,-0.0816450989473
5200000000.0,-0.0202413315454,-0.0831065311888,0.963300411855,-0.248485860783,0.963300411855,-0.248485860783,-0.0202413315454,-0.0831065311888
5300000000.0,-0.0210534292141,-0.0845599676782,0.961946308449,-0.253109705079,0.961946308449,-0.253109705079,-0.0210534292141,-0.0845599676782
5400000000.0,-0.0218793962228,-0.0860052697812,0.960567907382,-0.25772479602,0.960567907382,-0.25772479602,-0.0218793962228,-0.0860052697812
5500000000.0,-0.0227191443721,-0.0874422998683,0.959165287413,-0.262330981075,0.959165287413,-0.262330981075,-0.0227191443721,-0.0874422998683
5600000000.0,-0.0235725840129,-0.088870921334,0.95773852863,-0.266928108635,0.95773852863,-0.266928108635,-0.0235725840129,-0.088870921334
5700000000.0,-0.0244396240605,-0.0902909986155,0.956287712442,-0.271516028031,0.956287712442,-0.271516028031,-0.0244396240605,-0.0902909986155
5800000000.0,-0.0253201720076,-0.0917023972111,0.954812921556,-0.276094589555,0.954812921556,-0.276094589555,-0.0253201720076,-0.0917023972111
5900000000.0,-0.0262141339392,-0.0931049836979,0.953314239967,-0.280663644473,0.953314239967,-0.280663644473,-0.0262141339392,-0.0931049836979
6000000000.0,-0.0271214145462,-0.0944986257502,0.951791752942,-0.285223045043,0.951791752942,-0.285223045043,-0.0271214145462,-0.0944986257502
6100000000.0,-0.0280419171408,-0.0958831921567,0.950245547003,-0.289772644534,0.950245547003,-0.289772644534,-0.0280419171408,-0.0958831921567
6200000000.0,-0.0289755436711,-0.0972585528375,0.948675709908,-0.294312297239,0.948675709908,-0.294312297239,-0.0289755436711,-0.0972585528375
6300000000.0,-0.0299221947367,-0.0986245788613,0.947082330643,-0.298841858492,0.947082330643,-0.298841858492,-0.0299221947367,-0.0986245788613
6400000000.0,-0.0308817696039,-0.099981142462,0.945465499396,-0.303361184684,0.945465499396,-0.303361184684,-0.0308817696039,-0.099981142462
6500000000.0,-0.0318541662223,-0.101328117054,0.943825307548,-0.307870133278,0.943825307548,-0.307870133278,-0.0318541662223,-0.101328117054
6600000000.0,-0.0328392812399,-0.102665377251,0.942161847652,-0.312368562822,0.942161847652,-0.312368562822,-0.0328392812399,-0.102665377251
6700000000.0,-0.0338370100205,-0.103992798878,0.940475213417,-0.316856332967,0.940475213417,-0.316856332967,-0.0338370100205,-0.103992798878
6800000000.0,-0.0348472466597,-0.105310258988,0.938765499693,-0.321333304477,0.938765499693,-0.321333304477,-0.0348472466597,-0.105310258988
6900000000.0,-0.0358698840019,-0.106617635879,0.93703280245,-0.325799339246,0.93703280245,-0.325799339246,-0.0358698840019,-0.106617635879
7000000000.0,-0.0369048136574,-0.107914809105,0.935277218763,-0.330254300311,0.935277218763,-0.330254300311,-0.0369048136574,-0.107914809105
7100000000.0,-0.0379519260197,-0.109201659495,0.933498846796,-0.334698051862,0.933498846796,-0.334698051862,-0.0379519260197,-0.109201659495
7200000000.0,-0.0390111102829,-0.110478069162,0.931697785778,-0.33913045926,0.931697785778,-0.33913045926,-0.0390111102829,-0.110478069162
7300000000.0,-0.0400822544595,-0.111743921521,0.929874135993,-0.343551389045,0.929874135993,-0.343551389045,-0.0400822544595,-0.111743921521
7400000000.0,-0.0411652453983,-0.1129991013,0.928027998757,-0.347960708951,0.928027998757,-0.347960708951,-0.0411652453983,-0.1129991013
7500000000.0,-0.0422599688024,-0.114243494554,0.9261594764,-0.352358287915,0.9261594764,-0.352358287915,-0.0422599688024,-0.114243494554
7600000000.0,-0.0433663092472,-0.115476988677,0.924268672248,-0.356743996092,0.924268672248,-0.356743996092,-0.0433663092472,-0.115476988677
7700000000.0,-0.0444841501993,-0.116699472416,0.922355690608,-0.36111770486,0.922355690608,-0.36111770486,-0.0444841501993,-0.116699472416
7800000000.0,-0.0456133740347,-0.117910835882,0.920420636744,-0.365479286839,0.920420636744,-0.365479286839,-0.0456133740347,-0.117910835882
7900000000.0,-0.0467538620576,-0.119110970561,0.91846361686,-0.369828615895,0.91846361686,-0.369828615895,-0.0467538620576,-0.119110970561
8000000000.0,-0.0479054945191,-0.120299769326,0.916484738085,-0.374165567152,0.916484738085,-0.374165567152,-0.0479054945191,-0.120299769326
8100000000.0,-0.0490681506366,-0.121477126451,0.914484108447,-0.378490017002,0.914484108447,-0.378490017002,-0.0490681506366,-0.121477126451
8200000000.0,-0.0502417086123,-0.122642937617,0.912461836862,-0.382801843114,0.912461836862,-0.382801843114,-0.0502417086123,-0.122642937617
8300000000.0,-0.0514260456531,-0.123797099925,0.910418033106,-0.387100924441,0.910418033106,-0.387100924441,-0.0514260456531,-0.123797099925
8400000000.0,-0.0526210379894,-0.124939511907,0.908352807803,-0.391387141234,0.908352807803,-0.391387141234,-0.0526210379894,-0.124939511907
8500000000.0,-0.0538265608949,-0.126070073533,0.906266272404,-0.395660375045,0.906266272404,-0.395660375045,-0.0538265608949,-0.126070073533
8600000000.0,-0.0550424887058,-0.127188686224,0.904158539164,-0.399920508735,0.904158539164,-0.399920508735,-0.0550424887058,-0.127188686224
8700000000.0,-0.056268694841,-0.128295252859,0.902029721127,-0.404167426487,0.902029721127,-0.404167426487,-0.056268694841,-0.128295252859
8800000000.0,-0.0575050518211,-0.129389677781,0.899879932105,-0.408401013807,0.899879932105,-0.408401013807,-0.0575050518211,-0.129389677781
8900000000.0,-0.058751431289,-0.130471866813,0.897709286654,-0.412621157534,0.897709286654,-0.412621157534,-0.058751431289,-0.130471866813
9000000000.0,-0.060007704029,-0.131541727259,0.895517900064,-0.416827745845,0.895517900064,-0.416827745845,-0.060007704029,-0.131541727259
9100000000.0,-0.0612737399875,-0.132599167914,0.893305888329,-0.421020668264,0.893305888329,-0.421020668264,-0.0612737399875,-0.132599167914
9200000000.0,-0.0625494082924,-0.133644099073,0.891073368133,-0.425199815663,0.891073368133,-0.425199815663,-0.0625494082924,-0.133644099073
9300000000.0,-0.0638345772734,-0.134676432538,0.888820456831,-0.429365080275,0.888820456831,-0.429365080275,-0.0638345772734,-0.134676432538
9400000000.0,-0.0651291144821,-0.135696081621,0.886547272424,-0.433516355689,0.886547272424,-0.433516355689,-0.0651291144821,-0.135696081621
9500000000.0,-0.0664328867123,-0.136702961155,0.884253933545,-0.437653536864,0.884253933545,-0.437653536864,-0.0664328867123,-0.136702961155
9600000000.0,-0.0677457600198,-0.137696987499,0.881940559435,-0.44177652013,0.881940559435,-0.44177652013,-0.0677457600198,-0.137696987499
9700000000.0,-0.069067599743,-0.138678078542,0.879607269923,-0.44588520319,0.879607269923,-0.44588520319,-0.069067599743,-0.138678078542
9800000000.0,-0.0703982705227,-0.13964615371,0.877254185412,-0.449979485126,0.877254185412,-0.449979485126,-0.0703982705227,-0.13964615371
9900000000.0,-0.0717376363227,-0.140601133971,0.87488142685,-0.454059266403,0.87488142685,-0.454059266403,-0.0717376363227,-0.140601133971
10000000000.0,-0.0730855604499,-0.14154294184,0.872489115718,-0.458124448871,0.872489115718,-0.458124448871,-0.0730855604499,-0.14154294184
