freq (GHz),S11_real,S11_imag,S21_real,S21_imag,S12_real,S12_imag,S22_real,S22_imag
100000000.0,0.000349208396973,-0.000744860467946,0.999644268181,-0.00175489433983,0.999644268181,-0.00175489433983,0.000349208396973,-0.000744860467947
200000000.0,0.000346458011245,-0.00148973011065,0.999635245369,-0.00350979979916,0.999635245369,-0.00350979979916,0.000346458011245,-0.00148973011065
300000000.0,0.000340477019852,-0.00223460745577,0.999623202941,-0.00526472447537,0.999623202941,-0.00526472447537,0.000340477019852,-0.00223460745577
400000000.0,0.000331569801959,-0.00297948982302,0.999607835957,-0.00701967144148,0.999607835957,-0.00701967144148,0.000331569801959,-0.00297948982302
500000000.0,0.000319853160329,-0.00372437357328,0.999589026982,-0.00877464157424,0.999589026982,-0.00877464157424,0.000319853160329,-0.00372437357328
600000000.0,0.000305386388979,-0.00446925437097,0.99956671603,-0.0105296343736,0.99956671603,-0.0105296343736,0.000305386388979,-0.00446925437097
700000000.0,0.000288204309246,-0.00521412734289,0.999540867548,-0.0122846483567,0.999540867548,-0.0122846483567,0.000288204309246,-0.00521412734289
800000000.0,0.000268329318398,-0.0059589871813,0.999511458381,-0.0140396812857,0.999511458381,-0.0140396812857,0.000268329318398,-0.0059589871813
900000000.0,0.000245776751312,-0.00670382821559,0.999478472416,-0.0157947303151,0.999478472416,-0.0157947303151,0.000245776751312,-0.00670382821559
1000000000.0,0.000220557597132,-0.00744864446427,0.999441897874,-0.0175497920932,0.999441897874,-0.0175497920932,0.000220557597132,-0.00744864446427
1100000000.0,0.000192680009167,-0.00819342967477,0.99940172581,-0.0193048628369,0.99940172581,-0.0193048628369,0.000192680009167,-0.00819342967477
1200000000.0,0.000162150204635,-0.00893817735385,0.999357949215,-0.0210599383878,0.999357949215,-0.0210599383878,0.000162150204635,-0.00893817735385
1300000000.0,0.000128973030922,-0.00968288079275,0.99931056246,-0.022815014256,0.99931056246,-0.022815014256,0.000128973030922,-0.00968288079275
1400000000.0,9.31523380523e-05,-0.0104275330871,0.999259560921,-0.024570085656,0.999259560921,-0.024570085656,9.31523380521e-05,-0.0104275330871
1500000000.0,5.46912327215e-05,-0.0111721271538,0.999204940738,-0.0263251475348,0.999204940738,-0.0263251475348,5.46912327222e-05,-0.0111721271538
1600000000.0,1.35922570017e-05,-0.0119166557453,0.999146698634,-0.0280801945965,0.999146698634,-0.0280801945965,1.35922570019e-05,-0.0119166557453
1700000000.0,-3.0142482658e-05,-0.0126611114617,0.999084831793,-0.0298352213222,0.999084831793,-0.0298352213222,-3.01424826582e-05,-0.0126611114617
1800000000.0,-7.65112201347e-05,-0.0134054867612,0.999019337764,-0.0315902219872,0.999019337764,-0.0315902219872,-7.65112201347e-05,-0.0134054867612
1900000000.0,-0.00012551245784,-0.0141497739695,0.998950214398,-0.0333451906765,0.998950214398,-0.0333451906765,-0.00012551245784,-0.0141497739695
2000000000.0,-0.000177144911678,-0.0148939652877,0.998877459791,-0.0351001212973,0.998877459791,-0.0351001212973,-0.000177144911678,-0.0148939652877
2100000000.0,-0.000231407468167,-0.0156380527995,0.998801072246,-0.0368550075904,0.998801072246,-0.0368550075904,-0.000231407468166,-0.0156380527995
2200000000.0,-0.000288299150565,-0.0163820284781,0.998721050243,-0.0386098431411,0.998721050243,-0.0386098431411,-0.000288299150564,-0.0163820284781
2300000000.0,-0.000347819091768,-0.0171258841916,0.99863739241,-0.0403646213874,0.99863739241,-0.0403646213874,-0.000347819091768,-0.0171258841916
2400000000.0,-0.00040996651237,-0.017869611708,0.998550097509,-0.0421193356289,0.998550097509,-0.0421193356289,-0.00040996651237,-0.017869611708
2500000000.0,-0.000474740702701,-0.0186132027011,0.998459164416,-0.0438739790337,0.998459164416,-0.0438739790337,-0.000474740702701,-0.0186132027011
2600000000.0,-0.000542141007997,-0.0193566487537,0.998364592108,-0.0456285446454,0.998364592108,-0.0456285446454,-0.000542141007997,-0.0193566487537
2700000000.0,-0.000612166816019,-0.0200999413623,0.998266379658,-0.0473830253889,0.998266379658,-0.0473830253889,-0.000612166816019,-0.0200999413623
2800000000.0,-0.000684817546649,-0.0208430719411,0.998164526219,-0.0491374140765,0.998164526219,-0.0491374140765,-0.000684817546649,-0.0208430719411
2900000000.0,-0.000760092643069,-0.0215860318247,0.998059031022,-0.0508917034126,0.998059031022,-0.0508917034126,-0.000760092643069,-0.0215860318247
3000000000.0,-0.000837991564217,-0.0223288122721,0.99794989337,-0.0526458859988,0.99794989337,-0.0526458859988,-0.000837991564217,-0.0223288122721
3100000000.0,-0.000918513778312,-0.0230714044693,0.99783711263,-0.0543999543382,0.99783711263,-0.0543999543382,-0.000918513778312,-0.0230714044693
3200000000.0,-0.00100165875724,-0.0238137995325,0.997720688232,-0.0561539008396,0.997720688232,-0.0561539008396,-0.00100165875724,-0.0238137995325
3300000000.0,-0.00108742597168,-0.0245559885104,0.997600619664,-0.0579077178212,0.997600619664,-0.0579077178212,-0.00108742597168,-0.0245559885104
3400000000.0,-0.00117581488679,-0.025297962387,0.997476906471,-0.0596613975144,0.997476906471,-0.0596613975144,-0.00117581488679,-0.025297962387
3500000000.0,-0.00126682495846,-0.0260397120837,0.997349548249,-0.0614149320672,0.997349548249,-0.0614149320672,-0.00126682495846,-0.0260397120837
3600000000.0,-0.00136045562999,-0.0267812284622,0.997218544648,-0.0631683135471,0.997218544648,-0.0631683135471,-0.00136045562999,-0.0267812284622
3700000000.0,-0.00145670632908,-0.0275225023258,0.997083895366,-0.0649215339445,0.997083895366,-0.0649215339445,-0.00145670632908,-0.0275225023258
3800000000.0,-0.00155557646516,-0.028263524422,0.996945600149,-0.0666745851753,0.996945600149,-0.0666745851753,-0.00155557646516,-0.028263524422
3900000000.0,-0.00165706542709,-0.0290042854444,0.996803658792,-0.0684274590838,0.996803658792,-0.0684274590838,-0.00165706542709,-0.0290042854444
4000000000.0,-0.0017611725809,-0.0297447760346,0.996658071134,-0.0701801474448,0.996658071134,-0.0701801474448,-0.0017611725809,-0.0297447760346
4100000000.0,-0.0018678972679,-0.0304849867836,0.996508837061,-0.0719326419668,0.996508837061,-0.0719326419668,-0.0018678972679,-0.0304849867836
4200000000.0,-0.00197723880293,-0.031224908234,0.996355956501,-0.0736849342936,0.996355956501,-0.0736849342936,-0.00197723880293,-0.031224908234
4300000000.0,-0.00208919647268,-0.0319645308814,0.99619942943,-0.0754370160069,0.99619942943,-0.0754370160069,-0.00208919647268,-0.0319645308814
4400000000.0,-0.00220376953428,-0.032703845176,0.996039255863,-0.0771888786284,0.996039255863,-0.0771888786284,-0.00220376953428,-0.032703845176
4500000000.0,-0.0023209572139,-0.0334428415243,0.995875435861,-0.0789405136217,0.995875435861,-0.0789405136217,-0.0023209572139,-0.0334428415243
4600000000.0,-0.00244075870551,-0.0341815102904,0.995707969527,-0.0806919123943,0.995707969527,-0.0806919123943,-0.00244075870551,-0.0341815102904
4700000000.0,-0.00256317316975,-0.0349198417973,0.995536857006,-0.0824430662997,0.995536857006,-0.0824430662997,-0.00256317316975,-0.0349198417973
4800000000.0,-0.00268819973285,-0.0356578263287,0.995362098488,-0.0841939666387,0.995362098488,-0.0841939666387,-0.00268819973285,-0.0356578263287
4900000000.0,-0.00281583748563,-0.03639545413,0.995183694201,-0.0859446046618,0.995183694201,-0.0859446046618,-0.00281583748563,-0.03639545413
5000000000.0,-0.0029460854826,-0.0371327154095,0.995001644418,-0.0876949715701,0.995001644418,-0.0876949715701,-0.0029460854826,-0.0371327154095
5100000000.0,-0.00307894274108,-0.0378696003402,0.994815949453,-0.0894450585178,0.994815949453,-0.0894450585178,-0.00307894274108,-0.0378696003402
5200000000.0,-0.00321440824044,-0.0386060990603,0.994626609663,-0.0911948566128,0.994626609663,-0.0911948566128,-0.00321440824044,-0.0386060990603
5300000000.0,-0.00335248092131,-0.0393422016749,0.994433625445,-0.0929443569192,0.994433625445,-0.0929443569192,-0.00335248092131,-0.0393422016749
5400000000.0,-0.00349315968488,-0.0400778982571,0.99423699724,-0.0946935504578,0.99423699724,-0.0946935504578,-0.00349315968488,-0.0400778982571
5500000000.0,-0.00363644339229,-0.0408131788488,0.994036725531,-0.0964424282084,0.994036725531,-0.0964424282084,-0.00363644339229,-0.0408131788488
5600000000.0,-0.00378233086395,-0.0415480334622,0.993832810841,-0.0981909811105,0.993832810841,-0.0981909811105,-0.00378233086395,-0.0415480334622
5700000000.0,-0.00393082087899,-0.0422824520807,0.993625253737,-0.099939200065,0.993625253737,-0.099939200065,-0.00393082087899,-0.0422824520807
5800000000.0,-0.00408191217472,-0.0430164246598,0.993414054828,-0.101687075935,0.993414054828,-0.101687075935,-0.00408191217472,-0.0430164246598
5900000000.0,-0.00423560344607,-0.0437499411283,0.993199214764,-0.103434599549,0.993199214764,-0.103434599549,-0.00423560344608,-0.0437499411283
6000000000.0,-0.00439189334517,-0.0444829913894,0.992980734238,-0.105181761699,0.992980734238,-0.105181761699,-0.00439189334517,-0.0444829913894
6100000000.0,-0.0045507804808,-0.0452155653214,0.992758613986,-0.106928553142,0.992758613986,-0.106928553142,-0.0045507804808,-0.0452155653214
6200000000.0,-0.00471226341803,-0.0459476527787,0.992532854786,-0.108674964607,0.992532854786,-0.108674964607,-0.00471226341803,-0.0459476527787
6300000000.0,-0.00487634067778,-0.0466792435931,0.992303457458,-0.110420986787,0.992303457458,-0.110420986787,-0.00487634067778,-0.0466792435931
6400000000.0,-0.00504301073639,-0.0474103275742,0.992070422867,-0.112166610347,0.992070422867,-0.112166610347,-0.00504301073639,-0.0474103275742
6500000000.0,-0.00521227202531,-0.0481408945106,0.991833751919,-0.113911825922,0.991833751919,-0.113911825922,-0.00521227202531,-0.0481408945106
6600000000.0,-0.00538412293071,-0.0488709341708,0.991593445561,-0.11565662412,0.991593445561,-0.11565662412,-0.00538412293071,-0.0488709341708
6700000000.0,-0.00555856179315,-0.049600436304,0.991349504788,-0.117400995521,0.991349504788,-0.117400995521,-0.00555856179315,-0.049600436304
6800000000.0,-0.00573558690728,-0.0503293906409,0.991101930633,-0.119144930678,0.991101930633,-0.119144930678,-0.00573558690728,-0.0503293906409
6900000000.0,-0.00591519652151,-0.0510577868946,0.990850724176,-0.12088842012,0.990850724176,-0.12088842012,-0.00591519652151,-0.0510577868946
7000000000.0,-0.00609738883775,-0.0517856147613,0.990595886538,-0.122631454353,0.990595886538,-0.122631454353,-0.00609738883775,-0.0517856147613
7100000000.0,-0.00628216201114,-0.0525128639213,0.990337418885,-0.124374023858,0.990337418885,-0.124374023858,-0.00628216201114,-0.0525128639213
7200000000.0,-0.00646951414976,-0.0532395240398,0.990075322425,-0.126116119094,0.990075322425,-0.126116119094,-0.00646951414976,-0.0532395240398
7300000000.0,-0.00665944331443,-0.0539655847674,0.989809598412,-0.127857730499,0.989809598412,-0.127857730499,-0.00665944331443,-0.0539655847674
7400000000.0,-0.00685194751845,-0.0546910357413,0.989540248141,-0.129598848491,0.989540248141,-0.129598848491,-0.00685194751845,-0.0546910357413
7500000000.0,-0.0070470247274,-0.0554158665855,0.989267272953,-0.131339463469,0.989267272953,-0.131339463469,-0.0070470247274,-0.0554158665855
7600000000.0,-0.00724467285889,-0.0561400669121,0.988990674231,-0.133079565811,0.988990674231,-0.133079565811,-0.00724467285889,-0.0561400669121
7700000000.0,-0.00744488978245,-0.0568636263217,0.988710453404,-0.134819145879,0.988710453404,-0.134819145879,-0.00744488978245,-0.0568636263217
7800000000.0,-0.00764767331924,-0.0575865344043,0.988426611944,-0.136558194018,0.988426611944,-0.136558194018,-0.00764767331924,-0.0575865344043
7900000000.0,-0.00785302124196,-0.0583087807399,0.988139151366,-0.138296700557,0.988139151366,-0.138296700557,-0.00785302124196,-0.0583087807399
8000000000.0,-0.00806093127464,-0.0590303548991,0.987848073232,-0.140034655808,0.987848073232,-0.140034655808,-0.00806093127464,-0.0590303548991
8100000000.0,-0.00827140109248,-0.0597512464443,0.987553379147,-0.14177205007,0.987553379147,-0.14177205007,-0.00827140109248,-0.0597512464443
8200000000.0,-0.00848442832175,-0.0604714449296,0.987255070759,-0.143508873628,0.987255070759,-0.143508873628,-0.00848442832175,-0.0604714449296
8300000000.0,-0.0087000105396,-0.0611909399021,0.986953149762,-0.145245116753,0.986953149762,-0.145245116753,-0.0087000105396,-0.0611909399021
8400000000.0,-0.00891814527394,-0.0619097209024,0.986647617895,-0.146980769706,0.986647617895,-0.146980769706,-0.00891814527394,-0.0619097209024
8500000000.0,-0.00913883000337,-0.0626277774653,0.98633847694,-0.148715822735,0.98633847694,-0.148715822735,-0.00913883000337,-0.0626277774653
8600000000.0,-0.00936206215699,-0.06334509912,0.986025728725,-0.150450266076,0.986025728725,-0.150450266076,-0.00936206215699,-0.06334509912
8700000000.0,-0.00958783911435,-0.0640616753916,0.985709375121,-0.152184089957,0.985709375121,-0.152184089957,-0.00958783911435,-0.0640616753916
8800000000.0,-0.00981615820534,-0.0647774958009,0.985389418047,-0.153917284595,0.985389418047,-0.153917284595,-0.00981615820534,-0.0647774958009
8900000000.0,-0.0100470167101,-0.0654925498656,0.985065859462,-0.155649840201,0.985065859462,-0.155649840201,-0.0100470167101,-0.0654925498656
9000000000.0,-0.0102804118589,-0.0662068271006,0.984738701373,-0.157381746975,0.984738701373,-0.157381746975,-0.0102804118589,-0.0662068271006
9100000000.0,-0.0105163408321,-0.0669203170187,0.984407945833,-0.159112995111,0.984407945833,-0.159112995111,-0.0105163408321,-0.0669203170187
9200000000.0,-0.0107548007602,-0.0676330091313,0.984073594935,-0.160843574798,0.984073594935,-0.160843574798,-0.0107548007602,-0.0676330091313
9300000000.0,-0.0109957887235,-0.0683448929489,0.983735650822,-0.162573476216,0.983735650822,-0.162573476216,-0.0109957887235,-0.0683448929489
9400000000.0,-0.0112393017523,-0.0690559579815,0.98339411568,-0.164302689541,0.98339411568,-0.164302689541,-0.0112393017523,-0.0690559579815
9500000000.0,-0.0114853368266,-0.0697661937398,0.983048991738,-0.166031204947,0.983048991738,-0.166031204947,-0.0114853368266,-0.0697661937398
9600000000.0,-0.0117338908765,-0.0704755897351,0.982700281273,-0.167759012599,0.982700281273,-0.167759012599,-0.0117338908765,-0.0704755897351
9700000000.0,-0.0119849607815,-0.0711841354802,0.982347986604,-0.169486102663,0.982347986604,-0.169486102663,-0.0119849607815,-0.0711841354802
9800000000.0,-0.0122385433712,-0.07189182049,0.981992110099,-0.171212465301,0.981992110099,-0.171212465301,-0.0122385433712,-0.07189182049
9900000000.0,-0.0124946354247,-0.0725986342818,0.981632654166,-0.172938090671,0.981632654166,-0.172938090671,-0.0124946354247,-0.0725986342818
10000000000.0,-0.0127532336707,-0.0733045663761,0.981269621261,-0.174662968932,0.981269621261,-0.174662968932,-0.0127532336707,-0.0733045663761
