freq (GHz),S11_real,S11_imag,S21_real,S21_imag,S12_real,S12_imag,S22_real,S22_imag
100000000.0,-0.00190059720613,-0.0431272360587,0.998072991212,-0.0432822169023,0.998072991212,-0.0432822169023,-0.00190059720613,-0.0431272360587
200000000.0,-0.0075103645033,-0.0857581138314,0.99246300741,-0.0860681516473,0.99246300741,-0.0860681516473,-0.0075103645033,-0.0857581138314
300000000.0,-0.0166899092004,-0.127426081432,0.983283267434,-0.127891290509,0.983283267434,-0.127891290509,-0.0166899092004,-0.127426081432
400000000.0,-0.0292376297604,-0.167700829224,0.970735350055,-0.168321351954,0.970735350055,-0.168321351954,-0.0292376297604,-0.167700829224
500000000.0,-0.0448880885131,-0.206201687679,0.955084684168,-0.206977689001,0.955084684168,-0.206977689001,-0.0448880885131,-0.206201687679
600000000.0,-0.0633255315436,-0.24260775277,0.936647019181,-0.243539416229,0.936647019181,-0.243539416229,-0.0633255315436,-0.24260775277
700000000.0,-0.0841988278957,-0.276664114155,0.915773483355,-0.277751638822,0.915773483355,-0.277751638822,-0.0841988278957,-0.276664114155
800000000.0,-0.10713662937,-0.30818413776,0.892835423111,-0.3094277357,0.892835423111,-0.3094277357,-0.10713662937,-0.30818413776
900000000.0,-0.131761688724,-0.337048143882,0.868210084427,-0.338448038001,0.868210084427,-0.338448038001,-0.131761688724,-0.337048143882
1000000000.0,-0.157703511817,-0.363199094411,0.842267960498,-0.3647555166,0.842267960498,-0.3647555166,-0.157703511817,-0.363199094411
1100000000.0,-0.18460880523,-0.386636053876,0.815362344008,-0.388349243386,0.815362344008,-0.388349243386,-0.18460880523,-0.386636053876
1200000000.0,-0.212149466382,-0.407406226853,0.787821336937,-0.409276428866,0.787821336937,-0.409276428866,-0.212149466382,-0.407406226853
1300000000.0,-0.240028111559,-0.425596320929,0.759942322503,-0.427623785302,0.759942322503,-0.427623785302,-0.240028111559,-0.425596320929
1400000000.0,-0.267981327018,-0.441323869726,0.731988714023,-0.443508849864,0.731988714023,-0.443508849864,-0.267981327018,-0.441323869726
1500000000.0,-0.295780952711,-0.454729004372,0.704188671176,-0.457071756247,0.704188671176,-0.457071756247,-0.295780952711,-0.454729004372
1600000000.0,-0.323233771356,-0.465967010062,0.67673541092,-0.468467791334,0.67673541092,-0.468467791334,-0.323233771356,-0.465967010062
1700000000.0,-0.350179988749,-0.475201864971,0.649788727163,-0.477860934213,0.649788727163,-0.477860934213,-0.350179988749,-0.475201864971
1800000000.0,-0.376490868276,-0.482600842809,0.623477356256,-0.48541845883,0.623477356256,-0.48541845883,-0.376490868276,-0.482600842809
1900000000.0,-0.402065837244,-0.488330171899,0.597901870647,-0.491306593141,0.597901870647,-0.491306593141,-0.402065837244,-0.488330171899
2000000000.0,-0.42682932655,-0.492551682372,0.573137839216,-0.495687166388,0.573137839216,-0.495687166388,-0.42682932655,-0.492551682372
2100000000.0,-0.450727546991,-0.495420335689,0.549239050957,-0.498715138689,0.549239050957,-0.498715138689,-0.450727546991,-0.495420335689
2200000000.0,-0.473725351169,-0.497082512372,0.526240653073,-0.500536888827,0.526240653073,-0.500536888827,-0.473725351169,-0.497082512372
2300000000.0,-0.495803282569,-0.497674929676,0.504162101895,-0.501289131981,0.504162101895,-0.501289131981,-0.495803282569,-0.497674929676
2400000000.0,-0.516954874566,-0.497324066411,0.483009863875,-0.501098344596,0.483009863875,-0.501098344596,-0.516954874566,-0.497324066411
2500000000.0,-0.537184231786,-0.496145983424,0.462779834224,-0.500080584913,0.462779834224,-0.500080584913,-0.537184231786,-0.496145983424
2600000000.0,-0.556503903748,-0.494246442575,0.443459463267,-0.498341611984,0.443459463267,-0.498341611984,-0.556503903748,-0.494246442575
2700000000.0,-0.574933044894,-0.491721242251,0.425029596415,-0.495977221226,0.425029596415,-0.495977221226,-0.574933044894,-0.491721242251
2800000000.0,-0.592495844704,-0.488656702238,0.407466044046,-0.493073729319,0.407466044046,-0.493073729319,-0.592495844704,-0.488656702238
2900000000.0,-0.609220205375,-0.485130244317,0.390740903827,-0.489708554839,0.390740903827,-0.489708554839,-0.609220205375,-0.485130244317
3000000000.0,-0.625136641479,-0.481211026813,0.374823661057,-0.485950852832,0.374823661057,-0.485950852832,-0.625136641479,-0.481211026813
3100000000.0,-0.64027737511,-0.476960601423,0.359682093517,-0.481862171664,0.359682093517,-0.481862171664,-0.64027737511,-0.476960601423
3200000000.0,-0.654675600685,-0.472433568955,0.34528300667,-0.477497108782,0.34528300667,-0.477497108782,-0.654675600685,-0.472433568955
3300000000.0,-0.668364895105,-0.467678217363,0.331592823501,-0.472903948766,0.331592823501,-0.472903948766,-0.668364895105,-0.467678217363
3400000000.0,-0.68137875112,-0.462737130753,0.318578051146,-0.468125272356,0.318578051146,-0.468125272356,-0.68137875112,-0.462737130753
3500000000.0,-0.693750214065,-0.457647762173,0.306205644164,-0.46319852925,0.306205644164,-0.46319852925,-0.693750214065,-0.457647762173
3600000000.0,-0.705511604552,-0.452442966094,0.294443281839,-0.458156570603,0.294443281839,-0.458156570603,-0.705511604552,-0.452442966094
3700000000.0,-0.716694312008,-0.447151488832,0.283259574641,-0.453028139459,0.283259574641,-0.453028139459,-0.716694312008,-0.447151488832
3800000000.0,-0.727328646131,-0.441798416812,0.272624212776,-0.447838319022,0.272624212776,-0.447838319022,-0.727328646131,-0.441798416812
3900000000.0,-0.737443735253,-0.436405583747,0.262508067815,-0.442608939847,0.262508067815,-0.442608939847,-0.737443735253,-0.436405583747
4000000000.0,-0.747067462388,-0.430991938607,0.25288325665,-0.437358947812,0.25288325665,-0.437358947812,-0.747067462388,-0.430991938607
4100000000.0,-0.756226431228,-0.425573876705,0.243723175503,-0.432104735212,0.243723175503,-0.432104735212,-0.756226431228,-0.425573876705
4200000000.0,-0.764945955674,-0.420165536549,0.235002510379,-0.426860437618,0.235002510379,-0.426860437618,-0.764945955674,-0.420165536549
4300000000.0,-0.773250067648,-0.414779065179,0.226697229274,-0.421638199215,0.226697229274,-0.421638199215,-0.773250067648,-0.414779065179
4400000000.0,-0.78116153883,-0.40942485474,0.218784560421,-0.416448409377,0.218784560421,-0.416448409377,-0.78116153883,-0.40942485474
4500000000.0,-0.78870191283,-0.404111752946,0.211242960129,-0.411299913141,0.211242960129,-0.411299913141,-0.78870191283,-0.404111752946
4600000000.0,-0.795891544919,-0.398847249985,0.204052073044,-0.406200198104,0.204052073044,-0.406200198104,-0.795891544919,-0.398847249985
4700000000.0,-0.802749647065,-0.393637644236,0.19719268712,-0.401155560149,0.19719268712,-0.401155560149,-0.802749647065,-0.393637644236
4800000000.0,-0.809294336416,-0.388488189011,0.190646685129,-0.396171250185,0.190646685129,-0.396171250185,-0.809294336416,-0.388488189011
4900000000.0,-0.81554268582,-0.383403222343,0.184396994147,-0.391251603934,0.184396994147,-0.391251603934,-0.81554268582,-0.383403222343
5000000000.0,-0.821510775223,-0.378386281673,0.17842753415,-0.386400156622,0.17842753415,-0.386400156622,-0.821510775223,-0.378386281673
5100000000.0,-0.8272137431,-0.373440205102,0.17272316659,-0.381619744228,0.17272316659,-0.381619744228,-0.8272137431,-0.373440205102
5200000000.0,-0.832665837221,-0.368567220721,0.167269643621,-0.376912592815,0.167269643621,-0.376912592815,-0.832665837221,-0.368567220721
5300000000.0,-0.837880464275,-0.363769025369,0.162053558483,-0.372280397283,0.162053558483,-0.372280397283,-0.837880464275,-0.363769025369
5400000000.0,-0.842870237974,-0.359046854027,0.157062297388,-0.367724390771,0.157062297388,-0.367724390771,-0.842870237974,-0.359046854027
5500000000.0,-0.847647025387,-0.354401540935,0.152283993196,-0.363245405762,0.152283993196,-0.363245405762,-0.847647025387,-0.354401540935
5600000000.0,-0.852221991321,-0.349833573384,0.147707481028,-0.358843927882,0.147707481028,-0.358843927882,-0.852221991321,-0.349833573384
5700000000.0,-0.856605640653,-0.345343139042,0.143322255937,-0.354520143221,0.143322255937,-0.354520143221,-0.856605640653,-0.345343139042
5800000000.0,-0.860807858554,-0.340930167576,0.13911843268,-0.350273979954,0.13911843268,-0.350273979954,-0.860807858554,-0.340930167576
5900000000.0,-0.864837948599,-0.336594367225,0.135086707612,-0.346105144912,0.135086707612,-0.346105144912,-0.864837948599,-0.336594367225
6000000000.0,-0.868704668776,-0.332335256935,0.131218322674,-0.342013155716,0.131218322674,-0.342013155716,-0.868704668776,-0.332335256935
6100000000.0,-0.872416265444,-0.328152194567,0.127505031438,-0.337997368982,0.127505031438,-0.337997368982,-0.872416265444,-0.328152194567
6200000000.0,-0.875980505286,-0.324044401653,0.123939067149,-0.334057005077,0.123939067149,-0.334057005077,-0.875980505286,-0.324044401653
6300000000.0,-0.879404705352,-0.320010985096,0.120513112689,-0.330191169818,0.120513112689,-0.330191169818,-0.879404705352,-0.320010985096
6400000000.0,-0.882695761249,-0.316050956192,0.11722027238,-0.326398873484,0.11722027238,-0.326398873484,-0.882695761249,-0.316050956192
6500000000.0,-0.885860173574,-0.31216324727,0.114054045556,-0.322679047467,0.114054045556,-0.322679047467,-0.885860173574,-0.31216324727
6600000000.0,-0.888904072679,-0.308346726259,0.111008301793,-0.319030558827,0.111008301793,-0.319030558827,-0.888904072679,-0.308346726259
6700000000.0,-0.891833241861,-0.3046002094,0.108077257726,-0.315452223008,0.108077257726,-0.315452223008,-0.891833241861,-0.3046002094
6800000000.0,-0.894653139045,-0.300922472352,0.105255455359,-0.311942814937,0.105255455359,-0.311942814937,-0.894653139045,-0.300922472352
6900000000.0,-0.897368917077,-0.297312259854,0.102537741774,-0.308501078689,0.102537741774,-0.308501078689,-0.897368917077,-0.297312259854
7000000000.0,-0.899985442688,-0.293768294143,0.0999192501701,-0.305125735898,0.0999192501701,-0.305125735898,-0.899985442688,-0.293768294143
7100000000.0,-0.902507314218,-0.29028928225,0.0973953821362,-0.30181549306,0.0973953821362,-0.30181549306,-0.902507314218,-0.29028928225
7200000000.0,-0.904938878181,-0.286873922332,0.094961791086,-0.298569047852,0.094961791086,-0.298569047852,-0.904938878181,-0.286873922332
7300000000.0,-0.907284244744,-0.283520909137,0.0926143667818,-0.295385094603,0.0926143667818,-0.295385094603,-0.907284244744,-0.283520909137
7400000000.0,-0.909547302183,-0.280228938713,0.0903492208741,-0.292262328997,0.0903492208741,-0.292262328997,-0.909547302183,-0.280228938713
7500000000.0,-0.911731730397,-0.276996712452,0.0881626733914,-0.289199452122,0.0881626733914,-0.289199452122,-0.911731730397,-0.276996712452
7600000000.0,-0.91384101353,-0.273822940553,0.0860512401163,-0.286195173922,0.0860512401163,-0.286195173922,-0.91384101353,-0.273822940553
7700000000.0,-0.915878451768,-0.270706344963,0.0840116207891,-0.283248216142,0.0840116207891,-0.283248216142,-0.915878451768,-0.270706344963
7800000000.0,-0.917847172364,-0.267645661868,0.0820406880833,-0.280357314819,0.0820406880833,-0.280357314819,-0.917847172364,-0.267645661868
7900000000.0,-0.91975013994,-0.264639643788,0.080135477301,-0.277521222369,0.080135477301,-0.277521222369,-0.91975013994,-0.264639643788
8000000000.0,-0.921590166126,-0.261687061324,0.0782931767379,-0.27473870934,0.0782931767379,-0.27473870934,-0.921590166126,-0.261687061324
8100000000.0,-0.923369918564,-0.258786704596,0.0765111186747,-0.272008565843,0.0765111186747,-0.272008565843,-0.923369918564,-0.258786704596
8200000000.0,-0.925091929339,-0.255937384414,0.0747867709501,-0.269329602727,0.0747867709501,-0.269329602727,-0.925091929339,-0.255937384414
8300000000.0,-0.926758602861,-0.25313793322,0.0731177290768,-0.26670065251,0.0731177290768,-0.26670065251,-0.926758602861,-0.25313793322
8400000000.0,-0.928372223244,-0.250387205816,0.0715017088632,-0.264120570118,0.0715017088632,-0.264120570118,-0.928372223244,-0.250387205816
8500000000.0,-0.929934961211,-0.247684079922,0.0699365395065,-0.261588233433,0.0699365395065,-0.261588233433,-0.929934961211,-0.247684079922
8600000000.0,-0.931448880567,-0.245027456571,0.0684201571243,-0.25910254369,0.0684201571243,-0.25910254369,-0.931448880567,-0.245027456571
8700000000.0,-0.93291594425,-0.242416260378,0.0669505986962,-0.256662425743,0.0669505986962,-0.256662425743,-0.93291594425,-0.242416260378
8800000000.0,-0.934338020017,-0.239849439679,0.0655259963864,-0.254266828209,0.0655259963864,-0.254266828209,-0.934338020017,-0.239849439679
8900000000.0,-0.935716885757,-0.237325966582,0.0641445722217,-0.251914723507,0.0641445722217,-0.251914723507,-0.935716885757,-0.237325966582
9000000000.0,-0.93705423449,-0.234844836924,0.0628046331016,-0.249605107822,0.0628046331016,-0.249605107822,-0.93705423449,-0.234844836924
9100000000.0,-0.938351679041,-0.232405070148,0.0615045661175,-0.247337000981,0.0615045661175,-0.247337000981,-0.938351679041,-0.232405070148
9200000000.0,-0.939610756435,-0.230005709125,0.06024283416,-0.24510944627,0.06024283416,-0.24510944627,-0.939610756435,-0.230005709125
9300000000.0,-0.940832932021,-0.227645819919,0.0590179717956,-0.242921510199,0.0590179717956,-0.242921510199,-0.940832932021,-0.227645819919
9400000000.0,-0.942019603342,-0.225324491501,0.0578285813952,-0.240772282218,0.0578285813952,-0.240772282218,-0.942019603342,-0.225324491501
9500000000.0,-0.943172103773,-0.223040835427,0.056673329496,-0.238660874393,0.056673329496,-0.238660874393,-0.943172103773,-0.223040835427
9600000000.0,-0.944291705943,-0.220793985488,0.0555509433836,-0.236586421049,0.0555509433836,-0.236586421049,-0.944291705943,-0.220793985488
9700000000.0,-0.945379624942,-0.218583097323,0.0544602078781,-0.234548078394,0.0544602078781,-0.234548078394,-0.945379624942,-0.218583097323
9800000000.0,-0.946437021349,-0.216407348025,0.0533999623116,-0.232545024114,0.0533999623116,-0.232545024114,-0.946437021349,-0.216407348025
9900000000.0,-0.947465004074,-0.214265935715,0.0523690976845,-0.23057645695,0.0523690976845,-0.23057645695,-0.947465004074,-0.214265935715
10000000000.0,-0.948464633032,-0.212158079113,0.0513665539889,-0.228641596268,0.0513665539889,-0.228641596268,-0.948464633032,-0.212158079113
