freq (GHz),S11_real,S11_imag,S21_real,S21_imag,S12_real,S12_imag,S22_real,S22_imag
100000000.0,0.0102541304723,0.00142766828048,0.989732397089,-0.00555575329431,0.989732397089,-0.00555575329431,0.0102541304723,0.00142766828048
200000000.0,0.0103439692091,0.00285420716842,0.989612984914,-0.0111103240614,0.989612984914,-0.0111103240614,0.0103439692091,0.00285420716842
300000000.0,0.0104319976176,0.00427980845962,0.989478280877,-0.0166638713865,0.989478280877,-0.0166638713865,0.0104319976176,0.00427980845962
400000000.0,0.0105270267592,0.00570441483509,0.989319472653,-0.0222163023291,0.989319472653,-0.0222163023291,0.0105270267592,0.00570441483509
500000000.0,0.0106324433648,0.00712791148177,0.989133172085,-0.0277674649871,0.989133172085,-0.0277674649871,0.0106324433648,0.00712791148177
600000000.0,0.0107499676596,0.00855015835445,0.988917657338,-0.0333171812623,0.988917657338,-0.0333171812623,0.0107499676596,0.00855015835445
700000000.0,0.010880608646,0.00997100174356,0.98867191761,-0.0388652586826,0.98867191761,-0.0388652586826,0.010880608646,0.00997100174356
800000000.0,0.0110250127411,0.0113902796383,0.988395304488,-0.0444114959166,0.988395304488,-0.0444114959166,0.0110250127411,0.0113902796383
900000000.0,0.0111836189988,0.0128078246106,0.988087376732,-0.049955685755,0.988087376732,-0.049955685755,0.0111836189988,0.0128078246106
1000000000.0,0.0113567377829,0.0142234655292,0.9877478216,-0.0554976168927,0.9877478216,-0.0554976168927,0.0113567377829,0.0142234655292
1100000000.0,0.0115445944974,0.0156370286538,0.987376411119,-0.0610370750725,0.987376411119,-0.0610370750725,0.0115445944974,0.0156370286538
1200000000.0,0.0117473556428,0.0170483383764,0.98697297603,-0.0665738438617,0.98697297603,-0.0665738438617,0.0117473556428,0.0170483383764
1300000000.0,0.0119651452083,0.0184572177444,0.986537389402,-0.0721077052048,0.986537389402,-0.0721077052048,0.0119651452083,0.0184572177444
1400000000.0,0.0121980554469,0.0198634888458,0.986069555854,-0.0776384398296,0.986069555854,-0.0776384398296,0.0121980554469,0.0198634888458
1500000000.0,0.0124461542184,0.0212669731019,0.985569404217,-0.0831658275571,0.985569404217,-0.0831658275571,0.0124461542184,0.0212669731019
1600000000.0,0.012709490148,0.0226674914953,0.985036882378,-0.0886896475439,0.985036882378,-0.0886896475439,0.012709490148,0.0226674914953
1700000000.0,0.0129880963446,0.0240648647529,0.984471953561,-0.094209678476,0.984471953561,-0.094209678476,0.0129880963446,0.0240648647529
1800000000.0,0.0132819931428,0.0254589134962,0.983874593587,-0.0997256987281,0.983874593587,-0.0997256987281,0.0132819931428,0.0254589134962
1900000000.0,0.013591190164,0.0268494583663,0.98324478882,-0.105237486496,0.98324478882,-0.105237486496,0.013591190164,0.0268494583663
2000000000.0,0.0139156878932,0.0282363201307,0.982582534586,-0.11074481991,0.982582534586,-0.11074481991,0.0139156878932,0.0282363201307
2100000000.0,0.0142554789037,0.0296193197759,0.98188783395,-0.11624747713,0.98188783395,-0.11624747713,0.0142554789037,0.0296193197759
2200000000.0,0.0146105488227,0.0309982785886,0.98116069676,-0.121745236436,0.98116069676,-0.121745236436,0.0146105488227,0.0309982785886
2300000000.0,0.0149808771009,0.0323730182283,0.98040113887,-0.127237876295,0.98040113887,-0.127237876295,0.0149808771009,0.0323730182283
2400000000.0,0.0153664376341,0.0337433607919,0.979609181524,-0.132725175438,0.979609181524,-0.132725175438,0.0153664376341,0.0337433607919
2500000000.0,0.0157671992702,0.0351091288742,0.978784850851,-0.138206912915,0.978784850851,-0.138206912915,0.0157671992702,0.0351091288742
2600000000.0,0.0161831262277,0.0364701456216,0.97792817745,-0.143682868154,0.97792817745,-0.143682868154,0.0161831262277,0.0364701456216
2700000000.0,0.0166141784425,0.0378262347837,0.977039196038,-0.149152821011,0.977039196038,-0.149152821011,0.0166141784425,0.0378262347837
2800000000.0,0.0170603118605,0.0391772207605,0.976117945169,-0.15461655182,0.976117945169,-0.15461655182,0.0170603118605,0.0391772207605
2900000000.0,0.0175214786843,0.040522928647,0.975164466979,-0.160073841437,0.975164466979,-0.160073841437,0.0175214786843,0.040522928647
3000000000.0,0.017997627584,0.041863184276,0.974178806984,-0.165524471282,0.974178806984,-0.165524471282,0.017997627584,0.041863184276
3100000000.0,0.0184887038787,0.0431978142576,0.973161013897,-0.170968223382,0.973161013897,-0.170968223382,0.0184887038787,0.0431978142576
3200000000.0,0.0189946496934,0.0445266460186,0.972111139472,-0.176404880402,0.972111139472,-0.176404880402,0.0189946496934,0.0445266460186
3300000000.0,0.0195154040962,0.0458495078386,0.97102923837,-0.18183422569,0.97102923837,-0.18183422569,0.0195154040962,0.0458495078386
3400000000.0,0.0200509032193,0.0471662288862,0.96991536804,-0.187256043306,0.96991536804,-0.187256043306,0.0200509032193,0.0471662288862
3500000000.0,0.0206010803654,0.0484766392529,0.968769588611,-0.192670118056,0.968769588611,-0.192670118056,0.0206010803654,0.0484766392529
3600000000.0,0.0211658661032,0.0497805699863,0.967591962803,-0.198076235527,0.967591962803,-0.198076235527,0.0211658661032,0.0497805699863
3700000000.0,0.0217451883529,0.0510778531226,0.966382555839,-0.203474182113,0.966382555839,-0.203474182113,0.0217451883529,0.0510778531226
3800000000.0,0.0223389724633,0.0523683217175,0.965141435369,-0.20886374505,0.965141435369,-0.20886374505,0.0223389724633,0.0523683217175
3900000000.0,0.0229471412826,0.0536518098768,0.963868671405,-0.214244712442,0.963868671405,-0.214244712442,0.0229471412826,0.0536518098768
4000000000.0,0.0235696152223,0.0549281527862,0.962564336255,-0.219616873289,0.962564336255,-0.219616873289,0.0235696152223,0.0549281527862
4100000000.0,0.0242063123165,0.0561971867398,0.961228504466,-0.224980017517,0.961228504466,-0.224980017517,0.0242063123165,0.0561971867398
4200000000.0,0.0248571482775,0.0574587491684,0.95986125277,-0.230333935999,0.95986125277,-0.230333935999,0.0248571482775,0.0574587491684
4300000000.0,0.025522036546,0.0587126786675,0.958462660038,-0.235678420588,0.958462660038,-0.235678420588,0.025522036546,0.0587126786675
4400000000.0,0.02620088834,0.0599588150237,0.957032807226,-0.241013264134,0.957032807226,-0.241013264134,0.02620088834,0.0599588150237
4500000000.0,0.0268936126995,0.0611969992413,0.955571777341,-0.246338260516,0.955571777341,-0.246338260516,0.0268936126995,0.0611969992413
4600000000.0,0.0276001165296,0.0624270735681,0.954079655391,-0.251653204661,0.954079655391,-0.251653204661,0.0276001165296,0.0624270735681
4700000000.0,0.028320304641,0.0636488815205,0.95255652835,-0.256957892568,0.95255652835,-0.256957892568,0.028320304641,0.0636488815205
4800000000.0,0.0290540797893,0.0648622679083,0.951002485121,-0.262252121331,0.951002485121,-0.262252121331,0.0290540797893,0.0648622679083
4900000000.0,0.029801342712,0.0660670788591,0.9494176165,-0.267535689162,0.9494176165,-0.267535689162,0.029801342712,0.0660670788591
5000000000.0,0.030561992165,0.0672631618415,0.94780201514,-0.272808395411,0.94780201514,-0.272808395411,0.030561992165,0.0672631618415
5100000000.0,0.0313359249569,0.0684503656886,0.946155775517,-0.278070040587,0.946155775517,-0.278070040587,0.0313359249569,0.0684503656886
5200000000.0,0.0321230359835,0.069628540621,0.944478993902,-0.28332042638,0.944478993902,-0.28332042638,0.0321230359835,0.069628540621
5300000000.0,0.03292321826,0.0707975382683,0.942771768327,-0.288559355679,0.942771768327,-0.288559355679,0.03292321826,0.0707975382683
5400000000.0,0.033736362954,0.0719572116916,0.941034198551,-0.293786632593,0.941034198551,-0.293786632593,0.033736362954,0.0719572116916
5500000000.0,0.0345623594162,0.0731074154045,0.939266386039,-0.299002062467,0.939266386039,-0.299002062467,0.0345623594162,0.0731074154045
5600000000.0,0.0354010952118,0.0742480053939,0.937468433923,-0.304205451905,0.937468433923,-0.304205451905,0.0354010952118,0.0742480053939
5700000000.0,0.0362524561506,0.0753788391404,0.93564044698,-0.309396608785,0.93564044698,-0.309396608785,0.0362524561506,0.0753788391404
5800000000.0,0.0371163263174,0.0764997756386,0.933782531601,-0.314575342275,0.933782531601,-0.314575342275,0.0371163263174,0.0764997756386
5900000000.0,0.037992588101,0.077610675416,0.931894795765,-0.319741462855,0.931894795765,-0.319741462855,0.037992588101,0.077610675416
6000000000.0,0.0388811222236,0.0787114005528,0.929977349007,-0.324894782329,0.929977349007,-0.324894782329,0.0388811222236,0.0787114005528
6100000000.0,0.03978180777,0.0798018146997,0.928030302397,-0.330035113841,0.928030302397,-0.330035113841,0.03978180777,0.0798018146997
6200000000.0,0.040694522216,0.080881783097,0.926053768508,-0.335162271896,0.926053768508,-0.335162271896,0.040694522216,0.080881783097
6300000000.0,0.0416191414568,0.0819511725915,0.924047861394,-0.340276072368,0.924047861394,-0.340276072368,0.0416191414568,0.0819511725915
6400000000.0,0.0425555398356,0.0830098516544,0.922012696559,-0.345376332518,0.922012696559,-0.345376332518,0.0425555398356,0.0830098516544
6500000000.0,0.0435035901714,0.0840576903979,0.919948390932,-0.350462871012,0.919948390932,-0.350462871012,0.0435035901714,0.0840576903979
6600000000.0,0.0444631637871,0.0850945605919,0.917855062844,-0.355535507927,0.917855062844,-0.355535507927,0.0444631637871,0.0850945605919
6700000000.0,0.0454341305373,0.0861203356796,0.915732831996,-0.360594064771,0.915732831996,-0.360594064771,0.0454341305373,0.0861203356796
6800000000.0,0.0464163588361,0.0871348907935,0.91358181944,-0.365638364491,0.91358181944,-0.365638364491,0.0464163588361,0.0871348907935
6900000000.0,0.0474097156847,0.0881381027705,0.911402147548,-0.370668231491,0.911402147548,-0.370668231491,0.0474097156847,0.0881381027705
7000000000.0,0.0484140666991,0.0891298501663,0.909193939988,-0.375683491639,0.909193939988,-0.375683491639,0.0484140666991,0.0891298501663
7100000000.0,0.0494292761372,0.0901100132703,0.906957321701,-0.38068397228,0.906957321701,-0.38068397228,0.0494292761372,0.0901100132703
7200000000.0,0.0504552069269,0.0910784741189,0.904692418869,-0.385669502248,0.904692418869,-0.385669502248,0.0504552069269,0.0910784741189
7300000000.0,0.0514917206929,0.0920351165091,0.902399358898,-0.390639911877,0.902399358898,-0.390639911877,0.0514917206929,0.0920351165091
7400000000.0,0.0525386777844,0.092979826012,0.900078270385,-0.395595033009,0.900078270385,-0.395595033009,0.0525386777844,0.092979826012
7500000000.0,0.0535959373023,0.0939124899846,0.897729283098,-0.400534699008,0.897729283098,-0.400534699008,0.0535959373023,0.0939124899846
7600000000.0,0.0546633571264,0.0948329975829,0.895352527947,-0.405458744765,0.895352527947,-0.405458744765,0.0546633571264,0.0948329975829
7700000000.0,0.0557407939429,0.0957412397728,0.892948136964,-0.410367006708,0.892948136964,-0.410367006708,0.0557407939429,0.0957412397728
7800000000.0,0.0568281032713,0.0966371093421,0.890516243269,-0.415259322813,0.890516243269,-0.415259322813,0.0568281032713,0.0966371093421
7900000000.0,0.0579251394916,0.097520500911,0.888056981057,-0.420135532609,0.888056981057,-0.420135532609,0.0579251394916,0.097520500911
8000000000.0,0.0590317558718,0.0983913109429,0.88557048556,-0.424995477189,0.88557048556,-0.424995477189,0.0590317558718,0.0983913109429
8100000000.0,0.0601478045947,0.0992494377544,0.883056893033,-0.429838999213,0.883056893033,-0.429838999213,0.0601478045947,0.0992494377544
8200000000.0,0.0612731367848,0.100094781525,0.880516340722,-0.434665942919,0.880516340722,-0.434665942919,0.0612731367848,0.100094781525
8300000000.0,0.0624076025361,0.100927244306,0.877948966843,-0.439476154126,0.877948966843,-0.439476154126,0.0624076025361,0.100927244306
8400000000.0,0.0635510509382,0.101746730031,0.875354910556,-0.444269480243,0.875354910556,-0.444269480243,0.0635510509382,0.101746730031
8500000000.0,0.064703330104,0.102553144521,0.872734311938,-0.449045770273,0.872734311938,-0.449045770273,0.064703330104,0.102553144521
8600000000.0,0.0658642871962,0.103346395496,0.870087311962,-0.453804874818,0.870087311962,-0.453804874818,0.0658642871962,0.103346395496
8700000000.0,0.0670337684543,0.10412639258,0.867414052472,-0.458546646084,0.867414052472,-0.458546646084,0.0670337684543,0.10412639258
8800000000.0,0.0682116192219,0.104893047311,0.864714676156,-0.463270937885,0.864714676156,-0.463270937885,0.0682116192219,0.104893047311
8900000000.0,0.0693976839727,0.105646273146,0.861989326522,-0.467977605649,0.861989326522,-0.467977605649,0.0693976839727,0.105646273146
9000000000.0,0.0705918063381,0.106385985465,0.859238147876,-0.472666506418,0.859238147876,-0.472666506418,0.0705918063381,0.106385985465
9100000000.0,0.0717938291332,0.107112101584,0.856461285296,-0.477337498854,0.856461285296,-0.477337498854,0.0717938291332,0.107112101584
9200000000.0,0.0730035943841,0.107824540752,0.853658884608,-0.481990443241,0.853658884608,-0.481990443241,0.0730035943841,0.107824540752
9300000000.0,0.0742209433539,0.108523224164,0.850831092361,-0.486625201486,0.850831092361,-0.486625201486,0.0742209433539,0.108523224164
9400000000.0,0.0754457165697,0.10920807496,0.847978055805,-0.491241637124,0.847978055805,-0.491241637124,0.0754457165697,0.10920807496
9500000000.0,0.0766777538488,0.109879018234,0.845099922865,-0.495839615315,0.845099922865,-0.495839615315,0.0766777538488,0.109879018234
9600000000.0,0.0779168943253,0.110535981035,0.842196842118,-0.500419002851,0.842196842118,-0.500419002851,0.0779168943253,0.110535981035
9700000000.0,0.079162976476,0.111178892372,0.839268962771,-0.504979668149,0.839268962771,-0.504979668149,0.079162976476,0.111178892372
9800000000.0,0.0804158381472,0.111807683217,0.836316434635,-0.509521481261,0.836316434635,-0.509521481261,0.0804158381472,0.111807683217
9900000000.0,0.0816753165804,0.112422286507,0.8333394081,-0.514044313865,0.8333394081,-0.514044313865,0.0816753165804,0.112422286507
10000000000.0,0.0829412484386,0.11302263715,0.830338034118,-0.51854803927,0.830338034118,-0.51854803927,0.0829412484386,0.11302263715
