freq (GHz),S11_real,S11_imag,S21_real,S21_imag,S12_real,S12_imag,S22_real,S22_imag
100000000.0,0.0113831854577,0.00137713485963,0.988609115781,-0.00421724587499,0.988609115781,-0.00421724587499,0.0113831854577,0.00137713485963
200000000.0,0.0114744515903,0.00275332158458,0.988503053214,-0.00843352361265,0.988503053214,-0.00843352361265,0.0114744515903,0.00275332158458
300000000.0,0.0115575917502,0.00412879273298,0.988397018443,-0.0126490576603,0.988397018443,-0.0126490576603,0.0115575917502,0.00412879273298
400000000.0,0.011642387399,0.00550355895319,0.988281229516,-0.0168638497836,0.988281229516,-0.0168638497836,0.011642387399,0.00550355895319
500000000.0,0.0117326035834,0.00687757954489,0.988151920862,-0.0210778500123,0.988151920862,-0.0210778500123,0.0117326035834,0.00687757954489
600000000.0,0.0118301576602,0.0082507911893,0.988007174538,-0.0252909855055,0.988007174538,-0.0252909855055,0.0118301576602,0.0082507911893
700000000.0,0.0119361791576,0.00962311824894,0.987845860369,-0.029503170919,0.987845860369,-0.029503170919,0.0119361791576,0.00962311824894
800000000.0,0.012051396623,0.0109944775383,0.987667249091,-0.0337143132163,0.987667249091,-0.0337143132163,0.012051396623,0.0109944775383
900000000.0,0.0121763098779,0.0123647808843,0.987470840093,-0.0379243142557,0.987470840093,-0.0379243142557,0.0121763098779,0.0123647808843
1000000000.0,0.0123112773344,0.0137339366426,0.987256274104,-0.0421330723243,0.987256274104,-0.0421330723243,0.0123112773344,0.0137339366426
1100000000.0,0.0124565645342,0.0151018506621,0.987023284646,-0.0463404831156,0.987023284646,-0.0463404831156,0.0124565645342,0.0151018506621
1200000000.0,0.0126123730732,0.0164684269316,0.986771669115,-0.0505464403868,0.986771669115,-0.0505464403868,0.0126123730732,0.0164684269316
1300000000.0,0.0127788587992,0.0178335680347,0.986501270581,-0.0547508364206,0.986501270581,-0.0547508364206,0.0127788587992,0.0178335680347
1400000000.0,0.012956143774,0.0191971754794,0.986211965823,-0.0589535623607,0.986211965823,-0.0589535623607,0.012956143774,0.0191971754794
1500000000.0,0.0131443244245,0.0205591499448,0.985903657181,-0.0631545084637,0.985903657181,-0.0631545084637,0.0131443244245,0.0205591499448
1600000000.0,0.0133434772686,0.0219193914716,0.985576266829,-0.0673535642929,0.985576266829,-0.0673535642929,0.0133434772686,0.0219193914716
1700000000.0,0.0135536630414,0.023277799611,0.985229732651,-0.0715506188708,0.985229732651,-0.0715506188708,0.0135536630414,0.023277799611
1800000000.0,0.013774929736,0.0246342735444,0.984864005196,-0.0757455608009,0.984864005196,-0.0757455608009,0.013774929736,0.0246342735444
1900000000.0,0.0140073148887,0.0259887121811,0.984479045394,-0.0799382783675,0.984479045394,-0.0799382783675,0.0140073148887,0.0259887121811
2000000000.0,0.0142508473251,0.0273410142394,0.984074822814,-0.084128659619,0.984074822814,-0.084128659619,0.0142508473251,0.0273410142394
2100000000.0,0.0145055485153,0.028691078315,0.983651314304,-0.0883165924371,0.983651314304,-0.0883165924371,0.0145055485153,0.028691078315
2200000000.0,0.0147714336397,0.0300388029394,0.98320850293,-0.0925019645966,0.98320850293,-0.0925019645966,0.0147714336397,0.0300388029394
2300000000.0,0.0150485124378,0.0313840866301,0.98274637712,-0.0966846638168,0.98274637712,-0.0966846638168,0.0150485124378,0.0313840866301
2400000000.0,0.0153367898919,0.0327268279352,0.982264929991,-0.100864577806,0.982264929991,-0.100864577806,0.0153367898919,0.0327268279352
2500000000.0,0.015636266783,0.034066925472,0.981764158783,-0.105041594303,0.981764158783,-0.105041594303,0.015636266783,0.034066925472
2600000000.0,0.0159469401467,0.0354042779623,0.98124406441,-0.10921560111,0.98124406441,-0.10921560111,0.0159469401467,0.0354042779623
2700000000.0,0.0162688036519,0.0367387842635,0.980704651078,-0.113386486124,0.980704651078,-0.113386486124,0.0162688036519,0.0367387842635
2800000000.0,0.0166018479158,0.0380703433977,0.980145925973,-0.117554137371,0.980145925973,-0.117554137371,0.0166018479158,0.0380703433977
2900000000.0,0.0169460607695,0.0393988545775,0.979567898993,-0.121718443025,0.979567898993,-0.121718443025,0.0169460607695,0.0393988545775
3000000000.0,0.0173014274826,0.0407242172304,0.978970582523,-0.125879291439,0.978970582523,-0.125879291439,0.0173014274826,0.0407242172304
3100000000.0,0.0176679309549,0.0420463310213,0.978353991248,-0.130036571162,0.978353991248,-0.130036571162,0.0176679309549,0.0420463310213
3200000000.0,0.0180455518807,0.0433650958732,0.977718141985,-0.134190170964,0.977718141985,-0.134190170964,0.0180455518807,0.0433650958732
3300000000.0,0.0184342688906,0.0446804119876,0.977063053541,-0.138339979855,0.977063053541,-0.138339979855,0.0184342688906,0.0446804119876
3400000000.0,0.0188340586748,0.0459921798624,0.976388746592,-0.142485887101,0.976388746592,-0.142485887101,0.0188340586748,0.0459921798624
3500000000.0,0.0192448960905,0.04730030031,0.975695243575,-0.146627782244,0.975695243575,-0.146627782244,0.0192448960905,0.04730030031
3600000000.0,0.0196667542561,0.0486046744742,0.974982568594,-0.150765555119,0.974982568594,-0.150765555119,0.0196667542561,0.0486046744742
3700000000.0,0.0200996046343,0.0499052038457,0.974250747337,-0.154899095867,0.974250747337,-0.154899095867,0.0200996046343,0.0499052038457
3800000000.0,0.0205434171059,0.0512017902784,0.973499807003,-0.159028294952,0.973499807003,-0.159028294952,0.0205434171059,0.0512017902784
3900000000.0,0.0209981600354,0.0524943360032,0.972729776234,-0.163153043178,0.972729776234,-0.163153043178,0.0209981600354,0.0524943360032
4000000000.0,0.0214638003298,0.0537827436431,0.97194068506,-0.167273231698,0.97194068506,-0.167273231698,0.0214638003298,0.0537827436431
4100000000.0,0.0219403034913,0.0550669162265,0.971132564845,-0.17138875203,0.971132564845,-0.17138875203,0.0219403034913,0.0550669162265
4200000000.0,0.0224276336649,0.0563467572009,0.970305448239,-0.175499496071,0.970305448239,-0.175499496071,0.0224276336649,0.0563467572009
4300000000.0,0.0229257536818,0.0576221704455,0.969459369135,-0.179605356107,0.969459369135,-0.179605356107,0.0229257536818,0.0576221704455
4400000000.0,0.0234346250988,0.0588930602838,0.96859436263,-0.183706224829,0.96859436263,-0.183706224829,0.0234346250988,0.0588930602838
4500000000.0,0.0239542082345,0.0601593314961,0.967710464989,-0.18780199534,0.967710464989,-0.18780199534,0.0239542082345,0.0601593314961
4600000000.0,0.0244844622021,0.0614208893312,0.966807713612,-0.19189256117,0.966807713612,-0.19189256117,0.0244844622021,0.0614208893312
4700000000.0,0.0250253449404,0.0626776395179,0.965886147005,-0.195977816287,0.965886147005,-0.195977816287,0.0250253449404,0.0626776395179
4800000000.0,0.0255768132419,0.0639294882766,0.964945804749,-0.200057655104,0.964945804749,-0.200057655104,0.0255768132419,0.0639294882766
4900000000.0,0.0261388227795,0.0651763423303,0.963986727475,-0.204131972495,0.963986727475,-0.204131972495,0.0261388227795,0.0651763423303
5000000000.0,0.0267113281309,0.066418108915,0.963008956841,-0.208200663803,0.963008956841,-0.208200663803,0.0267113281309,0.066418108915
5100000000.0,0.0272942828019,0.0676546957909,0.962012535507,-0.212263624849,0.962012535507,-0.212263624849,0.0272942828019,0.0676546957909
5200000000.0,0.0278876392479,0.0688860112523,0.960997507116,-0.216320751942,0.960997507116,-0.216320751942,0.0278876392479,0.0688860112523
5300000000.0,0.0284913488951,0.0701119641379,0.959963916269,-0.220371941892,0.959963916269,-0.220371941892,0.0284913488951,0.0701119641379
5400000000.0,0.0291053621594,0.0713324638409,0.95891180851,-0.224417092014,0.95891180851,-0.224417092014,0.0291053621594,0.0713324638409
5500000000.0,0.0297296284653,0.0725474203181,0.957841230305,-0.228456100142,0.957841230305,-0.228456100142,0.0297296284653,0.0725474203181
5600000000.0,0.0303640962636,0.0737567441002,0.956752229028,-0.232488864635,0.956752229028,-0.232488864635,0.0303640962636,0.0737567441002
5700000000.0,0.0310087130485,0.0749603463008,0.955644852939,-0.236515284387,0.955644852939,-0.236515284387,0.0310087130485,0.0749603463008
5800000000.0,0.0316634253736,0.0761581386252,0.954519151172,-0.240535258835,0.954519151172,-0.240535258835,0.0316634253736,0.0761581386252
5900000000.0,0.032328178868,0.0773500333802,0.953375173718,-0.244548687969,0.953375173718,-0.244548687969,0.032328178868,0.0773500333802
6000000000.0,0.0330029182511,0.0785359434819,0.952212971409,-0.248555472338,0.952212971409,-0.248555472338,0.0330029182511,0.0785359434819
6100000000.0,0.0336875873479,0.0797157824654,0.951032595905,-0.252555513058,0.951032595905,-0.252555513058,0.0336875873479,0.0797157824654
6200000000.0,0.0343821291026,0.0808894644923,0.94983409968,-0.256548711825,0.94983409968,-0.256548711825,0.0343821291026,0.0808894644923
6300000000.0,0.0350864855931,0.0820569043595,0.948617536007,-0.260534970914,0.948617536007,-0.260534970914,0.0350864855931,0.0820569043595
6400000000.0,0.0358005980441,0.0832180175073,0.947382958946,-0.264514193193,0.947382958946,-0.264514193193,0.0358005980441,0.0832180175073
6500000000.0,0.0365244068408,0.0843727200275,0.946130423329,-0.26848628213,0.946130423329,-0.26848628213,0.0365244068408,0.0843727200275
6600000000.0,0.0372578515415,0.0855209286706,0.944859984751,-0.272451141796,0.944859984751,-0.272451141796,0.0372578515415,0.0855209286706
6700000000.0,0.0380008708904,0.0866625608541,0.943571699551,-0.276408676878,0.943571699551,-0.276408676878,0.0380008708904,0.0866625608541
6800000000.0,0.0387534028304,0.08779753467,0.942265624808,-0.28035879268,0.942265624808,-0.28035879268,0.0387534028304,0.08779753467
6900000000.0,0.0395153845149,0.0889257688916,0.940941818321,-0.284301395135,0.940941818321,-0.284301395135,0.0395153845149,0.0889257688916
7000000000.0,0.0402867523206,0.0900471829813,0.939600338603,-0.288236390805,0.939600338603,-0.288236390805,0.0402867523206,0.0900471829813
7100000000.0,0.0410674418587,0.091161697097,0.938241244866,-0.292163686897,0.938241244866,-0.292163686897,0.0410674418587,0.091161697097
7200000000.0,0.0418573879873,0.0922692320997,0.93686459701,-0.296083191258,0.93686459701,-0.296083191258,0.0418573879873,0.0922692320997
7300000000.0,0.0426565248227,0.0933697095598,0.935470455612,-0.299994812391,0.935470455612,-0.299994812391,0.0426565248227,0.0933697095598
7400000000.0,0.0434647857513,0.0944630517639,0.934058881915,-0.303898459455,0.934058881915,-0.303898459455,0.0434647857513,0.0944630517639
7500000000.0,0.0442821034408,0.0955491817207,0.932629937815,-0.307794042272,0.932629937815,-0.307794042272,0.0442821034408,0.0955491817207
7600000000.0,0.0451084098516,0.0966280231684,0.931183685854,-0.311681471335,0.931183685854,-0.311681471335,0.0451084098516,0.0966280231684
7700000000.0,0.0459436362481,0.0976995005796,0.929720189201,-0.315560657809,0.929720189201,-0.315560657809,0.0459436362481,0.0976995005796
7800000000.0,0.04678771321,0.0987635391683,0.928239511651,-0.319431513543,0.928239511651,-0.319431513543,0.04678771321,0.0987635391683
7900000000.0,0.047640570643,0.0998200648951,0.926741717607,-0.323293951066,0.926741717607,-0.323293951066,0.047640570643,0.0998200648951
8000000000.0,0.0485021377906,0.100869004473,0.925226872071,-0.327147883602,0.925226872071,-0.327147883602,0.0485021377906,0.100869004473
8100000000.0,0.0493723432443,0.101910285374,0.923695040634,-0.330993225068,0.923695040634,-0.330993225068,0.0493723432443,0.101910285374
8200000000.0,0.050251114955,0.102943835832,0.922146289466,-0.334829890081,0.922146289466,-0.334829890081,0.050251114955,0.102943835832
8300000000.0,0.0511383802436,0.103969584852,0.920580685303,-0.338657793962,0.920580685303,-0.338657793962,0.0511383802436,0.103969584852
8400000000.0,0.0520340658121,0.104987462211,0.918998295437,-0.342476852742,0.918998295437,-0.342476852742,0.0520340658121,0.104987462211
8500000000.0,0.0529380977544,0.105997398466,0.917399187709,-0.346286983165,0.917399187709,-0.346286983165,0.0529380977544,0.105997398466
8600000000.0,0.0538504015667,0.106999324957,0.915783430492,-0.350088102693,0.915783430492,-0.350088102693,0.0538504015667,0.106999324957
8700000000.0,0.0547709021586,0.107993173813,0.914151092686,-0.353880129507,0.914151092686,-0.353880129507,0.0547709021586,0.107993173813
8800000000.0,0.0556995238636,0.108978877957,0.912502243705,-0.357662982517,0.912502243705,-0.357662982517,0.0556995238636,0.108978877957
8900000000.0,0.0566361904497,0.109956371108,0.910836953469,-0.36143658136,0.910836953469,-0.36143658136,0.0566361904497,0.109956371108
9000000000.0,0.0575808251303,0.110925587788,0.909155292389,-0.365200846404,0.909155292389,-0.365200846404,0.0575808251303,0.110925587788
9100000000.0,0.0585333505745,0.111886463324,0.907457331362,-0.368955698757,0.907457331362,-0.368955698757,0.0585333505745,0.111886463324
9200000000.0,0.0594936889177,0.112838933853,0.905743141757,-0.372701060264,0.905743141757,-0.372701060264,0.0594936889177,0.112838933853
9300000000.0,0.0604617617722,0.113782936327,0.904012795406,-0.376436853512,0.904012795406,-0.376436853512,0.0604617617722,0.113782936327
9400000000.0,0.0614374902379,0.114718408515,0.902266364594,-0.380163001835,0.902266364594,-0.380163001835,0.0614374902379,0.114718408515
9500000000.0,0.0624207949123,0.115645289006,0.900503922049,-0.383879429316,0.900503922049,-0.383879429316,0.0624207949123,0.115645289006
9600000000.0,0.0634115959016,0.116563517216,0.898725540929,-0.387586060787,0.898725540929,-0.387586060787,0.0634115959016,0.116563517216
9700000000.0,0.0644098128307,0.117473033386,0.896931294816,-0.391282821835,0.896931294816,-0.391282821835,0.0644098128307,0.117473033386
9800000000.0,0.0654153648534,0.118373778591,0.895121257705,-0.394969638804,0.895121257705,-0.394969638804,0.0654153648534,0.118373778591
9900000000.0,0.0664281706636,0.119265694737,0.893295503991,-0.398646438795,0.893295503991,-0.398646438795,0.0664281706636,0.119265694737
10000000000.0,0.0674481485048,0.120148724571,0.89145410846,-0.402313149671,0.89145410846,-0.402313149671,0.0674481485048,0.120148724571
