freq (GHz),S11_real,S11_imag,S21_real,S21_imag,S12_real,S12_imag,S22_real,S22_imag
100000000.0,0.0119592441811,0.00291543798282,0.988035525859,-0.00503650467373,0.988035525859,-0.00503650467373,0.0119592441811,0.00291543798282
200000000.0,0.0120814253943,0.0058292675923,0.987904597226,-0.0100714149699,0.987904597226,-0.0100714149699,0.0120814253943,0.0058292675923
300000000.0,0.0122124296719,0.00874164406902,0.987760327526,-0.0151048995179,0.987760327526,-0.0151048995179,0.0122124296719,0.00874164406902
400000000.0,0.0123625084667,0.0116523911381,0.987592464675,-0.0201367932539,0.987592464675,-0.0201367932539,0.0123625084667,0.0116523911381
500000000.0,0.0125355965284,0.0145612558354,0.98739707318,-0.0251668533267,0.98739707318,-0.0251668533267,0.0125355965284,0.0145612558354
600000000.0,0.0127336860882,0.0174679515655,0.987172159944,-0.0301948025339,0.987172159944,-0.0301948025339,0.0127336860882,0.0174679515655
700000000.0,0.0129579389371,0.0203721736036,0.986916562191,-0.035220345018,0.986916562191,-0.035220345018,0.0129579389371,0.0203721736036
800000000.0,0.0132090923199,0.0232736063225,0.986629541569,-0.0402431736082,0.986629541569,-0.0402431736082,0.0132090923199,0.0232736063225
900000000.0,0.0134876396655,0.0261719271088,0.986310603422,-0.0452629738132,0.986310603422,-0.0452629738132,0.0134876396655,0.0261719271088
1000000000.0,0.0137939221995,0.0290668087134,0.985959405178,-0.0502794262252,0.985959405178,-0.0502794262252,0.0137939221995,0.0290668087134
1100000000.0,0.0141281798738,0.0319579207734,0.985575705419,-0.0552922080806,0.985575705419,-0.0552922080806,0.0141281798738,0.0319579207734
1200000000.0,0.0144905817191,0.0348449308576,0.985159333531,-0.0603009943365,0.985159333531,-0.0603009943365,0.0144905817191,0.0348449308576
1300000000.0,0.0148812449473,0.0377275052215,0.984710170601,-0.0653054584489,0.984710170601,-0.0653054584489,0.0148812449473,0.0377275052215
1400000000.0,0.0153002475135,0.0406053093753,0.984228136857,-0.0703052729592,0.984228136857,-0.0703052729592,0.0153002475135,0.0406053093753
1500000000.0,0.0157476366839,0.0434780085258,0.9837131831,-0.0753001099524,0.9837131831,-0.0753001099524,0.0157476366839,0.0434780085258
1600000000.0,0.01622343506,0.0463452679328,0.98316528468,-0.080289641426,0.98316528468,-0.080289641426,0.01622343506,0.0463452679328
1700000000.0,0.0167276449292,0.0492067532026,0.982584437149,-0.0852735395946,0.982584437149,-0.0852735395946,0.0167276449292,0.0492067532026
1800000000.0,0.0172602514773,0.0520621305373,0.981970653047,-0.0902514771478,0.981970653047,-0.0902514771478,0.0172602514773,0.0520621305373
1900000000.0,0.0178212252112,0.054911066949,0.981323959478,-0.0952231274736,0.981323959478,-0.0952231274736,0.0178212252112,0.054911066949
2000000000.0,0.0184105238179,0.0577532304496,0.980644396255,-0.100188164854,0.980644396255,-0.100188164854,0.0184105238179,0.0577532304496
2100000000.0,0.0190280936159,0.0605882902192,0.979932014448,-0.10514626464,0.979932014448,-0.10514626464,0.0190280936159,0.0605882902192
2200000000.0,0.0196738707042,0.0634159167597,0.979186875235,-0.11009710341,0.979186875235,-0.11009710341,0.0196738707042,0.0634159167597
2300000000.0,0.0203477818863,0.066235782035,0.978409048978,-0.115040359116,0.978409048978,-0.115040359116,0.0203477818863,0.066235782035
2400000000.0,0.021049745422,0.0690475596007,0.977598614475,-0.119975711217,0.977598614475,-0.119975711217,0.021049745422,0.0690475596007
2500000000.0,0.021779671647,0.0718509247256,0.976755658335,-0.124902840802,0.976755658335,-0.124902840802,0.021779671647,0.0718509247256
2600000000.0,0.0225374634901,0.0746455545056,0.975880274467,-0.129821430712,0.975880274467,-0.129821430712,0.0225374634901,0.0746455545056
2700000000.0,0.0233230169098,0.0774311279714,0.974972563639,-0.134731165646,0.974972563639,-0.134731165646,0.0233230169098,0.0774311279714
2800000000.0,0.0241362212663,0.0802073261907,0.974032633111,-0.139631732269,0.974032633111,-0.139631732269,0.0241362212663,0.0802073261907
2900000000.0,0.0249769596434,0.0829738323664,0.973060596309,-0.144522819312,0.973060596309,-0.144522819312,0.0249769596434,0.0829738323664
3000000000.0,0.025845109128,0.0857303319294,0.972056572549,-0.149404117665,0.972056572549,-0.149404117665,0.025845109128,0.0857303319294
3100000000.0,0.0267405410575,0.088476512629,0.971020686788,-0.154275320475,0.971020686788,-0.154275320475,0.0267405410575,0.088476512629
3200000000.0,0.0276631212389,0.0912120646186,0.969953069406,-0.159136123227,0.969953069406,-0.159136123227,0.0276631212389,0.0912120646186
3300000000.0,0.0286127101464,0.0939366805393,0.968853856009,-0.163986223834,0.968853856009,-0.163986223834,0.0286127101464,0.0939366805393
3400000000.0,0.0295891631004,0.0966500556002,0.967723187249,-0.168825322716,0.967723187249,-0.168825322716,0.0295891631004,0.0966500556002
3500000000.0,0.0305923304307,0.0993518876556,0.966561208663,-0.173653122881,0.966561208663,-0.173653122881,0.0305923304307,0.0993518876556
3600000000.0,0.0316220576283,0.10204187728,0.965368070519,-0.178469330001,0.965368070519,-0.178469330001,0.0316220576283,0.10204187728
3700000000.0,0.0326781854851,0.104719727842,0.964143927679,-0.183273652486,0.964143927679,-0.183273652486,0.0326781854851,0.104719727842
3800000000.0,0.0337605502264,0.107385145572,0.962888939463,-0.188065801553,0.962888939463,-0.188065801553,0.0337605502264,0.107385145572
3900000000.0,0.0348689836345,0.110037839633,0.961603269531,-0.192845491298,0.961603269531,-0.192845491298,0.0348689836345,0.110037839633
4000000000.0,0.0360033131673,0.112677522182,0.960287085758,-0.197612438763,0.960287085758,-0.197612438763,0.0360033131673,0.112677522182
4100000000.0,0.0371633620707,0.11530390844,0.958940560129,-0.202366363998,0.958940560129,-0.202366363998,0.0371633620707,0.11530390844
4200000000.0,0.0383489494872,0.117916716749,0.957563868623,-0.207106990124,0.957563868623,-0.207106990124,0.0383489494872,0.117916716749
4300000000.0,0.0395598905605,0.120515668631,0.956157191115,-0.211834043396,0.956157191115,-0.211834043396,0.0395598905605,0.120515668631
4400000000.0,0.0407959965365,0.123100488849,0.954720711271,-0.216547253259,0.954720711271,-0.216547253259,0.0407959965365,0.123100488849
4500000000.0,0.0420570748627,0.125670905459,0.95325461645,-0.221246352403,0.95325461645,-0.221246352403,0.0420570748627,0.125670905459
4600000000.0,0.0433429292838,0.128226649868,0.95175909761,-0.225931076821,0.95175909761,-0.225931076821,0.0433429292838,0.128226649868
4700000000.0,0.0446533599368,0.130767456879,0.950234349209,-0.230601165858,0.950234349209,-0.230601165858,0.0446533599368,0.130767456879
4800000000.0,0.0459881634431,0.133293064749,0.948680569117,-0.235256362263,0.948680569117,-0.235256362263,0.0459881634431,0.133293064749
4900000000.0,0.0473471330001,0.135803215229,0.947097958523,-0.239896412236,0.947097958523,-0.239896412236,0.0473471330001,0.135803215229
5000000000.0,0.048730058471,0.138297653615,0.945486721844,-0.244521065476,0.945486721844,-0.244521065476,0.048730058471,0.138297653615
5100000000.0,0.0501367264742,0.14077612879,0.943847066638,-0.249130075226,0.943847066638,-0.249130075226,0.0501367264742,0.14077612879
5200000000.0,0.0515669204705,0.143238393268,0.942179203514,-0.253723198311,0.942179203514,-0.253723198311,0.0515669204705,0.143238393268
5300000000.0,0.053020420851,0.145684203231,0.940483346047,-0.258300195187,0.940483346047,-0.258300195187,0.053020420851,0.145684203231
5400000000.0,0.0544970050232,0.148113318573,0.938759710689,-0.262860829971,0.938759710689,-0.262860829971,0.0544970050232,0.148113318573
5500000000.0,0.0559964474969,0.150525502931,0.937008516688,-0.267404870484,0.937008516688,-0.267404870484,0.0559964474969,0.150525502931
5600000000.0,0.0575185199697,0.152920523723,0.935229985995,-0.271932088286,0.935229985995,-0.271932088286,0.0575185199697,0.152920523723
5700000000.0,0.0590629914112,0.15529815218,0.933424343186,-0.276442258705,0.933424343186,-0.276442258705,0.0590629914112,0.15529815218
5800000000.0,0.0606296281478,0.157658163378,0.931591815375,-0.280935160874,0.931591815375,-0.280935160874,0.0606296281478,0.157658163378
5900000000.0,0.0622181939464,0.16000033627,0.92973263213,-0.285410577755,0.92973263213,-0.285410577755,0.0622181939464,0.16000033627
6000000000.0,0.0638284500975,0.162324453706,0.927847025389,-0.289868296172,0.927847025389,-0.289868296172,0.0638284500975,0.162324453706
6100000000.0,0.0654601554989,0.164630302467,0.92593522938,-0.294308106836,0.92593522938,-0.294308106836,0.0654601554989,0.164630302467
6200000000.0,0.0671130667378,0.166917673287,0.923997480535,-0.298729804366,0.923997480535,-0.298729804366,0.0671130667378,0.166917673287
6300000000.0,0.0687869381731,0.169186360873,0.922034017407,-0.303133187317,0.922034017407,-0.303133187317,0.0687869381731,0.169186360873
6400000000.0,0.0704815220178,0.171436163926,0.920045080593,-0.307518058194,0.920045080593,-0.307518058194,0.0704815220178,0.171436163926
6500000000.0,0.07219656842,0.173666885164,0.918030912646,-0.311884223479,0.918030912646,-0.311884223479,0.07219656842,0.173666885164
6600000000.0,0.0739318255442,0.175878331336,0.915991757999,-0.316231493642,0.915991757999,-0.316231493642,0.0739318255442,0.175878331336
6700000000.0,0.0756870396524,0.178070313236,0.91392786288,-0.32055968316,0.91392786288,-0.32055968316,0.0756870396524,0.178070313236
6800000000.0,0.0774619551838,0.180242645722,0.911839475235,-0.324868610529,0.911839475235,-0.324868610529,0.0774619551838,0.180242645722
6900000000.0,0.0792563148357,0.182395147722,0.909726844647,-0.329158098278,0.909726844647,-0.329158098278,0.0792563148357,0.182395147722
7000000000.0,0.0810698596419,0.18452764225,0.907590222254,-0.333427972978,0.907590222254,-0.333427972978,0.0810698596419,0.18452764225
7100000000.0,0.082902329053,0.186639956414,0.905429860671,-0.337678065253,0.905429860671,-0.337678065253,0.082902329053,0.186639956414
7200000000.0,0.0847534610139,0.188731921418,0.903246013915,-0.341908209784,0.903246013915,-0.341908209784,0.0847534610139,0.188731921418
7300000000.0,0.0866229920429,0.190803372576,0.901038937321,-0.34611824532,0.901038937321,-0.34611824532,0.0866229920429,0.190803372576
7400000000.0,0.0885106573086,0.192854149309,0.898808887466,-0.350308014676,0.898808887466,-0.350308014676,0.0885106573086,0.192854149309
7500000000.0,0.0904161907076,0.194884095152,0.896556122095,-0.35447736474,0.896556122095,-0.35447736474,0.0904161907076,0.194884095152
7600000000.0,0.0923393249408,0.196893057754,0.894280900039,-0.358626146471,0.894280900039,-0.358626146471,0.0923393249408,0.196893057754
7700000000.0,0.0942797915894,0.198880888876,0.891983481142,-0.362754214902,0.891983481142,-0.362754214902,0.0942797915894,0.198880888876
7800000000.0,0.0962373211908,0.200847444391,0.889664126187,-0.366861429135,0.889664126187,-0.366861429135,0.0962373211908,0.200847444391
7900000000.0,0.0982116433126,0.202792584279,0.887323096817,-0.370947652338,0.887323096817,-0.370947652338,0.0982116433126,0.202792584279
8000000000.0,0.100202486628,0.204716172624,0.88496065546,-0.375012751741,0.88496065546,-0.375012751741,0.100202486628,0.204716172624
8100000000.0,0.102209578988,0.206618077605,0.882577065263,-0.379056598628,0.882577065263,-0.379056598628,0.102209578988,0.206618077605
8200000000.0,0.104232647495,0.208498171491,0.880172590008,-0.383079068331,0.880172590008,-0.383079068331,0.104232647495,0.208498171491
8300000000.0,0.106271418577,0.210356330631,0.877747494049,-0.387080040219,0.877747494049,-0.387080040219,0.106271418577,0.210356330631
8400000000.0,0.108325618053,0.212192435442,0.875302042235,-0.391059397689,0.875302042235,-0.391059397689,0.108325618053,0.212192435442
8500000000.0,0.110394971213,0.214006370399,0.872836499838,-0.395017028153,0.872836499838,-0.395017028153,0.110394971213,0.214006370399
8600000000.0,0.112479202879,0.215798024021,0.87035113249,-0.398952823026,0.87035113249,-0.398952823026,0.112479202879,0.215798024021
8700000000.0,0.114578037481,0.217567288857,0.867846206104,-0.402866677707,0.867846206104,-0.402866677707,0.114578037481,0.217567288857
8800000000.0,0.11669119912,0.219314061471,0.865321986813,-0.406758491572,0.865321986813,-0.406758491572,0.11669119912,0.219314061471
8900000000.0,0.11881841164,0.221038242424,0.862778740897,-0.410628167946,0.862778740897,-0.410628167946,0.11881841164,0.221038242424
9000000000.0,0.120959398693,0.222739736255,0.860216734719,-0.414475614094,0.860216734719,-0.414475614094,0.120959398693,0.222739736255
9100000000.0,0.123113883805,0.224418451464,0.857636234657,-0.418300741195,0.857636234657,-0.418300741195,0.123113883805,0.224418451464
9200000000.0,0.125281590441,0.226074300492,0.855037507041,-0.422103464327,0.855037507041,-0.422103464327,0.125281590441,0.226074300492
9300000000.0,0.127462242071,0.227707199695,0.852420818086,-0.425883702441,0.852420818086,-0.425883702441,0.127462242071,0.227707199695
9400000000.0,0.129655562229,0.229317069327,0.849786433829,-0.429641378338,0.849786433829,-0.429641378338,0.129655562229,0.229317069327
9500000000.0,0.131861274581,0.230903833512,0.847134620065,-0.433376418648,0.847134620065,-0.433376418648,0.131861274581,0.230903833512
9600000000.0,0.134079102981,0.232467420223,0.844465642291,-0.437088753804,0.844465642291,-0.437088753804,0.134079102981,0.232467420223
9700000000.0,0.136308771538,0.234007761253,0.841779765637,-0.440778318015,0.841779765637,-0.440778318015,0.136308771538,0.234007761253
9800000000.0,0.138550004668,0.235524792188,0.839077254812,-0.44444504924,0.839077254812,-0.44444504924,0.138550004668,0.235524792188
9900000000.0,0.14080252716,0.237018452385,0.836358374042,-0.448088889158,0.836358374042,-0.448088889158,0.14080252716,0.237018452385
10000000000.0,0.143066064228,0.238488684935,0.833623387015,-0.451709783143,0.833623387015,-0.451709783143,0.143066064228,0.238488684935
