freq (GHz),S11_real,S11_imag,S21_real,S21_imag,S12_real,S12_imag,S22_real,S22_imag
100000000.0,0.00143966042458,-0.00294124332433,0.998508977585,-0.00617479608243,0.998508977585,-0.00617479608243,0.00143966042458,-0.00294124332433
200000000.0,0.00139061146864,-0.00588202857208,0.99842452624,-0.0123490317108,0.99842452624,-0.0123490317108,0.00139061146864,-0.00588202857208
300000000.0,0.00130269608211,-0.00882186103402,0.998295823221,-0.0185222733255,0.998295823221,-0.0185222733255,0.00130269608211,-0.00882186103402
400000000.0,0.00117719600334,-0.011760255782,0.998121620898,-0.0246940610925,0.998121620898,-0.0246940610925,0.00117719600334,-0.011760255782
500000000.0,0.00101462208876,-0.0146967285764,0.997901456704,-0.0308639266897,0.997901456704,-0.0308639266897,0.00101462208876,-0.0146967285764
600000000.0,0.000815254019172,-0.0176307950758,0.997635113613,-0.0370313973268,0.997635113613,-0.0370313973268,0.000815254019172,-0.0176307950758
700000000.0,0.000579277403344,-0.0205619708272,0.997322483151,-0.0431959975392,0.997322483151,-0.0431959975392,0.000579277403344,-0.0205619708272
800000000.0,0.000306833788381,-0.02348977142,0.996963515466,-0.0493572502137,0.996963515466,-0.0493572502137,0.000306833788381,-0.02348977142
900000000.0,-1.95708553297e-06,-0.0264137126806,0.996558197127,-0.0555146772687,0.996558197127,-0.0555146772687,-1.95708553286e-06,-0.0264137126806
1000000000.0,-0.000346986013193,-0.0293333108731,0.99610653988,-0.0616678001523,0.99610653988,-0.0616678001523,-0.000346986013192,-0.0293333108731
1100000000.0,-0.000728148066373,-0.0322480828962,0.995608574403,-0.0678161402354,0.995608574403,-0.0678161402354,-0.000728148066373,-0.0322480828962
1200000000.0,-0.00114533887331,-0.0351575464742,0.995064346588,-0.0739592191377,0.995064346588,-0.0739592191377,-0.00114533887331,-0.0351575464742
1300000000.0,-0.00159845228711,-0.038061220342,0.994473915193,-0.0800965590099,0.994473915193,-0.0800965590099,-0.00159845228711,-0.038061220342
1400000000.0,-0.00208737886325,-0.0409586244244,0.99383735029,-0.0862276827847,0.99383735029,-0.0862276827847,-0.00208737886325,-0.0409586244244
1500000000.0,-0.00261200483273,-0.0438492800098,0.993154732206,-0.0923521144057,0.993154732206,-0.0923521144057,-0.00261200483273,-0.0438492800098
1600000000.0,-0.00317221139235,-0.0467327099199,0.992426150767,-0.0984693790394,0.992426150767,-0.0984693790394,-0.00317221139235,-0.0467327099199
1700000000.0,-0.00376787420504,-0.0496084386749,0.991651704736,-0.104579003274,0.991651704736,-0.104579003274,-0.00376787420504,-0.0496084386749
1800000000.0,-0.00439886304419,-0.0524759926552,0.990831501398,-0.110680515309,0.990831501398,-0.110680515309,-0.00439886304419,-0.0524759926552
1900000000.0,-0.00506504153917,-0.0553349002599,0.989965656228,-0.116773445133,0.989965656228,-0.116773445133,-0.00506504153917,-0.0553349002599
2000000000.0,-0.00576626699406,-0.0581846920618,0.989054292631,-0.1228573247,0.989054292631,-0.1228573247,-0.00576626699406,-0.0581846920618
2100000000.0,-0.00650239026046,-0.06102490096,0.988097541719,-0.128931688093,0.988097541719,-0.128931688093,-0.00650239026046,-0.06102490096
2200000000.0,-0.00727325565112,-0.063855062329,0.987095542135,-0.134996071691,0.987095542135,-0.134996071691,-0.00727325565112,-0.063855062329
2300000000.0,-0.00807870088507,-0.0666747141664,0.986048439887,-0.141050014319,0.986048439887,-0.141050014319,-0.00807870088507,-0.0666747141664
2400000000.0,-0.00891855705753,-0.0694833972364,0.984956388205,-0.147093057408,0.984956388205,-0.147093057408,-0.00891855705753,-0.0694833972364
2500000000.0,-0.00979264862951,-0.0722806552119,0.983819547417,-0.153124745138,0.983819547417,-0.153124745138,-0.00979264862951,-0.0722806552119
2600000000.0,-0.0107007934336,-0.0750660348141,0.982638084823,-0.159144624589,0.982638084823,-0.159144624589,-0.0107007934336,-0.0750660348141
2700000000.0,-0.011642802693,-0.0778390859489,0.981412174583,-0.165152245879,0.981412174583,-0.165152245879,-0.011642802693,-0.0778390859489
2800000000.0,-0.0126184810519,-0.0805993618413,0.980141997611,-0.171147162301,0.980141997611,-0.171147162301,-0.0126184810519,-0.0805993618413
2900000000.0,-0.013627626615,-0.0833464191673,0.978827741464,-0.177128930466,0.978827741464,-0.177128930466,-0.013627626615,-0.0833464191673
3000000000.0,-0.0146700309956,-0.0860798181832,0.977469600242,-0.183097110427,0.977469600242,-0.183097110427,-0.0146700309956,-0.0860798181832
3100000000.0,-0.0157454793708,-0.0887991228526,0.976067774487,-0.189051265813,0.976067774487,-0.189051265813,-0.0157454793708,-0.0887991228526
3200000000.0,-0.0168537505428,-0.0915039009702,0.974622471075,-0.194990963952,0.974622471075,-0.194990963952,-0.0168537505428,-0.0915039009702
3300000000.0,-0.0179946170062,-0.0941937242839,0.973133903123,-0.200915775997,0.973133903123,-0.200915775997,-0.0179946170062,-0.0941937242839
3400000000.0,-0.0191678450197,-0.096868168614,0.97160228988,-0.206825277047,0.97160228988,-0.206825277047,-0.0191678450197,-0.096868168614
3500000000.0,-0.0203731946838,-0.0995268139689,0.970027856627,-0.212719046261,0.970027856627,-0.212719046261,-0.0203731946838,-0.0995268139689
3600000000.0,-0.0216104200206,-0.10216924466,0.968410834576,-0.218596666975,0.968410834576,-0.218596666975,-0.0216104200206,-0.10216924466
3700000000.0,-0.0228792690595,-0.104795049411,0.966751460762,-0.224457726811,0.966751460762,-0.224457726811,-0.0228792690595,-0.104795049411
3800000000.0,-0.0241794839252,-0.10740382147,0.965049977936,-0.230301817788,0.965049977936,-0.230301817788,-0.0241794839252,-0.10740382147
3900000000.0,-0.0255108009295,-0.109995158709,0.963306634465,-0.236128536427,0.963306634465,-0.236128536427,-0.0255108009295,-0.109995158709
4000000000.0,-0.0268729506658,-0.112568663732,0.961521684218,-0.241937483852,0.961521684218,-0.241937483852,-0.0268729506658,-0.112568663732
4100000000.0,-0.028265658107,-0.115123943974,0.959695386457,-0.247728265891,0.959695386457,-0.247728265891,-0.028265658107,-0.115123943974
4200000000.0,-0.0296886427054,-0.117660611795,0.95782800573,-0.253500493171,0.95782800573,-0.253500493171,-0.0296886427054,-0.117660611795
4300000000.0,-0.0311416184956,-0.120178284577,0.955919811753,-0.259253781214,0.955919811753,-0.259253781214,-0.0311416184956,-0.120178284577
4400000000.0,-0.0326242941992,-0.122676584814,0.953971079302,-0.264987750523,0.953971079302,-0.264987750523,-0.0326242941992,-0.122676584814
4500000000.0,-0.0341363733326,-0.125155140202,0.951982088096,-0.270702026675,0.951982088096,-0.270702026675,-0.0341363733326,-0.125155140202
4600000000.0,-0.0356775543155,-0.127613583723,0.949953122678,-0.2763962404,0.949953122678,-0.2763962404,-0.0356775543155,-0.127613583723
4700000000.0,-0.0372475305823,-0.130051553724,0.947884472303,-0.282070027663,0.947884472303,-0.282070027663,-0.0372475305823,-0.130051553724
4800000000.0,-0.0388459906952,-0.132468694004,0.945776430817,-0.287723029747,0.945776430817,-0.287723029747,-0.0388459906952,-0.132468694004
4900000000.0,-0.0404726184581,-0.134864653884,0.943629296534,-0.293354893319,0.943629296534,-0.293354893319,-0.0404726184581,-0.134864653884
5000000000.0,-0.0421270930332,-0.137239088279,0.941443372123,-0.298965270511,0.941443372123,-0.298965270511,-0.0421270930332,-0.137239088279
5100000000.0,-0.0438090890577,-0.139591657776,0.939218964477,-0.30455381898,0.939218964477,-0.30455381898,-0.0438090890577,-0.139591657776
5200000000.0,-0.0455182767634,-0.141922028692,0.936956384597,-0.310120201982,0.936956384597,-0.310120201982,-0.0455182767634,-0.141922028692
5300000000.0,-0.0472543220957,-0.144229873143,0.934655947468,-0.315664088424,0.934655947468,-0.315664088424,-0.0472543220957,-0.144229873143
5400000000.0,-0.049016886835,-0.146514869106,0.93231797193,-0.321185152934,0.93231797193,-0.321185152934,-0.049016886835,-0.146514869106
5500000000.0,-0.0508056287186,-0.148776700471,0.929942780559,-0.326683075908,0.929942780559,-0.326683075908,-0.0508056287186,-0.148776700471
5600000000.0,-0.0526202015632,-0.1510150571,0.927530699535,-0.332157543566,0.927530699535,-0.332157543566,-0.0526202015632,-0.1510150571
5700000000.0,-0.0544602553888,-0.153229634879,0.925082058521,-0.337608248004,0.925082058521,-0.337608248004,-0.0544602553888,-0.153229634879
5800000000.0,-0.0563254365429,-0.155420135764,0.922597190534,-0.343034887237,0.922597190534,-0.343034887237,-0.0563254365429,-0.155420135764
5900000000.0,-0.0582153878249,-0.157586267826,0.920076431818,-0.348437165241,0.920076431818,-0.348437165241,-0.0582153878249,-0.157586267826
6000000000.0,-0.060129748612,-0.159727745296,0.917520121716,-0.353814791998,0.917520121716,-0.353814791998,-0.060129748612,-0.159727745296
6100000000.0,-0.0620681549844,-0.161844288601,0.914928602541,-0.359167483528,0.914928602541,-0.359167483528,-0.0620681549844,-0.161844288601
6200000000.0,-0.0640302398516,-0.163935624404,0.912302219453,-0.364494961926,0.912302219453,-0.364494961926,-0.0640302398516,-0.163935624404
6300000000.0,-0.0660156330783,-0.166001485631,0.909641320323,-0.369796955391,0.909641320323,-0.369796955391,-0.0660156330783,-0.166001485631
6400000000.0,-0.0680239616113,-0.168041611507,0.906946255613,-0.375073198254,0.906946255613,-0.375073198254,-0.0680239616113,-0.168041611507
6500000000.0,-0.0700548496053,-0.170055747581,0.904217378243,-0.380323431003,0.904217378243,-0.380323431003,-0.0700548496053,-0.170055747581
6600000000.0,-0.0721079185493,-0.172043645746,0.901455043462,-0.385547400302,0.901455043462,-0.385547400302,-0.0721079185493,-0.172043645746
6700000000.0,-0.0741827873934,-0.174005064266,0.898659608726,-0.390744859014,0.898659608726,-0.390744859014,-0.0741827873934,-0.174005064266
6800000000.0,-0.076279072674,-0.17593976779,0.895831433563,-0.395915566213,0.895831433563,-0.395915566213,-0.076279072674,-0.17593976779
6900000000.0,-0.0783963886402,-0.17784752737,0.892970879453,-0.401059287196,0.892970879453,-0.401059287196,-0.0783963886402,-0.17784752737
7000000000.0,-0.0805343473789,-0.179728120469,0.890078309695,-0.406175793495,0.890078309695,-0.406175793495,-0.0805343473789,-0.179728120469
7100000000.0,-0.0826925589395,-0.181581330974,0.887154089284,-0.411264862882,0.887154089284,-0.411264862882,-0.0826925589395,-0.181581330974
7200000000.0,-0.084870631459,-0.1834069492,0.884198584787,-0.416326279372,0.884198584787,-0.416326279372,-0.084870631459,-0.1834069492
7300000000.0,-0.0870681712851,-0.185204771898,0.881212164213,-0.421359833227,0.881212164213,-0.421359833227,-0.0870681712851,-0.185204771898
7400000000.0,-0.0892847831,-0.186974602249,0.878195196893,-0.426365320951,0.878195196893,-0.426365320951,-0.0892847831,-0.186974602249
7500000000.0,-0.0915200700423,-0.188716249868,0.875148053354,-0.431342545284,0.875148053354,-0.431342545284,-0.0915200700423,-0.188716249868
7600000000.0,-0.0937736338293,-0.190429530797,0.872071105195,-0.436291315201,0.872071105195,-0.436291315201,-0.0937736338293,-0.190429530797
7700000000.0,-0.0960450748775,-0.192114267497,0.86896472497,-0.441211445894,0.86896472497,-0.441211445894,-0.0960450748775,-0.192114267497
7800000000.0,-0.0983339924225,-0.19377028884,0.86582928606,-0.446102758764,0.86582928606,-0.446102758764,-0.0983339924225,-0.19377028884
7900000000.0,-0.100639984638,-0.195397430098,0.862665162561,-0.450965081406,0.862665162561,-0.450965081406,-0.100639984638,-0.195397430098
8000000000.0,-0.102962648754,-0.196995532922,0.859472729157,-0.455798247588,0.859472729157,-0.455798247588,-0.102962648754,-0.196995532922
8100000000.0,-0.105301581174,-0.198564445334,0.856252361007,-0.460602097231,0.856252361007,-0.460602097231,-0.105301581174,-0.198564445334
8200000000.0,-0.107656377587,-0.200104021697,0.853004433627,-0.46537647639,0.853004433627,-0.46537647639,-0.107656377587,-0.200104021697
8300000000.0,-0.11002663309,-0.201614122702,0.849729322776,-0.470121237222,0.849729322776,-0.470121237222,-0.11002663309,-0.201614122702
8400000000.0,-0.112411942292,-0.203094615337,0.84642740434,-0.474836237966,0.84642740434,-0.474836237966,-0.112411942292,-0.203094615337
8500000000.0,-0.114811899431,-0.204545372863,0.843099054218,-0.479521342907,0.843099054218,-0.479521342907,-0.114811899431,-0.204545372863
8600000000.0,-0.117226098487,-0.205966274787,0.839744648214,-0.484176422345,0.839744648214,-0.484176422345,-0.117226098487,-0.205966274787
8700000000.0,-0.119654133283,-0.207357206825,0.836364561924,-0.488801352562,0.836364561924,-0.488801352562,-0.119654133283,-0.207357206825
8800000000.0,-0.122095597601,-0.208718060876,0.832959170629,-0.493396015786,0.832959170629,-0.493396015786,-0.122095597601,-0.208718060876
8900000000.0,-0.124550085283,-0.21004873498,0.829528849187,-0.497960300148,0.829528849187,-0.497960300148,-0.124550085283,-0.21004873498
9000000000.0,-0.127017190339,-0.211349133287,0.826073971928,-0.502494099647,0.826073971928,-0.502494099647,-0.127017190339,-0.211349133287
9100000000.0,-0.129496507048,-0.212619166012,0.82259491255,-0.506997314102,0.82259491255,-0.506997314102,-0.129496507048,-0.212619166012
9200000000.0,-0.13198763006,-0.213858749398,0.819092044015,-0.511469849109,0.819092044015,-0.511469849109,-0.13198763006,-0.213858749398
9300000000.0,-0.134490154497,-0.215067805671,0.815565738451,-0.515911615998,0.815565738451,-0.515911615998,-0.134490154497,-0.215067805671
9400000000.0,-0.13700367605,-0.216246262995,0.812016367051,-0.520322531777,0.812016367051,-0.520322531777,-0.13700367605,-0.216246262995
9500000000.0,-0.139527791076,-0.217394055427,0.808444299974,-0.524702519089,0.808444299974,-0.524702519089,-0.139527791076,-0.217394055427
9600000000.0,-0.142062096692,-0.218511122867,0.804849906254,-0.529051506156,0.804849906254,-0.529051506156,-0.142062096692,-0.218511122867
9700000000.0,-0.144606190872,-0.21959741101,0.801233553703,-0.533369426727,0.801233553703,-0.533369426727,-0.144606190872,-0.21959741101
9800000000.0,-0.147159672532,-0.220652871294,0.797595608819,-0.537656220022,0.797595608819,-0.537656220022,-0.147159672532,-0.220652871294
9900000000.0,-0.149722141624,-0.221677460847,0.793936436695,-0.541911830676,0.793936436695,-0.541911830676,-0.149722141624,-0.221677460847
10000000000.0,-0.152293199223,-0.222671142431,0.790256400933,-0.54613620868,0.790256400933,-0.54613620868,-0.152293199223,-0.222671142431
