freq (GHz),S11_real,S11_imag,S21_real,S21_imag,S12_real,S12_imag,S22_real,S22_imag
100000000.0,0.000123220811034,-0.0054490152823,0.999792514224,-0.00651820139418,0.999792514224,-0.00651820139418,0.000123220811034,-0.0054490152823
200000000.0,1.19607736571e-05,-0.0108969111311,0.999677300302,-0.0130353297385,0.999677300302,-0.0130353297385,1.19607736571e-05,-0.0108969111311
300000000.0,-0.00017058670079,-0.0163425724729,0.999490227107,-0.0195503005115,0.999490227107,-0.0195503005115,-0.00017058670079,-0.0163425724729
400000000.0,-0.000424224281688,-0.0217848531072,0.999231206856,-0.0260619914354,0.999231206856,-0.0260619914354,-0.000424224281688,-0.0217848531072
500000000.0,-0.000748817675365,-0.027222591748,0.998900264109,-0.0325692621512,0.998900264109,-0.0325692621512,-0.000748817675365,-0.027222591748
600000000.0,-0.00114423418069,-0.0326546182458,0.998497475489,-0.0390709615442,0.998497475489,-0.0390709615442,-0.00114423418069,-0.0326546182458
700000000.0,-0.00161032686969,-0.0380797571529,0.998022954621,-0.0455659318475,0.998022954621,-0.0455659318475,-0.00161032686969,-0.0380797571529
800000000.0,-0.00214692871349,-0.0434968301736,0.99747684674,-0.0520530114067,0.99747684674,-0.0520530114067,-0.00214692871349,-0.0434968301736
900000000.0,-0.00275384992511,-0.0489046580461,0.996859326361,-0.0585310367659,0.996859326361,-0.0585310367659,-0.00275384992511,-0.0489046580461
1000000000.0,-0.00343087660886,-0.0543020620973,0.996170596087,-0.0649988443646,0.996170596087,-0.0649988443646,-0.00343087660886,-0.0543020620973
1100000000.0,-0.00417777003171,-0.059687865592,0.995410885942,-0.0714552719907,0.995410885942,-0.0714552719907,-0.00417777003171,-0.059687865592
1200000000.0,-0.0049942662303,-0.0650608949454,0.994580452927,-0.0778991600715,0.994580452927,-0.0778991600715,-0.0049942662303,-0.0650608949454
1300000000.0,-0.00588007581872,-0.0704199808364,0.993679580688,-0.0843293528502,0.993679580688,-0.0843293528502,-0.00588007581872,-0.0704199808364
1400000000.0,-0.0068348839282,-0.0757639592503,0.992708579236,-0.0907446994769,0.992708579236,-0.0907446994769,-0.0068348839282,-0.0757639592503
1500000000.0,-0.00785835024033,-0.0810916724635,0.991667784675,-0.0971440550346,0.991667784675,-0.0971440550346,-0.00785835024033,-0.0810916724635
1600000000.0,-0.0089501090915,-0.0864019699833,0.99055755894,-0.103526281513,0.99055755894,-0.103526281513,-0.0089501090915,-0.0864019699833
1700000000.0,-0.0101097696346,-0.091693709449,0.989378289516,-0.109890248738,0.989378289516,-0.109890248738,-0.0101097696346,-0.091693709449
1800000000.0,-0.0113369160487,-0.0969657574994,0.98813038914,-0.116234835265,0.98813038914,-0.116234835265,-0.0113369160487,-0.0969657574994
1900000000.0,-0.0126311077912,-0.10221699061,0.98681429549,-0.122558929234,0.98681429549,-0.122558929234,-0.0126311077912,-0.10221699061
2000000000.0,-0.0139918798866,-0.107446295905,0.98543047084,-0.128861429204,0.98543047084,-0.128861429204,-0.0139918798866,-0.107446295905
2100000000.0,-0.0154187432498,-0.112652571937,0.983979401706,-0.135141244947,0.983979401706,-0.135141244947,-0.0154187432498,-0.112652571937
2200000000.0,-0.016911185041,-0.11783472945,0.982461598458,-0.141397298227,0.982461598458,-0.141397298227,-0.016911185041,-0.11783472945
2300000000.0,-0.018468669049,-0.122991692111,0.98087759491,-0.147628523542,0.98087759491,-0.147628523542,-0.018468669049,-0.122991692111
2400000000.0,-0.0200906361031,-0.128122397222,0.9792279479,-0.153833868849,0.9792279479,-0.153833868849,-0.0200906361031,-0.128122397222
2500000000.0,-0.0217765045092,-0.133225796407,0.977513236825,-0.160012296263,0.977513236825,-0.160012296263,-0.0217765045092,-0.133225796407
2600000000.0,-0.0235256705117,-0.138300856273,0.97573406318,-0.166162782726,0.97573406318,-0.166162782726,-0.0235256705117,-0.138300856273
2700000000.0,-0.0253375087768,-0.143346559051,0.973891050054,-0.172284320656,0.973891050054,-0.172284320656,-0.0253375087768,-0.143346559051
2800000000.0,-0.0272113728983,-0.14836190321,0.971984841623,-0.178375918573,0.971984841623,-0.178375918573,-0.0272113728983,-0.14836190321
2900000000.0,-0.0291465959233,-0.15334590405,0.970016102614,-0.184436601692,0.970016102614,-0.184436601692,-0.0291465959233,-0.15334590405
3000000000.0,-0.0311424908968,-0.158297594267,0.967985517756,-0.190465412504,0.967985517756,-0.190465412504,-0.0311424908968,-0.158297594267
3100000000.0,-0.0331983514243,-0.163216024495,0.96589379121,-0.196461411316,0.96589379121,-0.196461411316,-0.0331983514243,-0.163216024495
3200000000.0,-0.0353134522514,-0.168100263826,0.963741645991,-0.202423676783,0.963741645991,-0.202423676783,-0.0353134522514,-0.168100263826
3300000000.0,-0.0374870498575,-0.172949400298,0.961529823364,-0.208351306398,0.961529823364,-0.208351306398,-0.0374870498575,-0.172949400298
3400000000.0,-0.0397183830659,-0.177762541367,0.959259082235,-0.21424341697,0.959259082235,-0.21424341697,-0.0397183830659,-0.177762541367
3500000000.0,-0.042006673665,-0.182538814344,0.956930198527,-0.220099145068,0.956930198527,-0.220099145068,-0.042006673665,-0.182538814344
3600000000.0,-0.0443511270428,-0.187277366815,0.95454396454,-0.225917647439,0.95454396454,-0.225917647439,-0.0443511270428,-0.187277366815
3700000000.0,-0.046750932832,-0.191977367029,0.95210118831,-0.231698101409,0.95210118831,-0.231698101409,-0.046750932832,-0.191977367029
3800000000.0,-0.0492052655642,-0.196638004261,0.949602692948,-0.237439705245,0.949602692948,-0.237439705245,-0.0492052655642,-0.196638004261
3900000000.0,-0.0517132853337,-0.201258489156,0.947049315975,-0.243141678502,0.947049315975,-0.243141678502,-0.0517132853337,-0.201258489156
4000000000.0,-0.0542741384677,-0.205838054034,0.944441908655,-0.248803262334,0.944441908655,-0.248803262334,-0.0542741384677,-0.205838054034
4100000000.0,-0.0568869582042,-0.210375953185,0.94178133531,-0.254423719792,0.94178133531,-0.254423719792,-0.0568869582042,-0.210375953185
4200000000.0,-0.0595508653738,-0.214871463123,0.939068472643,-0.26000233608,0.939068472643,-0.26000233608,-0.0595508653738,-0.214871463123
4300000000.0,-0.0622649690868,-0.219323882824,0.936304209044,-0.265538418796,0.936304209044,-0.265538418796,-0.0622649690868,-0.219323882824
4400000000.0,-0.0650283674228,-0.223732533934,0.933489443906,-0.271031298146,0.933489443906,-0.271031298146,-0.0650283674228,-0.223732533934
4500000000.0,-0.0678401481231,-0.228096760957,0.930625086927,-0.276480327131,0.930625086927,-0.276480327131,-0.0678401481231,-0.228096760957
4600000000.0,-0.0706993892831,-0.232415931407,0.927712057418,-0.281884881702,0.927712057418,-0.281884881702,-0.0706993892831,-0.232415931407
4700000000.0,-0.0736051600462,-0.236689435947,0.924751283612,-0.287244360905,0.924751283612,-0.287244360905,-0.0736051600462,-0.236689435947
4800000000.0,-0.0765565212956,-0.240916688494,0.921743701966,-0.292558186985,0.921743701966,-0.292558186985,-0.0765565212956,-0.240916688494
4900000000.0,-0.0795525263453,-0.245097126307,0.918690256475,-0.297825805476,0.918690256475,-0.297825805476,-0.0795525263453,-0.245097126307
5000000000.0,-0.082592221627,-0.249230210042,0.91559189798,-0.303046685262,0.91559189798,-0.303046685262,-0.082592221627,-0.249230210042
5100000000.0,-0.0856746473748,-0.253315423796,0.912449583486,-0.308220318619,0.912449583486,-0.308220318619,-0.0856746473748,-0.253315423796
5200000000.0,-0.0887988383047,-0.257352275111,0.909264275483,-0.313346221223,0.909264275483,-0.313346221223,-0.0887988383047,-0.257352275111
5300000000.0,-0.0919638242879,-0.261340294971,0.906036941268,-0.31842393215,0.906036941268,-0.31842393215,-0.0919638242879,-0.261340294971
5400000000.0,-0.0951686310195,-0.265279037769,0.902768552281,-0.32345301384,0.902768552281,-0.32345301384,-0.0951686310195,-0.265279037769
5500000000.0,-0.0984122806788,-0.269168081249,0.899460083439,-0.328433052049,0.899460083439,-0.328433052049,-0.0984122806788,-0.269168081249
5600000000.0,-0.101693792583,-0.273007026434,0.896112512489,-0.333363655772,0.896112512489,-0.333363655772,-0.101693792583,-0.273007026434
5700000000.0,-0.10501218383,-0.276795497531,0.892726819358,-0.338244457149,0.892726819358,-0.338244457149,-0.10501218383,-0.276795497531
5800000000.0,-0.108366469936,-0.280533141811,0.88930398552,-0.343075111354,0.88930398552,-0.343075111354,-0.108366469936,-0.280533141811
5900000000.0,-0.111755665461,-0.284219629474,0.885844993368,-0.347855296454,0.885844993368,-0.347855296454,-0.111755665461,-0.284219629474
6000000000.0,-0.11517878462,-0.287854653494,0.882350825601,-0.352584713261,0.882350825601,-0.352584713261,-0.11517878462,-0.287854653494
6100000000.0,-0.118634841894,-0.291437929449,0.878822464621,-0.357263085155,0.878822464621,-0.357263085155,-0.118634841894,-0.291437929449
6200000000.0,-0.122122852615,-0.294969195323,0.875260891935,-0.361890157901,0.875260891935,-0.361890157901,-0.122122852615,-0.294969195323
6300000000.0,-0.125641833551,-0.298448211302,0.871667087579,-0.366465699434,0.871667087579,-0.366465699434,-0.125641833551,-0.298448211302
6400000000.0,-0.129190803472,-0.30187475955,0.86804202955,-0.37098949964,0.86804202955,-0.37098949964,-0.129190803472,-0.30187475955
6500000000.0,-0.132768783705,-0.305248643965,0.86438669325,-0.375461370117,0.86438669325,-0.375461370117,-0.132768783705,-0.305248643965
6600000000.0,-0.136374798675,-0.308569689927,0.860702050944,-0.37988114392,0.860702050944,-0.37988114392,-0.136374798675,-0.308569689927
6700000000.0,-0.140007876433,-0.311837744024,0.856989071235,-0.384248675289,0.856989071235,-0.384248675289,-0.140007876433,-0.311837744024
6800000000.0,-0.143667049167,-0.315052673774,0.853248718546,-0.388563839372,0.853248718546,-0.388563839372,-0.143667049167,-0.315052673774
6900000000.0,-0.147351353705,-0.318214367321,0.849481952628,-0.392826531927,0.849481952628,-0.392826531927,-0.147351353705,-0.318214367321
7000000000.0,-0.151059831991,-0.321322733135,0.84568972807,-0.397036669012,0.84568972807,-0.397036669012,-0.151059831991,-0.321322733135
7100000000.0,-0.154791531564,-0.324377699684,0.841872993834,-0.401194186671,0.841872993834,-0.401194186671,-0.154791531564,-0.324377699684
7200000000.0,-0.158545506003,-0.327379215107,0.838032692798,-0.405299040598,0.838032692798,-0.405299040598,-0.158545506003,-0.327379215107
7300000000.0,-0.162320815369,-0.330327246872,0.83416976132,-0.4093512058,0.83416976132,-0.4093512058,-0.162320815369,-0.330327246872
7400000000.0,-0.166116526629,-0.333221781425,0.830285128815,-0.413350676249,0.830285128815,-0.413350676249,-0.166116526629,-0.333221781425
7500000000.0,-0.169931714058,-0.336062823831,0.826379717346,-0.417297464519,0.826379717346,-0.417297464519,-0.169931714058,-0.336062823831
7600000000.0,-0.173765459636,-0.338850397403,0.822454441234,-0.421191601421,0.822454441234,-0.421191601421,-0.173765459636,-0.338850397403
7700000000.0,-0.177616853419,-0.341584543334,0.818510206684,-0.42503313563,0.818510206684,-0.42503313563,-0.177616853419,-0.341584543334
7800000000.0,-0.181484993902,-0.344265320309,0.814547911422,-0.428822133303,0.814547911422,-0.428822133303,-0.181484993902,-0.344265320309
7900000000.0,-0.185368988359,-0.34689280412,0.810568444352,-0.432558677695,0.810568444352,-0.432558677695,-0.185368988359,-0.34689280412
8000000000.0,-0.189267953174,-0.349467087274,0.806572685231,-0.436242868761,0.806572685231,-0.436242868761,-0.189267953174,-0.349467087274
8100000000.0,-0.193181014153,-0.35198827859,0.802561504352,-0.439874822763,0.802561504352,-0.439874822763,-0.193181014153,-0.35198827859
8200000000.0,-0.197107306817,-0.354456502804,0.798535762251,-0.443454671867,0.798535762251,-0.443454671867,-0.197107306817,-0.354456502804
8300000000.0,-0.201045976688,-0.356871900157,0.794496309423,-0.446982563741,0.794496309423,-0.446982563741,-0.201045976688,-0.356871900157
8400000000.0,-0.204996179549,-0.359234625991,0.79044398606,-0.450458661141,0.79044398606,-0.450458661141,-0.204996179549,-0.359234625991
8500000000.0,-0.208957081699,-0.361544850333,0.786379621797,-0.453883141506,0.786379621797,-0.453883141506,-0.208957081699,-0.361544850333
8600000000.0,-0.212927860185,-0.363802757489,0.782304035481,-0.457256196543,0.782304035481,-0.457256196543,-0.212927860185,-0.363802757489
8700000000.0,-0.216907703022,-0.366008545621,0.778218034947,-0.460578031815,0.778218034947,-0.460578031815,-0.216907703022,-0.366008545621
8800000000.0,-0.220895809397,-0.368162426341,0.774122416814,-0.463848866326,0.774122416814,-0.463848866326,-0.220895809397,-0.368162426341
8900000000.0,-0.224891389863,-0.370264624286,0.770017966297,-0.467068932104,0.770017966297,-0.467068932104,-0.224891389863,-0.370264624286
9000000000.0,-0.228893666511,-0.372315376714,0.765905457029,-0.47023847379,0.765905457029,-0.47023847379,-0.228893666511,-0.372315376714
9100000000.0,-0.232901873135,-0.37431493308,0.761785650897,-0.473357748222,0.761785650897,-0.473357748222,-0.232901873135,-0.37431493308
9200000000.0,-0.236915255377,-0.376263554626,0.757659297896,-0.476427024024,0.757659297896,-0.476427024024,-0.236915255377,-0.376263554626
9300000000.0,-0.240933070863,-0.378161513974,0.753527135994,-0.479446581193,0.753527135994,-0.479446581193,-0.240933070863,-0.378161513974
9400000000.0,-0.244954589325,-0.380009094708,0.749389891013,-0.48241671069,0.749389891013,-0.48241671069,-0.244954589325,-0.380009094708
9500000000.0,-0.248979092706,-0.381806590973,0.745248276516,-0.485337714036,0.745248276516,-0.485337714036,-0.248979092706,-0.381806590973
9600000000.0,-0.25300587526,-0.383554307068,0.741102993715,-0.488209902905,0.741102993715,-0.488209902905,-0.25300587526,-0.383554307068
9700000000.0,-0.257034243629,-0.385252557046,0.736954731388,-0.491033598724,0.736954731388,-0.491033598724,-0.257034243629,-0.385252557046
9800000000.0,-0.261063516916,-0.386901664314,0.732804165807,-0.493809132276,0.732804165807,-0.493809132276,-0.261063516916,-0.386901664314
9900000000.0,-0.265093026747,-0.388501961244,0.728651960678,-0.496536843307,0.728651960678,-0.496536843307,-0.265093026747,-0.388501961244
10000000000.0,-0.269122117311,-0.390053788775,0.724498767098,-0.499217080136,0.724498767098,-0.499217080136,-0.269122117311,-0.390053788775
