freq (GHz),S11_real,S11_imag,S21_real,S21_imag,S12_real,S12_imag,S22_real,S22_imag
100000000.0,0.000196967426035,-0.00598821211334,0.99970776715,-0.00679554534319,0.99970776715,-0.00679554534319,0.000196967426035,-0.00598821211334
200000000.0,7.02744170193e-05,-0.0119748734724,0.999576785472,-0.0135895549184,0.999576785472,-0.0135895549184,7.02744170191e-05,-0.0119748734724
300000000.0,-0.000138168173171,-0.0179585214551,0.999364250437,-0.020380580301,0.999364250437,-0.020380580301,-0.000138168173171,-0.0179585214551
400000000.0,-0.000428060904068,-0.0239376793443,0.999070039531,-0.0271671556479,0.999070039531,-0.0271671556479,-0.000428060904068,-0.0239376793443
500000000.0,-0.000799198513077,-0.0299108652214,0.998694195947,-0.0339478086251,0.998694195947,-0.0339478086251,-0.000799198513076,-0.0299108652214
600000000.0,-0.00125137957072,-0.0358765959016,0.998236838624,-0.0407210648639,0.998236838624,-0.0407210648639,-0.00125137957072,-0.0358765959016
700000000.0,-0.00178438354187,-0.0418333894975,0.99769813943,-0.0474854507619,0.99769813943,-0.0474854507619,-0.00178438354187,-0.0418333894975
800000000.0,-0.00239796248463,-0.0477797674,0.997078314785,-0.0542394955981,0.997078314785,-0.0542394955981,-0.00239796248463,-0.0477797674
900000000.0,-0.00309183745567,-0.0537142559599,0.996377621841,-0.0609817332974,0.996377621841,-0.0609817332974,-0.00309183745567,-0.0537142559599
1000000000.0,-0.00386569681026,-0.0596353879897,0.995596356429,-0.0677107039913,0.995596356429,-0.0677107039913,-0.00386569681026,-0.0596353879897
1100000000.0,-0.00471919539433,-0.0655417041522,0.994734851786,-0.0744249554458,0.994734851786,-0.0744249554458,-0.00471919539433,-0.0655417041522
1200000000.0,-0.00565195421074,-0.071431754265,0.993793477647,-0.0811230443986,0.993793477647,-0.0811230443986,-0.00565195421074,-0.071431754265
1300000000.0,-0.00666356036481,-0.0773040985444,0.992772639525,-0.0878035378252,0.992772639525,-0.0878035378252,-0.00666356036481,-0.0773040985444
1400000000.0,-0.00775356718988,-0.0831573087974,0.991672778069,-0.0944650141512,0.991672778069,-0.0944650141512,-0.00775356718988,-0.0831573087974
1500000000.0,-0.00892149449845,-0.0889899695719,0.990494368471,-0.101106064417,0.990494368471,-0.101106064417,-0.00892149449845,-0.0889899695719
1600000000.0,-0.0101668289273,-0.0948006792667,0.989237919874,-0.107725293399,0.989237919874,-0.107725293399,-0.0101668289273,-0.0948006792667
1700000000.0,-0.0114890243566,-0.100588051206,0.987903974777,-0.1143213207,0.987903974777,-0.1143213207,-0.0114890243566,-0.100588051206
1800000000.0,-0.0128875023915,-0.106350714681,0.98649310843,-0.120892781793,0.98649310843,-0.120892781793,-0.0128875023915,-0.106350714681
1900000000.0,-0.0143616528952,-0.112087315955,0.985005928197,-0.127438329037,0.985005928197,-0.127438329037,-0.0143616528952,-0.112087315955
2000000000.0,-0.0159108345703,-0.117796519237,0.983443072906,-0.13395663266,0.983443072906,-0.13395663266,-0.0159108345703,-0.117796519237
2100000000.0,-0.0175343755809,-0.123477007624,0.981805212167,-0.140446381703,0.981805212167,-0.140446381703,-0.0175343755809,-0.123477007624
2200000000.0,-0.0192315742136,-0.129127484008,0.980093045669,-0.146906284931,0.980093045669,-0.146906284931,-0.0192315742136,-0.129127484008
2300000000.0,-0.0210016995726,-0.134746671945,0.978307302447,-0.153335071716,0.978307302447,-0.153335071716,-0.0210016995726,-0.134746671945
2400000000.0,-0.0228439923085,-0.140333316503,0.976448740125,-0.159731492874,0.976448740125,-0.159731492874,-0.0228439923085,-0.140333316503
2500000000.0,-0.0247576653756,-0.145886185058,0.97451814414,-0.166094321481,0.97451814414,-0.166094321481,-0.0247576653756,-0.145886185058
2600000000.0,-0.0267419048174,-0.151404068071,0.972516326928,-0.17242235364,0.972516326928,-0.17242235364,-0.0267419048174,-0.151404068071
2700000000.0,-0.0287958705781,-0.156885779817,0.970444127108,-0.178714409221,0.970444127108,-0.178714409221,-0.0287958705781,-0.156885779817
2800000000.0,-0.0309186973367,-0.162330159089,0.968302408628,-0.184969332563,0.968302408628,-0.184969332563,-0.0309186973367,-0.162330159089
2900000000.0,-0.0331094953636,-0.167736069855,0.966092059898,-0.191185993137,0.966092059898,-0.191185993137,-0.0331094953636,-0.167736069855
3000000000.0,-0.0353673513958,-0.173102401885,0.96381399291,-0.197363286174,0.96381399291,-0.197363286174,-0.0353673513958,-0.173102401885
3100000000.0,-0.0376913295316,-0.17842807134,0.96146914233,-0.203500133255,0.96146914233,-0.203500133255,-0.0376913295316,-0.17842807134
3200000000.0,-0.0400804721392,-0.183712021321,0.959058464588,-0.209595482865,0.959058464588,-0.209595482865,-0.0400804721392,-0.183712021321
3300000000.0,-0.0425338007816,-0.188953222385,0.956582936942,-0.215648310905,0.956582936942,-0.215648310905,-0.0425338007816,-0.188953222385
3400000000.0,-0.0450503171525,-0.194150673014,0.954043556544,-0.221657621173,0.954043556544,-0.221657621173,-0.0450503171525,-0.194150673014
3500000000.0,-0.0476290040237,-0.199303400059,0.951441339482,-0.227622445797,0.951441339482,-0.227622445797,-0.0476290040237,-0.199303400059
3600000000.0,-0.0502688262009,-0.204410459137,0.948777319825,-0.233541845641,0.948777319825,-0.233541845641,-0.0502688262009,-0.204410459137
3700000000.0,-0.0529687314876,-0.209470934989,0.946052548653,-0.239414910667,0.946052548653,-0.239414910667,-0.0529687314876,-0.209470934989
3800000000.0,-0.0557276516535,-0.214483941809,0.943268093088,-0.245240760255,0.943268093088,-0.245240760255,-0.0557276516535,-0.214483941809
3900000000.0,-0.0585445034081,-0.219448623526,0.940425035317,-0.251018543498,0.940425035317,-0.251018543498,-0.0585445034081,-0.219448623526
4000000000.0,-0.0614181893759,-0.224364154056,0.937524471615,-0.256747439447,0.937524471615,-0.256747439447,-0.0614181893759,-0.224364154056
4100000000.0,-0.0643475990722,-0.229229737512,0.934567511367,-0.262426657326,0.934567511367,-0.262426657326,-0.0643475990722,-0.229229737512
4200000000.0,-0.067331609879,-0.234044608379,0.931555276089,-0.268055436705,0.931555276089,-0.268055436705,-0.067331609879,-0.234044608379
4300000000.0,-0.0703690880178,-0.238808031653,0.928488898459,-0.273633047646,0.928488898459,-0.273633047646,-0.0703690880178,-0.238808031653
4400000000.0,-0.0734588895194,-0.243519302948,0.92536952134,-0.2791587908,0.92536952134,-0.2791587908,-0.0734588895194,-0.243519302948
4500000000.0,-0.0765998611876,-0.248177748556,0.922198296815,-0.284631997483,0.922198296815,-0.284631997483,-0.0765998611876,-0.248177748556
4600000000.0,-0.0797908415573,-0.252782725492,0.918976385235,-0.290052029707,0.918976385235,-0.290052029707,-0.0797908415573,-0.252782725492
4700000000.0,-0.0830306618445,-0.257333621483,0.915704954259,-0.29541828018,0.915704954259,-0.29541828018,-0.0830306618445,-0.257333621483
4800000000.0,-0.086318146887,-0.261829854942,0.912385177919,-0.300730172277,0.912385177919,-0.300730172277,-0.086318146887,-0.261829854942
4900000000.0,-0.0896521160743,-0.266270874902,0.909018235686,-0.305987159973,0.909018235686,-0.305987159973,-0.0896521160743,-0.266270874902
5000000000.0,-0.0930313842673,-0.270656160916,0.905605311552,-0.311188727746,0.905605311552,-0.311188727746,-0.0930313842673,-0.270656160916
5100000000.0,-0.0964547627041,-0.274985222931,0.90214759312,-0.316334390453,0.90214759312,-0.316334390453,-0.0964547627041,-0.274985222931
5200000000.0,-0.0999210598921,-0.279257601131,0.898646270715,-0.321423693172,0.898646270715,-0.321423693172,-0.0999210598921,-0.279257601131
5300000000.0,-0.103429082487,-0.283472865751,0.895102536503,-0.326456211015,0.895102536503,-0.326456211015,-0.103429082487,-0.283472865751
5400000000.0,-0.106977636152,-0.287630616863,0.891517583629,-0.331431548917,0.891517583629,-0.331431548917,-0.106977636152,-0.287630616863
5500000000.0,-0.110565526409,-0.291730484134,0.887892605371,-0.336349341396,0.887892605371,-0.336349341396,-0.110565526409,-0.291730484134
5600000000.0,-0.114191559458,-0.295772126561,0.884228794315,-0.341209252282,0.884228794315,-0.341209252282,-0.114191559458,-0.295772126561
5700000000.0,-0.117854542996,-0.299755232177,0.880527341538,-0.346010974433,0.880527341538,-0.346010974433,-0.117854542996,-0.299755232177
5800000000.0,-0.121553287001,-0.303679517739,0.876789435823,-0.350754229414,0.876789435823,-0.350754229414,-0.121553287001,-0.303679517739
5900000000.0,-0.125286604508,-0.307544728385,0.873016262883,-0.355438767163,0.873016262883,-0.355438767163,-0.125286604508,-0.307544728385
6000000000.0,-0.129053312355,-0.31135063728,0.869209004614,-0.360064365631,0.869209004614,-0.360064365631,-0.129053312355,-0.31135063728
6100000000.0,-0.132852231919,-0.315097045232,0.86536883836,-0.364630830401,0.86536883836,-0.364630830401,-0.132852231919,-0.315097045232
6200000000.0,-0.13668218982,-0.31878378029,0.861496936208,-0.36913799429,0.861496936208,-0.36913799429,-0.13668218982,-0.31878378029
6300000000.0,-0.140542018613,-0.322410697332,0.857594464297,-0.373585716929,0.857594464297,-0.373585716929,-0.140542018613,-0.322410697332
6400000000.0,-0.144430557448,-0.325977677624,0.853662582155,-0.377973884332,0.853662582155,-0.377973884332,-0.144430557448,-0.325977677624
6500000000.0,-0.148346652716,-0.329484628371,0.849702442055,-0.382302408439,0.849702442055,-0.382302408439,-0.148346652716,-0.329484628371
6600000000.0,-0.152289158668,-0.332931482249,0.845715188393,-0.386571226656,0.845715188393,-0.386571226656,-0.152289158668,-0.332931482249
6700000000.0,-0.156256938015,-0.336318196926,0.841701957095,-0.390780301367,0.841701957095,-0.390780301367,-0.156256938015,-0.336318196926
6800000000.0,-0.160248862497,-0.339644754564,0.83766387504,-0.39492961945,0.83766387504,-0.39492961945,-0.160248862497,-0.339644754564
6900000000.0,-0.164263813436,-0.342911161317,0.833602059508,-0.399019191762,0.833602059508,-0.399019191762,-0.164263813436,-0.342911161317
7000000000.0,-0.168300682264,-0.346117446815,0.829517617656,-0.403049052629,0.829517617656,-0.403049052629,-0.168300682264,-0.346117446815
7100000000.0,-0.172358371029,-0.349263663635,0.82541164601,-0.407019259318,0.82541164601,-0.407019259318,-0.172358371029,-0.349263663635
7200000000.0,-0.17643579287,-0.352349886765,0.821285229987,-0.410929891504,0.821285229987,-0.410929891504,-0.17643579287,-0.352349886765
7300000000.0,-0.18053187248,-0.355376213065,0.817139443435,-0.414781050723,0.817139443435,-0.414781050723,-0.18053187248,-0.355376213065
7400000000.0,-0.184645546537,-0.358342760715,0.812975348201,-0.418572859827,0.812975348201,-0.418572859827,-0.184645546537,-0.358342760715
7500000000.0,-0.188775764117,-0.361249668658,0.808793993719,-0.422305462427,0.808793993719,-0.422305462427,-0.188775764117,-0.361249668658
7600000000.0,-0.19292148708,-0.364097096043,0.80459641662,-0.425979022333,0.80459641662,-0.425979022333,-0.19292148708,-0.364097096043
7700000000.0,-0.197081690439,-0.366885221657,0.80038364037,-0.429593722988,0.80038364037,-0.429593722988,-0.197081690439,-0.366885221657
7800000000.0,-0.201255362699,-0.369614243356,0.796156674922,-0.433149766903,0.796156674922,-0.433149766903,-0.201255362699,-0.369614243356
7900000000.0,-0.205441506181,-0.372284377501,0.7919165164,-0.436647375087,0.7919165164,-0.436647375087,-0.205441506181,-0.372284377501
8000000000.0,-0.209639137318,-0.374895858381,0.787664146796,-0.440086786472,0.787664146796,-0.440086786472,-0.209639137318,-0.374895858381
8100000000.0,-0.213847286935,-0.377448937641,0.783400533695,-0.443468257346,0.783400533695,-0.443468257346,-0.213847286935,-0.377448937641
8200000000.0,-0.218065000504,-0.379943883714,0.779126630019,-0.446792060779,0.779126630019,-0.446792060779,-0.218065000504,-0.379943883714
8300000000.0,-0.222291338378,-0.382380981244,0.77484337379,-0.450058486051,0.77484337379,-0.450058486051,-0.222291338378,-0.382380981244
8400000000.0,-0.226525376009,-0.38476053052,0.770551687916,-0.453267838083,0.770551687916,-0.453267838083,-0.226525376009,-0.38476053052
8500000000.0,-0.230766204138,-0.387082846909,0.766252479998,-0.456420436871,0.766252479998,-0.456420436871,-0.230766204138,-0.387082846909
8600000000.0,-0.235012928973,-0.389348260287,0.761946642151,-0.459516616919,0.761946642151,-0.459516616919,-0.235012928973,-0.389348260287
8700000000.0,-0.239264672344,-0.391557114482,0.757635050852,-0.462556726683,0.757635050852,-0.462556726683,-0.239264672344,-0.391557114482
8800000000.0,-0.243520571841,-0.393709766716,0.753318566802,-0.465541128007,0.753318566802,-0.465541128007,-0.243520571841,-0.393709766716
8900000000.0,-0.247779780932,-0.395806587049,0.748998034805,-0.468470195575,0.748998034805,-0.468470195575,-0.247779780932,-0.395806587049
9000000000.0,-0.252041469062,-0.397847957837,0.744674283669,-0.471344316365,0.744674283669,-0.471344316365,-0.252041469062,-0.397847957837
9100000000.0,-0.256304821742,-0.399834273188,0.740348126121,-0.474163889105,0.740348126121,-0.474163889105,-0.256304821742,-0.399834273188
9200000000.0,-0.260569040609,-0.401765938424,0.736020358741,-0.476929323739,0.736020358741,-0.476929323739,-0.260569040609,-0.401765938424
9300000000.0,-0.264833343485,-0.403643369555,0.73169176191,-0.479641040897,0.73169176191,-0.479641040897,-0.264833343485,-0.403643369555
9400000000.0,-0.269096964403,-0.405466992759,0.727363099776,-0.482299471374,0.727363099776,-0.482299471374,-0.269096964403,-0.405466992759
9500000000.0,-0.273359153637,-0.407237243861,0.723035120233,-0.484905055618,0.723035120233,-0.484905055618,-0.273359153637,-0.407237243861
9600000000.0,-0.277619177695,-0.408954567832,0.718708554915,-0.487458243219,0.718708554915,-0.487458243219,-0.277619177695,-0.408954567832
9700000000.0,-0.281876319324,-0.410619418287,0.714384119208,-0.489959492413,0.714384119208,-0.489959492413,-0.281876319324,-0.410619418287
9800000000.0,-0.286129877474,-0.412232256999,0.710062512269,-0.492409269594,0.710062512269,-0.492409269594,-0.286129877474,-0.412232256999
9900000000.0,-0.290379167272,-0.41379355341,0.705744417063,-0.494808048827,0.705744417063,-0.494808048827,-0.290379167272,-0.41379355341
10000000000.0,-0.29462351997,-0.415303784163,0.701430500412,-0.497156311379,0.701430500412,-0.497156311379,-0.29462351997,-0.415303784163
