freq (GHz),S11_real,S11_imag,S21_real,S21_imag,S12_real,S12_imag,S22_real,S22_imag
100000000.0,-0.000276782416303,-0.016535518662,0.999693333388,-0.0166109680915,0.999693333388,-0.0166109680915,-0.000276782416303,-0.016535518662
200000000.0,-0.00111641110274,-0.0330420851338,0.998853492133,-0.0331929917498,0.998853492133,-0.0331929917498,-0.00111641110274,-0.0330420851338
300000000.0,-0.00250170162107,-0.0494922890771,0.997468034778,-0.0497186646753,0.997468034778,-0.0497186646753,-0.00250170162107,-0.0494922890771
400000000.0,-0.00442796472165,-0.0658591058971,0.995541624884,-0.0661609653823,0.995541624884,-0.0661609653823,-0.00442796472165,-0.0658591058971
500000000.0,-0.00688875892123,-0.0821160093113,0.993080694088,-0.0824933702218,0.993080694088,-0.0824933702218,-0.00688875892123,-0.0821160093113
600000000.0,-0.00987594147296,-0.09823710022,0.990093380139,-0.0986899824108,0.990093380139,-0.0986899824108,-0.00987594147296,-0.09823710022
700000000.0,-0.0133797356376,-0.114197234231,0.986589456838,-0.114725659636,0.986589456838,-0.114725659636,-0.0133797356376,-0.114197234231
800000000.0,-0.017388810457,-0.129972143098,0.982580253248,-0.130576135546,0.982580253248,-0.130576135546,-0.017388810457,-0.129972143098
900000000.0,-0.0218903714512,-0.145538547696,0.978078562543,-0.146218132746,0.978078562543,-0.146218132746,-0.0218903714512,-0.145538547696
1000000000.0,-0.0268702608672,-0.160874260959,0.973098541536,-0.161629465774,0.973098541536,-0.161629465774,-0.0268702608672,-0.160874260959
1100000000.0,-0.0323130660764,-0.175958279703,0.96765560215,-0.176789132929,0.96765560215,-0.176789132929,-0.0323130660764,-0.175958279703
1200000000.0,-0.0382022346557,-0.190770864522,0.961766296266,-0.191677396184,0.961766296266,-0.191677396184,-0.0382022346557,-0.190770864522
1300000000.0,-0.0445201946475,-0.205293607223,0.955448195414,-0.206275848632,0.955448195414,-0.206275848632,-0.0445201946475,-0.205293607223
1400000000.0,-0.0512484784829,-0.219509485529,0.948719766816,-0.220567469196,0.948719766816,-0.220567469196,-0.0512484784829,-0.219509485529
1500000000.0,-0.0583678490646,-0.233402904949,0.941600247289,-0.234536664504,0.941600247289,-0.234536664504,-0.0583678490646,-0.233402904949
1600000000.0,-0.0658584265577,-0.246959727945,0.934109516432,-0.248169298067,0.934109516432,-0.248169298067,-0.0658584265577,-0.246959727945
1700000000.0,-0.0736998144909,-0.2601672907,0.926267970519,-0.261452707049,0.926267970519,-0.261452707049,-0.0736998144909,-0.2601672907
1800000000.0,-0.0818712238778,-0.273014407952,0.918096398367,-0.274375707103,0.918096398367,-0.274375707103,-0.0818712238778,-0.273014407952
1900000000.0,-0.0903515941579,-0.28549136649,0.909615860394,-0.286928585877,0.909615860394,-0.286928585877,-0.0903515941579,-0.28549136649
2000000000.0,-0.0991197098899,-0.297589908058,0.900847571914,-0.299103085918,0.900847571914,-0.299103085918,-0.0991197098899,-0.297589908058
2100000000.0,-0.108154312256,-0.309303202473,0.891812791636,-0.310892377791,0.891812791636,-0.310892377791,-0.108154312256,-0.309303202473
2200000000.0,-0.117434204572,-0.320625811863,0.882532716145,-0.322291024323,0.882532716145,-0.322291024323,-0.117434204572,-0.320625811863
2300000000.0,-0.126938351146,-0.331553646976,0.873028381048,-0.333294936917,0.873028381048,-0.333294936917,-0.126938351146,-0.331553646976
2400000000.0,-0.136645968954,-0.342083916555,0.863320569293,-0.343901324921,0.863320569293,-0.343901324921,-0.136645968954,-0.342083916555
2500000000.0,-0.146536611753,-0.352215070751,0.853429727052,-0.354108639054,0.853429727052,-0.354108639054,-0.146536611753,-0.352215070751
2600000000.0,-0.156590246369,-0.361946739596,0.843375887436,-0.363916509872,0.843375887436,-0.363916509872,-0.156590246369,-0.361946739596
2700000000.0,-0.166787321033,-0.371279667487,0.833178602157,-0.373325682259,0.833178602157,-0.373325682259,-0.166787321033,-0.371279667487
2800000000.0,-0.177108825732,-0.380215644618,0.822856881177,-0.382337946861,0.822856881177,-0.382337946861,-0.177108825732,-0.380215644618
2900000000.0,-0.187536344666,-0.388757436264,0.812429140246,-0.390956069367,0.812429140246,-0.390956069367,-0.187536344666,-0.388757436264
3000000000.0,-0.198052100976,-0.396908710725,0.801913156181,-0.399183718461,0.801913156181,-0.399183718461,-0.198052100976,-0.396908710725
3100000000.0,-0.208638993984,-0.404673966731,0.791326029617,-0.407025393222,0.791326029617,-0.407025393222,-0.208638993984,-0.404673966731
3200000000.0,-0.219280629272,-0.412058460975,0.780684154935,-0.414486350666,0.780684154935,-0.414486350666,-0.219280629272,-0.412058460975
3300000000.0,-0.22996134196,-0.419068136441,0.770003196979,-0.421572534068,0.770003196979,-0.421572534068,-0.22996134196,-0.419068136441
3400000000.0,-0.240666213587,-0.425709552051,0.759298074178,-0.428290502617,0.759298074178,-0.428290502617,-0.240666213587,-0.425709552051
3500000000.0,-0.251381083042,-0.431989814141,0.74858294761,-0.434647362884,0.74858294761,-0.434647362884,-0.251381083042,-0.431989814141
3600000000.0,-0.262092552013,-0.437916510162,0.737871215559,-0.440650702537,0.737871215559,-0.440650702537,-0.262092552013,-0.437916510162
3700000000.0,-0.272787985409,-0.443497644961,0.727175513086,-0.446308526611,0.727175513086,-0.446308526611,-0.272787985409,-0.443497644961
3800000000.0,-0.283455507255,-0.448741579917,0.716507716142,-0.451629196654,0.716507716142,-0.451629196654,-0.283455507255,-0.448741579917
3900000000.0,-0.294083992517,-0.453656975146,0.705878949735,-0.456621372926,0.705878949735,-0.456621372926,-0.294083992517,-0.453656975146
4000000000.0,-0.304663055331,-0.458252734944,0.695299599705,-0.461293959849,0.695299599705,-0.461293959849,-0.304663055331,-0.458252734944
4100000000.0,-0.31518303409,-0.462537956563,0.684779327634,-0.465656054781,0.684779327634,-0.465656054781,-0.31518303409,-0.462537956563
4200000000.0,-0.325634973815,-0.466521882398,0.674327088484,-0.469716900202,0.674327088484,-0.469716900202,-0.325634973815,-0.466521882398
4300000000.0,-0.336010606213,-0.470213855589,0.663951150524,-0.473485839324,0.663951150524,-0.473485839324,-0.336010606213,-0.470213855589
4400000000.0,-0.346302327836,-0.473623279034,0.653659117183,-0.476972275093,0.653659117183,-0.476972275093,-0.346302327836,-0.473623279034
4500000000.0,-0.356503176662,-0.476759577752,0.643457950463,-0.480185632568,0.643457950463,-0.480185632568,-0.356503176662,-0.476759577752
4600000000.0,-0.366606807469,-0.479632164537,0.633353995567,-0.48313532456,0.633353995567,-0.48313532456,-0.366606807469,-0.479632164537
4700000000.0,-0.376607466275,-0.482250408786,0.623353006461,-0.485830720476,0.623353006461,-0.485830720476,-0.376607466275,-0.482250408786
4800000000.0,-0.386499964145,-0.484623608402,0.613460172061,-0.488281118208,0.613460172061,-0.488281118208,-0.386499964145,-0.484623608402
4900000000.0,-0.396279650599,-0.486760964631,0.60368014283,-0.490495718982,0.60368014283,-0.490495718982,-0.396279650599,-0.486760964631
5000000000.0,-0.405942386857,-0.488671559691,0.594017057534,-0.492483604984,0.594017057534,-0.492483604984,-0.405942386857,-0.488671559691
5100000000.0,-0.415484519104,-0.490364337058,0.584474569969,-0.494253719643,0.584474569969,-0.494253719643,-0.415484519104,-0.490364337058
5200000000.0,-0.424902851967,-0.491848084232,0.575055875495,-0.495814850403,0.575055875495,-0.495814850403,-0.424902851967,-0.491848084232
5300000000.0,-0.434194622339,-0.493131417841,0.565763737203,-0.497175613828,0.565763737203,-0.497175613828,-0.434194622339,-0.493131417841
5400000000.0,-0.443357473683,-0.49422277093,0.556600511617,-0.498344442883,0.556600511617,-0.498344442883,-0.443357473683,-0.49422277093
5500000000.0,-0.452389430932,-0.495130382256,0.547568173788,-0.49932957624,0.547568173788,-0.49932957624,-0.452389430932,-0.495130382256
5600000000.0,-0.461288876069,-0.495862287461,0.538668341721,-0.500139049446,0.538668341721,-0.500139049446,-0.461288876069,-0.495862287461
5700000000.0,-0.470054524459,-0.496426311952,0.529902300036,-0.500780687805,0.529902300036,-0.500780687805,-0.470054524459,-0.496426311952
5800000000.0,-0.478685402003,-0.49683006536,0.521271022821,-0.501262100838,0.521271022821,-0.501262100838,-0.478685402003,-0.49683006536
5900000000.0,-0.487180823144,-0.497080937424,0.512775195617,-0.501590678163,0.512775195617,-0.501590678163,-0.487180823144,-0.497080937424
6000000000.0,-0.495540369772,-0.497186095179,0.504415236524,-0.501773586691,0.504415236524,-0.501773586691,-0.495540369772,-0.497186095179
6100000000.0,-0.503763871039,-0.497152481306,0.496191316375,-0.501817768971,0.496191316375,-0.501817768971,-0.503763871039,-0.497152481306
6200000000.0,-0.511851384108,-0.496986813547,0.488103377999,-0.501729942607,0.488103377999,-0.501729942607,-0.511851384108,-0.496986813547
6300000000.0,-0.519803175821,-0.496695585051,0.480151154539,-0.501516600604,0.480151154539,-0.501516600604,-0.519803175821,-0.496695585051
6400000000.0,-0.527619705312,-0.496285065557,0.472334186851,-0.501184012553,0.472334186851,-0.501184012553,-0.527619705312,-0.496285065557
6500000000.0,-0.535301607523,-0.495761303314,0.46465183998,-0.500738226548,0.46465183998,-0.500738226548,-0.535301607523,-0.495761303314
6600000000.0,-0.542849677637,-0.495130127649,0.457103318733,-0.50018507176,0.457103318733,-0.50018507176,-0.542849677637,-0.495130127649
6700000000.0,-0.550264856388,-0.494397152094,0.449687682364,-0.499530161557,0.449687682364,-0.499530161557,-0.550264856388,-0.494397152094
6800000000.0,-0.557548216238,-0.493567777999,0.442403858402,-0.498778897123,0.442403858402,-0.498778897123,-0.557548216238,-0.493567777999
6900000000.0,-0.56470094839,-0.492647198558,0.435250655632,-0.497936471482,0.435250655632,-0.497936471482,-0.56470094839,-0.492647198558
7000000000.0,-0.571724350611,-0.491640403182,0.428226776277,-0.497007873873,0.428226776277,-0.497007873873,-0.571724350611,-0.491640403182
7100000000.0,-0.578619815834,-0.490552182166,0.421330827394,-0.495997894415,0.421330827394,-0.495997894415,-0.578619815834,-0.490552182166
7200000000.0,-0.585388821509,-0.489387131589,0.414561331522,-0.494911129007,0.414561331522,-0.494911129007,-0.585388821509,-0.489387131589
7300000000.0,-0.592032919676,-0.488149658397,0.407916736612,-0.493751984417,0.407916736612,-0.493751984417,-0.592032919676,-0.488149658397
7400000000.0,-0.598553727714,-0.48684398564,0.401395425274,-0.492524683511,0.401395425274,-0.492524683511,-0.598553727714,-0.48684398564
7500000000.0,-0.604952919751,-0.485474157803,0.394995723372,-0.491233270588,0.394995723372,-0.491233270588,-0.604952919751,-0.485474157803
7600000000.0,-0.611232218688,-0.484044046213,0.388715907994,-0.48988161679,0.388715907994,-0.48988161679,-0.611232218688,-0.484044046213
7700000000.0,-0.61739338882,-0.482557354481,0.382554214836,-0.48847342554,0.382554214836,-0.48847342554,-0.61739338882,-0.482557354481
7800000000.0,-0.623438229003,-0.481017623958,0.376508845032,-0.487012237999,0.376508845032,-0.487012237999,-0.623438229003,-0.481017623958
7900000000.0,-0.629368566357,-0.479428239172,0.370577971453,-0.485501438507,0.370577971453,-0.485501438507,-0.629368566357,-0.479428239172
8000000000.0,-0.635186250461,-0.477792433241,0.364759744513,-0.48394425999,0.364759744513,-0.48394425999,-0.635186250461,-0.477792433241
8100000000.0,-0.640893148012,-0.476113293217,0.359052297503,-0.482343789308,0.359052297503,-0.482343789308,-0.640893148012,-0.476113293217
8200000000.0,-0.646491137932,-0.474393765376,0.353453751494,-0.480702972548,0.353453751494,-0.480702972548,-0.646491137932,-0.474393765376
8300000000.0,-0.651982106879,-0.472636660418,0.347962219818,-0.479024620215,0.347962219818,-0.479024620215,-0.651982106879,-0.472636660418
8400000000.0,-0.65736794515,-0.470844658572,0.342575812172,-0.477311412348,0.342575812172,-0.477311412348,-0.65736794515,-0.470844658572
8500000000.0,-0.662650542938,-0.469020314599,0.337292638351,-0.475565903515,0.337292638351,-0.475565903515,-0.662650542938,-0.469020314599
8600000000.0,-0.667831786938,-0.467166062682,0.332110811654,-0.473790527707,0.332110811654,-0.473790527707,-0.667831786938,-0.467166062682
8700000000.0,-0.672913557258,-0.465284221199,0.327028451963,-0.471987603112,0.327028451963,-0.471987603112,-0.672913557258,-0.465284221199
8800000000.0,-0.677897724629,-0.463376997369,0.322043688539,-0.470159336756,0.322043688539,-0.470159336756,-0.677897724629,-0.463376997369
8900000000.0,-0.682786147887,-0.461446491771,0.317154662538,-0.468307829031,0.317154662538,-0.468307829031,-0.682786147887,-0.461446491771
9000000000.0,-0.68758067171,-0.459494702736,0.312359529274,-0.466435078075,0.312359529274,-0.466435078075,-0.68758067171,-0.459494702736
9100000000.0,-0.69228312459,-0.4575235306,0.307656460247,-0.464542984037,0.307656460247,-0.464542984037,-0.69228312459,-0.4575235306
9200000000.0,-0.696895317024,-0.455534781827,0.303043644951,-0.462633353193,0.303043644951,-0.462633353193,-0.696895317024,-0.455534781827
9300000000.0,-0.701419039908,-0.453530172997,0.298519292484,-0.460707901938,0.298519292484,-0.460707901938,-0.701419039908,-0.453530172997
9400000000.0,-0.70585606312,-0.451511334663,0.294081632958,-0.458768260636,0.294081632958,-0.458768260636,-0.70585606312,-0.451511334663
9500000000.0,-0.710208134273,-0.449479815066,0.289728918753,-0.456815977347,0.289728918753,-0.456815977347,-0.710208134273,-0.449479815066
9600000000.0,-0.71447697763,-0.447437083729,0.285459425598,-0.45485252141,0.285459425598,-0.45485252141,-0.71447697763,-0.447437083729
9700000000.0,-0.718664293167,-0.445384534913,0.281271453512,-0.452879286905,0.281271453512,-0.452879286905,-0.718664293167,-0.445384534913
9800000000.0,-0.722771755766,-0.443323490951,0.277163327601,-0.450897595983,0.277163327601,-0.450897595983,-0.722771755766,-0.443323490951
9900000000.0,-0.726801014543,-0.44125520545,0.273133398744,-0.448908702075,0.273133398744,-0.448908702075,-0.726801014543,-0.44125520545
10000000000.0,-0.730753692281,-0.439180866373,0.26918004415,-0.446913792968,0.26918004415,-0.446913792968,-0.730753692281,-0.439180866373
