freq (GHz),S11_real,S11_imag,S21_real,S21_imag,S12_real,S12_imag,S22_real,S22_imag
100000000.0,-0.00405905315346,-0.0631168859592,0.995918156022,-0.0632231599936,0.995918156022,-0.0632231599936,-0.00405905315346,-0.0631168859592
200000000.0,-0.0159471950894,-0.124710095245,0.98402984123,-0.124922679516,0.98402984123,-0.124922679516,-0.0159471950894,-0.124710095245
300000000.0,-0.0350968193313,-0.183395254861,0.964880071882,-0.183714203948,0.964880071882,-0.183714203948,-0.0350968193313,-0.183395254861
400000000.0,-0.0606551243742,-0.238006362908,0.939321629884,-0.238431745075,0.939321629884,-0.238431745075,-0.0606551243742,-0.238006362908
500000000.0,-0.091563549701,-0.287660461432,0.908413068225,-0.288192356053,0.908413068225,-0.288192356053,-0.091563549701,-0.287660461432
600000000.0,-0.126658009984,-0.331784359413,0.8733184684,-0.33242285514,0.8733184684,-0.33242285514,-0.126658009984,-0.331784359413
700000000.0,-0.164763376549,-0.370105790702,0.835212956813,-0.370850984038,0.835212956813,-0.370850984038,-0.164763376549,-0.370105790702
800000000.0,-0.204770690622,-0.402617408985,0.795205490763,-0.403469403102,0.795205490763,-0.403469403102,-0.204770690622,-0.402617408985
900000000.0,-0.245691342193,-0.429524600107,0.754284679232,-0.430483503841,0.754284679232,-0.430483503841,-0.245691342193,-0.429524600107
1000000000.0,-0.286687745995,-0.451187649973,0.713288106736,-0.452253576952,0.713288106736,-0.452253576952,-0.286687745995,-0.451187649973
1100000000.0,-0.327083747779,-0.468066449393,0.672891926951,-0.469239517267,0.672891926951,-0.469239517267,-0.327083747779,-0.468066449393
1200000000.0,-0.366359823575,-0.48067287469,0.633615663395,-0.481953204453,0.633615663395,-0.481953204453,-0.366359823575,-0.48067287469
1300000000.0,-0.40413841855,-0.489533174701,0.595836870541,-0.490920890088,0.595836870541,-0.490920890088,-0.40413841855,-0.489533174701
1400000000.0,-0.440164081406,-0.495160593759,0.559810999387,-0.496655820704,0.559810999387,-0.496655820704,-0.440164081406,-0.495160593759
1500000000.0,-0.474281929105,-0.498037165612,0.525692932715,-0.499640031765,0.525692932715,-0.499640031765,-0.474281929105,-0.498037165612
1600000000.0,-0.506416813044,-0.498603003028,0.493557818915,-0.500313637329,0.493557818915,-0.500313637329,-0.506416813044,-0.498603003028
1700000000.0,-0.536554565227,-0.497251277705,0.463419825795,-0.499069809998,0.463419825795,-0.499069809998,-0.536554565227,-0.497251277705
1800000000.0,-0.564725959455,-0.494327237029,0.435248179388,-0.49625379772,0.435248179388,-0.49625379772,-0.564725959455,-0.494327237029
1900000000.0,-0.590993523031,-0.490129886,0.408980352246,-0.492164605756,0.408980352246,-0.492164605756,-0.590993523031,-0.490129886
2000000000.0,-0.615441035152,-0.484915275047,0.384532565039,-0.487058284528,0.384532565039,-0.487058284528,-0.615441035152,-0.484915275047
2100000000.0,-0.63816539502,-0.478900622607,0.361807918448,-0.481152052232,0.361807918448,-0.481152052232,-0.63816539502,-0.478900622607
2200000000.0,-0.659270486551,-0.472268741062,0.340702528445,-0.474628720797,0.340702528445,-0.474628720797,-0.659270486551,-0.472268741062
2300000000.0,-0.678862669031,-0.46517242077,0.321110035647,-0.467641079954,0.321110035647,-0.467641079954,-0.678862669031,-0.46517242077
2400000000.0,-0.697047556719,-0.457738563864,0.302924825704,-0.460316031049,0.302924825704,-0.460316031049,-0.697047556719,-0.457738563864
2500000000.0,-0.713927797644,-0.450071955651,0.286044250499,-0.452758358471,0.286044250499,-0.452758358471,-0.713927797644,-0.450071955651
2600000000.0,-0.729601611755,-0.442258626113,0.270370090005,-0.445054091167,0.270370090005,-0.445054091167,-0.729601611755,-0.442258626113
2700000000.0,-0.744161895495,-0.434368795323,0.255809447703,-0.437273448083,0.255809447703,-0.437273448083,-0.744161895495,-0.434368795323
2800000000.0,-0.757695740955,-0.426459421421,0.242275231433,-0.429473386152,0.242275231433,-0.429473386152,-0.757695740955,-0.426459421421
2900000000.0,-0.770284252257,-0.418576383348,0.229686337007,-0.421699783043,0.229686337007,-0.421699783043,-0.770284252257,-0.418576383348
3000000000.0,-0.78200256985,-0.410756336651,0.217967623913,-0.413989292981,0.217967623913,-0.413989292981,-0.78200256985,-0.410756336651
3100000000.0,-0.792920035706,-0.40302828208,0.207049750119,-0.406370915357,0.207049750119,-0.406370915357,-0.792920035706,-0.40302828208
3200000000.0,-0.803100449779,-0.395414885366,0.196868915615,-0.398867314514,0.196868915615,-0.398867314514,-0.803100449779,-0.395414885366
3300000000.0,-0.812602381533,-0.387933583618,0.187366550883,-0.391495926156,0.187366550883,-0.391495926156,-0.812602381533,-0.387933583618
3400000000.0,-0.821479510481,-0.380597510185,0.178488976358,-0.384269882219,0.178488976358,-0.384269882219,-0.821479510481,-0.380597510185
3500000000.0,-0.829780977372,-0.373416265982,0.17018705124,-0.377198782202,0.17018705124,-0.377198782202,-0.829780977372,-0.373416265982
3600000000.0,-0.83755173336,-0.366396561571,0.16241582433,-0.37028933526,0.16241582433,-0.37028933526,-0.83755173336,-0.366396561571
3700000000.0,-0.844832878677,-0.359542750815,0.155134195348,-0.36354589386,0.155134195348,-0.36354589386,-0.844832878677,-0.359542750815
3800000000.0,-0.851661985432,-0.352857273825,0.148304592143,-0.356970896731,0.148304592143,-0.356970896731,-0.851661985432,-0.352857273825
3900000000.0,-0.858073401323,-0.346341024168,0.141892666971,-0.350565236085,0.141892666971,-0.350565236085,-0.858073401323,-0.346341024168
4000000000.0,-0.86409853267,-0.339993652949,0.135867013473,-0.344328561696,0.135867013473,-0.344328561696,-0.86409853267,-0.339993652949
4100000000.0,-0.869766106222,-0.33381382032,0.130198904859,-0.338259532416,0.130198904859,-0.338259532416,-0.869766106222,-0.33381382032
4200000000.0,-0.875102409985,-0.327799403262,0.124862053084,-0.332356023956,0.124862053084,-0.332356023956,-0.875102409985,-0.327799403262
4300000000.0,-0.880131513768,-0.321947667,0.119832388299,-0.32661530031,0.119832388299,-0.32661530031,-0.880131513768,-0.321947667
4400000000.0,-0.884875470495,-0.316255406213,0.115087857546,-0.321034154961,0.115087857546,-0.321034154961,-0.884875470495,-0.316255406213
4500000000.0,-0.889354499462,-0.310719061135,0.110608241491,-0.315609026988,0.110608241491,-0.315609026988,-0.889354499462,-0.310719061135
4600000000.0,-0.893587152851,-0.305334812817,0.106374987916,-0.310336096327,0.106374987916,-0.310336096327,-0.893587152851,-0.305334812817
4700000000.0,-0.897590466794,-0.300098661081,0.102371060655,-0.305211361728,0.102371060655,-0.305211361728,-0.897590466794,-0.300098661081
4800000000.0,-0.901380098279,-0.295006488108,0.0985808026849,-0.300230704343,0.0985808026849,-0.300230704343,-0.901380098279,-0.295006488108
4900000000.0,-0.904970449133,-0.290054110117,0.0949898121449,-0.295389939404,0.0949898121449,-0.295389939404,-0.904970449133,-0.290054110117
5000000000.0,-0.908374778256,-0.285237319147,0.0915848301034,-0.290684858009,0.0915848301034,-0.290684858009,-0.908374778256,-0.285237319147
5100000000.0,-0.91160530318,-0.280551916657,0.0883536389951,-0.286111260719,0.0883536389951,-0.286111260719,-0.91160530318,-0.280551916657
5200000000.0,-0.914673291981,-0.275993740334,0.0852849707103,-0.281664984369,0.0852849707103,-0.281664984369,-0.914673291981,-0.275993740334
5300000000.0,-0.917589146464,-0.271558685286,0.082368423414,-0.277341923258,0.082368423414,-0.277341923258,-0.917589146464,-0.271558685286
5400000000.0,-0.920362477458,-0.267242720597,0.079594386245,-0.273138045704,0.079594386245,-0.273138045704,-0.920362477458,-0.267242720597
5500000000.0,-0.923002173006,-0.263041902037,0.0769539711276,-0.26904940676,0.0769539711276,-0.26904940676,-0.923002173006,-0.263041902037
5600000000.0,-0.925516460147,-0.258952381632,0.0744389509944,-0.265072157774,0.0744389509944,-0.265072157774,-0.925516460147,-0.258952381632
5700000000.0,-0.927912960904,-0.254970414624,0.0720417037895,-0.261202553352,0.0720417037895,-0.261202553352,-0.927912960904,-0.254970414624
5800000000.0,-0.930198743077,-0.251092364305,0.0697551616826,-0.257436956198,0.0697551616826,-0.257436956198,-0.930198743077,-0.251092364305
5900000000.0,-0.932380366331,-0.247314705119,0.0675727649781,-0.253771840204,0.0675727649781,-0.253771840204,-0.932380366331,-0.247314705119
6000000000.0,-0.934463924053,-0.243634024334,0.0654884202589,-0.250203792132,0.0654884202589,-0.250203792132,-0.934463924053,-0.243634024334
6100000000.0,-0.936455081391,-0.240047022586,0.063496462347,-0.246729512148,0.063496462347,-0.246729512148,-0.936455081391,-0.240047022586
6200000000.0,-0.938359109848,-0.23655051348,0.0615916197084,-0.24334581343,0.0615916197084,-0.24334581343,-0.938359109848,-0.23655051348
6300000000.0,-0.940180918772,-0.233141422471,0.0597689829654,-0.240049621045,0.0597689829654,-0.240049621045,-0.940180918772,-0.233141422471
6400000000.0,-0.941925084034,-0.229816785156,0.0580239762153,-0.236837970236,0.0580239762153,-0.236837970236,-0.941925084034,-0.229816785156
6500000000.0,-0.943595874178,-0.226573745108,0.0563523308849,-0.233708004266,0.0563523308849,-0.233708004266,-0.943595874178,-0.226573745108
6600000000.0,-0.945197274272,-0.223409551375,0.0547500618758,-0.230656971904,0.0547500618758,-0.230656971904,-0.945197274272,-0.223409551375
6700000000.0,-0.946733007691,-0.220321555704,0.0532134457832,-0.227682224654,0.0532134457832,-0.227682224654,-0.946733007691,-0.220321555704
6800000000.0,-0.948206556018,-0.217307209584,0.0517390009917,-0.2247812138,0.0517390009917,-0.2247812138,-0.948206556018,-0.217307209584
6900000000.0,-0.949621177254,-0.214364061161,0.0503234694702,-0.221951487314,0.0503234694702,-0.221951487314,-0.949621177254,-0.214364061161
7000000000.0,-0.95097992248,-0.211489752069,0.0489638001079,-0.219190686691,0.0489638001079,-0.219190686691,-0.95097992248,-0.211489752069
7100000000.0,-0.952285651121,-0.208682014222,0.0476571334486,-0.216496543737,0.0476571334486,-0.216496543737,-0.952285651121,-0.208682014222
7200000000.0,-0.953541044944,-0.205938666598,0.0464007876933,-0.213866877353,0.0464007876933,-0.213866877353,-0.953541044944,-0.205938666598
7300000000.0,-0.954748620904,-0.203257612034,0.0451922458564,-0.21129959033,0.0451922458564,-0.21129959033,-0.954748620904,-0.203257612034
7400000000.0,-0.955910742938,-0.200636834066,0.0440291439696,-0.20879266619,0.0440291439696,-0.20879266619,-0.955910742938,-0.200636834066
7500000000.0,-0.957029632805,-0.19807439382,0.0429092602407,-0.206344166071,0.0429092602407,-0.206344166071,-0.957029632805,-0.19807439382
7600000000.0,-0.958107380064,-0.195568426967,0.0418305050808,-0.203952225684,0.0418305050808,-0.203952225684,-0.958107380064,-0.195568426967
7700000000.0,-0.959145951249,-0.193117140755,0.0407909119228,-0.201615052345,0.0407909119228,-0.201615052345,-0.959145951249,-0.193117140755
7800000000.0,-0.960147198331,-0.190718811124,0.0397886287634,-0.199330922091,0.0397886287634,-0.199330922091,-0.960147198331,-0.190718811124
7900000000.0,-0.961112866516,-0.188371779912,0.0388219103635,-0.197098176881,0.0388219103635,-0.197098176881,-0.961112866516,-0.188371779912
8000000000.0,-0.962044601444,-0.186074452151,0.0378891110515,-0.194915221891,0.0378891110515,-0.194915221891,-0.962044601444,-0.186074452151
8100000000.0,-0.96294395583,-0.183825293451,0.036988678077,-0.192780522903,0.036988678077,-0.192780522903,-0.96294395583,-0.183825293451
8200000000.0,-0.963812395613,-0.181622827488,0.0361191454693,-0.190692603787,0.0361191454693,-0.190692603787,-0.963812395613,-0.181622827488
8300000000.0,-0.96465130563,-0.179465633583,0.0352791283562,-0.188650044081,0.0352791283562,-0.188650044081,-0.96465130563,-0.179465633583
8400000000.0,-0.965461994879,-0.177352344371,0.0344673177069,-0.18665147666,0.0344673177069,-0.18665147666,-0.965461994879,-0.177352344371
8500000000.0,-0.966245701385,-0.175281643567,0.0336824754621,-0.184695585502,0.0336824754621,-0.184695585502,-0.966245701385,-0.175281643567
8600000000.0,-0.967003596713,-0.173252263826,0.0329234300205,-0.182781103542,0.0329234300205,-0.182781103542,-0.967003596713,-0.173252263826
8700000000.0,-0.967736790158,-0.171262984681,0.0321890720525,-0.18090681062,0.0321890720525,-0.18090681062,-0.967736790158,-0.171262984681
8800000000.0,-0.96844633263,-0.169312630582,0.0314783506137,-0.179071531506,0.0314783506137,-0.179071531506,-0.96844633263,-0.169312630582
8900000000.0,-0.969133220259,-0.167400069006,0.0307902695363,-0.177274134021,0.0307902695363,-0.177274134021,-0.969133220259,-0.167400069006
9000000000.0,-0.969798397758,-0.165524208655,0.0301238840738,-0.175513527229,0.0301238840738,-0.175513527229,-0.969798397758,-0.165524208655
9100000000.0,-0.970442761533,-0.163683997733,0.0294782977809,-0.173788659714,0.0294782977809,-0.173788659714,-0.970442761533,-0.163683997733
9200000000.0,-0.971067162597,-0.161878422294,0.0288526596096,-0.172098517928,0.0288526596096,-0.172098517928,-0.971067162597,-0.161878422294
9300000000.0,-0.971672409267,-0.160106504668,0.0282461612046,-0.170442124617,0.0282461612046,-0.170442124617,-0.971672409267,-0.160106504668
9400000000.0,-0.972259269688,-0.158367301953,0.027658034383,-0.168818537311,0.027658034383,-0.168818537311,-0.972259269688,-0.158367301953
9500000000.0,-0.972828474184,-0.156659904576,0.0270875487839,-0.167226846884,0.0270875487839,-0.167226846884,-0.972828474184,-0.156659904576
9600000000.0,-0.973380717447,-0.154983434917,0.0265340096755,-0.165666176182,0.0265340096755,-0.165666176182,-0.973380717447,-0.154983434917
9700000000.0,-0.97391666059,-0.153337045994,0.0259967559077,-0.164135678704,0.0259967559077,-0.164135678704,-0.97391666059,-0.153337045994
9800000000.0,-0.974436933052,-0.151719920213,0.0254751579991,-0.162634537349,0.0254751579991,-0.162634537349,-0.974436933052,-0.151719920213
9900000000.0,-0.974942134397,-0.150131268161,0.0249686163492,-0.161161963216,0.0249686163492,-0.161161963216,-0.974942134397,-0.150131268161
10000000000.0,-0.975432835975,-0.14857032747,0.0244765595657,-0.159717194461,0.0244765595657,-0.159717194461,-0.975432835975,-0.14857032747
