freq (GHz),S11_real,S11_imag,S21_real,S21_imag,S12_real,S12_imag,S22_real,S22_imag
100000000.0,0.00179645957786,0.000719222566045,0.998197162245,-0.00319556943764,0.998197162245,-0.00319556943764,0.00179645957786,0.000719222566045
200000000.0,0.00181422910189,0.00143832123094,0.998167878272,-0.00639103371045,0.998167878272,-0.00639103371045,0.00181422910189,0.00143832123094
300000000.0,0.00183345603642,0.0021573003598,0.998131000121,-0.00958640730724,0.998131000121,-0.00958640730724,0.00183345603642,0.0021573003598
400000000.0,0.00185569434545,0.00287614063331,0.998084973183,-0.0127816761346,0.998084973183,-0.0127816761346,0.00185569434545,0.00287614063331
500000000.0,0.0018815413953,0.0035948174942,0.998029199322,-0.0159768183696,0.998029199322,-0.0159768183696,0.0018815413953,0.0035948174942
600000000.0,0.00191130099226,0.00431330418708,0.997963373855,-0.0191718083481,0.997963373855,-0.0191718083481,0.00191130099226,0.00431330418708
700000000.0,0.00194515185182,0.00503157282756,0.997887317085,-0.022366618068,0.997887317085,-0.022366618068,0.00194515185182,0.00503157282756
800000000.0,0.00198320905569,0.00574959488742,0.997800912864,-0.0255612179344,0.997800912864,-0.0255612179344,0.00198320905569,0.00574959488742
900000000.0,0.00202555140284,0.00646734144917,0.997704081239,-0.0287555771867,0.997704081239,-0.0287555771867,0.00202555140284,0.00646734144917
1000000000.0,0.00207223526669,0.00718478335338,0.997596764607,-0.0319496641677,0.997596764607,-0.0319496641677,0.00207223526669,0.00718478335338
1100000000.0,0.00212330229461,0.00790189128957,0.997478920018,-0.0351434465043,0.997478920018,-0.0351434465043,0.00212330229461,0.00790189128957
1200000000.0,0.00217878399383,0.0086186358558,0.997350514597,-0.0383368912361,0.997350514597,-0.0383368912361,0.00217878399383,0.0086186358558
1300000000.0,0.00223870461527,0.00933498759901,0.99721152266,-0.0415299649099,0.99721152266,-0.0415299649099,0.00223870461527,0.00933498759901
1400000000.0,0.00230308304843,0.0100509170432,0.997061923825,-0.0447226336524,0.997061923825,-0.0447226336524,0.00230308304843,0.0100509170432
1500000000.0,0.00237193411194,0.0107663947101,0.996901701725,-0.0479148632265,0.996901701725,-0.0479148632265,0.00237193411194,0.0107663947101
1600000000.0,0.00244526945981,0.0114813911339,0.996730843103,-0.0511066190768,0.996730843103,-0.0511066190768,0.00244526945981,0.0114813911339
1700000000.0,0.00252309823416,0.012195876873,0.996549337166,-0.0542978663669,0.996549337166,-0.0542978663669,0.00252309823416,0.012195876873
1800000000.0,0.00260542754614,0.0129098225185,0.996357175103,-0.0574885700096,0.996357175103,-0.0574885700096,0.00260542754614,0.0129098225185
1900000000.0,0.00269226283707,0.0136231987008,0.996154349726,-0.0606786946931,0.996154349726,-0.0606786946931,0.00269226283707,0.0136231987008
2000000000.0,0.00278360815437,0.0143359760953,0.995940855199,-0.0638682049032,0.995940855199,-0.0638682049032,0.00278360815437,0.0143359760953
2100000000.0,0.00287946636556,0.0150481254265,0.995716686827,-0.067057064942,0.995716686827,-0.067057064942,0.00287946636556,0.0150481254265
2200000000.0,0.00297983932655,0.0157596174713,0.995481840883,-0.0702452389449,0.995481840883,-0.0702452389449,0.00297983932655,0.0157596174713
2300000000.0,0.00308472801552,0.0164704230621,0.995236314485,-0.0734326908947,0.995236314485,-0.0734326908947,0.00308472801552,0.0164704230621
2400000000.0,0.0031941326407,0.0171805130892,0.994980105483,-0.0766193846349,0.994980105483,-0.0766193846349,0.0031941326407,0.0171805130892
2500000000.0,0.00330805272797,0.0178898585025,0.994713212377,-0.0798052838811,0.994713212377,-0.0798052838811,0.00330805272797,0.0178898585025
2600000000.0,0.00342648719272,0.0185984303134,0.994435634244,-0.0829903522313,0.994435634244,-0.0829903522313,0.00342648719272,0.0185984303134
2700000000.0,0.00354943439932,0.0193061995962,0.994147370683,-0.0861745531753,0.994147370683,-0.0861745531753,0.00354943439932,0.0193061995962
2800000000.0,0.00367689221065,0.0200131374895,0.993848421764,-0.0893578501034,0.993848421764,-0.0893578501034,0.00367689221065,0.0200131374895
2900000000.0,0.00380885802981,0.0207192151972,0.993538787992,-0.0925402063139,0.993538787992,-0.0925402063139,0.00380885802981,0.0207192151972
3000000000.0,0.00394532883531,0.0214244039896,0.993218470266,-0.0957215850204,0.993218470266,-0.0957215850204,0.00394532883531,0.0214244039896
3100000000.0,0.00408630121101,0.022128675204,0.992887469857,-0.0989019493587,0.992887469857,-0.0989019493587,0.00408630121101,0.022128675204
3200000000.0,0.00423177137184,0.0228320002462,0.992545788381,-0.102081262392,0.992545788381,-0.102081262392,0.00423177137184,0.0228320002462
3300000000.0,0.00438173518584,0.0235343505906,0.992193427778,-0.105259487118,0.992193427778,-0.105259487118,0.00438173518584,0.0235343505906
3400000000.0,0.00453618819333,0.0242356977813,0.991830390294,-0.108436586473,0.991830390294,-0.108436586473,0.00453618819333,0.0242356977813
3500000000.0,0.00469512562351,0.0249360134328,0.991456678465,-0.111612523338,0.991456678465,-0.111612523338,0.00469512562351,0.0249360134328
3600000000.0,0.004858542409,0.0256352692305,0.991072295105,-0.114787260541,0.991072295105,-0.114787260541,0.004858542409,0.0256352692305
3700000000.0,0.00502643319865,0.0263334369313,0.990677243291,-0.117960760865,0.990677243291,-0.117960760865,0.00502643319865,0.0263334369313
3800000000.0,0.00519879236876,0.0270304883646,0.990271526359,-0.121132987049,0.990271526359,-0.121132987049,0.00519879236876,0.0270304883646
3900000000.0,0.00537561403309,0.0277263954323,0.989855147888,-0.124303901794,0.989855147888,-0.124303901794,0.00537561403309,0.0277263954323
4000000000.0,0.00555689205172,0.02842113011,0.989428111694,-0.127473467766,0.989428111694,-0.127473467766,0.00555689205172,0.02842113011
4100000000.0,0.00574262003895,0.0291146644472,0.988990421827,-0.1306416476,0.988990421827,-0.1306416476,0.00574262003895,0.0291146644472
4200000000.0,0.00593279137047,0.029806970568,0.988542082559,-0.133808403901,0.988542082559,-0.133808403901,0.00593279137047,0.029806970568
4300000000.0,0.00612739918968,0.0304980206717,0.988083098383,-0.136973699251,0.988083098383,-0.136973699251,0.00612739918968,0.0304980206717
4400000000.0,0.00632643641351,0.0311877870331,0.987613474004,-0.140137496211,0.987613474004,-0.140137496211,0.00632643641351,0.0311877870331
4500000000.0,0.00652989573761,0.0318762420036,0.987133214337,-0.14329975732,0.987133214337,-0.14329975732,0.00652989573761,0.0318762420036
4600000000.0,0.00673776964116,0.0325633580112,0.986642324504,-0.146460445105,0.986642324504,-0.146460445105,0.00673776964116,0.0325633580112
4700000000.0,0.00695005039115,0.0332491075616,0.986140809827,-0.149619522078,0.986140809827,-0.149619522078,0.00695005039115,0.0332491075616
4800000000.0,0.0071667300464,0.0339334632382,0.985628675828,-0.152776950742,0.985628675828,-0.152776950742,0.0071667300464,0.0339334632382
4900000000.0,0.00738780046118,0.0346163977033,0.985105928223,-0.155932693589,0.985105928223,-0.155932693589,0.00738780046118,0.0346163977033
5000000000.0,0.00761325328858,0.0352978836981,0.984572572922,-0.15908671311,0.984572572922,-0.15908671311,0.00761325328858,0.0352978836981
5100000000.0,0.00784307998363,0.0359778940437,0.984028616025,-0.16223897179,0.984028616025,-0.16223897179,0.00784307998363,0.0359778940437
5200000000.0,0.00807727180617,0.0366564016413,0.983474063821,-0.165389432115,0.983474063821,-0.165389432115,0.00807727180617,0.0366564016413
5300000000.0,0.00831581982353,0.0373333794731,0.982908922783,-0.168538056572,0.982908922783,-0.168538056572,0.00831581982353,0.0373333794731
5400000000.0,0.00855871491303,0.0380088006029,0.982333199571,-0.171684807652,0.982333199571,-0.171684807652,0.00855871491303,0.0380088006029
5500000000.0,0.00880594776434,0.0386826381764,0.981746901023,-0.174829647852,0.981746901023,-0.174829647852,0.00880594776434,0.0386826381764
5600000000.0,0.00905750888162,0.0393548654221,0.981150034163,-0.177972539677,0.981150034163,-0.177972539677,0.00905750888162,0.0393548654221
5700000000.0,0.00931338858566,0.0400254556516,0.980542606189,-0.181113445644,0.980542606189,-0.181113445644,0.00931338858566,0.0400254556516
5800000000.0,0.00957357701577,0.0406943822605,0.97992462448,-0.184252328278,0.97992462448,-0.184252328278,0.00957357701577,0.0406943822605
5900000000.0,0.00983806413163,0.0413616187287,0.97929609659,-0.187389150121,0.97929609659,-0.187389150121,0.00983806413163,0.0413616187287
6000000000.0,0.0101068397151,0.0420271386214,0.978657030249,-0.190523873732,0.978657030249,-0.190523873732,0.0101068397151,0.0420271386214
6100000000.0,0.0103798933717,0.0426909155893,0.97800743336,-0.193656461684,0.97800743336,-0.193656461684,0.0103798933717,0.0426909155893
6200000000.0,0.0106572145325,0.0433529233695,0.977347313998,-0.196786876573,0.977347313998,-0.196786876573,0.0106572145325,0.0433529233695
6300000000.0,0.0109387924554,0.0440131357858,0.976676680411,-0.199915081013,0.976676680411,-0.199915081013,0.0109387924554,0.0440131357858
6400000000.0,0.0112246162266,0.0446715267498,0.975995541018,-0.203041037644,0.975995541018,-0.203041037644,0.0112246162266,0.0446715267498
6500000000.0,0.011514674762,0.0453280702611,0.975303904407,-0.20616470913,0.975303904407,-0.20616470913,0.011514674762,0.0453280702611
6600000000.0,0.0118089568088,0.0459827404081,0.974601779334,-0.209286058159,0.974601779334,-0.209286058159,0.0118089568088,0.0459827404081
6700000000.0,0.0121074509462,0.0466355113684,0.973889174724,-0.212405047449,0.973889174724,-0.212405047449,0.0121074509462,0.0466355113684
6800000000.0,0.0124101455873,0.04728635741,0.973166099669,-0.215521639748,0.973166099669,-0.215521639748,0.0124101455873,0.04728635741
6900000000.0,0.01271702898,0.0479352528912,0.972432563426,-0.218635797832,0.972432563426,-0.218635797832,0.01271702898,0.0479352528912
7000000000.0,0.0130280892082,0.0485821722618,0.971688575419,-0.221747484513,0.971688575419,-0.221747484513,0.0130280892082,0.0485821722618
7100000000.0,0.0133433141928,0.0492270900632,0.970934145235,-0.224856662635,0.970934145235,-0.224856662635,0.0133433141928,0.0492270900632
7200000000.0,0.0136626916931,0.0498699809298,0.970169282627,-0.227963295078,0.970169282627,-0.227963295078,0.0136626916931,0.0498699809298
7300000000.0,0.0139862093076,0.0505108195888,0.96939399751,-0.231067344759,0.96939399751,-0.231067344759,0.0139862093076,0.0505108195888
7400000000.0,0.0143138544755,0.0511495808613,0.96860829996,-0.234168774632,0.96860829996,-0.234168774632,0.0143138544755,0.0511495808613
7500000000.0,0.014645614477,0.051786239663,0.967812200218,-0.237267547693,0.967812200218,-0.237267547693,0.014645614477,0.051786239663
7600000000.0,0.014981476435,0.0524207710044,0.967005708683,-0.240363626978,0.967005708683,-0.240363626978,0.014981476435,0.0524207710044
7700000000.0,0.0153214273159,0.053053149992,0.966188835915,-0.243456975565,0.966188835915,-0.243456975565,0.0153214273159,0.053053149992
7800000000.0,0.0156654539304,0.0536833518286,0.965361592636,-0.246547556576,0.965361592636,-0.246547556576,0.0156654539304,0.0536833518286
7900000000.0,0.0160135429345,0.0543113518138,0.964523989724,-0.249635333178,0.964523989724,-0.249635333178,0.0160135429345,0.0543113518138
8000000000.0,0.0163656808307,0.054937125345,0.963676038218,-0.252720268585,0.963676038218,-0.252720268585,0.0163656808307,0.054937125345
8100000000.0,0.0167218539687,0.0555606479179,0.962817749312,-0.255802326058,0.962817749312,-0.255802326058,0.0167218539687,0.0555606479179
8200000000.0,0.0170820485464,0.0561818951271,0.96194913436,-0.258881468906,0.96194913436,-0.258881468906,0.0170820485464,0.0561818951271
8300000000.0,0.0174462506106,0.0568008426666,0.961070204871,-0.261957660489,0.961070204871,-0.261957660489,0.0174462506106,0.0568008426666
8400000000.0,0.0178144460583,0.0574174663309,0.96018097251,-0.265030864219,0.96018097251,-0.265030864219,0.0178144460583,0.0574174663309
8500000000.0,0.0181866206374,0.058031742015,0.959281449098,-0.268101043559,0.959281449098,-0.268101043559,0.0181866206374,0.058031742015
8600000000.0,0.0185627599474,0.0586436457156,0.958371646609,-0.271168162025,0.958371646609,-0.271168162025,0.0185627599474,0.0586436457156
8700000000.0,0.0189428494406,0.0592531535314,0.957451577173,-0.274232183192,0.957451577173,-0.274232183192,0.0189428494406,0.0592531535314
8800000000.0,0.0193268744227,0.0598602416638,0.956521253073,-0.277293070685,0.956521253073,-0.277293070685,0.0193268744227,0.0598602416638
8900000000.0,0.0197148200537,0.0604648864178,0.955580686743,-0.28035078819,0.955580686743,-0.28035078819,0.0197148200537,0.0604648864178
9000000000.0,0.0201066713491,0.061067064202,0.954629890771,-0.283405299449,0.954629890771,-0.283405299449,0.0201066713491,0.061067064202
9100000000.0,0.0205024131801,0.0616667515301,0.953668877898,-0.286456568266,0.953668877898,-0.286456568266,0.0205024131801,0.0616667515301
9200000000.0,0.0209020302751,0.0622639250207,0.952697661012,-0.289504558502,0.952697661012,-0.289504558502,0.0209020302751,0.0622639250207
9300000000.0,0.0213055072201,0.0628585613985,0.951716253155,-0.292549234082,0.951716253155,-0.292549234082,0.0213055072201,0.0628585613985
9400000000.0,0.0217128284598,0.0634506374947,0.950724667517,-0.295590558992,0.950724667517,-0.295590558992,0.0217128284598,0.0634506374947
9500000000.0,0.0221239782982,0.0640401302476,0.949722917438,-0.298628497282,0.949722917438,-0.298628497282,0.0221239782982,0.0640401302476
9600000000.0,0.0225389408997,0.0646270167034,0.948711016406,-0.301663013065,0.948711016406,-0.301663013065,0.0225389408997,0.0646270167034
9700000000.0,0.0229577002896,0.0652112740165,0.947688978057,-0.304694070522,0.947688978057,-0.304694070522,0.0229577002896,0.0652112740165
9800000000.0,0.0233802403554,0.0657928794506,0.946656816175,-0.307721633898,0.946656816175,-0.307721633898,0.0233802403554,0.0657928794506
9900000000.0,0.0238065448469,0.0663718103787,0.945614544689,-0.310745667508,0.945614544689,-0.310745667508,0.0238065448469,0.0663718103787
10000000000.0,0.024236597378,0.0669480442843,0.944562177677,-0.313766135734,0.944562177677,-0.313766135734,0.024236597378,0.0669480442843
