freq (GHz),S11_real,S11_imag,S21_real,S21_imag,S12_real,S12_imag,S22_real,S22_imag
100000000.0,0.00252502941195,-0.00162806323968,0.997439191198,-0.00580355827434,0.997439191198,-0.00580355827434,0.00252502941195,-0.00162806323968
200000000.0,0.00251013483634,-0.00325601980815,0.997364031344,-0.0116067063923,0.997364031344,-0.0116067063923,0.00251013483634,-0.00325601980815
300000000.0,0.00247192222605,-0.00488360228311,0.997256920956,-0.0174092573813,0.997256920956,-0.0174092573813,0.00247192222605,-0.00488360228311
400000000.0,0.00241259195129,-0.00651057633951,0.997115670974,-0.023210980709,0.997115670974,-0.023210980709,0.00241259195129,-0.00651057633951
500000000.0,0.0023329966946,-0.00813671433402,0.996939444958,-0.0290116340203,0.996939444958,-0.0290116340203,0.0023329966946,-0.00813671433402
600000000.0,0.00223357768965,-0.00976179123664,0.996727822935,-0.0348109691155,0.996727822935,-0.0348109691155,0.00223357768965,-0.00976179123664
700000000.0,0.00211460258408,-0.0113855832986,0.99648056359,-0.0406087342905,0.99648056359,-0.0406087342905,0.00211460258408,-0.0113855832986
800000000.0,0.00197625220723,-0.0130078675025,0.996197517547,-0.0464046755166,0.996197517547,-0.0464046755166,0.00197625220723,-0.0130078675025
900000000.0,0.0018186591858,-0.014628421311,0.995878588791,-0.0521985371323,0.995878588791,-0.0521985371323,0.0018186591858,-0.014628421311
1000000000.0,0.00164192750895,-0.0162470225485,0.995523715125,-0.0579900622918,0.995523715125,-0.0579900622918,0.00164192750895,-0.0162470225485
1100000000.0,0.00144614339994,-0.0178634493506,0.995132857327,-0.063778993278,0.995132857327,-0.063778993278,0.00144614339994,-0.0178634493506
1200000000.0,0.00123138179142,-0.0194774801498,0.994705992689,-0.0695650717344,0.994705992689,-0.0695650717344,0.00123138179142,-0.0194774801498
1300000000.0,0.000997710397376,-0.0210888936819,0.994243110959,-0.0753480388458,0.994243110959,-0.0753480388458,0.000997710397376,-0.0210888936819
1400000000.0,0.000745192387809,-0.022697469005,0.993744211676,-0.0811276354832,0.993744211676,-0.0811276354832,0.000745192387809,-0.022697469005
1500000000.0,0.000473888209702,-0.0243029855265,0.993209302353,-0.0869036023254,0.993209302353,-0.0869036023254,0.000473888209703,-0.0243029855265
1600000000.0,0.000183856864259,-0.0259052230349,0.992638397207,-0.0926756799627,0.992638397207,-0.0926756799627,0.000183856864259,-0.0259052230349
1700000000.0,-0.000124843174405,-0.0275039617346,0.992031516238,-0.0984436089871,0.992031516238,-0.0984436089871,-0.000124843174405,-0.0275039617346
1800000000.0,-0.000452153284161,-0.0290989822833,0.991388684554,-0.104207130074,0.991388684554,-0.104207130074,-0.00045215328416,-0.0290989822833
1900000000.0,-0.000798014189671,-0.0306900658302,0.99070993186,-0.109965984056,0.99070993186,-0.109965984056,-0.000798014189672,-0.0306900658302
2000000000.0,-0.00116236557839,-0.0322769940554,0.98999529207,-0.115719911989,0.98999529207,-0.115719911989,-0.00116236557839,-0.0322769940554
2100000000.0,-0.00154514580478,-0.0338595492098,0.989244803001,-0.121468655215,0.989244803001,-0.121468655215,-0.00154514580478,-0.0338595492098
2200000000.0,-0.00194629166001,-0.0354375141556,0.988458506134,-0.127211955422,0.988458506134,-0.127211955422,-0.00194629166001,-0.0354375141556
2300000000.0,-0.00236573819086,-0.0370106724059,0.98763644642,-0.1329495547,0.98763644642,-0.1329495547,-0.00236573819086,-0.0370106724059
2400000000.0,-0.00280341855643,-0.0385788081659,0.986778672124,-0.13868119559,0.986778672124,-0.13868119559,-0.00280341855643,-0.0385788081659
2500000000.0,-0.00325926391409,-0.0401417063725,0.985885234696,-0.144406621138,0.985885234696,-0.144406621138,-0.00325926391409,-0.0401417063725
2600000000.0,-0.00373320332836,-0.041699152735,0.984956188658,-0.150125574945,0.984956188658,-0.150125574945,-0.00373320332836,-0.041699152735
2700000000.0,-0.00422516369809,-0.0432509337748,0.98399159152,-0.155837801207,0.98399159152,-0.155837801207,-0.00422516369809,-0.0432509337748
2800000000.0,-0.00473506969838,-0.0447968368654,0.982991503694,-0.161543044767,0.982991503694,-0.161543044767,-0.00473506969838,-0.0447968368654
2900000000.0,-0.00526284373434,-0.0463366502717,0.981955988432,-0.167241051158,0.981955988432,-0.167241051158,-0.00526284373434,-0.0463366502717
3000000000.0,-0.00580840590471,-0.0478701631896,0.980885111762,-0.172931566641,0.980885111762,-0.172931566641,-0.00580840590471,-0.0478701631896
3100000000.0,-0.00637167397355,-0.0493971657845,0.979778942435,-0.178614338251,0.979778942435,-0.178614338251,-0.00637167397355,-0.0493971657845
3200000000.0,-0.00695256334872,-0.0509174492306,0.978637551882,-0.184289113838,0.978637551882,-0.184289113838,-0.00695256334872,-0.0509174492306
3300000000.0,-0.0075509870661,-0.0524308057488,0.977461014164,-0.189955642103,0.977461014164,-0.189955642103,-0.0075509870661,-0.0524308057488
3400000000.0,-0.00816685577869,-0.0539370286448,0.976249405935,-0.195613672642,0.976249405935,-0.195613672642,-0.00816685577869,-0.0539370286448
3500000000.0,-0.00880007774977,-0.0554359123472,0.975002806406,-0.201262955978,0.975002806406,-0.201262955978,-0.00880007774977,-0.0554359123472
3600000000.0,-0.00945055884982,-0.0569272524439,0.973721297307,-0.206903243603,0.973721297307,-0.206903243603,-0.00945055884982,-0.0569272524439
3700000000.0,-0.0101182025565,-0.0584108457202,0.972404962856,-0.212534288013,0.972404962856,-0.212534288013,-0.0101182025565,-0.0584108457202
3800000000.0,-0.0108029099573,-0.0598864901943,0.971053889728,-0.218155842744,0.971053889728,-0.218155842744,-0.0108029099573,-0.0598864901943
3900000000.0,-0.0115045797548,-0.0613539851542,0.969668167021,-0.223767662407,0.969668167021,-0.223767662407,-0.0115045797548,-0.0613539851542
4000000000.0,-0.0122231082741,-0.0628131311932,0.968247886232,-0.229369502723,0.968247886232,-0.229369502723,-0.0122231082741,-0.0628131311932
4100000000.0,-0.0129583894719,-0.0642637302452,0.966793141222,-0.234961120556,0.966793141222,-0.234961120556,-0.0129583894719,-0.0642637302452
4200000000.0,-0.0137103149477,-0.0657055856199,0.965304028194,-0.240542273947,0.965304028194,-0.240542273947,-0.0137103149477,-0.0657055856199
4300000000.0,-0.014478773956,-0.0671385020369,0.96378064566,-0.246112722146,0.96378064566,-0.246112722146,-0.014478773956,-0.0671385020369
4400000000.0,-0.0152636534211,-0.0685622856605,0.962223094418,-0.251672225647,0.962223094418,-0.251672225647,-0.0152636534211,-0.0685622856605
4500000000.0,-0.0160648379516,-0.0699767441324,0.96063147752,-0.257220546216,0.96063147752,-0.257220546216,-0.0160648379516,-0.0699767441324
4600000000.0,-0.0168822098576,-0.0713816866059,0.959005900249,-0.26275744692,0.959005900249,-0.26275744692,-0.0168822098576,-0.0713816866059
4700000000.0,-0.0177156491681,-0.0727769237778,0.957346470092,-0.268282692166,0.957346470092,-0.268282692166,-0.0177156491681,-0.0727769237778
4800000000.0,-0.0185650336497,-0.0741622679214,0.955653296709,-0.27379604772,0.955653296709,-0.27379604772,-0.0185650336497,-0.0741622679214
4900000000.0,-0.0194302388265,-0.0755375329175,0.953926491911,-0.279297280745,0.953926491911,-0.279297280745,-0.0194302388265,-0.0755375329175
5000000000.0,-0.0203111380004,-0.0769025342868,0.952166169628,-0.284786159824,0.952166169628,-0.284786159824,-0.0203111380004,-0.0769025342868
5100000000.0,-0.0212076022729,-0.0782570892196,0.950372445886,-0.290262454991,0.950372445886,-0.290262454991,-0.0212076022729,-0.0782570892196
5200000000.0,-0.022119500567,-0.0796010166069,0.948545438777,-0.295725937756,0.948545438777,-0.295725937756,-0.022119500567,-0.0796010166069
5300000000.0,-0.0230466996502,-0.0809341370703,0.946685268434,-0.301176381134,0.946685268434,-0.301176381134,-0.0230466996502,-0.0809341370703
5400000000.0,-0.0239890641586,-0.0822562729908,0.944792056999,-0.30661355967,0.944792056999,-0.30661355967,-0.0239890641586,-0.0822562729908
5500000000.0,-0.0249464566208,-0.083567248538,0.942865928601,-0.312037249466,0.942865928601,-0.312037249466,-0.0249464566208,-0.083567248538
5600000000.0,-0.0259187374829,-0.0848668896986,0.940907009322,-0.317447228205,0.940907009322,-0.317447228205,-0.0259187374829,-0.0848668896986
5700000000.0,-0.0269057651347,-0.0861550243037,0.938915427173,-0.322843275175,0.938915427173,-0.322843275175,-0.0269057651347,-0.0861550243037
5800000000.0,-0.0279073959349,-0.0874314820566,0.936891312065,-0.328225171294,0.936891312065,-0.328225171294,-0.0279073959349,-0.0874314820566
5900000000.0,-0.0289234842388,-0.0886960945592,0.934834795776,-0.333592699135,0.934834795776,-0.333592699135,-0.0289234842388,-0.0886960945592
6000000000.0,-0.0299538824247,-0.0899486953383,0.932746011928,-0.338945642944,0.932746011928,-0.338945642944,-0.0299538824247,-0.0899486953383
6100000000.0,-0.0309984409223,-0.0911891198713,0.930625095954,-0.344283788667,0.930625095954,-0.344283788667,-0.0309984409223,-0.0911891198713
6200000000.0,-0.0320570082402,-0.0924172056112,0.928472185072,-0.349606923968,0.928472185072,-0.349606923968,-0.0320570082402,-0.0924172056112
6300000000.0,-0.0331294309952,-0.0936327920114,0.926287418249,-0.354914838254,0.926287418249,-0.354914838254,-0.0331294309952,-0.0936327920114
6400000000.0,-0.0342155539411,-0.0948357205494,0.92407093618,-0.36020732269,0.92407093618,-0.36020732269,-0.0342155539411,-0.0948357205494
6500000000.0,-0.0353152199978,-0.0960258347504,0.92182288125,-0.365484170224,0.92182288125,-0.365484170224,-0.0353152199978,-0.0960258347504
6600000000.0,-0.0364282702818,-0.0972029802103,0.919543397508,-0.370745175604,0.919543397508,-0.370745175604,-0.0364282702818,-0.0972029802103
6700000000.0,-0.037554544136,-0.0983670046178,0.917232630638,-0.375990135394,0.917232630638,-0.375990135394,-0.037554544136,-0.0983670046178
6800000000.0,-0.0386938791602,-0.0995177577761,0.914890727923,-0.381218847999,0.914890727923,-0.381218847999,-0.0386938791602,-0.0995177577761
6900000000.0,-0.0398461112424,-0.100655091624,0.912517838218,-0.386431113672,0.912517838218,-0.386431113672,-0.0398461112424,-0.100655091624
7000000000.0,-0.0410110745897,-0.101778860258,0.91011411192,-0.391626734543,0.91011411192,-0.391626734543,-0.0410110745897,-0.101778860258
7100000000.0,-0.0421886017597,-0.10288891995,0.907679700934,-0.396805514624,0.907679700934,-0.396805514624,-0.0421886017597,-0.10288891995
7200000000.0,-0.0433785236927,-0.103985129166,0.905214758644,-0.401967259832,0.905214758644,-0.401967259832,-0.0433785236927,-0.103985129166
7300000000.0,-0.0445806697434,-0.10506734859,0.902719439878,-0.407111777999,0.902719439878,-0.407111777999,-0.0445806697434,-0.10506734859
7400000000.0,-0.0457948677133,-0.106135441138,0.900193900882,-0.412238878892,0.900193900882,-0.412238878892,-0.0457948677133,-0.106135441138
7500000000.0,-0.0470209438834,-0.107189271974,0.897638299284,-0.417348374221,0.897638299284,-0.417348374221,-0.0470209438834,-0.107189271974
7600000000.0,-0.0482587230466,-0.108228708534,0.895052794063,-0.422440077654,0.895052794063,-0.422440077654,-0.0482587230466,-0.108228708534
7700000000.0,-0.049508028541,-0.109253620535,0.892437545518,-0.427513804832,0.892437545518,-0.427513804832,-0.049508028541,-0.109253620535
7800000000.0,-0.0507686822829,-0.110263879996,0.889792715235,-0.432569373377,0.889792715235,-0.432569373377,-0.0507686822829,-0.110263879996
7900000000.0,-0.0520405048003,-0.111259361251,0.887118466057,-0.437606602906,0.887118466057,-0.437606602906,-0.0520405048003,-0.111259361251
8000000000.0,-0.0533233152661,-0.112239940964,0.884414962047,-0.442625315041,0.884414962047,-0.442625315041,-0.0533233152661,-0.112239940964
8100000000.0,-0.0546169315319,-0.113205498143,0.881682368462,-0.447625333419,0.881682368462,-0.447625333419,-0.0546169315319,-0.113205498143
8200000000.0,-0.055921170162,-0.114155914156,0.878920851716,-0.452606483699,0.878920851716,-0.452606483699,-0.055921170162,-0.114155914156
8300000000.0,-0.0572358464668,-0.11509107274,0.876130579349,-0.457568593576,0.876130579349,-0.457568593576,-0.0572358464668,-0.11509107274
8400000000.0,-0.0585607745372,-0.116010860017,0.873311719996,-0.462511492785,0.873311719996,-0.462511492785,-0.0585607745372,-0.116010860017
8500000000.0,-0.0598957672788,-0.116915164503,0.870464443352,-0.467435013111,0.870464443352,-0.467435013111,-0.0598957672788,-0.116915164503
8600000000.0,-0.0612406364457,-0.117803877121,0.867588920142,-0.472338988392,0.867588920142,-0.472338988392,-0.0612406364457,-0.117803877121
8700000000.0,-0.062595192675,-0.118676891213,0.864685322087,-0.477223254533,0.864685322087,-0.477223254533,-0.062595192675,-0.118676891213
8800000000.0,-0.0639592455212,-0.119534102544,0.861753821871,-0.482087649504,0.861753821871,-0.482087649504,-0.0639592455212,-0.119534102544
8900000000.0,-0.0653326034904,-0.12037540932,0.858794593112,-0.486932013349,0.858794593112,-0.486932013349,-0.0653326034904,-0.12037540932
9000000000.0,-0.0667150740748,-0.121200712192,0.855807810325,-0.49175618819,0.855807810325,-0.49175618819,-0.0667150740748,-0.121200712192
9100000000.0,-0.0681064637872,-0.122009914262,0.852793648893,-0.496560018233,0.852793648893,-0.496560018233,-0.0681064637872,-0.122009914262
9200000000.0,-0.0695065781953,-0.122802921097,0.849752285033,-0.501343349767,0.849752285033,-0.501343349767,-0.0695065781953,-0.122802921097
9300000000.0,-0.0709152219562,-0.123579640732,0.846683895765,-0.506106031172,0.846683895765,-0.506106031172,-0.0709152219562,-0.123579640732
9400000000.0,-0.072332198851,-0.124339983679,0.843588658879,-0.510847912917,0.843588658879,-0.510847912917,-0.072332198851,-0.124339983679
9500000000.0,-0.0737573118189,-0.125083862929,0.840466752902,-0.515568847565,0.840466752902,-0.515568847565,-0.0737573118189,-0.125083862929
9600000000.0,-0.0751903629919,-0.125811193964,0.83731835707,-0.520268689771,0.83731835707,-0.520268689771,-0.0751903629919,-0.125811193964
9700000000.0,-0.0766311537292,-0.126521894754,0.834143651289,-0.524947296286,0.834143651289,-0.524947296286,-0.0766311537292,-0.126521894754
9800000000.0,-0.0780794846508,-0.127215885771,0.830942816111,-0.529604525955,0.830942816111,-0.529604525955,-0.0780794846508,-0.127215885771
9900000000.0,-0.0795351556728,-0.127893089985,0.827716032698,-0.534240239716,0.827716032698,-0.534240239716,-0.0795351556728,-0.127893089985
10000000000.0,-0.0809979660406,-0.128553432868,0.824463482791,-0.5388543006,0.824463482791,-0.5388543006,-0.0809979660406,-0.128553432868
