freq (GHz),S11_real,S11_imag,S21_real,S21_imag,S12_real,S12_imag,S22_real,S22_imag
100000000.0,-0.00921033669492,-0.095021236376,0.990757374648,-0.0952009887593,0.990757374648,-0.0952009887593,-0.00921033669492,-0.095021236376
200000000.0,-0.0357085801976,-0.184924613153,0.964258861477,-0.185284192179,0.964258861477,-0.185284192179,-0.0357085801976,-0.184924613153
300000000.0,-0.0767866543777,-0.265509970949,0.923180540329,-0.266049489088,0.923180540329,-0.266049489088,-0.0767866543777,-0.265509970949
400000000.0,-0.128695290562,-0.334021766717,0.871271652062,-0.334741365002,0.871271652062,-0.334741365002,-0.128695290562,-0.334021766717
500000000.0,-0.187390183322,-0.389288496343,0.812576491384,-0.390188338998,0.812576491384,-0.390188338998,-0.187390183322,-0.389288496343
600000000.0,-0.249163582105,-0.431498728779,0.750802803347,-0.432578999378,0.750802803347,-0.432578999378,-0.249163582105,-0.431498728779
700000000.0,-0.31101832789,-0.461786894562,0.688947743684,-0.463047793026,0.688947743684,-0.463047793026,-0.31101832789,-0.461786894562
800000000.0,-0.370787815807,-0.481799323635,0.629177915094,-0.483241063744,0.629177915094,-0.483241063744,-0.370787815807,-0.481799323635
900000000.0,-0.427078884905,-0.49334465888,0.572886476986,-0.494967466173,0.572886476986,-0.494967466173,-0.427078884905,-0.49334465888
1000000000.0,-0.479126592696,-0.498162073863,0.520838370698,-0.499966183816,0.520838370698,-0.499966183816,-0.479126592696,-0.498162073863
1100000000.0,-0.52662780718,-0.497795668457,0.473336727328,-0.499781324905,0.473336727328,-0.499781324905,-0.52662780718,-0.497795668457
1200000000.0,-0.569591258881,-0.493545800597,0.430372815623,-0.495713254351,0.430372815623,-0.495713254351,-0.569591258881,-0.493545800597
1300000000.0,-0.608218821759,-0.486467798701,0.391744761014,-0.488817306331,0.391744761014,-0.488817306331,-0.608218821759,-0.486467798701
1400000000.0,-0.64281928893,-0.477395340891,0.357143769865,-0.479927163659,0.357143769865,-0.479927163659,-0.64281928893,-0.477395340891
1500000000.0,-0.673749791474,-0.466973645707,0.326212710644,-0.469688048634,0.326212710644,-0.469688048634,-0.673749791474,-0.466973645707
1600000000.0,-0.701378324209,-0.455693942499,0.298583588129,-0.458591193543,0.298583588129,-0.458591193543,-0.701378324209,-0.455693942499
1700000000.0,-0.726061294111,-0.443924975638,0.273899994985,-0.447005344981,0.273899994985,-0.447005344981,-0.726061294111,-0.443924975638
1800000000.0,-0.748131216409,-0.431939879773,0.251829415649,-0.435203639201,0.251829415649,-0.435203639201,-0.748131216409,-0.431939879773
1900000000.0,-0.767890966985,-0.419938164831,0.232068973936,-0.423385587198,0.232068973936,-0.423385587198,-0.767890966985,-0.419938164831
2000000000.0,-0.785612086756,-0.408063218888,0.214347128646,-0.411694577659,0.214347128646,-0.411694577659,-0.785612086756,-0.408063218888
2100000000.0,-0.801535460939,-0.396415991175,0.198422994298,-0.400231560032,0.198422994298,-0.400231560032,-0.801535460939,-0.396415991175
2200000000.0,-0.815873287081,-0.385065556173,0.184084373094,-0.38906560869,0.184084373094,-0.38906560869,-0.815873287081,-0.385065556173
2300000000.0,-0.82881165054,-0.374057199169,0.171145179436,-0.378242008536,0.171145179436,-0.378242008536,-0.82881165054,-0.374057199169
2400000000.0,-0.84051329494,-0.363418566809,0.159442669478,-0.36778840561,0.159442669478,-0.36778840561,-0.84051329494,-0.363418566809
2500000000.0,-0.851120349152,-0.353164324817,0.148834714128,-0.357719464854,0.148834714128,-0.357719464854,-0.851120349152,-0.353164324817
2600000000.0,-0.860756882462,-0.34329967312,0.139197243893,-0.34804038527,0.139197243893,-0.34804038527,-0.860756882462,-0.34329967312
2700000000.0,-0.869531227386,-0.333822991049,0.130421926055,-0.338749545162,0.130421926055,-0.338749545162,-0.869531227386,-0.333822991049
2800000000.0,-0.877538050253,-0.324727822539,0.122414094087,-0.329840487366,0.122414094087,-0.329840487366,-0.877538050253,-0.324727822539
2900000000.0,-0.884860172867,-0.316004361705,0.115090925998,-0.321303404854,0.115090925998,-0.321303404854,-0.884860172867,-0.316004361705
3000000000.0,-0.891570161012,-0.307640560754,0.108379855817,-0.313126248669,0.108379855817,-0.313126248669,-0.891570161012,-0.307640560754
3100000000.0,-0.897731701413,-0.299622952677,0.102217196637,-0.305295550642,0.102217196637,-0.305295550642,-0.897731701413,-0.299622952677
3200000000.0,-0.903400790634,-0.291937258733,0.0965469517169,-0.297797030889,0.0965469517169,-0.297797030889,-0.903400790634,-0.291937258733
3300000000.0,-0.90862675911,-0.284568833614,0.0913197904473,-0.290616043001,0.0913197904473,-0.290616043001,-0.90862675911,-0.284568833614
3400000000.0,-0.913453151988,-0.277502988352,0.0864921675097,-0.283737896956,0.0864921675097,-0.283737896956,-0.913453151988,-0.277502988352
3500000000.0,-0.917918486403,-0.270725221209,0.0820255655978,-0.277148090026,0.0820255655978,-0.277148090026,-0.917918486403,-0.270725221209
3600000000.0,-0.922056902592,-0.264221379462,0.0778858443082,-0.270832468574,0.0778858443082,-0.270832468574,-0.922056902592,-0.264221379462
3700000000.0,-0.92589872403,-0.257977769428,0.0740426800001,-0.264777338083,0.0740426800001,-0.264777338083,-0.92589872403,-0.257977769428
3800000000.0,-0.929470939756,-0.251981227845,0.0704690834685,-0.258969534549,0.0704690834685,-0.258969534549,-0.929470939756,-0.251981227845
3900000000.0,-0.932797620194,-0.246219164563,0.0671409841253,-0.253396467176,0.0671409841253,-0.253396467176,-0.932797620194,-0.246219164563
4000000000.0,-0.935900276139,-0.240679584076,0.0640368710145,-0.248046139912,0.0640368710145,-0.248046139912,-0.935900276139,-0.240679584076
4100000000.0,-0.938798169152,-0.235351091592,0.0611374824105,-0.242907157526,0.0611374824105,-0.242907157526,-0.938798169152,-0.235351091592
4200000000.0,-0.941508580413,-0.230222887963,0.058425536973,-0.237968720539,0.058425536973,-0.237968720539,-0.941508580413,-0.230222887963
4300000000.0,-0.944047043971,-0.225284756727,0.055885500488,-0.233220612267,0.055885500488,-0.233220612267,-0.944047043971,-0.225284756727
4400000000.0,-0.946427549509,-0.220527045718,0.0535033831135,-0.228653180437,0.0535033831135,-0.228653180437,-0.946427549509,-0.220527045718
4500000000.0,-0.948662718896,-0.215940645081,0.0512665628145,-0.224257315197,0.0512665628145,-0.224257315197,-0.948662718896,-0.215940645081
4600000000.0,-0.950763960247,-0.211516963074,0.0491636313148,-0.220024424928,0.0491636313148,-0.220024424928,-0.950763960247,-0.211516963074
4700000000.0,-0.952741602572,-0.207247900678,0.0471842594389,-0.215946410841,0.0471842594389,-0.215946410841,-0.952741602572,-0.207247900678
4800000000.0,-0.954605013713,-0.203125825757,0.0453190791814,-0.212015641148,0.0453190791814,-0.212015641148,-0.954605013713,-0.203125825757
4900000000.0,-0.956362703816,-0.199143547323,0.0435595802303,-0.208224925322,0.0435595802303,-0.208224925322,-0.956362703816,-0.199143547323
5000000000.0,-0.958022416295,-0.195294290293,0.0418980190034,-0.204567488851,0.0418980190034,-0.204567488851,-0.958022416295,-0.195294290293
5100000000.0,-0.959591207948,-0.191571671003,0.0403273385348,-0.201036948756,0.0403273385348,-0.201036948756,-0.959591207948,-0.191571671003
5200000000.0,-0.961075519639,-0.187969673671,0.0388410977907,-0.197627290047,0.0388410977907,-0.197627290047,-0.961075519639,-0.187969673671
5300000000.0,-0.96248123878,-0.184482627911,0.0374334091889,-0.19433284324,0.0374334091889,-0.19433284324,-0.96248123878,-0.184482627911
5400000000.0,-0.963813754651,-0.18110518738,0.0360988832745,-0.191148262998,0.0360988832745,-0.191148262998,-0.963813754651,-0.18110518738
5500000000.0,-0.96507800748,-0.177832309567,0.034832579645,-0.188068507922,0.034832579645,-0.188068507922,-0.96507800748,-0.177832309567
5600000000.0,-0.966278532048,-0.174659236736,0.0336299633444,-0.185088821493,0.0336299633444,-0.185088821493,-0.966278532048,-0.174659236736
5700000000.0,-0.967419496494,-0.171581478011,0.0324868660518,-0.182204714148,0.0324868660518,-0.182204714148,-0.967419496494,-0.171581478011
5800000000.0,-0.968504736926,-0.168594792546,0.0313994514809,-0.179411946456,0.0313994514809,-0.179411946456,-0.968504736926,-0.168594792546
5900000000.0,-0.96953778831,-0.165695173771,0.0303641844824,-0.176706513359,0.0303641844824,-0.176706513359,-0.96953778831,-0.165695173771
6000000000.0,-0.970521912105,-0.162878834641,0.0293778034098,-0.174084629416,0.0293778034098,-0.174084629416,-0.970521912105,-0.162878834641
6100000000.0,-0.971460121021,-0.160142193847,0.0284372953671,-0.171542715016,0.0284372953671,-0.171542715016,-0.971460121021,-0.160142193847
6200000000.0,-0.97235520122,-0.157481862937,0.0275398740008,-0.169077383496,0.0275398740008,-0.169077383496,-0.97235520122,-0.157481862937
6300000000.0,-0.973209732272,-0.154894634293,0.0266829595494,-0.166685429117,0.0266829595494,-0.166685429117,-0.973209732272,-0.154894634293
6400000000.0,-0.974026105102,-0.152377469912,0.0258641608909,-0.164363815838,0.0258641608909,-0.164363815838,-0.974026105102,-0.152377469912
6500000000.0,-0.974806538169,-0.149927490936,0.0250812593677,-0.16210966685,0.0250812593677,-0.16210966685,-0.974806538169,-0.149927490936
6600000000.0,-0.975553092061,-0.147541967887,0.0243321941925,-0.159920254807,0.0243321941925,-0.159920254807,-0.975553092061,-0.147541967887
6700000000.0,-0.976267682676,-0.145218311564,0.0236150492613,-0.157792992719,0.0236150492613,-0.157792992719,-0.976267682676,-0.145218311564
6800000000.0,-0.976952093159,-0.142954064542,0.0229280412237,-0.155725425454,0.0229280412237,-0.155725425454,-0.976952093159,-0.142954064542
6900000000.0,-0.977607984702,-0.140746893252,0.0222695086755,-0.15371522181,0.0222695086755,-0.15371522181,-0.977607984702,-0.140746893252
7000000000.0,-0.978236906355,-0.138594580582,0.0216379023561,-0.151760167118,0.0216379023561,-0.151760167118,-0.978236906355,-0.138594580582
7100000000.0,-0.978840303919,-0.136495018977,0.0210317762465,-0.149858156343,0.0210317762465,-0.149858156343,-0.978840303919,-0.136495018977
7200000000.0,-0.979419528047,-0.134446204001,0.020449779474,-0.148007187637,0.020449779474,-0.148007187637,-0.979419528047,-0.134446204001
7300000000.0,-0.979975841612,-0.132446228314,0.0198906489435,-0.146205356322,0.0198906489435,-0.146205356322,-0.979975841612,-0.132446228314
7400000000.0,-0.980510426421,-0.130493276061,0.0193532026216,-0.144450849271,0.0193532026216,-0.144450849271,-0.980510426421,-0.130493276061
7500000000.0,-0.981024389345,-0.128585617614,0.018836333408,-0.142741939655,0.018836333408,-0.142741939655,-0.981024389345,-0.128585617614
7600000000.0,-0.981518767914,-0.126721604668,0.0183390035382,-0.141076982032,0.0183390035382,-0.141076982032,-0.981518767914,-0.126721604668
7700000000.0,-0.981994535441,-0.124899665649,0.0178602394641,-0.139454407756,0.0178602394641,-0.139454407756,-0.981994535441,-0.124899665649
7800000000.0,-0.982452605702,-0.123118301418,0.0173991271686,-0.137872720682,0.0173991271686,-0.137872720682,-0.982452605702,-0.123118301418
7900000000.0,-0.982893837233,-0.121376081253,0.0169548078712,-0.136330493143,0.0169548078712,-0.136330493143,-0.982893837233,-0.121376081253
8000000000.0,-0.98331903727,-0.119671639085,0.0165264740888,-0.134826362185,0.0165264740888,-0.134826362185,-0.98331903727,-0.119671639085
8100000000.0,-0.983728965363,-0.118003669966,0.0161133660192,-0.133359026037,0.0161133660192,-0.133359026037,-0.983728965363,-0.118003669966
8200000000.0,-0.984124336703,-0.11637092677,0.0157147682162,-0.131927240809,0.0157147682162,-0.131927240809,-0.984124336703,-0.11637092677
8300000000.0,-0.984505825179,-0.114772217088,0.0153300065317,-0.130529817387,0.0153300065317,-0.130529817387,-0.984505825179,-0.114772217088
8400000000.0,-0.984874066195,-0.113206400323,0.0149584452989,-0.129165618523,0.0149584452989,-0.129165618523,-0.984874066195,-0.113206400323
8500000000.0,-0.985229659264,-0.111672384957,0.0145994847362,-0.127833556108,0.0145994847362,-0.127833556108,-0.985229659264,-0.111672384957
8600000000.0,-0.985573170406,-0.110169125988,0.0142525585531,-0.126532588604,0.0142525585531,-0.126532588604,-0.985573170406,-0.110169125988
8700000000.0,-0.985905134356,-0.108695622524,0.0139171317382,-0.125261718635,0.0139171317382,-0.125261718635,-0.985905134356,-0.108695622524
8800000000.0,-0.98622605661,-0.107250915515,0.0135926985159,-0.124019990724,0.0135926985159,-0.124019990724,-0.98622605661,-0.107250915515
8900000000.0,-0.986536415314,-0.105834085623,0.0132787804566,-0.122806489159,0.0132787804566,-0.122806489159,-0.986536415314,-0.105834085623
9000000000.0,-0.986836663013,-0.104444251222,0.0129749247267,-0.12162033599,0.0129749247267,-0.12162033599,-0.986836663013,-0.104444251222
9100000000.0,-0.987127228272,-0.103080566508,0.0126807024676,-0.120460689145,0.0126807024676,-0.120460689145,-0.987127228272,-0.103080566508
9200000000.0,-0.987408517181,-0.101742219724,0.0123957072933,-0.119326740647,0.0123957072933,-0.119326740647,-0.987408517181,-0.101742219724
9300000000.0,-0.987680914746,-0.100428431485,0.0121195538952,-0.118217714944,0.0121195538952,-0.118217714944,-0.987680914746,-0.100428431485
9400000000.0,-0.987944786186,-0.0991384532001,0.0118518767477,-0.117132867328,0.0118518767477,-0.117132867328,-0.987944786186,-0.0991384532001
9500000000.0,-0.988200478136,-0.0978715655841,0.0115923289042,-0.116071482446,0.0115923289042,-0.116071482446,-0.988200478136,-0.0978715655841
9600000000.0,-0.988448319769,-0.0966270772515,0.0113405808785,-0.115032872896,0.0113405808785,-0.115032872896,-0.988448319769,-0.0966270772515
9700000000.0,-0.98868862383,-0.0954043233914,0.0110963196026,-0.114016377899,0.0110963196026,-0.114016377899,-0.98868862383,-0.0954043233914
9800000000.0,-0.988921687614,-0.0942026645144,0.010859247457,-0.113021362045,0.010859247457,-0.113021362045,-0.988921687614,-0.0942026645144
9900000000.0,-0.989147793866,-0.0930214852692,0.0106290813667,-0.112047214113,0.0106290813667,-0.112047214113,-0.989147793866,-0.0930214852692
10000000000.0,-0.989367211624,-0.0918601933233,0.0104055519577,-0.111093345948,0.0104055519577,-0.111093345948,-0.989367211624,-0.0918601933233
