freq (GHz),S11_real,S11_imag,S21_real,S21_imag,S12_real,S12_imag,S22_real,S22_imag
100000000.0,0.00450350565341,0.000408441624401,0.995493061141,-0.00186106356989,0.995493061141,-0.00186106356989,0.00450350565341,0.000408441624401
200000000.0,0.00453495022318,0.000816742689753,0.995457070014,-0.00372198485425,0.995457070014,-0.00372198485425,0.00453495022318,0.000816742689753
300000000.0,0.00455997895318,0.00122495146825,0.995425381313,-0.00558281224214,0.995425381313,-0.00558281224214,0.00455997895318,0.00122495146825
400000000.0,0.00458249177022,0.001633080694,0.995394095049,-0.00744355806775,0.995394095049,-0.00744355806775,0.00458249177022,0.001633080694
500000000.0,0.00460399138046,0.00204113488573,0.995361708451,-0.0093042261925,0.995361708451,-0.0093042261925,0.00460399138046,0.00204113488573
600000000.0,0.00462524447232,0.00244911494331,0.99532745476,-0.0111648166921,0.99532745476,-0.0111648166921,0.00462524447232,0.00244911494331
700000000.0,0.00464670408917,0.00285701979312,0.995290880858,-0.0130253275481,0.995290880858,-0.0130253275481,0.00464670408917,0.00285701979312
800000000.0,0.00466866380651,0.00326484714871,0.995251693089,-0.0148857554359,0.995251693089,-0.0148857554359,0.00466866380651,0.00326484714871
900000000.0,0.00469132638954,0.00367259391783,0.995209688602,-0.0167460961498,0.995209688602,-0.0167460961498,0.00469132638954,0.00367259391783
1000000000.0,0.00471483859913,0.00408025644268,0.995164720546,-0.0186063448563,0.995164720546,-0.0186063448563,0.00471483859913,0.00408025644268
1100000000.0,0.00473931054248,0.0044878306519,0.995116678718,-0.0204664962547,0.995116678718,-0.0204664962547,0.00473931054248,0.0044878306519
1200000000.0,0.00476482720521,0.00489531216189,0.995065478032,-0.0223265446861,0.995065478032,-0.0223265446861,0.00476482720521,0.00489531216189
1300000000.0,0.00479145570754,0.00530269634737,0.995011051262,-0.0241864842092,0.995011051262,-0.0241864842092,0.00479145570754,0.00530269634737
1400000000.0,0.00481925007437,0.00570997839211,0.994953344275,-0.0260463086555,0.994953344275,-0.0260463086555,0.00481925007437,0.00570997839211
1500000000.0,0.00484825448608,0.00611715332642,0.994892312775,-0.0279060116703,0.994892312775,-0.0279060116703,0.00484825448608,0.00611715332642
1600000000.0,0.00487850556184,0.00652421605555,0.994827920024,-0.0297655867446,0.994827920024,-0.0297655867446,0.00487850556184,0.00652421605555
1700000000.0,0.00491003400534,0.00693116138173,0.994760135197,-0.0316250272389,0.994760135197,-0.0316250272389,0.00491003400534,0.00693116138173
1800000000.0,0.00494286581739,0.00733798402123,0.994688932164,-0.0334843264029,0.994688932164,-0.0334843264029,0.00494286581739,0.00733798402123
1900000000.0,0.00497702320696,0.00774467861825,0.994614288586,-0.0353434773914,0.994614288586,-0.0353434773914,0.00497702320696,0.00774467861825
2000000000.0,0.00501252528729,0.00815123975595,0.994536185215,-0.0372024732763,0.994536185215,-0.0372024732763,0.00501252528729,0.00815123975595
2100000000.0,0.00504938861585,0.00855766196561,0.994454605353,-0.0390613070577,0.994454605353,-0.0390613070577,0.00504938861585,0.00855766196561
2200000000.0,0.00508762761883,0.00896393973407,0.994369534432,-0.0409199716726,0.994369534432,-0.0409199716726,0.00508762761883,0.00896393973407
2300000000.0,0.00512725492903,0.00937006751002,0.994280959671,-0.0427784600018,0.994280959671,-0.0427784600018,0.00512725492903,0.00937006751002
2400000000.0,0.00516828165749,0.0097760397093,0.994188869811,-0.0446367648767,0.994188869811,-0.0446367648767,0.00516828165749,0.0097760397093
2500000000.0,0.00521071761433,0.0101818507194,0.994093254885,-0.0464948790842,0.994093254885,-0.0464948790842,0.00521071761433,0.0101818507194
2600000000.0,0.00525457148974,0.0105874949031,0.993994106047,-0.0483527953718,0.993994106047,-0.0483527953718,0.00525457148974,0.0105874949031
2700000000.0,0.00529985100351,0.0109929666021,0.993891415415,-0.0502105064509,0.993891415415,-0.0502105064509,0.00529985100351,0.0109929666021
2800000000.0,0.00534656302968,0.0113982601396,0.993785175952,-0.0520680050011,0.993785175952,-0.0520680050011,0.00534656302968,0.0113982601396
2900000000.0,0.00539471370103,0.0118033698228,0.993675381355,-0.0539252836727,0.993675381355,-0.0539252836727,0.00539471370103,0.0118033698228
3000000000.0,0.00544430849729,0.012208289945,0.993562025976,-0.0557823350897,0.993562025976,-0.0557823350897,0.00544430849729,0.012208289945
3100000000.0,0.00549535232001,0.0126130147881,0.993445104737,-0.0576391518519,0.993445104737,-0.0576391518519,0.00549535232001,0.0126130147881
3200000000.0,0.00554784955663,0.0130175386232,0.993324613073,-0.0594957265375,0.993324613073,-0.0594957265375,0.00554784955663,0.0130175386232
3300000000.0,0.00560180413528,0.0134218557133,0.993200546876,-0.0613520517045,0.993200546876,-0.0613520517045,0.00560180413528,0.0134218557133
3400000000.0,0.00565721957228,0.0138259603135,0.993072902446,-0.0632081198927,0.993072902446,-0.0632081198927,0.00565721957228,0.0138259603135
3500000000.0,0.00571409901309,0.0142298466733,0.99294167645,-0.0650639236255,0.99294167645,-0.0650639236255,0.00571409901309,0.0142298466733
3600000000.0,0.00577244526812,0.0146335090367,0.992806865889,-0.0669194554107,0.992806865889,-0.0669194554107,0.00577244526812,0.0146335090367
3700000000.0,0.00583226084392,0.0150369416437,0.992668468063,-0.0687747077424,0.992668468063,-0.0687747077424,0.00583226084392,0.0150369416437
3800000000.0,0.00589354797055,0.0154401387313,0.992526480546,-0.0706296731017,0.992526480546,-0.0706296731017,0.00589354797055,0.0154401387313
3900000000.0,0.00595630862574,0.0158430945337,0.992380901162,-0.0724843439579,0.992380901162,-0.0724843439579,0.00595630862574,0.0158430945337
4000000000.0,0.00602054455617,0.0162458032837,0.992231727964,-0.0743387127698,0.992231727964,-0.0743387127698,0.00602054455617,0.0162458032837
4100000000.0,0.00608625729631,0.016648259213,0.992078959213,-0.0761927719861,0.992078959213,-0.0761927719861,0.00608625729631,0.016648259213
4200000000.0,0.00615344818525,0.0170504565528,0.991922593364,-0.0780465140465,0.991922593364,-0.0780465140465,0.00615344818525,0.0170504565528
4300000000.0,0.00622211838163,0.0174523895343,0.991762629048,-0.0798999313826,0.991762629048,-0.0798999313826,0.00622211838163,0.0174523895343
4400000000.0,0.00629226887701,0.0178540523897,0.991599065062,-0.0817530164182,0.991599065062,-0.0817530164182,0.00629226887701,0.0178540523897
4500000000.0,0.00636390050785,0.018255439352,0.991431900355,-0.0836057615705,0.991431900355,-0.0836057615705,0.00636390050785,0.018255439352
4600000000.0,0.00643701396631,0.018656544656,0.991261134019,-0.0854581592502,0.991261134019,-0.0854581592502,0.00643701396631,0.018656544656
4700000000.0,0.00651160980991,0.0190573625383,0.991086765275,-0.0873102018625,0.991086765275,-0.0873102018625,0.00651160980991,0.0190573625383
4800000000.0,0.00658768847032,0.0194578872379,0.990908793471,-0.0891618818072,0.990908793471,-0.0891618818072,0.00658768847032,0.0194578872379
4900000000.0,0.00666525026123,0.0198581129967,0.990727218068,-0.0910131914797,0.990727218068,-0.0910131914797,0.00666525026123,0.0198581129967
5000000000.0,0.00674429538563,0.0202580340593,0.990542038636,-0.0928641232712,0.990542038636,-0.0928641232712,0.00674429538563,0.0202580340593
5100000000.0,0.00682482394223,0.0206576446741,0.990353254849,-0.0947146695691,0.990353254849,-0.0947146695691,0.00682482394223,0.0206576446741
5200000000.0,0.00690683593147,0.0210569390929,0.990160866472,-0.0965648227575,0.990160866472,-0.0965648227575,0.00690683593147,0.0210569390929
5300000000.0,0.00699033126092,0.0214559115715,0.989964873366,-0.0984145752178,0.989964873366,-0.0984145752178,0.00699033126092,0.0214559115715
5400000000.0,0.00707530975023,0.02185455637,0.989765275475,-0.100263919329,0.989765275475,-0.100263919329,0.00707530975023,0.02185455637
5500000000.0,0.00716177113566,0.0222528677527,0.989562072824,-0.102112847467,0.989562072824,-0.102112847467,0.00716177113566,0.0222528677527
5600000000.0,0.00724971507426,0.022650839989,0.989355265515,-0.103961352007,0.989355265515,-0.103961352007,0.00724971507426,0.022650839989
5700000000.0,0.00733914114762,0.0230484673529,0.989144853724,-0.105809425323,0.989144853724,-0.105809425323,0.00733914114762,0.0230484673529
5800000000.0,0.00743004886546,0.0234457441237,0.988930837698,-0.107657059787,0.988930837698,-0.107657059787,0.00743004886546,0.0234457441237
5900000000.0,0.00752243766881,0.0238426645861,0.988713217747,-0.109504247769,0.988713217747,-0.109504247769,0.00752243766881,0.0238426645861
6000000000.0,0.00761630693301,0.0242392230302,0.988491994247,-0.111350981641,0.988491994247,-0.111350981641,0.00761630693301,0.0242392230302
6100000000.0,0.00771165597046,0.024635413752,0.988267167636,-0.113197253773,0.988267167636,-0.113197253773,0.00771165597046,0.024635413752
6200000000.0,0.00780848403316,0.0250312310531,0.988038738408,-0.115043056536,0.988038738408,-0.115043056536,0.00780848403316,0.0250312310531
6300000000.0,0.00790679031509,0.0254266692417,0.987806707114,-0.1168883823,0.987806707114,-0.1168883823,0.00790679031509,0.0254266692417
6400000000.0,0.00800657395439,0.0258217226317,0.987571074358,-0.118733223436,0.987571074358,-0.118733223436,0.00800657395439,0.0258217226317
6500000000.0,0.00810783403539,0.0262163855439,0.987331840798,-0.120577572316,0.987331840798,-0.120577572316,0.00810783403539,0.0262163855439
6600000000.0,0.0082105695905,0.0266106523053,0.987089007141,-0.122421421313,0.987089007141,-0.122421421313,0.00821056959049,0.0266106523053
6700000000.0,0.00831477960196,0.02700451725,0.986842574141,-0.124264762799,0.986842574141,-0.124264762799,0.00831477960196,0.02700451725
6800000000.0,0.00842046300353,0.0273979747186,0.986592542599,-0.126107589151,0.986592542599,-0.126107589151,0.00842046300353,0.0273979747186
6900000000.0,0.00852761868196,0.0277910190588,0.986338913364,-0.127949892745,0.986338913364,-0.127949892745,0.00852761868196,0.0277910190588
7000000000.0,0.00863624547843,0.0281836446257,0.986081687324,-0.129791665958,0.986081687324,-0.129791665958,0.00863624547843,0.0281836446257
7100000000.0,0.00874634218994,0.0285758457815,0.985820865414,-0.131632901172,0.985820865414,-0.131632901172,0.00874634218994,0.0285758457815
7200000000.0,0.00885790757049,0.0289676168957,0.985556448607,-0.133473590768,0.985556448607,-0.133473590768,0.00885790757049,0.0289676168957
7300000000.0,0.00897094033231,0.0293589523456,0.985288437917,-0.135313727131,0.985288437917,-0.135313727131,0.00897094033231,0.0293589523456
7400000000.0,0.00908543914693,0.0297498465159,0.985016834398,-0.137153302649,0.985016834398,-0.137153302649,0.00908543914693,0.0297498465159
7500000000.0,0.00920140264622,0.0301402937993,0.984741639142,-0.138992309709,0.984741639142,-0.138992309709,0.00920140264622,0.0301402937993
7600000000.0,0.0093188294234,0.0305302885962,0.984462853275,-0.140830740706,0.984462853275,-0.140830740706,0.0093188294234,0.0305302885962
7700000000.0,0.00943771803386,0.0309198253153,0.984180477962,-0.142668588034,0.984180477962,-0.142668588034,0.00943771803386,0.0309198253153
7800000000.0,0.00955806699614,0.0313088983731,0.983894514403,-0.144505844091,0.983894514403,-0.144505844091,0.00955806699614,0.0313088983731
7900000000.0,0.00967987479266,0.0316975021946,0.983604963833,-0.14634250128,0.983604963833,-0.14634250128,0.00967987479266,0.0316975021946
8000000000.0,0.00980313987051,0.0320856312131,0.983311827518,-0.148178552004,0.983311827518,-0.148178552004,0.00980313987051,0.0320856312131
8100000000.0,0.00992786064219,0.0324732798702,0.983015106759,-0.150013988673,0.983015106759,-0.150013988673,0.00992786064219,0.0324732798702
8200000000.0,0.0100540354863,0.0328604426162,0.982714802891,-0.151848803699,0.982714802891,-0.151848803699,0.0100540354863,0.0328604426162
8300000000.0,0.010181662748,0.0332471139101,0.982410917277,-0.153682989498,0.982410917277,-0.153682989498,0.010181662748,0.0332471139101
8400000000.0,0.0103107407402,0.0336332882196,0.982103451314,-0.15551653849,0.982103451314,-0.15551653849,0.0103107407402,0.0336332882196
8500000000.0,0.0104412677432,0.0340189600212,0.981792406429,-0.157349443098,0.981792406429,-0.157349443098,0.0104412677432,0.0340189600212
8600000000.0,0.0105732420062,0.0344041238004,0.981477784079,-0.159181695752,0.981477784079,-0.159181695752,0.0105732420062,0.0344041238004
8700000000.0,0.0107066617473,0.034788774052,0.981159585749,-0.161013288883,0.981159585749,-0.161013288883,0.0107066617473,0.034788774052
8800000000.0,0.0108415251539,0.0351729052796,0.980837812956,-0.162844214928,0.980837812956,-0.162844214928,0.0108415251539,0.0351729052796
8900000000.0,0.0109778303836,0.0355565119962,0.980512467244,-0.16467446633,0.980512467244,-0.16467446633,0.0109778303836,0.0355565119962
9000000000.0,0.0111155755644,0.0359395887242,0.980183550184,-0.166504035534,0.980183550184,-0.166504035534,0.0111155755644,0.0359395887242
9100000000.0,0.011254758795,0.0363221299953,0.979851063378,-0.168332914992,0.979851063378,-0.168332914992,0.011254758795,0.0363221299953
9200000000.0,0.0113953781456,0.036704130351,0.979515008452,-0.17016109716,0.979515008452,-0.17016109716,0.0113953781456,0.036704130351
9300000000.0,0.0115374316579,0.0370855843421,0.979175387061,-0.171988574499,0.979175387061,-0.171988574499,0.0115374316579,0.0370855843421
9400000000.0,0.0116809173456,0.0374664865292,0.978832200886,-0.173815339475,0.978832200886,-0.173815339475,0.0116809173455,0.0374664865292
9500000000.0,0.0118258331948,0.0378468314828,0.978485451635,-0.17564138456,0.978485451635,-0.17564138456,0.0118258331948,0.0378468314828
9600000000.0,0.0119721771646,0.0382266137832,0.978135141041,-0.177466702231,0.978135141041,-0.177466702231,0.0119721771646,0.0382266137832
9700000000.0,0.0121199471868,0.0386058280207,0.977781270864,-0.17929128497,0.977781270864,-0.17929128497,0.0121199471868,0.0386058280207
9800000000.0,0.0122691411667,0.0389844687956,0.977423842889,-0.181115125265,0.977423842889,-0.181115125265,0.0122691411667,0.0389844687956
9900000000.0,0.0124197569834,0.0393625307184,0.977062858924,-0.182938215611,0.977062858924,-0.182938215611,0.0124197569834,0.0393625307184
10000000000.0,0.0125717924898,0.0397400084097,0.976698320805,-0.184760548506,0.976698320805,-0.184760548506,0.0125717924898,0.0397400084097
