freq (GHz),S11_real,S11_imag,S21_real,S21_imag,S12_real,S12_imag,S22_real,S22_imag
100000000.0,0.000545830590215,-0.00475196099215,0.999377417783,-0.00662461636968,0.999377417783,-0.00662461636968,0.000545830590215,-0.00475196099215
200000000.0,0.000449812391631,-0.00950286746885,0.999268248245,-0.0132481844116,0.999268248245,-0.0132481844116,0.000449812391631,-0.00950286746885
300000000.0,0.000289849040639,-0.0142517189938,0.999093648414,-0.0198697384646,0.999093648414,-0.0198697384646,0.00028984904064,-0.0142517189938
400000000.0,6.64951092864e-05,-0.0189975074545,0.998853164965,-0.0264882946767,0.998853164965,-0.0264882946767,6.64951092857e-05,-0.0189975074545
500000000.0,-0.000219984348307,-0.0237392208404,0.998546675336,-0.0331028620912,0.998546675336,-0.0331028620912,-0.000219984348307,-0.0237392208404
600000000.0,-0.000569398455691,-0.0284758454593,0.998174172718,-0.0397124463609,0.998174172718,-0.0397124463609,-0.00056939845569,-0.0284758454593
700000000.0,-0.000981575803617,-0.0332063674122,0.997735711521,-0.0463160518363,0.997735711521,-0.0463160518363,-0.000981575803617,-0.0332063674122
800000000.0,-0.00145634450802,-0.0379297737227,0.997231387495,-0.0529126830134,0.997231387495,-0.0529126830134,-0.00145634450802,-0.0379297737227
900000000.0,-0.00199352336564,-0.0426450532777,0.996661328864,-0.0595013456649,0.996661328864,-0.0595013456649,-0.00199352336564,-0.0426450532777
1000000000.0,-0.00259291741484,-0.0473511976564,0.996025691807,-0.066081047792,0.996025691807,-0.066081047792,-0.00259291741484,-0.0473511976564
1100000000.0,-0.00325431551929,-0.0520472018866,0.995324657895,-0.0726508004663,0.995324657895,-0.0726508004663,-0.00325431551929,-0.0520472018866
1200000000.0,-0.00397748898503,-0.056732065149,0.994558432513,-0.0792096185963,0.994558432513,-0.0792096185963,-0.00397748898503,-0.056732065149
1300000000.0,-0.00476219075194,-0.0614047914448,0.993727243812,-0.0857565216413,0.993727243812,-0.0857565216413,-0.00476219075194,-0.0614047914448
1400000000.0,-0.00560815492708,-0.0660643902341,0.99283134195,-0.0922905342866,0.99283134195,-0.0922905342866,-0.00560815492708,-0.0660643902341
1500000000.0,-0.00651509653429,-0.0707098770498,0.991870998514,-0.0988106870856,0.991870998514,-0.0988106870856,-0.00651509653429,-0.0707098770498
1600000000.0,-0.00748271140792,-0.0753402740921,0.990846506045,-0.105316017078,0.990846506045,-0.105316017078,-0.00748271140792,-0.0753402740921
1700000000.0,-0.00851067618748,-0.0799546108043,0.989758177623,-0.111805568385,0.989758177623,-0.111805568385,-0.00851067618748,-0.0799546108043
1800000000.0,-0.00959864838618,-0.084551924433,0.988606346489,-0.118278392784,0.988606346489,-0.118278392784,-0.00959864838618,-0.084551924433
1900000000.0,-0.0107462665157,-0.0891312605723,0.987391365693,-0.124733550269,0.987391365693,-0.124733550269,-0.0107462665157,-0.0891312605723
2000000000.0,-0.0119531502555,-0.0936916736935,0.986113607742,-0.131170109591,0.986113607742,-0.131170109591,-0.0119531502555,-0.0936916736935
2100000000.0,-0.0132189006584,-0.0982322276609,0.984773464266,-0.137587148782,0.984773464266,-0.137587148782,-0.0132189006584,-0.0982322276609
2200000000.0,-0.0145431003867,-0.102751996233,0.983371345669,-0.143983755667,0.983371345669,-0.143983755667,-0.0145431003867,-0.102751996233
2300000000.0,-0.015925313975,-0.10725006355,0.98190768078,-0.150359028359,0.98190768078,-0.150359028359,-0.015925313975,-0.10725006355
2400000000.0,-0.0173650881149,-0.111725524609,0.980382916507,-0.156712075739,0.980382916507,-0.156712075739,-0.0173650881149,-0.111725524609
2500000000.0,-0.0188619519617,-0.116177485718,0.978797517468,-0.163042017921,0.978797517468,-0.163042017921,-0.0188619519617,-0.116177485718
2600000000.0,-0.0204154174584,-0.120605064948,0.977151965625,-0.169347986703,0.977151965625,-0.169347986703,-0.0204154174584,-0.120605064948
2700000000.0,-0.022024979677,-0.12500739256,0.975446759902,-0.175629126004,0.975446759902,-0.175629126004,-0.022024979677,-0.12500739256
2800000000.0,-0.0236901171753,-0.129383611421,0.973682415805,-0.181884592281,0.973682415805,-0.181884592281,-0.0236901171753,-0.129383611421
2900000000.0,-0.0254102923676,-0.133732877406,0.971859465013,-0.188113554937,0.971859465013,-0.188113554937,-0.0254102923676,-0.133732877406
3000000000.0,-0.0271849519088,-0.138054359785,0.969978454984,-0.194315196712,0.969978454984,-0.194315196712,-0.0271849519088,-0.138054359785
3100000000.0,-0.0290135270904,-0.142347241595,0.968039948533,-0.200488714056,0.968039948533,-0.200488714056,-0.0290135270904,-0.142347241595
3200000000.0,-0.0308954342476,-0.146610719992,0.966044523411,-0.206633317487,0.966044523411,-0.206633317487,-0.0308954342476,-0.146610719992
3300000000.0,-0.0328300751771,-0.150844006598,0.963992771874,-0.212748231938,0.963992771874,-0.212748231938,-0.0328300751771,-0.150844006598
3400000000.0,-0.0348168375639,-0.155046327822,0.961885300242,-0.21883269708,0.961885300242,-0.21883269708,-0.0348168375639,-0.155046327822
3500000000.0,-0.0368550954175,-0.159216925167,0.959722728457,-0.224885967638,0.959722728457,-0.224885967638,-0.0368550954175,-0.159216925167
3600000000.0,-0.0389442095154,-0.163355055528,0.957505689626,-0.230907313683,0.957505689626,-0.230907313683,-0.0389442095154,-0.163355055528
3700000000.0,-0.0410835278544,-0.167459991467,0.955234829567,-0.236896020912,0.955234829567,-0.236896020912,-0.0410835278544,-0.167459991467
3800000000.0,-0.0432723861081,-0.171531021473,0.952910806338,-0.242851390912,0.952910806338,-0.242851390912,-0.0432723861081,-0.171531021473
3900000000.0,-0.0455101080906,-0.17556745021,0.950534289772,-0.248772741407,0.950534289772,-0.248772741407,-0.0455101080906,-0.17556745021
4000000000.0,-0.0477960062247,-0.17956859874,0.948105961004,-0.254659406485,0.948105961004,-0.254659406485,-0.0477960062247,-0.17956859874
4100000000.0,-0.0501293820158,-0.183533804743,0.945626511987,-0.260510736816,0.945626511987,-0.260510736816,-0.0501293820158,-0.183533804743
4200000000.0,-0.0525095265283,-0.187462422706,0.943096645018,-0.266326099849,0.943096645018,-0.266326099849,-0.0525095265283,-0.187462422706
4300000000.0,-0.0549357208662,-0.191353824108,0.940517072248,-0.272104879989,0.940517072248,-0.272104879989,-0.0549357208662,-0.191353824108
4400000000.0,-0.0574072366557,-0.195207397583,0.9378885152,-0.277846478768,0.9378885152,-0.277846478768,-0.0574072366557,-0.195207397583
4500000000.0,-0.0599233365303,-0.199022549063,0.935211704277,-0.28355031499,0.935211704277,-0.28355031499,-0.0599233365303,-0.199022549063
4600000000.0,-0.0624832746167,-0.202798701916,0.932487378278,-0.289215824867,0.932487378278,-0.289215824867,-0.0624832746167,-0.202798701916
4700000000.0,-0.0650862970215,-0.206535297058,0.929716283902,-0.29484246213,0.929716283902,-0.29484246213,-0.0650862970215,-0.206535297058
4800000000.0,-0.0677316423188,-0.210231793055,0.926899175264,-0.300429698136,0.926899175264,-0.300429698136,-0.0677316423188,-0.210231793055
4900000000.0,-0.0704185420363,-0.213887666203,0.924036813405,-0.305977021951,0.924036813405,-0.305977021951,-0.0704185420363,-0.213887666203
5000000000.0,-0.0731462211413,-0.217502410603,0.921129965802,-0.311483940418,0.921129965802,-0.311483940418,-0.0731462211413,-0.217502410603
5100000000.0,-0.0759138985247,-0.221075538209,0.918179405885,-0.316949978213,0.918179405885,-0.316949978213,-0.0759138985247,-0.221075538209
5200000000.0,-0.0787207874831,-0.22460657887,0.915185912549,-0.322374677884,0.915185912549,-0.322374677884,-0.0787207874831,-0.22460657887
5300000000.0,-0.0815660961987,-0.22809508035,0.912150269678,-0.327757599875,0.912150269678,-0.327757599875,-0.0815660961987,-0.22809508035
5400000000.0,-0.0844490282154,-0.231540608341,0.909073265662,-0.333098322535,0.909073265662,-0.333098322535,-0.0844490282154,-0.231540608341
5500000000.0,-0.0873687829119,-0.234942746453,0.905955692926,-0.338396442114,0.905955692926,-0.338396442114,-0.0873687829119,-0.234942746453
5600000000.0,-0.0903245559708,-0.238301096197,0.902798347458,-0.343651572743,0.902798347458,-0.343651572743,-0.0903245559708,-0.238301096197
5700000000.0,-0.093315539843,-0.241615276954,0.899602028342,-0.348863346403,0.899602028342,-0.348863346403,-0.093315539843,-0.241615276954
5800000000.0,-0.0963409242071,-0.244884925919,0.896367537302,-0.354031412875,0.896367537302,-0.354031412875,-0.0963409242071,-0.244884925919
5900000000.0,-0.099399896424,-0.248109698053,0.893095678241,-0.359155439684,0.893095678241,-0.359155439684,-0.099399896424,-0.248109698053
6000000000.0,-0.102491641985,-0.251289265999,0.889787256792,-0.364235112024,0.889787256792,-0.364235112024,-0.102491641985,-0.251289265999
6100000000.0,-0.105615344956,-0.254423320002,0.886443079878,-0.369270132674,0.886443079878,-0.369270132674,-0.105615344956,-0.254423320002
6200000000.0,-0.10877018841,-0.257511567812,0.883063955273,-0.3742602219,0.883063955273,-0.3742602219,-0.10877018841,-0.257511567812
6300000000.0,-0.111955354858,-0.260553734568,0.87965069117,-0.379205117345,0.87965069117,-0.379205117345,-0.111955354858,-0.260553734568
6400000000.0,-0.115170026675,-0.263549562685,0.876204095759,-0.38410457391,0.876204095759,-0.38410457391,-0.115170026675,-0.263549562685
6500000000.0,-0.118413386506,-0.266498811715,0.872724976814,-0.38895836362,0.872724976814,-0.38895836362,-0.118413386506,-0.266498811715
6600000000.0,-0.121684617682,-0.269401258207,0.869214141282,-0.393766275484,0.869214141282,-0.393766275484,-0.121684617682,-0.269401258207
6700000000.0,-0.124982904611,-0.272256695553,0.865672394884,-0.398528115336,0.865672394884,-0.398528115336,-0.124982904611,-0.272256695553
6800000000.0,-0.128307433174,-0.275064933823,0.862100541723,-0.403243705679,0.862100541723,-0.403243705679,-0.128307433174,-0.275064933823
6900000000.0,-0.131657391105,-0.277825799596,0.858499383904,-0.407912885508,0.858499383904,-0.407912885508,-0.131657391105,-0.277825799596
7000000000.0,-0.135031968363,-0.280539135772,0.854869721156,-0.41253551013,0.854869721156,-0.41253551013,-0.135031968363,-0.280539135772
7100000000.0,-0.138430357499,-0.283204801386,0.851212350468,-0.41711145097,0.851212350468,-0.41711145097,-0.138430357499,-0.283204801386
7200000000.0,-0.141851754009,-0.285822671408,0.847528065736,-0.421640595378,0.847528065736,-0.421640595378,-0.141851754009,-0.285822671408
7300000000.0,-0.145295356681,-0.28839263653,0.84381765741,-0.426122846413,0.84381765741,-0.426122846413,-0.145295356681,-0.28839263653
7400000000.0,-0.148760367932,-0.29091460296,0.840081912162,-0.430558122639,0.840081912162,-0.430558122639,-0.148760367932,-0.29091460296
7500000000.0,-0.152245994131,-0.293388492192,0.836321612556,-0.434946357893,0.836321612556,-0.434946357893,-0.152245994131,-0.293388492192
7600000000.0,-0.155751445923,-0.295814240784,0.83253753673,-0.439287501062,0.83253753673,-0.439287501062,-0.155751445923,-0.295814240784
7700000000.0,-0.159275938532,-0.298191800116,0.828730458086,-0.44358151585,0.828730458086,-0.44358151585,-0.159275938532,-0.298191800116
7800000000.0,-0.162818692059,-0.300521136153,0.824901144996,-0.447828380528,0.824901144996,-0.447828380528,-0.162818692059,-0.300521136153
7900000000.0,-0.16637893177,-0.3028022292,0.821050360508,-0.452028087699,0.821050360508,-0.452028087699,-0.16637893177,-0.3028022292
8000000000.0,-0.169955888373,-0.305035073644,0.81717886207,-0.456180644035,0.81717886207,-0.456180644035,-0.169955888373,-0.305035073644
8100000000.0,-0.17354879829,-0.307219677702,0.813287401264,-0.46028607003,0.813287401264,-0.46028607003,-0.17354879829,-0.307219677702
8200000000.0,-0.177156903908,-0.309356063159,0.809376723542,-0.464344399732,0.809376723542,-0.464344399732,-0.177156903908,-0.309356063159
8300000000.0,-0.180779453832,-0.311444265103,0.80544756798,-0.468355680481,0.80544756798,-0.468355680481,-0.180779453832,-0.311444265103
8400000000.0,-0.184415703119,-0.313484331655,0.80150066704,-0.472319972641,0.80150066704,-0.472319972641,-0.184415703119,-0.313484331655
8500000000.0,-0.188064913509,-0.315476323696,0.797536746342,-0.476237349327,0.797536746342,-0.476237349327,-0.188064913509,-0.315476323696
8600000000.0,-0.19172635364,-0.317420314596,0.793556524442,-0.480107896126,0.793556524442,-0.480107896126,-0.19172635364,-0.317420314596
8700000000.0,-0.195399299258,-0.319316389933,0.789560712627,-0.483931710828,0.789560712627,-0.483931710828,-0.195399299258,-0.319316389933
8800000000.0,-0.199083033412,-0.321164647213,0.785550014714,-0.487708903138,0.785550014714,-0.487708903138,-0.199083033412,-0.321164647213
8900000000.0,-0.202776846644,-0.32296519559,0.781525126864,-0.491439594398,0.781525126864,-0.491439594398,-0.202776846644,-0.32296519559
9000000000.0,-0.206480037168,-0.324718155583,0.777486737397,-0.495123917304,0.777486737397,-0.495123917304,-0.206480037168,-0.324718155583
9100000000.0,-0.210191911038,-0.326423658787,0.773435526628,-0.49876201562,0.773435526628,-0.49876201562,-0.210191911038,-0.326423658787
9200000000.0,-0.213911782304,-0.328081847594,0.769372166703,-0.502354043893,0.769372166703,-0.502354043893,-0.213911782304,-0.328081847594
9300000000.0,-0.217638973169,-0.329692874902,0.765297321451,-0.505900167165,0.765297321451,-0.505900167165,-0.217638973169,-0.329692874902
9400000000.0,-0.221372814122,-0.331256903829,0.76121164624,-0.509400560691,0.76121164624,-0.509400560691,-0.221372814122,-0.331256903829
9500000000.0,-0.225112644075,-0.33277410743,0.757115787848,-0.512855409646,0.757115787848,-0.512855409646,-0.225112644075,-0.33277410743
9600000000.0,-0.228857810481,-0.334244668406,0.753010384335,-0.516264908846,0.753010384335,-0.516264908846,-0.228857810481,-0.334244668406
9700000000.0,-0.232607669451,-0.335668778821,0.748896064932,-0.519629262453,0.748896064932,-0.519629262453,-0.232607669451,-0.335668778821
9800000000.0,-0.236361585854,-0.337046639815,0.744773449937,-0.522948683699,0.744773449937,-0.522948683699,-0.236361585854,-0.337046639815
9900000000.0,-0.240118933419,-0.338378461322,0.740643150612,-0.526223394596,0.740643150612,-0.526223394596,-0.240118933419,-0.338378461322
10000000000.0,-0.243879094818,-0.339664461787,0.7365057691,-0.529453625653,0.7365057691,-0.529453625653,-0.243879094818,-0.339664461787
