freq (GHz),S11_real,S11_imag,S21_real,S21_imag,S12_real,S12_imag,S22_real,S22_imag
100000000.0,-1.9933787354e-05,-0.00398730409608,0.999979152554,-0.00399048280031,0.999979152554,-0.00399048280031,-1.9933787354e-05,-0.00398730409608
200000000.0,-7.1632668534e-05,-0.00797369064914,0.999927447409,-0.00798004899148,0.999927447409,-0.00798004899148,-7.1632668534e-05,-0.00797369064914
300000000.0,-0.000155116334464,-0.0119585433201,0.99984395904,-0.0119680827008,0.99984395904,-0.0119680827008,-0.000155116334464,-0.0119585433201
400000000.0,-0.00027034543805,-0.0159413087841,0.999728726009,-0.0159540309477,0.999728726009,-0.0159540309477,-0.00027034543805,-0.0159413087841
500000000.0,-0.000417270704072,-0.0199214686717,0.99958179729,-0.0199373756403,0.99958179729,-0.0199373756403,-0.000417270704072,-0.0199214686717
600000000.0,-0.00059583367986,-0.0238985303698,0.999403231183,-0.0239176243951,0.999403231183,-0.0239176243951,-0.00059583367986,-0.0238985303698
700000000.0,-0.000805967392677,-0.0278720217904,0.999193094572,-0.0278943053167,0.999193094572,-0.0278943053167,-0.000805967392677,-0.0278720217904
800000000.0,-0.00104759693104,-0.0318414882231,0.998951462311,-0.0318669638563,0.998951462311,-0.0318669638563,-0.00104759693104,-0.0318414882231
900000000.0,-0.00132063994855,-0.0358064903285,0.998678416706,-0.0358351608095,0.998678416706,-0.0358351608095,-0.00132063994855,-0.0358064903285
1000000000.0,-0.00162500710549,-0.0397666024382,0.998374047069,-0.0397984706202,0.998374047069,-0.0397984706202,-0.00162500710549,-0.0397666024382
1100000000.0,-0.00196060246776,-0.0437214113464,0.998038449312,-0.0437564801739,0.998038449312,-0.0437564801739,-0.00196060246776,-0.0437214113464
1200000000.0,-0.00232732386344,-0.0476705152885,0.997671725591,-0.0477087877799,0.997671725591,-0.0477087877799,-0.00232732386344,-0.0476705152885
1300000000.0,-0.00272506319784,-0.0516135229943,0.997273983988,-0.051655002225,0.997273983988,-0.051655002225,-0.00272506319784,-0.0516135229943
1400000000.0,-0.00315370674641,-0.0555500529702,0.996845338217,-0.0555947420586,0.996845338217,-0.0555947420586,-0.00315370674641,-0.0555500529702
1500000000.0,-0.00361313541142,-0.0594797327883,0.996385907368,-0.0595276348824,0.996385907368,-0.0595276348824,-0.00361313541142,-0.0594797327883
1600000000.0,-0.00410322495704,-0.0634021984921,0.995895815669,-0.0634533167577,0.995895815669,-0.0634533167577,-0.00410322495704,-0.0634021984921
1700000000.0,-0.00462384621993,-0.0673170940343,0.995375192278,-0.0673714316448,0.995375192278,-0.0673714316448,-0.00462384621993,-0.0673170940343
1800000000.0,-0.00517486529895,-0.071224070778,0.994824171092,-0.0712816309046,0.994824171092,-0.0712816309046,-0.00517486529895,-0.071224070778
1900000000.0,-0.00575614372798,-0.0751227870565,0.994242890572,-0.07518357286,0.994242890572,-0.07518357286,-0.00575614372798,-0.0751227870565
2000000000.0,-0.00636753862646,-0.0790129077314,0.993631493596,-0.0790769223549,0.993631493596,-0.0790769223549,-0.00636753862646,-0.0790129077314
2100000000.0,-0.00700890284405,-0.0828941038558,0.99299012731,-0.0829613504174,0.99299012731,-0.0829613504174,-0.00700890284405,-0.0828941038558
2200000000.0,-0.00768008508197,-0.0867660523045,0.992318943012,-0.0868365338923,0.992318943012,-0.0868365338923,-0.00768008508197,-0.0867660523045
2300000000.0,-0.00838093000698,-0.0906284354682,0.99161809603,-0.0907021551344,0.99161809603,-0.0907021551344,-0.00838093000698,-0.0906284354682
2400000000.0,-0.00911127835574,-0.0944809409844,0.990887745629,-0.0945579017413,0.990887745629,-0.0945579017413,-0.00911127835574,-0.0944809409844
2500000000.0,-0.00987096702675,-0.098323261475,0.990128054905,-0.0984034662908,0.990128054905,-0.0984034662908,-0.00987096702675,-0.098323261475
2600000000.0,-0.0106598291679,-0.102155094334,0.989339190711,-0.102238546129,0.989339190711,-0.102238546129,-0.0106598291679,-0.102155094334
2700000000.0,-0.0114776942497,-0.105976141498,0.988521323575,-0.106062843144,0.988521323575,-0.106062843144,-0.0114776942497,-0.105976141498
2800000000.0,-0.0123243881424,-0.109786109294,0.987674627624,-0.109876063608,0.987674627624,-0.109876063608,-0.0123243881424,-0.109786109294
2900000000.0,-0.013199733184,-0.113584708281,0.98679928052,-0.113677918027,0.98679928052,-0.113677918027,-0.013199733184,-0.113584708281
3000000000.0,-0.0141035482347,-0.117371653076,0.985895463402,-0.117468120961,0.985895463402,-0.117468120961,-0.0141035482347,-0.117371653076
3100000000.0,-0.015035648745,-0.121146662273,0.984963360817,-0.121246390947,0.984963360817,-0.121246390947,-0.015035648745,-0.121146662273
3200000000.0,-0.0159958468071,-0.124909458312,0.984003160674,-0.125012450366,0.984003160674,-0.125012450366,-0.0159958468071,-0.124909458312
3300000000.0,-0.0169839512097,-0.128659767399,0.983015054182,-0.128766025366,0.983015054182,-0.128766025366,-0.0169839512097,-0.128659767399
3400000000.0,-0.0179997674903,-0.132397319426,0.981999235803,-0.132506845778,0.981999235803,-0.132506845778,-0.0179997674903,-0.132397319426
3500000000.0,-0.0190430979873,-0.136121847916,0.980955903199,-0.136234645066,0.980955903199,-0.136234645066,-0.0190430979873,-0.136121847916
3600000000.0,-0.0201137418878,-0.139833089956,0.979885257182,-0.139949160258,0.979885257182,-0.139949160258,-0.0201137418878,-0.139833089956
3700000000.0,-0.0212114952814,-0.143530786178,0.978787501661,-0.143650131926,0.978787501661,-0.143650131926,-0.0212114952814,-0.143530786178
3800000000.0,-0.022336151205,-0.147214680707,0.9776628436,-0.147337304134,0.9776628436,-0.147337304134,-0.022336151205,-0.147214680707
3900000000.0,-0.0234874996968,-0.150884521154,0.976511492959,-0.151010424436,0.976511492959,-0.151010424436,-0.0234874996968,-0.150884521154
4000000000.0,-0.0246653278436,-0.154540058588,0.975333662651,-0.154669243844,0.975333662651,-0.154669243844,-0.0246653278436,-0.154540058588
4100000000.0,-0.0258694198339,-0.158181047543,0.974129568488,-0.158313516832,0.974129568488,-0.158313516832,-0.0258694198339,-0.158181047543
4200000000.0,-0.0270995570095,-0.161807246009,0.972899429128,-0.161943001334,0.972899429128,-0.161943001334,-0.0270995570095,-0.161807246009
4300000000.0,-0.0283555179171,-0.165418415436,0.971643466023,-0.165557458745,0.971643466023,-0.165557458745,-0.0283555179171,-0.165418415436
4400000000.0,-0.0296370783616,-0.169014320741,0.970361903368,-0.169156653926,0.970361903368,-0.169156653926,-0.0296370783616,-0.169014320741
4500000000.0,-0.030944011466,-0.172594730337,0.96905496804,-0.172740355238,0.96905496804,-0.172740355238,-0.030944011466,-0.172594730337
4600000000.0,-0.0322760877187,-0.176159416123,0.967722889551,-0.176308334524,0.967722889551,-0.176308334524,-0.0322760877187,-0.176159416123
4700000000.0,-0.033633075039,-0.179708153527,0.966365899981,-0.179860367163,0.966365899981,-0.179860367163,-0.033633075039,-0.179708153527
4800000000.0,-0.0350147388324,-0.18324072152,0.964984233923,-0.183396232075,0.964984233923,-0.183396232075,-0.0350147388324,-0.18324072152
4900000000.0,-0.036420842051,-0.186756902642,0.963578128427,-0.18691571175,0.963578128427,-0.18691571175,-0.036420842051,-0.186756902642
5000000000.0,-0.0378511452542,-0.190256483026,0.962147822932,-0.190418592271,0.962147822932,-0.190418592271,-0.0378511452542,-0.190256483026
5100000000.0,-0.0393054066724,-0.193739252427,0.960693559208,-0.193904663348,0.960693559208,-0.193904663348,-0.0393054066724,-0.193739252427
5200000000.0,-0.0407833822706,-0.197205004252,0.959215581289,-0.197373718341,0.959215581289,-0.197373718341,-0.0407833822706,-0.197205004252
5300000000.0,-0.0422848258124,-0.200653535588,0.957714135413,-0.200825554292,0.957714135413,-0.200825554292,-0.0422848258124,-0.200653535588
5400000000.0,-0.0438094889277,-0.204084647229,0.956189469948,-0.204259971952,0.956189469948,-0.204259971952,-0.0438094889277,-0.204084647229
5500000000.0,-0.045357121179,-0.207498143712,0.954641835333,-0.207676775814,0.954641835333,-0.207676775814,-0.045357121179,-0.207498143712
5600000000.0,-0.0469274701315,-0.21089383334,0.953071484001,-0.211075774141,0.953071484001,-0.211075774141,-0.0469274701315,-0.21089383334
5700000000.0,-0.0485202814186,-0.21427152821,0.95147867032,-0.214456778989,0.95147867032,-0.214456778989,-0.0485202814186,-0.21427152821
5800000000.0,-0.0501352988186,-0.217631044249,0.949863650512,-0.217819606246,0.949863650512,-0.217819606246,-0.0501352988186,-0.217631044249
5900000000.0,-0.05177226432,-0.220972201235,0.948226682587,-0.221164075652,0.948226682587,-0.221164075652,-0.05177226432,-0.220972201235
6000000000.0,-0.0534309181969,-0.224294822823,0.946568026271,-0.224490010824,0.946568026271,-0.224490010824,-0.0534309181969,-0.224294822823
6100000000.0,-0.055110999081,-0.227598736572,0.944887942933,-0.227797239288,0.944887942933,-0.227797239288,-0.055110999081,-0.227598736572
6200000000.0,-0.0568122440369,-0.230883773975,0.943186695508,-0.231085592498,0.943186695508,-0.231085592498,-0.0568122440369,-0.230883773975
6300000000.0,-0.0585343886331,-0.23414977047,0.941464548427,-0.234354905862,0.941464548427,-0.234354905862,-0.0585343886331,-0.23414977047
6400000000.0,-0.0602771670187,-0.237396565468,0.939721767542,-0.237605018756,0.939721767542,-0.237605018756,-0.0602771670187,-0.237396565468
6500000000.0,-0.0620403119984,-0.240624002374,0.937958620047,-0.240835774553,0.937958620047,-0.240835774553,-0.0620403119984,-0.240624002374
6600000000.0,-0.0638235551078,-0.243831928599,0.936175374408,-0.244047020636,0.936175374408,-0.244047020636,-0.0638235551078,-0.243831928599
6700000000.0,-0.0656266266905,-0.247020195586,0.934372300279,-0.247238608416,0.934372300279,-0.247238608416,-0.0656266266905,-0.247020195586
6800000000.0,-0.0674492559726,-0.250188658817,0.932549668436,-0.250410393345,0.932549668436,-0.250410393345,-0.0674492559726,-0.250188658817
6900000000.0,-0.0692911711385,-0.253337177825,0.930707750693,-0.25356223493,0.930707750693,-0.25356223493,-0.0692911711385,-0.253337177825
7000000000.0,-0.07115209941,-0.256465616211,0.928846819829,-0.256693996744,0.928846819829,-0.256693996744,-0.07115209941,-0.256465616211
7100000000.0,-0.0730317671207,-0.25957384165,0.926967149511,-0.259805546437,0.926967149511,-0.259805546437,-0.0730317671207,-0.25957384165
7200000000.0,-0.074929899793,-0.2626617259,0.925069014216,-0.26289675574,0.925069014216,-0.26289675574,-0.074929899793,-0.2626617259
7300000000.0,-0.0768462222137,-0.265729144805,0.923152689156,-0.265967500472,0.923152689156,-0.265967500472,-0.0768462222137,-0.265729144805
7400000000.0,-0.0787804585124,-0.268775978303,0.921218450204,-0.269017660547,0.921218450204,-0.269017660547,-0.0787804585124,-0.268775978303
7500000000.0,-0.0807323322342,-0.271802110421,0.919266573812,-0.272047119972,0.919266573812,-0.272047119972,-0.0807323322342,-0.271802110421
7600000000.0,-0.0827015664173,-0.274807429283,0.917297336944,-0.275055766846,0.917297336944,-0.275055766846,-0.0827015664173,-0.274807429283
7700000000.0,-0.0846878836687,-0.277791827104,0.915311016992,-0.278043493361,0.915311016992,-0.278043493361,-0.0846878836687,-0.277791827104
7800000000.0,-0.0866910062382,-0.280755200186,0.913307891706,-0.281010195801,0.913307891706,-0.281010195801,-0.0866910062382,-0.280755200186
7900000000.0,-0.0887106560924,-0.283697448913,0.91128823912,-0.283955774529,0.91128823912,-0.283955774529,-0.0887106560924,-0.283697448913
8000000000.0,-0.0907465549902,-0.286618477746,0.909252337475,-0.286880133985,0.909252337475,-0.286880133985,-0.0907465549902,-0.286618477746
8100000000.0,-0.0927984245534,-0.289518195208,0.907200465148,-0.289783182676,0.907200465148,-0.289783182676,-0.0927984245534,-0.289518195208
8200000000.0,-0.0948659863439,-0.292396513884,0.90513290058,-0.292664833165,0.90513290058,-0.292664833165,-0.0948659863439,-0.292396513884
8300000000.0,-0.0969489619326,-0.295253350398,0.903049922197,-0.295525002059,0.903049922197,-0.295525002059,-0.0969489619326,-0.295253350398
8400000000.0,-0.0990470729687,-0.298088625398,0.900951808352,-0.298363609991,0.900951808352,-0.298363609991,-0.0990470729687,-0.298088625398
8500000000.0,-0.101160041256,-0.300902263552,0.898838837239,-0.301180581611,0.898838837239,-0.301180581611,-0.101160041256,-0.300902263552
8600000000.0,-0.10328758882,-0.30369419352,0.896711286835,-0.303975845562,0.896711286835,-0.303975845562,-0.10328758882,-0.30369419352
8700000000.0,-0.105429437974,-0.306464347935,0.894569434826,-0.306749334463,0.894569434826,-0.306749334463,-0.105429437974,-0.306464347935
8800000000.0,-0.107585311392,-0.30921266339,0.892413558536,-0.30950098489,0.892413558536,-0.30950098489,-0.107585311392,-0.30921266339
8900000000.0,-0.109754932172,-0.311939080405,0.890243934869,-0.312230737351,0.890243934869,-0.312230737351,-0.109754932172,-0.311939080405
9000000000.0,-0.111938023909,-0.314643543415,0.88806084023,-0.314938536265,0.88806084023,-0.314938536265,-0.111938023909,-0.314643543415
9100000000.0,-0.114134310751,-0.317326000736,0.88586455047,-0.317624329935,0.88586455047,-0.317624329935,-0.114134310751,-0.317326000736
9200000000.0,-0.116343517469,-0.319986404539,0.883655340819,-0.320288070519,0.883655340819,-0.320288070519,-0.116343517469,-0.319986404539
9300000000.0,-0.11856536952,-0.322624710829,0.88143348582,-0.322929714009,0.88143348582,-0.322929714009,-0.11856536952,-0.322624710829
9400000000.0,-0.120799593108,-0.325240879407,0.879199259269,-0.325549220192,0.879199259269,-0.325549220192,-0.120799593108,-0.325240879407
9500000000.0,-0.123045915247,-0.327834873846,0.876952934151,-0.328146552632,0.876952934151,-0.328146552632,-0.123045915247,-0.327834873846
9600000000.0,-0.125304063819,-0.330406661455,0.874694782585,-0.330721678625,0.874694782585,-0.330721678625,-0.125304063819,-0.330406661455
9700000000.0,-0.127573767633,-0.332956213248,0.872425075761,-0.333274569175,0.872425075761,-0.333274569175,-0.127573767633,-0.332956213248
9800000000.0,-0.129854756485,-0.335483503912,0.870144083884,-0.335805198955,0.870144083884,-0.335805198955,-0.129854756485,-0.335483503912
9900000000.0,-0.132146761213,-0.337988511765,0.867852076116,-0.338313546275,0.867852076116,-0.338313546275,-0.132146761213,-0.337988511765
10000000000.0,-0.134449513754,-0.340471218726,0.86554932052,-0.340799593044,0.86554932052,-0.340799593044,-0.134449513754,-0.340471218726
