freq (GHz),S11_real,S11_imag,S21_real,S21_imag,S12_real,S12_imag,S22_real,S22_imag
100000000.0,0.00809782560947,0.00259037907594,0.991898416444,-0.00418579939213,0.991898416444,-0.00418579939213,0.00809782560947,0.00259037907594
200000000.0,0.00818330053367,0.00517982272882,0.991807631065,-0.00837068530354,0.991807631065,-0.00837068530354,0.00818330053367,0.00517982272882
300000000.0,0.00827642957034,0.0077684091351,0.99170663874,-0.0125547508312,0.99170663874,-0.0125547508312,0.00827642957034,0.0077684091351
400000000.0,0.00838418181363,0.0103560245172,0.991588469981,-0.0167378942491,0.991588469981,-0.0167378942491,0.00838418181363,0.0103560245172
500000000.0,0.00850923477609,0.0129425104909,0.99145044681,-0.0209199677663,0.99145044681,-0.0209199677663,0.00850923477609,0.0129425104909
600000000.0,0.00865294682043,0.0155276890273,0.991291210328,-0.0251008029861,0.991291210328,-0.0251008029861,0.00865294682043,0.0155276890273
700000000.0,0.00881611283737,0.0181113714515,0.99110996504,-0.0292802201589,0.99110996504,-0.0292802201589,0.00881611283737,0.0181113714515
800000000.0,0.00899924005169,0.0206933626394,0.990906203052,-0.0334580325315,0.990906203052,-0.0334580325315,0.00899924005169,0.0206933626394
900000000.0,0.00920267082567,0.0232734632905,0.990679581269,-0.0376340487214,0.990679581269,-0.0376340487214,0.00920267082567,0.0232734632905
1000000000.0,0.0094266449052,0.0258514712891,0.990429859148,-0.041808074149,0.990429859148,-0.041808074149,0.0094266449052,0.0258514712891
1100000000.0,0.00967133402193,0.0284271825827,0.990156864103,-0.0459799119688,0.990156864103,-0.0459799119688,0.00967133402193,0.0284271825827
1200000000.0,0.00993686251255,0.031000391782,0.989860470882,-0.0501493637097,0.989860470882,-0.0501493637097,0.00993686251255,0.031000391782
1300000000.0,0.0102233202929,0.0335708925913,0.989540588597,-0.0543162297381,0.989540588597,-0.0543162297381,0.0102233202929,0.0335708925913
1400000000.0,0.0105307713877,0.0361384781296,0.989197152195,-0.0584803096038,0.989197152195,-0.0584803096038,0.0105307713877,0.0361384781296
1500000000.0,0.0108592597454,0.0387029411782,0.988830116644,-0.0626414023096,0.988830116644,-0.0626414023096,0.0108592597454,0.0387029411782
1600000000.0,0.0112088133242,0.0412640743772,0.988439452849,-0.0667993065255,0.988439452849,-0.0667993065255,0.0112088133242,0.0412640743772
1700000000.0,0.0115794470402,0.0438216703866,0.988025144701,-0.0709538207648,0.988025144701,-0.0709538207648,0.0115794470402,0.0438216703866
1800000000.0,0.0119711649418,0.0463755220204,0.987587186909,-0.0751047435312,0.987587186909,-0.0751047435312,0.0119711649418,0.0463755220204
1900000000.0,0.0123839618467,0.0489254223613,0.987125583361,-0.0792518734446,0.987125583361,-0.0792518734446,0.0123839618467,0.0489254223613
2000000000.0,0.0128178245954,0.0514711648598,0.986640345871,-0.0833950093505,0.986640345871,-0.0833950093505,0.0128178245954,0.0514711648598
2100000000.0,0.013272733027,0.0540125434226,0.986131493205,-0.0875339504167,0.986131493205,-0.0875339504167,0.013272733027,0.0540125434226
2200000000.0,0.0137486607494,0.056549352491,0.985599050309,-0.0916684962194,0.985599050309,-0.0916684962194,0.0137486607494,0.056549352491
2300000000.0,0.0142455757558,0.0590813871124,0.985043047698,-0.0957984468219,0.985043047698,-0.0957984468219,0.0142455757558,0.0590813871124
2400000000.0,0.0147634409236,0.0616084430057,0.984463520953,-0.0999236028462,0.984463520953,-0.0999236028462,0.0147634409236,0.0616084430057
2500000000.0,0.0153022144232,0.0641303166222,0.983860510316,-0.104043765539,0.983860510316,-0.104043765539,0.0153022144232,0.0641303166222
2600000000.0,0.0158618500566,0.0666468052019,0.983234060348,-0.108158736834,0.983234060348,-0.108158736834,0.0158618500566,0.0666468052019
2700000000.0,0.0164422975411,0.0691577068269,0.98258421965,-0.11226831941,0.98258421965,-0.11226831941,0.0164422975411,0.0691577068269
2800000000.0,0.0170435027479,0.0716628204715,0.981911040625,-0.116372316743,0.981911040625,-0.116372316743,0.0170435027479,0.0716628204715
2900000000.0,0.0176654079068,0.0741619460504,0.981214579269,-0.120470533161,0.981214579269,-0.120470533161,0.0176654079068,0.0741619460504
3000000000.0,0.018307951782,0.0766548844639,0.980494895,-0.124562773892,0.980494895,-0.124562773892,0.018307951782,0.0766548844639
3100000000.0,0.0189710698244,0.079141437642,0.979752050505,-0.128648845112,0.979752050505,-0.128648845112,0.0189710698244,0.079141437642
3200000000.0,0.0196546943059,0.0816214085864,0.978986111606,-0.132728553988,0.978986111606,-0.132728553988,0.0196546943059,0.0816214085864
3300000000.0,0.0203587544373,0.0840946014111,0.978197147143,-0.136801708725,0.978197147143,-0.136801708725,0.0203587544373,0.0840946014111
3400000000.0,0.0210831764741,0.0865608213814,0.977385228866,-0.140868118603,0.977385228866,-0.140868118603,0.0210831764741,0.0865608213814
3500000000.0,0.0218278838109,0.0890198749519,0.976550431344,-0.144927594022,0.976550431344,-0.144927594022,0.0218278838109,0.0890198749519
3600000000.0,0.0225927970673,0.0914715698037,0.975692831881,-0.148979946539,0.975692831881,-0.148979946539,0.0225927970673,0.0914715698037
3700000000.0,0.0233778341664,0.0939157148793,0.97481251043,-0.153024988906,0.97481251043,-0.153024988906,0.0233778341664,0.0939157148793
3800000000.0,0.0241829104067,0.096352120418,0.973909549531,-0.157062535108,0.973909549531,-0.157062535108,0.0241829104067,0.096352120418
3900000000.0,0.0250079385288,0.098780597989,0.972984034239,-0.161092400397,0.972984034239,-0.161092400397,0.0250079385288,0.098780597989
4000000000.0,0.0258528287774,0.101200960525,0.972036052063,-0.165114401327,0.972036052063,-0.165114401327,0.0258528287774,0.101200960525
4100000000.0,0.0267174889603,0.103613022353,0.971065692908,-0.169128355788,0.971065692908,-0.169128355788,0.0267174889603,0.103613022353
4200000000.0,0.0276018245025,0.106016599226,0.970073049022,-0.17313408304,0.970073049022,-0.17313408304,0.0276018245025,0.106016599226
4300000000.0,0.0285057384997,0.108411508355,0.96905821494,-0.177131403742,0.96905821494,-0.177131403742,0.0285057384997,0.108411508355
4400000000.0,0.0294291317672,0.110797568435,0.968021287439,-0.181120139986,0.968021287439,-0.181120139986,0.0294291317672,0.110797568435
4500000000.0,0.0303719028885,0.113174599676,0.966962365486,-0.185100115326,0.966962365486,-0.185100115326,0.0303719028885,0.113174599676
4600000000.0,0.031333948261,0.115542423831,0.965881550195,-0.189071154805,0.965881550195,-0.189071154805,0.031333948261,0.115542423831
4700000000.0,0.0323151621411,0.117900864222,0.964778944783,-0.193033084987,0.964778944783,-0.193033084987,0.0323151621411,0.117900864222
4800000000.0,0.0333154366873,0.120249745769,0.963654654521,-0.196985733985,0.963654654521,-0.196985733985,0.0333154366873,0.120249745769
4900000000.0,0.0343346620024,0.122588895011,0.962508786702,-0.200928931484,0.962508786702,-0.200928931484,0.0343346620024,0.122588895011
5000000000.0,0.035372726175,0.124918140139,0.96134145059,-0.20486250877,0.96134145059,-0.20486250877,0.035372726175,0.124918140139
5100000000.0,0.03642951532,0.12723731101,0.960152757387,-0.208786298756,0.960152757387,-0.208786298756,0.03642951532,0.12723731101
5200000000.0,0.0375049136182,0.129546239182,0.958942820187,-0.212700136005,0.958942820187,-0.212700136005,0.0375049136182,0.129546239182
5300000000.0,0.0385988033555,0.131844757926,0.957711753942,-0.216603856754,0.957711753942,-0.216603856754,0.0385988033555,0.131844757926
5400000000.0,0.0397110649618,0.134132702259,0.956459675423,-0.220497298941,0.956459675423,-0.220497298941,0.0397110649618,0.134132702259
5500000000.0,0.0408415770489,0.136409908955,0.95518670318,-0.22438030222,0.95518670318,-0.22438030222,0.0408415770489,0.136409908955
5600000000.0,0.0419902164484,0.138676216577,0.953892957504,-0.228252707992,0.953892957504,-0.228252707992,0.0419902164484,0.138676216577
5700000000.0,0.0431568582489,0.140931465487,0.952578560392,-0.232114359419,0.952578560392,-0.232114359419,0.0431568582489,0.140931465487
5800000000.0,0.0443413758338,0.143175497872,0.951243635509,-0.235965101447,0.951243635509,-0.235965101447,0.0443413758338,0.143175497872
5900000000.0,0.0455436409175,0.145408157763,0.949888308151,-0.239804780826,0.949888308151,-0.239804780826,0.0455436409175,0.145408157763
6000000000.0,0.0467635235824,0.14762929105,0.948512705207,-0.243633246131,0.948512705207,-0.243633246131,0.0467635235824,0.14762929105
6100000000.0,0.0480008923152,0.1498387455,0.947116955126,-0.247450347774,0.947116955126,-0.247450347774,0.0480008923152,0.1498387455
6200000000.0,0.0492556140435,0.152036370778,0.945701187879,-0.25125593803,0.945701187879,-0.25125593803,0.0492556140435,0.152036370778
6300000000.0,0.0505275541716,0.15422201846,0.944265534921,-0.255049871046,0.944265534921,-0.255049871046,0.0505275541716,0.15422201846
6400000000.0,0.0518165766168,0.156395542048,0.94281012916,-0.258832002864,0.94281012916,-0.258832002864,0.0518165766168,0.156395542048
6500000000.0,0.0531225438449,0.158556796987,0.941335104917,-0.262602191434,0.941335104917,-0.262602191434,0.0531225438449,0.158556796987
6600000000.0,0.0544453169063,0.16070564068,0.93984059789,-0.266360296625,0.93984059789,-0.266360296625,0.0544453169063,0.16070564068
6700000000.0,0.0557847554715,0.1628419325,0.938326745122,-0.270106180248,0.938326745122,-0.270106180248,0.0557847554715,0.1628419325
6800000000.0,0.0571407178668,0.164965533802,0.936793684963,-0.27383970606,0.936793684963,-0.27383970606,0.0571407178668,0.164965533802
6900000000.0,0.0585130611094,0.167076307939,0.935241557036,-0.277560739785,0.935241557036,-0.277560739785,0.0585130611094,0.167076307939
7000000000.0,0.0599016409431,0.169174120271,0.933670502199,-0.281269149123,0.933670502199,-0.281269149123,0.0599016409431,0.169174120271
7100000000.0,0.0613063118733,0.171258838177,0.932080662514,-0.284964803758,0.932080662514,-0.284964803758,0.0613063118733,0.171258838177
7200000000.0,0.0627269272026,0.173330331067,0.930472181208,-0.288647575377,0.930472181208,-0.288647575377,0.0627269272026,0.173330331067
7300000000.0,0.0641633390654,0.175388470387,0.928845202642,-0.292317337672,0.928845202642,-0.292317337672,0.0641633390654,0.175388470387
7400000000.0,0.0656153984629,0.177433129637,0.92719987227,-0.295973966358,0.92719987227,-0.295973966358,0.0656153984629,0.177433129637
7500000000.0,0.0670829552983,0.179464184369,0.92553633661,-0.299617339174,0.92553633661,-0.299617339174,0.0670829552983,0.179464184369
7600000000.0,0.0685658584114,0.181481512204,0.923854743209,-0.303247335896,0.923854743209,-0.303247335896,0.0685658584114,0.181481512204
7700000000.0,0.0700639556133,0.183484992836,0.922155240603,-0.306863838346,0.922155240603,-0.306863838346,0.0700639556133,0.183484992836
7800000000.0,0.0715770937208,0.185474508036,0.920437978289,-0.310466730396,0.920437978289,-0.310466730396,0.0715770937208,0.185474508036
7900000000.0,0.0731051185909,0.187449941663,0.918703106685,-0.314055897974,0.918703106685,-0.314055897974,0.0731051185909,0.187449941663
8000000000.0,0.0746478751554,0.189411179667,0.916950777101,-0.317631229075,0.916950777101,-0.317631229075,0.0746478751554,0.189411179667
8100000000.0,0.0762052074547,0.191358110095,0.9151811417,-0.321192613761,0.9151811417,-0.321192613761,0.0762052074547,0.191358110095
8200000000.0,0.077776958672,0.193290623095,0.913394353468,-0.324739944167,0.913394353468,-0.324739944167,0.077776958672,0.193290623095
8300000000.0,0.0793629711672,0.195208610917,0.911590566177,-0.328273114509,0.911590566177,-0.328273114509,0.0793629711672,0.195208610917
8400000000.0,0.0809630865107,0.197111967923,0.909769934354,-0.331792021081,0.909769934354,-0.331792021081,0.0809630865107,0.197111967923
8500000000.0,0.082577145517,0.199000590583,0.907932613244,-0.335296562264,0.907932613244,-0.335296562264,0.082577145517,0.199000590583
8600000000.0,0.0842049882781,0.20087437748,0.906078758781,-0.338786638525,0.906078758781,-0.338786638525,0.0842049882781,0.20087437748
8700000000.0,0.0858464541967,0.202733229312,0.90420852755,-0.342262152419,0.90420852755,-0.342262152419,0.0858464541967,0.202733229312
8800000000.0,0.0875013820195,0.204577048892,0.902322076757,-0.345723008591,0.902322076757,-0.345723008591,0.0875013820195,0.204577048892
8900000000.0,0.0891696098699,0.206405741147,0.900419564196,-0.349169113776,0.900419564196,-0.349169113776,0.0891696098699,0.206405741147
9000000000.0,0.0908509752809,0.208219213121,0.898501148215,-0.352600376803,0.898501148215,-0.352600376803,0.0908509752809,0.208219213121
9100000000.0,0.0925453152275,0.210017373973,0.896566987685,-0.356016708585,0.896566987685,-0.356016708585,0.0925453152275,0.210017373973
9200000000.0,0.094252466159,0.211800134973,0.894617241964,-0.35941802213,0.894617241964,-0.35941802213,0.094252466159,0.211800134973
9300000000.0,0.0959722640311,0.213567409506,0.892652070872,-0.362804232531,0.892652070872,-0.362804232531,0.0959722640311,0.213567409506
9400000000.0,0.097704544338,0.215319113063,0.890671634652,-0.366175256965,0.890671634652,-0.366175256965,0.097704544338,0.215319113063
9500000000.0,0.0994491421438,0.217055163245,0.88867609394,-0.369531014695,0.88867609394,-0.369531014695,0.0994491421438,0.217055163245
9600000000.0,0.101205892114,0.218775479753,0.886665609738,-0.372871427061,0.886665609738,-0.372871427061,0.101205892114,0.218775479753
9700000000.0,0.102974628547,0.220479984389,0.884640343376,-0.376196417482,0.884640343376,-0.376196417482,0.102974628547,0.220479984389
9800000000.0,0.104755185403,0.222168601051,0.882600456487,-0.379505911448,0.882600456487,-0.379505911448,0.104755185403,0.222168601051
9900000000.0,0.10654739634,0.223841255726,0.880546110974,-0.382799836516,0.880546110974,-0.382799836516,0.10654739634,0.223841255726
10000000000.0,0.108351094737,0.225497876487,0.878477468977,-0.386078122305,0.878477468977,-0.386078122305,0.108351094737,0.225497876487
