freq (GHz),S11_real,S11_imag,S21_real,S21_imag,S12_real,S12_imag,S22_real,S22_imag
100000000.0,-0.000817305404138,-0.0283830100574,0.999135246286,-0.0285908494344,0.999135246286,-0.0285908494344,-0.000817305404138,-0.0283830100574
200000000.0,-0.00327363777197,-0.0566223859993,0.99667852542,-0.0570381268202,0.99667852542,-0.0570381268202,-0.00327363777197,-0.0566223859993
300000000.0,-0.00732161425822,-0.0845811379018,0.992630198736,-0.0852048742276,0.992630198736,-0.0852048742276,-0.00732161425822,-0.0845811379018
400000000.0,-0.0129217107248,-0.112127095573,0.987029749497,-0.112958945782,0.987029749497,-0.112958945782,-0.0129217107248,-0.112127095573
500000000.0,-0.0200202685884,-0.139134805268,0.979930820559,-0.140174907995,0.979930820559,-0.140174907995,-0.0200202685884,-0.139134805268
600000000.0,-0.0285507638726,-0.165487284984,0.971399927856,-0.16673579634,0.971399927856,-0.16673579634,-0.0285507638726,-0.165487284984
700000000.0,-0.0384353297561,-0.191077530436,0.961514933425,-0.192534621876,0.961514933425,-0.192534621876,-0.0384353297561,-0.191077530436
800000000.0,-0.049586467824,-0.215809724099,0.950363332545,-0.217475580699,0.950363332545,-0.217475580699,-0.049586467824,-0.215809724099
900000000.0,-0.0619088817893,-0.239600122751,0.938040419296,-0.241474941751,0.938040419296,-0.241474941751,-0.0619088817893,-0.239600122751
1000000000.0,-0.0753013673563,-0.26237761651,0.92464739634,-0.264461606055,0.92464739634,-0.264461606055,-0.0753013673563,-0.26237761651
1100000000.0,-0.0896586951462,-0.2840839674,0.910289491792,-0.286377345427,0.910289491792,-0.286377345427,-0.0896586951462,-0.2840839674
1200000000.0,-0.104873429849,-0.304673748138,0.895074139949,-0.307176741387,0.895074139949,-0.307176741387,-0.104873429849,-0.304673748138
1300000000.0,-0.12083763725,-0.324114011845,0.879109274189,-0.326826854964,0.879109274189,-0.326826854964,-0.12083763725,-0.324114011845
1400000000.0,-0.137444440689,-0.342383730516,0.862501770468,-0.345306665253,0.862501770468,-0.345306665253,-0.137444440689,-0.342383730516
1500000000.0,-0.154589399007,-0.35947304441,0.845356069332,-0.362606318869,0.845356069332,-0.362606318869,-0.154589399007,-0.35947304441
1600000000.0,-0.172171688437,-0.375382366083,0.82777299401,-0.378726234049,0.82777299401,-0.378726234049,-0.172171688437,-0.375382366083
1700000000.0,-0.19009508052,-0.390121382164,0.809848772481,-0.393676102482,0.809848772481,-0.393676102482,-0.19009508052,-0.390121382164
1800000000.0,-0.20826871665,-0.403707993302,0.791674262916,-0.4074738293,0.791674262916,-0.4074738293,-0.20826871665,-0.403707993302
1900000000.0,-0.226607686875,-0.416167228765,0.773334374862,-0.420144447728,0.773334374862,-0.420144447728,-0.226607686875,-0.416167228765
2000000000.0,-0.245033426131,-0.427530167245,0.754907673016,-0.431719039926,0.754907673016,-0.431719039926,-0.245033426131,-0.427530167245
2100000000.0,-0.263473944964,-0.437832890019,0.736466146482,-0.442233690193,0.736466146482,-0.442233690193,-0.263473944964,-0.437832890019
2200000000.0,-0.281863914365,-0.447115487153,0.718075123943,-0.451728491197,0.718075123943,-0.451728491197,-0.281863914365,-0.447115487153
2300000000.0,-0.300144625508,-0.455421132111,0.699793313912,-0.460246618623,0.699793313912,-0.460246618623,-0.300144625508,-0.455421132111
2400000000.0,-0.318263845368,-0.462795235314,0.68167294912,-0.467833484757,0.68167294912,-0.467833484757,-0.318263845368,-0.462795235314
2500000000.0,-0.336175588493,-0.46928468285,0.663760014732,-0.474535977229,0.663760014732,-0.474535977229,-0.336175588493,-0.46928468285
2600000000.0,-0.353839823898,-0.474937162934,0.646094541464,-0.480401785492,0.646094541464,-0.480401785492,-0.353839823898,-0.474937162934
2700000000.0,-0.371222134304,-0.47980057967,0.628710946327,-0.485478814612,0.628710946327,-0.485478814612,-0.371222134304,-0.47980057967
2800000000.0,-0.388293342987,-0.483922551386,0.611638405792,-0.489814683627,0.611638405792,-0.489814683627,-0.388293342987,-0.483922551386
2900000000.0,-0.405029121378,-0.48734998902,0.594901248178,-0.49345630395,0.594901248178,-0.49345630395,-0.405029121378,-0.48734998902
3000000000.0,-0.421409588517,-0.490128748852,0.578519354206,-0.496449532121,0.578519354206,-0.496449532121,-0.421409588517,-0.490128748852
3100000000.0,-0.437418911443,-0.492303353091,0.562508556601,-0.498838890414,0.562508556601,-0.498838890414,-0.437418911443,-0.492303353091
3200000000.0,-0.453044913782,-0.493916771454,0.546881031507,-0.500667348437,0.546881031507,-0.500667348437,-0.453044913782,-0.493916771454
3300000000.0,-0.468278698143,-0.495010256787,0.53164567609,-0.501976158759,0.53164567609,-0.501976158759,-0.468278698143,-0.495010256787
3400000000.0,-0.483114286457,-0.495623227896,0.516808468199,-0.502804739766,0.516808468199,-0.502804739766,-0.483114286457,-0.495623227896
3500000000.0,-0.497548281174,-0.495793193091,0.50237280517,-0.503190599212,0.50237280517,-0.503190599212,-0.497548281174,-0.495793193091
3600000000.0,-0.51157954915,-0.495555708355,0.488339819934,-0.503169292407,0.488339819934,-0.503169292407,-0.51157954915,-0.495555708355
3700000000.0,-0.525208929228,-0.494944364541,0.474708673441,-0.502774409422,0.474708673441,-0.502774409422,-0.525208929228,-0.494944364541
3800000000.0,-0.538438963787,-0.493990798558,0.461476823107,-0.50203758629,0.461476823107,-0.50203758629,-0.538438963787,-0.493990798558
3900000000.0,-0.551273654017,-0.492724724014,0.448640267541,-0.500988535654,0.448640267541,-0.500988535654,-0.551273654017,-0.492724724014
4000000000.0,-0.563718238236,-0.491173977357,0.436193768228,-0.499655092927,0.436193768228,-0.499655092927,-0.563718238236,-0.491173977357
4100000000.0,-0.575778992283,-0.489364576048,0.424131049133,-0.498063274465,0.424131049133,-0.498063274465,-0.575778992283,-0.489364576048
4200000000.0,-0.587463050791,-0.48732078578,0.412444975432,-0.496237344802,0.412444975432,-0.496237344802,-0.587463050791,-0.48732078578
4300000000.0,-0.598778248016,-0.485065194205,0.401127712678,-0.494199890381,0.401127712678,-0.494199890381,-0.598778248016,-0.485065194205
4400000000.0,-0.609732976826,-0.482618789033,0.390170867818,-0.491971897661,0.390170867818,-0.491971897661,-0.609732976826,-0.482618789033
4500000000.0,-0.620336064402,-0.480001038704,0.379565613484,-0.489572833799,0.379565613484,-0.489572833799,-0.620336064402,-0.480001038704
4600000000.0,-0.630596663252,-0.477229974185,0.369302796987,-0.487020728452,0.369302796987,-0.487020728452,-0.630596663252,-0.477229974185
4700000000.0,-0.640524156134,-0.474322270681,0.359373035388,-0.484332255489,0.359373035388,-0.484332255489,-0.640524156134,-0.474322270681
4800000000.0,-0.650128073562,-0.471293328316,0.349766797995,-0.481522813688,0.349766797995,-0.481522813688,-0.650128073562,-0.471293328316
4900000000.0,-0.659418022651,-0.468157351038,0.340474477515,-0.478606605638,0.340474477515,-0.478606605638,-0.659418022651,-0.468157351038
5000000000.0,-0.668403626101,-0.464927423162,0.331486451074,-0.475596714288,0.331486451074,-0.475596714288,-0.668403626101,-0.464927423162
5100000000.0,-0.677094470238,-0.461615583137,0.322793132174,-0.472505176723,0.322793132174,-0.472505176723,-0.677094470238,-0.461615583137
5200000000.0,-0.685500061091,-0.45823289423,0.314385014613,-0.469343054844,0.314385014613,-0.469343054844,-0.685500061091,-0.45823289423
5300000000.0,-0.693629787598,-0.454789511911,0.306252709284,-0.466120502767,0.306252709284,-0.466120502767,-0.693629787598,-0.454789511911
5400000000.0,-0.701492891074,-0.45129474784,0.298386974703,-0.462846830807,0.298386974703,-0.462846830807,-0.701492891074,-0.45129474784
5500000000.0,-0.709098440199,-0.447757130396,0.290778742022,-0.459530566009,0.290778742022,-0.459530566009,-0.709098440199,-0.447757130396
5600000000.0,-0.716455310827,-0.44418446174,0.283419135221,-0.456179509219,0.283419135221,-0.456179509219,-0.716455310827,-0.44418446174
5700000000.0,-0.72357217,-0.440583871477,0.276299487094,-0.452800788744,0.276299487094,-0.452800788744,-0.72357217,-0.440583871477
5800000000.0,-0.730457463616,-0.436961866975,0.269411351577,-0.449400910677,0.269411351577,-0.449400910677,-0.730457463616,-0.436961866975
5900000000.0,-0.73711940726,-0.43332438046,0.262746512925,-0.445985805993,0.262746512925,-0.445985805993,-0.73711940726,-0.43332438046
6000000000.0,-0.743565979748,-0.429676813,0.256296992157,-0.442560874532,0.256296992157,-0.442560874532,-0.743565979748,-0.429676813
6100000000.0,-0.749804919017,-0.426024075507,0.250055051177,-0.439131026011,0.250055051177,-0.439131026011,-0.749804919017,-0.426024075507
6200000000.0,-0.75584372,-0.422370626915,0.24401319489,-0.435700718192,0.24401319489,-0.435700718192,-0.75584372,-0.422370626915
6300000000.0,-0.76168963419,-0.418720509664,0.238164171644,-0.432273992378,0.238164171644,-0.432273992378,-0.76168963419,-0.418720509664
6400000000.0,-0.767349670633,-0.415077382646,0.232500972234,-0.428854506355,0.232500972234,-0.428854506355,-0.767349670633,-0.415077382646
6500000000.0,-0.77283059811,-0.411444551764,0.227016827719,-0.425445564953,0.227016827719,-0.425445564953,-0.77283059811,-0.411444551764
6600000000.0,-0.77813894831,-0.407824998242,0.221705206254,-0.422050148356,0.221705206254,-0.422050148356,-0.77813894831,-0.407824998242
6700000000.0,-0.783281019814,-0.404221404832,0.216559809099,-0.418670938314,0.216559809099,-0.418670938314,-0.783281019814,-0.404221404832
6800000000.0,-0.788262882738,-0.400636180054,0.211574565981,-0.415310342378,0.211574565981,-0.415310342378,-0.788262882738,-0.400636180054
6900000000.0,-0.793090383904,-0.397071480604,0.206743629921,-0.411970516316,0.206743629921,-0.411970516316,-0.793090383904,-0.397071480604
7000000000.0,-0.797769152417,-0.393529232052,0.202061371657,-0.408653384801,0.202061371657,-0.408653384801,-0.797769152417,-0.393529232052
7100000000.0,-0.802304605559,-0.390011147943,0.19752237375,-0.405360660524,0.19752237375,-0.405360660524,-0.802304605559,-0.390011147943
7200000000.0,-0.806701954904,-0.38651874743,0.19312142447,-0.40209386182,0.19312142447,-0.40209386182,-0.806701954904,-0.38651874743
7300000000.0,-0.810966212593,-0.383053371534,0.18885351152,-0.39885432893,0.18885351152,-0.39885432893,-0.810966212593,-0.383053371534
7400000000.0,-0.815102197692,-0.379616198129,0.184713815677,-0.395643238989,0.184713815677,-0.395643238989,-0.815102197692,-0.379616198129
7500000000.0,-0.819114542603,-0.376208255755,0.180697704382,-0.392461619834,0.180697704382,-0.392461619834,-0.819114542603,-0.376208255755
7600000000.0,-0.82300769946,-0.372830436342,0.176800725347,-0.389310362734,0.176800725347,-0.389310362734,-0.82300769946,-0.372830436342
7700000000.0,-0.826785946484,-0.369483506926,0.173018600191,-0.386190234099,0.173018600191,-0.386190234099,-0.826785946484,-0.369483506926
7800000000.0,-0.830453394279,-0.366168120435,0.169347218154,-0.383101886275,0.169347218154,-0.383101886275,-0.830453394279,-0.366168120435
7900000000.0,-0.834013992016,-0.362884825614,0.165782629909,-0.38004586746,0.165782629909,-0.38004586746,-0.834013992016,-0.362884825614
8000000000.0,-0.837471533509,-0.359634076163,0.162321041485,-0.377022630849,0.162321041485,-0.377022630849,-0.837471533509,-0.359634076163
8100000000.0,-0.840829663155,-0.356416239135,0.158958808325,-0.374032543026,0.158958808325,-0.374032543026,-0.840829663155,-0.356416239135
8200000000.0,-0.844091881729,-0.353231602666,0.155692429497,-0.371075891699,0.155692429497,-0.371075891699,-0.844091881729,-0.353231602666
8300000000.0,-0.847261552025,-0.350080383077,0.15251854205,-0.368152892798,0.15251854205,-0.368152892798,-0.847261552025,-0.350080383077
8400000000.0,-0.850341904324,-0.346962731408,0.149433915541,-0.36526369701,0.149433915541,-0.36526369701,-0.850341904324,-0.346962731408
8500000000.0,-0.85333604171,-0.343878739418,0.146435446729,-0.362408395781,0.146435446729,-0.362408395781,-0.85333604171,-0.343878739418
8600000000.0,-0.856246945196,-0.340828445102,0.143520154438,-0.35958702683,0.143520154438,-0.35958702683,-0.856246945196,-0.340828445102
8700000000.0,-0.859077478697,-0.337811837758,0.140685174596,-0.356799579212,0.140685174596,-0.356799579212,-0.859077478697,-0.337811837758
8800000000.0,-0.861830393806,-0.334828862637,0.137927755445,-0.354045997981,0.137927755445,-0.354045997981,-0.861830393806,-0.334828862637
8900000000.0,-0.864508334422,-0.331879425224,0.135245252927,-0.351326188452,0.135245252927,-0.351326188452,-0.864508334422,-0.331879425224
9000000000.0,-0.867113841186,-0.32896339515,0.132635126237,-0.34864002013,0.132635126237,-0.34864002013,-0.867113841186,-0.32896339515
9100000000.0,-0.86964935576,-0.326080609805,0.130094933549,-0.345987330309,0.130094933549,-0.345987330309,-0.86964935576,-0.326080609805
9200000000.0,-0.872117224941,-0.32323087763,0.127622327902,-0.343367927374,0.127622327902,-0.343367927374,-0.872117224941,-0.32323087763
9300000000.0,-0.874519704605,-0.320413981156,0.125215053257,-0.340781593834,0.125215053257,-0.340781593834,-0.874519704605,-0.320413981156
9400000000.0,-0.876858963499,-0.317629679777,0.122870940697,-0.338228089095,0.122870940697,-0.338228089095,-0.876858963499,-0.317629679777
9500000000.0,-0.87913708688,-0.314877712304,0.120587904802,-0.335707152013,0.120587904802,-0.335707152013,-0.87913708688,-0.314877712304
9600000000.0,-0.88135608,-0.312157799292,0.118363940149,-0.333218503227,0.118363940149,-0.333218503227,-0.88135608,-0.312157799292
9700000000.0,-0.883517871452,-0.309469645185,0.116197117979,-0.330761847292,0.116197117979,-0.330761847292,-0.883517871452,-0.309469645185
9800000000.0,-0.885624316371,-0.30681294027,0.114085582986,-0.328336874646,0.114085582986,-0.328336874646,-0.885624316371,-0.30681294027
9900000000.0,-0.8876771995,-0.304187362474,0.112027550256,-0.325943263392,0.112027550256,-0.325943263392,-0.8876771995,-0.304187362474
10000000000.0,-0.889678238134,-0.301592578999,0.110021302323,-0.323580680946,0.110021302323,-0.323580680946,-0.889678238134,-0.301592578999
