freq (GHz),S11_real,S11_imag,S21_real,S21_imag,S12_real,S12_imag,S22_real,S22_imag
100000000.0,0.0687664438667,0.00199838804121,0.931231630749,-0.00272366974324,0.931231630749,-0.00272366974324,0.0687664438667,0.00199838804121
200000000.0,0.0692038866993,0.00399241462091,0.930792723376,-0.00544297867686,0.930792723376,-0.00544297867686,0.0692038866993,0.00399241462091
300000000.0,0.069537658491,0.00598375561176,0.930456947728,-0.00815960391644,0.930456947728,-0.00815960391644,0.069537658491,0.00598375561176
400000000.0,0.0698238789628,0.0079729432571,0.93016818397,-0.0108740788568,0.93016818397,-0.0108740788568,0.0698238789628,0.0079729432571
500000000.0,0.0700842261273,0.00996024343856,0.929904753993,-0.0135866704857,0.929904753993,-0.0135866704857,0.0700842261273,0.00996024343856
600000000.0,0.0703297860043,0.0119458039635,0.929655571692,-0.016297527687,0.929655571692,-0.016297527687,0.0703297860043,0.0119458039635
700000000.0,0.0705671239006,0.0139297078491,0.92941407168,-0.0190067345335,0.92941407168,-0.0190067345335,0.0705671239006,0.0139297078491
800000000.0,0.0708005030503,0.0159119980448,0.929175990645,-0.0217143350139,0.929175990645,-0.0217143350139,0.0708005030503,0.0159119980448
900000000.0,0.0710328736691,0.0178926907154,0.928938378296,-0.0244203463188,0.928938378296,-0.0244203463188,0.0710328736691,0.0178926907154
1000000000.0,0.0712663748792,0.0198717831071,0.928699095436,-0.02712476671,0.928699095436,-0.02712476671,0.0712663748792,0.0198717831071
1100000000.0,0.0715026140481,0.0218492585463,0.928456534622,-0.0298275805196,0.928456534622,-0.0298275805196,0.0715026140481,0.0218492585463
1200000000.0,0.0717428334293,0.0238250897875,0.928209453524,-0.0325287615004,0.928209453524,-0.0325287615004,0.0717428334293,0.0238250897875
1300000000.0,0.0719880151241,0.0257992413536,0.927956869963,-0.0352282751663,0.927956869963,-0.0352282751663,0.0719880151241,0.0257992413536
1400000000.0,0.0722389501488,0.0277716712271,0.927697992844,-0.0379260804845,0.927697992844,-0.0379260804845,0.0722389501488,0.0277716712271
1500000000.0,0.0724962855525,0.0297423321068,0.927432175036,-0.0406221311337,0.927432175036,-0.0406221311337,0.0724962855525,0.0297423321068
1600000000.0,0.0727605575459,0.031711172366,0.927158880245,-0.043316376461,0.927158880245,-0.043316376461,0.0727605575459,0.031711172366
1700000000.0,0.0730322154018,0.0336781367951,0.926877659112,-0.046008762227,0.926877659112,-0.046008762227,0.0730322154018,0.0336781367951
1800000000.0,0.073311639085,0.0356431671901,0.926588131586,-0.0486992311934,0.926588131586,-0.0486992311934,0.073311639085,0.0356431671901
1900000000.0,0.0735991525103,0.0376062028252,0.926289973659,-0.0513877235959,0.926289973659,-0.0513877235959,0.0735991525103,0.0376062028252
2000000000.0,0.0738950336834,0.0395671808363,0.925982907232,-0.0540741775289,0.925982907232,-0.0540741775289,0.0738950336834,0.0395671808363
2100000000.0,0.0741995225762,0.0415260365389,0.925666692237,-0.0567585292628,0.925666692237,-0.0567585292628,0.0741995225762,0.0415260365389
2200000000.0,0.074512827324,0.0434827036919,0.925341120438,-0.0594407135085,0.925341120438,-0.0594407135085,0.0745128273241,0.0434827036919
2300000000.0,0.0748351291631,0.0454371147199,0.925006010498,-0.0621206636395,0.925006010498,-0.0621206636395,0.0748351291631,0.0454371147199
2400000000.0,0.0751665864066,0.0473892009026,0.924661203997,-0.0647983118817,0.924661203997,-0.0647983118817,0.0751665864066,0.0473892009026
2500000000.0,0.0755073376787,0.0493388925364,0.924306562203,-0.0674735894754,0.924306562203,-0.0674735894754,0.0755073376787,0.0493388925364
2600000000.0,0.0758575045694,0.0512861190744,0.923941963412,-0.0701464268151,0.923941963412,-0.0701464268151,0.0758575045694,0.0512861190744
2700000000.0,0.0762171938314,0.0532308092484,0.923567300758,-0.0728167535715,0.923567300758,-0.0728167535715,0.0762171938314,0.0532308092484
2800000000.0,0.0765864992122,0.0551728911753,0.923182480374,-0.0754844987984,0.923182480374,-0.0754844987984,0.0765864992122,0.0551728911753
2900000000.0,0.0769655029933,0.057112292451,0.922787419858,-0.0781495910267,0.922787419858,-0.0781495910267,0.0769655029933,0.057112292451
3000000000.0,0.0773542772911,0.0590489402341,0.922382046966,-0.0808119583477,0.922382046966,-0.0808119583477,0.0773542772911,0.0590489402341
3100000000.0,0.0777528851634,0.0609827613201,0.921966298514,-0.083471528488,0.921966298514,-0.083471528488,0.0777528851634,0.0609827613201
3200000000.0,0.0781613815563,0.0629136822078,0.921540119422,-0.0861282288757,0.921540119422,-0.0861282288757,0.0781613815563,0.0629136822078
3300000000.0,0.0785798141182,0.0648416291598,0.921103461908,-0.0887819867007,0.921103461908,-0.0887819867007,0.0785798141182,0.0648416291598
3400000000.0,0.0790082239035,0.0667665282565,0.920656284778,-0.0914327289695,0.920656284778,-0.0914327289695,0.0790082239035,0.0667665282565
3500000000.0,0.0794466459839,0.0686883054458,0.920198552818,-0.0940803825541,0.920198552818,-0.0940803825541,0.0794466459839,0.0686883054458
3600000000.0,0.079895109981,0.0706068865877,0.91973023626,-0.0967248742375,0.91973023626,-0.0967248742375,0.079895109981,0.0706068865877
3700000000.0,0.0803536405338,0.0725221974965,0.919251310317,-0.0993661307552,0.919251310317,-0.0993661307552,0.0803536405338,0.0725221974965
3800000000.0,0.0808222577087,0.0744341639781,0.91876175477,-0.102004078833,0.91876175477,-0.102004078833,0.0808222577087,0.0744341639781
3900000000.0,0.0813009773629,0.0763427118654,0.918261553604,-0.104638645223,0.918261553604,-0.104638645223,0.0813009773629,0.0763427118654
4000000000.0,0.0817898114647,0.0782477670512,0.917750694692,-0.107269756734,0.917750694692,-0.107269756734,0.0817898114647,0.0782477670512
4100000000.0,0.0822887683799,0.0801492555179,0.917229169504,-0.109897340265,0.917229169504,-0.109897340265,0.0822887683799,0.0801492555179
4200000000.0,0.0827978531261,0.0820471033661,0.916696972857,-0.112521322832,0.916696972857,-0.112521322832,0.0827978531261,0.0820471033661
4300000000.0,0.083317067601,0.0839412368408,0.916154102682,-0.115141631594,0.916154102682,-0.115141631594,0.083317067601,0.0839412368408
4400000000.0,0.083846410787,0.0858315823562,0.915600559822,-0.117758193876,0.915600559822,-0.117758193876,0.083846410787,0.0858315823562
4500000000.0,0.0843858789356,0.0877180665192,0.915036347848,-0.120370937197,0.915036347848,-0.120370937197,0.0843858789356,0.0877180665192
4600000000.0,0.084935465734,0.0896006161506,0.914461472893,-0.122979789289,0.914461472893,-0.122979789289,0.084935465734,0.0896006161506
4700000000.0,0.0854951624553,0.0914791583067,0.913875943497,-0.125584678116,0.913875943497,-0.125584678116,0.0854951624553,0.0914791583067
4800000000.0,0.086064958096,0.093353620298,0.913279770476,-0.128185531899,0.913279770476,-0.128185531899,0.086064958096,0.093353620298
4900000000.0,0.0866448395002,0.0952239297084,0.912672966794,-0.130782279127,0.912672966794,-0.130782279127,0.0866448395002,0.0952239297084
5000000000.0,0.0872347914735,0.0970900144124,0.91205554745,-0.133374848582,0.91205554745,-0.133374848582,0.0872347914735,0.0970900144124
5100000000.0,0.0878347968869,0.0989518025921,0.911427529373,-0.135963169351,0.911427529373,-0.135963169351,0.0878347968869,0.0989518025921
5200000000.0,0.0884448367725,0.100809222753,0.910788931328,-0.138547170844,0.910788931328,-0.138547170844,0.0884448367725,0.100809222753
5300000000.0,0.0890648904107,0.102662203739,0.910139773829,-0.14112678281,0.910139773829,-0.14112678281,0.0890648904107,0.102662203739
5400000000.0,0.0896949354119,0.104510674748,0.909480079054,-0.143701935348,0.909480079054,-0.143701935348,0.0896949354119,0.104510674748
5500000000.0,0.0903349477906,0.106354565345,0.908809870775,-0.146272558925,0.908809870775,-0.146272558925,0.0903349477906,0.106354565345
5600000000.0,0.0909849020348,0.108193805474,0.908129174287,-0.148838584387,0.908129174287,-0.148838584387,0.0909849020348,0.108193805474
5700000000.0,0.0916447711702,0.110028325475,0.907438016343,-0.151399942974,0.907438016343,-0.151399942974,0.0916447711702,0.110028325475
5800000000.0,0.0923145268196,0.111858056092,0.906736425095,-0.153956566329,0.906736425095,-0.153956566329,0.0923145268196,0.111858056092
5900000000.0,0.0929941392592,0.113682928485,0.906024430039,-0.156508386513,0.906024430039,-0.156508386513,0.0929941392592,0.113682928485
6000000000.0,0.0936835774699,0.115502874247,0.905302061961,-0.159055336014,0.905302061961,-0.159055336014,0.0936835774699,0.115502874247
6100000000.0,0.0943828091862,0.117317825405,0.904569352891,-0.161597347759,0.904569352891,-0.161597347759,0.0943828091862,0.117317825405
6200000000.0,0.095091800942,0.119127714442,0.903826336055,-0.164134355126,0.903826336055,-0.164134355126,0.095091800942,0.119127714442
6300000000.0,0.0958105181129,0.120932474297,0.903073045836,-0.16666629195,0.903073045836,-0.16666629195,0.0958105181129,0.120932474297
6400000000.0,0.0965389249573,0.122732038381,0.902309517727,-0.169193092539,0.902309517727,-0.169193092539,0.0965389249573,0.122732038381
6500000000.0,0.097276984654,0.124526340585,0.901535788299,-0.171714691677,0.901535788299,-0.171714691677,0.097276984654,0.124526340585
6600000000.0,0.098024659338,0.126315315286,0.900751895163,-0.174231024637,0.900751895163,-0.174231024637,0.098024659338,0.126315315286
6700000000.0,0.0987819101353,0.128098897362,0.899957876935,-0.176742027187,0.899957876935,-0.176742027187,0.0987819101353,0.128098897362
6800000000.0,0.0995486971946,0.129877022193,0.899153773204,-0.179247635603,0.899153773204,-0.179247635603,0.0995486971946,0.129877022193
6900000000.0,0.100324979718,0.131649625676,0.898339624503,-0.181747786673,0.898339624503,-0.181747786673,0.100324979718,0.131649625676
7000000000.0,0.101110715992,0.133416644228,0.897515472277,-0.184242417706,0.897515472277,-0.184242417706,0.101110715992,0.133416644228
7100000000.0,0.101905863412,0.135178014795,0.896681358857,-0.186731466539,0.896681358857,-0.186731466539,0.101905863412,0.135178014795
7200000000.0,0.102710378512,0.136933674863,0.895837327434,-0.189214871547,0.895837327434,-0.189214871547,0.102710378512,0.136933674863
7300000000.0,0.103524216988,0.138683562457,0.894983422028,-0.191692571648,0.894983422028,-0.191692571648,0.103524216988,0.138683562457
7400000000.0,0.104347333727,0.140427616157,0.894119687473,-0.194164506308,0.894119687473,-0.194164506308,0.104347333727,0.140427616157
7500000000.0,0.105179682822,0.142165775098,0.893246169384,-0.196630615553,0.893246169384,-0.196630615553,0.105179682822,0.142165775098
7600000000.0,0.106021217605,0.143897978979,0.892362914142,-0.199090839969,0.892362914142,-0.199090839969,0.106021217605,0.143897978979
7700000000.0,0.106871890658,0.145624168068,0.891469968865,-0.201545120713,0.891469968865,-0.201545120713,0.106871890658,0.145624168068
7800000000.0,0.107731653845,0.14734428321,0.890567381394,-0.203993399518,0.890567381394,-0.203993399518,0.107731653845,0.14734428321
7900000000.0,0.108600458324,0.149058265831,0.889655200267,-0.206435618695,0.889655200267,-0.206435618695,0.108600458324,0.149058265831
8000000000.0,0.109478254568,0.150766057944,0.888733474705,-0.208871721144,0.888733474705,-0.208871721144,0.109478254568,0.150766057944
8100000000.0,0.110364992389,0.152467602154,0.887802254586,-0.211301650356,0.887802254586,-0.211301650356,0.110364992389,0.152467602154
8200000000.0,0.111260620949,0.154162841663,0.886861590434,-0.213725350418,0.886861590434,-0.213725350418,0.111260620949,0.154162841663
8300000000.0,0.112165088785,0.155851720274,0.885911533394,-0.21614276602,0.885911533394,-0.21614276602,0.112165088785,0.155851720274
8400000000.0,0.113078343822,0.1575341824,0.884952135221,-0.218553842457,0.884952135221,-0.218553842457,0.113078343822,0.1575341824
8500000000.0,0.11400033339,0.159210173063,0.883983448259,-0.220958525636,0.883983448259,-0.220958525636,0.11400033339,0.159210173063
8600000000.0,0.114931004242,0.160879637901,0.883005525427,-0.223356762078,0.883005525427,-0.223356762078,0.114931004242,0.160879637901
8700000000.0,0.11587030257,0.162542523171,0.882018420199,-0.225748498925,0.882018420199,-0.225748498925,0.11587030257,0.162542523171
8800000000.0,0.11681817402,0.164198775756,0.881022186594,-0.228133683941,0.881022186594,-0.228133683941,0.11681817402,0.164198775756
8900000000.0,0.117774563708,0.165848343165,0.880016879156,-0.230512265519,0.880016879156,-0.230512265519,0.117774563708,0.165848343165
9000000000.0,0.118739416233,0.167491173538,0.879002552941,-0.23288419268,0.879002552941,-0.23288419268,0.118739416233,0.167491173538
9100000000.0,0.119712675695,0.169127215651,0.877979263504,-0.235249415082,0.877979263504,-0.235249415082,0.119712675695,0.169127215651
9200000000.0,0.120694285706,0.170756418916,0.876947066879,-0.237607883018,0.876947066879,-0.237607883018,0.120694285706,0.170756418916
9300000000.0,0.121684189407,0.172378733387,0.875906019572,-0.239959547424,0.875906019572,-0.239959547424,0.121684189407,0.172378733387
9400000000.0,0.122682329478,0.173994109763,0.874856178542,-0.242304359877,0.874856178542,-0.242304359877,0.122682329478,0.173994109763
9500000000.0,0.123688648155,0.175602499389,0.873797601191,-0.244642272604,0.873797601191,-0.244642272604,0.123688648155,0.175602499389
9600000000.0,0.124703087244,0.177203854257,0.872730345348,-0.246973238477,0.872730345348,-0.246973238477,0.124703087244,0.177203854257
9700000000.0,0.125725588129,0.178798127015,0.871654469257,-0.249297211022,0.871654469257,-0.249297211022,0.125725588129,0.178798127015
9800000000.0,0.12675609179,0.180385270962,0.870570031565,-0.251614144418,0.870570031565,-0.251614144418,0.12675609179,0.180385270962
9900000000.0,0.127794538812,0.181965240054,0.869477091307,-0.253923993501,0.869477091307,-0.253923993501,0.127794538812,0.181965240054
10000000000.0,0.128840869402,0.183537988908,0.868375707898,-0.256226713764,0.868375707898,-0.256226713764,0.128840869402,0.183537988908
