freq (GHz),S11_real,S11_imag,S21_real,S21_imag,S12_real,S12_imag,S22_real,S22_imag
100000000.0,3.69091292867e-05,-0.00400548688916,0.999920156811,-0.00422107802257,0.999920156811,-0.00422107802257,3.69091292864e-05,-0.00400548688916
200000000.0,-1.74628029548e-05,-0.00801053367086,0.999864922412,-0.00844172214272,0.999864922412,-0.00844172214272,-1.74628029548e-05,-0.00801053367086
300000000.0,-0.000105739020588,-0.0120147470271,0.999775939397,-0.0126615426318,0.999775939397,-0.0126615426318,-0.000105739020589,-0.0120147470271
400000000.0,-0.000227853348485,-0.0160177291359,0.999653173346,-0.0168801444283,0.999653173346,-0.0168801444283,-0.000227853348484,-0.0160177291359
500000000.0,-0.000383764326441,-0.0200190801212,0.999496627129,-0.0210971300247,0.999496627129,-0.0210971300247,-0.000383764326441,-0.0200190801212
600000000.0,-0.000573433646226,-0.0240183989984,0.999306319443,-0.025312100554,0.999306319443,-0.025312100554,-0.000573433646226,-0.0240183989984
700000000.0,-0.000796820662992,-0.0280152842259,0.999082279391,-0.029524656411,0.999082279391,-0.029524656411,-0.000796820662991,-0.0280152842259
800000000.0,-0.00105388038908,-0.0320093340843,0.998824544508,-0.0337343976729,0.998824544508,-0.0337343976729,-0.00105388038908,-0.0320093340843
900000000.0,-0.00134456260245,-0.0360001469711,0.998533159884,-0.0379409244206,0.998533159884,-0.0379409244206,-0.00134456260245,-0.0360001469711
1000000000.0,-0.00166881139901,-0.0399873216475,0.998208177718,-0.0421438370044,0.998208177718,-0.0421438370044,-0.00166881139901,-0.0399873216475
1100000000.0,-0.00202656495022,-0.0439704574526,0.997849657066,-0.0463427362721,0.997849657066,-0.0463427362721,-0.00202656495022,-0.0439704574526
1200000000.0,-0.00241775536688,-0.0479491544987,0.99745766368,-0.0505372237746,0.99745766368,-0.0505372237746,-0.00241775536688,-0.0479491544987
1300000000.0,-0.00284230862275,-0.0519230138512,0.997032269899,-0.0547269019536,0.997032269899,-0.0547269019536,-0.00284230862275,-0.0519230138512
1400000000.0,-0.00330014451458,-0.0558916376983,0.996573554569,-0.0589113743188,0.996573554569,-0.0589113743188,-0.00330014451457,-0.0558916376983
1500000000.0,-0.00379117664597,-0.0598546295125,0.996081602975,-0.0630902456137,0.996081602975,-0.0630902456137,-0.00379117664597,-0.0598546295125
1600000000.0,-0.00431531242762,-0.0638115942056,0.995556506783,-0.0672631219756,0.995556506783,-0.0672631219756,-0.00431531242762,-0.0638115942056
1700000000.0,-0.00487245308955,-0.0677621382784,0.994998363986,-0.0714296110893,0.994998363986,-0.0714296110893,-0.00487245308955,-0.0677621382784
1800000000.0,-0.00546249370264,-0.0717058699659,0.994407278852,-0.0755893223347,0.994407278852,-0.0755893223347,-0.00546249370264,-0.0717058699659
1900000000.0,-0.00608532320757,-0.0756423993791,0.993783361872,-0.0797418669321,0.993783361872,-0.0797418669321,-0.00608532320757,-0.0756423993791
2000000000.0,-0.00674082444995,-0.0795713386424,0.993126729709,-0.083886858082,0.993126729709,-0.083886858082,-0.00674082444995,-0.0795713386424
2100000000.0,-0.00742887422084,-0.0834923020291,0.992437505141,-0.0880239111022,0.992437505141,-0.0880239111022,-0.00742887422084,-0.0834923020291
2200000000.0,-0.00814934330192,-0.0874049060926,0.991715817006,-0.0921526435614,0.991715817006,-0.0921526435614,-0.00814934330192,-0.0874049060926
2300000000.0,-0.00890209651514,-0.0913087697966,0.990961800146,-0.0962726754104,0.990961800146,-0.0962726754104,-0.00890209651514,-0.0913087697966
2400000000.0,-0.00968699277596,-0.0952035146401,0.990175595345,-0.10038362911,0.990175595345,-0.10038362911,-0.00968699277596,-0.0952035146401
2500000000.0,-0.0105038851507,-0.0990887647829,0.989357349265,-0.104485129755,0.989357349265,-0.104485129755,-0.0105038851507,-0.0990887647829
2600000000.0,-0.0113526209168,-0.102964147166,0.988507214385,-0.1085768052,0.988507214385,-0.1085768052,-0.0113526209168,-0.102964147166
2700000000.0,-0.0122330416269,-0.106829291631,0.98762534893,-0.112658286176,0.98762534893,-0.112658286176,-0.0122330416269,-0.106829291631
2800000000.0,-0.0131449831756,-0.110683831037,0.986711916802,-0.116729206411,0.986711916802,-0.116729206411,-0.0131449831756,-0.110683831037
2900000000.0,-0.0140882758692,-0.114527401373,0.985767087511,-0.120789202742,0.985767087511,-0.120789202742,-0.0140882758692,-0.114527401373
3000000000.0,-0.0150627444983,-0.118359641871,0.984791036092,-0.124837915229,0.984791036092,-0.124837915229,-0.0150627444983,-0.118359641871
3100000000.0,-0.0160682084134,-0.122180195115,0.983783943036,-0.128874987265,0.983783943036,-0.128874987265,-0.0160682084134,-0.122180195115
3200000000.0,-0.0171044816028,-0.125988707148,0.982745994208,-0.132900065683,0.982745994208,-0.132900065683,-0.0171044816028,-0.125988707148
3300000000.0,-0.0181713727728,-0.129784827572,0.981677380762,-0.136912800861,0.981677380762,-0.136912800861,-0.0181713727728,-0.129784827572
3400000000.0,-0.0192686854307,-0.133568209655,0.980578299063,-0.140912846822,0.980578299063,-0.140912846822,-0.0192686854307,-0.133568209655
3500000000.0,-0.0203962179703,-0.137338510429,0.979448950593,-0.144899861337,0.979448950593,-0.144899861337,-0.0203962179703,-0.137338510429
3600000000.0,-0.0215537637584,-0.141095390781,0.978289541872,-0.148873506021,0.978289541872,-0.148873506021,-0.0215537637584,-0.141095390781
3700000000.0,-0.0227411112251,-0.144838515553,0.97710028436,-0.152833446424,0.97710028436,-0.152833446424,-0.0227411112251,-0.144838515553
3800000000.0,-0.0239580439549,-0.148567553631,0.975881394369,-0.156779352125,0.975881394369,-0.156779352125,-0.0239580439549,-0.148567553631
3900000000.0,-0.0252043407802,-0.152282178031,0.974633092968,-0.160710896824,0.974633092968,-0.160710896824,-0.0252043407802,-0.152282178031
4000000000.0,-0.0264797758765,-0.155982065986,0.973355605886,-0.16462775842,0.973355605886,-0.16462775842,-0.0264797758765,-0.155982065986
4100000000.0,-0.0277841188596,-0.159666899033,0.972049163417,-0.168529619102,0.972049163417,-0.168529619102,-0.0277841188596,-0.159666899033
4200000000.0,-0.029117134884,-0.163336363085,0.97071400032,-0.172416165426,0.97071400032,-0.172416165426,-0.029117134884,-0.163336363085
4300000000.0,-0.0304785847437,-0.166990148515,0.969350355716,-0.176287088392,0.969350355716,-0.176287088392,-0.0304785847437,-0.166990148515
4400000000.0,-0.0318682249732,-0.170627950227,0.96795847299,-0.180142083522,0.96795847299,-0.180142083522,-0.0318682249732,-0.170627950227
4500000000.0,-0.0332858079516,-0.17424946773,0.966538599684,-0.183980850928,0.966538599684,-0.183980850928,-0.0332858079516,-0.17424946773
4600000000.0,-0.0347310820062,-0.177854405205,0.965090987393,-0.187803095383,0.965090987393,-0.187803095383,-0.0347310820062,-0.177854405205
4700000000.0,-0.036203791519,-0.181442471571,0.963615891663,-0.19160852639,0.963615891663,-0.19160852639,-0.036203791519,-0.181442471571
4800000000.0,-0.0377036770328,-0.185013380549,0.962113571876,-0.19539685824,0.962113571876,-0.19539685824,-0.0377036770328,-0.185013380549
4900000000.0,-0.03923047536,-0.188566850723,0.960584291152,-0.199167810077,0.960584291152,-0.199167810077,-0.03923047536,-0.188566850723
5000000000.0,-0.0407839196906,-0.192102605594,0.959028316229,-0.202921105953,0.959028316229,-0.202921105953,-0.0407839196906,-0.192102605594
5100000000.0,-0.0423637397027,-0.195620373637,0.957445917362,-0.206656474885,0.957445917362,-0.206656474885,-0.0423637397027,-0.195620373637
5200000000.0,-0.0439696616726,-0.199119888354,0.955837368209,-0.210373650902,0.955837368209,-0.210373650902,-0.0439696616726,-0.199119888354
5300000000.0,-0.0456014085863,-0.202600888319,0.954202945717,-0.214072373101,0.954202945717,-0.214072373101,-0.0456014085863,-0.202600888319
5400000000.0,-0.0472587002515,-0.206063117224,0.952542930015,-0.217752385687,0.952542930015,-0.217752385687,-0.0472587002515,-0.206063117224
5500000000.0,-0.0489412534098,-0.209506323926,0.950857604299,-0.221413438017,0.950857604299,-0.221413438017,-0.0489412534098,-0.209506323926
5600000000.0,-0.0506487818498,-0.212930262481,0.949147254716,-0.225055284644,0.949147254716,-0.225055284644,-0.0506487818498,-0.212930262481
5700000000.0,-0.0523809965203,-0.216334692186,0.947412170255,-0.228677685349,0.947412170255,-0.228677685349,-0.0523809965203,-0.216334692186
5800000000.0,-0.0541376056442,-0.219719377608,0.945652642635,-0.232280405177,0.945652642635,-0.232280405177,-0.0541376056442,-0.219719377608
5900000000.0,-0.0559183148316,-0.223084088623,0.943868966182,-0.235863214473,0.943868966182,-0.235863214473,-0.0559183148316,-0.223084088623
6000000000.0,-0.0577228271947,-0.226428600435,0.942061437726,-0.239425888901,0.942061437726,-0.239425888901,-0.0577228271947,-0.226428600435
6100000000.0,-0.0595508434609,-0.229752693607,0.94023035648,-0.24296820948,0.94023035648,-0.24296820948,-0.059550843461,-0.229752693607
6200000000.0,-0.0614020620876,-0.233056154085,0.938376023928,-0.246489962599,0.938376023928,-0.246489962599,-0.0614020620876,-0.233056154085
6300000000.0,-0.0632761793752,-0.236338773213,0.93649874371,-0.249990940043,0.93649874371,-0.249990940043,-0.0632761793752,-0.236338773213
6400000000.0,-0.0651728895815,-0.239600347754,0.93459882151,-0.253470939005,0.93459882151,-0.253470939005,-0.0651728895815,-0.239600347754
6500000000.0,-0.0670918850352,-0.242840679902,0.932676564943,-0.256929762104,0.932676564943,-0.256929762104,-0.0670918850352,-0.242840679902
6600000000.0,-0.0690328562483,-0.246059577297,0.930732283439,-0.260367217396,0.930732283439,-0.260367217396,-0.0690328562483,-0.246059577297
6700000000.0,-0.0709954920297,-0.249256853029,0.928766288131,-0.263783118384,0.928766288131,-0.263783118384,-0.0709954920297,-0.249256853029
6800000000.0,-0.0729794795969,-0.252432325648,0.926778891746,-0.267177284021,0.926778891746,-0.267177284021,-0.0729794795969,-0.252432325648
6900000000.0,-0.0749845046882,-0.255585819168,0.924770408488,-0.270549538719,0.924770408488,-0.270549538719,-0.0749845046882,-0.255585819168
7000000000.0,-0.0770102516735,-0.258717163064,0.92274115393,-0.273899712345,0.92274115393,-0.273899712345,-0.0770102516735,-0.258717163064
7100000000.0,-0.0790564036652,-0.261826192276,0.920691444905,-0.277227640222,0.920691444905,-0.277227640222,-0.0790564036652,-0.261826192276
7200000000.0,-0.0811226426274,-0.264912747199,0.918621599391,-0.280533163127,0.918621599391,-0.280533163127,-0.0811226426274,-0.264912747199
7300000000.0,-0.0832086494856,-0.267976673681,0.916531936407,-0.283816127282,0.916531936407,-0.283816127282,-0.0832086494856,-0.267976673681
7400000000.0,-0.0853141042343,-0.271017823013,0.914422775902,-0.287076384345,0.914422775902,-0.287076384345,-0.0853141042343,-0.271017823013
7500000000.0,-0.0874386860445,-0.274036051917,0.912294438649,-0.2903137914,0.912294438649,-0.2903137914,-0.0874386860445,-0.274036051917
7600000000.0,-0.0895820733701,-0.277031222531,0.910147246139,-0.293528210941,0.910147246139,-0.293528210941,-0.0895820733701,-0.277031222531
7700000000.0,-0.0917439440527,-0.280003202395,0.907981520474,-0.296719510863,0.907981520474,-0.296719510863,-0.0917439440527,-0.280003202395
7800000000.0,-0.0939239754265,-0.282951864432,0.905797584264,-0.299887564432,0.905797584264,-0.299887564432,-0.0939239754265,-0.282951864432
7900000000.0,-0.0961218444208,-0.285877086927,0.903595760524,-0.303032250277,0.903595760524,-0.303032250277,-0.0961218444208,-0.285877086927
8000000000.0,-0.098337227662,-0.288778753506,0.901376372571,-0.306153452358,0.901376372571,-0.306153452358,-0.098337227662,-0.288778753506
8100000000.0,-0.100569801575,-0.291656753107,0.899139743926,-0.309251059945,0.899139743926,-0.309251059945,-0.100569801575,-0.291656753107
8200000000.0,-0.102819242481,-0.294510979956,0.89688619821,-0.312324967593,0.89688619821,-0.312324967593,-0.102819242481,-0.294510979956
8300000000.0,-0.105085226697,-0.297341333541,0.89461605905,-0.31537507511,0.89461605905,-0.31537507511,-0.105085226697,-0.297341333541
8400000000.0,-0.107367430634,-0.300147718574,0.892329649981,-0.318401287526,0.892329649981,-0.318401287526,-0.107367430634,-0.300147718574
8500000000.0,-0.109665530888,-0.302930044962,0.89002729435,-0.321403515061,0.89002729435,-0.321403515061,-0.109665530888,-0.302930044962
8600000000.0,-0.111979204338,-0.305688227774,0.887709315221,-0.324381673094,0.887709315221,-0.324381673094,-0.111979204338,-0.305688227774
8700000000.0,-0.114308128238,-0.308422187201,0.885376035286,-0.32733568212,0.885376035286,-0.32733568212,-0.114308128238,-0.308422187201
8800000000.0,-0.116651980306,-0.311131848519,0.88302777677,-0.330265467715,0.88302777677,-0.330265467715,-0.116651980306,-0.311131848519
8900000000.0,-0.119010438814,-0.31381714205,0.880664861343,-0.333170960496,0.880664861343,-0.333170960496,-0.119010438814,-0.31381714205
9000000000.0,-0.121383182679,-0.316478003116,0.878287610035,-0.336052096082,0.878287610035,-0.336052096082,-0.121383182679,-0.316478003116
9100000000.0,-0.123769891545,-0.319114372003,0.875896343144,-0.338908815043,0.875896343144,-0.338908815043,-0.123769891545,-0.319114372003
9200000000.0,-0.12617024587,-0.321726193909,0.873491380155,-0.341741062864,0.873491380155,-0.341741062864,-0.12617024587,-0.321726193909
9300000000.0,-0.12858392701,-0.324313418902,0.871073039656,-0.344548789893,0.871073039656,-0.344548789893,-0.12858392701,-0.324313418902
9400000000.0,-0.131010617297,-0.326876001868,0.868641639258,-0.347331951296,0.868641639258,-0.347331951296,-0.131010617297,-0.326876001868
9500000000.0,-0.133450000125,-0.329413902469,0.866197495511,-0.350090507005,0.866197495511,-0.350090507005,-0.133450000125,-0.329413902469
9600000000.0,-0.13590176002,-0.331927085083,0.863740923832,-0.352824421673,0.863740923832,-0.352824421673,-0.13590176002,-0.331927085083
9700000000.0,-0.138365582722,-0.334415518761,0.861272238423,-0.355533664615,0.861272238423,-0.355533664615,-0.138365582722,-0.334415518761
9800000000.0,-0.140841155261,-0.336879177168,0.858791752199,-0.358218209761,0.858791752199,-0.358218209761,-0.140841155261,-0.336879177168
9900000000.0,-0.143328166021,-0.339318038532,0.856299776717,-0.360878035599,0.856299776717,-0.360878035599,-0.143328166021,-0.339318038532
10000000000.0,-0.145826304824,-0.341732085586,0.853796622099,-0.36351312512,0.853796622099,-0.36351312512,-0.145826304824,-0.341732085586
