freq (GHz),S11_real,S11_imag,S21_real,S21_imag,S12_real,S12_imag,S22_real,S22_imag
100000000.0,0.00558104282679,0.000630294276571,0.994410397757,-0.00368972767031,0.994410397757,-0.00368972767031,0.00558104282679,0.000630294276571
200000000.0,0.00562371406998,0.00126023765533,0.994350789155,-0.00737907553673,0.994350789155,-0.00737907553673,0.00562371406998,0.00126023765533
300000000.0,0.00566129204415,0.001889921539,0.994286895608,-0.0110681181927,0.994286895608,-0.0110681181927,0.00566129204415,0.001889921539
400000000.0,0.00569859616531,0.00251935366976,0.994213897448,-0.0147568452521,0.994213897448,-0.0147568452521,0.00569859616531,0.00251935366976
500000000.0,0.005737481229,0.00314852250526,0.994129939627,-0.018445226384,0.994129939627,-0.018445226384,0.005737481229,0.00314852250526
600000000.0,0.00577889204686,0.00377740803316,0.994034077074,-0.0221332223577,0.994034077074,-0.0221332223577,0.00577889204686,0.00377740803316
700000000.0,0.00582338568254,0.00440598563908,0.993925752453,-0.0258207890276,0.993925752453,-0.0258207890276,0.00582338568254,0.00440598563908
800000000.0,0.00587132202202,0.00503422789339,0.993804605595,-0.02950787919,0.993804605595,-0.02950787919,0.00587132202202,0.00503422789339
900000000.0,0.00592294861131,0.00566210550743,0.993670388663,-0.0331944435844,0.993670388663,-0.0331944435844,0.00592294861131,0.00566210550743
1000000000.0,0.00597844365141,0.00628958789758,0.993522923153,-0.0368804314898,0.993522923153,-0.0368804314898,0.00597844365141,0.00628958789758
1100000000.0,0.00603793989432,0.00691664354264,0.993362076001,-0.0405657911052,0.993362076001,-0.0405657911052,0.00603793989432,0.00691664354264
1200000000.0,0.00610153887928,0.00754324022243,0.993187745348,-0.0442504698064,0.993187745348,-0.0442504698064,0.00610153887928,0.00754324022243
1300000000.0,0.00616931988775,0.00816934518426,0.992999851586,-0.0479344143252,0.992999851586,-0.0479344143252,0.00616931988775,0.00816934518426
1400000000.0,0.00624134582827,0.00879492526297,0.992798331469,-0.0516175708815,0.992798331469,-0.0516175708815,0.00624134582827,0.00879492526297
1500000000.0,0.00631766724577,0.00941994697017,0.992583134114,-0.0552998852807,0.992583134114,-0.0552998852807,0.00631766724577,0.00941994697017
1600000000.0,0.00639832513683,0.0100443765622,0.992354218174,-0.0589813029894,0.992354218174,-0.0589813029894,0.00639832513683,0.0100443765622
1700000000.0,0.00648335297812,0.0106681800929,0.992111549823,-0.0626617691939,0.992111549823,-0.0626617691939,0.00648335297812,0.0106681800929
1800000000.0,0.0065727782207,0.0112913234554,0.991855101251,-0.0663412288475,0.991855101251,-0.0663412288475,0.0065727782207,0.0112913234554
1900000000.0,0.00666662341227,0.0119137724163,0.991584849551,-0.0700196267087,0.991584849551,-0.0700196267087,0.00666662341227,0.0119137724163
2000000000.0,0.00676490705457,0.0125354926426,0.991300775856,-0.0736969073723,0.991300775856,-0.0736969073723,0.00676490705457,0.0125354926426
2100000000.0,0.00686764426823,0.0131564497252,0.991002864678,-0.0773730152958,0.991002864678,-0.0773730152958,0.00686764426823,0.0131564497252
2200000000.0,0.0069748473155,0.0137766091979,0.990691103386,-0.0810478948212,0.990691103386,-0.0810478948212,0.0069748473155,0.0137766091979
2300000000.0,0.00708652601605,0.0143959365536,0.990365481789,-0.0847214901941,0.990365481789,-0.0847214901941,0.00708652601605,0.0143959365536
2400000000.0,0.00720268808151,0.0150143972587,0.990025991802,-0.0883937455798,0.990025991802,-0.0883937455798,0.00720268808151,0.0150143972587
2500000000.0,0.00732333938719,0.0156319567652,0.989672627177,-0.0920646050772,0.989672627177,-0.0920646050772,0.00732333938719,0.0156319567652
2600000000.0,0.00744848419498,0.016248580521,0.989305383278,-0.0957340127316,0.989305383278,-0.0957340127316,0.00744848419498,0.016248580521
2700000000.0,0.00757812533745,0.01686423398,0.988924256898,-0.0994019125453,0.988924256898,-0.0994019125453,0.00757812533745,0.01686423398
2800000000.0,0.00771226437143,0.0174788826101,0.988529246106,-0.103068248487,0.988529246106,-0.103068248487,0.00771226437143,0.0174788826101
2900000000.0,0.00785090170671,0.0180924919006,0.988120350121,-0.106732964502,0.988120350121,-0.106732964502,0.00785090170671,0.0180924919006
3000000000.0,0.00799403671483,0.0187050273697,0.987697569199,-0.110396004518,0.987697569199,-0.110396004518,0.00799403671483,0.0187050273697
3100000000.0,0.00814166782154,0.01931645457,0.987260904545,-0.114057312455,0.987260904545,-0.114057312455,0.00814166782154,0.01931645457
3200000000.0,0.00829379258579,0.0199267390948,0.986810358232,-0.117716832227,0.986810358232,-0.117716832227,0.00829379258579,0.0199267390948
3300000000.0,0.00845040776767,0.0205358465832,0.986345933136,-0.121374507756,0.986345933136,-0.121374507756,0.00845040776767,0.0205358465832
3400000000.0,0.00861150938709,0.0211437427249,0.985867632873,-0.125030282968,0.985867632873,-0.125030282968,0.00861150938709,0.0211437427249
3500000000.0,0.00877709277466,0.0217503932648,0.985375461755,-0.128684101806,0.985375461755,-0.128684101806,0.00877709277466,0.0217503932648
3600000000.0,0.00894715261615,0.0223557640075,0.984869424741,-0.132335908233,0.984869424741,-0.132335908233,0.00894715261615,0.0223557640075
3700000000.0,0.00912168299135,0.0229598208214,0.984349527399,-0.135985646231,0.984349527399,-0.135985646231,0.00912168299135,0.0229598208214
3800000000.0,0.00930067740833,0.0235625296419,0.983815775875,-0.139633259815,0.983815775875,-0.139633259815,0.00930067740833,0.0235625296419
3900000000.0,0.0094841288336,0.0241638564761,0.98326817686,-0.143278693028,0.98326817686,-0.143278693028,0.0094841288336,0.0241638564761
4000000000.0,0.00967202971892,0.0247637674054,0.982706737564,-0.146921889951,0.982706737564,-0.146921889951,0.00967202971892,0.0247637674054
4100000000.0,0.0098643720251,0.0253622285891,0.982131465696,-0.150562794701,0.982131465696,-0.150562794701,0.0098643720251,0.0253622285891
4200000000.0,0.0100611472433,0.0259592062677,0.981542369438,-0.154201351442,0.981542369438,-0.154201351442,0.0100611472433,0.0259592062677
4300000000.0,0.0102623464141,0.0265546667662,0.980939457431,-0.15783750438,0.980939457431,-0.15783750438,0.0102623464141,0.0265546667662
4400000000.0,0.0104679601445,0.0271485764965,0.980322738752,-0.161471197774,0.980322738752,-0.161471197774,0.0104679601445,0.0271485764965
4500000000.0,0.0106779786237,0.0277409019606,0.979692222908,-0.165102375931,0.979692222908,-0.165102375931,0.0106779786237,0.0277409019606
4600000000.0,0.0108923916367,0.0283316097535,0.979047919813,-0.168730983217,0.979047919813,-0.168730983217,0.0108923916367,0.0283316097535
4700000000.0,0.0111111885772,0.0289206665659,0.978389839782,-0.172356964053,0.978389839782,-0.172356964053,0.0111111885772,0.0289206665659
4800000000.0,0.0113343584592,0.0295080391863,0.977717993517,-0.175980262924,0.977717993517,-0.175980262924,0.0113343584592,0.0295080391863
4900000000.0,0.0115618899273,0.0300936945046,0.977032392096,-0.179600824375,0.977032392096,-0.179600824375,0.0115618899273,0.0300936945046
5000000000.0,0.0117937712668,0.0306775995137,0.976333046967,-0.183218593019,0.976333046967,-0.183218593019,0.0117937712667,0.0306775995137
5100000000.0,0.012029990412,0.0312597213122,0.975619969937,-0.186833513538,0.975619969937,-0.186833513538,0.012029990412,0.0312597213122
5200000000.0,0.012270534955,0.0318400271073,0.974893173164,-0.190445530683,0.974893173164,-0.190445530683,0.012270534955,0.0318400271073
5300000000.0,0.0125153921528,0.0324184842164,0.97415266915,-0.19405458928,0.97415266915,-0.19405458928,0.0125153921528,0.0324184842164
5400000000.0,0.0127645489346,0.0329950600701,0.973398470736,-0.197660634231,0.973398470736,-0.197660634231,0.0127645489346,0.0329950600701
5500000000.0,0.0130179919079,0.0335697222139,0.972630591094,-0.201263610514,0.972630591094,-0.201263610514,0.0130179919079,0.0335697222139
5600000000.0,0.0132757073651,0.034142438311,0.97184904372,-0.204863463189,0.97184904372,-0.204863463189,0.0132757073651,0.034142438311
5700000000.0,0.0135376812887,0.034713176144,0.971053842433,-0.208460137398,0.971053842433,-0.208460137398,0.0135376812887,0.034713176144
5800000000.0,0.013803899357,0.0352819036176,0.970245001365,-0.212053578366,0.970245001365,-0.212053578366,0.013803899357,0.0352819036176
5900000000.0,0.0140743469488,0.0358485887602,0.969422534961,-0.215643731407,0.969422534961,-0.215643731407,0.0140743469488,0.0358485887602
6000000000.0,0.014349009148,0.0364131997264,0.968586457972,-0.219230541922,0.968586457972,-0.219230541922,0.014349009148,0.0364131997264
6100000000.0,0.0146278707485,0.0369757047988,0.967736785449,-0.222813955403,0.967736785449,-0.222813955403,0.0146278707485,0.0369757047988
6200000000.0,0.0149109162578,0.0375360723905,0.966873532743,-0.226393917435,0.966873532743,-0.226393917435,0.0149109162578,0.0375360723905
6300000000.0,0.0151981299015,0.0380942710465,0.965996715501,-0.229970373698,0.965996715501,-0.229970373698,0.0151981299015,0.0380942710465
6400000000.0,0.0154894956268,0.0386502694463,0.965106349658,-0.233543269966,0.965106349658,-0.233543269966,0.0154894956268,0.0386502694463
6500000000.0,0.0157849971062,0.0392040364056,0.964202451441,-0.237112552115,0.964202451441,-0.237112552115,0.0157849971062,0.0392040364056
6600000000.0,0.0160846177407,0.0397555408781,0.963285037357,-0.240678166119,0.963285037357,-0.240678166119,0.0160846177407,0.0397555408781
6700000000.0,0.0163883406637,0.0403047519578,0.962354124198,-0.244240058054,0.962354124198,-0.244240058054,0.0163883406637,0.0403047519578
6800000000.0,0.0166961487435,0.0408516388807,0.961409729036,-0.247798174101,0.961409729036,-0.247798174101,0.0166961487435,0.0408516388807
6900000000.0,0.0170080245868,0.0413961710267,0.960451869216,-0.251352460546,0.960451869216,-0.251352460546,0.0170080245868,0.0413961710267
7000000000.0,0.0173239505416,0.0419383179215,0.959480562358,-0.254902863782,0.959480562358,-0.254902863782,0.0173239505416,0.0419383179215
7100000000.0,0.0176439086997,0.0424780492385,0.958495826353,-0.258449330312,0.958495826353,-0.258449330312,0.0176439086997,0.0424780492385
7200000000.0,0.0179678808999,0.0430153348006,0.957497679361,-0.261991806749,0.957497679361,-0.261991806749,0.0179678808999,0.0430153348006
7300000000.0,0.0182958487305,0.043550144582,0.956486139808,-0.265530239818,0.956486139808,-0.265530239818,0.0182958487305,0.043550144582
7400000000.0,0.0186277935318,0.04408244871,0.955461226384,-0.269064576361,0.955461226384,-0.269064576361,0.0186277935318,0.04408244871
7500000000.0,0.0189636963987,0.0446122174666,0.95442295804,-0.272594763332,0.95442295804,-0.272594763332,0.0189636963987,0.0446122174666
7600000000.0,0.0193035381833,0.0451394212908,0.953371353988,-0.276120747805,0.953371353988,-0.276120747805,0.0193035381833,0.0451394212908
7700000000.0,0.0196472994972,0.0456640307797,0.952306433696,-0.279642476972,0.952306433696,-0.279642476972,0.0196472994972,0.0456640307797
7800000000.0,0.0199949607137,0.0461860166906,0.951228216889,-0.283159898145,0.951228216889,-0.283159898145,0.0199949607137,0.0461860166906
7900000000.0,0.0203465019706,0.0467053499427,0.950136723543,-0.286672958758,0.950136723543,-0.286672958758,0.0203465019706,0.0467053499427
8000000000.0,0.0207019031717,0.0472220016184,0.949031973889,-0.290181606372,0.949031973889,-0.290181606372,0.0207019031717,0.0472220016184
8100000000.0,0.02106114399,0.0477359429657,0.947913988405,-0.293685788668,0.947913988405,-0.293685788668,0.02106114399,0.0477359429657
8200000000.0,0.021424203869,0.0482471453992,0.946782787817,-0.297185453457,0.946782787817,-0.297185453457,0.021424203869,0.0482471453992
8300000000.0,0.0217910620253,0.0487555805019,0.945638393098,-0.300680548676,0.945638393098,-0.300680548676,0.0217910620253,0.0487555805019
8400000000.0,0.0221616974508,0.0492612200271,0.944480825464,-0.304171022395,0.944480825464,-0.304171022395,0.0221616974508,0.0492612200271
8500000000.0,0.0225360889147,0.0497640358996,0.943310106374,-0.307656822811,0.943310106374,-0.307656822811,0.0225360889147,0.0497640358996
8600000000.0,0.0229142149654,0.0502640002177,0.942126257528,-0.311137898255,0.942126257528,-0.311137898255,0.0229142149654,0.0502640002177
8700000000.0,0.0232960539329,0.0507610852544,0.940929300864,-0.314614197192,0.940929300864,-0.314614197192,0.0232960539329,0.0507610852544
8800000000.0,0.0236815839305,0.0512552634592,0.939719258556,-0.318085668223,0.939719258556,-0.318085668223,0.0236815839305,0.0512552634592
8900000000.0,0.0240707828571,0.0517465074596,0.938496153016,-0.321552260083,0.938496153016,-0.321552260083,0.0240707828571,0.0517465074596
9000000000.0,0.0244636283992,0.0522347900625,0.937260006888,-0.325013921648,0.937260006888,-0.325013921648,0.0244636283992,0.0522347900625
9100000000.0,0.0248600980324,0.0527200842558,0.936010843049,-0.328470601931,0.936010843049,-0.328470601931,0.0248600980324,0.0527200842558
9200000000.0,0.0252601690242,0.0532023632101,0.934748684606,-0.331922250086,0.934748684606,-0.331922250086,0.0252601690242,0.0532023632101
9300000000.0,0.0256638184352,0.0536816002797,0.933473554894,-0.335368815409,0.933473554894,-0.335368815409,0.0256638184352,0.0536816002797
9400000000.0,0.0260710231217,0.0541577690045,0.932185477478,-0.33881024734,0.932185477478,-0.33881024734,0.0260710231217,0.0541577690045
9500000000.0,0.0264817597369,0.0546308431113,0.930884476146,-0.342246495461,0.930884476146,-0.342246495461,0.0264817597369,0.0546308431113
9600000000.0,0.0268960047336,0.0551007965151,0.92957057491,-0.345677509503,0.92957057491,-0.345677509503,0.0268960047336,0.0551007965151
9700000000.0,0.0273137343656,0.0555676033206,0.928243798006,-0.34910323934,0.928243798006,-0.34910323934,0.0273137343656,0.0555676033206
9800000000.0,0.0277349246899,0.0560312378239,0.926904169891,-0.352523634997,0.926904169891,-0.352523634997,0.0277349246899,0.0560312378239
9900000000.0,0.0281595515684,0.0564916745133,0.925551715239,-0.355938646648,0.925551715239,-0.355938646648,0.0281595515684,0.0564916745133
10000000000.0,0.0285875906701,0.056948888071,0.924186458944,-0.359348224615,0.924186458944,-0.359348224615,0.0285875906701,0.056948888071
