freq (GHz),S11_real,S11_imag,S21_real,S21_imag,S12_real,S12_imag,S22_real,S22_imag
100000000.0,0.0475604622707,0.000852652102739,0.95243820166,-0.00116371562324,0.95243820166,-0.00116371562324,0.0475604622707,0.000852652102739
200000000.0,0.0478596439308,0.0017040413265,0.952138585537,-0.00232616874623,0.952138585537,-0.00232616874623,0.0478596439308,0.0017040413265
300000000.0,0.0480790113028,0.00255468316644,0.951918685289,-0.00348787518371,0.951918685289,-0.00348787518371,0.0480790113028,0.00255468316644
400000000.0,0.048258313694,0.00340475539968,0.951738751594,-0.00464901297509,0.951738751594,-0.00464901297509,0.048258313694,0.00340475539968
500000000.0,0.0484129241118,0.00425435696006,0.951583411436,-0.00580968128813,0.951583411436,-0.00580968128813,0.0484129241118,0.00425435696006
600000000.0,0.0485507148111,0.00510355175428,0.951444792547,-0.00696994424502,0.951444792547,-0.00696994424502,0.0485507148111,0.00510355175428
700000000.0,0.0486763550577,0.00595238442193,0.951318225655,-0.00812984668769,0.951318225655,-0.00812984668769,0.0486763550577,0.00595238442193
800000000.0,0.0487928823239,0.00680088765442,0.951200673277,-0.00928942149965,0.951200673277,-0.00928942149965,0.0487928823239,0.00680088765442
900000000.0,0.0489024030105,0.00764908613023,0.951090029007,-0.0104486935433,0.951090029007,-0.0104486935433,0.0489024030105,0.00764908613023
1000000000.0,0.0490064482006,0.00849699884712,0.950984761753,-0.0116076819936,0.950984761753,-0.0116076819936,0.0490064482006,0.00849699884712
1100000000.0,0.049106171734,0.00934464060453,0.950883717668,-0.0127664018214,0.950883717668,-0.0127664018214,0.049106171734,0.00934464060453
1200000000.0,0.0492024684229,0.0101920229971,0.950786001933,-0.0139248647876,0.950786001933,-0.0139248647876,0.0492024684229,0.0101920229971
1300000000.0,0.0492960485444,0.0110391551087,0.950690904265,-0.0150830801384,0.950690904265,-0.0150830801384,0.0492960485444,0.0110391551087
1400000000.0,0.049387486882,0.0118860440141,0.950597849872,-0.0162410551067,0.950597849872,-0.0162410551067,0.049387486882,0.0118860440141
1500000000.0,0.0494772561962,0.0127326951517,0.950506365988,-0.0173987952856,0.950506365988,-0.0173987952856,0.0494772561962,0.0127326951517
1600000000.0,0.0495657507697,0.0135791126068,0.950416058324,-0.0185563049121,0.950416058324,-0.0185563049121,0.0495657507697,0.0135791126068
1700000000.0,0.0496533034013,0.0144252993313,0.950326594072,-0.0197135870868,0.950326594072,-0.0197135870868,0.0496533034013,0.0144252993313
1800000000.0,0.0497401979473,0.0152712573176,0.950237689371,-0.0208706439482,0.950237689371,-0.0208706439482,0.0497401979473,0.0152712573176
1900000000.0,0.0498266787575,0.016116987737,0.950149099864,-0.0220274768114,0.950149099864,-0.0220274768114,0.0498266787575,0.016116987737
2000000000.0,0.0499129578957,0.0169624910528,0.95006061348,-0.0231840862813,0.95006061348,-0.0231840862813,0.0499129578957,0.0169624910528
2100000000.0,0.0499992207493,0.0178077671132,0.949972044824,-0.0243404723453,0.949972044824,-0.0243404723453,0.0499992207493,0.0178077671132
2200000000.0,0.0500856304464,0.0186528152274,0.949883230761,-0.0254966344503,0.949883230761,-0.0254966344503,0.0500856304464,0.0186528152274
2300000000.0,0.0501723313753,0.0194976342307,0.949794026897,-0.0266525715672,0.949794026897,-0.0266525715672,0.0501723313753,0.0194976342307
2400000000.0,0.0502594520206,0.0203422225385,0.949704304738,-0.0278082822454,0.949704304738,-0.0278082822454,0.0502594520206,0.0203422225385
2500000000.0,0.0503471072707,0.0211865781929,0.94961394939,-0.0289637646592,0.94961394939,-0.0289637646592,0.0503471072707,0.0211865781929
2600000000.0,0.050435400312,0.0220306989018,0.949522857658,-0.0301190166474,0.949522857658,-0.0301190166474,0.050435400312,0.0220306989018
2700000000.0,0.0505244241977,0.0228745820738,0.949430936481,-0.0312740357481,0.949430936481,-0.0312740357481,0.0505244241977,0.0228745820738
2800000000.0,0.0506142631556,0.0237182248475,0.949338101624,-0.0324288192277,0.949338101624,-0.0324288192277,0.0506142631556,0.0237182248475
2900000000.0,0.0507049936874,0.0245616241177,0.949244276578,-0.0335833641078,0.949244276578,-0.0335833641078,0.0507049936874,0.0245616241177
3000000000.0,0.0507966854975,0.0254047765579,0.949149391629,-0.0347376671873,0.949149391629,-0.0347376671873,0.0507966854975,0.0254047765579
3100000000.0,0.0508894022833,0.0262476786404,0.949053383073,-0.0358917250628,0.949053383073,-0.0358917250628,0.0508894022833,0.0262476786404
3200000000.0,0.0509832024114,0.0270903266543,0.948956192534,-0.0370455341463,0.948956192534,-0.0370455341463,0.0509832024114,0.0270903266543
3300000000.0,0.0510781394984,0.0279327167209,0.948857766389,-0.0381990906813,0.948857766389,-0.0381990906813,0.0510781394984,0.0279327167209
3400000000.0,0.0511742629131,0.0287748448079,0.948758055258,-0.0393523907564,0.948758055258,-0.0393523907564,0.0511742629131,0.0287748448079
3500000000.0,0.0512716182123,0.0296167067422,0.948657013577,-0.0405054303184,0.948657013577,-0.0405054303184,0.0512716182123,0.0296167067422
3600000000.0,0.0513702475209,0.030458298221,0.948554599212,-0.0416582051834,0.948554599212,-0.0416582051834,0.0513702475209,0.030458298221
3700000000.0,0.0514701898639,0.031299614822,0.94845077313,-0.0428107110471,0.94845077313,-0.0428107110471,0.0514701898639,0.031299614822
3800000000.0,0.0515714814589,0.0321406520126,0.948345499102,-0.0439629434942,0.948345499102,-0.0439629434942,0.0515714814589,0.0321406520126
3900000000.0,0.0516741559733,0.0329814051584,0.948238743454,-0.0451148980065,0.948238743454,-0.0451148980065,0.0516741559733,0.0329814051584
4000000000.0,0.0517782447525,0.0338218695309,0.94813047483,-0.0462665699706,0.94813047483,-0.0462665699706,0.0517782447525,0.0338218695309
4100000000.0,0.0518837770217,0.0346620403141,0.948020663995,-0.0474179546853,0.948020663995,-0.0474179546853,0.0518837770217,0.0346620403141
4200000000.0,0.051990780066,0.0355019126109,0.947909283654,-0.0485690473672,0.947909283654,-0.0485690473672,0.051990780066,0.0355019126109
4300000000.0,0.0520992793916,0.0363414814491,0.947796308292,-0.0497198431572,0.947796308292,-0.0497198431572,0.0520992793916,0.0363414814491
4400000000.0,0.0522092988689,0.0371807417866,0.947681714028,-0.0508703371253,0.947681714028,-0.0508703371253,0.0522092988689,0.0371807417866
4500000000.0,0.0523208608623,0.0380196885164,0.947565478488,-0.0520205242759,0.947565478488,-0.0520205242759,0.0523208608623,0.0380196885164
4600000000.0,0.0524339863461,0.0388583164708,0.947447580687,-0.0531703995523,0.947447580687,-0.0531703995523,0.0524339863461,0.0388583164708
4700000000.0,0.0525486950093,0.0396966204258,0.947328000926,-0.0543199578407,0.947328000926,-0.0543199578407,0.0525486950093,0.0396966204258
4800000000.0,0.0526650053509,0.0405345951051,0.947206720694,-0.0554691939741,0.947206720694,-0.0554691939741,0.0526650053509,0.0405345951051
4900000000.0,0.0527829347652,0.0413722351834,0.947083722588,-0.0566181027359,0.947083722588,-0.0566181027359,0.0527829347652,0.0413722351834
5000000000.0,0.0529024996199,0.0422095352898,0.946958990228,-0.0577666788635,0.946958990228,-0.0577666788635,0.0529024996199,0.0422095352898
5100000000.0,0.0530237153275,0.0430464900109,0.946832508192,-0.0589149170509,0.946832508192,-0.0589149170509,0.0530237153275,0.0430464900109
5200000000.0,0.0531465964092,0.0438830938936,0.946704261946,-0.0600628119521,0.946704261946,-0.0600628119521,0.0531465964092,0.0438830938936
5300000000.0,0.0532711565549,0.0447193414479,0.946574237789,-0.0612103581834,0.946574237789,-0.0612103581834,0.0532711565549,0.0447193414479
5400000000.0,0.0533974086762,0.0455552271495,0.946442422799,-0.0623575503262,0.946442422799,-0.0623575503262,0.0533974086762,0.0455552271495
5500000000.0,0.053525364957,0.0463907454418,0.94630880478,-0.063504382929,0.94630880478,-0.063504382929,0.053525364957,0.0463907454418
5600000000.0,0.0536550368979,0.0472258907382,0.946173372219,-0.0646508505101,0.946173372219,-0.0646508505101,0.0536550368979,0.0472258907382
5700000000.0,0.0537864353589,0.0480606574246,0.946036114245,-0.0657969475593,0.946036114245,-0.0657969475593,0.0537864353589,0.0480606574246
5800000000.0,0.0539195705972,0.0488950398607,0.945897020588,-0.0669426685399,0.945897020588,-0.0669426685399,0.0539195705972,0.0488950398607
5900000000.0,0.0540544523031,0.0497290323821,0.945756081546,-0.0680880078905,0.945756081546,-0.0680880078905,0.0540544523031,0.0497290323821
6000000000.0,0.0541910896325,0.0505626293022,0.94561328795,-0.0692329600272,0.94561328795,-0.0692329600272,0.0541910896325,0.0505626293022
6100000000.0,0.0543294912374,0.0513958249134,0.945468631136,-0.0703775193444,0.945468631136,-0.0703775193444,0.0543294912374,0.0513958249134
6200000000.0,0.0544696652938,0.052228613489,0.945322102916,-0.0715216802169,0.945322102916,-0.0715216802169,0.0544696652938,0.052228613489
6300000000.0,0.0546116195278,0.0530609892846,0.94517369555,-0.0726654370013,0.94517369555,-0.0726654370013,0.0546116195278,0.0530609892846
6400000000.0,0.0547553612398,0.053892946539,0.945023401725,-0.0738087840373,0.945023401725,-0.0738087840373,0.0547553612398,0.053892946539
6500000000.0,0.0549008973266,0.0547244794762,0.944871214531,-0.0749517156488,0.944871214531,-0.0749517156488,0.0549008973266,0.0547244794762
6600000000.0,0.0550482343027,0.0555555823061,0.944717127441,-0.0760942261455,0.944717127441,-0.0760942261455,0.0550482343027,0.0555555823061
6700000000.0,0.0551973783197,0.0563862492259,0.944561134289,-0.0772363098239,0.944561134289,-0.0772363098239,0.0551973783197,0.0563862492259
6800000000.0,0.055348335184,0.0572164744211,0.944403229255,-0.0783779609682,0.944403229255,-0.0783779609682,0.055348335184,0.0572164744211
6900000000.0,0.0555011103743,0.0580462520667,0.944243406847,-0.0795191738519,0.944243406847,-0.0795191738519,0.0555011103743,0.0580462520667
7000000000.0,0.0556557090569,0.058875576328,0.944081661885,-0.0806599427382,0.944081661885,-0.0806599427382,0.0556557090569,0.058875576328
7100000000.0,0.0558121361011,0.0597044413616,0.943917989485,-0.0818002618813,0.943917989485,-0.0818002618813,0.0558121361011,0.0597044413616
7200000000.0,0.0559703960923,0.0605328413164,0.943752385048,-0.0829401255273,0.943752385048,-0.0829401255273,0.0559703960923,0.0605328413164
7300000000.0,0.0561304933458,0.0613607703344,0.943584844244,-0.0840795279149,0.943584844244,-0.0840795279149,0.0561304933458,0.0613607703344
7400000000.0,0.0562924319184,0.0621882225516,0.943415363003,-0.0852184632764,0.943415363003,-0.0852184632764,0.0562924319184,0.0621882225516
7500000000.0,0.0564562156198,0.0630151920987,0.943243937498,-0.0863569258385,0.943243937498,-0.0863569258385,0.0564562156198,0.0630151920987
7600000000.0,0.0566218480241,0.0638416731019,0.943070564143,-0.087494909823,0.943070564143,-0.087494909823,0.0566218480241,0.0638416731019
7700000000.0,0.0567893324788,0.0646676596835,0.942895239574,-0.0886324094475,0.942895239574,-0.0886324094475,0.0567893324788,0.0646676596835
7800000000.0,0.0569586721154,0.0654931459628,0.942717960645,-0.0897694189261,0.942717960645,-0.0897694189261,0.0569586721154,0.0654931459628
7900000000.0,0.0571298698576,0.0663181260568,0.942538724417,-0.0909059324702,0.942538724417,-0.0909059324702,0.0571298698576,0.0663181260568
8000000000.0,0.05730292843,0.0671425940805,0.94235752815,-0.092041944289,0.94235752815,-0.092041944289,0.05730292843,0.0671425940805
8100000000.0,0.0574778503663,0.0679665441478,0.942174369295,-0.0931774485901,0.942174369295,-0.0931774485901,0.0574778503663,0.0679665441478
8200000000.0,0.0576546380165,0.0687899703722,0.941989245485,-0.0943124395803,0.941989245485,-0.0943124395803,0.0576546380165,0.0687899703722
8300000000.0,0.0578332935541,0.0696128668667,0.941802154533,-0.095446911466,0.941802154533,-0.095446911466,0.0578332935541,0.0696128668667
8400000000.0,0.0580138189831,0.0704352277454,0.941613094417,-0.0965808584538,0.941613094417,-0.0965808584538,0.0580138189831,0.0704352277454
8500000000.0,0.0581962161441,0.0712570471231,0.941422063282,-0.0977142747509,0.941422063282,-0.0977142747509,0.0581962161441,0.0712570471231
8600000000.0,0.0583804867201,0.0720783191163,0.941229059428,-0.0988471545659,0.941229059428,-0.0988471545659,0.0583804867201,0.0720783191163
8700000000.0,0.058566632243,0.0728990378433,0.941034081306,-0.0999794921089,0.941034081306,-0.0999794921089,0.058566632243,0.0728990378433
8800000000.0,0.0587546540983,0.0737191974254,0.940837127515,-0.101111281592,0.940837127515,-0.101111281592,0.0587546540983,0.0737191974254
8900000000.0,0.0589445535304,0.0745387919864,0.940638196794,-0.102242517232,0.940638196794,-0.102242517232,0.0589445535304,0.0745387919864
9000000000.0,0.0591363316476,0.0753578156537,0.940437288017,-0.103373193245,0.940437288017,-0.103373193245,0.0591363316476,0.0753578156537
9100000000.0,0.059329989427,0.0761762625586,0.94023440019,-0.104503303853,0.94023440019,-0.104503303853,0.059329989427,0.0761762625586
9200000000.0,0.0595255277184,0.0769941268366,0.940029532447,-0.105632843282,0.940029532447,-0.105632843282,0.0595255277184,0.0769941268366
9300000000.0,0.0597229472485,0.0778114026277,0.939822684044,-0.106761805763,0.939822684044,-0.106761805763,0.0597229472485,0.0778114026277
9400000000.0,0.0599222486257,0.0786280840771,0.939613854355,-0.10789018553,0.939613854355,-0.10789018553,0.0599222486257,0.0786280840771
9500000000.0,0.0601234323428,0.0794441653354,0.939403042869,-0.109017976822,0.939403042869,-0.109017976822,0.0601234323428,0.0794441653354
9600000000.0,0.0603264987815,0.0802596405588,0.939190249187,-0.110145173885,0.939190249187,-0.110145173885,0.0603264987815,0.0802596405588
9700000000.0,0.0605314482153,0.0810745039099,0.938975473018,-0.11127177097,0.938975473018,-0.11127177097,0.0605314482153,0.0810745039099
9800000000.0,0.0607382808132,0.0818887495574,0.938758714175,-0.112397762335,0.938758714175,-0.112397762335,0.0607382808132,0.0818887495574
9900000000.0,0.0609469966424,0.082702371677,0.938539972573,-0.113523142242,0.938539972573,-0.113523142242,0.0609469966424,0.082702371677
10000000000.0,0.061157595672,0.0835153644515,0.938319248224,-0.114647904964,0.938319248224,-0.114647904964,0.061157595672,0.0835153644515
