# Hz S RI R 50.00 
100000000.0         0.000120975021735   -0.00239891967165   0.99985819887       -0.00299905846044   0.99985819887       -0.00299905846044   0.000120975021735   -0.00239891967165   
200000000.0         9.7650350223e-05    -0.00479778579494   0.999832557024      -0.00599807775245   0.999832557024      -0.00599807775245   9.76503502235e-05   -0.00479778579494   
300000000.0         5.97070351127e-05   -0.00719652867401   0.999792392816      -0.00899699783082   0.999792392816      -0.00899699783082   5.97070351127e-05   -0.00719652867401   
400000000.0         7.25852487937e-06   -0.00959506832881   0.99973759298       -0.0119957459821    0.99973759298       -0.0119957459821    7.25852487937e-06   -0.00959506832881   
500000000.0         -5.96510053118e-05  -0.0119933194494    0.999668114604      -0.0149942431203    0.999668114604      -0.0149942431203    -5.96510053115e-05  -0.0119933194494    
600000000.0         -0.000140998130147  -0.014391193184     0.999583936791      -0.0179924059678    0.999583936791      -0.0179924059678    -0.000140998130147  -0.014391193184     
700000000.0         -0.000236767816099  -0.0167885980644    0.999485048425      -0.0209901481704    0.999485048425      -0.0209901481704    -0.000236767816099  -0.0167885980644    
800000000.0         -0.000346948891548  -0.0191854405677    0.999371443746      -0.0239873809685    0.999371443746      -0.0239873809685    -0.000346948891548  -0.0191854405677    
900000000.0         -0.000471532014631  -0.0215816254924    0.999243120395      -0.0269840136438    0.999243120395      -0.0269840136438    -0.000471532014631  -0.0215816254924    
1000000000.0        -0.000610508631454  -0.0239770562274    0.999100078442      -0.0299799538376    0.999100078442      -0.0299799538376    -0.000610508631454  -0.0239770562274    
1100000000.0        -0.000763870387729  -0.0263716349554    0.998942319852      -0.0329751077888    0.998942319852      -0.0329751077888    -0.000763870387729  -0.0263716349554    
1200000000.0        -0.000931608770811  -0.0287652628108    0.998769848182      -0.0359693805196    0.998769848182      -0.0359693805196    -0.000931608770811  -0.0287652628108    
1300000000.0        -0.0011137148785    -0.0311578400087    0.998582668389      -0.0389626759849    0.998582668389      -0.0389626759849    -0.0011137148785    -0.0311578400087    
1400000000.0        -0.00131017926218   -0.033549265951     0.998380786717      -0.0419548971953    0.998380786717      -0.0419548971953    -0.00131017926219   -0.033549265951     
1500000000.0        -0.00152099181588   -0.0359394393168    0.998164210616      -0.044945946321     0.998164210616      -0.044945946321     -0.00152099181588   -0.0359394393168    
1600000000.0        -0.00174614169491   -0.0383282581399    0.997932948697      -0.0479357247807    0.997932948697      -0.0479357247807    -0.00174614169491   -0.0383282581399    
1700000000.0        -0.00198561725446   -0.0407156198776    0.997687010698      -0.05092413332      0.997687010698      -0.05092413332      -0.00198561725446   -0.0407156198776    
1800000000.0        -0.00223940600197   -0.0431014214713    0.997426407462      -0.0539110720799    0.997426407462      -0.0539110720799    -0.00223940600196   -0.0431014214713    
1900000000.0        -0.00250749455929   -0.0454855594017    0.997151150924      -0.0568964406587    0.997151150924      -0.0568964406587    -0.00250749455929   -0.0454855594017    
2000000000.0        -0.00278986863216   -0.0478679297385    0.996861254097      -0.0598801381681    0.996861254097      -0.0598801381681    -0.00278986863215   -0.0478679297385    
2100000000.0        -0.00308651298507   -0.0502484281862    0.996556731077      -0.0628620632846    0.996556731077      -0.0628620632846    -0.00308651298507   -0.0502484281862    
2200000000.0        -0.00339741142039   -0.0526269501271    0.996237597028      -0.0658421142964    0.996237597028      -0.0658421142964    -0.00339741142039   -0.0526269501271    
2300000000.0        -0.00372254676073   -0.0550033906611    0.995903868189      -0.0688201891474    0.995903868189      -0.0688201891474    -0.00372254676073   -0.0550033906611    
2400000000.0        -0.00406190083402   -0.0573776446427    0.995555561869      -0.0717961854787    0.995555561869      -0.0717961854787    -0.00406190083402   -0.0573776446427    
2500000000.0        -0.00441545446076   -0.0597496067166    0.995192696452      -0.0747700006668    0.995192696452      -0.0747700006668    -0.00441545446076   -0.0597496067166    
2600000000.0        -0.00478318744307   -0.0621191713517    0.994815291392      -0.0777415318609    0.994815291392      -0.0777415318609    -0.00478318744307   -0.0621191713517    
2700000000.0        -0.0051650785553    -0.0644862328724    0.994423367217      -0.0807106760167    0.994423367217      -0.0807106760167    -0.0051650785553    -0.0644862328724    
2800000000.0        -0.00556110553594   -0.0668506854901    0.994016945533      -0.0836773299308    0.994016945533      -0.0836773299308    -0.00556110553594   -0.0668506854901    
2900000000.0        -0.00597124508074   -0.0692124233324    0.99359604902       -0.0866413902718    0.99359604902       -0.0866413902718    -0.00597124508074   -0.0692124233324    
3000000000.0        -0.00639547283682   -0.0715713404718    0.993160701436      -0.089602753611     0.993160701436      -0.089602753611     -0.00639547283682   -0.0715713404718    
3100000000.0        -0.00683376339769   -0.0739273309531    0.992710927616      -0.0925613164523    0.992710927616      -0.0925613164523    -0.00683376339769   -0.0739273309531    
3200000000.0        -0.00728609029918   -0.0762802888202    0.992246753476      -0.0955169752605    0.992246753476      -0.0955169752605    -0.00728609029918   -0.0762802888202    
3300000000.0        -0.007752426016     -0.0786301081425    0.99176820601       -0.0984696264888    0.99176820601       -0.0984696264888    -0.007752426016     -0.0786301081425    
3400000000.0        -0.00823274195915   -0.0809766830397    0.991275313291      -0.101419166606     0.991275313291      -0.101419166606     -0.00823274195915   -0.0809766830397    
3500000000.0        -0.0087270084739    -0.0833199077065    0.990768104472      -0.104365492122     0.990768104472      -0.104365492122     -0.0087270084739    -0.0833199077065    
3600000000.0        -0.00923519483836   -0.0856596764374    0.990246609783      -0.107308499615     0.990246609783      -0.107308499615     -0.00923519483836   -0.0856596764374    
3700000000.0        -0.00975726926272   -0.0879958836492    0.989710860534      -0.110248085753     0.989710860534      -0.110248085753     -0.00975726926272   -0.0879958836492    
3800000000.0        -0.0102931988889    -0.090328423905     0.989160889109      -0.113184147322     0.989160889109      -0.113184147322     -0.0102931988889    -0.090328423905     
3900000000.0        -0.010842949791     -0.0926571919362    0.988596728969      -0.116116581246     0.988596728969      -0.116116581246     -0.010842949791     -0.0926571919362    
4000000000.0        -0.0114064869758    -0.0949820826651    0.988018414647      -0.119045284614     0.988018414647      -0.119045284614     -0.0114064869758    -0.0949820826651    
4100000000.0        -0.011983774384     -0.0973029912263    0.987425981748      -0.121970154699     0.987425981748      -0.121970154699     -0.011983774384     -0.0973029912263    
4200000000.0        -0.0125747748921    -0.0996198129882    0.986819466944      -0.124891088983     0.986819466944      -0.124891088983     -0.0125747748921    -0.0996198129882    
4300000000.0        -0.0131794503144    -0.101932443574     0.986198907973      -0.127807985177     0.986198907973      -0.127807985177     -0.0131794503144    -0.101932443574     
4400000000.0        -0.0137977614055    -0.104240778882     0.985564343636      -0.130720741243     0.985564343636      -0.130720741243     -0.0137977614055    -0.104240778882     
4500000000.0        -0.0144296678633    -0.106544715108     0.984915813792      -0.133629255418     0.984915813792      -0.133629255418     -0.0144296678633    -0.106544715108     
4600000000.0        -0.0150751283324    -0.10884414876      0.984253359355      -0.13653342623      0.984253359355      -0.13653342623      -0.0150751283324    -0.10884414876      
4700000000.0        -0.0157341004077    -0.111138976683     0.98357702229       -0.139433152519     0.98357702229       -0.139433152519     -0.0157341004077    -0.111138976683     
4800000000.0        -0.0164065406386    -0.113429096079     0.982886845608      -0.142328333462     0.982886845608      -0.142328333462     -0.0164065406386    -0.113429096079     
4900000000.0        -0.0170924045335    -0.11571440452      0.98218287336       -0.145218868587     0.98218287336       -0.145218868587     -0.0170924045335    -0.11571440452      
5000000000.0        -0.0177916465647    -0.117994799971     0.981465150635      -0.148104657794     0.981465150635      -0.148104657794     -0.0177916465647    -0.117994799971     
5100000000.0        -0.0185042201734    -0.120270180808     0.980733723551      -0.150985601376     0.980733723551      -0.150985601376     -0.0185042201734    -0.120270180808     
5200000000.0        -0.0192300777753    -0.122540445838     0.979988639251      -0.153861600035     0.979988639251      -0.153861600035     -0.0192300777753    -0.122540445838     
5300000000.0        -0.0199691707666    -0.124805494312     0.979229945898      -0.156732554902     0.979229945898      -0.156732554902     -0.0199691707666    -0.124805494312     
5400000000.0        -0.0207214495298    -0.127065225945     0.978457692665      -0.159598367554     0.978457692665      -0.159598367554     -0.0207214495298    -0.127065225945     
5500000000.0        -0.0214868634408    -0.129319540935     0.977671929731      -0.162458940033     0.977671929731      -0.162458940033     -0.0214868634408    -0.129319540935     
5600000000.0        -0.0222653608749    -0.131568339978     0.976872708276      -0.165314174863     0.976872708276      -0.165314174863     -0.0222653608749    -0.131568339978     
5700000000.0        -0.0230568892145    -0.133811524285     0.976060080468      -0.168163975067     0.976060080468      -0.168163975067     -0.0230568892145    -0.133811524285     
5800000000.0        -0.0238613948564    -0.136048995599     0.97523409946       -0.171008244184     0.97523409946       -0.171008244184     -0.0238613948564    -0.136048995599     
5900000000.0        -0.0246788232193    -0.138280656211     0.974394819382      -0.173846886285     0.974394819382      -0.173846886285     -0.0246788232193    -0.138280656211     
6000000000.0        -0.0255091187516    -0.140506408976     0.97354229533       -0.176679805991     0.97354229533       -0.176679805991     -0.0255091187516    -0.140506408976     
6100000000.0        -0.0263522249401    -0.142726157328     0.972676583362      -0.179506908488     0.972676583362      -0.179506908488     -0.0263522249401    -0.142726157328     
6200000000.0        -0.027208084318     -0.144939805295     0.971797740484      -0.182328099543     0.971797740484      -0.182328099543     -0.027208084318     -0.144939805295     
6300000000.0        -0.0280766384741    -0.147147257518     0.970905824645      -0.185143285517     0.970905824645      -0.185143285517     -0.0280766384741    -0.147147257518     
6400000000.0        -0.0289578280612    -0.149348419259     0.970000894729      -0.187952373386     0.970000894729      -0.187952373386     -0.0289578280612    -0.149348419259     
6500000000.0        -0.029851592806     -0.151543196422     0.969083010541      -0.19075527075      0.969083010541      -0.19075527075      -0.029851592806     -0.151543196422     
6600000000.0        -0.0307578715179    -0.153731495564     0.968152232802      -0.193551885851     0.968152232802      -0.193551885851     -0.0307578715179    -0.153731495564     
6700000000.0        -0.0316766020995    -0.15591322391      0.967208623136      -0.196342127587     0.967208623136      -0.196342127587     -0.0316766020995    -0.15591322391      
6800000000.0        -0.0326077215556    -0.158088289367     0.966252244063      -0.199125905525     0.966252244063      -0.199125905525     -0.0326077215556    -0.158088289367     
6900000000.0        -0.0335511660041    -0.160256600536     0.965283158985      -0.201903129915     0.965283158985      -0.201903129915     -0.0335511660041    -0.160256600536     
7000000000.0        -0.0345068706863    -0.162418066728     0.96430143218       -0.204673711705     0.96430143218       -0.204673711705     -0.0345068706863    -0.162418066728     
7100000000.0        -0.0354747699768    -0.164572597973     0.963307128787      -0.207437562554     0.963307128787      -0.207437562554     -0.0354747699768    -0.164572597973     
7200000000.0        -0.0364547973951    -0.166720105038     0.962300314799      -0.210194594841     0.962300314799      -0.210194594841     -0.0364547973951    -0.166720105038     
7300000000.0        -0.0374468856162    -0.168860499433     0.961281057049      -0.212944721685     0.961281057049      -0.212944721685     -0.0374468856162    -0.168860499433     
7400000000.0        -0.0384509664817    -0.17099369343      0.960249423202      -0.215687856951     0.960249423202      -0.215687856951     -0.0384509664817    -0.17099369343      
7500000000.0        -0.0394669710112    -0.173119600071     0.959205481739      -0.218423915264     0.959205481739      -0.218423915264     -0.0394669710112    -0.173119600071     
7600000000.0        -0.040494829414     -0.175238133177     0.95814930195       -0.221152812024     0.95814930195       -0.221152812024     -0.040494829414     -0.175238133177     
7700000000.0        -0.0415344711005    -0.177349207368     0.95708095392       -0.223874463412     0.95708095392       -0.223874463412     -0.0415344711005    -0.177349207368     
7800000000.0        -0.0425858246942    -0.179452738063     0.956000508517      -0.226588786408     0.956000508517      -0.226588786408     -0.0425858246942    -0.179452738063     
7900000000.0        -0.0436488180439    -0.1815486415       0.954908037382      -0.229295698794     0.954908037382      -0.229295698794     -0.0436488180439    -0.1815486415       
8000000000.0        -0.0447233782355    -0.183636834743     0.953803612914      -0.231995119172     0.953803612914      -0.231995119172     -0.0447233782355    -0.183636834743     
8100000000.0        -0.0458094316045    -0.18571723569      0.952687308258      -0.234686966971     0.952687308258      -0.234686966971     -0.0458094316045    -0.18571723569      
8200000000.0        -0.0469069037486    -0.187789763087     0.951559197296      -0.237371162459     0.951559197296      -0.237371162459     -0.0469069037486    -0.187789763087     
8300000000.0        -0.04801571954      -0.189854336537     0.95041935463       -0.24004762675      0.95041935463       -0.24004762675      -0.04801571954      -0.189854336537     
8400000000.0        -0.0491358031384    -0.191910876505     0.949267855572      -0.242716281815     0.949267855572      -0.242716281815     -0.0491358031384    -0.191910876505     
8500000000.0        -0.0502670780037    -0.193959304333     0.94810477613       -0.245377050493     0.94810477613       -0.245377050493     -0.0502670780037    -0.193959304333     
8600000000.0        -0.051409466909     -0.195999542247     0.946930192994      -0.248029856499     0.946930192994      -0.248029856499     -0.051409466909     -0.195999542247     
8700000000.0        -0.0525628919536    -0.198031513363     0.945744183527      -0.250674624433     0.945744183527      -0.250674624433     -0.0525628919536    -0.198031513363     
8800000000.0        -0.0537272745763    -0.2000551417       0.944546825747      -0.253311279785     0.944546825747      -0.253311279785     -0.0537272745763    -0.2000551417       
8900000000.0        -0.0549025355689    -0.202070352184     0.943338198315      -0.255939748951     0.943338198315      -0.255939748951     -0.0549025355689    -0.202070352184     
9000000000.0        -0.0560885950888    -0.204077070656     0.942118380524      -0.258559959233     0.942118380524      -0.258559959233     -0.0560885950888    -0.204077070656     
9100000000.0        -0.0572853726736    -0.206075223884     0.940887452283      -0.261171838852     0.940887452283      -0.261171838852     -0.0572853726736    -0.206075223884     
9200000000.0        -0.0584927872537    -0.208064739565     0.939645494105      -0.263775316952     0.939645494105      -0.263775316952     -0.0584927872537    -0.208064739565     
9300000000.0        -0.0597107571664    -0.210045546334     0.93839258709       -0.266370323609     0.93839258709       -0.266370323609     -0.0597107571664    -0.210045546334     
9400000000.0        -0.0609392001695    -0.212017573772     0.937128812918      -0.268956789838     0.937128812918      -0.268956789838     -0.0609392001695    -0.212017573772     
9500000000.0        -0.0621780334552    -0.21398075241      0.935854253827      -0.271534647599     0.935854253827      -0.271534647599     -0.0621780334552    -0.21398075241      
9600000000.0        -0.0634271736638    -0.215935013738     0.934568992606      -0.274103829804     0.934568992606      -0.274103829804     -0.0634271736638    -0.215935013738     
9700000000.0        -0.0646865368976    -0.217880290209     0.933273112576      -0.276664270321     0.933273112576      -0.276664270321     -0.0646865368976    -0.217880290209     
9800000000.0        -0.0659560387348    -0.219816515242     0.931966697581      -0.279215903981     0.931966697581      -0.279215903981     -0.0659560387348    -0.219816515242     
9900000000.0        -0.0672355942438    -0.221743623235     0.930649831969      -0.281758666586     0.930649831969      -0.281758666586     -0.0672355942438    -0.221743623235     
10000000000.0       -0.0685251179969    -0.223661549562     0.929322600582      -0.28429249491      0.929322600582      -0.28429249491      -0.0685251179969    -0.223661549562     
