# Hz S RI R 50.00 
100000000.0         -0.000140912088123  -0.0150323759022    0.999644223483      -0.01547629632      0.999644223483      -0.01547629632      -0.000140912088123  -0.0150323759022    
200000000.0         -0.0008527209277    -0.0300427410685    0.998930657655      -0.0309306058817    0.998930657655      -0.0309306058817    -0.000852720927699  -0.0300427410685    
300000000.0         -0.00202748618331   -0.0450100581489    0.997754308842      -0.0463419062279    0.997754308842      -0.0463419062279    -0.00202748618331   -0.0450100581489    
400000000.0         -0.0036618784681    -0.0599134755261    0.996118321382      -0.0616893576798    0.996118321382      -0.0616893576798    -0.0036618784681    -0.0599134755261    
500000000.0         -0.00575138306144   -0.0747324270153    0.994027138971      -0.0769524045944    0.994027138971      -0.0769524045944    -0.00575138306144   -0.0747324270153    
600000000.0         -0.00829029023007   -0.089446725303     0.991486435207      -0.0921108693021    0.991486435207      -0.0921108693021    -0.00829029023007   -0.089446725303     
700000000.0         -0.0112717231879    -0.104036650861     0.988503065563      -0.107145041268     0.988503065563      -0.107145041268     -0.0112717231879    -0.104036650861     
800000000.0         -0.0146876800003    -0.118483036085     0.985085018164      -0.122035761378     0.985085018164      -0.122035761378     -0.0146876800003    -0.118483036085     
900000000.0         -0.0185290844858    -0.132767344143     0.981241359638      -0.136764500881     0.981241359638      -0.136764500881     -0.0185290844858    -0.132767344143     
1000000000.0        -0.0227858442324    -0.146871741964     0.976982175459      -0.151313434445     0.976982175459      -0.151313434445     -0.0227858442324    -0.146871741964     
1100000000.0        -0.0274469145771    -0.160779166873     0.972318505051      -0.165665506838     0.972318505051      -0.165665506838     -0.0274469145771    -0.160779166873     
1200000000.0        -0.0325003676119    -0.174473386426     0.967262272241      -0.179804492809     0.967262272241      -0.179804492809     -0.0325003676119    -0.174473386426     
1300000000.0        -0.0379334653391    -0.18793905112      0.961826211764      -0.193715049815     0.961826211764      -0.193715049815     -0.0379334653391    -0.18793905112      
1400000000.0        -0.0437327361225    -0.201161739708     0.956023792588      -0.207382763369     0.956023792588      -0.207382763369     -0.0437327361225    -0.201161739708     
1500000000.0        -0.049884053591     -0.214127996983     0.949869138861      -0.220794184838     0.949869138861      -0.220794184838     -0.049884053591     -0.214127996983     
1600000000.0        -0.0563727171663    -0.22682536397      0.943376949272      -0.233936861657     0.943376949272      -0.233936861657     -0.0563727171663    -0.22682536397      
1700000000.0        -0.0631835334119    -0.239242400567     0.936562415629      -0.246799359975     0.936562415629      -0.246799359975     -0.0631835334119    -0.239242400567     
1800000000.0        -0.070300897428     -0.251368700759     0.92944114141       -0.259371279888     0.92944114141       -0.259371279888     -0.070300897428     -0.251368700759     
1900000000.0        -0.0777088735611    -0.263194900608     0.922029061004      -0.271643263436     0.922029061004      -0.271643263436     -0.0777088735611    -0.263194900608     
2000000000.0        -0.0853912747453    -0.274712679315     0.914342360348      -0.283606995674     0.914342360348      -0.283606995674     -0.0853912747453    -0.274712679315     
2100000000.0        -0.0933317398449    -0.285914753683     0.906397399549      -0.295255199147     0.906397399549      -0.295255199147     -0.0933317398449    -0.285914753683     
2200000000.0        -0.101513808434     -0.2967948664       0.898210638094      -0.306581622171     0.898210638094      -0.306581622171     -0.101513808434     -0.2967948664       
2300000000.0        -0.109920992509     -0.307347768568     0.889798563115      -0.317581021377     0.889798563115      -0.317581021377     -0.109920992509     -0.307347768568     
2400000000.0        -0.118536844701     -0.31756919699      0.881177621169      -0.328249138999     0.881177621169      -0.328249138999     -0.118536844701     -0.31756919699      
2500000000.0        -0.127345022622     -0.327455846701     0.87236415388       -0.338582675412     0.87236415388       -0.338582675412     -0.127345022622     -0.327455846701     
2600000000.0        -0.136329349053     -0.337005339282     0.863374337745      -0.348579257452     0.863374337745      -0.348579257452     -0.136329349053     -0.337005339282     
2700000000.0        -0.145473867731     -0.346216187499     0.854224128334      -0.358237403053     0.854224128334      -0.358237403053     -0.145473867731     -0.346216187499     
2800000000.0        -0.154762894599     -0.355087756784     0.844929209043      -0.367556482742     0.844929209043      -0.367556482742     -0.154762894599     -0.355087756784     
2900000000.0        -0.164181064379     -0.363620224109     0.835504944509      -0.376536678507     0.835504944509      -0.376536678507     -0.164181064379     -0.363620224109     
3000000000.0        -0.173713372463     -0.371814534748     0.825966338721      -0.385178940569     0.825966338721      -0.385178940569     -0.173713372463     -0.371814534748     
3100000000.0        -0.183345212101     -0.379672357441     0.816327997826      -0.393484942544     0.816327997826      -0.393484942544     -0.183345212101     -0.379672357441     
3200000000.0        -0.193062406959     -0.387196038408     0.806604097564      -0.401457035466     0.806604097564      -0.401457035466     -0.193062406959     -0.387196038408     
3300000000.0        -0.20285123915      -0.39438855468      0.796808355244      -0.409098201116     0.796808355244      -0.409098201116     -0.20285123915      -0.39438855468      
3400000000.0        -0.212698472855     -0.401253467138     0.786954006113      -0.416412005063     0.786954006113      -0.416412005063     -0.212698472855     -0.401253467138     
3500000000.0        -0.222591373734     -0.407794873639     0.777053783947      -0.423402549799     0.777053783947      -0.423402549799     -0.222591373734     -0.407794873639     
3600000000.0        -0.232517724301     -0.414017362592     0.767119905673      -0.43007442831      0.767119905673      -0.43007442831      -0.232517724301     -0.414017362592     
3700000000.0        -0.242465835478     -0.419925967253     0.757164059815      -0.436432678375     0.757164059815      -0.436432678375     -0.242465835478     -0.419925967253     
3800000000.0        -0.252424554591     -0.425526121043     0.747197398495      -0.442482737891     0.747197398495      -0.442482737891     -0.252424554591     -0.425526121043     
3900000000.0        -0.262383270015     -0.430823614105     0.737230532789      -0.448230401427     0.737230532789      -0.448230401427     -0.262383270015     -0.430823614105     
4000000000.0        -0.272331912751     -0.435824551307     0.727273531148      -0.453681778227     0.727273531148      -0.453681778227     -0.272331912751     -0.435824551307     
4100000000.0        -0.282260955181     -0.440535311851     0.717335920642      -0.458843251829     0.717335920642      -0.458843251829     -0.282260955181     -0.440535311851     
4200000000.0        -0.292161407253     -0.444962510637     0.707426690776      -0.463721441421     0.707426690776      -0.463721441421     -0.292161407253     -0.444962510637     
4300000000.0        -0.302024810368     -0.449112961471     0.697554299599      -0.468323165057     0.697554299599      -0.468323165057     -0.302024810368     -0.449112961471     
4400000000.0        -0.311843229194     -0.452993642207     0.687726681893      -0.472655404803     0.687726681893      -0.472655404803     -0.311843229194     -0.452993642207     
4500000000.0        -0.321609241675     -0.456611661882     0.677951259162      -0.476725273863     0.677951259162      -0.476725273863     -0.321609241675     -0.456611661882     
4600000000.0        -0.331315927444     -0.459974229855     0.668234951219      -0.48053998573      0.668234951219      -0.48053998573      -0.331315927444     -0.459974229855     
4700000000.0        -0.340956854882     -0.46308862698      0.658584189127      -0.484106825355     0.658584189127      -0.484106825355     -0.340956854882     -0.46308862698      
4800000000.0        -0.35052606701      -0.465962178799     0.649004929303      -0.487433122343     0.649004929303      -0.487433122343     -0.35052606701      -0.465962178799     
4900000000.0        -0.360018066439     -0.468602230722     0.639502668574      -0.490526226136     0.639502668574      -0.490526226136     -0.360018066439     -0.468602230722     
5000000000.0        -0.369427799531     -0.471016125176     0.63008246001       -0.493393483159     0.63008246001       -0.493393483159     -0.369427799531     -0.471016125176     
5100000000.0        -0.378750639971     -0.473211180655     0.620748929357      -0.496042215873     0.620748929357      -0.496042215873     -0.378750639971     -0.473211180655     
5200000000.0        -0.387982371874     -0.475194672618     0.611506291924      -0.498479703678     0.611506291924      -0.498479703678     -0.387982371874     -0.475194672618     
5300000000.0        -0.397119172601     -0.47697381618      0.60235836977       -0.500713165598     0.60235836977       -0.500713165598     -0.397119172601     -0.47697381618      
5400000000.0        -0.406157595393     -0.478555750496     0.593308609072      -0.502749744674     0.593308609072      -0.502749744674     -0.406157595393     -0.478555750496     
5500000000.0        -0.415094551945     -0.479947524794     0.584360097548      -0.504596493991     0.584360097548      -0.504596493991     -0.415094551945     -0.479947524794     
5600000000.0        -0.42392729502      -0.481156085941     0.575515581839      -0.506260364251     0.575515581839      -0.506260364251     -0.42392729502      -0.481156085941     
5700000000.0        -0.43265340121      -0.482188267485     0.566777484756      -0.50774819281      0.566777484756      -0.50774819281      -0.43265340121      -0.482188267485     
5800000000.0        -0.441270753901     -0.483050780071     0.558147922312      -0.509066694101     0.558147922312      -0.509066694101     -0.441270753901     -0.483050780071     
5900000000.0        -0.449777526528     -0.483750203156     0.549628720462      -0.510222451344     0.549628720462      -0.510222451344     -0.449777526528     -0.483750203156     
6000000000.0        -0.458172166182     -0.484292977925     0.541221431503      -0.511221909471     0.541221431503      -0.511221909471     -0.458172166182     -0.484292977925     
6100000000.0        -0.466453377604     -0.484685401343     0.532927350074      -0.512071369171     0.532927350074      -0.512071369171     -0.466453377604     -0.484685401343     
6200000000.0        -0.474620107626     -0.484933621243     0.524747528719      -0.512776981979     0.524747528719      -0.512776981979     -0.474620107626     -0.484933621243     
6300000000.0        -0.482671530085     -0.485043632377     0.516682792971      -0.513344746338     0.516682792971      -0.513344746338     -0.482671530085     -0.485043632377     
6400000000.0        -0.490607031235     -0.485021273363     0.508733755942      -0.513780504532     0.508733755942      -0.513780504532     -0.490607031235     -0.485021273363     
6500000000.0        -0.498426195681     -0.484872224427     0.500900832384      -0.514089940443     0.500900832384      -0.514089940443     -0.498426195681     -0.484872224427     
6600000000.0        -0.506128792862     -0.48460200591      0.493184252211      -0.514278578046     0.493184252211      -0.514278578046     -0.506128792862     -0.48460200591      
6700000000.0        -0.513714764065     -0.484215977424     0.485584073484      -0.514351780577     0.485584073484      -0.514351780577     -0.513714764065     -0.484215977424     
6800000000.0        -0.521184210007     -0.483719337638     0.478100194826      -0.514314750313     0.478100194826      -0.514314750313     -0.521184210007     -0.483719337638     
6900000000.0        -0.528537378964     -0.483117124606     0.470732367296      -0.514172528901     0.470732367296      -0.514172528901     -0.528537378964     -0.483117124606     
7000000000.0        -0.53577465546      -0.482414216584     0.4634802057        -0.51392999818      0.4634802057        -0.51392999818      -0.53577465546      -0.482414216584     
7100000000.0        -0.542896549496     -0.481615333293     0.456343199359      -0.51359188144      0.456343199359      -0.51359188144      -0.542896549496     -0.481615333293     
7200000000.0        -0.549903686326     -0.480725037569     0.449320722335      -0.513162745075     0.449320722335      -0.513162745075     -0.549903686326     -0.480725037569     
7300000000.0        -0.55679679676      -0.479747737356     0.442412043128      -0.512647000578     0.442412043128      -0.512647000578     -0.55679679676      -0.479747737356     
7400000000.0        -0.563576707993     -0.478687688003     0.435616333849      -0.512048906833     0.435616333849      -0.512048906833     -0.563576707993     -0.478687688003     
7500000000.0        -0.570244334923     -0.477548994814     0.428932678895      -0.511372572673     0.428932678895      -0.511372572673     -0.570244334923     -0.477548994814     
7600000000.0        -0.576800671981     -0.476335615827     0.422360083127      -0.510621959657     0.422360083127      -0.510621959657     -0.576800671981     -0.476335615827     
7700000000.0        -0.583246785418     -0.475051364787     0.415897479579      -0.509800885039     0.415897479579      -0.509800885039     -0.583246785418     -0.475051364787     
7800000000.0        -0.589583806058     -0.473699914266     0.409543736704      -0.508913024896     0.409543736704      -0.508913024896     -0.589583806058     -0.473699914266     
7900000000.0        -0.595812922497     -0.472284798929     0.403297665178      -0.507961917389     0.403297665178      -0.507961917389     -0.595812922497     -0.472284798929     
8000000000.0        -0.601935374713     -0.47080941889      0.397158024287      -0.506950966123     0.397158024287      -0.506950966123     -0.601935374713     -0.47080941889      
8100000000.0        -0.607952448098     -0.46927704316      0.391123527899      -0.505883443592     0.391123527899      -0.505883443592     -0.607952448098     -0.46927704316      
8200000000.0        -0.613865467865     -0.46769081315      0.385192850049      -0.50476249469      0.385192850049      -0.50476249469      -0.613865467865     -0.46769081315      
8300000000.0        -0.619675793837     -0.466053746222     0.379364630162      -0.50359114025      0.379364630162      -0.50359114025      -0.619675793837     -0.466053746222     
8400000000.0        -0.62538481558      -0.464368739253     0.373637477907      -0.50237228062      0.373637477907      -0.50237228062      -0.62538481558      -0.464368739253     
8500000000.0        -0.630993947883     -0.462638572218     0.368009977727      -0.501108699244     0.368009977727      -0.501108699244     -0.630993947883     -0.462638572218     
8600000000.0        -0.636504626545     -0.460865911763     0.362480693047      -0.499803066231     0.362480693047      -0.499803066231     -0.636504626545     -0.460865911763     
8700000000.0        -0.641918304479     -0.459053314765     0.35704817017       -0.498457941918     0.35704817017       -0.498457941918     -0.641918304479     -0.459053314765     
8800000000.0        -0.647236448089     -0.457203231857     0.351710941902      -0.497075780398     0.351710941902      -0.497075780398     -0.647236448089     -0.457203231857     
8900000000.0        -0.65246053393      -0.455318010924     0.346467530891      -0.495658933013     0.346467530891      -0.495658933013     -0.65246053393      -0.455318010924     
9000000000.0        -0.657592045617     -0.453399900548     0.341316452718      -0.494209651803     0.341316452718      -0.494209651803     -0.657592045617     -0.453399900548     
9100000000.0        -0.662632470977     -0.451451053408     0.336256218743      -0.492730092899     0.336256218743      -0.492730092899     -0.662632470977     -0.451451053408     
9200000000.0        -0.667583299431     -0.449473529607     0.331285338726      -0.491222319864     0.331285338726      -0.491222319864     -0.667583299431     -0.449473529607     
9300000000.0        -0.672446019588     -0.447469299956     0.326402323234      -0.489688306961     0.326402323234      -0.489688306961     -0.672446019588     -0.447469299956     
9400000000.0        -0.677222117039     -0.44544024917      0.32160568584       -0.488129942363     0.32160568584       -0.488129942363     -0.677222117039     -0.44544024917      
9500000000.0        -0.681913072344     -0.443388179007     0.316893945145      -0.486549031285     0.316893945145      -0.486549031285     -0.681913072344     -0.443388179007     
9600000000.0        -0.686520359192     -0.441314811326     0.312265626611      -0.484947299045     0.312265626611      -0.484947299045     -0.686520359192     -0.441314811326     
9700000000.0        -0.691045442726     -0.439221791067     0.307719264239      -0.483326394045     0.307719264239      -0.483326394045     -0.691045442726     -0.439221791067     
9800000000.0        -0.69548977803      -0.437110689161     0.303253402081      -0.481687890676     0.303253402081      -0.481687890676     -0.69548977803      -0.437110689161     
9900000000.0        -0.699854808753     -0.434983005348     0.298866595617      -0.480033292147     0.298866595617      -0.480033292147     -0.699854808753     -0.434983005348     
10000000000.0       -0.704141965873     -0.432840170926     0.294557412992      -0.478364033225     0.294557412992      -0.478364033225     -0.704141965873     -0.432840170926     
