# Hz S RI R 50.00 
100000000.0         -0.00726952182623   -0.0844818312268    0.992696439411      -0.0846179749712    0.992696439411      -0.0846179749712    -0.00726952182623   -0.0844818312268    
200000000.0         -0.0283389694609    -0.16535265546      0.97162673096       -0.165624982035     0.97162673096       -0.165624982035     -0.0283389694609    -0.16535265546      
300000000.0         -0.0614753370513    -0.239528106569     0.93849014222       -0.239936675472     0.93849014222       -0.239936675472     -0.0614753370513    -0.239528106569     
400000000.0         -0.104200460936     -0.304771055672     0.895764807581      -0.30531594195      0.895764807581      -0.30531594195      -0.104200460936     -0.304771055672     
500000000.0         -0.15369723387      -0.359834812386     0.846267823048      -0.360516104009     0.846267823048      -0.360516104009     -0.15369723387      -0.359834812386     
600000000.0         -0.207202381717     -0.404405801791     0.79276245703       -0.405223597803     0.79276245703       -0.405223597803     -0.207202381717     -0.404405801791     
700000000.0         -0.262289138181     -0.438911334174     0.737675472435      -0.439865743258     0.737675472435      -0.439865743258     -0.262289138181     -0.438911334174     
800000000.0         -0.317015567089     -0.464274705348     0.682948803231      -0.465365844652     0.682948803231      -0.465365844652     -0.317015567089     -0.464274705348     
900000000.0         -0.369957523714     -0.48168317586      0.63000659261       -0.482911169982     0.63000659261       -0.482911169982     -0.369957523714     -0.48168317586      
1000000000.0        -0.42016469301      -0.4924048203       0.579799154492      -0.493769800422     0.579799154492      -0.493769800422     -0.42016469301      -0.4924048203       
1100000000.0        -0.467078098097     -0.497664069863     0.5328854649        -0.499166172971     0.5328854649        -0.499166172971     -0.467078098097     -0.497664069863     
1200000000.0        -0.510437652457     -0.498569653834     0.489525609678      -0.500209022035     0.489525609678      -0.500209022035     -0.510437652457     -0.498569653834     
1300000000.0        -0.550196716517     -0.496082051842     0.44976622785       -0.497858831741     0.44976622785       -0.497858831741     -0.550196716517     -0.496082051842     
1400000000.0        -0.586451308328     -0.491007132459     0.413511300914      -0.492921474606     0.413511300914      -0.492921474606     -0.586451308328     -0.491007132459     
1500000000.0        -0.619385645455     -0.484005085648     0.380576610923      -0.486057144032     0.380576610923      -0.486057144032     -0.619385645455     -0.484005085648     
1600000000.0        -0.649232557795     -0.475606898184     0.350729327648      -0.47779682978      0.350729327648      -0.47779682978      -0.649232557795     -0.475606898184     
1700000000.0        -0.676246074403     -0.466233411612     0.323715421749      -0.468561375968     0.323715421749      -0.468561375968     -0.676246074403     -0.466233411612     
1800000000.0        -0.700683321584     -0.456214096308     0.299277766664      -0.458680255172     0.299277766664      -0.458680255172     -0.700683321584     -0.456214096308     
1900000000.0        -0.722793203185     -0.445804086454     0.277167458319      -0.448408603441     0.277167458319      -0.448408603441     -0.722793203185     -0.445804086454     
2000000000.0        -0.742809832705     -0.435198894351     0.257150383008      -0.437941934635     0.257150383008      -0.437941934635     -0.742809832705     -0.435198894351     
2100000000.0        -0.760949181844     -0.424546720011     0.239010568842      -0.427428450055     0.239010568842      -0.427428450055     -0.760949181844     -0.424546720011     
2200000000.0        -0.777407831943     -0.413958527235     0.222551434305      -0.416979114545     0.222551434305      -0.416979114545     -0.777407831943     -0.413958527235     
2300000000.0        -0.792363045992     -0.403516166631     0.207595716247      -0.406675779538     0.207595716247      -0.406675779538     -0.792363045992     -0.403516166631     
2400000000.0        -0.805973626103     -0.393278853387     0.193984612405      -0.396577660849     0.193984612405      -0.396577660849     -0.805973626103     -0.393278853387     
2500000000.0        -0.818381199403     -0.383288292648     0.181576495507      -0.386726464079     0.181576495507      -0.386726464079     -0.818381199403     -0.383288292648     
2600000000.0        -0.829711700279     -0.373572711684     0.170245431034      -0.377150416799     0.170245431034      -0.377150416799     -0.829711700279     -0.373572711684     
2700000000.0        -0.840076902717     -0.36415001853      0.159879644872      -0.367867427211     0.159879644872      -0.367867427211     -0.840076902717     -0.36415001853      
2800000000.0        -0.849575914379     -0.355030268326     0.150380029236      -0.358887550504     0.150380029236      -0.358887550504     -0.849575914379     -0.355030268326     
2900000000.0        -0.858296582325     -0.346217584076     0.141658736951      -0.350214909632     0.141658736951      -0.350214909632     -0.858296582325     -0.346217584076     
3000000000.0        -0.86631678513      -0.337711649177     0.133637889329      -0.34184918785      0.133637889329      -0.34184918785      -0.86631678513      -0.337711649177     
3100000000.0        -0.873705601867     -0.329508864724     0.12624840719       -0.333786786042     0.12624840719       -0.333786786042     -0.873705601867     -0.329508864724     
3200000000.0        -0.880524358006     -0.321603244907     0.119428964959      -0.326021718124     0.119428964959      -0.326021718124     -0.880524358006     -0.321603244907     
3300000000.0        -0.886827553889     -0.313987108009     0.113125062192      -0.318546302055     0.113125062192      -0.318546302055     -0.886827553889     -0.313987108009     
3400000000.0        -0.89266368442      -0.306651608055     0.107288203889      -0.311351691496     0.107288203889      -0.311351691496     -0.89266368442      -0.306651608055     
3500000000.0        -0.898075959913     -0.299587142277     0.101875179637      -0.304428283285     0.101875179637      -0.304428283285     -0.898075959913     -0.299587142277     
3600000000.0        -0.903102938377     -0.292783661882     0.0968474313351     -0.297766028212     0.0968474313351     -0.297766028212     -0.903102938377     -0.292783661882     
3700000000.0        -0.907779079176     -0.286230907551     0.0921704995285     -0.291354666529     0.0921704995285     -0.291354666529     -0.907779079176     -0.286230907551     
3800000000.0        -0.912135227379     -0.279918586405     0.087813539057      -0.285183904918     0.087813539057      -0.285183904918     -0.912135227379     -0.279918586405     
3900000000.0        -0.91619903732      -0.273836503483     0.0837488955003     -0.279243547982     0.0837488955003     -0.279243547982     -0.91619903732      -0.273836503483     
4000000000.0        -0.919995342991     -0.267974657952     0.0799517347777     -0.273523594451     0.0799517347777     -0.273523594451     -0.919995342991     -0.267974657952     
4100000000.0        -0.923546482087     -0.262323311977     0.07639971911       -0.26801430607      0.07639971911       -0.26801430607      -0.923546482087     -0.262323311977     
4200000000.0        -0.926872579665     -0.256873038507     0.0730727233554     -0.26270625538      0.0730727233554     -0.26270625538      -0.926872579665     -0.256873038507     
4300000000.0        -0.929991796677     -0.251614752816     0.0699525864794     -0.257590357264     0.0699525864794     -0.257590357264     -0.929991796677     -0.251614752816     
4400000000.0        -0.932920547941     -0.24653973161      0.0670228935813     -0.252657888062     0.0670228935813     -0.252657888062     -0.932920547941     -0.24653973161      
4500000000.0        -0.935673693534     -0.241639622668     0.0642687845029     -0.247900495212     0.0642687845029     -0.247900495212     -0.935673693534     -0.241639622668     
4600000000.0        -0.938264707052     -0.236906447331     0.0616767855668     -0.243310199745     0.0616767855668     -0.243310199745     -0.938264707052     -0.236906447331     
4700000000.0        -0.940705823736     -0.232332597662     0.0592346614513     -0.238879393441     0.0592346614513     -0.238879393441     -0.940705823736     -0.232332597662     
4800000000.0        -0.943008171049     -0.22791082967      0.0569312846139     -0.234600832063     0.0569312846139     -0.234600832063     -0.943008171049     -0.22791082967      
4900000000.0        -0.945181883948     -0.223634253712     0.0547565200182     -0.230467625756     0.0547565200182     -0.230467625756     -0.945181883948     -0.223634253712     
5000000000.0        -0.947236206795     -0.21949632291      0.0527011232224     -0.22647322747      0.0527011232224     -0.22647322747      -0.947236206795     -0.21949632291      
5100000000.0        -0.949179583589     -0.215490820255     0.0507566501491     -0.22261142006      0.0507566501491     -0.22261142006      -0.949179583589     -0.215490820255     
5200000000.0        -0.951019737972     -0.211611844895     0.0489153770773     -0.218876302575     0.0489153770773     -0.218876302575     -0.951019737972     -0.211611844895     
5300000000.0        -0.952763744278     -0.207853797985     0.0471702295928     -0.215262276119     0.0471702295928     -0.215262276119     -0.952763744278     -0.207853797985     
5400000000.0        -0.954418090724     -0.204211368423     0.0455147194009     -0.211764029575     0.0455147194009     -0.211764029575     -0.954418090724     -0.204211368423     
5500000000.0        -0.955988735685     -0.200679518654     0.0439428880468     -0.208376525417     0.0439428880468     -0.208376525417     -0.955988735685     -0.200679518654     
5600000000.0        -0.957481157897     -0.197253470734     0.0424492567163     -0.205094985772     0.0424492567163     -0.205094985772     -0.957481157897     -0.197253470734     
5700000000.0        -0.958900401296     -0.193928692756     0.0410287813928     -0.201914878849     0.0410287813928     -0.201914878849     -0.958900401296     -0.193928692756     
5800000000.0        -0.960251115138     -0.190700885728     0.0396768127425     -0.198831905812     0.0396768127425     -0.198831905812     -0.960251115138     -0.190700885728     
5900000000.0        -0.961537589928     -0.187565970954     0.0383890601777     -0.195841988167     0.0383890601777     -0.195841988167     -0.961537589928     -0.187565970954     
6000000000.0        -0.962763789669     -0.184520077959     0.0371615596177     -0.192941255685     0.0371615596177     -0.192941255685     -0.962763789669     -0.184520077959     
6100000000.0        -0.963933380815     -0.181559532971     0.0359906445268     -0.19012603488      0.0359906445268     -0.19012603488      -0.963933380815     -0.181559532971     
6200000000.0        -0.965049758329     -0.178680847966     0.034872919861      -0.18739283806      0.034872919861      -0.18739283806      -0.965049758329     -0.178680847966     
6300000000.0        -0.96611606915      -0.175880710283     0.0338052385995     -0.184738352939     0.0338052385995     -0.184738352939     -0.96611606915      -0.175880710283     
6400000000.0        -0.967135233361     -0.173155972785     0.0327846805768     -0.182159432796     0.0327846805768     -0.182159432796     -0.967135233361     -0.173155972785     
6500000000.0        -0.968109963308     -0.170503644564     0.0318085333649     -0.179653087181     0.0318085333649     -0.179653087181     -0.968109963308     -0.170503644564     
6600000000.0        -0.969042780885     -0.167920882164     0.0308742749862     -0.177216473141     0.0308742749862     -0.177216473141     -0.969042780885     -0.167920882164     
6700000000.0        -0.969936033187     -0.165404981305     0.02997955826       -0.174846886938     0.02997955826       -0.174846886938     -0.969936033187     -0.165404981305     
6800000000.0        -0.970791906705     -0.162953369088     0.0291221966132     -0.172541756256     0.0291221966132     -0.172541756256     -0.970791906705     -0.162953369088     
6900000000.0        -0.971612440196     -0.160563596653     0.0283001512012     -0.170298632861     0.0283001512012     -0.170298632861     -0.971612440196     -0.160563596653     
7000000000.0        -0.972399536393     -0.158233332271     0.0275115192053     -0.168115185686     0.0275115192053     -0.168115185686     -0.972399536393     -0.158233332271     
7100000000.0        -0.973154972649     -0.155960354845     0.0267545231857     -0.16598919434      0.0267545231857     -0.16598919434      -0.973154972649     -0.155960354845     
7200000000.0        -0.973880410634     -0.1537425478       0.0260275013847     -0.163918542991     0.0260275013847     -0.163918542991     -0.973880410634     -0.1537425478       
7300000000.0        -0.974577405176     -0.15157789334      0.0253288988851     -0.161901214624     0.0253288988851     -0.161901214624     -0.974577405176     -0.15157789334      
7400000000.0        -0.975247412332     -0.149464467041     0.0246572595404     -0.159935285633     0.0246572595404     -0.159935285633     -0.975247412332     -0.149464467041     
7500000000.0        -0.975891796762     -0.147400432778     0.0240112185994     -0.158018920752     0.0240112185994     -0.158018920752     -0.975891796762     -0.147400432778     
7600000000.0        -0.976511838475     -0.145384037951     0.0233894959615     -0.156150368273     0.0233894959615     -0.156150368273     -0.976511838475     -0.145384037951     
7700000000.0        -0.977108739006     -0.143413608993     0.0227908899995     -0.15432795556      0.0227908899995     -0.15432795556      -0.977108739006     -0.143413608993     
7800000000.0        -0.977683627077     -0.141487547158     0.0222142718982     -0.152550084832     0.0222142718982     -0.152550084832     -0.977683627077     -0.141487547158     
7900000000.0        -0.978237563791     -0.139604324546     0.0216585804599     -0.150815229188     0.0216585804599     -0.150815229188     -0.978237563791     -0.139604324546     
8000000000.0        -0.978771547402     -0.137762480375     0.0211228173345     -0.149121928882     0.0211228173345     -0.149121928882     -0.978771547402     -0.137762480375     
8100000000.0        -0.979286517701     -0.135960617466     0.0206060426336     -0.147468787804     0.0206060426336     -0.147468787804     -0.979286517701     -0.135960617466     
8200000000.0        -0.979783360053     -0.134197398941     0.0201073708958     -0.145854470178     0.0201073708958     -0.145854470178     -0.979783360053     -0.134197398941     
8300000000.0        -0.980262909108     -0.132471545114     0.0196259673711     -0.144277697451     0.0196259673711     -0.144277697451     -0.980262909108     -0.132471545114     
8400000000.0        -0.98072595223      -0.130781830558     0.0191610445949     -0.142737245365     0.0191610445949     -0.142737245365     -0.98072595223      -0.130781830558     
8500000000.0        -0.981173232657     -0.129127081351     0.0187118592287     -0.141231941197     0.0187118592287     -0.141231941197     -0.981173232657     -0.129127081351     
8600000000.0        -0.981605452417     -0.127506172476     0.0182777091412     -0.139760661158     0.0182777091412     -0.139760661158     -0.981605452417     -0.127506172476     
8700000000.0        -0.982023275026     -0.125918025371     0.0178579307125     -0.138322327949     0.0178579307125     -0.138322327949     -0.982023275026     -0.125918025371     
8800000000.0        -0.982427327984     -0.124361605622     0.017451896339      -0.136915908445     0.017451896339      -0.136915908445     -0.982427327984     -0.124361605622     
8900000000.0        -0.982818205078     -0.122835920784     0.0170590121251     -0.135540411523     0.0170590121251     -0.135540411523     -0.982818205078     -0.122835920784     
9000000000.0        -0.983196468529     -0.121340018327     0.0166787157439     -0.134194886003     0.0166787157439     -0.134194886003     -0.983196468529     -0.121340018327     
9100000000.0        -0.983562650968     -0.119872983698     0.0163104744543     -0.132878418709     0.0163104744543     -0.132878418709     -0.983562650968     -0.119872983698     
9200000000.0        -0.983917257281     -0.11843393849      0.0159537832605     -0.131590132642     0.0159537832605     -0.131590132642     -0.983917257281     -0.11843393849      
9300000000.0        -0.984260766315     -0.117022038711     0.0156081632038     -0.130329185244     0.0156081632038     -0.130329185244     -0.984260766315     -0.117022038711     
9400000000.0        -0.984593632467     -0.115636473154     0.0152731597746     -0.129094766772     0.0152731597746     -0.129094766772     -0.984593632467     -0.115636473154     
9500000000.0        -0.984916287158     -0.114276461852     0.014948341436      -0.127886098747     0.014948341436      -0.127886098747     -0.984916287158     -0.114276461852     
9600000000.0        -0.985229140211     -0.112941254616     0.01463329825       -0.126702432496     0.01463329825       -0.126702432496     -0.985229140211     -0.112941254616     
9700000000.0        -0.985532581128     -0.111630129655     0.0143276405977     -0.12554304777      0.0143276405977     -0.12554304777      -0.985532581128     -0.111630129655     
9800000000.0        -0.985826980281     -0.11034239227      0.0140309979875     -0.124407251441     0.0140309979875     -0.124407251441     -0.985826980281     -0.11034239227      
9900000000.0        -0.986112690026     -0.109077373618     0.0137430179426     -0.123294376256     0.0137430179426     -0.123294376256     -0.986112690026     -0.109077373618     
10000000000.0       -0.986390045742     -0.107834429537     0.0134633649641     -0.122203779673     0.0134633649641     -0.122203779673     -0.986390045742     -0.107834429537     
