# Hz S RI R 50.00 
100000000.0         -0.00473796819825   -0.0682936117066    0.995212930828      -0.0683988530309    0.995212930828      -0.0683988530309    -0.00473796819825   -0.0682936117066    
200000000.0         -0.0186219013429    -0.134668679849     0.981328645174      -0.134879174633     0.981328645174      -0.134879174633     -0.0186219013429    -0.134668679849     
300000000.0         -0.0408750236291    -0.197400818027     0.95907524348       -0.19771658504      0.95907524348       -0.19771658504      -0.0408750236291    -0.197400818027     
400000000.0         -0.0703572075326    -0.255079777114     0.929592811076      -0.255500840363     0.929592811076      -0.255500840363     -0.0703572075326    -0.255079777114     
500000000.0         -0.105678589266     -0.30669488149      0.894271195583      -0.307221269501     0.894271195583      -0.307221269501     -0.105678589266     -0.30669488149      
600000000.0         -0.145347060367     -0.35165975254      0.854602497255      -0.352291497876     0.854602497255      -0.352291497876     -0.145347060367     -0.35165975254      
700000000.0         -0.187900244454     -0.389783744367     0.812049087648      -0.390520883266     0.812049087648      -0.390520883266     -0.187900244454     -0.389783744367     
800000000.0         -0.232005448758     -0.421206636471     0.767943656414      -0.422049208555     0.767943656414      -0.422049208555     -0.232005448758     -0.421206636471     
900000000.0         -0.276521718838     -0.446315618572     0.723427155846      -0.447263666604     0.723427155846      -0.447263666604     -0.276521718838     -0.446315618572     
1000000000.0        -0.320526731083     -0.465660907532     0.679421908006      -0.466714477205     0.679421908006      -0.466714477205     -0.320526731083     -0.465660907532     
1100000000.0        -0.363316242646     -0.479881059821     0.63663215458       -0.481040199576     0.63663215458       -0.481040199576     -0.363316242646     -0.479881059821     
1200000000.0        -0.404385350353     -0.489643535523     0.595562797845      -0.490908296382     0.595562797845      -0.490908296382     -0.404385350353     -0.489643535523     
1300000000.0        -0.4433999797       -0.495601728264     0.556547911594      -0.496972163682     0.556547911594      -0.496972163682     -0.4433999797       -0.495601728264     
1400000000.0        -0.48016505873      -0.498366941412     0.519782567212      -0.49984310714      0.519782567212      -0.49984310714      -0.48016505873      -0.498366941412     
1500000000.0        -0.514593654236     -0.498492490381     0.485353697435      -0.500074444342     0.485353697435      -0.500074444342     -0.514593654236     -0.498492490381     
1600000000.0        -0.546679476806     -0.496466819328     0.453267591281      -0.498154621497     0.453267591281      -0.498154621497     -0.546679476806     -0.496466819328     
1700000000.0        -0.576473785548     -0.492712806605     0.42347298931       -0.494506518905     0.42347298931       -0.494506518905     -0.576473785548     -0.492712806605     
1800000000.0        -0.604066833277     -0.487590968807     0.395879638422      -0.489490655008     0.395879638422      -0.489490655008     -0.604066833277     -0.487590968807     
1900000000.0        -0.629573490743     -0.481404852137     0.37037266762       -0.483410577757     0.37037266762       -0.483410577757     -0.629573490743     -0.481404852137     
2000000000.0        -0.653122457764     -0.474407415835     0.346823376871      -0.476519248055     0.346823376871      -0.476519248055     -0.653122457764     -0.474407415835     
2100000000.0        -0.674848408515     -0.466807625365     0.32509709181       -0.469025632945     0.32509709181       -0.469025632945     -0.674848408515     -0.466807625365     
2200000000.0        -0.694886452574     -0.458776779905     0.305058702689      -0.461101033103     0.305058702689      -0.461101033103     -0.694886452574     -0.458776779905     
2300000000.0        -0.713368372172     -0.450454313793     0.286576427124      -0.452884884293     0.286576427124      -0.452884884293     -0.713368372172     -0.450454313793     
2400000000.0        -0.730420189129     -0.441952954649     0.26952424316       -0.444489915492     0.26952424316       -0.444489915492     -0.730420189129     -0.441952954649     
2500000000.0        -0.746160705305     -0.433363210958     0.253783348809      -0.436006636471     0.253783348809      -0.436006636471     -0.746160705305     -0.433363210958     
2600000000.0        -0.760700740259     -0.424757214907     0.239242924402      -0.427507180645     0.239242924402      -0.427507180645     -0.760700740259     -0.424757214907     
2700000000.0        -0.774142856363     -0.41619197455      0.225800407458      -0.419048557234     0.225800407458      -0.419048557234     -0.774142856363     -0.41619197455      
2800000000.0        -0.786581415144     -0.407712101661     0.213361436354      -0.410675379125     0.213361436354      -0.410675379125     -0.786581415144     -0.407712101661     
2900000000.0        -0.798102850316     -0.399352084324     0.201839577285      -0.402422135457     0.201839577285      -0.402422135457     -0.798102850316     -0.399352084324     
3000000000.0        -0.808786074935     -0.391138170351     0.191155917109      -0.394315075052     0.191155917109      -0.394315075052     -0.808786074935     -0.391138170351     
3100000000.0        -0.818702964102     -0.383089921884     0.181238580648      -0.386373761013     0.181238580648      -0.386373761013     -0.818702964102     -0.383089921884     
3200000000.0        -0.827918872439     -0.375221494513     0.172022213202      -0.378612349844     0.172022213202      -0.378612349844     -0.827918872439     -0.375221494513     
3300000000.0        -0.836493158622     -0.367542687086     0.163447456025      -0.371040641269     0.163447456025      -0.371040641269     -0.836493158622     -0.367542687086     
3400000000.0        -0.844479698682     -0.360059801578     0.155460433018      -0.363664938097     0.155460433018      -0.363664938097     -0.844479698682     -0.360059801578     
3500000000.0        -0.85192737652      -0.352776346179     0.148012260214      -0.356488749313     0.148012260214      -0.356488749313     -0.85192737652      -0.352776346179     
3600000000.0        -0.858880544876     -0.345693609324     0.141058584812      -0.349513364114     0.141058584812      -0.349513364114     -0.858880544876     -0.345693609324     
3700000000.0        -0.865379453269     -0.338811127715     0.134559157233      -0.34273831993      0.134559157233      -0.34273831993      -0.865379453269     -0.338811127715     
3800000000.0        -0.871460641698     -0.332127067376     0.128477437421      -0.336161783481     0.128477437421      -0.336161783481     -0.871460641698     -0.332127067376     
3900000000.0        -0.877157300389     -0.325638533456     0.122780235093      -0.329780860583     0.122780235093      -0.329780860583     -0.877157300389     -0.325638533456     
4000000000.0        -0.882499596833     -0.319341821684     0.117437382705      -0.323591847605     0.117437382705      -0.323591847605     -0.882499596833     -0.319341821684     
4100000000.0        -0.887514971921     -0.313232622091     0.112421439314      -0.317590435192     0.112421439314      -0.317590435192     -0.887514971921     -0.313232622091     
4200000000.0        -0.892228407332     -0.307306183676     0.107707423188      -0.311771872932     0.107707423188      -0.311771872932     -0.892228407332     -0.307306183676     
4300000000.0        -0.896662666426     -0.301557447149     0.103272570919      -0.306131102103     0.103272570919      -0.306131102103     -0.896662666426     -0.301557447149     
4400000000.0        -0.900838510935     -0.295981151584     0.0990961207276     -0.300662862322     0.0990961207276     -0.300662862322     -0.900838510935     -0.295981151584     
4500000000.0        -0.904774895667     -0.290571919738     0.0951591177557     -0.295361776877     0.0951591177557     -0.295361776877     -0.904774895667     -0.290571919738     
4600000000.0        -0.908489143337     -0.285324325977     0.0914442392419     -0.290222420637     0.0914442392419     -0.290222420637     -0.908489143337     -0.285324325977     
4700000000.0        -0.911997101487     -0.280232949973     0.0879356376003     -0.285239373769     0.0879356376003     -0.285239373769     -0.911997101487     -0.280232949973     
4800000000.0        -0.915313283305     -0.275292418834     0.0846187995955     -0.280407263855     0.0846187995955     -0.280407263855     -0.915313283305     -0.275292418834     
4900000000.0        -0.918450994026     -0.270497439772     0.0814804199495     -0.275720798569     0.0814804199495     -0.275720798569     -0.918450994026     -0.270497439772     
5000000000.0        -0.921422444392     -0.265842825109     0.0785082878751     -0.271174790681     0.0785082878751     -0.271174790681     -0.921422444392     -0.265842825109     
5100000000.0        -0.92423885256      -0.261323511032     0.075691185172      -0.266764176814     0.075691185172      -0.266764176814     -0.92423885256      -0.261323511032     
5200000000.0        -0.926910535667     -0.256934571301     0.0730187946619     -0.262484031152     0.0730187946619     -0.262484031152     -0.926910535667     -0.256934571301     
5300000000.0        -0.929446992152     -0.25267122686      0.0704816178624     -0.258329575056     0.0704816178624     -0.258329575056     -0.929446992152     -0.25267122686      
5400000000.0        -0.931856975827     -0.248528852166     0.0680709009184     -0.254296183389     0.0680709009184     -0.254296183389     -0.931856975827     -0.248528852166     
5500000000.0        -0.934148562571     -0.244502978872     0.0657785679104     -0.250379388201     0.0657785679104     -0.250379388201     -0.934148562571     -0.244502978872     
5600000000.0        -0.936329210421     -0.240589297398     0.0635971607593     -0.246574880305     0.0635971607593     -0.246574880305     -0.936329210421     -0.240589297398     
5700000000.0        -0.938405813774     -0.236783656842     0.0615197850266     -0.24287850918      0.0615197850266     -0.24287850918      -0.938405813774     -0.236783656842     
5800000000.0        -0.940384752311     -0.233082063563     0.0595400609912     -0.239286281568     0.0595400609912     -0.239286281568     -0.940384752311     -0.233082063563     
5900000000.0        -0.942271935198     -0.229480678759     0.0576520794467     -0.23579435904      0.0576520794467     -0.23579435904      -0.942271935198     -0.229480678759     
6000000000.0        -0.944072841057     -0.225975815252     0.055850361728      -0.232399054787     0.055850361728      -0.232399054787     -0.944072841057     -0.225975815252     
6100000000.0        -0.945792554157     -0.222563933683     0.0541298235283     -0.229096829821     0.0541298235283     -0.229096829821     -0.945792554157     -0.222563933683     
6200000000.0        -0.947435797188     -0.219241638292     0.0524857421151     -0.225884288742     0.0524857421151     -0.225884288742     -0.947435797188     -0.219241638292     
6300000000.0        -0.949006961002     -0.216005672375     0.0509137265976     -0.222758175211     0.0509137265976     -0.222758175211     -0.949006961002     -0.216005672375     
6400000000.0        -0.950510131598     -0.21285291356      0.0494096909357     -0.219715367218     0.0494096909357     -0.219715367218     -0.950510131598     -0.21285291356      
6500000000.0        -0.951949114651     -0.209780368962     0.0479698294141     -0.216752872237     0.0479698294141     -0.216752872237     -0.951949114651     -0.209780368962     
6600000000.0        -0.95332745782      -0.206785170283     0.0465905943336     -0.213867822331     0.0465905943336     -0.213867822331     -0.95332745782      -0.206785170283     
6700000000.0        -0.954648471058     -0.20386456893      0.045268675702      -0.211057469267     0.045268675702      -0.211057469267     -0.954648471058     -0.20386456893      
6800000000.0        -0.955915245119     -0.201015931166     0.0440009827243     -0.208319179668     0.0440009827243     -0.208319179668     -0.955915245119     -0.201015931166     
6900000000.0        -0.957130668442     -0.198236733344     0.0427846269205     -0.205650430252     0.0427846269205     -0.205650430252     -0.957130668442     -0.198236733344     
7000000000.0        -0.958297442568     -0.195524557252     0.0416169067098     -0.203048803169     0.0416169067098     -0.203048803169     -0.958297442568     -0.195524557252     
7100000000.0        -0.959418096227     -0.192877085564     0.040495293323      -0.20051198146      0.040495293323      -0.20051198146      -0.959418096227     -0.192877085564     
7200000000.0        -0.960494998221     -0.190292097442     0.0394174179158     -0.198037744656     0.0394174179158     -0.198037744656     -0.960494998221     -0.190292097442     
7300000000.0        -0.961530369229     -0.187767464274     0.0383810597695     -0.195623964515     0.0383810597695     -0.195623964515     -0.961530369229     -0.187767464274     
7400000000.0        -0.962526292616     -0.185301145566     0.0373841354783     -0.19326860092      0.0373841354783     -0.19326860092      -0.962526292616     -0.185301145566     
7500000000.0        -0.963484724353     -0.182891184993     0.0364246890314     -0.190969697921     0.0364246890314     -0.190969697921     -0.963484724353     -0.182891184993     
7600000000.0        -0.964407502118     -0.180535706595     0.0355008827074     -0.188725379944     0.0355008827074     -0.188725379944     -0.964407502118     -0.180535706595     
7700000000.0        -0.96529635367      -0.178232911147     0.0346109887082     -0.186533848147     0.0346109887082     -0.186533848147     -0.96529635367      -0.178232911147     
7800000000.0        -0.966152904537     -0.175981072665     0.0337533814644     -0.184393376938     0.0337533814644     -0.184393376938     -0.966152904537     -0.175981072665     
7900000000.0        -0.966978685099     -0.173778535076     0.0329265305536     -0.182302310641     0.0329265305536     -0.182302310641     -0.966978685099     -0.173778535076     
8000000000.0        -0.967775137115     -0.171623709035     0.032128994176      -0.180259060308     0.032128994176      -0.180259060308     -0.967775137115     -0.171623709035     
8100000000.0        -0.968543619734     -0.16951506888      0.0313594131398     -0.178262100685     0.0313594131398     -0.178262100685     -0.968543619734     -0.16951506888      
8200000000.0        -0.96928541505      -0.167451149736     0.0306165053107     -0.176309967308     0.0306165053107     -0.176309967308     -0.96928541505      -0.167451149736     
8300000000.0        -0.97000173322      -0.165430544748     0.0298990604869     -0.174401253737     0.0298990604869     -0.174401253737     -0.97000173322      -0.165430544748     
8400000000.0        -0.97069371721      -0.163451902444     0.0292059356625     -0.172534608924     0.0292059356625     -0.172534608924     -0.97069371721      -0.163451902444     
8500000000.0        -0.971362447167     -0.161513924229     0.0285360506458     -0.170708734703     0.0285360506458     -0.170708734703     -0.971362447167     -0.161513924229     
8600000000.0        -0.972008944482     -0.159615361994     0.0278883840047     -0.168922383397     0.0278883840047     -0.168922383397     -0.972008944482     -0.159615361994     
8700000000.0        -0.972634175539     -0.157755015838     0.0272619693102     -0.167174355548     0.0272619693102     -0.167174355548     -0.972634175539     -0.157755015838     
8800000000.0        -0.973239055203     -0.155931731908     0.0266558916539     -0.16546349775      0.0266558916539     -0.16546349775      -0.973239055203     -0.155931731908     
8900000000.0        -0.973824450049     -0.154144400333     0.0260692844181     -0.163788700586     0.0260692844181     -0.163788700586     -0.973824450049     -0.154144400333     
9000000000.0        -0.974391181359     -0.152391953269     0.0255013262766     -0.162148896672     0.0255013262766     -0.162148896672     -0.974391181359     -0.152391953269     
9100000000.0        -0.974940027908     -0.150673363031     0.0249512384087     -0.160543058792     0.0249512384087     -0.160543058792     -0.974940027908     -0.150673363031     
9200000000.0        -0.975471728558     -0.148987640318     0.0244182819095     -0.158970198119     0.0244182819095     -0.158970198119     -0.975471728558     -0.148987640318     
9300000000.0        -0.975986984662     -0.147333832528     0.0239017553801     -0.157429362533     0.0239017553801     -0.157429362533     -0.975986984662     -0.147333832528     
9400000000.0        -0.97648646231      -0.145711022147     0.0234009926849     -0.155919635008     0.0234009926849     -0.155919635008     -0.97648646231      -0.145711022147     
9500000000.0        -0.976970794419     -0.144118325225     0.0229153608619     -0.154440132092     0.0229153608619     -0.154440132092     -0.976970794419     -0.144118325225     
9600000000.0        -0.977440582678     -0.142554889921     0.0224442581754     -0.152990002445     0.0224442581754     -0.152990002445     -0.977440582678     -0.142554889921     
9700000000.0        -0.977896399368     -0.141019895117     0.0219871122988     -0.151568425463     0.0219871122988     -0.151568425463     -0.977896399368     -0.141019895117     
9800000000.0        -0.978338789055     -0.139512549104     0.0215433786197     -0.150174609952     0.0215433786197     -0.150174609952     -0.978338789055     -0.139512549104     
9900000000.0        -0.978768270174     -0.138032088326     0.0211125386558     -0.148807792885     0.0211125386558     -0.148807792885     -0.978768270174     -0.138032088326     
10000000000.0       -0.979185336509     -0.136577776186     0.0206940985757     -0.147467238197     0.0206940985757     -0.147467238197     -0.979185336509     -0.136577776186     
