# Hz S RI R 50.00 
100000000.0         3.30306223004e-05   -0.00732396884161   0.999831760195      -0.00810714786543   0.999831760195      -0.00810714786543   3.30306223004e-05   -0.00732396884161   
200000000.0         -0.000151973855088  -0.0146454918462    0.999644471048      -0.0162119132794    0.999644471048      -0.0162119132794    -0.000151973855088  -0.0146454918462    
300000000.0         -0.000455793434728  -0.0219621094071    0.999338100747      -0.0243118729292    0.999338100747      -0.0243118729292    -0.000455793434728  -0.0219621094071    
400000000.0         -0.000878177468484  -0.0292713043507    0.998912726355      -0.0324045380927    0.998912726355      -0.0324045380927    -0.000878177468483  -0.0292713043507    
500000000.0         -0.00141885652793   -0.036570533985     0.998368550425      -0.0404873907075    0.998368550425      -0.0404873907075    -0.00141885652793   -0.036570533985     
600000000.0         -0.00207750411702   -0.0438572432637    0.997705865206      -0.0485578978702    0.997705865206      -0.0485578978702    -0.00207750411702   -0.0438572432637    
700000000.0         -0.0028537265868    -0.0511288729228    0.996925043937      -0.0566135206452    0.996925043937      -0.0566135206452    -0.0028537265868    -0.0511288729228    
800000000.0         -0.00374705939558   -0.0583828655117    0.996026537744      -0.0646517204947    0.996026537744      -0.0646517204947    -0.00374705939558   -0.0583828655117    
900000000.0         -0.00475696555417   -0.0656166703458    0.995010874148      -0.0726699644942    0.995010874148      -0.0726699644942    -0.00475696555417   -0.0656166703458    
1000000000.0        -0.00588283505768   -0.0728277478299    0.9938786561        -0.08066572984      0.9938786561        -0.08066572984      -0.00588283505768   -0.0728277478299    
1100000000.0        -0.00712398486486   -0.0800135733735    0.992630561146      -0.088636507901     0.992630561146      -0.088636507901     -0.00712398486486   -0.0800135733735    
1200000000.0        -0.00847965923572   -0.0871716410227    0.991267340585      -0.0965798079554    0.991267340585      -0.0965798079554    -0.00847965923572   -0.0871716410227    
1300000000.0        -0.00994903033392   -0.0942994668763    0.989789818548      -0.104493160689     0.989789818548      -0.104493160689     -0.00994903033392   -0.0942994668763    
1400000000.0        -0.0115311990431    -0.101394592329     0.988198890975      -0.112374121506     0.988198890975      -0.112374121506     -0.0115311990431    -0.101394592329     
1500000000.0        -0.0132251959662    -0.108454587166     0.986495524473      -0.120220273677     0.986495524473      -0.120220273677     -0.0132251959662    -0.108454587166     
1600000000.0        -0.0150299825869    -0.115477052525     0.984680755056      -0.128029231351     0.984680755056      -0.128029231351     -0.0150299825869    -0.115477052525     
1700000000.0        -0.0169444525795    -0.122459623738     0.982755686767      -0.135798642431     0.982755686767      -0.135798642431     -0.0169444525795    -0.122459623738     
1800000000.0        -0.0189674332532    -0.129399973048     0.980721490176      -0.143526191331     0.980721490176      -0.143526191331     -0.0189674332532    -0.129399973048     
1900000000.0        -0.0210976871243    -0.136295812219     0.978579400779      -0.151209601611     0.978579400779      -0.151209601611     -0.0210976871243    -0.136295812219     
2000000000.0        -0.0233339136038    -0.143144895024     0.97633071727       -0.158846638495     0.97633071727       -0.158846638495     -0.0233339136038    -0.143144895024     
2100000000.0        -0.0256747507961    -0.149945019626     0.973976799729      -0.16643511127      0.973976799729      -0.16643511127      -0.0256747507961    -0.149945019626     
2200000000.0        -0.0281187773978    -0.156694030835     0.9715190677        -0.173972875571     0.9715190677        -0.173972875571     -0.0281187773978    -0.156694030835     
2300000000.0        -0.0306645146915    -0.163389822253     0.968958998186      -0.181457835539     0.968958998186      -0.181457835539     -0.0306645146914    -0.163389822253     
2400000000.0        -0.033310428626     -0.170030338305     0.966298123556      -0.188887945872     0.966298123556      -0.188887945872     -0.0333104286261    -0.170030338305     
2500000000.0        -0.0360549319771    -0.176613576141     0.963538029379      -0.19626121374      0.963538029379      -0.19626121374      -0.0360549319771    -0.176613576141     
2600000000.0        -0.0388963865792    -0.183137587424     0.96068035218       -0.20357570059      0.96068035218       -0.20357570059      -0.0388963865792    -0.183137587424     
2700000000.0        -0.0418331056237    -0.189600479993     0.957726777139      -0.210829523819     0.957726777139      -0.210829523819     -0.0418331056237    -0.189600479993     
2800000000.0        -0.0448633560148    -0.1960004194       0.954679035732      -0.218020858328     0.954679035732      -0.218020858328     -0.0448633560148    -0.1960004194       
2900000000.0        -0.0479853607766    -0.202335630332     0.951538903316      -0.225147937949     0.951538903316      -0.225147937949     -0.0479853607766    -0.202335630332     
3000000000.0        -0.0511973015044    -0.208604397892     0.948308196677      -0.232209056742     0.948308196677      -0.232209056742     -0.0511973015044    -0.208604397892     
3100000000.0        -0.0544973208527    -0.214805068773     0.944988771539      -0.239202570174     0.944988771539      -0.239202570174     -0.0544973208527    -0.214805068773     
3200000000.0        -0.0578835250536    -0.220936052291     0.941582520042      -0.246126896164     0.941582520042      -0.246126896164     -0.0578835250536    -0.220936052291     
3300000000.0        -0.0613539864584    -0.226995821303     0.938091368201      -0.252980516008     0.938091368201      -0.252980516008     -0.0613539864584    -0.226995821303     
3400000000.0        -0.0649067460964    -0.232982912996     0.934517273342      -0.259761975179     0.934517273342      -0.259761975179     -0.0649067460964    -0.232982912996     
3500000000.0        -0.0685398162426    -0.238895929556     0.930862221537      -0.266469883998     0.930862221537      -0.266469883998     -0.0685398162426    -0.238895929556     
3600000000.0        -0.0722511829903    -0.244733538711     0.927128225028      -0.273102918189     0.927128225028      -0.273102918189     -0.0722511829903    -0.244733538711     
3700000000.0        -0.0760388088201    -0.250494474155     0.923317319654      -0.27965981931      0.923317319654      -0.27965981931      -0.0760388088201    -0.250494474155     
3800000000.0        -0.0799006351612    -0.256177535858     0.919431562297      -0.286139395062     0.919431562297      -0.286139395062     -0.0799006351612    -0.256177535858     
3900000000.0        -0.083834584937     -0.261781590252     0.915473028327      -0.292540519493     0.915473028327      -0.292540519493     -0.083834584937     -0.261781590252     
4000000000.0        -0.0878385650916    -0.267305570309     0.91144380908       -0.298862133069     0.91144380908       -0.298862133069     -0.0878385650916    -0.267305570309     
4100000000.0        -0.0919104690902    -0.272748475506     0.907346009356      -0.305103242655     0.907346009356      -0.305103242655     -0.0919104690902    -0.272748475506     
4200000000.0        -0.0960481793885    -0.278109371681     0.903181744948      -0.311262921371     0.903181744948      -0.311262921371     -0.0960481793885    -0.278109371681     
4300000000.0        -0.100249569867     -0.283387390789     0.898953140207      -0.317340308349     0.898953140207      -0.317340308349     -0.100249569867     -0.283387390789     
4400000000.0        -0.104512508224     -0.288581730546     0.894662325652      -0.323334608394     0.894662325652      -0.323334608394     -0.104512508224     -0.288581730546     
4500000000.0        -0.108834858325     -0.293691653989     0.890311435616      -0.329245091534     0.890311435616      -0.329245091534     -0.108834858325     -0.293691653989     
4600000000.0        -0.113214482503     -0.298716488932     0.885902605948      -0.33507109249      0.885902605948      -0.33507109249      -0.113214482503     -0.298716488932     
4700000000.0        -0.117649243806     -0.303655627333     0.881437971765      -0.340812010045     0.881437971765      -0.340812010045     -0.117649243806     -0.303655627333     
4800000000.0        -0.122137008186     -0.308508524582     0.876919665261      -0.346467306332     0.876919665261      -0.346467306332     -0.122137008186     -0.308508524582     
4900000000.0        -0.126675646634     -0.313274698697     0.872349813575      -0.35203650604      0.872349813575      -0.35203650604      -0.126675646634     -0.313274698697     
5000000000.0        -0.131263037247     -0.317953729452     0.867730536721      -0.35751919554      0.867730536721      -0.35751919554      -0.131263037247     -0.317953729452     
5100000000.0        -0.135897067233     -0.322545257423     0.863063945583      -0.362915021938     0.863063945583      -0.362915021938     -0.135897067233     -0.322545257423     
5200000000.0        -0.140575634848     -0.327048982975     0.858352139979      -0.368223692062     0.858352139979      -0.368223692062     -0.140575634848     -0.327048982975     
5300000000.0        -0.145296651264     -0.331464665172     0.853597206794      -0.373444971382     0.853597206794      -0.373444971382     -0.145296651264     -0.331464665172     
5400000000.0        -0.150058042362     -0.335792120644     0.848801218183      -0.378578682869     0.848801218183      -0.378578682869     -0.150058042362     -0.335792120644     
5500000000.0        -0.15485775046      -0.340031222378     0.843966229848      -0.3836247058       0.843966229848      -0.3836247058       -0.15485775046      -0.340031222378     
5600000000.0        -0.159693735956     -0.344181898479     0.839094279388      -0.388582974513     0.839094279388      -0.388582974513     -0.159693735956     -0.344181898479     
5700000000.0        -0.164563978908     -0.348244130866     0.834187384727      -0.393453477113     0.834187384727      -0.393453477113     -0.164563978908     -0.348244130866     
5800000000.0        -0.169466480527     -0.352217953939     0.829247542614      -0.398236254136     0.829247542614      -0.398236254136     -0.169466480527     -0.352217953939     
5900000000.0        -0.1743992646       -0.356103453201     0.824276727205      -0.402931397176     0.824276727205      -0.402931397176     -0.1743992646       -0.356103453201     
6000000000.0        -0.179360378837     -0.359900763851     0.819276888712      -0.40753904748      0.819276888712      -0.40753904748      -0.179360378837     -0.359900763851     
6100000000.0        -0.184347896135     -0.36361006934      0.814249952141      -0.412059394506     0.814249952141      -0.412059394506     -0.184347896135     -0.36361006934      
6200000000.0        -0.189359915773     -0.36723159991      0.809197816098      -0.416492674467     0.809197816098      -0.416492674467     -0.189359915773     -0.36723159991      
6300000000.0        -0.194394564525     -0.37076563111      0.804122351671      -0.420839168841     0.804122351671      -0.420839168841     -0.194394564525     -0.37076563111      
6400000000.0        -0.1994499977       -0.374212482285     0.799025401394      -0.425099202873     0.799025401394      -0.425099202873     -0.1994499977       -0.374212482285     
6500000000.0        -0.204524400111     -0.377572515065     0.793908778282      -0.429273144059     0.793908778282      -0.429273144059     -0.204524400111     -0.377572515065     
6600000000.0        -0.209615986957     -0.380846131835     0.788774264938      -0.433361400618     0.788774264938      -0.433361400618     -0.209615986957     -0.380846131835     
6700000000.0        -0.214723004649     -0.3840337742       0.783623612734      -0.43736441996      0.783623612734      -0.43736441996      -0.214723004649     -0.3840337742       
6800000000.0        -0.219843731554     -0.387135921445     0.778458541069      -0.441282687151     0.778458541069      -0.441282687151     -0.219843731554     -0.387135921445     
6900000000.0        -0.224976478669     -0.390153088999     0.773280736689      -0.445116723373     0.773280736689      -0.445116723373     -0.224976478669     -0.390153088999     
7000000000.0        -0.23011959023      -0.393085826899     0.76809185308       -0.448867084392     0.76809185308       -0.448867084392     -0.23011959023      -0.393085826899     
7100000000.0        -0.235271444252     -0.395934718256     0.762893509932      -0.45253435903      0.762893509932      -0.45253435903      -0.235271444252     -0.395934718256     
7200000000.0        -0.240430453002     -0.398700377737     0.757687292658      -0.45611916764      0.757687292658      -0.45611916764      -0.240430453002     -0.398700377737     
7300000000.0        -0.245595063412     -0.401383450055     0.752474751988      -0.459622160602     0.752474751988      -0.459622160602     -0.245595063412     -0.401383450055     
7400000000.0        -0.250763757426     -0.403984608467     0.74725740362       -0.463044016825     0.74725740362       -0.463044016825     -0.250763757426     -0.403984608467     
7500000000.0        -0.255935052289     -0.406504553294     0.742036727927      -0.466385442263     0.742036727927      -0.466385442263     -0.255935052289     -0.406504553294     
7600000000.0        -0.261107500779     -0.40894401046      0.736814169732      -0.46964716846      0.736814169732      -0.46964716846      -0.261107500779     -0.40894401046      
7700000000.0        -0.266279691378     -0.411303730042     0.731591138127      -0.472829951098     0.731591138127      -0.472829951098     -0.266279691378     -0.411303730042     
7800000000.0        -0.271450248402     -0.413584484854     0.726369006355      -0.475934568584     0.726369006355      -0.475934568584     -0.271450248402     -0.413584484854     
7900000000.0        -0.276617832061     -0.415787069044     0.72114911174       -0.478961820645     0.72114911174       -0.478961820645     -0.276617832061     -0.415787069044     
8000000000.0        -0.281781138482     -0.417912296721     0.715932755668      -0.481912526963     0.715932755668      -0.481912526963     -0.281781138482     -0.417912296721     
8100000000.0        -0.286938899684     -0.419961000606     0.71072120361       -0.484787525819     0.71072120361       -0.484787525819     -0.286938899684     -0.419961000606     
8200000000.0        -0.292089883504     -0.421934030713     0.705515685202      -0.487587672782     0.705515685202      -0.487587672782     -0.292089883504     -0.421934030713     
8300000000.0        -0.297232893477     -0.423832253061     0.700317394355      -0.490313839415     0.700317394355      -0.490313839415     -0.297232893477     -0.423832253061     
8400000000.0        -0.302366768686     -0.425656548404     0.695127489413      -0.492966912015     0.695127489413      -0.492966912015     -0.302366768686     -0.425656548404     
8500000000.0        -0.307490383559     -0.42740781101      0.68994709335       -0.495547790381     0.68994709335       -0.495547790381     -0.307490383559     -0.42740781101      
8600000000.0        -0.312602647643     -0.429086947454     0.684777294003      -0.498057386622     0.684777294003      -0.498057386622     -0.312602647643     -0.429086947454     
8700000000.0        -0.317702505331     -0.430694875455     0.679619144336      -0.500496623982     0.679619144336      -0.500496623982     -0.317702505331     -0.430694875455     
8800000000.0        -0.322788935566     -0.432232522742     0.674473662742      -0.502866435713     0.674473662742      -0.502866435713     -0.322788935566     -0.432232522742     
8900000000.0        -0.327860951512     -0.433700825947     0.669341833374      -0.505167763974     0.669341833374      -0.505167763974     -0.327860951512     -0.433700825947     
9000000000.0        -0.332917600189     -0.435100729546     0.664224606499      -0.507401558758     0.664224606499      -0.507401558758     -0.332917600189     -0.435100729546     
9100000000.0        -0.337957962095     -0.436433184816     0.65912289889       -0.509568776867     0.65912289889       -0.509568776867     -0.337957962095     -0.436433184816     
9200000000.0        -0.342981150791     -0.437699148843     0.654037594229      -0.511670380906     0.654037594229      -0.511670380906     -0.342981150791     -0.437699148843     
9300000000.0        -0.347986312469     -0.438899583547     0.648969543547      -0.513707338321     0.648969543547      -0.513707338321     -0.347986312469     -0.438899583547     
9400000000.0        -0.3529726255       -0.440035454759     0.643919565669      -0.515680620467     0.643919565669      -0.515680620467     -0.3529726255       -0.440035454759     
9500000000.0        -0.357939299959     -0.441107731315     0.638888447698      -0.517591201707     0.638888447698      -0.517591201707     -0.357939299959     -0.441107731315     
9600000000.0        -0.362885577133     -0.442117384195     0.633876945494      -0.519440058554     0.633876945494      -0.519440058554     -0.362885577133     -0.442117384195     
9700000000.0        -0.36781072902      -0.443065385693     0.628885784189      -0.521228168836     0.628885784189      -0.521228168836     -0.36781072902      -0.443065385693     
9800000000.0        -0.3727140578       -0.443952708615     0.623915658704      -0.522956510899     0.623915658704      -0.522956510899     -0.3727140578       -0.443952708615     
9900000000.0        -0.377594895309     -0.444780325519     0.618967234283      -0.524626062845     0.618967234283      -0.524626062845     -0.377594895309     -0.444780325519     
10000000000.0       -0.382452602486     -0.445549207979     0.614041147041      -0.526237801799     0.614041147041      -0.526237801799     -0.382452602486     -0.445549207979     
