# Hz S RI R 50.00 
100000000.0         0.0270127837561     0.00118176882427    0.972985915527      -0.00146829867825   0.972985915527      -0.00146829867825   0.0270127837561     0.00118176882427    
200000000.0         0.0271906749504     0.00236258384166    0.972807640743      -0.00293564459211   0.972807640743      -0.00293564459211   0.0271906749504     0.00236258384166    
300000000.0         0.0273248683559     0.00354281842053    0.972672980866      -0.00440241176397   0.972672980866      -0.00440241176397   0.0273248683559     0.00354281842053    
400000000.0         0.0274383654664     0.00472259479222    0.972558934393      -0.00586872295031   0.972558934393      -0.00586872295031   0.0274383654664     0.00472259479222    
500000000.0         0.0275400531801     0.00590197663623    0.972456614417      -0.0073346422913    0.972456614417      -0.0073346422913    0.0275400531801     0.00590197663623    
600000000.0         0.0276344777573     0.00708100165062    0.97236147467       -0.00880020790381   0.97236147467       -0.00880020790381   0.0276344777573     0.00708100165062    
700000000.0         0.0277243329192     0.0082596932601     0.972270821424      -0.010265443601     0.972270821424      -0.010265443601     0.0277243329192     0.0082596932601     
800000000.0         0.027811369091      0.00943806605022    0.972182904246      -0.0117303643334    0.972182904246      -0.0117303643334    0.027811369091      0.00943806605022    
900000000.0         0.0278967987456     0.0106161286875     0.972096510656      -0.0131949791135    0.972096510656      -0.0131949791135    0.0278967987456     0.0106161286875     
1000000000.0        0.0279815021145     0.0117938856494     0.972010760415      -0.0146592927487    0.972010760415      -0.0146592927487    0.0279815021145     0.0117938856494     
1100000000.0        0.0280661416776     0.012971338323      0.971924991034      -0.0161233069427    0.971924991034      -0.0161233069427    0.0280661416776     0.012971338323      
1200000000.0        0.0281512304664     0.0141484857412     0.971838689476      -0.0175870210333    0.971838689476      -0.0175870210333    0.0281512304664     0.0141484857412     
1300000000.0        0.0282371750877     0.0153253250969     0.971751449124      -0.0190504325078    0.971751449124      -0.0190504325078    0.0282371750877     0.0153253250969     
1400000000.0        0.0283243040372     0.0165018521145     0.971662941474      -0.0205135373757    0.971662941474      -0.0205135373757    0.0283243040372     0.0165018521145     
1500000000.0        0.0284128870152     0.0176780613252     0.971572896819      -0.0219763304451    0.971572896819      -0.0219763304451    0.0284128870152     0.0176780613252     
1600000000.0        0.0285031485091     0.0188539462772     0.971481090661      -0.0234388055334    0.971481090661      -0.0234388055334    0.0285031485091     0.0188539462772     
1700000000.0        0.0285952775928     0.020029499698      0.971387333919      -0.0249009556306    0.971387333919      -0.0249009556306    0.0285952775928     0.020029499698      
1800000000.0        0.0286894351561     0.0212047136228     0.971291465693      -0.0263627730277    0.971291465693      -0.0263627730277    0.0286894351561     0.0212047136228     
1900000000.0        0.0287857593406     0.0223795794974     0.971193347832      -0.0278242494204    0.971193347832      -0.0278242494204    0.0287857593406     0.0223795794974     
2000000000.0        0.0288843696993     0.0235540882613     0.971092860774      -0.0292853759929    0.971092860774      -0.0292853759929    0.0288843696993     0.0235540882613     
2100000000.0        0.0289853704252     0.0247282304165     0.970989900316      -0.0307461434863    0.970989900316      -0.0307461434863    0.0289853704252     0.0247282304165     
2200000000.0        0.0290888528937     0.0259019960843     0.970884375073      -0.0322065422565    0.970884375073      -0.0322065422565    0.0290888528937     0.0259019960843     
2300000000.0        0.0291948976872     0.027075375053      0.970776204451      -0.0336665623215    0.970776204451      -0.0336665623215    0.0291948976872     0.027075375053      
2400000000.0        0.0293035762255     0.0282483568179     0.970665317022      -0.0351261934023    0.970665317022      -0.0351261934023    0.0293035762255     0.0282483568179     
2500000000.0        0.0294149520925     0.029420930616      0.97055164919       -0.0365854249574    0.97055164919       -0.0365854249574    0.0294149520925     0.029420930616      
2600000000.0        0.0295290821241     0.0305930854551     0.970435144108      -0.0380442462121    0.970435144108      -0.0380442462121    0.0295290821241     0.0305930854551     
2700000000.0        0.0296460173092     0.0317648101395     0.970315750777      -0.0395026461845    0.970315750777      -0.0395026461845    0.0296460173092     0.0317648101395     
2800000000.0        0.0297658035408     0.0329360932919     0.970193423292      -0.0409606137078    0.970193423292      -0.0409606137078    0.0297658035408     0.0329360932919     
2900000000.0        0.0298884822463     0.0341069233727     0.970068120215      -0.0424181374493    0.970068120215      -0.0424181374493    0.0298884822463     0.0341069233727     
3000000000.0        0.030014090921      0.035277288697      0.969939804039      -0.0438752059279    0.969939804039      -0.0438752059279    0.030014090921      0.035277288697      
3100000000.0        0.0301426635802     0.0364471774498     0.969808440735      -0.045331807529     0.969808440735      -0.045331807529     0.0301426635802     0.0364471774498     
3200000000.0        0.0302742311478     0.0376165776989     0.969673999369      -0.0467879305181    0.969673999369      -0.0467879305181    0.0302742311478     0.0376165776989     
3300000000.0        0.0304088217883     0.0387854774068     0.969536451764      -0.0482435630525    0.969536451764      -0.0482435630525    0.0304088217883     0.0387854774068     
3400000000.0        0.0305464611949     0.0399538644416     0.969395772213      -0.0496986931922    0.969395772213      -0.0496986931922    0.0305464611949     0.0399538644416     
3500000000.0        0.0306871728387     0.041121726586      0.969251937233      -0.0511533089092    0.969251937233      -0.0511533089092    0.0306871728387     0.041121726586      
3600000000.0        0.0308309781864     0.0422890515464     0.969104925344      -0.0526073980965    0.969104925344      -0.0526073980965    0.0308309781864     0.0422890515464     
3700000000.0        0.0309778968901     0.04345582696       0.968954716881      -0.0540609485755    0.968954716881      -0.0540609485755    0.0309778968901     0.04345582696       
3800000000.0        0.0311279469548     0.0446220404026     0.968801293827      -0.0555139481037    0.968801293827      -0.0555139481037    0.0311279469548     0.0446220404026     
3900000000.0        0.031281144885      0.0457876793941     0.968644639661      -0.0569663843806    0.968644639661      -0.0569663843806    0.031281144885      0.0457876793941     
4000000000.0        0.0314375058156     0.0469527314052     0.968484739237      -0.0584182450536    0.968484739237      -0.0584182450536    0.0314375058156     0.0469527314052     
4100000000.0        0.0315970436271     0.048117183862      0.96832157866       -0.059869517724     0.96832157866       -0.059869517724     0.0315970436271     0.048117183862      
4200000000.0        0.0317597710482     0.0492810241514     0.968155145187      -0.0613201899513    0.968155145187      -0.0613201899513    0.0317597710482     0.0492810241514     
4300000000.0        0.0319256997481     0.0504442396253     0.967985427134      -0.062770249258     0.967985427134      -0.062770249258     0.0319256997481     0.0504442396253     
4400000000.0        0.032094840418      0.0516068176051     0.967812413795      -0.064219683134     0.967812413795      -0.064219683134     0.032094840418      0.0516068176051     
4500000000.0        0.0322672028455     0.0527687453851     0.96763609537       -0.0656684790402    0.96763609537       -0.0656684790402    0.0322672028455     0.0527687453851     
4600000000.0        0.0324427959804     0.0539300102363     0.967456462892      -0.0671166244123    0.967456462892      -0.0671166244123    0.0324427959804     0.0539300102363     
4700000000.0        0.0326216279949     0.0550905994098     0.967273508174      -0.068564106664     0.967273508174      -0.068564106664     0.0326216279949     0.0550905994098     
4800000000.0        0.0328037063373     0.0562505001399     0.967087223754      -0.0700109131904    0.967087223754      -0.0700109131904    0.0328037063373     0.0562505001399     
4900000000.0        0.0329890377814     0.0574096996465     0.966897602841      -0.0714570313707    0.966897602841      -0.0714570313707    0.0329890377814     0.0574096996465     
5000000000.0        0.0331776284707     0.0585681851384     0.966704639278      -0.0729024485708    0.966704639278      -0.0729024485708    0.0331776284707     0.0585681851384     
5100000000.0        0.0333694839588     0.0597259438157     0.966508327494      -0.0743471521462    0.966508327494      -0.0743471521462    0.0333694839588     0.0597259438157     
5200000000.0        0.0335646092466     0.0608829628716     0.966308662472      -0.0757911294444    0.966308662472      -0.0757911294444    0.0335646092466     0.0608829628716     
5300000000.0        0.0337630088158     0.0620392294956     0.966105639716      -0.0772343678066    0.966105639716      -0.0772343678066    0.0337630088158     0.0620392294956     
5400000000.0        0.0339646866598     0.0631947308745     0.965899255215      -0.0786768545705    0.965899255215      -0.0786768545705    0.0339646866598     0.0631947308745     
5500000000.0        0.0341696463117     0.0643494541953     0.965689505419      -0.0801185770719    0.965689505419      -0.0801185770719    0.0341696463117     0.0643494541953     
5600000000.0        0.0343778908706     0.0655033866466     0.965476387213      -0.0815595226469    0.965476387213      -0.0815595226469    0.0343778908706     0.0655033866466     
5700000000.0        0.0345894230253     0.0666565154204     0.965259897891      -0.0829996786333    0.965259897891      -0.0829996786333    0.0345894230253     0.0666565154204     
5800000000.0        0.0348042450761     0.0678088277138     0.965040035137      -0.0844390323727    0.965040035137      -0.0844390323727    0.0348042450761     0.0678088277138     
5900000000.0        0.0350223589553     0.0689603107307     0.964816797001      -0.0858775712119    0.964816797001      -0.0858775712119    0.0350223589553     0.0689603107307     
6000000000.0        0.0352437662458     0.0701109516833     0.964590181881      -0.0873152825044    0.964590181881      -0.0873152825044    0.0352437662458     0.0701109516833     
6100000000.0        0.0354684681986     0.0712607377933     0.964360188511      -0.0887521536121    0.964360188511      -0.0887521536121    0.0354684681986     0.0712607377933     
6200000000.0        0.0356964657484     0.0724096562935     0.964126815938      -0.0901881719064    0.964126815938      -0.0901881719064    0.0356964657484     0.0724096562935     
6300000000.0        0.0359277595291     0.0735576944291     0.96389006351       -0.0916233247697    0.96389006351       -0.0916233247697    0.0359277595291     0.0735576944291     
6400000000.0        0.036162349887      0.074704839459      0.963649930863      -0.0930575995968    0.963649930863      -0.0930575995968    0.036162349887      0.074704839459      
6500000000.0        0.0364002368942     0.0758510786566     0.963406417907      -0.0944909837959    0.963406417907      -0.0944909837959    0.0364002368942     0.0758510786566     
6600000000.0        0.0366414203603     0.0769963993116     0.963159524813      -0.0959234647898    0.963159524813      -0.0959234647898    0.0366414203603     0.0769963993116     
6700000000.0        0.0368858998436     0.0781407887306     0.962909252006      -0.0973550300172    0.962909252006      -0.0973550300172    0.0368858998436     0.0781407887306     
6800000000.0        0.0371336746614     0.0792842342383     0.962655600149      -0.0987856669333    0.962655600149      -0.0987856669333    0.0371336746614     0.0792842342383     
6900000000.0        0.0373847439001     0.0804267231785     0.962398570138      -0.100215363012     0.962398570138      -0.100215363012     0.0373847439001     0.0804267231785     
7000000000.0        0.037639106424      0.0815682429153     0.962138163089      -0.101644105745     0.962138163089      -0.101644105745     0.037639106424      0.0815682429153     
7100000000.0        0.0378967608839     0.0827087808337     0.961874380332      -0.103071882644     0.961874380332      -0.103071882644     0.0378967608839     0.0827087808337     
7200000000.0        0.0381577057253     0.0838483243407     0.961607223403      -0.104498681243     0.961607223403      -0.104498681243     0.0381577057253     0.0838483243407     
7300000000.0        0.0384219391956     0.0849868608662     0.961336694035      -0.105924489096     0.961336694035      -0.105924489096     0.0384219391956     0.0849868608662     
7400000000.0        0.0386894593515     0.0861243778637     0.961062794152      -0.10734929378      0.961062794152      -0.10734929378      0.0386894593515     0.0861243778637     
7500000000.0        0.0389602640654     0.0872608628112     0.960785525862      -0.108773082896     0.960785525862      -0.108773082896     0.0389602640654     0.0872608628112     
7600000000.0        0.0392343510317     0.0883963032123     0.960504891451      -0.110195844068     0.960504891451      -0.110195844068     0.0392343510317     0.0883963032123     
7700000000.0        0.0395117177729     0.0895306865964     0.960220893377      -0.111617564946     0.960220893377      -0.111617564946     0.0395117177729     0.0895306865964     
7800000000.0        0.0397923616448     0.0906640005198     0.959933534263      -0.113038233205     0.959933534263      -0.113038233205     0.0397923616448     0.0906640005198     
7900000000.0        0.0400762798422     0.0917962325664     0.959642816896      -0.114457836547     0.959642816896      -0.114457836547     0.0400762798422     0.0917962325664     
8000000000.0        0.0403634694036     0.0929273703482     0.959348744215      -0.115876362702     0.959348744215      -0.115876362702     0.0403634694036     0.0929273703482     
8100000000.0        0.0406539272157     0.0940574015065     0.959051319314      -0.117293799426     0.959051319314      -0.117293799426     0.0406539272157     0.0940574015065     
8200000000.0        0.0409476500185     0.0951863137118     0.958750545433      -0.118710134504     0.958750545433      -0.118710134504     0.0409476500185     0.0951863137118     
8300000000.0        0.0412446344088     0.0963140946651     0.958446425953      -0.120125355752     0.958446425953      -0.120125355752     0.0412446344088     0.0963140946651     
8400000000.0        0.0415448768448     0.0974407320981     0.958138964397      -0.121539451014     0.958138964397      -0.121539451014     0.0415448768448     0.0974407320981     
8500000000.0        0.0418483736493     0.0985662137743     0.957828164419      -0.122952408166     0.957828164419      -0.122952408166     0.0418483736493     0.0985662137743     
8600000000.0        0.042155121014      0.0996905274889     0.957514029808      -0.124364215112     0.957514029808      -0.124364215112     0.042155121014      0.0996905274889     
8700000000.0        0.0424651150025     0.10081366107       0.957196564479      -0.125774859792     0.957196564479      -0.125774859792     0.0424651150025     0.10081366107       
8800000000.0        0.0427783515535     0.101935602379      0.956875772471      -0.127184330176     0.956875772471      -0.127184330176     0.0427783515535     0.101935602379      
8900000000.0        0.0430948264844     0.103056339311      0.956551657946      -0.128592614266     0.956551657946      -0.128592614266     0.0430948264844     0.103056339311      
9000000000.0        0.0434145354936     0.104175859795      0.956224225183      -0.129999700099     0.956224225183      -0.129999700099     0.0434145354936     0.104175859795      
9100000000.0        0.0437374741641     0.105294151796      0.955893478579      -0.131405575745     0.955893478579      -0.131405575745     0.0437374741641     0.105294151796      
9200000000.0        0.0440636379656     0.106411203314      0.95555942264       -0.13281022931      0.95555942264       -0.13281022931      0.0440636379656     0.106411203314      
9300000000.0        0.0443930222573     0.107527002383      0.955222061987      -0.134213648932     0.955222061987      -0.134213648932     0.0443930222573     0.107527002383      
9400000000.0        0.0447256222906     0.108641537075      0.954881401346      -0.135615822787     0.954881401346      -0.135615822787     0.0447256222906     0.108641537075      
9500000000.0        0.0450614332112     0.109754795501      0.954537445549      -0.137016739087     0.954537445549      -0.137016739087     0.0450614332112     0.109754795501      
9600000000.0        0.0454004500614     0.110866765805      0.954190199531      -0.138416386078     0.954190199531      -0.138416386078     0.0454004500614     0.110866765805      
9700000000.0        0.0457426677824     0.111977436171      0.953839668328      -0.139814752047     0.953839668328      -0.139814752047     0.0457426677824     0.111977436171      
9800000000.0        0.0460880812165     0.113086794822      0.953485857076      -0.141211825313     0.953485857076      -0.141211825313     0.0460880812165     0.113086794822      
9900000000.0        0.0464366851088     0.114194830018      0.953128771006      -0.142607594239     0.953128771006      -0.142607594239     0.0464366851088     0.114194830018      
10000000000.0       0.0467884741094     0.11530153006       0.952768415447      -0.14400204722      0.952768415447      -0.14400204722      0.0467884741094     0.11530153006       
