# Hz S RI R 50.00 
100000000.0         0.000394754452153   -0.0133798922136    0.999180937767      -0.014745917613     0.999180937767      -0.014745917613     0.000394754452153   -0.0133798922136    
200000000.0         -0.000206600001083  -0.026742726948     0.998568550491      -0.0294747935695    0.998568550491      -0.0294747935695    -0.000206600001082  -0.026742726948     
300000000.0         -0.00120189376668   -0.0400722066361    0.997562447323      -0.0441703696331    0.997562447323      -0.0441703696331    -0.00120189376668   -0.0400722066361    
400000000.0         -0.0025883223478    -0.0533521471283    0.996164386236      -0.0588164934066    0.996164386236      -0.0588164934066    -0.0025883223478    -0.0533521471283    
500000000.0         -0.00436252349367   -0.0665665441011    0.994377327306      -0.0733971900916    0.994377327306      -0.0733971900916    -0.00436252349367   -0.0665665441011    
600000000.0         -0.00652037087085   -0.0796996347621    0.992205191939      -0.0878967252596    0.992205191939      -0.0878967252596    -0.00652037087085   -0.0796996347621    
700000000.0         -0.00905693946183   -0.0927359565427    0.989652783997      -0.102299663975     0.989652783997      -0.102299663975     -0.00905693946183   -0.0927359565427    
800000000.0         -0.0119665116307    -0.105660402961     0.986725742376      -0.116590926882     0.986725742376      -0.116590926882     -0.0119665116307    -0.105660402961     
900000000.0         -0.0152425989646    -0.118458276484     0.98343050078       -0.130755843194     0.98343050078       -0.130755843194     -0.0152425989646    -0.118458276484     
1000000000.0        -0.0188779726093    -0.131115338126     0.979774248082      -0.144780200381     0.979774248082      -0.144780200381     -0.0188779726093    -0.131115338126     
1100000000.0        -0.0228646992682    -0.14361785351      0.975764887159      -0.158650290287     0.975764887159      -0.158650290287     -0.0228646992682    -0.14361785351      
1200000000.0        -0.0271941814501    -0.155952635142     0.97141099157       -0.172352951451     0.97141099157       -0.172352951451     -0.0271941814501    -0.155952635142     
1300000000.0        -0.0318572010858    -0.16810708068      0.96672176001       -0.185875607402     0.96672176001       -0.185875607402     -0.0318572010858    -0.16810708068      
1400000000.0        -0.0368439658477    -0.180069207018     0.961706968726      -0.199206300778     0.961706968726      -0.199206300778     -0.0368439658477    -0.180069207018     
1500000000.0        -0.0421441576128    -0.191827680057     0.956376922186      -0.212333723109     0.956376922186      -0.212333723109     -0.0421441576128    -0.191827680057     
1600000000.0        -0.0477469825558    -0.203371840074     0.950742402385      -0.225247240204     0.950742402385      -0.225247240204     -0.0477469825558    -0.203371840074     
1700000000.0        -0.0536412223938    -0.214691722651     0.944814617168      -0.237936913101     0.944814617168      -0.237936913101     -0.0536412223938    -0.214691722651     
1800000000.0        -0.0598152863267    -0.225778075173     0.938605147963      -0.250393514566     0.938605147963      -0.250393514566     -0.0598152863267    -0.225778075173     
1900000000.0        -0.0662572632395    -0.236622368931     0.932125897344      -0.262608541219     0.932125897344      -0.262608541219     -0.0662572632395    -0.236622368931     
2000000000.0        -0.0729549737541    -0.247216806945     0.925389036794      -0.274574221354     0.925389036794      -0.274574221354     -0.0729549737541    -0.247216806945     
2100000000.0        -0.0798960217469    -0.257554327612     0.918406955043      -0.286283518602     0.918406955043      -0.286283518602     -0.0798960217469    -0.257554327612     
2200000000.0        -0.0870678449697    -0.267628604347     0.911192207341      -0.297730131577     0.911192207341      -0.297730131577     -0.0870678449697    -0.267628604347     
2300000000.0        -0.0944577644458    -0.277434041416     0.903757465969      -0.308908489721     0.903757465969      -0.308908489721     -0.0944577644458    -0.277434041416     
2400000000.0        -0.102053032341     -0.286965766181     0.896115472298      -0.319813745542     0.896115472298      -0.319813745542     -0.102053032341     -0.286965766181     
2500000000.0        -0.109840878043     -0.296219617976     0.888278990652      -0.330441763509     0.888278990652      -0.330441763509     -0.109840878043     -0.296219617976     
2600000000.0        -0.117808552216     -0.305192133903     0.880260764205      -0.340789105846     0.880260764205      -0.340789105846     -0.117808552216     -0.305192133903     
2700000000.0        -0.125943368627     -0.313880531793     0.872073473116      -0.350853015498     0.872073473116      -0.350853015498     -0.125943368627     -0.313880531793     
2800000000.0        -0.134232743585     -0.322282690623     0.863729695058      -0.360631396556     0.863729695058      -0.360631396556     -0.134232743585     -0.322282690623     
2900000000.0        -0.142664232855     -0.330397128675     0.855241868274      -0.370122792414     0.855241868274      -0.370122792414     -0.142664232855     -0.330397128675     
3000000000.0        -0.151225565943     -0.338222979715     0.846622257272      -0.37932636196      0.846622257272      -0.37932636196      -0.151225565943     -0.338222979715     
3100000000.0        -0.15990467769      -0.345759967489     0.837882921208      -0.388241854066     0.837882921208      -0.388241854066     -0.15990467769      -0.345759967489     
3200000000.0        -0.168689737128     -0.353008378797     0.829035685015      -0.396869580674     0.829035685015      -0.396869580674     -0.168689737128     -0.353008378797     
3300000000.0        -0.177569173588     -0.359969035434     0.82009211328       -0.405210388736     0.82009211328       -0.405210388736     -0.177569173588     -0.359969035434     
3400000000.0        -0.186531700069     -0.366643265246     0.81106348686       -0.413265631275     0.81106348686       -0.413265631275     -0.186531700069     -0.366643265246     
3500000000.0        -0.195566333901     -0.373032872557     0.801960782212      -0.421037137812     0.801960782212      -0.421037137812     -0.195566333901     -0.373032872557     
3600000000.0        -0.204662414767     -0.379140108192     0.792794653357      -0.428527184395     0.792794653357      -0.428527184395     -0.204662414767     -0.379140108192     
3700000000.0        -0.213809620142     -0.384967639328     0.783575416436      -0.435738463454     0.783575416436      -0.435738463454     -0.213809620142     -0.384967639328     
3800000000.0        -0.222997978248     -0.390518519363     0.774313036743      -0.442674053669     0.774313036743      -0.442674053669     -0.222997978248     -0.390518519363     
3900000000.0        -0.23221787863      -0.395796157994     0.765017118147      -0.449337390054     0.765017118147      -0.449337390054     -0.23221787863      -0.395796157994     
4000000000.0        -0.241460080449     -0.400804291679     0.755696894787      -0.455732234418     0.755696894787      -0.455732234418     -0.241460080449     -0.400804291679     
4100000000.0        -0.250715718639     -0.405546954613     0.746361224918      -0.461862646348     0.746361224918      -0.461862646348     -0.250715718639     -0.405546954613     
4200000000.0        -0.259976308029     -0.410028450382     0.737018586773      -0.467732954864     0.737018586773      -0.467732954864     -0.259976308029     -0.410028450382     
4300000000.0        -0.269233745591     -0.414253324383     0.727677076319      -0.473347730838     0.727677076319      -0.473347730838     -0.269233745591     -0.414253324383     
4400000000.0        -0.278480310921     -0.418226337127     0.718344406767      -0.478711760304     0.718344406767      -0.478711760304     -0.278480310921     -0.418226337127     
4500000000.0        -0.287708665117     -0.421952438501     0.709027909693      -0.483830018722     0.709027909693      -0.483830018722     -0.287708665117     -0.421952438501     
4600000000.0        -0.296911848175     -0.425436743068     0.699734537637      -0.488707646278     0.699734537637      -0.488707646278     -0.296911848175     -0.425436743068     
4700000000.0        -0.306083275036     -0.428684506447     0.69047086805       -0.493349924266     0.69047086805       -0.493349924266     -0.306083275036     -0.428684506447     
4800000000.0        -0.315216730435     -0.431701102823     0.681243108447      -0.497762252605     0.681243108447      -0.497762252605     -0.315216730435     -0.431701102823     
4900000000.0        -0.324306362659     -0.434492003619     0.672057102641      -0.501950128508     0.672057102641      -0.501950128508     -0.324306362659     -0.434492003619     
5000000000.0        -0.333346676358     -0.437062757339     0.662918337934      -0.505919126329     0.662918337934      -0.505919126329     -0.333346676358     -0.437062757339     
5100000000.0        -0.342332524508     -0.439418970601     0.653831953145      -0.509674878599     0.653831953145      -0.509674878599     -0.342332524508     -0.439418970601     
5200000000.0        -0.351259099667     -0.44156629035      0.644802747357      -0.513223058242     0.644802747357      -0.513223058242     -0.351259099667     -0.44156629035      
5300000000.0        -0.3601219246       -0.443510387247     0.635835189287      -0.516569361963     0.635835189287      -0.516569361963     -0.3601219246       -0.443510387247     
5400000000.0        -0.368916842405     -0.445256940219     0.626933427155      -0.519719494804     0.626933427155      -0.519719494804     -0.368916842405     -0.445256940219     
5500000000.0        -0.377640006215     -0.446811622144     0.618101298988      -0.522679155827     0.618101298988      -0.522679155827     -0.377640006215     -0.446811622144     
5600000000.0        -0.386287868566     -0.448180086638     0.609342343239      -0.525454024909     0.609342343239      -0.525454024909     -0.386287868566     -0.448180086638     
5700000000.0        -0.394857170525     -0.449367955933     0.600659809663      -0.528049750615     0.600659809663      -0.528049750615     -0.394857170525     -0.449367955933     
5800000000.0        -0.403344930642     -0.450380809776     0.592056670363      -0.530471939104     0.592056670363      -0.530471939104     -0.403344930642     -0.450380809776     
5900000000.0        -0.411748433793     -0.451224175346     0.58353563094       -0.532726144048     0.58353563094       -0.532726144048     -0.411748433793     -0.451224175346     
6000000000.0        -0.420065219994     -0.451903518116     0.575099141684      -0.534817857493     0.575099141684      -0.534817857493     -0.420065219994     -0.451903518116     
6100000000.0        -0.428293073209     -0.452424233642     0.566749408756      -0.536752501653     0.566749408756      -0.536752501653     -0.428293073209     -0.452424233642     
6200000000.0        -0.436430010247     -0.452791640213     0.558488405297      -0.538535421562     0.558488405297      -0.538535421562     -0.436430010247     -0.452791640213     
6300000000.0        -0.444474269745     -0.453010972337     0.550317882434      -0.54017187856      0.550317882434      -0.54017187856      -0.444474269745     -0.453010972337     
6400000000.0        -0.45242430132      -0.453087374999     0.542239380134      -0.541667044555     0.542239380134      -0.541667044555     -0.45242430132      -0.453087374999     
6500000000.0        -0.460278754892     -0.453025898658     0.534254237874      -0.543025997022     0.534254237874      -0.543025997022     -0.460278754892     -0.453025898658     
6600000000.0        -0.468036470225     -0.452831494933     0.526363605099      -0.54425371469      0.526363605099      -0.54425371469      -0.468036470225     -0.452831494933     
6700000000.0        -0.47569646671      -0.452509012934     0.518568451438      -0.545355073875     0.518568451438      -0.545355073875     -0.47569646671      -0.452509012934     
6800000000.0        -0.483257933405     -0.452063196198     0.51086957666       -0.546334845419     0.51086957666       -0.546334845419     -0.483257933405     -0.452063196198     
6900000000.0        -0.490720219356     -0.451498680175     0.503267620352      -0.54719769218      0.503267620352      -0.54719769218      -0.490720219356     -0.451498680175     
7000000000.0        -0.49808282421      -0.450819990246     0.495763071304      -0.547948167046     0.495763071304      -0.547948167046     -0.49808282421      -0.450819990246     
7100000000.0        -0.505345389138     -0.45003154021      0.488356276585      -0.548590711432     0.488356276585      -0.548590711432     -0.505345389138     -0.45003154021      
7200000000.0        -0.512507688061     -0.449137631215     0.481047450309      -0.549129654207     0.481047450309      -0.549129654207     -0.512507688061     -0.449137631215     
7300000000.0        -0.519569619208     -0.448142451096     0.473836682082      -0.549569211038     0.473836682082      -0.549569211038     -0.519569619208     -0.448142451096     
7400000000.0        -0.526531196989     -0.447050074081     0.466723945127      -0.549913484092     0.466723945127      -0.549913484092     -0.526531196989     -0.447050074081     
7500000000.0        -0.533392544191     -0.445864460832     0.459709104075      -0.550166462089     0.459709104075      -0.550166462089     -0.533392544191     -0.445864460832     
7600000000.0        -0.540153884508     -0.444589458794     0.452791922445      -0.550332020645     0.452791922445      -0.550332020645     -0.540153884508     -0.444589458794     
7700000000.0        -0.546815535387     -0.443228802825     0.445972069792      -0.550413922905     0.445972069792      -0.550413922905     -0.546815535387     -0.443228802825     
7800000000.0        -0.553377901192     -0.441786116062     0.439249128537      -0.550415820418     0.439249128537      -0.550415820418     -0.553377901192     -0.441786116062     
7900000000.0        -0.559841466687     -0.440264911024     0.432622600485      -0.550341254233     0.432622600485      -0.550341254233     -0.559841466687     -0.440264911024     
8000000000.0        -0.56620679083      -0.438668590904     0.426091913027      -0.550193656197     0.426091913027      -0.550193656197     -0.56620679083      -0.438668590904     
8100000000.0        -0.572474500867     -0.437000451037     0.419656425047      -0.549976350428     0.419656425047      -0.549976350428     -0.572474500867     -0.437000451037     
8200000000.0        -0.578645286721     -0.435263680527     0.413315432524      -0.549692554939     0.413315432524      -0.549692554939     -0.578645286721     -0.435263680527     
8300000000.0        -0.584719895675     -0.433461364001     0.407068173853      -0.549345383396     0.407068173853      -0.549345383396     -0.584719895675     -0.433461364001     
8400000000.0        -0.590699127331     -0.431596483483     0.400913834881      -0.548937847        0.400913834881      -0.548937847        -0.590699127331     -0.431596483483     
8500000000.0        -0.596583828842     -0.429671920369     0.394851553672      -0.548472856453     0.394851553672      -0.548472856453     -0.596583828842     -0.429671920369     
8600000000.0        -0.602374890402     -0.427690457481     0.388880425011      -0.547953224023     0.388880425011      -0.547953224023     -0.602374890402     -0.427690457481     
8700000000.0        -0.608073241001     -0.425654781192     0.382999504655      -0.547381665669     0.382999504655      -0.547381665669     -0.608073241001     -0.425654781192     
8800000000.0        -0.61367984441      -0.423567483605     0.377207813338      -0.546760803222     0.377207813338      -0.546760803222     -0.61367984441      -0.423567483605     
8900000000.0        -0.619195695408     -0.421431064782     0.371504340542      -0.546093166612     0.371504340542      -0.546093166612     -0.619195695408     -0.421431064782     
9000000000.0        -0.624621816238     -0.419247934994     0.365888048042      -0.545381196129     0.365888048042      -0.545381196129     -0.624621816238     -0.419247934994     
9100000000.0        -0.629959253269     -0.417020417008     0.360357873237      -0.544627244705     0.360357873237      -0.544627244705     -0.629959253269     -0.417020417008     
9200000000.0        -0.635209073872     -0.414750748377     0.354912732273      -0.543833580209     0.354912732273      -0.543833580209     -0.635209073872     -0.414750748377     
9300000000.0        -0.640372363491     -0.412441083738     0.34955152297       -0.543002387747     0.34955152297       -0.543002387747     -0.640372363491     -0.412441083738     
9400000000.0        -0.6454502229       -0.410093497111     0.344273127559      -0.542135771964     0.344273127559      -0.542135771964     -0.6454502229       -0.410093497111     
9500000000.0        -0.650443765647     -0.407709984191     0.339076415239      -0.541235759336     0.339076415239      -0.541235759336     -0.650443765647     -0.407709984191     
9600000000.0        -0.655354115657     -0.405292464616     0.333960244566      -0.540304300443     0.333960244566      -0.540304300443     -0.655354115657     -0.405292464616     
9700000000.0        -0.660182405011     -0.402842784226     0.328923465676      -0.539343272231     0.328923465676      -0.539343272231     -0.660182405011     -0.402842784226     
9800000000.0        -0.664929771867     -0.400362717295     0.323964922358      -0.53835448024      0.323964922358      -0.53835448024      -0.664929771867     -0.400362717295     
9900000000.0        -0.669597358533     -0.39785396873      0.319083453975      -0.537339660814     0.319083453975      -0.537339660814     -0.669597358533     -0.39785396873      
10000000000.0       -0.674186309682     -0.395318176244     0.314277897252      -0.53630048327      0.314277897252      -0.53630048327      -0.674186309682     -0.395318176244     
