# Hz S RI R 50.00 
100000000.0         0.00157548532183    0.000586096804692   0.99842143405       -0.00189772945202   0.99842143405       -0.00189772945202   0.00157548532183    0.000586096804692   
200000000.0         0.00158873619518    0.00117213320531    0.998404381195      -0.00379540861185   0.998404381195      -0.00379540861185   0.00158873619518    0.00117213320531    
300000000.0         0.00160144286948    0.00175812067649    0.998386151081      -0.00569305516365   0.998386151081      -0.00569305516365   0.00160144286948    0.00175812067649    
400000000.0         0.0016149704973     0.0023440572306     0.998365378424      -0.00759067160566   0.998365378424      -0.00759067160566   0.0016149704973     0.0023440572306     
500000000.0         0.0016298444836     0.00292993781454    0.998341537662      -0.00948825649915   0.998341537662      -0.00948825649915   0.0016298444836     0.00292993781454    
600000000.0         0.00164633255734    0.00351575604791    0.99831436089       -0.0113858065065    0.99831436089       -0.0113858065065    0.00164633255734    0.00351575604791    
700000000.0         0.00166459269689    0.00410150484182    0.99828368993       -0.0132833171629    0.99828368993       -0.0132833171629    0.00166459269689    0.00410150484182    
800000000.0         0.00168472710236    0.00468717668316    0.998249422366      -0.0151807832528    0.998249422366      -0.0151807832528    0.00168472710236    0.00468717668316    
900000000.0         0.00170680621992    0.00527276378578    0.998211487519      -0.017078199021     0.998211487519      -0.017078199021     0.00170680621992    0.00527276378578    
1000000000.0        0.00173088091559    0.005858258179      0.998169834272      -0.0189755583049    0.998169834272      -0.0189755583049    0.00173088091559    0.005858258179      
1100000000.0        0.00175698924041    0.00644365176321    0.998124424311      -0.0208728546205    0.998124424311      -0.0208728546205    0.00175698924041    0.00644365176321    
1200000000.0        0.00178516046044    0.0070289363465     0.99807522809       -0.0227700812241    0.99807522809       -0.0227700812241    0.00178516046044    0.0070289363465     
1300000000.0        0.00181541759136    0.00761410367013    0.9980222223        -0.0246672311562    0.9980222223        -0.0246672311562    0.00181541759136    0.00761410367013    
1400000000.0        0.00184777906403    0.0081991454264     0.997965388204      -0.0265642972752    0.997965388204      -0.0265642972752    0.00184777906403    0.0081991454264     
1500000000.0        0.00188225985892    0.00878405327187    0.997904710503      -0.0284612722828    0.997904710503      -0.0284612722828    0.00188225985892    0.00878405327187    
1600000000.0        0.00191887230275    0.00936881883722    0.99784017654       -0.0303581487447    0.99784017654       -0.0303581487447    0.00191887230275    0.00936881883722    
1700000000.0        0.00195762664228    0.00995343373474    0.997771775727      -0.0322549191069    0.997771775727      -0.0322549191069    0.00195762664228    0.00995343373474    
1800000000.0        0.00199853146705    0.0105378895641     0.99769949912       -0.0341515757091    0.99769949912       -0.0341515757091    0.00199853146705    0.0105378895641     
1900000000.0        0.00204159402667    0.011122177917      0.997623339107      -0.0360481107962    0.997623339107      -0.0360481107962    0.00204159402667    0.011122177917      
2000000000.0        0.00208682047337    0.0117062903807     0.997543289162      -0.0379445165272    0.997543289162      -0.0379445165272    0.00208682047337    0.0117062903807     
2100000000.0        0.00213421604989    0.012290218541      0.997459343658      -0.0398407849837    0.997459343658      -0.0398407849837    0.00213421604989    0.012290218541      
2200000000.0        0.00218378523723    0.0128739539845     0.997371497722      -0.0417369081765    0.997371497722      -0.0417369081765    0.00218378523723    0.0128739539845     
2300000000.0        0.00223553187217    0.0134574883007     0.997279747115      -0.0436328780517    0.997279747115      -0.0436328780517    0.00223553187217    0.0134574883007     
2400000000.0        0.00228945924174    0.0140408130834     0.997184088139      -0.0455286864959    0.997184088139      -0.0455286864959    0.00228945924174    0.0140408130834     
2500000000.0        0.00234557015995    0.0146239199323     0.99708451756       -0.0474243253409    0.99708451756       -0.0474243253409    0.00234557015995    0.0146239199323     
2600000000.0        0.00240386703071    0.0152068004536     0.996981032548      -0.0493197863676    0.996981032548      -0.0493197863676    0.00240386703071    0.0152068004536     
2700000000.0        0.00246435189977    0.0157894462616     0.996873630621      -0.0512150613098    0.996873630621      -0.0512150613098    0.00246435189977    0.0157894462616     
2800000000.0        0.00252702649799    0.0163718489789     0.996762309604      -0.0531101418572    0.996762309604      -0.0531101418572    0.00252702649799    0.0163718489789     
2900000000.0        0.00259189227764    0.0169540002374     0.996647067595      -0.0550050196588    0.996647067595      -0.0550050196588    0.00259189227764    0.0169540002374     
3000000000.0        0.00265895044298    0.0175358916784     0.996527902932      -0.0568996863252    0.996527902932      -0.0568996863252    0.00265895044298    0.0175358916784     
3100000000.0        0.00272820197632    0.018117514954      0.996404814167      -0.0587941334312    0.996404814167      -0.0587941334312    0.00272820197632    0.018117514954      
3200000000.0        0.00279964766015    0.0186988617264     0.996277800047      -0.0606883525178    0.996277800047      -0.0606883525178    0.00279964766015    0.0186988617264     
3300000000.0        0.00287328809625    0.019279923669      0.99614685949       -0.0625823350946    0.99614685949       -0.0625823350946    0.00287328809625    0.019279923669      
3400000000.0        0.00294912372209    0.0198606924666     0.996011991575      -0.0644760726414    0.996011991575      -0.0644760726414    0.00294912372209    0.0198606924666     
3500000000.0        0.0030271548251     0.0204411598152     0.995873195524      -0.0663695566099    0.995873195524      -0.0663695566099    0.0030271548251     0.0204411598152     
3600000000.0        0.00310738155505    0.021021317423      0.99573047069       -0.0682627784256    0.99573047069       -0.0682627784256    0.00310738155505    0.021021317423      
3700000000.0        0.00318980393488    0.0216011570097     0.995583816546      -0.0701557294888    0.995583816546      -0.0701557294888    0.00318980393488    0.0216011570097     
3800000000.0        0.00327442187025    0.0221806703076     0.995433232679      -0.0720484011766    0.995433232679      -0.0720484011766    0.00327442187025    0.0221806703076     
3900000000.0        0.00336123515783    0.022759849061      0.995278718779      -0.0739407848437    0.995278718779      -0.0739407848437    0.00336123515783    0.022759849061      
4000000000.0        0.00345024349277    0.0233386850267     0.99512027463       -0.0758328718238    0.99512027463       -0.0758328718238    0.00345024349277    0.0233386850267     
4100000000.0        0.00354144647523    0.023917169974      0.994957900108      -0.0777246534307    0.994957900108      -0.0777246534307    0.00354144647523    0.023917169974      
4200000000.0        0.00363484361619    0.024495295685      0.994791595173      -0.0796161209595    0.994791595173      -0.0796161209595    0.00363484361619    0.024495295685      
4300000000.0        0.00373043434269    0.0250730539543     0.994621359862      -0.0815072656874    0.994621359862      -0.0815072656874    0.00373043434269    0.0250730539543     
4400000000.0        0.00382821800246    0.0256504365895     0.994447194289      -0.0833980788749    0.994447194289      -0.0833980788749    0.00382821800246    0.0256504365895     
4500000000.0        0.00392819386808    0.0262274354111     0.994269098637      -0.0852885517664    0.994269098637      -0.0852885517664    0.00392819386808    0.0262274354111     
4600000000.0        0.00403036114077    0.0268040422524     0.994087073158      -0.0871786755913    0.994087073158      -0.0871786755913    0.00403036114077    0.0268040422524     
4700000000.0        0.00413471895374    0.0273802489599     0.993901118163      -0.0890684415648    0.993901118163      -0.0890684415648    0.00413471895374    0.0273802489599     
4800000000.0        0.00424126637527    0.027956047393      0.993711234029      -0.0909578408886    0.993711234029      -0.0909578408886    0.00424126637527    0.027956047393      
4900000000.0        0.00435000241147    0.0285314294244     0.993517421188      -0.0928468647514    0.993517421188      -0.0928468647514    0.00435000241147    0.0285314294244     
5000000000.0        0.0044609260088     0.0291063869398     0.993319680127      -0.0947355043302    0.993319680127      -0.0947355043302    0.0044609260088     0.0291063869398     
5100000000.0        0.00457403605636    0.0296809118381     0.99311801139       -0.0966237507904    0.99311801139       -0.0966237507904    0.00457403605636    0.0296809118381     
5200000000.0        0.00468933138799    0.0302549960317     0.992912415568      -0.0985115952868    0.992912415568      -0.0985115952868    0.00468933138799    0.0302549960317     
5300000000.0        0.00480681078414    0.030828631446      0.992702893306      -0.100399028964     0.992702893306      -0.100399028964     0.00480681078414    0.030828631446      
5400000000.0        0.00492647297365    0.0314018100198     0.992489445293      -0.102286042957     0.992489445293      -0.102286042957     0.00492647297365    0.0314018100198     
5500000000.0        0.00504831663536    0.0319745237054     0.992272072267      -0.104172628392     0.992272072267      -0.104172628392     0.00504831663536    0.0319745237054     
5600000000.0        0.00517234039954    0.0325467644682     0.992050775011      -0.106058776386     0.992050775011      -0.106058776386     0.00517234039954    0.0325467644682     
5700000000.0        0.00529854284928    0.0331185242872     0.99182555435       -0.10794447805      0.99182555435       -0.10794447805      0.00529854284928    0.0331185242872     
5800000000.0        0.00542692252173    0.0336897951549     0.991596411155      -0.109829724486     0.991596411155      -0.109829724486     0.00542692252173    0.0336897951549     
5900000000.0        0.00555747790926    0.0342605690771     0.991363346335      -0.111714506789     0.991363346335      -0.111714506789     0.00555747790926    0.0342605690771     
6000000000.0        0.0056902074605     0.0348308380732     0.991126360842      -0.113598816048     0.991126360842      -0.113598816048     0.0056902074605     0.0348308380732     
6100000000.0        0.00582510958138    0.0354005941762     0.990885455668      -0.115482643347     0.990885455668      -0.115482643347     0.00582510958138    0.0354005941762     
6200000000.0        0.00596218263601    0.0359698294324     0.990640631843      -0.117365979762     0.990640631843      -0.117365979762     0.00596218263601    0.0359698294324     
6300000000.0        0.00610142494756    0.0365385359021     0.990391890435      -0.119248816367     0.990391890435      -0.119248816367     0.00610142494756    0.0365385359021     
6400000000.0        0.00624283479901    0.0371067056588     0.990139232549      -0.12113114423      0.990139232549      -0.12113114423      0.00624283479901    0.0371067056588     
6500000000.0        0.00638641043398    0.0376743307898     0.989882659328      -0.123012954412     0.989882659328      -0.123012954412     0.00638641043398    0.0376743307898     
6600000000.0        0.00653215005732    0.0382414033963     0.989622171951      -0.124894237975     0.989622171951      -0.124894237975     0.00653215005732    0.0382414033963     
6700000000.0        0.00668005183585    0.0388079155927     0.989357771632      -0.126774985974     0.989357771632      -0.126774985974     0.00668005183585    0.0388079155927     
6800000000.0        0.0068301138989     0.0393738595077     0.989089459621      -0.128655189462     0.989089459621      -0.128655189462     0.0068301138989     0.0393738595077     
6900000000.0        0.00698233433893    0.0399392272833     0.988817237201      -0.130534839488     0.988817237201      -0.130534839488     0.00698233433893    0.0399392272833     
7000000000.0        0.00713671121203    0.0405040110755     0.988541105689      -0.132413927101     0.988541105689      -0.132413927101     0.00713671121203    0.0405040110755     
7100000000.0        0.00729324253845    0.0410682030541     0.988261066439      -0.134292443346     0.988261066439      -0.134292443346     0.00729324253845    0.0410682030541     
7200000000.0        0.00745192630305    0.0416317954028     0.987977120834      -0.136170379265     0.987977120834      -0.136170379265     0.00745192630305    0.0416317954028     
7300000000.0        0.0076127604558     0.0421947803191     0.987689270292      -0.138047725902     0.987689270292      -0.138047725902     0.0076127604558     0.0421947803191     
7400000000.0        0.00777574291212    0.0427571500144     0.987397516263      -0.139924474297     0.987397516263      -0.139924474297     0.00777574291212    0.0427571500144     
7500000000.0        0.00794087155336    0.0433188967141     0.98710186023       -0.141800615491     0.98710186023       -0.141800615491     0.00794087155337    0.0433188967141     
7600000000.0        0.00810814422714    0.0438800126575     0.986802303706      -0.143676140522     0.986802303706      -0.143676140522     0.00810814422714    0.0438800126575     
7700000000.0        0.00827755874771    0.0444404900981     0.986498848237      -0.14555104043      0.986498848237      -0.14555104043      0.00827755874771    0.0444404900981     
7800000000.0        0.00844911289631    0.0450003213032     0.986191495399      -0.147425306253     0.986191495399      -0.147425306253     0.00844911289631    0.0450003213032     
7900000000.0        0.00862280442146    0.0455594985544     0.985880246802      -0.149298929032     0.985880246802      -0.149298929032     0.00862280442146    0.0455594985544     
8000000000.0        0.00879863103934    0.0461180141473     0.985565104082      -0.151171899807     0.985565104082      -0.151171899807     0.00879863103934    0.0461180141473     
8100000000.0        0.00897659043398    0.0466758603916     0.985246068909      -0.153044209617     0.985246068909      -0.153044209617     0.00897659043398    0.0466758603916     
8200000000.0        0.00915668025766    0.0472330296114     0.984923142982      -0.154915849505     0.984923142982      -0.154915849505     0.00915668025766    0.0472330296114     
8300000000.0        0.00933889813107    0.0477895141447     0.98459632803       -0.156786810514     0.98459632803       -0.156786810514     0.00933889813107    0.0477895141447     
8400000000.0        0.00952324164364    0.0483453063442     0.984265625812      -0.158657083689     0.984265625812      -0.158657083689     0.00952324164364    0.0483453063442     
8500000000.0        0.00970970835376    0.0489003985765     0.983931038117      -0.160526660077     0.983931038117      -0.160526660077     0.00970970835376    0.0489003985765     
8600000000.0        0.00989829578901    0.0494547832227     0.983592566763      -0.162395530725     0.983592566763      -0.162395530725     0.00989829578901    0.0494547832227     
8700000000.0        0.0100890014464     0.0500084526783     0.983250213596      -0.164263686684     0.983250213596      -0.164263686684     0.0100890014464     0.0500084526783     
8800000000.0        0.0102818227926     0.0505613993532     0.982903980494      -0.166131119009     0.982903980494      -0.166131119009     0.0102818227926     0.0505613993532     
8900000000.0        0.0104767572642     0.0511136156719     0.982553869361      -0.167997818755     0.982553869361      -0.167997818755     0.0104767572642     0.0511136156719     
9000000000.0        0.0106738022676     0.051665094073      0.982199882131      -0.169863776982     0.982199882131      -0.169863776982     0.0106738022676     0.051665094073      
9100000000.0        0.0108729551797     0.0522158270101     0.981842020767      -0.171728984751     0.981842020767      -0.171728984751     0.0108729551797     0.0522158270101     
9200000000.0        0.0110742133478     0.0527658069512     0.98148028726       -0.173593433128     0.98148028726       -0.173593433128     0.0110742133478     0.0527658069512     
9300000000.0        0.0112775740898     0.0533150263788     0.981114683628      -0.175457113182     0.981114683628      -0.175457113182     0.0112775740898     0.0533150263788     
9400000000.0        0.0114830346942     0.0538634777903     0.98074521192       -0.177320015987     0.98074521192       -0.177320015987     0.0114830346942     0.0538634777903     
9500000000.0        0.0116905924208     0.0544111536977     0.980371874211      -0.17918213262      0.980371874211      -0.17918213262      0.0116905924208     0.0544111536977     
9600000000.0        0.0119002445004     0.0549580466277     0.979994672604      -0.181043454161     0.979994672604      -0.181043454161     0.0119002445004     0.0549580466277     
9700000000.0        0.012111988135      0.0555041491219     0.97961360923       -0.182903971697     0.97961360923       -0.182903971697     0.012111988135      0.0555041491219     
9800000000.0        0.0123258204981     0.0560494537367     0.979228686249      -0.184763676318     0.979228686249      -0.184763676318     0.0123258204981     0.0560494537367     
9900000000.0        0.0125417387349     0.0565939530434     0.978839905845      -0.186622559119     0.978839905845      -0.186622559119     0.0125417387349     0.0565939530434     
10000000000.0       0.0127597399622     0.0571376396282     0.978447270234      -0.1884806112       0.978447270234      -0.1884806112       0.0127597399622     0.0571376396282     
