# Hz S RI R 50.00 
100000000.0         -0.000697315498231  -0.026312519719     0.99923691066       -0.0267123456907    0.99923691066       -0.0267123456907    -0.000697315498231  -0.026312519719     
200000000.0         -0.00282727670888   -0.0525094960837    0.997106261139      -0.053309280364     0.997106261139      -0.053309280364     -0.00282727670888   -0.0525094960837    
300000000.0         -0.00633961668902   -0.078480499863     0.993593185497      -0.0796804433355    0.993593185497      -0.0796804433355    -0.00633961668902   -0.078480499863     
400000000.0         -0.0112047259807    -0.104118440605     0.988727236341      -0.105718796215     0.988727236341      -0.105718796215     -0.0112047259807    -0.104118440605     
500000000.0         -0.0173822676825    -0.129320910538     0.982548728514      -0.131321974526     0.982548728514      -0.131321974526     -0.0173822676825    -0.129320910538     
600000000.0         -0.0248219976852    -0.153991447289     0.975107894679      -0.156393553164     0.975107894679      -0.156393553164     -0.0248219976852    -0.153991447289     
700000000.0         -0.0334647645805    -0.178040645183     0.966463879284      -0.180844159121     0.966463879284      -0.180844159121     -0.0334647645805    -0.178040645183     
800000000.0         -0.0432436478055    -0.201387082842     0.956683598183      -0.204592399951     0.956683598183      -0.204592399951     -0.0432436478055    -0.201387082842     
900000000.0         -0.0540851943399    -0.223958048295     0.945840500959      -0.227565589478     0.945840500959      -0.227565589478     -0.0540851943399    -0.223958048295     
1000000000.0        -0.0659107137985    -0.245690052942     0.934013275327      -0.249700262197     0.934013275327      -0.249700262197     -0.0659107137985    -0.245690052942     
1100000000.0        -0.078637592714     -0.266529134534     0.921284532581      -0.27094247659      0.921284532581      -0.27094247659      -0.078637592714     -0.266529134534     
1200000000.0        -0.0921805913868    -0.286430957125     0.90773951058       -0.29124791534      0.90773951058       -0.29124791534      -0.0921805913868    -0.286430957125     
1300000000.0        -0.106453090653     -0.305360722433     0.893464826877      -0.310581796917     0.893464826877      -0.310581796917     -0.106453090653     -0.305360722433     
1400000000.0        -0.121368260917     -0.323292912201     0.878547309625      -0.328918618131     0.878547309625      -0.328918618131     -0.121368260917     -0.323292912201     
1500000000.0        -0.136840131422     -0.340210884796     0.863072928262      -0.346241750883     0.863072928262      -0.346241750883     -0.136840131422     -0.340210884796     
1600000000.0        -0.152784543595     -0.356106351454     0.84712584013       -0.362542918559     0.84712584013       -0.362542918559     -0.152784543595     -0.356106351454     
1700000000.0        -0.169119978077     -0.370978758406     0.830787563428      -0.377821578278     0.830787563428      -0.377821578278     -0.169119978077     -0.370978758406     
1800000000.0        -0.185768250429     -0.384834600748     0.814136281494      -0.392084234875     0.814136281494      -0.392084234875     -0.185768250429     -0.384834600748     
1900000000.0        -0.202655075289     -0.397686692525     0.797246278628      -0.405343711087     0.797246278628      -0.405343711087     -0.202655075289     -0.397686692525     
2000000000.0        -0.219710502837     -0.409553415419     0.780187503624      -0.417618396328     0.780187503624      -0.417618396328     -0.219710502837     -0.409553415419     
2100000000.0        -0.236869234666     -0.42045796573      0.763025253893      -0.42893149376      0.763025253893      -0.42893149376      -0.236869234666     -0.42045796573      
2200000000.0        -0.25407082861      -0.43042761644      0.745819970626      -0.439310282431     0.745819970626      -0.439310282431     -0.25407082861      -0.43042761644      
2300000000.0        -0.271259803778     -0.439493008075     0.728627133763      -0.448785408205     0.728627133763      -0.448785408205     -0.271259803778     -0.439493008075     
2400000000.0        -0.28838565799      -0.447687479038     0.711497244545      -0.457390214164     0.711497244545      -0.457390214164     -0.28838565799      -0.447687479038     
2500000000.0        -0.305402810216     -0.455046443311     0.69447588308       -0.465160118365     0.69447588308       -0.465160118365     -0.305402810216     -0.455046443311     
2600000000.0        -0.32227048047      -0.461606820761     0.677603828445      -0.472132044206     0.677603828445      -0.472132044206     -0.32227048047      -0.461606820761     
2700000000.0        -0.338952519104     -0.467406523086     0.66091722939       -0.47834390642      0.66091722939       -0.47834390642      -0.338952519104     -0.467406523086     
2800000000.0        -0.355417196633     -0.472483996453     0.644447814509      -0.483834153761     0.644447814509      -0.483834153761     -0.355417196633     -0.472483996453     
2900000000.0        -0.371636964236     -0.476877820321     0.628223131747      -0.48864136787      0.628223131747      -0.48864136787      -0.371636964236     -0.476877820321     
3000000000.0        -0.387588193931     -0.480626360673     0.612266808211      -0.49280391655      0.612266808211      -0.49280391655      -0.387588193931     -0.480626360673     
3100000000.0        -0.4032509063       -0.483767474936     0.596598822454      -0.49635965872      0.596598822454      -0.49635965872      -0.4032509063       -0.483767474936     
3200000000.0        -0.418608492443     -0.486338265181     0.58123578252       -0.499345697652     0.58123578252       -0.499345697652     -0.418608492443     -0.486338265181     
3300000000.0        -0.43364743575      -0.48837487576      0.566191204164      -0.501798178641     0.566191204164      -0.501798178641     -0.43364743575      -0.48837487576      
3400000000.0        -0.448357038039     -0.48991233129      0.551475784722      -0.503752127018     0.551475784722      -0.503752127018     -0.448357038039     -0.48991233129      
3500000000.0        -0.462729153658     -0.490984410818     0.537097669003      -0.505241322339     0.537097669003      -0.505241322339     -0.462729153658     -0.490984410818     
3600000000.0        -0.476757934313     -0.49162355402      0.523062704464      -0.50629820462      0.523062704464      -0.50629820462      -0.476757934313     -0.49162355402      
3700000000.0        -0.490439586636     -0.491860795477     0.509374683639      -0.506953808623     0.509374683639      -0.506953808623     -0.490439586636     -0.491860795477     
3800000000.0        -0.503772143885     -0.49172572323      0.496035572439      -0.507237722442     0.496035572439      -0.507237722442     -0.503772143885     -0.49172572323      
3900000000.0        -0.51675525264      -0.491246458102     0.483045723457      -0.507178066845     0.483045723457      -0.507178066845     -0.51675525264      -0.491246458102     
4000000000.0        -0.529389974897     -0.490449650572     0.470404073872      -0.506801492162     0.470404073872      -0.506801492162     -0.529389974897     -0.490449650572     
4100000000.0        -0.541678605634     -0.489360492256     0.458108327886      -0.506133189786     0.458108327886      -0.506133189786     -0.541678605634     -0.489360492256     
4200000000.0        -0.553624505615     -0.488002739381     0.446155123916      -0.505196915666     0.446155123916      -0.505196915666     -0.553624505615     -0.488002739381     
4300000000.0        -0.565231948999     -0.486398745922     0.434540186982      -0.50401502345      0.434540186982      -0.50401502345      -0.565231948999     -0.486398745922     
4400000000.0        -0.576505985159     -0.484569504352     0.423258466899      -0.502608505259     0.423258466899      -0.502608505259     -0.576505985159     -0.484569504352     
4500000000.0        -0.58745231397      -0.48253469224      0.412304262975      -0.50099703829      0.412304262975      -0.50099703829      -0.58745231397      -0.48253469224      
4600000000.0        -0.598077173804     -0.480312723148     0.401671336023      -0.499199035726     0.401671336023      -0.499199035726     -0.598077173804     -0.480312723148     
4700000000.0        -0.608387241369     -0.477920800526     0.391353008524      -0.497231700641     0.391353008524      -0.497231700641     -0.608387241369     -0.477920800526     
4800000000.0        -0.618389542548     -0.475374973499     0.381342253781      -0.495111081802     0.381342253781      -0.495111081802     -0.618389542548     -0.475374973499     
4900000000.0        -0.628091373373     -0.472690193628     0.371631774947      -0.492852130428     0.371631774947      -0.492852130428     -0.628091373373     -0.472690193628     
5000000000.0        -0.637500230309     -0.469880371856     0.362214074745      -0.490468757155     0.362214074745      -0.490468757155     -0.637500230309     -0.469880371856     
5100000000.0        -0.646623749015     -0.466958435046     0.3530815167        -0.487973888574     0.3530815167        -0.487973888574     -0.646623749015     -0.466958435046     
5200000000.0        -0.655469650828     -0.463936381576     0.344226378663      -0.485379522834     0.344226378663      -0.485379522834     -0.655469650828     -0.463936381576     
5300000000.0        -0.664045696217     -0.460825335622     0.335640899347      -0.482696783934     0.335640899347      -0.482696783934     -0.664045696217     -0.460825335622     
5400000000.0        -0.672359644535     -0.457635599796     0.32731731858       -0.479935974362     0.32731731858       -0.479935974362     -0.672359644535     -0.457635599796     
5500000000.0        -0.680419219422     -0.454376705929     0.319247911904      -0.477106625886     0.319247911904      -0.477106625886     -0.680419219422     -0.454376705929     
5600000000.0        -0.68823207926      -0.451057463819     0.311425020113      -0.474217548305     0.311425020113      -0.474217548305     -0.68823207926      -0.451057463819     
5700000000.0        -0.695805792145     -0.447686007844     0.303841074289      -0.471276876067     0.303841074289      -0.471276876067     -0.695805792145     -0.447686007844     
5800000000.0        -0.703147814867     -0.444269841363     0.296488616814      -0.468292112672     0.296488616814      -0.468292112672     -0.703147814867     -0.444269841363     
5900000000.0        -0.71026547545      -0.440815878883     0.289360318834      -0.46527017284      0.289360318834      -0.46527017284      -0.71026547545      -0.440815878883     
6000000000.0        -0.717165958828     -0.437330485989     0.282448994582      -0.462217422453     0.282448994582      -0.462217422453     -0.717165958828     -0.437330485989     
6100000000.0        -0.723856295295     -0.433819517066     0.275747612928      -0.459139716266     0.275747612928      -0.459139716266     -0.723856295295     -0.433819517066     
6200000000.0        -0.730343351378     -0.430288350852     0.269249306504      -0.456042433474     0.269249306504      -0.456042433474     -0.730343351378     -0.430288350852     
6300000000.0        -0.736633822835     -0.426741923883     0.262947378708      -0.452930511151     0.262947378708      -0.452930511151     -0.736633822835     -0.426741923883     
6400000000.0        -0.74273422951      -0.423184761901     0.256835308848      -0.449808475663     0.256835308848      -0.449808475663     -0.74273422951      -0.423184761901     
6500000000.0        -0.748650911791     -0.419621009297     0.250906755683      -0.446680472115     0.250906755683      -0.446680472115     -0.748650911791     -0.419621009297     
6600000000.0        -0.754390028459     -0.416054456688     0.245155559574      -0.443550291919     0.245155559574      -0.443550291919     -0.754390028459     -0.416054456688     
6700000000.0        -0.759957555734     -0.412488566686     0.239575743437      -0.440421398578     0.239575743437      -0.440421398578     -0.759957555734     -0.412488566686     
6800000000.0        -0.765359287349     -0.408926497984     0.234161512673      -0.437296951761     0.234161512673      -0.437296951761     -0.765359287349     -0.408926497984     
6900000000.0        -0.770600835493     -0.405371127816     0.228907254219      -0.43417982977      0.228907254219      -0.43417982977      -0.770600835493     -0.405371127816     
7000000000.0        -0.775687632491     -0.401825072901     0.223807534871      -0.431072650483     0.223807534871      -0.431072650483     -0.775687632491     -0.401825072901     
7100000000.0        -0.780624933104     -0.398290708948     0.218857098981      -0.427977790857     0.218857098981      -0.427977790857     -0.780624933104     -0.398290708948     
7200000000.0        -0.78541781735      -0.394770188807     0.214050865641      -0.424897405082     0.214050865641      -0.424897405082     -0.78541781735      -0.394770188807     
7300000000.0        -0.790071193739     -0.391265459354     0.209383925445      -0.421833441465     0.209383925445      -0.421833441465     -0.790071193739     -0.391265459354     
7400000000.0        -0.794589802854     -0.38777827718      0.204851536903      -0.418787658119     0.204851536903      -0.418787658119     -0.794589802854     -0.38777827718      
7500000000.0        -0.79897822121      -0.384310223173     0.200449122589      -0.415761637545     0.200449122589      -0.415761637545     -0.79897822121      -0.384310223173     
7600000000.0        -0.803240865321     -0.380862716048     0.196172265072      -0.412756800163     0.196172265072      -0.412756800163     -0.803240865321     -0.380862716048     
7700000000.0        -0.807381995926     -0.377437024913     0.192016702687      -0.409774416872     0.192016702687      -0.409774416872     -0.807381995926     -0.377437024913     
7800000000.0        -0.81140572233      -0.374034280914     0.187978325196      -0.406815620706     0.187978325196      -0.406815620706     -0.81140572233      -0.374034280914     
7900000000.0        -0.815316006823     -0.370655488048     0.184053169368      -0.403881417631     0.184053169368      -0.403881417631     -0.815316006823     -0.370655488048     
8000000000.0        -0.81911666913      -0.367301533173     0.180237414529      -0.40097269657      0.180237414529      -0.40097269657      -0.81911666913      -0.367301533173     
8100000000.0        -0.822811390884     -0.363973195292     0.17652737809       -0.398090238677     0.17652737809       -0.398090238677     -0.822811390884     -0.363973195292     
8200000000.0        -0.826403720081     -0.360671154149     0.172919511089      -0.395234725934     0.172919511089      -0.395234725934     -0.826403720081     -0.360671154149     
8300000000.0        -0.829897075499     -0.357395998196     0.169410393775      -0.39240674912      0.169410393775      -0.39240674912      -0.829897075499     -0.357395998196     
8400000000.0        -0.833294751069     -0.354148231962     0.165996731235      -0.389606815176     0.165996731235      -0.389606815176     -0.833294751069     -0.354148231962     
8500000000.0        -0.836599920183     -0.35092828288      0.162675349084      -0.386835354036     0.162675349084      -0.386835354036     -0.836599920183     -0.35092828288      
8600000000.0        -0.83981563992      -0.347736507604     0.159443189243      -0.384092724937     0.159443189243      -0.384092724937     -0.83981563992      -0.347736507604     
8700000000.0        -0.84294485519      -0.344573197852     0.156297305794      -0.381379222268     0.156297305794      -0.381379222268     -0.84294485519      -0.344573197852     
8800000000.0        -0.845990402776     -0.341438585813     0.153234860934      -0.378695080969     0.153234860934      -0.378695080969     -0.845990402776     -0.341438585813     
8900000000.0        -0.848955015286     -0.338332849147     0.150253121025      -0.37604048154      0.150253121025      -0.37604048154      -0.848955015286     -0.338332849147     
9000000000.0        -0.851841324991     -0.335256115612     0.147349452759      -0.373415554654     0.147349452759      -0.373415554654     -0.851841324991     -0.335256115612     
9100000000.0        -0.854651867556     -0.332208467333     0.144521319421      -0.370820385441     0.144521319421      -0.370820385441     -0.854651867556     -0.332208467333     
9200000000.0        -0.857389085666     -0.329189944761     0.141766277266      -0.368255017433     0.141766277266      -0.368255017433     -0.857389085666     -0.329189944761     
9300000000.0        -0.860055332535     -0.326200550319     0.139081972013      -0.365719456215     0.139081972013      -0.365719456215     -0.860055332535     -0.326200550319     
9400000000.0        -0.862652875299     -0.323240251781     0.136466135442      -0.363213672804     0.136466135442      -0.363213672804     -0.862652875299     -0.323240251781     
9500000000.0        -0.86518389831      -0.320308985388     0.133916582115      -0.360737606762     0.133916582115      -0.360737606762     -0.86518389831      -0.320308985388     
9600000000.0        -0.867650506298     -0.317406658726     0.131431206197      -0.358291169075     0.131431206197      -0.358291169075     -0.867650506298     -0.317406658726     
9700000000.0        -0.870054727446     -0.314533153387     0.129007978392      -0.355874244813     0.129007978392      -0.355874244813     -0.870054727446     -0.314533153387     
9800000000.0        -0.872398516335     -0.311688327424     0.126644942995      -0.353486695582     0.126644942995      -0.353486695582     -0.872398516335     -0.311688327424     
9900000000.0        -0.874683756799     -0.308872017616     0.124340215037      -0.351128361791     0.124340215037      -0.351128361791     -0.874683756799     -0.308872017616     
10000000000.0       -0.87691226466      -0.306084041558     0.122091977547      -0.348799064743     0.122091977547      -0.348799064743     -0.87691226466      -0.306084041558     
