# Hz S RI R 50.00 
100000000.0         -1.44719283771e-05  -0.00375978790659   0.999977396904      -0.00380101628476   0.999977396904      -0.00380101628476   -1.4471928377e-05   -0.00375978790659   
200000000.0         -6.10571782913e-05  -0.00751896098948   0.999930753659      -0.0076014280237    0.999930753659      -0.0076014280237    -6.10571782911e-05  -0.00751896098948   
300000000.0         -0.000136209141918  -0.0112770776955    0.999855556014      -0.0114007988405    0.999855556014      -0.0114007988405    -0.000136209141918  -0.0112770776955    
400000000.0         -0.000239900655102  -0.0150337262046    0.99975182414       -0.0151987208008    0.99975182414       -0.0151987208008    -0.000239900655102  -0.0150337262046    
500000000.0         -0.000372099802917  -0.0187885107615    0.999619587268      -0.0189948013528    0.999619587268      -0.0189948013528    -0.000372099802917  -0.0187885107615    
600000000.0         -0.000532768791684  -0.0225410469288    0.999458881828      -0.0227886587949    0.999458881828      -0.0227886587949    -0.000532768791685  -0.0225410469288    
700000000.0         -0.000721863849184  -0.0262909591838    0.999269750791      -0.0265799199846    0.999269750791      -0.0265799199846    -0.000721863849184  -0.0262909591838    
800000000.0         -0.000939335316267  -0.0300378795153    0.999052243296      -0.0303682190024    0.999052243296      -0.0303682190024    -0.000939335316267  -0.0300378795153    
900000000.0         -0.00118512778285   -0.0337814464944    0.998806414395      -0.0341531962693    0.998806414395      -0.0341531962693    -0.00118512778285   -0.0337814464944    
1000000000.0        -0.00145918023242   -0.03752130464      0.998532324846      -0.0379344979444    0.998532324846      -0.0379344979444    -0.00145918023242   -0.03752130464      
1100000000.0        -0.00176142618444   -0.0412571039549    0.998230040934      -0.0417117754869    0.998230040934      -0.0417117754869    -0.00176142618444   -0.0412571039549    
1200000000.0        -0.00209179383049   -0.044988499571     0.997899634316      -0.0454846853212    0.997899634316      -0.0454846853212    -0.00209179383049   -0.044988499571     
1300000000.0        -0.00245020616467   -0.0487151514774    0.99754118188       -0.0492528885814    0.99754118188       -0.0492528885814    -0.00245020616467   -0.0487151514774    
1400000000.0        -0.0028365811076    -0.0524367243011    0.997154765606      -0.0530160509058    0.997154765606      -0.0530160509058    -0.0028365811076    -0.0524367243011    
1500000000.0        -0.00325083162494   -0.0561528871314    0.99674047245       -0.0567738422729    0.99674047245       -0.0567738422729    -0.00325083162494   -0.0561528871314    
1600000000.0        -0.00369286584088   -0.059863313374     0.996298394221      -0.0605259368663    0.996298394221      -0.0605259368663    -0.00369286584088   -0.059863313374     
1700000000.0        -0.00416258714639   -0.0635676806268    0.995828627469      -0.0642720129589    0.995828627469      -0.0642720129589    -0.00416258714639   -0.0635676806268    
1800000000.0        -0.00465989430411   -0.0672656705802    0.995331273385      -0.0680117528221    0.995331273385      -0.0680117528221    -0.00465989430411   -0.0672656705802    
1900000000.0        -0.00518468154859   -0.0709569689263    0.99480643769       -0.0717448426417    0.99480643769       -0.0717448426417    -0.00518468154859   -0.0709569689263    
2000000000.0        -0.00573683868361   -0.0746412652858    0.994254230545      -0.0754709724517    0.994254230545      -0.0754709724517    -0.00573683868361   -0.0746412652858    
2100000000.0        -0.00631625117619   -0.0783182531432    0.993674766448      -0.0791898360755    0.993674766448      -0.0791898360755    -0.00631625117619   -0.0783182531432    
2200000000.0        -0.00692280024769   -0.0819876297905    0.99306816415       -0.0829011310756    0.99306816415       -0.0829011310756    -0.00692280024769   -0.0819876297905    
2300000000.0        -0.0075563629624    -0.0856490962797    0.992434546559      -0.0866045587105    0.992434546559      -0.0866045587105    -0.0075563629624    -0.0856490962797    
2400000000.0        -0.00821681231363   -0.0893023573804    0.991774040659      -0.0902998238978    0.991774040659      -0.0902998238978    -0.00821681231363   -0.0893023573804    
2500000000.0        -0.00890401730814   -0.092947121546     0.991086777421      -0.0939866351843    0.991086777421      -0.0939866351843    -0.00890401730814   -0.092947121546     
2600000000.0        -0.00961784304801   -0.0965831008816    0.990372891723      -0.0976647047182    0.990372891723      -0.0976647047182    -0.00961784304801   -0.0965831008816    
2700000000.0        -0.0103581508109    -0.100210011117     0.989632522269      -0.101333748226     0.989632522269      -0.101333748226     -0.0103581508109    -0.100210011117     
2800000000.0        -0.0111247981295    -0.103827571587     0.988865811511      -0.104993484998     0.988865811511      -0.104993484998     -0.0111247981295    -0.103827571587     
2900000000.0        -0.0119176388681    -0.107435505211     0.988072905568      -0.108643637865     0.988072905568      -0.108643637865     -0.0119176388681    -0.107435505211     
3000000000.0        -0.0127365232993    -0.111033538478     0.987253954153      -0.112283933196     0.987253954153      -0.112283933196     -0.0127365232993    -0.111033538478     
3100000000.0        -0.013581298179     -0.114621401434     0.986409110496      -0.115914100882     0.986409110496      -0.115914100882     -0.013581298179     -0.114621401434     
3200000000.0        -0.0144518068198    -0.118198827674     0.985538531274      -0.119533874332     0.985538531274      -0.119533874332     -0.0144518068198    -0.118198827674     
3300000000.0        -0.0153478891647    -0.121765554333     0.98464237653       -0.123142990465     0.98464237653       -0.123142990465     -0.0153478891647    -0.121765554333     
3400000000.0        -0.0162693818587    -0.125321322079     0.983720809609      -0.126741189711     0.983720809609      -0.126741189711     -0.0162693818587    -0.125321322079     
3500000000.0        -0.0172161183211    -0.128865875115     0.982773997081      -0.130328216008     0.982773997081      -0.130328216008     -0.0172161183211    -0.128865875115     
3600000000.0        -0.0181879288157    -0.132398961172     0.981802108672      -0.133903816805     0.981802108672      -0.133903816805     -0.0181879288157    -0.132398961172     
3700000000.0        -0.019184640521     -0.135920331512     0.980805317194      -0.137467743057     0.980805317194      -0.137467743057     -0.019184640521     -0.135920331512     
3800000000.0        -0.020206077601     -0.139429740929     0.979783798474      -0.141019749238     0.979783798474      -0.141019749238     -0.020206077601     -0.139429740929     
3900000000.0        -0.0212520612737    -0.142926947751     0.978737731287      -0.144559593338     0.978737731287      -0.144559593338     -0.0212520612737    -0.142926947751     
4000000000.0        -0.0223224098806    -0.146411713845     0.977667297281      -0.148087036872     0.977667297281      -0.148087036872     -0.0223224098806    -0.146411713845     
4100000000.0        -0.0234169389555    -0.14988380462      0.976572680916      -0.151601844885     0.976572680916      -0.151601844885     -0.0234169389555    -0.14988380462      
4200000000.0        -0.0245354612928    -0.153342989032     0.97545406939       -0.155103785959     0.97545406939       -0.155103785959     -0.0245354612928    -0.153342989032     
4300000000.0        -0.0256777870163    -0.156789039594     0.974311652572      -0.158592632219     0.974311652572      -0.158592632219     -0.0256777870163    -0.156789039594     
4400000000.0        -0.0268437236468    -0.160221732378     0.973145622934      -0.162068159344     0.973145622934      -0.162068159344     -0.0268437236468    -0.160221732378     
4500000000.0        -0.0280330761703    -0.163640847026     0.971956175484      -0.165530146574     0.971956175484      -0.165530146574     -0.0280330761703    -0.163640847026     
4600000000.0        -0.029245647106     -0.167046166756     0.970743507697      -0.168978376718     0.970743507697      -0.168978376718     -0.029245647106     -0.167046166756     
4700000000.0        -0.0304812365739    -0.170437478367     0.969507819446      -0.172412636163     0.969507819446      -0.172412636163     -0.0304812365739    -0.170437478367     
4800000000.0        -0.0317396423626    -0.173814572252     0.968249312937      -0.175832714882     0.968249312937      -0.175832714882     -0.0317396423626    -0.173814572252     
4900000000.0        -0.0330206599966    -0.177177242403     0.966968192641      -0.179238406446     0.966968192641      -0.179238406446     -0.0330206599966    -0.177177242403     
5000000000.0        -0.0343240828045    -0.180525286419     0.965664665223      -0.182629508029     0.965664665223      -0.182629508029     -0.0343240828045    -0.180525286419     
5100000000.0        -0.0356497019856    -0.183858505515     0.964338939478      -0.186005820418     0.964338939478      -0.186005820418     -0.0356497019856    -0.183858505515     
5200000000.0        -0.0369973066781    -0.187176704527     0.962991226264      -0.189367148021     0.962991226264      -0.189367148021     -0.0369973066781    -0.187176704527     
5300000000.0        -0.0383666840263    -0.190479691924     0.961621738431      -0.192713298878     0.961621738431      -0.192713298878     -0.0383666840263    -0.190479691924     
5400000000.0        -0.0397576192475    -0.19376727981      0.960230690758      -0.196044084663     0.960230690758      -0.196044084663     -0.0397576192475    -0.19376727981      
5500000000.0        -0.0411698956998    -0.197039283934     0.958818299882      -0.199359320696     0.958818299882      -0.199359320696     -0.0411698956998    -0.197039283934     
5600000000.0        -0.042603294949     -0.200295523695     0.957384784233      -0.202658825947     0.957384784233      -0.202658825947     -0.042603294949     -0.200295523695     
5700000000.0        -0.0440575968358    -0.203535822146     0.955930363966      -0.205942423043     0.955930363966      -0.205942423043     -0.0440575968358    -0.203535822146     
5800000000.0        -0.0455325795429    -0.206760006005     0.954455260894      -0.209209938275     0.954455260894      -0.209209938275     -0.0455325795429    -0.206760006005     
5900000000.0        -0.047028019662     -0.209967905651     0.952959698422      -0.212461201599     0.952959698422      -0.212461201599     -0.047028019662     -0.209967905651     
6000000000.0        -0.0485436922601    -0.213159355135     0.951443901479      -0.215696046646     0.951443901479      -0.215696046646     -0.0485436922601    -0.213159355135     
6100000000.0        -0.0500793709468    -0.216334192178     0.949908096451      -0.218914310718     0.949908096451      -0.218914310718     -0.0500793709468    -0.216334192178     
6200000000.0        -0.0516348279405    -0.219492258178     0.948352511117      -0.222115834798     0.948352511117      -0.222115834798     -0.0516348279405    -0.219492258178     
6300000000.0        -0.0532098341348    -0.222633398208     0.94677737458       -0.225300463547     0.94677737458       -0.225300463547     -0.0532098341348    -0.222633398208     
6400000000.0        -0.0548041591649    -0.22575746102      0.945182917201      -0.228468045309     0.945182917201      -0.228468045309     -0.0548041591649    -0.22575746102      
6500000000.0        -0.0564175714729    -0.228864299041     0.943569370534      -0.231618432108     0.943569370534      -0.231618432108     -0.0564175714729    -0.228864299041     
6600000000.0        -0.0580498383743    -0.231953768376     0.941936967262      -0.234751479646     0.941936967262      -0.234751479646     -0.0580498383743    -0.231953768376     
6700000000.0        -0.0597007261229    -0.235025728804     0.940285941127      -0.237867047308     0.940285941127      -0.237867047308     -0.0597007261229    -0.235025728804     
6800000000.0        -0.0613699999762    -0.238080043776     0.938616526868      -0.240964998152     0.938616526868      -0.240964998152     -0.0613699999762    -0.238080043776     
6900000000.0        -0.0630574242604    -0.241116580413     0.936928960158      -0.244045198912     0.936928960158      -0.244045198912     -0.0630574242604    -0.241116580413     
7000000000.0        -0.0647627624347    -0.244135209498     0.935223477533      -0.247107519988     0.935223477533      -0.247107519988     -0.0647627624347    -0.244135209498     
7100000000.0        -0.0664857771556    -0.247135805473     0.933500316335      -0.250151835446     0.933500316335      -0.250151835446     -0.0664857771556    -0.247135805473     
7200000000.0        -0.0682262303407    -0.250118246435     0.931759714642      -0.253178023007     0.931759714642      -0.253178023007     -0.0682262303407    -0.250118246435     
7300000000.0        -0.0699838832323    -0.253082414123     0.930001911212      -0.256185964043     0.930001911212      -0.256185964043     -0.0699838832323    -0.253082414123     
7400000000.0        -0.0717584964602    -0.256028193914     0.92822714541       -0.259175543567     0.92822714541       -0.259175543567     -0.0717584964602    -0.256028193914     
7500000000.0        -0.0735498301046    -0.258955474812     0.926435657155      -0.262146650225     0.926435657155      -0.262146650225     -0.0735498301046    -0.258955474812     
7600000000.0        -0.0753576437577    -0.26186414944      0.924627686851      -0.265099176286     0.924627686851      -0.265099176286     -0.0753576437577    -0.26186414944      
7700000000.0        -0.0771816965857    -0.264754114024     0.922803475331      -0.26803301763      0.922803475331      -0.26803301763      -0.0771816965857    -0.264754114024     
7800000000.0        -0.0790217473899    -0.267625268386     0.920963263791      -0.270948073733     0.920963263791      -0.270948073733     -0.0790217473899    -0.267625268386     
7900000000.0        -0.0808775546671    -0.27047751593      0.919107293731      -0.273844247662     0.919107293731      -0.273844247662     -0.0808775546671    -0.27047751593      
8000000000.0        -0.0827488766696    -0.273310763622     0.917235806898      -0.276721446052     0.917235806898      -0.276721446052     -0.0827488766696    -0.273310763622     
8100000000.0        -0.0846354714649    -0.276124921985     0.915349045221      -0.279579579095     0.915349045221      -0.279579579095     -0.0846354714649    -0.276124921985     
8200000000.0        -0.0865370969941    -0.278919905075     0.913447250758      -0.282418560526     0.913447250758      -0.282418560526     -0.0865370969941    -0.278919905075     
8300000000.0        -0.0884535111305    -0.281695630465     0.911530665634      -0.285238307601     0.911530665634      -0.285238307601     -0.0884535111305    -0.281695630465     
8400000000.0        -0.0903844717368    -0.284452019232     0.909599531983      -0.288038741084     0.909599531983      -0.288038741084     -0.0903844717368    -0.284452019232     
8500000000.0        -0.0923297367223    -0.287188995934     0.907654091895      -0.290819785225     0.907654091895      -0.290819785225     -0.0923297367223    -0.287188995934     
8600000000.0        -0.094289064099     -0.289906488589     0.905694587355      -0.293581367741     0.905694587355      -0.293581367741     -0.094289064099     -0.289906488589     
8700000000.0        -0.096262212037     -0.29260442866      0.903721260192      -0.296323419796     0.903721260192      -0.296323419796     -0.096262212037     -0.29260442866      
8800000000.0        -0.0982489389193    -0.295282751027     0.901734352021      -0.29904587598      0.901734352021      -0.29904587598      -0.0982489389193    -0.295282751027     
8900000000.0        -0.100249003396     -0.29794139397      0.89973410419       -0.301748674284     0.89973410419       -0.301748674284     -0.100249003396     -0.29794139397      
9000000000.0        -0.102262164438     -0.300580299144     0.897720757728      -0.30443175608      0.897720757728      -0.30443175608      -0.102262164438     -0.300580299144     
9100000000.0        -0.104288181387     -0.303199411553     0.895694553288      -0.307095066096     0.895694553288      -0.307095066096     -0.104288181387     -0.303199411553     
9200000000.0        -0.106326814013     -0.305798679527     0.893655731102      -0.309738552387     0.893655731102      -0.309738552387     -0.106326814013     -0.305798679527     
9300000000.0        -0.108377822557     -0.308378054696     0.891604530926      -0.312362166319     0.891604530926      -0.312362166319     -0.108377822557     -0.308378054696     
9400000000.0        -0.11044096779      -0.310937491967     0.889541191988      -0.31496586253      0.889541191988      -0.31496586253      -0.11044096779      -0.310937491967     
9500000000.0        -0.112516011054     -0.313476949489     0.887465952943      -0.317549598914     0.887465952943      -0.317549598914     -0.112516011054     -0.313476949489     
9600000000.0        -0.114602714317     -0.315996388633     0.885379051823      -0.320113336587     0.885379051823      -0.320113336587     -0.114602714317     -0.315996388633     
9700000000.0        -0.116700840216     -0.318495773959     0.883280725988      -0.32265703986      0.883280725988      -0.32265703986      -0.116700840216     -0.318495773959     
9800000000.0        -0.118810152108     -0.320975073189     0.881171212082      -0.325180676207     0.881171212082      -0.325180676207     -0.118810152108     -0.320975073189     
9900000000.0        -0.120930414112     -0.323434257175     0.879050745983      -0.327684216242     0.879050745983      -0.327684216242     -0.120930414112     -0.323434257175     
10000000000.0       -0.123061391155     -0.325873299869     0.876919562763      -0.330167633679     0.876919562763      -0.330167633679     -0.123061391155     -0.325873299869     
