# Hz S RI R 50.00 
100000000.0         0.0364436580978     0.00245582326836    0.963554133181      -0.00333784919716   0.963554133181      -0.00333784919716   0.0364436580978     0.00245582326836    
200000000.0         0.0367002537358     0.00490871415953    0.963295540896      -0.00667277086779   0.963295540896      -0.00667277086779   0.0367002537358     0.00490871415953    
300000000.0         0.0369109592109     0.00735966273164    0.963082050698      -0.0100057589868    0.963082050698      -0.0100057589868    0.0369109592109     0.00735966273164    
400000000.0         0.0371064493849     0.00980891878837    0.962882987599      -0.013337066701     0.962882987599      -0.013337066701     0.0371064493849     0.00980891878837    
500000000.0         0.0372985583833     0.0122565599666     0.962686517353      -0.0166667747033    0.962686517353      -0.0166667747033    0.0372985583833     0.0122565599666     
600000000.0         0.0374933286114     0.0147025877144     0.962486597432      -0.0199948873108    0.962486597432      -0.0199948873108    0.0374933286114     0.0147025877144     
700000000.0         0.0376943312085     0.0171469617719     0.962279656569      -0.0233213669967    0.962279656569      -0.0233213669967    0.0376943312085     0.0171469617719     
800000000.0         0.0379038789768     0.0195896161701     0.96206338183       -0.02664615042      0.96206338183       -0.02664615042      0.0379038789768     0.0195896161701     
900000000.0         0.0381235668905     0.0220304678304     0.961836178101      -0.0299691570445    0.961836178101      -0.0299691570445    0.0381235668905     0.0220304678304     
1000000000.0        0.0383545462885     0.0244694216611     0.961596893898      -0.03329029425      0.961596893898      -0.03329029425      0.0383545462885     0.0244694216611     
1100000000.0        0.0385976774135     0.0269063738002     0.961344668825      -0.036609460585     0.961344668825      -0.036609460585     0.0385976774135     0.0269063738002     
1200000000.0        0.0388536203769     0.0293412137924     0.961078842608      -0.0399265479518    0.961078842608      -0.0399265479518    0.0388536203769     0.0293412137924     
1300000000.0        0.0391228924314     0.0317738261137     0.960798897825      -0.0432414431374    0.960798897825      -0.0432414431374    0.0391228924314     0.0317738261137     
1400000000.0        0.0394059056459     0.0342040912781     0.96050442223       -0.0465540289249    0.96050442223       -0.0465540289249    0.0394059056459     0.0342040912781     
1500000000.0        0.039702992597      0.0366318866637     0.96019508306       -0.0498641849241    0.96019508306       -0.0498641849241    0.039702992597      0.0366318866637     
1600000000.0        0.0400144244277     0.0390570871449     0.959870608978      -0.0531717882067    0.959870608978      -0.0531717882067    0.0400144244277     0.0390570871449     
1700000000.0        0.0403404238715     0.041479565587      0.959530777048      -0.056476713804     0.959530777048      -0.056476713804     0.0403404238715     0.041479565587      
1800000000.0        0.040681174857      0.0438991932408     0.959175403131      -0.0597788351038    0.959175403131      -0.0597788351038    0.040681174857      0.0438991932408     
1900000000.0        0.0410368297293     0.0463158400616     0.958804334662      -0.0630780241719    0.958804334662      -0.0630780241719    0.0410368297293     0.0463158400616     
2000000000.0        0.0414075147728     0.0487293749725     0.958417445129      -0.0663741520165    0.958417445129      -0.0663741520165    0.0414075147728     0.0487293749725     
2100000000.0        0.0417933344993     0.0511396660836     0.958014629784      -0.0696670888097    0.958014629784      -0.0696670888097    0.0417933344993     0.0511396660836     
2200000000.0        0.0421943750237     0.0535465808769     0.957595802269      -0.0729567040735    0.957595802269      -0.0729567040735    0.0421943750237     0.0535465808769     
2300000000.0        0.0426107067525     0.0559499863648     0.957160891923      -0.0762428668398    0.957160891923      -0.0762428668398    0.0426107067525     0.0559499863648     
2400000000.0        0.0430423865506     0.0583497492269     0.956709841621      -0.0795254457879    0.956709841621      -0.0795254457879    0.0430423865506     0.0583497492269     
2500000000.0        0.0434894595037     0.0607457359286     0.956242606008      -0.0828043093649    0.956242606008      -0.0828043093649    0.0434894595037     0.0607457359286     
2600000000.0        0.0439519603663     0.0631378128265     0.95575915005       -0.0860793258908    0.95575915005       -0.0860793258908    0.0439519603663     0.0631378128265     
2700000000.0        0.0444299147612     0.0655258462607     0.95525944784       -0.089350363653     0.95525944784       -0.089350363653     0.0444299147612     0.0655258462607     
2800000000.0        0.0449233401807     0.0679097026384     0.954743481591      -0.0926172909899    0.954743481591      -0.0926172909899    0.0449233401807     0.0679097026384     
2900000000.0        0.0454322468285     0.0702892485088     0.954211240795      -0.0958799763663    0.954211240795      -0.0958799763663    0.0454322468285     0.0702892485088     
3000000000.0        0.0459566383335     0.0726643506304     0.953662721514      -0.0991382884422    0.953662721514      -0.0991382884422    0.0459566383335     0.0726643506304     
3100000000.0        0.0464965123577     0.0750348760337     0.953097925766      -0.102392096135     0.953097925766      -0.102392096135     0.0464965123577     0.0750348760337     
3200000000.0        0.0470518611171     0.0774006920774     0.952516861008      -0.105641268678     0.952516861008      -0.105641268678     0.0470518611171     0.0774006920774     
3300000000.0        0.0476226718319     0.0797616665011     0.951919539683      -0.108885675671     0.951919539683      -0.108885675671     0.0476226718319     0.0797616665011     
3400000000.0        0.0482089271167     0.0821176674738     0.951305978834      -0.112125187131     0.951305978834      -0.112125187131     0.0482089271167     0.0821176674738     
3500000000.0        0.0488106053203     0.0844685636393     0.95067619976       -0.115359673538     0.95067619976       -0.115359673538     0.0488106053203     0.0844685636393     
3600000000.0        0.0494276808238     0.0868142241582     0.95003022772       -0.118589005878     0.95003022772       -0.118589005878     0.0494276808238     0.0868142241582     
3700000000.0        0.0500601243033     0.0891545187477     0.949368091669      -0.121813055682     0.949368091669      -0.121813055682     0.0500601243033     0.0891545187477     
3800000000.0        0.0507079029622     0.0914893177194     0.948689824028      -0.125031695063     0.948689824028      -0.125031695063     0.0507079029622     0.0914893177194     
3900000000.0        0.0513709807373     0.0938184920137     0.947995460475      -0.128244796754     0.947995460475      -0.128244796754     0.0513709807373     0.0938184920137     
4000000000.0        0.0520493184834     0.0961419132344     0.947285039765      -0.13145223414      0.947285039765      -0.13145223414      0.0520493184834     0.0961419132344     
4100000000.0        0.0527428741382     0.0984594536795     0.946558603558      -0.134653881292     0.946558603558      -0.134653881292     0.0527428741382     0.0984594536795     
4200000000.0        0.0534516028716     0.100770986372      0.945816196276      -0.137849612994     0.945816196276      -0.137849612994     0.0534516028716     0.100770986372      
4300000000.0        0.0541754572199     0.103076385088      0.945057864967      -0.141039304776     0.945057864967      -0.141039304776     0.0541754572199     0.103076385088      
4400000000.0        0.0549143872077     0.105375524387      0.944283659182      -0.144222832941     0.944283659182      -0.144222832941     0.0549143872077     0.105375524387      
4500000000.0        0.0556683404599     0.107668279634      0.943493630863      -0.147400074589     0.943493630863      -0.147400074589     0.0556683404599     0.107668279634      
4600000000.0        0.0564372623028     0.109954527027      0.942687834244      -0.150570907644     0.942687834244      -0.150570907644     0.0564372623028     0.109954527027      
4700000000.0        0.0572210958582     0.112234143622      0.941866325755      -0.153735210881     0.941866325755      -0.153735210881     0.0572210958582     0.112234143622      
4800000000.0        0.0580197821293     0.114507007358      0.941029163937      -0.156892863947     0.941029163937      -0.156892863947     0.0580197821293     0.114507007358      
4900000000.0        0.0588332600808     0.116772997073      0.940176409361      -0.160043747384     0.940176409361      -0.160043747384     0.0588332600808     0.116772997073      
5000000000.0        0.0596614667128     0.119031992532      0.939308124556      -0.16318774265      0.939308124556      -0.16318774265      0.0596614667128     0.119031992532      
5100000000.0        0.0605043371297     0.121283874447      0.938424373937      -0.166324732142     0.938424373937      -0.166324732142     0.0605043371297     0.121283874447      
5200000000.0        0.0613618046054     0.123528524492      0.937525223742      -0.169454599216     0.937525223742      -0.169454599216     0.0613618046054     0.123528524492      
5300000000.0        0.0622338006431     0.125765825331      0.936610741974      -0.172577228205     0.936610741974      -0.172577228205     0.0622338006431     0.125765825331      
5400000000.0        0.0631202550331     0.127995660629      0.935680998338      -0.175692504439     0.935680998338      -0.175692504439     0.0631202550331     0.127995660629      
5500000000.0        0.0640210959061     0.130217915072      0.934736064194      -0.178800314264     0.934736064194      -0.178800314264     0.0640210959061     0.130217915072      
5600000000.0        0.0649362497845     0.132432474388      0.933776012499      -0.181900545056     0.933776012499      -0.181900545056     0.0649362497845     0.132432474388      
5700000000.0        0.0658656416307     0.13463922536       0.932800917766      -0.184993085244     0.932800917766      -0.184993085244     0.0658656416307     0.13463922536       
5800000000.0        0.0668091948937     0.136838055843      0.93181085601       -0.18807782432      0.93181085601       -0.18807782432      0.0668091948937     0.136838055843      
5900000000.0        0.0677668315524     0.139028854781      0.930805904711      -0.191154652859     0.930805904711      -0.191154652859     0.0677668315524     0.139028854781      
6000000000.0        0.0687384721589     0.14121151222       0.929786142767      -0.194223462534     0.929786142767      -0.194223462534     0.0687384721589     0.14121151222       
6100000000.0        0.0697240358779     0.143385919325      0.928751650455      -0.197284146127     0.928751650455      -0.197284146127     0.0697240358779     0.143385919325      
6200000000.0        0.0707234405269     0.145551968392      0.927702509394      -0.200336597547     0.927702509394      -0.200336597547     0.0707234405269     0.145551968392      
6300000000.0        0.071736602613      0.147709552863      0.926638802502      -0.203380711845     0.926638802502      -0.203380711845     0.071736602613      0.147709552863      
6400000000.0        0.0727634373696     0.149858567339      0.925560613966      -0.206416385222     0.925560613966      -0.206416385222     0.0727634373696     0.149858567339      
6500000000.0        0.0738038587917     0.151998907591      0.924468029202      -0.209443515044     0.924468029202      -0.209443515044     0.0738038587917     0.151998907591      
6600000000.0        0.0748577796703     0.154130470573      0.923361134824      -0.212461999856     0.923361134824      -0.212461999856     0.0748577796703     0.154130470573      
6700000000.0        0.0759251116253     0.156253154434      0.922240018607      -0.215471739392     0.922240018607      -0.215471739392     0.0759251116253     0.156253154434      
6800000000.0        0.077005765138      0.15836685853       0.921104769459      -0.218472634586     0.921104769459      -0.218472634586     0.077005765138      0.15836685853       
6900000000.0        0.078099649583      0.160471483432      0.919955477387      -0.221464587584     0.919955477387      -0.221464587584     0.078099649583      0.160471483432      
7000000000.0        0.0792066732587     0.162566930939      0.918792233465      -0.224447501754     0.918792233465      -0.224447501754     0.0792066732587     0.162566930939      
7100000000.0        0.0803267434176     0.164653104086      0.917615129806      -0.227421281694     0.917615129806      -0.227421281694     0.0803267434176     0.164653104086      
7200000000.0        0.0814597662961     0.166729907154      0.916424259532      -0.230385833244     0.916424259532      -0.230385833244     0.0814597662961     0.166729907154      
7300000000.0        0.0826056471432     0.168797245679      0.915219716745      -0.233341063495     0.915219716745      -0.233341063495     0.0826056471432     0.168797245679      
7400000000.0        0.0837642902491     0.170855026461      0.914001596496      -0.236286880794     0.914001596496      -0.236286880794     0.0837642902491     0.170855026461      
7500000000.0        0.0849355989731     0.172903157573      0.912769994762      -0.239223194759     0.912769994762      -0.239223194759     0.0849355989731     0.172903157573      
7600000000.0        0.0861194757713     0.174941548363      0.911525008414      -0.242149916279     0.911525008414      -0.242149916279     0.0861194757713     0.174941548363      
7700000000.0        0.0873158222234     0.176970109471      0.910266735193      -0.245066957526     0.910266735193      -0.245066957526     0.0873158222234     0.176970109471      
7800000000.0        0.0885245390593     0.178988752826      0.90899527368       -0.247974231963     0.90899527368       -0.247974231963     0.0885245390593     0.178988752826      
7900000000.0        0.0897455261859     0.18099739166       0.907710723274      -0.250871654345     0.907710723274      -0.250871654345     0.0897455261859     0.18099739166       
8000000000.0        0.0909786827125     0.182995940509      0.906413184161      -0.253759140733     0.906413184161      -0.253759140733     0.0909786827125     0.182995940509      
8100000000.0        0.0922239069764     0.184984315223      0.905102757295      -0.256636608491     0.905102757295      -0.256636608491     0.0922239069764     0.184984315223      
8200000000.0        0.0934810965687     0.186962432969      0.903779544366      -0.2595039763       0.903779544366      -0.2595039763       0.0934810965687     0.186962432969      
8300000000.0        0.0947501483585     0.188930212232      0.90244364778       -0.262361164156     0.90244364778       -0.262361164156     0.0947501483585     0.188930212232      
8400000000.0        0.0960309585181     0.19088757283       0.90109517063       -0.265208093379     0.90109517063       -0.265208093379     0.0960309585181     0.19088757283       
8500000000.0        0.0973234225471     0.192834435907      0.899734216676      -0.268044686615     0.899734216676      -0.268044686615     0.0973234225471     0.192834435907      
8600000000.0        0.0986274352968     0.194770723944      0.898360890319      -0.270870867841     0.898360890319      -0.270870867841     0.0986274352968     0.194770723944      
8700000000.0        0.0999428909937     0.196696360758      0.896975296575      -0.273686562369     0.896975296575      -0.273686562369     0.0999428909937     0.196696360758      
8800000000.0        0.101269683263      0.198611271511      0.895577541056      -0.276491696848     0.895577541056      -0.276491696848     0.101269683263      0.198611271511      
8900000000.0        0.102607705153      0.200515382705      0.894167729943      -0.279286199266     0.894167729943      -0.279286199266     0.102607705153      0.200515382705      
9000000000.0        0.103956849157      0.202408622191      0.892745969963      -0.282069998954     0.892745969963      -0.282069998954     0.103956849157      0.202408622191      
9100000000.0        0.105317007237      0.204290919167      0.891312368369      -0.284843026589     0.891312368369      -0.284843026589     0.105317007237      0.204290919167      
9200000000.0        0.106688070844      0.206162204182      0.889867032914      -0.287605214194     0.889867032914      -0.287605214194     0.106688070844      0.206162204182      
9300000000.0        0.108069930945      0.208022409135      0.88841007183       -0.290356495139     0.88841007183       -0.290356495139     0.108069930945      0.208022409135      
9400000000.0        0.109462478042      0.20987146728       0.886941593807      -0.293096804143     0.886941593807      -0.293096804143     0.109462478042      0.20987146728       
9500000000.0        0.110865602194      0.211709313222      0.885461707968      -0.295826077276     0.885461707968      -0.295826077276     0.110865602194      0.211709313222      
9600000000.0        0.11227919304       0.213535882921      0.883970523851      -0.298544251957     0.883970523851      -0.298544251957     0.11227919304       0.213535882921      
9700000000.0        0.11370313982       0.215351113689      0.882468151383      -0.301251266955     0.882468151383      -0.301251266955     0.11370313982       0.215351113689      
9800000000.0        0.115137331396      0.217154944193      0.880954700863      -0.303947062389     0.880954700863      -0.303947062389     0.115137331396      0.217154944193      
9900000000.0        0.116581656274      0.218947314452      0.879430282938      -0.306631579729     0.879430282938      -0.306631579729     0.116581656274      0.218947314452      
10000000000.0       0.118036002625      0.220728165836      0.877895008582      -0.309304761792     0.877895008582      -0.309304761792     0.118036002625      0.220728165836      
