# Hz S RI R 50.00 
100000000.0         0.00022291405105    -0.00128697645546   0.999764598544      -0.00263675138774   0.999764598544      -0.00263675138774   0.00022291405105    -0.00128697645546   
200000000.0         0.000212380496788   -0.00257402251128   0.99974824553       -0.00527362112254   0.99974824553       -0.00527362112254   0.000212380496788   -0.00257402251128   
300000000.0         0.00019465776897    -0.00386115661998   0.999723678133      -0.00791066030583   0.999723678133      -0.00791066030583   0.00019465776897    -0.00386115661998   
400000000.0         0.000169940978784   -0.00514838309542   0.99969069567       -0.0105478971865    0.99969069567       -0.0105478971865    0.000169940978784   -0.00514838309542   
500000000.0         0.000138303160585   -0.00643569852053   0.999649218713      -0.013185348536     0.999649218713      -0.013185348536     0.000138303160586   -0.00643569852053   
600000000.0         9.97797944957e-05   -0.00772309418606   0.999599204779      -0.0158230235258    0.999599204779      -0.0158230235258    9.97797944957e-05   -0.00772309418606   
700000000.0         5.43903158587e-05   -0.00901055737426   0.999540626985      -0.0184609257005    0.999540626985      -0.0184609257005    5.43903158592e-05   -0.00901055737426   
800000000.0         2.14598792425e-06   -0.0102980721471    0.999473466297      -0.0210990541635    0.999473466297      -0.0210990541635    2.14598792425e-06   -0.0102980721471    
900000000.0         -5.69465747466e-05  -0.0115856198769    0.999397708105      -0.0237374043631    0.999397708105      -0.0237374043631    -5.69465747466e-05  -0.0115856198769    
1000000000.0        -0.000122883605996  -0.0128731796287    0.999313340509      -0.0263759686509    0.999313340509      -0.0263759686509    -0.000122883605996  -0.0128731796287    
1100000000.0        -0.000195663175791  -0.0141607284473    0.999220353385      -0.0290147366964    0.999220353385      -0.0290147366964    -0.000195663175791  -0.0141607284473    
1200000000.0        -0.000275284577686  -0.0154482415826    0.99911873783       -0.0316536958088    0.99911873783       -0.0316536958088    -0.000275284577687  -0.0154482415826    
1300000000.0        -0.000361747935705  -0.0167356926705    0.99900848583       -0.0342928311921    0.99900848583       -0.0342928311921    -0.000361747935705  -0.0167356926705    
1400000000.0        -0.0004550539395    -0.0180230538814    0.998889590049      -0.0369321261539    0.998889590049      -0.0369321261539    -0.0004550539395    -0.0180230538814    
1500000000.0        -0.000555203658422  -0.019310296046     0.998762043686      -0.0395715622785    0.998762043686      -0.0395715622785    -0.000555203658422  -0.019310296046     
1600000000.0        -0.000662198406281  -0.0205973887616    0.998625840387      -0.0422111195741    0.998625840387      -0.0422111195741    -0.000662198406281  -0.0205973887616    
1700000000.0        -0.000776039639876  -0.0218843004849    0.998480974178      -0.044850776598     0.998480974178      -0.044850776598     -0.000776039639876  -0.0218843004849    
1800000000.0        -0.000896728880772  -0.0231709986131    0.998327439428      -0.0474905105665    0.998327439428      -0.0474905105665    -0.000896728880772  -0.0231709986131    
1900000000.0        -0.00102426765351   -0.0244574495553    0.998165230819      -0.0501302974508    0.998165230819      -0.0501302974508    -0.00102426765351   -0.0244574495553    
2000000000.0        -0.00115865743575   -0.0257436187974    0.997994343327      -0.0527701120619    0.997994343327      -0.0527701120619    -0.00115865743575   -0.0257436187974    
2100000000.0        -0.0012998996173    -0.0270294709594    0.997814772209      -0.0554099281271    0.997814772209      -0.0554099281271    -0.0012998996173    -0.0270294709594    
2200000000.0        -0.00144799546577   -0.0283149698482    0.997626512998      -0.0580497183582    0.997626512998      -0.0580497183582    -0.00144799546577   -0.0283149698482    
2300000000.0        -0.00160294609756   -0.0296000785054    0.997429561502      -0.0606894545139    0.997429561502      -0.0606894545139    -0.00160294609756   -0.0296000785054    
2400000000.0        -0.00176475245279   -0.0308847592516    0.997223913794      -0.0633291074567    0.997223913794      -0.0633291074567    -0.00176475245279   -0.0308847592516    
2500000000.0        -0.00193341527352   -0.032168973727     0.997009566224      -0.0659686472042    0.997009566224      -0.0659686472042    -0.00193341527352   -0.032168973727     
2600000000.0        -0.00210893508469   -0.0334526829294    0.99678651541       -0.0686080429778    0.99678651541       -0.0686080429778    -0.00210893508469   -0.0334526829294    
2700000000.0        -0.00229131217712   -0.0347358472491    0.996554758248      -0.0712472632467    0.996554758248      -0.0712472632467    -0.00229131217712   -0.0347358472491    
2800000000.0        -0.0024805465924    -0.0360184265021    0.996314291916      -0.0738862757692    0.996314291916      -0.0738862757692    -0.0024805465924    -0.0360184265021    
2900000000.0        -0.0026766381093    -0.0373003799608    0.996065113869      -0.0765250476309    0.996065113869      -0.0765250476309    -0.0026766381093    -0.0373003799608    
3000000000.0        -0.00287958623144   -0.0385816663835    0.995807221855      -0.0791635452812    0.995807221855      -0.0791635452812    -0.00287958623144   -0.0385816663835    
3100000000.0        -0.00308939017616   -0.0398622440416    0.99554061391       -0.0818017345668    0.99554061391       -0.0818017345668    -0.00308939017616   -0.0398622440416    
3200000000.0        -0.0033060488643    -0.0411420707455    0.995265288368      -0.0844395807635    0.995265288368      -0.0844395807635    -0.0033060488643    -0.0411420707455    
3300000000.0        -0.00352956091088   -0.0424211038699    0.994981243861      -0.0870770486062    0.994981243861      -0.0870770486062    -0.00352956091088   -0.0424211038699    
3400000000.0        -0.00375992461656   -0.0436993003765    0.994688479327      -0.0897141023175    0.994688479327      -0.0897141023175    -0.00375992461656   -0.0436993003765    
3500000000.0        -0.00399713795974   -0.0449766168372    0.994386994014      -0.0923507056346    0.994386994014      -0.0923507056346    -0.00399713795974   -0.0449766168372    
3600000000.0        -0.0042411985893    -0.0462530094548    0.99407678748       -0.0949868218349    0.99407678748       -0.0949868218349    -0.0042411985893    -0.0462530094548    
3700000000.0        -0.00449210381794   -0.047528434084     0.993757859601      -0.0976224137603    0.993757859601      -0.0976224137603    -0.00449210381794   -0.047528434084     
3800000000.0        -0.0047498506159    -0.0488028462508    0.993430210575      -0.100257443841     0.993430210575      -0.100257443841     -0.0047498506159    -0.0488028462508    
3900000000.0        -0.00501443560532   -0.0500762011711    0.993093840924      -0.102891874115     0.993093840924      -0.102891874115     -0.00501443560532   -0.0500762011711    
4000000000.0        -0.00528585505487   -0.0513484537692    0.992748751497      -0.105525666256     0.992748751497      -0.105525666256     -0.00528585505487   -0.0513484537692    
4100000000.0        -0.00556410487491   -0.0526195586949    0.992394943474      -0.108158781585     0.992394943474      -0.108158781585     -0.00556410487491   -0.0526195586949    
4200000000.0        -0.00584918061287   -0.0538894703403    0.99203241837       -0.110791181098     0.99203241837       -0.110791181098     -0.00584918061287   -0.0538894703403    
4300000000.0        -0.00614107744914   -0.0551581428562    0.991661178039      -0.113422825476     0.991661178039      -0.113422825476     -0.00614107744914   -0.0551581428562    
4400000000.0        -0.00643979019315   -0.0564255301673    0.991281224673      -0.116053675114     0.991281224673      -0.116053675114     -0.00643979019315   -0.0564255301673    
4500000000.0        -0.00674531327982   -0.0576915859876    0.990892560808      -0.118683690129     0.990892560808      -0.118683690129     -0.00674531327982   -0.0576915859876    
4600000000.0        -0.00705764076626   -0.0589562638348    0.990495189325      -0.12131283038      0.990495189325      -0.12131283038      -0.00705764076626   -0.0589562638348    
4700000000.0        -0.00737676632877   -0.0602195170447    0.990089113452      -0.123941055486     0.990089113452      -0.123941055486     -0.00737676632877   -0.0602195170447    
4800000000.0        -0.00770268326006   -0.0614812987843    0.989674336767      -0.126568324839     0.989674336767      -0.126568324839     -0.00770268326006   -0.0614812987843    
4900000000.0        -0.00803538446675   -0.0627415620659    0.989250863201      -0.129194597621     0.989250863201      -0.129194597621     -0.00803538446675   -0.0627415620659    
5000000000.0        -0.00837486246705   -0.0640002597592    0.988818697037      -0.131819832817     0.988818697037      -0.131819832817     -0.00837486246705   -0.0640002597592    
5100000000.0        -0.00872110938869   -0.0652573446041    0.988377842912      -0.13444398923      0.988377842912      -0.13444398923      -0.00872110938869   -0.0652573446041    
5200000000.0        -0.00907411696708   -0.0665127692231    0.987928305821      -0.137067025495     0.987928305821      -0.137067025495     -0.00907411696708   -0.0665127692231    
5300000000.0        -0.00943387654361   -0.0677664861326    0.987470091117      -0.139688900091     0.987470091117      -0.139688900091     -0.00943387654361   -0.0677664861326    
5400000000.0        -0.00980037906417   -0.0690184477549    0.98700320451       -0.142309571356     0.98700320451       -0.142309571356     -0.00980037906417   -0.0690184477549    
5500000000.0        -0.0101736150778    -0.0702686064287    0.986527652072      -0.144928997496     0.986527652072      -0.144928997496     -0.0101736150778    -0.0702686064287    
5600000000.0        -0.0105535747359    -0.0715169144209    0.986043440235      -0.147547136601     0.986043440235      -0.147547136601     -0.0105535747359    -0.0715169144209    
5700000000.0        -0.0109402477905    -0.0727633239364    0.98555057579       -0.150163946654     0.98555057579       -0.150163946654     -0.0109402477905    -0.0727633239364    
5800000000.0        -0.0113336235944    -0.0740077871289    0.985049065894      -0.152779385546     0.985049065894      -0.152779385546     -0.0113336235944    -0.0740077871289    
5900000000.0        -0.0117336911       -0.0752502561105    0.984538918063      -0.155393411082     0.984538918063      -0.155393411082     -0.0117336911       -0.0752502561105    
6000000000.0        -0.0121404388587    -0.0764906829623    0.984020140178      -0.158005980994     0.984020140178      -0.158005980994     -0.0121404388587    -0.0764906829623    
6100000000.0        -0.012553855021     -0.0777290197431    0.983492740481      -0.160617052956     0.983492740481      -0.160617052956     -0.012553855021     -0.0777290197431    
6200000000.0        -0.0129739273359    -0.0789652184996    0.982956727577      -0.163226584585     0.982956727577      -0.163226584585     -0.0129739273359    -0.0789652184996    
6300000000.0        -0.0134006431509    -0.0801992312748    0.982412110436      -0.16583453346      0.982412110436      -0.16583453346      -0.0134006431509    -0.0801992312748    
6400000000.0        -0.0138339894124    -0.0814310101175    0.981858898389      -0.168440857128     0.981858898389      -0.168440857128     -0.0138339894124    -0.0814310101175    
6500000000.0        -0.0142739526652    -0.0826605070907    0.981297101128      -0.171045513112     0.981297101128      -0.171045513112     -0.0142739526653    -0.0826605070907    
6600000000.0        -0.0147205190536    -0.0838876742802    0.98072672871       -0.173648458922     0.98072672871       -0.173648458922     -0.0147205190536    -0.0838876742802    
6700000000.0        -0.015173674321     -0.0851124638032    0.98014779155       -0.176249652065     0.98014779155       -0.176249652065     -0.015173674321     -0.0851124638032    
6800000000.0        -0.0156334038112    -0.0863348278159    0.979560300428      -0.178849050052     0.979560300428      -0.178849050052     -0.0156334038112    -0.0863348278159    
6900000000.0        -0.0160996924683    -0.0875547185221    0.978964266479      -0.181446610407     0.978964266479      -0.181446610407     -0.0160996924683    -0.0875547185221    
7000000000.0        -0.0165725248382    -0.0887720881807    0.978359701201      -0.184042290676     0.978359701201      -0.184042290676     -0.0165725248382    -0.0887720881807    
7100000000.0        -0.0170518850688    -0.0899868891131    0.97774661645       -0.186636048436     0.97774661645       -0.186636048436     -0.0170518850688    -0.0899868891131    
7200000000.0        -0.0175377569112    -0.0911990737114    0.977125024436      -0.189227841299     0.977125024436      -0.189227841299     -0.0175377569112    -0.0911990737114    
7300000000.0        -0.018030123721     -0.0924085944449    0.976494937729      -0.191817626927     0.976494937729      -0.191817626927     -0.018030123721     -0.0924085944449    
7400000000.0        -0.0185289684589    -0.0936154038678    0.975856369252      -0.194405363031     0.975856369252      -0.194405363031     -0.0185289684589    -0.0936154038678    
7500000000.0        -0.0190342736922    -0.0948194546262    0.975209332282      -0.196991007385     0.975209332282      -0.196991007385     -0.0190342736922    -0.0948194546262    
7600000000.0        -0.0195460215964    -0.0960206994646    0.974553840448      -0.199574517832     0.974553840448      -0.199574517832     -0.0195460215964    -0.0960206994646    
7700000000.0        -0.0200641939561    -0.0972190912331    0.973889907731      -0.20215585229      0.973889907731      -0.20215585229      -0.0200641939561    -0.0972190912331    
7800000000.0        -0.0205887721668    -0.0984145828938    0.973217548459      -0.204734968756     0.973217548459      -0.204734968756     -0.0205887721668    -0.0984145828938    
7900000000.0        -0.0211197372363    -0.0996071275271    0.972536777311      -0.207311825321     0.972536777311      -0.207311825321     -0.0211197372363    -0.0996071275271    
8000000000.0        -0.0216570697865    -0.100796678338     0.971847609308      -0.209886380169     0.971847609308      -0.209886380169     -0.0216570697865    -0.100796678338     
8100000000.0        -0.022200750055     -0.101983188664     0.971150059818      -0.212458591587     0.971150059818      -0.212458591587     -0.022200750055     -0.101983188664     
8200000000.0        -0.022750757897     -0.103166611978     0.970444144551      -0.21502841797      0.970444144551      -0.21502841797      -0.022750757897     -0.103166611978     
8300000000.0        -0.0233070727869    -0.104346901896     0.969729879556      -0.217595817829     0.969729879556      -0.217595817829     -0.0233070727869    -0.104346901896     
8400000000.0        -0.0238696738208    -0.105524012185     0.969007281223      -0.220160749794     0.969007281223      -0.220160749794     -0.0238696738208    -0.105524012185     
8500000000.0        -0.0244385397178    -0.106697896765     0.968276366276      -0.222723172625     0.968276366276      -0.222723172625     -0.0244385397178    -0.106697896765     
8600000000.0        -0.0250136488227    -0.107868509715     0.967537151773      -0.225283045214     0.967537151773      -0.225283045214     -0.0250136488227    -0.107868509715     
8700000000.0        -0.0255949791076    -0.109035805284     0.966789655108      -0.227840326589     0.966789655108      -0.227840326589     -0.0255949791076    -0.109035805284     
8800000000.0        -0.0261825081747    -0.110199737889     0.966033894         -0.230394975925     0.966033894         -0.230394975925     -0.0261825081747    -0.110199737889     
8900000000.0        -0.0267762132578    -0.111360262124     0.965269886499      -0.232946952547     0.965269886499      -0.232946952547     -0.0267762132578    -0.111360262124     
9000000000.0        -0.0273760712255    -0.112517332766     0.964497650979      -0.235496215932     0.964497650979      -0.235496215932     -0.0273760712255    -0.112517332766     
9100000000.0        -0.0279820585828    -0.113670904777     0.963717206136      -0.23804272572      0.963717206136      -0.23804272572      -0.0279820585828    -0.113670904777     
9200000000.0        -0.0285941514741    -0.114820933314     0.962928570988      -0.240586441715     0.962928570988      -0.240586441715     -0.0285941514741    -0.114820933314     
9300000000.0        -0.0292123256852    -0.115967373728     0.962131764871      -0.243127323892     0.962131764871      -0.243127323892     -0.0292123256852    -0.115967373728     
9400000000.0        -0.0298365566465    -0.117110181573     0.961326807433      -0.245665332402     0.961326807433      -0.245665332402     -0.0298365566465    -0.117110181573     
9500000000.0        -0.0304668194347    -0.118249312608     0.96051371864       -0.248200427574     0.96051371864       -0.248200427574     -0.0304668194347    -0.118249312608     
9600000000.0        -0.0311030887765    -0.119384722805     0.959692518763      -0.250732569924     0.959692518763      -0.250732569924     -0.0311030887765    -0.119384722805     
9700000000.0        -0.0317453390502    -0.120516368351     0.958863228382      -0.253261720156     0.958863228382      -0.253261720156     -0.0317453390502    -0.120516368351     
9800000000.0        -0.0323935442895    -0.121644205652     0.958025868383      -0.255787839169     0.958025868383      -0.255787839169     -0.0323935442895    -0.121644205652     
9900000000.0        -0.0330476781854    -0.122768191339     0.957180459952      -0.258310888059     0.957180459952      -0.258310888059     -0.0330476781854    -0.122768191339     
10000000000.0       -0.0337077140898    -0.123888282271     0.956327024574      -0.260830828125     0.956327024574      -0.260830828125     -0.0337077140898    -0.123888282271     
