# Hz S RI R 50.00 
100000000.0         0.0884845299496     0.00390569350981    0.911511813772      -0.00545247891058   0.911511813772      -0.00545247891058   0.0884845299496     0.00390569350981    
200000000.0         0.089084779683      0.00779974112514    0.910906436728      -0.0108933198979    0.910906436728      -0.0108933198979    0.089084779683      0.00779974112514    
300000000.0         0.0895869407961     0.011685927376      0.91039667622       -0.0163263176041    0.91039667622       -0.0163263176041    0.0895869407961     0.011685927376      
400000000.0         0.0900615474714     0.0155651197761     0.909911997227      -0.0217523490797    0.909911997227      -0.0217523490797    0.0900615474714     0.0155651197761     
500000000.0         0.0905357692725     0.0194375089329     0.909425229403      -0.0271716141815    0.909425229403      -0.0271716141815    0.0905357692725     0.0194375089329     
600000000.0         0.0910234406615     0.0233029869788     0.908922537507      -0.0325840141045    0.908922537507      -0.0325840141045    0.0910234406615     0.0233029869788     
700000000.0         0.0915327020028     0.0271612835869     0.90839578038       -0.0379892874491    0.90839578038       -0.0379892874491    0.0915327020028     0.0271612835869     
800000000.0         0.0920687905332     0.0310120291594     0.907839719955      -0.0433870734402    0.907839719955      -0.0433870734402    0.0920687905332     0.0310120291594     
900000000.0         0.092635283958      0.0348547888673     0.907250777653      -0.0487769459869    0.907250777653      -0.0487769459869    0.092635283958      0.0348547888673     
1000000000.0        0.0932347312436     0.0386890829        0.906626403586      -0.054158433947     0.906626403586      -0.054158433947     0.0932347312436     0.0386890829        
1100000000.0        0.0938690035109     0.0425143994157     0.905964725658      -0.059531034087     0.905964725658      -0.059531034087     0.0938690035109     0.0425143994157     
1200000000.0        0.0945395032729     0.0463302032975     0.905264340322      -0.0648942198467    0.905264340322      -0.0648942198467    0.0945395032729     0.0463302032975     
1300000000.0        0.0952472961828     0.0501359423446     0.904524180835      -0.0702474475364    0.904524180835      -0.0702474475364    0.0952472961828     0.0501359423446     
1400000000.0        0.0959931977102     0.0539310518156     0.903743430574      -0.0755901608856    0.903743430574      -0.0755901608856    0.0959931977102     0.0539310518156     
1500000000.0        0.0967778322715     0.0577149578686     0.902921463907      -0.0809217944869    0.902921463907      -0.0809217944869    0.0967778322715     0.0577149578686     
1600000000.0        0.0976016748161     0.0614870802372     0.902057804604      -0.0862417764756    0.902057804604      -0.0862417764756    0.0976016748161     0.0614870802372     
1700000000.0        0.098465080849      0.0652468343626     0.901152095816      -0.0915495306647    0.901152095816      -0.0915495306647    0.098465080849      0.0652468343626     
1800000000.0        0.0993683086008     0.0689936331286     0.900204077901      -0.0968444782821    0.900204077901      -0.0968444782821    0.0993683086008     0.0689936331286     
1900000000.0        0.100311535729      0.0727268882987     0.899213571723      -0.102126039411     0.899213571723      -0.102126039411     0.100311535729      0.0727268882987     
2000000000.0        0.101294872125      0.0764460117285     0.898180465845      -0.107393634201     0.898180465845      -0.107393634201     0.101294872125      0.0764460117285     
2100000000.0        0.102318369893      0.0801504164014     0.897104706551      -0.11264668391      0.897104706551      -0.11264668391      0.102318369893      0.0801504164014     
2200000000.0        0.103382031239      0.083839517327      0.895986289952      -0.117884611802     0.895986289952      -0.117884611802     0.103382031239      0.083839517327      
2300000000.0        0.104485814788      0.0875127323289     0.894825255673      -0.123106843933     0.894825255673      -0.123106843933     0.104485814788      0.0875127323289     
2400000000.0        0.105629640714      0.0911694827426     0.893621681719      -0.128312809857     0.893621681719      -0.128312809857     0.105629640714      0.0911694827426     
2500000000.0        0.106813394949      0.0948091940391     0.89237568027       -0.133501943242     0.89237568027       -0.133501943242     0.106813394949      0.0948091940391     
2600000000.0        0.108036932668      0.098431296388      0.89108739419       -0.138673682443     0.89108739419       -0.138673682443     0.108036932668      0.098431296388      
2700000000.0        0.109300081219      0.102035225168      0.889756994101      -0.143827471005     0.889756994101      -0.143827471005     0.109300081219      0.102035225168      
2800000000.0        0.110602642601      0.105620421431      0.888384675904      -0.148962758138     0.888384675904      -0.148962758138     0.110602642601      0.105620421431      
2900000000.0        0.111944395582      0.109186332335      0.88697065866       -0.154078999136     0.88697065866       -0.154078999136     0.111944395582      0.109186332335      
3000000000.0        0.113325097525      0.112732411531      0.885515182762      -0.159175655781     0.885515182762      -0.159175655781     0.113325097525      0.112732411531      
3100000000.0        0.114744485983      0.116258119536      0.884018508346      -0.164252196704     0.884018508346      -0.164252196704     0.114744485983      0.116258119536      
3200000000.0        0.116202280091      0.119762924065      0.882480913891      -0.169308097722     0.882480913891      -0.169308097722     0.116202280091      0.119762924065      
3300000000.0        0.117698181808      0.123246300346      0.880902694982      -0.174342842159     0.880902694982      -0.174342842159     0.117698181808      0.123246300346      
3400000000.0        0.119231877017      0.126707731419      0.879284163207      -0.179355921133     0.879284163207      -0.179355921133     0.119231877017      0.126707731419      
3500000000.0        0.120803036522      0.130146708401      0.877625645161      -0.184346833835     0.877625645161      -0.184346833835     0.120803036522      0.130146708401      
3600000000.0        0.122411316948      0.133562730746      0.875927481547      -0.189315087779     0.875927481547      -0.189315087779     0.122411316948      0.133562730746      
3700000000.0        0.124056361559      0.136955306483      0.874190026356      -0.194260199044     0.874190026356      -0.194260199044     0.124056361559      0.136955306483      
3800000000.0        0.12573780102       0.140323952432      0.872413646105      -0.199181692497     0.872413646105      -0.199181692497     0.12573780102       0.140323952432      
3900000000.0        0.12745525409       0.14366819442       0.870598719144      -0.204079101997     0.870598719144      -0.204079101997     0.12745525409       0.14366819442       
4000000000.0        0.129208328276      0.146987567466      0.868745635004      -0.208951970588     0.868745635004      -0.208951970588     0.129208328276      0.146987567466      
4100000000.0        0.130996620438      0.150281615963      0.866854793788      -0.21379985068      0.866854793788      -0.21379985068      0.130996620438      0.150281615963      
4200000000.0        0.132819717364      0.153549893843      0.864926605596      -0.218622304217     0.864926605596      -0.218622304217     0.132819717364      0.153549893843      
4300000000.0        0.134677196313      0.156791964733      0.862961489989      -0.223418902826     0.862961489989      -0.223418902826     0.134677196313      0.156791964733      
4400000000.0        0.136568625522      0.160007402093      0.86095987547       -0.228189227962     0.86095987547       -0.228189227962     0.136568625522      0.160007402093      
4500000000.0        0.138493564704      0.163195789348      0.858922198999      -0.232932871038     0.858922198999      -0.232932871038     0.138493564704      0.163195789348      
4600000000.0        0.140451565509      0.166356720006      0.856848905517      -0.237649433543     0.856848905517      -0.237649433543     0.140451565509      0.166356720006      
4700000000.0        0.142442171978      0.169489797768      0.854740447506      -0.242338527152     0.854740447506      -0.242338527152     0.142442171978      0.169489797768      
4800000000.0        0.144464920977      0.172594636621      0.852597284547      -0.24699977382      0.852597284547      -0.24699977382      0.144464920977      0.172594636621      
4900000000.0        0.146519342611      0.175670860931      0.850419882906      -0.251632805875     0.850419882906      -0.251632805875     0.146519342611      0.175670860931      
5000000000.0        0.148604960632      0.178718105515      0.84820871513       -0.256237266089     0.84820871513       -0.256237266089     0.148604960632      0.178718105515      
5100000000.0        0.150721292829      0.181736015711      0.845964259651      -0.26081280775      0.845964259651      -0.26081280775      0.150721292829      0.181736015711      
5200000000.0        0.152867851408      0.184724247434      0.84368700041       -0.265359094718     0.84368700041       -0.265359094718     0.152867851408      0.184724247434      
5300000000.0        0.155044143365      0.187682467228      0.841377426484      -0.269875801475     0.841377426484      -0.269875801475     0.155044143365      0.187682467228      
5400000000.0        0.157249670844      0.190610352302      0.839036031724      -0.274362613164     0.839036031724      -0.274362613164     0.157249670844      0.190610352302      
5500000000.0        0.159483931493      0.193507590564      0.836663314405      -0.27881922562      0.836663314405      -0.27881922562      0.159483931493      0.193507590564      
5600000000.0        0.1617464188        0.196373880641      0.834259776882      -0.283245345394     0.834259776882      -0.283245345394     0.1617464188        0.196373880641      
5700000000.0        0.164036622435      0.199208931894      0.831825925254      -0.287640689766     0.831825925254      -0.287640689766     0.164036622435      0.199208931894      
5800000000.0        0.166354028574      0.202012464424      0.829362269037      -0.292004986749     0.829362269037      -0.292004986749     0.166354028574      0.202012464424      
5900000000.0        0.168698120222      0.204784209068      0.826869320843      -0.29633797509      0.826869320843      -0.29633797509      0.168698120222      0.204784209068      
6000000000.0        0.171068377522      0.207523907392      0.824347596067      -0.30063940426      0.824347596067      -0.30063940426      0.171068377522      0.207523907392      
6100000000.0        0.173464278065      0.210231311673      0.821797612579      -0.304909034434     0.821797612579      -0.304909034434     0.173464278065      0.210231311673      
6200000000.0        0.175885297192      0.212906184871      0.819219890426      -0.30914663647      0.819219890426      -0.30914663647      0.175885297192      0.212906184871      
6300000000.0        0.178330908281      0.215548300601      0.816614951534      -0.313351991873     0.816614951534      -0.313351991873     0.178330908281      0.215548300601      
6400000000.0        0.180800583039      0.218157443093      0.813983319427      -0.31752489276      0.813983319427      -0.31752489276      0.180800583039      0.218157443093      
6500000000.0        0.183293791784      0.220733407145      0.81132551894       -0.321665141815     0.81132551894       -0.321665141815     0.183293791784      0.220733407145      
6600000000.0        0.185810003715      0.223275998074      0.808642075945      -0.325772552231     0.808642075945      -0.325772552231     0.185810003715      0.223275998074      
6700000000.0        0.188348687186      0.225785031654      0.805933517084      -0.329846947661     0.805933517084      -0.329846947661     0.188348687186      0.225785031654      
6800000000.0        0.190909309966      0.228260334055      0.803200369506      -0.333888162145     0.803200369506      -0.333888162145     0.190909309966      0.228260334055      
6900000000.0        0.193491339497      0.230701741772      0.800443160605      -0.337896040046     0.800443160605      -0.337896040046     0.193491339497      0.230701741772      
7000000000.0        0.196094243146      0.233109101545      0.797662417774      -0.34187043597      0.797662417774      -0.34187043597      0.196094243146      0.233109101545      
7100000000.0        0.198717488445      0.235482270283      0.794858668158      -0.345811214686     0.794858668158      -0.345811214686     0.198717488445      0.235482270283      
7200000000.0        0.20136054334       0.237821114976      0.792032438412      -0.349718251043     0.792032438412      -0.349718251043     0.20136054334       0.237821114976      
7300000000.0        0.204022876416      0.240125512601      0.78918425447       -0.353591429871     0.78918425447       -0.353591429871     0.204022876416      0.240125512601      
7400000000.0        0.206703957129      0.242395350026      0.786314641316      -0.357430645889     0.786314641316      -0.357430645889     0.206703957129      0.242395350026      
7500000000.0        0.209403256024      0.24463052391       0.783424122761      -0.361235803604     0.783424122761      -0.361235803604     0.209403256024      0.24463052391       
7600000000.0        0.212120244959      0.246830940596      0.780513221227      -0.365006817203     0.780513221227      -0.365006817203     0.212120244959      0.246830940596      
7700000000.0        0.214854397306      0.248996516002      0.777582457539      -0.368743610446     0.777582457539      -0.368743610446     0.214854397306      0.248996516002      
7800000000.0        0.217605188162      0.251127175505      0.774632350715      -0.372446116548     0.774632350715      -0.372446116548     0.217605188162      0.251127175505      
7900000000.0        0.220372094545      0.253222853826      0.77166341777       -0.376114278064     0.77166341777       -0.376114278064     0.220372094545      0.253222853826      
8000000000.0        0.223154595589      0.255283494905      0.768676173523      -0.379748046767     0.768676173523      -0.379748046767     0.223154595589      0.255283494905      
8100000000.0        0.225952172728      0.257309051777      0.765671130409      -0.38334738352      0.765671130409      -0.38334738352      0.225952172728      0.257309051777      
8200000000.0        0.228764309883      0.259299486447      0.762648798294      -0.386912258154     0.762648798294      -0.386912258154     0.228764309883      0.259299486447      
8300000000.0        0.231590493631      0.261254769753      0.759609684303      -0.39044264933      0.759609684303      -0.39044264933      0.231590493631      0.261254769753      
8400000000.0        0.234430213384      0.263174881235      0.756554292649      -0.393938544409     0.756554292649      -0.393938544409     0.234430213384      0.263174881235      
8500000000.0        0.237282961544      0.265059808998      0.753483124464      -0.39739993931      0.753483124464      -0.39739993931      0.237282961544      0.265059808998      
8600000000.0        0.24014823367       0.266909549571      0.750396677644      -0.400826838379     0.750396677644      -0.400826838379     0.24014823367       0.266909549571      
8700000000.0        0.243025528626      0.268724107767      0.747295446693      -0.404219254239     0.747295446693      -0.404219254239     0.243025528626      0.268724107767      
8800000000.0        0.245914348732      0.270503496536      0.744179922575      -0.407577207649     0.744179922575      -0.407577207649     0.245914348732      0.270503496536      
8900000000.0        0.248814199907      0.272247736824      0.741050592574      -0.410900727358     0.741050592574      -0.410900727358     0.248814199907      0.272247736824      
9000000000.0        0.2517245918        0.273956857419      0.737907940153      -0.41418984996      0.737907940153      -0.41418984996      0.2517245918        0.273956857419      
9100000000.0        0.254645037929      0.275630894807      0.734752444823      -0.417444619738     0.734752444823      -0.417444619738     0.254645037929      0.275630894807      
9200000000.0        0.257575055801      0.277269893018      0.731584582021      -0.42066508852      0.731584582021      -0.42066508852      0.257575055801      0.277269893018      
9300000000.0        0.260514167037      0.278873903475      0.728404822981      -0.423851315523     0.728404822981      -0.423851315523     0.260514167037      0.278873903475      
9400000000.0        0.263461897485      0.280442984841      0.725213634628      -0.427003367201     0.725213634628      -0.427003367201     0.263461897485      0.280442984841      
9500000000.0        0.266417777328      0.281977202863      0.722011479459      -0.43012131709      0.722011479459      -0.43012131709      0.266417777328      0.281977202863      
9600000000.0        0.269381341195      0.283476630221      0.718798815442      -0.433205245654     0.718798815442      -0.433205245654     0.269381341195      0.283476630221      
9700000000.0        0.272352128253      0.284941346367      0.715576095917      -0.436255240127     0.715576095917      -0.436255240127     0.272352128253      0.284941346367      
9800000000.0        0.275329682309      0.286371437372      0.712343769497      -0.439271394361     0.712343769497      -0.439271394361     0.275329682309      0.286371437372      
9900000000.0        0.278313551895      0.287766995769      0.709102279982      -0.442253808665     0.709102279982      -0.442253808665     0.278313551895      0.287766995769      
10000000000.0       0.281303290353      0.289128120395      0.705852066269      -0.44520258965      0.705852066269      -0.44520258965      0.281303290353      0.289128120395      
