# Hz S RI R 50.00 
100000000.0         0.0177866877832     0.00266786365669    0.982208321788      -0.00469967477452   0.982208321788      -0.00469967477452   0.0177866877832     0.00266786365669    
200000000.0         0.0179399574924     0.00533371222061    0.982046908022      -0.00939734614202   0.982046908022      -0.00939734614202   0.0179399574924     0.00533371222061    
300000000.0         0.0180877527096     0.0079979644138     0.981886814553      -0.0140934443313    0.981886814553      -0.0140934443313    0.0180877527096     0.0079979644138     
400000000.0         0.0182452680436     0.0106605812499     0.981712846168      -0.0187879399336    0.981712846168      -0.0187879399336    0.0182452680436     0.0106605812499     
500000000.0         0.0184183488622     0.0133214176529     0.981519156818      -0.0234806964806    0.981519156818      -0.0234806964806    0.0184183488622     0.0133214176529     
600000000.0         0.0186099669618     0.0159802818283     0.981302773934      -0.0281715301519    0.981302773934      -0.0281715301519    0.0186099669618     0.0159802818283     
700000000.0         0.0188218673506     0.0186369566023     0.981061951645      -0.0328602312852    0.981061951645      -0.0328602312852    0.0188218673506     0.0186369566023     
800000000.0         0.0190551694515     0.0212912093383     0.980795569568      -0.037546574396     0.980795569568      -0.037546574396     0.0190551694515     0.0212912093383     
900000000.0         0.0193106348579     0.0239427972842     0.980502865056      -0.0422303235911    0.980502865056      -0.0422303235911    0.0193106348579     0.0239427972842     
1000000000.0        0.0195888030877     0.0265914707568     0.980183297439      -0.0469112358013    0.980183297439      -0.0469112358013    0.0195888030877     0.0265914707568     
1100000000.0        0.0198900670644     0.029236975184      0.979836472547      -0.0515890628576    0.979836472547      -0.0515890628576    0.0198900670644     0.029236975184      
1200000000.0        0.0202147181075     0.0318790524886     0.979462097718      -0.0562635529019    0.979462097718      -0.0562635529019    0.0202147181075     0.0318790524886     
1300000000.0        0.0205629742459     0.0345174420711     0.979059953484      -0.0609344513907    0.979059953484      -0.0609344513907    0.0205629742459     0.0345174420711     
1400000000.0        0.0209349988367     0.0371518815348     0.978629874958      -0.0656015018365    0.978629874958      -0.0656015018365    0.0209349988367     0.0371518815348     
1500000000.0        0.0213309132582     0.0397821072378     0.978171739133      -0.0702644463736    0.978171739133      -0.0702644463736    0.0213309132582     0.0397821072378     
1600000000.0        0.0217508058313     0.0424078547259     0.977685455969      -0.0749230262023    0.977685455969      -0.0749230262023    0.0217508058313     0.0424078547259     
1700000000.0        0.0221947382549     0.0450288590808     0.977170961951      -0.0795769819467    0.977170961951      -0.0795769819467    0.0221947382549     0.0450288590808     
1800000000.0        0.0226627503532     0.0476448552056     0.976628215349      -0.0842260539483    0.976628215349      -0.0842260539483    0.0226627503532     0.0476448552056     
1900000000.0        0.0231548636475     0.0502555780653     0.976057192642      -0.0888699825133    0.976057192642      -0.0888699825133    0.0231548636475     0.0502555780653     
2000000000.0        0.0236710840923     0.0528607628913     0.975457885783      -0.0935085081231    0.975457885783      -0.0935085081231    0.0236710840923     0.0528607628913     
2100000000.0        0.0242114042017     0.0554601453587     0.974830300075      -0.0981413716173    0.974830300075      -0.0981413716173    0.0242114042017     0.0554601453587     
2200000000.0        0.0247758047285     0.0580534617433     0.974174452489      -0.102768314355     0.974174452489      -0.102768314355     0.0247758047285     0.0580534617433     
2300000000.0        0.0253642560055     0.0606404490605     0.973490370326      -0.107389078358     0.973490370326      -0.107389078358     0.0253642560055     0.0606404490605     
2400000000.0        0.02597671903       0.0632208451914     0.972778090133      -0.11200340644      0.972778090133      -0.11200340644      0.02597671903       0.0632208451914     
2500000000.0        0.0266131463517     0.065794388997      0.972037656811      -0.116611042326     0.972037656811      -0.116611042326     0.0266131463517     0.065794388997      
2600000000.0        0.0272734828055     0.0683608204239     0.971269122888      -0.121211730757     0.971269122888      -0.121211730757     0.0272734828055     0.0683608204239     
2700000000.0        0.027957666124      0.0709198806014     0.970472547905      -0.125805217595     0.970472547905      -0.125805217595     0.027957666124      0.0709198806014     
2800000000.0        0.0286656274525     0.0734713119326     0.969647997899      -0.130391249911     0.969647997899      -0.130391249911     0.0286656274525     0.0734713119326     
2900000000.0        0.0293972917882     0.0760148581801     0.968795544967      -0.134969576078     0.968795544967      -0.134969576078     0.0293972917882     0.0760148581801     
3000000000.0        0.0301525783553     0.078550264546      0.967915266888      -0.139539945849     0.967915266888      -0.139539945849     0.0301525783553     0.078550264546      
3100000000.0        0.0309314009306     0.0810772777483     0.967007246802      -0.144102110439     0.967007246802      -0.144102110439     0.0309314009306     0.0810772777483     
3200000000.0        0.0317336681267     0.0835956460937     0.966071572923      -0.148655822595     0.966071572923      -0.148655822595     0.0317336681267     0.0835956460937     
3300000000.0        0.0325592836413     0.0861051195464     0.965108338293      -0.153200836669     0.965108338293      -0.153200836669     0.0325592836413     0.0861051195464     
3400000000.0        0.0334081464776     0.0886054497946     0.964117640559      -0.157736908687     0.964117640559      -0.157736908687     0.0334081464776     0.0886054497946     
3500000000.0        0.0342801511415     0.0910963903137     0.963099581778      -0.162263796411     0.963099581778      -0.162263796411     0.0342801511415     0.0910963903137     
3600000000.0        0.0351751878184     0.0935776964277     0.962054268238      -0.166781259402     0.962054268238      -0.166781259402     0.0351751878184     0.0935776964277     
3700000000.0        0.0360931425341     0.0960491253672     0.960981810302      -0.171289059082     0.960981810302      -0.171289059082     0.0360931425341     0.0960491253672     
3800000000.0        0.0370338973005     0.0985104363269     0.959882322256      -0.175786958787     0.959882322256      -0.175786958787     0.0370338973005     0.0985104363269     
3900000000.0        0.0379973302504     0.100961390519      0.95875592218       -0.180274723829     0.95875592218       -0.180274723829     0.0379973302504     0.100961390519      
4000000000.0        0.0389833157616     0.103401751228      0.957602731822      -0.184752121541     0.957602731822      -0.184752121541     0.0389833157616     0.103401751228      
4100000000.0        0.0399917245721     0.105831283857      0.95642287648       -0.189218921339     0.95642287648       -0.189218921339     0.0399917245721     0.105831283857      
4200000000.0        0.0410224238887     0.108249755984      0.9552164849        -0.193674894761     0.9552164849        -0.193674894761     0.0410224238887     0.108249755984      
4300000000.0        0.0420752774884     0.110656937403      0.953983689167      -0.198119815526     0.953983689167      -0.198119815526     0.0420752774884     0.110656937403      
4400000000.0        0.0431501458145     0.113052600172      0.952724624616      -0.20255345957      0.952724624616      -0.20255345957      0.0431501458145     0.113052600172      
4500000000.0        0.0442468860685     0.11543651866       0.951439429735      -0.206975605101     0.951439429735      -0.206975605101     0.0442468860685     0.11543651866       
4600000000.0        0.0453653522971     0.117808469586      0.950128246082      -0.211386032636     0.950128246082      -0.211386032636     0.0453653522971     0.117808469586      
4700000000.0        0.0465053954761     0.120168232064      0.948791218198      -0.215784525044     0.948791218198      -0.215784525044     0.0465053954761     0.120168232064      
4800000000.0        0.0476668635915     0.122515587639      0.947428493528      -0.22017086759      0.947428493528      -0.22017086759      0.0476668635915     0.122515587639      
4900000000.0        0.048849601717      0.124850320331      0.946040222342      -0.22454484797      0.946040222342      -0.22454484797      0.048849601717      0.124850320331      
5000000000.0        0.0500534520903     0.127172216669      0.94462655766       -0.228906256351     0.94462655766       -0.228906256351     0.0500534520903     0.127172216669      
5100000000.0        0.0512782541863     0.129481065726      0.94318765518       -0.233254885407     0.94318765518       -0.233254885407     0.0512782541863     0.129481065726      
5200000000.0        0.0525238447891     0.131776659157      0.941723673203      -0.237590530355     0.941723673203      -0.237590530355     0.0525238447891     0.131776659157      
5300000000.0        0.0537900580623     0.134058791231      0.940234772563      -0.241912988986     0.940234772563      -0.241912988986     0.0537900580623     0.134058791231      
5400000000.0        0.0550767256179     0.136327258861      0.938721116563      -0.2462220617       0.938721116563      -0.2462220617       0.0550767256179     0.136327258861      
5500000000.0        0.0563836765839     0.13858186164       0.937182870901      -0.250517551539     0.937182870901      -0.250517551539     0.0563836765839     0.13858186164       
5600000000.0        0.0577107376707     0.140822401864      0.935620203606      -0.254799264211     0.935620203606      -0.254799264211     0.0577107376707     0.140822401864      
5700000000.0        0.059057733237      0.143048684566      0.934033284975      -0.259067008123     0.934033284975      -0.259067008123     0.059057733237      0.143048684566      
5800000000.0        0.0604244853541     0.14526051754       0.932422287504      -0.263320594408     0.932422287504      -0.263320594408     0.0604244853541     0.14526051754       
5900000000.0        0.0618108138698     0.14745771137       0.930787385827      -0.26755983695      0.930787385827      -0.26755983695      0.0618108138698     0.14745771137       
6000000000.0        0.063216536472      0.149640079449      0.929128756653      -0.271784552408     0.929128756653      -0.271784552408     0.063216536472      0.149640079449      
6100000000.0        0.0646414687508     0.15180743801       0.927446578701      -0.275994560245     0.927446578701      -0.275994560245     0.0646414687508     0.15180743801       
6200000000.0        0.0660854242605     0.15395960614       0.925741032639      -0.280189682741     0.925741032639      -0.280189682741     0.0660854242605     0.15395960614       
6300000000.0        0.0675482145812     0.156096405808      0.924012301026      -0.284369745023     0.924012301026      -0.284369745023     0.0675482145812     0.156096405808      
6400000000.0        0.0690296493793     0.158217661884      0.922260568244      -0.288534575081     0.922260568244      -0.288534575081     0.0690296493793     0.158217661884      
6500000000.0        0.0705295364685     0.160323202152      0.920486020445      -0.292684003788     0.920486020445      -0.292684003788     0.0705295364685     0.160323202152      
6600000000.0        0.0720476818691     0.162412857334      0.918688845488      -0.296817864916     0.918688845488      -0.296817864916     0.0720476818691     0.162412857334      
6700000000.0        0.0735838898679     0.164486461105      0.916869232875      -0.300935995154     0.916869232875      -0.300935995154     0.0735838898679     0.164486461105      
6800000000.0        0.0751379630773     0.166543850106      0.915027373701      -0.305038234123     0.915027373701      -0.305038234123     0.0751379630773     0.166543850106      
6900000000.0        0.0767097024938     0.168584863959      0.913163460588      -0.309124424391     0.913163460588      -0.309124424391     0.0767097024938     0.168584863959      
7000000000.0        0.0782989075567     0.170609345282      0.911277687627      -0.313194411484     0.911277687627      -0.313194411484     0.0782989075567     0.170609345282      
7100000000.0        0.0799053762059     0.172617139699      0.909370250325      -0.317248043901     0.909370250325      -0.317248043901     0.0799053762059     0.172617139699      
7200000000.0        0.0815289049393     0.174608095851      0.907441345543      -0.321285173121     0.907441345543      -0.321285173121     0.0815289049393     0.174608095851      
7300000000.0        0.0831692888702     0.176582065406      0.905491171438      -0.325305653616     0.905491171438      -0.325305653616     0.0831692888702     0.176582065406      
7400000000.0        0.0848263217844     0.178538903068      0.90351992741       -0.329309342859     0.90351992741       -0.329309342859     0.0848263217844     0.178538903068      
7500000000.0        0.0864997961961     0.180478466583      0.901527814043      -0.333296101328     0.901527814043      -0.333296101328     0.0864997961961     0.180478466583      
7600000000.0        0.0881895034047     0.182400616748      0.899515033047      -0.337265792519     0.899515033047      -0.337265792519     0.0881895034047     0.182400616748      
7700000000.0        0.0898952335499     0.184305217415      0.897481787208      -0.341218282944     0.897481787208      -0.341218282944     0.0898952335499     0.184305217415      
7800000000.0        0.0916167756675     0.186192135493      0.895428280325      -0.345153442143     0.895428280325      -0.345153442143     0.0916167756675     0.186192135493      
7900000000.0        0.0933539177443     0.188061240958      0.893354717161      -0.34907114268      0.893354717161      -0.34907114268      0.0933539177443     0.188061240958      
8000000000.0        0.0951064467723     0.189912406847      0.891261303385      -0.35297126015      0.891261303385      -0.35297126015      0.0951064467723     0.189912406847      
8100000000.0        0.0968741488036     0.191745509266      0.889148245518      -0.356853673179     0.889148245518      -0.356853673179     0.0968741488036     0.191745509266      
8200000000.0        0.0986568090033     0.193560427387      0.887015750883      -0.360718263424     0.887015750883      -0.360718263424     0.0986568090033     0.193560427387      
8300000000.0        0.100454211703      0.195357043447      0.884864027545      -0.364564915572     0.884864027545      -0.364564915572     0.100454211703      0.195357043447      
8400000000.0        0.102266140456      0.197135242749      0.882693284262      -0.368393517339     0.882693284262      -0.368393517339     0.102266140456      0.197135242749      
8500000000.0        0.104092378084      0.198894913659      0.880503730433      -0.372203959466     0.880503730433      -0.372203959466     0.104092378084      0.198894913659      
8600000000.0        0.105932706737      0.200635947597      0.878295576044      -0.375996135719     0.878295576044      -0.375996135719     0.105932706737      0.200635947597      
8700000000.0        0.107786907937      0.202358239043      0.876069031617      -0.37976994288      0.876069031617      -0.37976994288      0.107786907937      0.202358239043      
8800000000.0        0.109654762635      0.204061685521      0.873824308158      -0.383525280743     0.873824308158      -0.383525280743     0.109654762635      0.204061685521      
8900000000.0        0.11153605126       0.205746187599      0.871561617107      -0.387262052108     0.871561617107      -0.387262052108     0.11153605126       0.205746187599      
9000000000.0        0.113430553766      0.207411648881      0.869281170289      -0.390980162775     0.869281170289      -0.390980162775     0.113430553766      0.207411648881      
9100000000.0        0.115338049687      0.209057975997      0.866983179861      -0.394679521535     0.866983179861      -0.394679521535     0.115338049687      0.209057975997      
9200000000.0        0.117258318181      0.210685078598      0.864667858266      -0.398360040159     0.864667858266      -0.398360040159     0.117258318181      0.210685078598      
9300000000.0        0.119191138083      0.212292869342      0.862335418183      -0.402021633391     0.862335418183      -0.402021633391     0.119191138083      0.212292869342      
9400000000.0        0.121136287947      0.213881263885      0.859986072476      -0.405664218936     0.859986072476      -0.405664218936     0.121136287947      0.213881263885      
9500000000.0        0.123093546103      0.215450180871      0.857620034152      -0.409287717448     0.857620034152      -0.409287717448     0.123093546103      0.215450180871      
9600000000.0        0.125062690694      0.216999541921      0.85523751631       -0.41289205252      0.85523751631       -0.41289205252      0.125062690694      0.216999541921      
9700000000.0        0.127043499729      0.218529271614      0.852838732094      -0.416477150669     0.852838732094      -0.416477150669     0.127043499729      0.218529271614      
9800000000.0        0.129035751126      0.220039297482      0.850423894649      -0.420042941322     0.850423894649      -0.420042941322     0.129035751126      0.220039297482      
9900000000.0        0.131039222756      0.221529549988      0.847993217076      -0.423589356804     0.847993217076      -0.423589356804     0.131039222756      0.221529549988      
10000000000.0       0.133053692494      0.222999962518      0.845546912383      -0.427116332319     0.845546912383      -0.427116332319     0.133053692494      0.222999962518      
