# Hz S RI R 50.00 
100000000.0         2.32146789052e-05   -0.00236789971768   0.999958227251      -0.00265995588465   0.999958227251      -0.00265995588465   2.32146789054e-05   -0.00236789971768   
200000000.0         2.07858324286e-06   -0.00473585686139   0.999936522483      -0.00531999420387   0.999936522483      -0.00531999420387   2.07858324308e-06   -0.00473585686139   
300000000.0         -3.17152506996e-05  -0.00710386555264   0.99990218722       -0.00798012215643   0.99990218722       -0.00798012215643   -3.17152506996e-05  -0.00710386555264   
400000000.0         -7.81419943253e-05  -0.00947189771323   0.999855190258      -0.0106403216803    0.999855190258      -0.0106403216803    -7.81419943255e-05  -0.00947189771323   
500000000.0         -0.000137194235894  -0.0118399135613    0.999795517477      -0.0133005614718    0.999795517477      -0.0133005614718    -0.000137194235894  -0.0118399135613    
600000000.0         -0.000208869823398  -0.0142078653565    0.999723160055      -0.0159608012576    0.999723160055      -0.0159608012576    -0.000208869823398  -0.0142078653565    
700000000.0         -0.000293168690989  -0.0165756993396    0.999638111567      -0.0186209940023    0.999638111567      -0.0186209940023    -0.000293168690989  -0.0165756993396    
800000000.0         -0.000390091645088  -0.0189433569176    0.999540366987      -0.0212810872543    0.999540366987      -0.0212810872543    -0.000390091645089  -0.0189433569176    
900000000.0         -0.000499639783875  -0.0213107754592    0.999429922285      -0.0239410240467    0.999429922285      -0.0239410240467    -0.000499639783875  -0.0213107754592    
1000000000.0        -0.000621814173084  -0.0236778888711    0.999306774252      -0.0266007435494    0.999306774252      -0.0266007435494    -0.000621814173084  -0.0236778888711    
1100000000.0        -0.000756615642406  -0.0260446280328    0.99917092043       -0.0292601815589    0.99917092043       -0.0292601815589    -0.000756615642406  -0.0260446280328    
1200000000.0        -0.000904044645586  -0.0284109211395    0.999022359088      -0.0319192708838    0.999022359088      -0.0319192708838    -0.000904044645586  -0.0284109211395    
1300000000.0        -0.00106410115728   -0.0307766939807    0.99886108922       -0.0345779416577    0.99886108922       -0.0345779416577    -0.00106410115728   -0.0307766939807    
1400000000.0        -0.00123678459285   -0.0331418701728    0.99868711056       -0.0372361215988    0.99868711056       -0.0372361215988    -0.00123678459285   -0.0331418701728    
1500000000.0        -0.00142209374341   -0.0355063713566    0.998500423598      -0.0398937362304    0.998500423598      -0.0398937362304    -0.00142209374341   -0.0355063713566    
1600000000.0        -0.00162002672139   -0.0378701173674    0.998301029608      -0.0425507090704    0.998301029608      -0.0425507090704    -0.00162002672139   -0.0378701173674    
1700000000.0        -0.00183058091419   -0.0402330263867    0.998088930663      -0.0452069617987    0.998088930663      -0.0452069617987    -0.00183058091419   -0.0402330263867    
1800000000.0        -0.00205375294365   -0.0425950150749    0.997864129668      -0.0478624144045    0.997864129668      -0.0478624144045    -0.00205375294365   -0.0425950150749    
1900000000.0        -0.0022895386304    -0.044955998692     0.997626630375      -0.0505169853193    0.997626630375      -0.0505169853193    -0.0022895386304    -0.044955998692     
2000000000.0        -0.00253793296218   -0.047315891207     0.997376437411      -0.0531705915371    0.997376437411      -0.0531705915371    -0.00253793296218   -0.047315891207     
2100000000.0        -0.00279893006534   -0.0496746053978    0.997113556294      -0.0558231487242    0.997113556294      -0.0558231487242    -0.00279893006534   -0.0496746053978    
2200000000.0        -0.0030725231793    -0.0520320529439    0.996837993458      -0.0584745713203    0.996837993458      -0.0584745713203    -0.0030725231793    -0.0520320529439    
2300000000.0        -0.00335870463341   -0.0543881445119    0.996549756266      -0.0611247726322    0.996549756266      -0.0611247726322    -0.00335870463341   -0.0543881445119    
2400000000.0        -0.00365746582603   -0.0567427898354    0.996248853032      -0.0637736649207    0.996248853032      -0.0637736649207    -0.00365746582603   -0.0567427898354    
2500000000.0        -0.00396879720564   -0.0590958977905    0.995935293034      -0.0664211594821    0.995935293034      -0.0664211594821    -0.00396879720564   -0.0590958977905    
2600000000.0        -0.0042926882537    -0.0614473764662    0.995609086532      -0.0690671667254    0.995609086532      -0.0690671667254    -0.0042926882537    -0.0614473764662    
2700000000.0        -0.00462912746914   -0.0637971332306    0.995270244775      -0.0717115962435    0.995270244775      -0.0717115962435    -0.00462912746914   -0.0637971332306    
2800000000.0        -0.00497810235447   -0.0661450747954    0.994918780021      -0.0743543568827    0.994918780021      -0.0743543568827    -0.00497810235447   -0.0661450747954    
2900000000.0        -0.00533959940324   -0.0684911072751    0.994554705544      -0.0769953568068    0.994554705544      -0.0769953568068    -0.00533959940324   -0.0684911072751    
3000000000.0        -0.00571360408879   -0.0708351362449    0.994178035645      -0.0796345035591    0.994178035645      -0.0796345035591    -0.00571360408879   -0.0708351362449    
3100000000.0        -0.00610010085436   -0.0731770667956    0.993788785659      -0.0822717041217    0.993788785659      -0.0822717041217    -0.00610010085436   -0.0731770667956    
3200000000.0        -0.00649907310425   -0.0755168035856    0.993386971967      -0.0849068649711    0.993386971967      -0.0849068649711    -0.00649907310425   -0.0755168035856    
3300000000.0        -0.00691050319616   -0.0778542508919    0.992972612001      -0.0875398921328    0.992972612001      -0.0875398921328    -0.00691050319616   -0.0778542508919    
3400000000.0        -0.00733437243452   -0.0801893126582    0.992545724247      -0.0901706912325    0.992545724247      -0.0901706912325    -0.00733437243452   -0.0801893126582    
3500000000.0        -0.00777066106491   -0.0825218925414    0.992106328256      -0.0927991675462    0.992106328256      -0.0927991675462    -0.00777066106491   -0.0825218925414    
3600000000.0        -0.00821934826927   -0.0848518939565    0.991654444644      -0.0954252260478    0.991654444644      -0.0954252260478    -0.00821934826927   -0.0848518939565    
3700000000.0        -0.00868041216217   -0.08717922012      0.991190095098      -0.098048771455     0.991190095098      -0.098048771455     -0.00868041216217   -0.08717922012      
3800000000.0        -0.00915382978781   -0.0895037740912    0.990713302374      -0.100669708274     0.990713302374      -0.100669708274     -0.00915382978781   -0.0895037740912    
3900000000.0        -0.00963957711794   -0.0918254588132    0.990224090307      -0.103287940842     0.990224090307      -0.103287940842     -0.00963957711794   -0.0918254588132    
4000000000.0        -0.0101376290505    -0.0941441771511    0.989722483803      -0.105903373369     0.989722483803      -0.105903373369     -0.0101376290505    -0.0941441771511    
4100000000.0        -0.010647959409     -0.0964598319303    0.989208508847      -0.108515909977     0.989208508847      -0.108515909977     -0.010647959409     -0.0964598319303    
4200000000.0        -0.0111705409426    -0.0987723259728    0.988682192497      -0.111125454739     0.988682192497      -0.111125454739     -0.0111705409426    -0.0987723259728    
4300000000.0        -0.0117053453272    -0.101081562132     0.988143562887      -0.113731911717     0.988143562887      -0.113731911717     -0.0117053453272    -0.101081562132     
4400000000.0        -0.0122523431663    -0.103387443329     0.987592649224      -0.116335184997     0.987592649224      -0.116335184997     -0.0122523431663    -0.103387443329     
4500000000.0        -0.0128115039939    -0.105689872583     0.987029481783      -0.118935178726     0.987029481783      -0.118935178726     -0.0128115039939    -0.105689872583     
4600000000.0        -0.0133827962766    -0.107988753046     0.98645409191       -0.121531797142     0.98645409191       -0.121531797142     -0.0133827962766    -0.107988753046     
4700000000.0        -0.0139661874169    -0.110283988031     0.985866512014      -0.124124944613     0.985866512014      -0.124124944613     -0.0139661874169    -0.110283988031     
4800000000.0        -0.0145616437575    -0.112575481046     0.985266775564      -0.126714525662     0.985266775564      -0.126714525662     -0.0145616437575    -0.112575481046     
4900000000.0        -0.0151691305853    -0.114863135822     0.984654917087      -0.129300445004     0.984654917087      -0.129300445004     -0.0151691305853    -0.114863135822     
5000000000.0        -0.0157886121363    -0.11714685634      0.984030972158      -0.131882607573     0.984030972158      -0.131882607573     -0.0157886121363    -0.11714685634      
5100000000.0        -0.0164200516011    -0.119426546862     0.9833949774        -0.134460918551     0.9833949774        -0.134460918551     -0.0164200516011    -0.119426546862     
5200000000.0        -0.0170634111308    -0.121702111953     0.982746970475      -0.137035283398     0.982746970475      -0.137035283398     -0.0170634111308    -0.121702111953     
5300000000.0        -0.0177186518432    -0.123973456514     0.982086990079      -0.139605607876     0.982086990079      -0.139605607876     -0.0177186518432    -0.123973456514     
5400000000.0        -0.0183857338296    -0.1262404858       0.981415075933      -0.14217179808      0.981415075933      -0.14217179808      -0.0183857338296    -0.1262404858       
5500000000.0        -0.019064616162     -0.128503105452     0.980731268779      -0.144733760462     0.980731268779      -0.144733760462     -0.019064616162     -0.128503105452     
5600000000.0        -0.0197552569006    -0.130761221515     0.98003561037       -0.147291401854     0.98003561037       -0.147291401854     -0.0197552569006    -0.130761221515     
5700000000.0        -0.020457613102     -0.133014740463     0.979328143462      -0.149844629497     0.979328143462      -0.149844629497     -0.020457613102     -0.133014740463     
5800000000.0        -0.021171640827     -0.135263569226     0.978608911808      -0.152393351058     0.978608911808      -0.152393351058     -0.021171640827     -0.135263569226     
5900000000.0        -0.02189729515      -0.137507615204     0.977877960147      -0.154937474662     0.977877960147      -0.154937474662     -0.02189729515      -0.137507615204     
6000000000.0        -0.0226345301676    -0.139746786295     0.977135334194      -0.157476908903     0.977135334194      -0.157476908903     -0.0226345301676    -0.139746786295     
6100000000.0        -0.0233832990078    -0.141980990913     0.976381080635      -0.160011562877     0.976381080635      -0.160011562877     -0.0233832990078    -0.141980990913     
6200000000.0        -0.0241435538401    -0.144210138009     0.975615247112      -0.162541346195     0.975615247112      -0.162541346195     -0.0241435538401    -0.144210138009     
6300000000.0        -0.0249152458854    -0.146434137089     0.974837882217      -0.165066169006     0.974837882217      -0.165066169006     -0.0249152458854    -0.146434137089     
6400000000.0        -0.0256983254258    -0.148652898234     0.97404903548       -0.167585942017     0.97404903548       -0.167585942017     -0.0256983254258    -0.148652898234     
6500000000.0        -0.0264927418159    -0.150866332119     0.973248757359      -0.170100576512     0.973248757359      -0.170100576512     -0.0264927418159    -0.150866332119     
6600000000.0        -0.0272984434928    -0.153074350029     0.972437099228      -0.172609984369     0.972437099228      -0.172609984369     -0.0272984434928    -0.153074350029     
6700000000.0        -0.0281153779876    -0.155276863879     0.971614113367      -0.175114078082     0.971614113367      -0.175114078082     -0.0281153779876    -0.155276863879     
6800000000.0        -0.0289434919368    -0.157473786228     0.970779852952      -0.177612770772     0.970779852952      -0.177612770772     -0.0289434919368    -0.157473786228     
6900000000.0        -0.0297827310935    -0.159665030298     0.96993437204       -0.180105976212     0.96993437204       -0.180105976212     -0.0297827310935    -0.159665030298     
7000000000.0        -0.0306330403392    -0.161850509985     0.969077725561      -0.182593608834     0.969077725561      -0.182593608834     -0.0306330403392    -0.161850509985     
7100000000.0        -0.0314943636958    -0.164030139881     0.968209969303      -0.185075583752     0.968209969303      -0.185075583752     -0.0314943636958    -0.164030139881     
7200000000.0        -0.0323666443379    -0.166203835283     0.967331159901      -0.187551816777     0.967331159901      -0.187551816777     -0.0323666443379    -0.166203835283     
7300000000.0        -0.0332498246047    -0.16837151221      0.966441354827      -0.190022224425     0.966441354827      -0.190022224425     -0.0332498246047    -0.16837151221      
7400000000.0        -0.034143846013     -0.170533087415     0.965540612373      -0.19248672394      0.965540612373      -0.19248672394      -0.034143846013     -0.170533087415     
7500000000.0        -0.0350486492694    -0.172688478402     0.964628991642      -0.194945233302     0.964628991642      -0.194945233302     -0.0350486492694    -0.172688478402     
7600000000.0        -0.0359641742834    -0.174837603433     0.963706552532      -0.197397671242     0.963706552532      -0.197397671242     -0.0359641742834    -0.174837603433     
7700000000.0        -0.0368903601805    -0.176980381548     0.962773355728      -0.199843957255     0.962773355728      -0.199843957255     -0.0368903601805    -0.176980381548     
7800000000.0        -0.0378271453149    -0.179116732568     0.961829462683      -0.202284011613     0.961829462683      -0.202284011613     -0.0378271453149    -0.179116732568     
7900000000.0        -0.0387744672831    -0.181246577115     0.960874935609      -0.204717755377     0.960874935609      -0.204717755377     -0.0387744672831    -0.181246577115     
8000000000.0        -0.0397322629371    -0.183369836618     0.959909837462      -0.207145110405     0.959909837462      -0.207145110405     -0.0397322629371    -0.183369836618     
8100000000.0        -0.040700468398     -0.185486433326     0.958934231927      -0.209565999369     0.958934231927      -0.209565999369     -0.040700468398     -0.185486433326     
8200000000.0        -0.0416790190693    -0.187596290315     0.957948183408      -0.211980345761     0.957948183408      -0.211980345761     -0.0416790190693    -0.187596290315     
8300000000.0        -0.0426678496511    -0.189699331504     0.956951757011      -0.214388073905     0.956951757011      -0.214388073905     -0.0426678496511    -0.189699331504     
8400000000.0        -0.0436668941535    -0.191795481658     0.955945018533      -0.216789108967     0.955945018533      -0.216789108967     -0.0436668941535    -0.191795481658     
8500000000.0        -0.0446760859106    -0.193884666402     0.954928034446      -0.219183376964     0.954928034446      -0.219183376964     -0.0446760859106    -0.193884666402     
8600000000.0        -0.0456953575942    -0.195966812226     0.953900871882      -0.221570804772     0.953900871882      -0.221570804772     -0.0456953575942    -0.195966812226     
8700000000.0        -0.0467246412283    -0.198041846496     0.952863598623      -0.223951320139     0.952863598623      -0.223951320139     -0.0467246412283    -0.198041846496     
8800000000.0        -0.0477638682029    -0.200109697462     0.951816283083      -0.226324851686     0.951816283083      -0.226324851686     -0.0477638682029    -0.200109697462     
8900000000.0        -0.0488129692879    -0.202170294263     0.950758994298      -0.22869132892      0.950758994298      -0.22869132892      -0.0488129692879    -0.202170294263     
9000000000.0        -0.0498718746478    -0.204223566937     0.949691801907      -0.231050682243     0.949691801907      -0.231050682243     -0.0498718746478    -0.204223566937     
9100000000.0        -0.0509405138555    -0.206269446427     0.94861477614       -0.233402842954     0.94861477614       -0.233402842954     -0.0509405138555    -0.206269446427     
9200000000.0        -0.052018815907     -0.208307864586     0.947527987804      -0.235747743258     0.947527987804      -0.235747743258     -0.052018815907     -0.208307864586     
9300000000.0        -0.053106709235     -0.210338754188     0.946431508271      -0.238085316275     0.946431508271      -0.238085316275     -0.053106709235     -0.210338754188     
9400000000.0        -0.0542041217241    -0.212362048926     0.945325409456      -0.240415496042     0.945325409456      -0.240415496042     -0.0542041217241    -0.212362048926     
9500000000.0        -0.0553109807245    -0.214377683425     0.944209763813      -0.242738217521     0.944209763813      -0.242738217521     -0.0553109807245    -0.214377683425     
9600000000.0        -0.0564272130666    -0.216385593245     0.943084644312      -0.245053416604     0.943084644312      -0.245053416604     -0.0564272130666    -0.216385593245     
9700000000.0        -0.0575527450753    -0.218385714883     0.94195012443       -0.247361030119     0.94195012443       -0.247361030119     -0.0575527450753    -0.218385714883     
9800000000.0        -0.0586875025845    -0.220377985781     0.940806278134      -0.249660995833     0.940806278134      -0.249660995833     -0.0586875025845    -0.220377985781     
9900000000.0        -0.0598314109514    -0.222362344329     0.939653179867      -0.251953252457     0.939653179867      -0.251953252457     -0.0598314109514    -0.222362344329     
10000000000.0       -0.0609843950707    -0.224338729869     0.938490904534      -0.25423773965      0.938490904534      -0.25423773965      -0.0609843950707    -0.224338729869     
