# Hz S RI R 50.00 
100000000.0         0.201740441202      0.00301896063808    0.798255658158      -0.00462813533311   0.798255658158      -0.00462813533311   0.201740441202      0.00301896063808    
200000000.0         0.202845560795      0.00601698289119    0.797144827424      -0.00923534087331   0.797144827424      -0.00923534087331   0.202845560795      0.00601698289119    
300000000.0         0.203694178639      0.00900209030497    0.796287685249      -0.0138296512586    0.796287685249      -0.0138296512586    0.203694178639      0.00900209030497    
400000000.0         0.204428060589      0.0119767786977     0.795542463822      -0.0184135727436    0.795542463822      -0.0184135727436    0.204428060589      0.0119767786977     
500000000.0         0.205101927721      0.0149422576397     0.794854440403      -0.0229883250058    0.794854440403      -0.0229883250058    0.205101927721      0.0149422576397     
600000000.0         0.205743729702      0.0178991673797     0.794195663803      -0.0275545581869    0.794195663803      -0.0275545581869    0.205743729702      0.0178991673797     
700000000.0         0.206369988259      0.0208478364669     0.793549610844      -0.0321126105736    0.793549610844      -0.0321126105736    0.206369988259      0.0208478364669     
800000000.0         0.206991403927      0.02378840131       0.792905579571      -0.0366626281916    0.792905579571      -0.0366626281916    0.206991403927      0.02378840131       
900000000.0         0.207615355299      0.0267208704447     0.792256189969      -0.0412046290966    0.792256189969      -0.0412046290966    0.207615355299      0.0267208704447     
1000000000.0        0.208247167211      0.0296451626337     0.791596115767      -0.0457385414904    0.791596115767      -0.0457385414904    0.208247167211      0.0296451626337     
1100000000.0        0.208890816426      0.0325611311067     0.790921378732      -0.0502642279729    0.790921378732      -0.0502642279729    0.208890816426      0.0325611311067     
1200000000.0        0.209549352567      0.0354685798358     0.790228927737      -0.0547815018268    0.790228927737      -0.0547815018268    0.209549352567      0.0354685798358     
1300000000.0        0.210225163199      0.0383672749404     0.78951637366       -0.0592901384296    0.78951637366       -0.0592901384296    0.210225163199      0.0383672749404     
1400000000.0        0.21092014824       0.0412569529597     0.788781814975      -0.063789883532     0.788781814975      -0.063789883532     0.21092014824       0.0412569529597     
1500000000.0        0.211635838932      0.044137327033      0.788023718771      -0.0682804594425    0.788023718771      -0.0682804594425    0.211635838932      0.044137327033      
1600000000.0        0.212373481486      0.0470080916291     0.787240837108      -0.0727615697617    0.787240837108      -0.0727615697617    0.212373481486      0.0470080916291     
1700000000.0        0.213134097424      0.0498689262469     0.786432146666      -0.077232903085     0.786432146666      -0.077232903085     0.213134097424      0.0498689262469     
1800000000.0        0.2139185281        0.0527194983634     0.785596804226      -0.0816941359546    0.785596804226      -0.0816941359546    0.2139185281        0.0527194983634     
1900000000.0        0.214727468189      0.0555594658231     0.784734113175      -0.0861449352504    0.784734113175      -0.0861449352504    0.214727468189      0.0555594658231     
2000000000.0        0.215561491309      0.0583884788023     0.783843497885      -0.090584960157     0.783843497885      -0.090584960157     0.215561491309      0.0583884788023     
2100000000.0        0.216421069936      0.0612061814472     0.782924483795      -0.0950138638035    0.782924483795      -0.0950138638035    0.216421069936      0.0612061814472     
2200000000.0        0.217306591089      0.064012213255      0.781976681722      -0.099431294646     0.781976681722      -0.099431294646     0.217306591089      0.064012213255      
2300000000.0        0.218218368843      0.0668062102523     0.780999775353      -0.103836897648     0.780999775353      -0.103836897648     0.218218368843      0.0668062102523     
2400000000.0        0.219156654418      0.0695878060109     0.779993511146      -0.108230315297     0.779993511146      -0.108230315297     0.219156654418      0.0695878060109     
2500000000.0        0.220121644411      0.0723566325297     0.778957690106      -0.112611188487     0.778957690106      -0.112611188487     0.220121644411      0.0723566325297     
2600000000.0        0.221113487559      0.0751123210098     0.777892161011      -0.116979157297     0.777892161011      -0.116979157297     0.221113487559      0.0751123210098     
2700000000.0        0.222132290368      0.0778545025372     0.776796814796      -0.121333861672     0.776796814796      -0.121333861672     0.222132290368      0.0778545025372     
2800000000.0        0.22317812181       0.0805828086924     0.775671579838      -0.125674942034     0.775671579838      -0.125674942034     0.22317812181       0.0805828086924     
2900000000.0        0.224251017301      0.0832968720941     0.774516417991      -0.130002039827     0.774516417991      -0.130002039827     0.224251017301      0.0832968720941     
3000000000.0        0.225350982076      0.0859963268904     0.773331321208      -0.134314798011     0.773331321208      -0.134314798011     0.225350982076      0.0859963268904     
3100000000.0        0.226477994073      0.0886808092025     0.772116308646      -0.138612861502     0.772116308646      -0.138612861502     0.226477994073      0.0886808092025     
3200000000.0        0.22763200643       0.0913499575282     0.770871424183      -0.142895877578     0.770871424183      -0.142895877578     0.22763200643       0.0913499575282     
3300000000.0        0.228812949642      0.0940034131108     0.769596734251      -0.14716349625      0.769596734251      -0.14716349625      0.228812949642      0.0940034131108     
3400000000.0        0.230020733448      0.0966408202768     0.768292325952      -0.151415370599     0.768292325952      -0.151415370599     0.230020733448      0.0966408202768     
3500000000.0        0.231255248483      0.0992618267463     0.766958305404      -0.155651157087     0.766958305404      -0.155651157087     0.231255248483      0.0992618267463     
3600000000.0        0.232516367743      0.10186608392       0.765594796276      -0.159870515842     0.765594796276      -0.159870515842     0.232516367743      0.10186608392       
3700000000.0        0.233803947882      0.104453247141      0.764201938491      -0.164073110927     0.764201938491      -0.164073110927     0.233803947882      0.104453247141      
3800000000.0        0.235117830371      0.107022975946      0.762779887067      -0.168258610581     0.762779887067      -0.168258610581     0.235117830371      0.107022975946      
3900000000.0        0.236457842538      0.109574934284      0.761328811075      -0.172426687451     0.761328811075      -0.172426687451     0.236457842538      0.109574934284      
4000000000.0        0.237823798506      0.112108790735      0.759848892702      -0.176577018797     0.759848892702      -0.176577018797     0.237823798506      0.112108790735      
4100000000.0        0.239215500044      0.114624218702      0.758340326397      -0.180709286697     0.758340326397      -0.180709286697     0.239215500044      0.114624218702      
4200000000.0        0.240632737345      0.117120896593      0.756803318099      -0.184823178222     0.756803318099      -0.184823178222     0.240632737345      0.117120896593      
4300000000.0        0.24207528973       0.119598507993      0.755238084524      -0.188918385608     0.755238084524      -0.188918385608     0.24207528973       0.119598507993      
4400000000.0        0.243542926305      0.12205674182       0.753644852514      -0.192994606418     0.753644852514      -0.192994606418     0.243542926305      0.12205674182       
4500000000.0        0.245035406564      0.124495292473      0.752023858432      -0.197051543683     0.752023858432      -0.197051543683     0.245035406564      0.124495292473      
4600000000.0        0.246552480942      0.126913859967      0.750375347606      -0.201088906042     0.750375347606      -0.201088906042     0.246552480942      0.126913859967      
4700000000.0        0.248093891343      0.12931215006       0.748699573807      -0.205106407868     0.748699573807      -0.205106407868     0.248093891343      0.12931215006       
4800000000.0        0.249659371618      0.131689874368      0.746996798761      -0.209103769383     0.746996798761      -0.209103769383     0.249659371618      0.131689874368      
4900000000.0        0.251248648029      0.134046750479      0.745267291695      -0.213080716772     0.745267291695      -0.213080716772     0.251248648029      0.134046750479      
5000000000.0        0.252861439671      0.136382502046      0.743511328907      -0.217036982275     0.743511328907      -0.217036982275     0.252861439671      0.136382502046      
5100000000.0        0.254497458885      0.13869685888       0.741729193359      -0.220972304286     0.741729193359      -0.220972304286     0.254497458885      0.13869685888       
5200000000.0        0.256156411633      0.14098955704       0.739921174293      -0.224886427432     0.739921174293      -0.224886427432     0.256156411633      0.14098955704       
5300000000.0        0.257837997871      0.143260338901      0.738087566868      -0.228779102654     0.738087566868      -0.228779102654     0.257837997871      0.143260338901      
5400000000.0        0.259541911892      0.14550895323       0.736228671808      -0.232650087273     0.736228671808      -0.232650087273     0.259541911892      0.14550895323       
5500000000.0        0.261267842657      0.147735155245      0.734344795075      -0.236499145054     0.734344795075      -0.236499145054     0.261267842657      0.147735155245      
5600000000.0        0.263015474116      0.149938706673      0.732436247548      -0.240326046264     0.732436247548      -0.240326046264     0.263015474116      0.149938706673      
5700000000.0        0.264784485511      0.152119375798      0.730503344719      -0.244130567718     0.730503344719      -0.244130567718     0.264784485511      0.152119375798      
5800000000.0        0.266574551667      0.154276937506      0.728546406398      -0.247912492826     0.728546406398      -0.247912492826     0.266574551667      0.154276937506      
5900000000.0        0.268385343275      0.156411173321      0.726565756435      -0.251671611629     0.726565756435      -0.251671611629     0.268385343275      0.156411173321      
6000000000.0        0.270216527166      0.158521871438      0.724561722445      -0.255407720829     0.724561722445      -0.255407720829     0.270216527166      0.158521871438      
6100000000.0        0.272067766569      0.160608826751      0.722534635546      -0.259120623821     0.722534635546      -0.259120623821     0.272067766569      0.160608826751      
6200000000.0        0.273938721367      0.162671840867      0.720484830104      -0.262810130707     0.720484830104      -0.262810130707     0.273938721367      0.162671840867      
6300000000.0        0.275829048345      0.164710722129      0.718412643489      -0.266476058315     0.718412643489      -0.266476058315     0.275829048345      0.164710722129      
6400000000.0        0.277738401423      0.166725285622      0.716318415835      -0.27011823021      0.716318415835      -0.27011823021      0.277738401423      0.166725285622      
6500000000.0        0.279666431891      0.16871535318       0.714202489808      -0.273736476696     0.714202489808      -0.273736476696     0.279666431891      0.16871535318       
6600000000.0        0.28161278863       0.170680753387      0.712065210386      -0.277330634821     0.712065210386      -0.277330634821     0.28161278863       0.170680753387      
6700000000.0        0.283577118334      0.172621321569      0.709906924634      -0.28090054837      0.709906924634      -0.28090054837      0.283577118334      0.172621321569      
6800000000.0        0.285559065718      0.174536899794      0.707727981497      -0.284446067858     0.707727981497      -0.284446067858     0.285559065718      0.174536899794      
6900000000.0        0.287558273726      0.176427336847      0.705528731591      -0.287967050514     0.705528731591      -0.287967050514     0.287558273726      0.176427336847      
7000000000.0        0.289574383731      0.178292488226      0.703309527003      -0.29146336027      0.703309527003      -0.29146336027      0.289574383731      0.178292488226      
7100000000.0        0.291607035728      0.180132216109      0.701070721097      -0.294934867733     0.701070721097      -0.294934867733     0.291607035728      0.180132216109      
7200000000.0        0.293655868528      0.181946389336      0.698812668322      -0.298381450163     0.698812668322      -0.298381450163     0.293655868528      0.181946389336      
7300000000.0        0.295720519939      0.183734883378      0.696535724026      -0.301802991445     0.696535724026      -0.301802991445     0.295720519939      0.183734883378      
7400000000.0        0.29780062695       0.185497580304      0.694240244277      -0.305199382053     0.694240244277      -0.305199382053     0.29780062695       0.185497580304      
7500000000.0        0.299895825903      0.187234368743      0.691926585687      -0.308570519017     0.691926585687      -0.308570519017     0.299895825903      0.187234368743      
7600000000.0        0.302005752665      0.188945143849      0.68959510524       -0.311916305879     0.68959510524       -0.311916305879     0.302005752665      0.188945143849      
7700000000.0        0.304130042795      0.19062980725       0.687246160125      -0.315236652656     0.687246160125      -0.315236652656     0.304130042795      0.19062980725       
7800000000.0        0.306268331706      0.19228826701       0.684880107576      -0.318531475785     0.684880107576      -0.318531475785     0.306268331706      0.19228826701       
7900000000.0        0.308420254822      0.193920437574      0.682497304709      -0.321800698082     0.682497304709      -0.321800698082     0.308420254822      0.193920437574      
8000000000.0        0.310585447733      0.195526239716      0.680098108372      -0.325044248683     0.680098108372      -0.325044248683     0.310585447733      0.195526239716      
8100000000.0        0.312763546343      0.197105600486      0.677682874995      -0.328262062994     0.677682874995      -0.328262062994     0.312763546343      0.197105600486      
8200000000.0        0.314954187015      0.19865845315       0.675251960441      -0.331454082626     0.675251960441      -0.331454082626     0.314954187015      0.19865845315       
8300000000.0        0.317157006716      0.20018473713       0.672805719868      -0.334620255341     0.672805719868      -0.334620255341     0.317157006716      0.20018473713       
8400000000.0        0.31937164315       0.20168439794       0.670344507589      -0.337760534987     0.670344507589      -0.337760534987     0.31937164315       0.20168439794       
8500000000.0        0.321597734893      0.203157387122      0.667868676937      -0.340874881427     0.667868676937      -0.340874881427     0.321597734893      0.203157387122      
8600000000.0        0.323834921525      0.204603662174      0.665378580136      -0.343963260479     0.665378580136      -0.343963260479     0.323834921525      0.204603662174      
8700000000.0        0.326082843754      0.206023186486      0.662874568175      -0.34702564384      0.662874568175      -0.34702564384      0.326082843754      0.206023186486      
8800000000.0        0.328341143537      0.207415929264      0.660356990686      -0.350062009016     0.660356990686      -0.350062009016     0.328341143537      0.207415929264      
8900000000.0        0.330609464203      0.208781865455      0.657826195821      -0.353072339248     0.657826195821      -0.353072339248     0.330609464203      0.208781865455      
9000000000.0        0.332887450563      0.210120975672      0.655282530142      -0.356056623434     0.655282530142      -0.356056623434     0.332887450563      0.210120975672      
9100000000.0        0.335174749022      0.211433246119      0.652726338506      -0.359014856054     0.652726338506      -0.359014856054     0.335174749022      0.211433246119      
9200000000.0        0.337471007691      0.212718668508      0.650157963955      -0.361947037088     0.650157963955      -0.361947037088     0.337471007691      0.212718668508      
9300000000.0        0.339775876486      0.213977239979      0.647577747617      -0.364853171936     0.647577747617      -0.364853171936     0.339775876486      0.213977239979      
9400000000.0        0.342089007232      0.215208963017      0.6449860286        -0.367733271336     0.6449860286        -0.367733271336     0.342089007232      0.215208963017      
9500000000.0        0.344410053757      0.216413845371      0.642383143897      -0.370587351279     0.642383143897      -0.370587351279     0.344410053757      0.216413845371      
9600000000.0        0.34673867199       0.217591899967      0.63976942829       -0.373415432924     0.63976942829       -0.373415432924     0.34673867199       0.217591899967      
9700000000.0        0.349074520048      0.21874314482       0.637145214259      -0.376217542515     0.637145214259      -0.376217542515     0.349074520048      0.21874314482       
9800000000.0        0.351417258323      0.219867602952      0.634510831896      -0.378993711287     0.634510831896      -0.378993711287     0.351417258323      0.219867602952      
9900000000.0        0.353766549568      0.220965302298      0.631866608822      -0.381743975385     0.631866608822      -0.381743975385     0.353766549568      0.220965302298      
10000000000.0       0.356122058976      0.22203627562       0.6292128701        -0.38446837577      0.6292128701        -0.38446837577      0.356122058976      0.22203627562       
