# Hz S RI R 50.00 
100000000.0         0.00063791838678    -0.00265349718236   0.999328723996      -0.00447988897214   0.999328723996      -0.00447988897214   0.00063791838678    -0.00265349718236   
200000000.0         0.000603202076483   -0.00530677934304   0.99928018715       -0.00895955715049   0.99928018715       -0.00895955715049   0.000603202076484   -0.00530677934304   
300000000.0         0.00054357083528    -0.0079596248793    0.999205675412      -0.0134388104691    0.999205675412      -0.0134388104691    0.00054357083528    -0.0079596248793    
400000000.0         0.000459595084487   -0.0106118082203    0.999104628772      -0.017917439906     0.999104628772      -0.017917439906     0.000459595084487   -0.0106118082203    
500000000.0         0.000351499891071   -0.0132631006988    0.998976837577      -0.022395230092     0.998976837577      -0.022395230092     0.00035149989107    -0.0132631006988    
600000000.0         0.000219406336949   -0.0159132714683    0.998822201348      -0.0268719617752    0.998822201348      -0.0268719617752    0.000219406336949   -0.0159132714683    
700000000.0         6.339285051e-05     -0.0185620880742    0.998640667577      -0.0313474130176    0.998640667577      -0.0313474130176    6.339285051e-05     -0.0185620880742    
800000000.0         -0.000116482408424  -0.0212093168384    0.998432209442      -0.0358213599012    0.998432209442      -0.0358213599012    -0.000116482408424  -0.0212093168384    
900000000.0         -0.000320171576035  -0.0238547231409    0.998196815913      -0.0402935769987    0.998196815913      -0.0402935769987    -0.000320171576035  -0.0238547231409    
1000000000.0        -0.00054763202414   -0.0264980716349    0.997934486743      -0.0447638377108    0.997934486743      -0.0447638377108    -0.00054763202414   -0.0264980716349    
1100000000.0        -0.00079882354268   -0.029139126422     0.997645229712      -0.0492319145252    0.997645229712      -0.0492319145252    -0.00079882354268   -0.029139126422     
1200000000.0        -0.00107370665751   -0.0317776511974    0.997329058973      -0.0536975792225    0.997329058973      -0.0536975792225    -0.00107370665751   -0.0317776511974    
1300000000.0        -0.00137224156975   -0.0344134093764    0.996985994031      -0.0581606030475    0.996985994031      -0.0581606030475    -0.00137224156975   -0.0344134093764    
1400000000.0        -0.00169438745715   -0.0370461642048    0.996616059067      -0.0626207568549    0.996616059067      -0.0626207568549    -0.00169438745715   -0.0370461642048    
1500000000.0        -0.00204010199738   -0.0396756788594    0.996219282481      -0.0670778112372    0.996219282481      -0.0670778112372    -0.00204010199738   -0.0396756788594    
1600000000.0        -0.00240934103315   -0.0423017165393    0.995795696575      -0.0715315366381    0.995795696575      -0.0715315366381    -0.00240934103315   -0.0423017165393    
1700000000.0        -0.00280205833127   -0.0449240405509    0.995345337318      -0.0759817034556    0.995345337318      -0.0759817034556    -0.00280205833127   -0.0449240405509    
1800000000.0        -0.00321820540606   -0.0475424143871    0.994868244181      -0.0804280821365    0.994868244181      -0.0804280821365    -0.00321820540606   -0.0475424143871    
1900000000.0        -0.00365773138791   -0.0501566018026    0.994364460007      -0.0848704432645    0.994364460007      -0.0848704432645    -0.00365773138791   -0.0501566018026    
2000000000.0        -0.00412058292445   -0.0527663668854    0.993834030907      -0.089308557642     0.993834030907      -0.089308557642     -0.00412058292445   -0.0527663668854    
2100000000.0        -0.00460670410569   -0.0553714741254    0.993277006189      -0.0937421963688    0.993277006189      -0.0937421963688    -0.00460670410569   -0.0553714741254    
2200000000.0        -0.00511603640732   -0.0579716884806    0.992693438289      -0.0981711309153    0.992693438289      -0.0981711309153    -0.00511603640732   -0.0579716884806    
2300000000.0        -0.00564851864777   -0.0605667754404    0.99208338272       -0.102595133194     0.99208338272       -0.102595133194     -0.00564851864777   -0.0605667754404    
2400000000.0        -0.00620408695624   -0.0631565010877    0.991446898024      -0.107013975626     0.991446898024      -0.107013975626     -0.00620408695624   -0.0631565010877    
2500000000.0        -0.00678267474929   -0.0657406321593    0.99078404574       -0.111427431211     0.99078404574       -0.111427431211     -0.00678267474929   -0.0657406321593    
2600000000.0        -0.00738421271438   -0.0683189361041    0.990094890361      -0.115835273584     0.990094890361      -0.115835273584     -0.00738421271438   -0.0683189361041    
2700000000.0        -0.00800862879925   -0.070891181141     0.98937949931       -0.120237277082     0.98937949931       -0.120237277082     -0.00800862879925   -0.070891181141     
2800000000.0        -0.00865584820595   -0.0734571363143    0.988637942906      -0.124633216802     0.988637942906      -0.124633216802     -0.00865584820595   -0.0734571363143    
2900000000.0        -0.00932579338898   -0.0760165715488    0.987870294339      -0.129022868663     0.987870294339      -0.129022868663     -0.00932579338898   -0.0760165715488    
3000000000.0        -0.0100183840569    -0.078569257704     0.987076629642      -0.133406009455     0.987076629642      -0.133406009455     -0.0100183840569    -0.078569257704     
3100000000.0        -0.0107335371769    -0.0811149666261    0.986257027668      -0.137782416903     0.986257027668      -0.137782416903     -0.0107335371769    -0.0811149666261    
3200000000.0        -0.011471166982     -0.0836534712008    0.985411570064      -0.142151869716     0.985411570064      -0.142151869716     -0.011471166982     -0.0836534712008    
3300000000.0        -0.0122311849807    -0.0861845454031    0.984540341243      -0.146514147644     0.984540341243      -0.146514147644     -0.0122311849807    -0.0861845454031    
3400000000.0        -0.0130134999687    -0.0887079643485    0.983643428366      -0.150869031526     0.983643428366      -0.150869031526     -0.0130134999687    -0.0887079643485    
3500000000.0        -0.0138180180422    -0.091223504341     0.982720921309      -0.155216303347     0.982720921309      -0.155216303347     -0.0138180180422    -0.091223504341     
3600000000.0        -0.0146446426136    -0.0937309429222    0.981772912645      -0.159555746281     0.981772912645      -0.159555746281     -0.0146446426136    -0.0937309429222    
3700000000.0        -0.0154932744283    -0.0962300589188    0.980799497615      -0.163887144746     0.980799497615      -0.163887144746     -0.0154932744283    -0.0962300589188    
3800000000.0        -0.0163638115828    -0.0987206324885    0.979800774099      -0.168210284451     0.979800774099      -0.168210284451     -0.0163638115828    -0.0987206324885    
3900000000.0        -0.017256149545     -0.101202445167     0.978776842598      -0.17252495244      0.978776842598      -0.17252495244      -0.017256149545     -0.101202445167     
4000000000.0        -0.0181701811749    -0.103675279912     0.977727806199      -0.176830937144     0.977727806199      -0.176830937144     -0.0181701811749    -0.103675279912     
4100000000.0        -0.0191057967471    -0.106138921148     0.976653770552      -0.181128028419     0.976653770552      -0.181128028419     -0.0191057967471    -0.106138921148     
4200000000.0        -0.020062883974     -0.10859315481      0.975554843839      -0.1854160176       0.975554843839      -0.1854160176       -0.020062883974     -0.10859315481      
4300000000.0        -0.0210413280307    -0.111037768387     0.974431136748      -0.189694697537     0.974431136748      -0.189694697537     -0.0210413280307    -0.111037768387     
4400000000.0        -0.0220410115803    -0.11347255096      0.973282762445      -0.19396386264      0.973282762445      -0.19396386264      -0.0220410115803    -0.11347255096      
4500000000.0        -0.0230618148004    -0.11589729325      0.972109836537      -0.198223308925     0.972109836537      -0.198223308925     -0.0230618148004    -0.11589729325      
4600000000.0        -0.0241036154108    -0.118311787651     0.970912477052      -0.20247283405      0.970912477052      -0.20247283405      -0.0241036154108    -0.118311787651     
4700000000.0        -0.0251662887019    -0.120715828274     0.969690804398      -0.206712237356     0.969690804398      -0.206712237356     -0.0251662887019    -0.120715828274     
4800000000.0        -0.0262497075636    -0.123109210987     0.968444941339      -0.210941319911     0.968444941339      -0.210941319911     -0.0262497075636    -0.123109210987     
4900000000.0        -0.027353742516     -0.125491733447     0.967175012959      -0.215159884543     0.967175012959      -0.215159884543     -0.027353742516     -0.125491733447     
5000000000.0        -0.0284782617395    -0.127863195143     0.965881146628      -0.219367735882     0.965881146628      -0.219367735882     -0.0284782617395    -0.127863195143     
5100000000.0        -0.0296231311072    -0.130223397429     0.964563471973      -0.223564680394     0.964563471973      -0.223564680394     -0.0296231311072    -0.130223397429     
5200000000.0        -0.0307882142168    -0.132572143562     0.96322212084       -0.227750526419     0.96322212084       -0.227750526419     -0.0307882142168    -0.132572143562     
5300000000.0        -0.0319733724235    -0.134909238734     0.96185722726       -0.231925084204     0.96185722726       -0.231925084204     -0.0319733724235    -0.134909238734     
5400000000.0        -0.0331784648744    -0.137234490108     0.960468927417      -0.236088165941     0.960468927417      -0.236088165941     -0.0331784648744    -0.137234490108     
5500000000.0        -0.0344033485421    -0.139547706849     0.959057359609      -0.240239585797     0.959057359609      -0.240239585797     -0.0344033485421    -0.139547706849     
5600000000.0        -0.0356478782602    -0.141848700158     0.957622664213      -0.244379159948     0.957622664213      -0.244379159948     -0.0356478782602    -0.141848700158     
5700000000.0        -0.0369119067586    -0.144137283303     0.956164983648      -0.248506706611     0.956164983648      -0.248506706611     -0.0369119067586    -0.144137283303     
5800000000.0        -0.0381952846997    -0.146413271647     0.954684462339      -0.252622046073     0.954684462339      -0.252622046073     -0.0381952846997    -0.146413271647     
5900000000.0        -0.039497860715     -0.148676482683     0.953181246678      -0.256725000723     0.953181246678      -0.256725000723     -0.039497860715     -0.148676482683     
6000000000.0        -0.0408194814427    -0.150926736057     0.951655484988      -0.260815395082     0.951655484988      -0.260815395082     -0.0408194814427    -0.150926736057     
6100000000.0        -0.0421599915645    -0.153163853598     0.950107327482      -0.264893055827     0.950107327482      -0.264893055827     -0.0421599915645    -0.153163853598     
6200000000.0        -0.0435192338447    -0.155387659347     0.948536926225      -0.268957811823     0.948536926225      -0.268957811823     -0.0435192338447    -0.155387659347     
6300000000.0        -0.0448970491679    -0.157597979581     0.946944435096      -0.273009494146     0.946944435096      -0.273009494146     -0.0448970491679    -0.157597979581     
6400000000.0        -0.0462932765787    -0.159794642837     0.945330009747      -0.27704793611      0.945330009747      -0.27704793611      -0.0462932765787    -0.159794642837     
6500000000.0        -0.0477077533206    -0.161977479941     0.943693807564      -0.281072973292     0.943693807564      -0.281072973292     -0.0477077533206    -0.161977479941     
6600000000.0        -0.0491403148758    -0.164146324025     0.942035987625      -0.285084443553     0.942035987625      -0.285084443553     -0.0491403148758    -0.164146324025     
6700000000.0        -0.0505907950057    -0.166301010558     0.940356710661      -0.289082187067     0.940356710661      -0.289082187067     -0.0505907950057    -0.166301010558     
6800000000.0        -0.0520590257905    -0.168441377358     0.938656139015      -0.293066046334     0.938656139015      -0.293066046334     -0.0520590257905    -0.168441377358     
6900000000.0        -0.0535448376709    -0.170567264621     0.9369344366        -0.297035866209     0.9369344366        -0.297035866209     -0.0535448376709    -0.170567264621     
7000000000.0        -0.0550480594883    -0.172678514937     0.935191768857      -0.300991493918     0.935191768857      -0.300991493918     -0.0550480594883    -0.172678514937     
7100000000.0        -0.0565685185264    -0.174774973311     0.933428302716      -0.304932779078     0.933428302716      -0.304932779078     -0.0565685185264    -0.174774973311     
7200000000.0        -0.0581060405526    -0.176856487177     0.93164420655       -0.308859573716     0.93164420655       -0.308859573716     -0.0581060405526    -0.176856487177     
7300000000.0        -0.0596604498598    -0.178922906421     0.929839650136      -0.312771732284     0.929839650136      -0.312771732284     -0.0596604498598    -0.178922906421     
7400000000.0        -0.0612315693081    -0.180974083395     0.928014804613      -0.316669111679     0.928014804613      -0.316669111679     -0.0612315693081    -0.180974083395     
7500000000.0        -0.0628192203669    -0.183009872932     0.926169842438      -0.320551571257     0.926169842438      -0.320551571257     -0.0628192203669    -0.183009872932     
7600000000.0        -0.0644232231574    -0.185030132359     0.924304937341      -0.324418972847     0.924304937341      -0.324418972847     -0.0644232231574    -0.185030132359     
7700000000.0        -0.0660433964944    -0.187034721516     0.922420264288      -0.328271180765     0.922420264288      -0.328271180765     -0.0660433964944    -0.187034721516     
7800000000.0        -0.0676795579294    -0.189023502765     0.920515999436      -0.332108061829     0.920515999436      -0.332108061829     -0.0676795579294    -0.189023502765     
7900000000.0        -0.0693315237923    -0.190996341        0.918592320086      -0.335929485368     0.918592320086      -0.335929485368     -0.0693315237923    -0.190996341        
8000000000.0        -0.070999109235     -0.192953103664     0.916649404646      -0.339735323235     0.916649404646      -0.339735323235     -0.070999109235     -0.192953103664     
8100000000.0        -0.0726821282731    -0.194893660756     0.914687432586      -0.343525449817     0.914687432586      -0.343525449817     -0.0726821282731    -0.194893660756     
8200000000.0        -0.0743803938291    -0.196817884838     0.912706584392      -0.347299742044     0.912706584392      -0.347299742044     -0.0743803938291    -0.196817884838     
8300000000.0        -0.0760937177751    -0.19872565105      0.910707041527      -0.351058079398     0.910707041527      -0.351058079398     -0.0760937177751    -0.19872565105      
8400000000.0        -0.0778219109751    -0.200616837112     0.908688986386      -0.354800343922     0.908688986386      -0.354800343922     -0.0778219109751    -0.200616837112     
8500000000.0        -0.0795647833282    -0.202491323331     0.906652602256      -0.358526420223     0.906652602256      -0.358526420223     -0.0795647833282    -0.202491323331     
8600000000.0        -0.0813221438106    -0.204348992611     0.904598073266      -0.362236195482     0.904598073266      -0.362236195482     -0.0813221438106    -0.204348992611     
8700000000.0        -0.0830938005184    -0.206189730457     0.902525584354      -0.365929559457     0.902525584354      -0.365929559457     -0.0830938005184    -0.206189730457     
8800000000.0        -0.0848795607103    -0.208013424976     0.900435321215      -0.369606404486     0.900435321215      -0.369606404486     -0.0848795607103    -0.208013424976     
8900000000.0        -0.0866792308493    -0.209819966883     0.898327470266      -0.373266625497     0.898327470266      -0.373266625497     -0.0866792308493    -0.209819966883     
9000000000.0        -0.0884926166456    -0.211609249505     0.896202218596      -0.37691012         0.896202218596      -0.37691012         -0.0884926166456    -0.211609249505     
9100000000.0        -0.0903195230982    -0.21338116878      0.894059753931      -0.3805367881       0.894059753931      -0.3805367881       -0.0903195230982    -0.21338116878      
9200000000.0        -0.0921597545371    -0.215135623262     0.891900264587      -0.384146532488     0.891900264587      -0.384146532488     -0.0921597545371    -0.215135623262     
9300000000.0        -0.0940131146647    -0.216872514116     0.889723939431      -0.38773925845      0.889723939431      -0.38773925845      -0.0940131146647    -0.216872514116     
9400000000.0        -0.095879406598     -0.218591745121     0.887530967834      -0.391314873859     0.887530967834      -0.391314873859     -0.095879406598     -0.218591745121     
9500000000.0        -0.0977584329091    -0.220293222671     0.885321539637      -0.39487328918      0.885321539637      -0.39487328918      -0.0977584329091    -0.220293222671     
9600000000.0        -0.0996499956673    -0.221976855766     0.883095845103      -0.398414417462     0.883095845103      -0.398414417462     -0.0996499956673    -0.221976855766     
9700000000.0        -0.101553896479     -0.223642556016     0.88085407488       -0.401938174341     0.88085407488       -0.401938174341     -0.101553896479     -0.223642556016     
9800000000.0        -0.10346993653      -0.225290237634     0.878596419956      -0.405444478031     0.878596419956      -0.405444478031     -0.10346993653      -0.225290237634     
9900000000.0        -0.105397916623     -0.226919817434     0.876323071623      -0.408933249322     0.876323071623      -0.408933249322     -0.105397916623     -0.226919817434     
10000000000.0       -0.10733763722      -0.228531214823     0.874034221434      -0.412404411576     0.874034221434      -0.412404411576     -0.10733763722      -0.228531214823     
