# Hz S RI R 50.00 
100000000.0         0.0733978845124     0.00101448012595    0.926600659526      -0.00141698064199   0.926600659526      -0.00141698064199   0.0733978845124     0.00101448012595    
200000000.0         0.0738464031709     0.00202660977374    0.926151518564      -0.00283161130238   0.926151518564      -0.00283161130238   0.0738464031709     0.00202660977374    
300000000.0         0.0741748226983     0.00303735190525    0.92582231034       -0.00424485542079   0.92582231034       -0.00424485542079   0.0741748226983     0.00303735190525    
400000000.0         0.0744429002041     0.00404703898343    0.925553277709      -0.00565704586008   0.925553277709      -0.00565704586008   0.0744429002041     0.00404703898343    
500000000.0         0.0746737509755     0.00505585623612    0.925321305355      -0.00706836820945   0.925321305355      -0.00706836820945   0.0746737509755     0.00505585623612    
600000000.0         0.074879214014      0.00606392346588    0.925114554253      -0.00847894260783   0.925114554253      -0.00847894260783   0.074879214014      0.00606392346588    
700000000.0         0.0750663125584     0.00707132447978    0.924926001142      -0.00988885318071   0.924926001142      -0.00988885318071   0.0750663125584     0.00707132447978    
800000000.0         0.0752396161469     0.00807812075814    0.924751076463      -0.011298161713     0.924751076463      -0.011298161713     0.0752396161469     0.00807812075814    
900000000.0         0.0754022941308     0.00908435880492    0.924586610848      -0.0127069150022    0.924586610848      -0.0127069150022    0.0754022941308     0.00908435880492    
1000000000.0        0.0755566505805     0.0100900745044     0.924430300209      -0.0141151492167    0.924430300209      -0.0141151492167    0.0755566505805     0.0100900745044     
1100000000.0        0.0757044221293     0.0110952958909     0.924280407895      -0.0155228926674    0.924280407895      -0.0155228926674    0.0757044221293     0.0110952958909     
1200000000.0        0.0758469557461     0.0121000450047     0.924135586922      -0.0169301676643    0.924135586922      -0.0169301676643    0.0758469557461     0.0121000450047     
1300000000.0        0.0759853207658     0.0131043391898     0.923994767938      -0.0183369918151    0.923994767938      -0.0183369918151    0.0759853207658     0.0131043391898     
1400000000.0        0.0761203826481     0.014108192031      0.923857085469      -0.0197433789631    0.923857085469      -0.0197433789631    0.0761203826481     0.014108192031      
1500000000.0        0.0762528533216     0.0151116140507     0.923721827571      -0.0211493398847    0.923721827571      -0.0211493398847    0.0762528533216     0.0151116140507     
1600000000.0        0.0763833266005     0.0161146132385     0.923588400415      -0.0225548828191    0.923588400415      -0.0225548828191    0.0763833266005     0.0161146132385     
1700000000.0        0.0765123037491     0.0171171954628     0.92345630272       -0.0239600138802    0.92345630272       -0.0239600138802    0.0765123037491     0.0171171954628     
1800000000.0        0.0766402123498     0.0181193647945     0.92332510689       -0.0253647373814    0.92332510689       -0.0253647373814    0.0766402123498     0.0181193647945     
1900000000.0        0.0767674204988     0.0191211237676     0.923194444813      -0.0267690560954    0.923194444813      -0.0267690560954    0.0767674204988     0.0191211237676     
2000000000.0        0.0768942476709     0.02012247359       0.923063997         -0.0281729714658    0.923063997         -0.0281729714658    0.0768942476709     0.02012247359       
2100000000.0        0.0770209731598     0.0211234143166     0.92293348414       -0.029576483781     0.92293348414       -0.029576483781     0.0770209731598     0.0211234143166     
2200000000.0        0.0771478427252     0.0221239449936     0.922802660459      -0.0309795923174    0.922802660459      -0.0309795923174    0.0771478427252     0.0221239449936     
2300000000.0        0.0772750738896     0.023124063779      0.922671308418      -0.032382295461     0.922671308418      -0.032382295461     0.0772750738896     0.023124063779      
2400000000.0        0.0774028602059     0.0241237680442     0.922539234449      -0.0337845908087    0.922539234449      -0.0337845908087    0.0774028602059     0.0241237680442     
2500000000.0        0.077531374731      0.0251230544609     0.922406265479      -0.0351864752558    0.922406265479      -0.0351864752558    0.077531374731      0.0251230544609     
2600000000.0        0.0776607728769     0.0261219190755     0.922272246079      -0.0365879450701    0.922272246079      -0.0365879450701    0.0776607728769     0.0261219190755     
2700000000.0        0.0777911947713     0.0271203573733     0.922137036104      -0.0379889959563    0.922137036104      -0.0379889959563    0.0777911947713     0.0271203573733     
2800000000.0        0.0779227672278     0.0281183643342     0.922000508726      -0.0393896231119    0.922000508726      -0.0393896231119    0.0779227672278     0.0281183643342     
2900000000.0        0.0780556053992     0.0291159344814     0.921862548772      -0.040789821276     0.921862548772      -0.040789821276     0.0780556053992     0.0291159344814     
3000000000.0        0.0781898141773     0.0301130619244     0.921723051336      -0.0421895847719    0.921723051336      -0.0421895847719    0.0781898141773     0.0301130619244     
3100000000.0        0.0783254893821     0.0311097403961     0.921581920577      -0.0435889075452    0.921581920577      -0.0435889075452    0.0783254893821     0.0311097403961     
3200000000.0        0.0784627187797     0.0321059632865     0.921439068714      -0.0449877831969    0.921439068714      -0.0449877831969    0.0784627187797     0.0321059632865     
3300000000.0        0.0786015829577     0.0331017236725     0.921294415139      -0.0463862050132    0.921294415139      -0.0463862050132    0.0786015829577     0.0331017236725     
3400000000.0        0.0787421560807     0.034097014344      0.921147885669      -0.0477841659921    0.921147885669      -0.0477841659921    0.0787421560807     0.034097014344      
3500000000.0        0.0788845065475     0.035091827828      0.920999411887      -0.0491816588672    0.920999411887      -0.0491816588672    0.0788845065475     0.035091827828      
3600000000.0        0.0790286975623     0.0360861564096     0.920848930569      -0.0505786761291    0.920848930569      -0.0505786761291    0.0790286975623     0.0360861564096     
3700000000.0        0.0791747876362     0.0370799921517     0.920696383184      -0.0519752100446    0.920696383184      -0.0519752100446    0.0791747876362     0.0370799921517     
3800000000.0        0.0793228310268     0.0380733269118     0.920541715456      -0.0533712526742    0.920541715456      -0.0533712526742    0.0793228310268     0.0380733269118     
3900000000.0        0.0794728781262     0.0390661523584     0.920384876971      -0.0547667958878    0.920384876971      -0.0547667958878    0.0794728781262     0.0390661523584     
4000000000.0        0.0796249758044     0.0400584599848     0.920225820839      -0.0561618313796    0.920225820839      -0.0561618313796    0.0796249758044     0.0400584599848     
4100000000.0        0.0797791677138     0.041050241123      0.920064503387      -0.0575563506806    0.920064503387      -0.0575563506806    0.0797791677138     0.041050241123      
4200000000.0        0.0799354945603     0.0420414869547     0.919900883887      -0.0589503451712    0.919900883887      -0.0589503451712    0.0799354945603     0.0420414869547     
4300000000.0        0.080093994346      0.0430321885233     0.919734924316      -0.0603438060917    0.919734924316      -0.0603438060917    0.080093994346      0.0430321885233     
4400000000.0        0.0802547025855     0.0440223367431     0.919566589137      -0.061736724553     0.919566589137      -0.061736724553     0.0802547025855     0.0440223367431     
4500000000.0        0.0804176525008     0.0450119224093     0.919395845105      -0.0631290915454    0.919395845105      -0.0631290915454    0.0804176525008     0.0450119224093     
4600000000.0        0.0805828751967     0.0460009362064     0.919222661095      -0.0645208979478    0.919222661095      -0.0645208979478    0.0805828751967     0.0460009362064     
4700000000.0        0.0807503998186     0.0469893687158     0.919047007935      -0.065912134535     0.919047007935      -0.065912134535     0.0807503998186     0.0469893687158     
4800000000.0        0.0809202536953     0.0479772104236     0.918868858276      -0.0673027919856    0.918868858276      -0.0673027919856    0.0809202536953     0.0479772104236     
4900000000.0        0.0810924624692     0.0489644517273     0.91868818645       -0.0686928608887    0.91868818645       -0.0686928608887    0.0810924624692     0.0489644517273     
5000000000.0        0.0812670502128     0.049951082942      0.91850496836       -0.0700823317502    0.91850496836       -0.0700823317502    0.0812670502128     0.049951082942      
5100000000.0        0.0814440395369     0.0509370943064     0.918319181373      -0.0714711949988    0.918319181373      -0.0714711949988    0.0814440395369     0.0509370943064     
5200000000.0        0.0816234516872     0.0519224759885     0.918130804215      -0.0728594409915    0.918130804215      -0.0728594409915    0.0816234516872     0.0519224759885     
5300000000.0        0.081805306634      0.0529072180906     0.917939816894      -0.0742470600189    0.917939816894      -0.0742470600189    0.081805306634      0.0529072180906     
5400000000.0        0.0819896231535     0.0538913106538     0.917746200605      -0.0756340423097    0.917746200605      -0.0756340423097    0.0819896231535     0.0538913106538     
5500000000.0        0.0821764189025     0.0548747436633     0.917549937668      -0.0770203780358    0.917549937668      -0.0770203780358    0.0821764189025     0.0548747436633     
5600000000.0        0.0823657104871     0.0558575070519     0.917351011449      -0.0784060573161    0.917351011449      -0.0784060573161    0.0823657104871     0.0558575070519     
5700000000.0        0.0825575135257     0.0568395907043     0.917149406302      -0.0797910702207    0.917149406302      -0.0797910702207    0.0825575135257     0.0568395907043     
5800000000.0        0.0827518427073     0.0578209844611     0.916945107513      -0.0811754067745    0.916945107513      -0.0811754067745    0.0827518427073     0.0578209844611     
5900000000.0        0.0829487118449     0.0588016781217     0.91673810124       -0.0825590569611    0.91673810124       -0.0825590569611    0.0829487118449     0.0588016781217     
6000000000.0        0.0831481339248     0.0597816614484     0.91652837447       -0.0839420107258    0.91652837447       -0.0839420107258    0.0831481339248     0.0597816614484     
6100000000.0        0.0833501211529     0.060760924169      0.916315914968      -0.085324257979     0.916315914968      -0.085324257979     0.0833501211529     0.060760924169      
6200000000.0        0.0835546849966     0.0617394559799     0.916100711239      -0.0867057885991    0.916100711239      -0.0867057885991    0.0835546849966     0.0617394559799     
6300000000.0        0.0837618362244     0.0627172465491     0.915882752484      -0.0880865924353    0.915882752484      -0.0880865924353    0.0837618362244     0.0627172465491     
6400000000.0        0.0839715849423     0.0636942855189     0.915662028569      -0.0894666593103    0.915662028569      -0.0894666593103    0.0839715849423     0.0636942855189     
6500000000.0        0.0841839406279     0.0646705625081     0.915438529986      -0.0908459790232    0.915438529986      -0.0908459790232    0.0841839406279     0.0646705625081     
6600000000.0        0.0843989121615     0.0656460671148     0.915212247825      -0.0922245413513    0.915212247825      -0.0922245413513    0.0843989121615     0.0656460671148     
6700000000.0        0.0846165078563     0.0666207889185     0.914983173742      -0.093602336053     0.914983173742      -0.093602336053     0.0846165078563     0.0666207889185     
6800000000.0        0.0848367354851     0.0675947174824     0.914751299933      -0.0949793528696    0.914751299933      -0.0949793528696    0.0848367354851     0.0675947174824     
6900000000.0        0.0850596023065     0.0685678423553     0.914516619109      -0.0963555815276    0.914516619109      -0.0963555815276    0.0850596023065     0.0685678423553     
7000000000.0        0.0852851150886     0.0695401530739     0.914279124471      -0.0977310117407    0.914279124471      -0.0977310117407    0.0852851150886     0.0695401530739     
7100000000.0        0.0855132801314     0.0705116391644     0.914038809685      -0.0991056332117    0.914038809685      -0.0991056332117    0.0855132801314     0.0705116391644     
7200000000.0        0.0857441032879     0.0714822901445     0.913795668868      -0.100479435634     0.913795668868      -0.100479435634     0.0857441032879     0.0714822901445     
7300000000.0        0.0859775899839     0.0724520955251     0.913549696559      -0.101852408695     0.913549696559      -0.101852408695     0.0859775899839     0.0724520955251     
7400000000.0        0.0862137452363     0.0734210448119     0.91330088771       -0.103224542073     0.91330088771       -0.103224542073     0.0862137452363     0.0734210448119     
7500000000.0        0.0864525736708     0.0743891275072     0.913049237661      -0.104595825447     0.913049237661      -0.104595825447     0.0864525736708     0.0743891275072     
7600000000.0        0.0866940795376     0.075356333111      0.912794742128      -0.10596624849      0.912794742128      -0.10596624849      0.0866940795376     0.075356333111      
7700000000.0        0.0869382667274     0.0763226511232     0.912537397187      -0.107335800876     0.912537397187      -0.107335800876     0.0869382667274     0.0763226511232     
7800000000.0        0.0871851387858     0.0772880710441     0.912277199256      -0.108704472276     0.912277199256      -0.108704472276     0.0871851387858     0.0772880710441     
7900000000.0        0.0874346989265     0.0782525823765     0.912014145088      -0.110072252367     0.912014145088      -0.110072252367     0.0874346989265     0.0782525823765     
8000000000.0        0.0876869500448     0.0792161746268     0.911748231752      -0.111439130828     0.911748231752      -0.111439130828     0.0876869500448     0.0792161746268     
8100000000.0        0.0879418947291     0.080178837306      0.911479456623      -0.112805097339     0.911479456623      -0.112805097339     0.0879418947291     0.080178837306      
8200000000.0        0.088199535273      0.0811405599311     0.911207817372      -0.11417014159      0.911207817372      -0.11417014159      0.088199535273      0.0811405599311     
8300000000.0        0.0884598736859     0.0821013320264     0.910933311954      -0.115534253274     0.910933311954      -0.115534253274     0.0884598736859     0.0821013320264     
8400000000.0        0.0887229117031     0.0830611431246     0.910655938596      -0.116897422096     0.910655938596      -0.116897422096     0.0887229117031     0.0830611431246     
8500000000.0        0.088988650796      0.0840199827676     0.910375695789      -0.118259637766     0.910375695789      -0.118259637766     0.088988650796      0.0840199827676     
8600000000.0        0.0892570921808     0.0849778405077     0.91009258228       -0.119620890005     0.91009258228       -0.119620890005     0.0892570921808     0.0849778405077     
8700000000.0        0.0895282368276     0.0859347059089     0.90980659706       -0.120981168547     0.90980659706       -0.120981168547     0.0895282368276     0.0859347059089     
8800000000.0        0.0898020854689     0.0868905685475     0.90951773936       -0.122340463136     0.90951773936       -0.122340463136     0.0898020854689     0.0868905685475     
8900000000.0        0.0900786386069     0.0878454180132     0.909226008637      -0.123698763529     0.909226008637      -0.123698763529     0.0900786386069     0.0878454180132     
9000000000.0        0.0903578965216     0.0887992439101     0.908931404574      -0.125056059499     0.908931404574      -0.125056059499     0.0903578965216     0.0887992439101     
9100000000.0        0.0906398592775     0.0897520358573     0.908633927065      -0.12641234083      0.908633927065      -0.12641234083      0.0906398592775     0.0897520358573     
9200000000.0        0.0909245267308     0.0907037834902     0.908333576216      -0.127767597326     0.908333576216      -0.127767597326     0.0909245267308     0.0907037834902     
9300000000.0        0.0912118985354     0.0916544764612     0.908030352331      -0.129121818805     0.908030352331      -0.129121818805     0.0912118985354     0.0916544764612     
9400000000.0        0.0915019741495     0.09260410444       0.907724255913      -0.130474995102     0.907724255913      -0.130474995102     0.0915019741495     0.09260410444       
9500000000.0        0.0917947528413     0.0935526571154     0.907415287652      -0.131827116072     0.907415287652      -0.131827116072     0.0917947528413     0.0935526571154     
9600000000.0        0.0920902336946     0.0945001241949     0.907103448424      -0.133178171587     0.907103448424      -0.133178171587     0.0920902336946     0.0945001241949     
9700000000.0        0.0923884156141     0.0954464954066     0.906788739281      -0.134528151539     0.906788739281      -0.134528151539     0.0923884156141     0.0954464954066     
9800000000.0        0.0926892973309     0.0963917604989     0.90647116145       -0.135877045842     0.90647116145       -0.135877045842     0.0926892973309     0.0963917604989     
9900000000.0        0.0929928774066     0.097335909242      0.906150716329      -0.137224844429     0.906150716329      -0.137224844429     0.0929928774066     0.097335909242      
10000000000.0       0.093299154239      0.098278931428      0.905827405475      -0.138571537257     0.905827405475      -0.138571537257     0.093299154239      0.098278931428      
