# Hz S RI R 50.00 
100000000.0         0.00747234647316    0.00241762493362    0.992523716211      -0.0040794213996    0.992523716211      -0.0040794213996    0.00747234647316    0.00241762493362    
200000000.0         0.00755071775027    0.00483442703647    0.992439638879      -0.00815804592086   0.992439638879      -0.00815804592086   0.00755071775027    0.00483442703647    
300000000.0         0.00763584729765    0.00725047897594    0.992346034166      -0.0122359631878    0.992346034166      -0.0122359631878    0.00763584729765    0.00725047897594    
400000000.0         0.00773417075165    0.00966568341316    0.992236465978      -0.0163130893572    0.992236465978      -0.0163130893572    0.00773417075165    0.00966568341316    
500000000.0         0.00784816147876    0.0120799034648     0.992108460409      -0.0203892992799    0.992108460409      -0.0203892992799    0.00784816147876    0.0120799034648     
600000000.0         0.00797907511432    0.0144929848171     0.9919607612        -0.0244644492137    0.9919607612        -0.0244644492137    0.00797907511432    0.0144929848171     
700000000.0         0.00812764729845    0.0169047636987     0.991792632009      -0.0285383851036    0.991792632009      -0.0285383851036    0.00812764729845    0.0169047636987     
800000000.0         0.00829434833304    0.019315070599      0.99160360176       -0.0326109464834    0.99160360176       -0.0326109464834    0.00829434833303    0.019315070599      
900000000.0         0.00847949656759    0.0217237322799     0.991393351254      -0.0366819686096    0.991393351254      -0.0366819686096    0.00847949656759    0.0217237322799     
1000000000.0        0.00868331587128    0.0241305729792     0.991161655705      -0.0407512837514    0.991161655705      -0.0407512837514    0.00868331587128    0.0241305729792     
1100000000.0        0.00890596758053    0.0265354151857     0.990908352792      -0.044818722029     0.990908352792      -0.044818722029     0.00890596758053    0.0265354151857     
1200000000.0        0.00914756953592    0.0289380801674     0.990633323623      -0.0488841119911    0.990633323623      -0.0488841119911    0.00914756953592    0.0289380801674     
1300000000.0        0.00940820806008    0.0313383883493     0.990336480761      -0.052947281031     0.990336480761      -0.052947281031     0.00940820806008    0.0313383883493     
1400000000.0        0.00968794583187    0.0337361595937     0.990017760349      -0.0570080556985    0.990017760349      -0.0570080556985    0.00968794583187    0.0337361595937     
1500000000.0        0.00998682725354    0.0361312134155     0.98967711675       -0.0610662619407    0.98967711675       -0.0610662619407    0.00998682725354    0.0361312134155     
1600000000.0        0.010304882222      0.0385233691523     0.989314518768      -0.0651217252939    0.989314518768      -0.0651217252939    0.010304882222      0.0385233691523     
1700000000.0        0.0106421288487     0.0409124461029     0.988929946937      -0.0691742710401    0.988929946937      -0.0691742710401    0.0106421288487     0.0409124461029     
1800000000.0        0.0109985754652     0.043298263642      0.988523391513      -0.0732237243376    0.988523391513      -0.0732237243376    0.0109985754652     0.043298263642      
1900000000.0        0.0113742221329     0.045680641317      0.988094850968      -0.0772699103318    0.988094850968      -0.0772699103318    0.0113742221329     0.045680641317      
2000000000.0        0.0117690617977     0.0480593989325     0.987644330833      -0.0813126542509    0.987644330833      -0.0813126542509    0.0117690617977     0.0480593989325     
2100000000.0        0.0121830811887     0.0504343566238     0.987171842801      -0.0853517814906    0.987171842801      -0.0853517814906    0.0121830811887     0.0504343566238     
2200000000.0        0.012616261527      0.0528053349223     0.986677404022      -0.0893871176885    0.986677404022      -0.0893871176885    0.012616261527      0.0528053349223     
2300000000.0        0.0130685790918     0.0551721548149     0.986161036535      -0.093418488792     0.986161036535      -0.093418488792     0.0130685790918     0.0551721548149     
2400000000.0        0.0135400056784     0.0575346377975     0.985622766812      -0.0974457211197    0.985622766812      -0.0974457211197    0.0135400056784     0.0575346377975     
2500000000.0        0.0140305089729     0.0598926059252     0.985062625382      -0.101468641418     0.985062625382      -0.101468641418     0.0140305089729     0.0598926059252     
2600000000.0        0.0145400528617     0.0622458818582     0.984480646526      -0.105487076913     0.984480646526      -0.105487076913     0.0145400528617     0.0622458818582     
2700000000.0        0.0150685976899     0.0645942889051     0.983876868016      -0.10950085536      0.983876868016      -0.10950085536      0.0150685976899     0.0645942889051     
2800000000.0        0.0156161004789     0.0669376510633     0.983251330898      -0.11350980509      0.983251330898      -0.11350980509      0.0156161004789     0.0669376510633     
2900000000.0        0.0161825151116     0.0692757930582     0.98260407931       -0.11751375505      0.98260407931       -0.11751375505      0.0161825151116     0.0692757930582     
3000000000.0        0.0167677924911     0.0716085403792     0.981935160323      -0.121512534849     0.981935160323      -0.121512534849     0.0167677924911     0.0716085403792     
3100000000.0        0.0173718806782     0.0739357193156     0.981244623803      -0.125505974793     0.981244623803      -0.125505974793     0.0173718806782     0.0739357193156     
3200000000.0        0.0179947250109     0.0762571569896     0.980532522291      -0.129493905924     0.980532522291      -0.129493905924     0.0179947250109     0.0762571569896     
3300000000.0        0.0186362682103     0.0785726813894     0.979798910901      -0.133476160057     0.979798910901      -0.133476160057     0.0186362682103     0.0785726813894     
3400000000.0        0.0192964504734     0.0808821214        0.979043847225      -0.137452569813     0.979043847225      -0.137452569813     0.0192964504734     0.0808821214        
3500000000.0        0.0199752095568     0.0831853068338     0.978267391252      -0.141422968654     0.978267391252      -0.141422968654     0.0199752095568     0.0831853068338     
3600000000.0        0.0206724808521     0.0854820684598     0.97746960529       -0.145387190914     0.97746960529       -0.145387190914     0.0206724808521     0.0854820684598     
3700000000.0        0.0213881974532     0.0877722380323     0.976650553901      -0.149345071828     0.976650553901      -0.149345071828     0.0213881974532     0.0877722380323     
3800000000.0        0.0221222902193     0.0900556483183     0.975810303839      -0.153296447569     0.975810303839      -0.153296447569     0.0221222902193     0.0900556483183     
3900000000.0        0.0228746878316     0.0923321331244     0.974948923993      -0.15724115527      0.974948923993      -0.15724115527      0.0228746878316     0.0923321331244     
4000000000.0        0.0236453168462     0.0946015273236     0.974066485333      -0.161179033056     0.974066485333      -0.161179033056     0.0236453168462     0.0946015273236     
4100000000.0        0.0244341017438     0.0968636668801     0.973163060865      -0.165109920072     0.973163060865      -0.165109920072     0.0244341017438     0.0968636668801     
4200000000.0        0.0252409649754     0.0991183888745     0.972238725579      -0.169033656509     0.972238725579      -0.169033656509     0.0252409649754     0.0991183888745     
4300000000.0        0.0260658270063     0.101365531528      0.971293556412      -0.172950083629     0.971293556412      -0.172950083629     0.0260658270063     0.101365531528      
4400000000.0        0.0269086063573     0.103604934227      0.970327632203      -0.176859043793     0.970327632203      -0.176859043793     0.0269086063573     0.103604934227      
4500000000.0        0.0277692196439     0.105836437544      0.969341033655      -0.180760380485     0.969341033655      -0.180760380485     0.0277692196439     0.105836437544      
4600000000.0        0.0286475816143     0.108059883263      0.968333843299      -0.184653938334     0.968333843299      -0.184653938334     0.0286475816143     0.108059883263      
4700000000.0        0.0295436051852     0.110275114399      0.967306145455      -0.188539563141     0.967306145455      -0.188539563141     0.0295436051852     0.110275114399      
4800000000.0        0.0304572014772     0.11248197522       0.966258026202      -0.192417101901     0.966258026202      -0.192417101901     0.0304572014772     0.11248197522       
4900000000.0        0.0313882798486     0.114680311271      0.965189573338      -0.196286402822     0.965189573338      -0.196286402822     0.0313882798486     0.114680311271      
5000000000.0        0.0323367479283     0.116869969389      0.964100876354      -0.200147315352     0.964100876354      -0.200147315352     0.0323367479283     0.116869969389      
5100000000.0        0.0333025116481     0.119050797726      0.962992026396      -0.203999690196     0.962992026396      -0.203999690196     0.0333025116481     0.119050797726      
5200000000.0        0.034285475274      0.121222645771      0.961863116239      -0.207843379339     0.961863116239      -0.207843379339     0.034285475274      0.121222645771      
5300000000.0        0.0352855414375     0.123385364363      0.960714240252      -0.211678236066     0.960714240252      -0.211678236066     0.0352855414375     0.123385364363      
5400000000.0        0.0363026111652     0.125538805714      0.959545494372      -0.21550411498      0.959545494372      -0.21550411498      0.0363026111652     0.125538805714      
5500000000.0        0.0373365839094     0.127682823425      0.95835697607       -0.219320872023     0.95835697607       -0.219320872023     0.0373365839094     0.127682823425      
5600000000.0        0.0383873575775     0.129817272504      0.957148784324      -0.223128364491     0.957148784324      -0.223128364491     0.0383873575775     0.129817272504      
5700000000.0        0.0394548285607     0.131942009382      0.955921019592      -0.226926451058     0.955921019592      -0.226926451058     0.0394548285607     0.131942009382      
5800000000.0        0.0405388917633     0.134056891932      0.954673783779      -0.230714991787     0.954673783779      -0.230714991787     0.0405388917633     0.134056891932      
5900000000.0        0.0416394406313     0.136161779481      0.953407180213      -0.23449384815      0.953407180213      -0.23449384815      0.0416394406313     0.136161779481      
6000000000.0        0.0427563671805     0.13825653283       0.952121313611      -0.238262883046     0.952121313611      -0.238262883046     0.0427563671805     0.13825653283       
6100000000.0        0.0438895620249     0.140341014265      0.950816290058      -0.242021960813     0.950816290058      -0.242021960813     0.0438895620249     0.140341014265      
6200000000.0        0.0450389144047     0.142415087573      0.949492216975      -0.245770947246     0.949492216975      -0.245770947246     0.0450389144047     0.142415087573      
6300000000.0        0.0462043122141     0.144478618059      0.948149203091      -0.249509709611     0.948149203091      -0.249509709611     0.0462043122141     0.144478618059      
6400000000.0        0.047385642029      0.146531472555      0.946787358417      -0.25323811666      0.946787358417      -0.25323811666      0.047385642029      0.146531472555      
6500000000.0        0.0485827891348     0.148573519435      0.945406794218      -0.256956038645     0.945406794218      -0.256956038645     0.0485827891348     0.148573519435      
6600000000.0        0.0497956375535     0.150604628628      0.944007622986      -0.260663347329     0.944007622986      -0.260663347329     0.0497956375535     0.150604628628      
6700000000.0        0.0510240700718     0.152624671631      0.942589958411      -0.264359916002     0.942589958411      -0.264359916002     0.0510240700718     0.152624671631      
6800000000.0        0.0522679682677     0.154633521519      0.941153915357      -0.268045619492     0.941153915357      -0.268045619492     0.0522679682677     0.154633521519      
6900000000.0        0.0535272125383     0.156631052957      0.939699609831      -0.271720334177     0.939699609831      -0.271720334177     0.0535272125383     0.156631052957      
7000000000.0        0.0548016821266     0.15861714221       0.93822715896       -0.275383937997     0.93822715896       -0.275383937997     0.0548016821266     0.15861714221       
7100000000.0        0.0560912551489     0.160591667157      0.93673668096       -0.279036310462     0.93673668096       -0.279036310462     0.0560912551489     0.160591667157      
7200000000.0        0.0573958086217     0.162554507293      0.935228295112      -0.282677332668     0.935228295112      -0.282677332668     0.0573958086217     0.162554507293      
7300000000.0        0.0587152184887     0.164505543749      0.933702121734      -0.286306887301     0.933702121734      -0.286306887301     0.0587152184887     0.164505543749      
7400000000.0        0.0600493596478     0.166444659292      0.932158282155      -0.289924858651     0.932158282155      -0.289924858651     0.0600493596478     0.166444659292      
7500000000.0        0.061398105978      0.168371738339      0.930596898685      -0.293531132619     0.930596898685      -0.293531132619     0.061398105978      0.168371738339      
7600000000.0        0.0627613303659     0.170286666959      0.929018094594      -0.297125596725     0.929018094594      -0.297125596725     0.0627613303659     0.170286666959      
7700000000.0        0.0641389047329     0.172189332891      0.92742199408       -0.300708140118     0.92742199408       -0.300708140118     0.0641389047329     0.172189332891      
7800000000.0        0.0655307000615     0.174079625538      0.925808722245      -0.304278653583     0.925808722245      -0.304278653583     0.0655307000615     0.174079625538      
7900000000.0        0.066936586422      0.175957435986      0.924178405068      -0.307837029545     0.924178405068      -0.307837029545     0.066936586422      0.175957435986      
8000000000.0        0.0683564329992     0.177822657001      0.922531169379      -0.311383162082     0.922531169379      -0.311383162082     0.0683564329992     0.177822657001      
8100000000.0        0.0697901081188     0.179675183042      0.920867142831      -0.314916946925     0.920867142831      -0.314916946925     0.0697901081188     0.179675183042      
8200000000.0        0.0712374792736     0.181514910258      0.919186453876      -0.318438281468     0.919186453876      -0.318438281468     0.0712374792736     0.181514910258      
8300000000.0        0.0726984131501     0.183341736504      0.917489231738      -0.321947064771     0.917489231738      -0.321947064771     0.0726984131501     0.183341736504      
8400000000.0        0.0741727756544     0.185155561335      0.915775606384      -0.325443197566     0.915775606384      -0.325443197566     0.0741727756544     0.185155561335      
8500000000.0        0.0756604319389     0.186956286015      0.914045708503      -0.328926582262     0.914045708503      -0.328926582262     0.0756604319389     0.186956286015      
8600000000.0        0.0771612464275     0.188743813523      0.912299669475      -0.332397122946     0.912299669475      -0.332397122946     0.0771612464275     0.188743813523      
8700000000.0        0.0786750828424     0.190518048551      0.91053762135       -0.335854725392     0.91053762135       -0.335854725392     0.0786750828424     0.190518048551      
8800000000.0        0.0802018042295     0.192278897509      0.908759696817      -0.339299297058     0.908759696817      -0.339299297058     0.0802018042295     0.192278897509      
8900000000.0        0.0817412729842     0.194026268529      0.906966029181      -0.342730747094     0.906966029181      -0.342730747094     0.0817412729842     0.194026268529      
9000000000.0        0.0832933508771     0.195760071466      0.90515675234       -0.346148986341     0.90515675234       -0.346148986341     0.0832933508771     0.195760071466      
9100000000.0        0.0848578990796     0.197480217898      0.903332000754      -0.349553927333     0.903332000754      -0.349553927333     0.0848578990796     0.197480217898      
9200000000.0        0.086434778189      0.19918662113       0.901491909424      -0.3529454843       0.901491909424      -0.3529454843       0.086434778189      0.19918662113       
9300000000.0        0.0880238482541     0.20087919619       0.899636613864      -0.35632357317      0.899636613864      -0.35632357317      0.0880238482541     0.20087919619       
9400000000.0        0.0896249688003     0.202557859836      0.897766250078      -0.359688111566     0.897766250078      -0.359688111566     0.0896249688003     0.202557859836      
9500000000.0        0.0912379988546     0.204222530552      0.895880954533      -0.36303901881      0.895880954533      -0.36303901881      0.0912379988546     0.204222530552      
9600000000.0        0.0928627969701     0.205873128547      0.893980864137      -0.366376215919     0.893980864137      -0.366376215919     0.0928627969701     0.205873128547      
9700000000.0        0.0944992212513     0.207509575757      0.892066116209      -0.369699625609     0.892066116209      -0.369699625609     0.0944992212513     0.207509575757      
9800000000.0        0.0961471293785     0.20913179584       0.890136848463      -0.373009172291     0.890136848463      -0.373009172291     0.0961471293785     0.20913179584       
9900000000.0        0.097806378632      0.210739714178      0.888193198974      -0.376304782069     0.888193198974      -0.376304782069     0.097806378632      0.210739714178      
10000000000.0       0.0994768259165     0.212333257875      0.88623530616       -0.379586382743     0.88623530616       -0.379586382743     0.0994768259165     0.212333257875      
