# Hz S RI R 50.00 
100000000.0         2.88769711367e-05   -1.85346280298e-05  0.999969942478      -0.000156188571026  0.999969942478      -0.000156188571026  2.88769711363e-05   -1.85346280298e-05  
200000000.0         2.89838772434e-05   -3.70715243909e-05  0.99996962448       -0.000312382459334  0.99996962448       -0.000312382459334  2.89838772436e-05   -3.70715243909e-05  
300000000.0         2.90334012847e-05   -5.56117798827e-05  0.999969333314      -0.000468584431144  0.999969333314      -0.000468584431144  2.90334012849e-05   -5.56117798827e-05  
400000000.0         2.90510346053e-05   -7.41562085807e-05  0.999969043475      -0.000624796586759  0.999969043475      -0.000624796586759  2.90510346053e-05   -7.41562085808e-05  
500000000.0         2.90465719925e-05   -9.27054728323e-05  0.999968745157      -0.000781020690556  0.999968745157      -0.000781020690556  2.90465719928e-05   -9.27054728323e-05  
600000000.0         2.90249967367e-05   -0.000111260133753  0.999968433362      -0.00093725828926   0.999968433362      -0.00093725828926   2.90249967367e-05   -0.000111260133753  
700000000.0         2.89892444847e-05   -0.000129820672368  0.999968105142      -0.00109351076694   0.999968105142      -0.00109351076694   2.89892444847e-05   -0.000129820672368  
800000000.0         2.89412112617e-05   -0.000148387506855  0.999967758583      -0.00124977938228   0.999967758583      -0.00124977938228   2.89412112617e-05   -0.000148387506855  
900000000.0         2.88822020662e-05   -0.000166961002891  0.999967392366      -0.00140606529192   0.999967392366      -0.00140606529192   2.88822020662e-05   -0.000166961002891  
1000000000.0        2.88131577841e-05   -0.000185541479446  0.999967005532      -0.00156236956538   0.999967005532      -0.00156236956538   2.88131577839e-05   -0.000185541479446  
1100000000.0        2.87347814392e-05   -0.000204129216448  0.999966597361      -0.00171869319935   0.999966597361      -0.00171869319935   2.87347814392e-05   -0.000204129216448  
1200000000.0        2.86476132594e-05   -0.000222724457529  0.999966167295      -0.00187503712546   0.999966167295      -0.00187503712546   2.86476132592e-05   -0.000222724457529  
1300000000.0        2.85520779251e-05   -0.000241327414636  0.999965714891      -0.00203140221882   0.999965714891      -0.00203140221882   2.85520779253e-05   -0.000241327414636  
1400000000.0        2.84485155588e-05   -0.000259938270066  0.99996523979       -0.00218778930322   0.99996523979       -0.00218778930322   2.84485155588e-05   -0.000259938270066  
1500000000.0        2.83372028482e-05   -0.000278557179927  0.999964741695      -0.00234419915709   0.999964741695      -0.00234419915709   2.83372028484e-05   -0.000278557179927  
1600000000.0        2.82183678757e-05   -0.000297184275425  0.999964220359      -0.00250063251693   0.999964220359      -0.00250063251693   2.82183678755e-05   -0.000297184275425  
1700000000.0        2.80922007811e-05   -0.000315819664238  0.999963675572      -0.00265709008043   0.999963675572      -0.00265709008043   2.80922007809e-05   -0.000315819664238  
1800000000.0        2.79588616445e-05   -0.000334463433887  0.999963107152      -0.00281357251136   0.999963107152      -0.00281357251136   2.79588616443e-05   -0.000334463433887  
1900000000.0        2.78184863638e-05   -0.000353115651139  0.999962514944      -0.00297008044026   0.999962514944      -0.00297008044026   2.78184863638e-05   -0.000353115651139  
2000000000.0        2.76711911762e-05   -0.000371776364775  0.99996189881       -0.00312661446828   0.99996189881       -0.00312661446828   2.76711911762e-05   -0.000371776364775  
2100000000.0        2.75170761461e-05   -0.000390445605332  0.999961258629      -0.00328317516795   0.999961258629      -0.00328317516795   2.75170761457e-05   -0.000390445605332  
2200000000.0        2.73562279158e-05   -0.000409123387538  0.999960594292      -0.0034397630864    0.999960594292      -0.0034397630864    2.73562279158e-05   -0.000409123387538  
2300000000.0        2.71887218901e-05   -0.000427809710045  0.999959905702      -0.00359637874591   0.999959905702      -0.00359637874591   2.71887218901e-05   -0.000427809710045  
2400000000.0        2.70146239838e-05   -0.000446504556721  0.999959192773      -0.0037530226458    0.999959192773      -0.0037530226458    2.70146239838e-05   -0.000446504556721  
2500000000.0        2.68339920593e-05   -0.000465207897689  0.999958455423      -0.00390969526412   0.999958455423      -0.00390969526412   2.6833992059e-05    -0.000465207897689  
2600000000.0        2.66468770889e-05   -0.000483919689462  0.99995769358       -0.0040663970583    0.99995769358       -0.0040663970583    2.66468770889e-05   -0.000483919689462  
2700000000.0        2.64533241316e-05   -0.000502639876184  0.999956907177      -0.00422312846687   0.999956907177      -0.00422312846687   2.64533241314e-05   -0.000502639876184  
2800000000.0        2.62533731226e-05   -0.000521368389813  0.999956096151      -0.00437988991009   0.999956096151      -0.00437988991009   2.62533731223e-05   -0.000521368389813  
2900000000.0        2.60470595619e-05   -0.000540105150667  0.999955260444      -0.00453668179087   0.999955260444      -0.00453668179087   2.60470595619e-05   -0.000540105150667  
3000000000.0        2.58344150796e-05   -0.000558850068365  0.999954400003      -0.00469350449611   0.999954400003      -0.00469350449611   2.58344150796e-05   -0.000558850068365  
3100000000.0        2.56154679183e-05   -0.000577603041999  0.999953514776      -0.00485035839716   0.999953514776      -0.00485035839716   2.56154679186e-05   -0.000577603041999  
3200000000.0        2.53902433511e-05   -0.000596363960426  0.999952604715      -0.00500724385046   0.999952604715      -0.00500724385046   2.53902433511e-05   -0.000596363960426  
3300000000.0        2.51587640316e-05   -0.000615132703199  0.999951669776      -0.0051641611987    0.999951669776      -0.0051641611987    2.51587640316e-05   -0.000615132703199  
3400000000.0        2.49210503056e-05   -0.000633909140587  0.999950709916      -0.00532111077116   0.999950709916      -0.00532111077116   2.49210503056e-05   -0.000633909140587  
3500000000.0        2.46771204779e-05   -0.000652693133981  0.999949725093      -0.00547809288428   0.999949725093      -0.00547809288428   2.46771204775e-05   -0.000652693133981  
3600000000.0        2.44269910328e-05   -0.000671484536485  0.999948715269      -0.00563510784255   0.999948715269      -0.00563510784255   2.44269910321e-05   -0.000671484536485  
3700000000.0        2.41706768525e-05   -0.00069028319299   0.999947680407      -0.00579215593872   0.999947680407      -0.00579215593872   2.41706768525e-05   -0.00069028319299   
3800000000.0        2.39081913869e-05   -0.000709088940702  0.99994662047       -0.00594923745455   0.99994662047       -0.00594923745455   2.39081913871e-05   -0.000709088940702  
3900000000.0        2.36395468072e-05   -0.000727901609511  0.999945535423      -0.00610635266137   0.999945535423      -0.00610635266137   2.36395468072e-05   -0.000727901609511  
4000000000.0        2.33647541494e-05   -0.000746721021804  0.999944425234      -0.00626350182003   0.999944425234      -0.00626350182003   2.33647541494e-05   -0.000746721021804  
4100000000.0        2.30838234383e-05   -0.000765546993357  0.999943289871      -0.00642068518197   0.999943289871      -0.00642068518197   2.30838234383e-05   -0.000765546993357  
4200000000.0        2.27967637914e-05   -0.00078437933331   0.999942129301      -0.00657790298931   0.999942129301      -0.00657790298931   2.27967637914e-05   -0.00078437933331   
4300000000.0        2.25035835175e-05   -0.00080321784423   0.999940943494      -0.0067351554751    0.999940943494      -0.0067351554751    2.25035835175e-05   -0.00080321784423   
4400000000.0        2.22042902125e-05   -0.000822062322809  0.999939732422      -0.00689244286408   0.999939732422      -0.00689244286408   2.22042902123e-05   -0.000822062322809  
4500000000.0        2.18988908263e-05   -0.000840912559623  0.999938496054      -0.00704976537263   0.999938496054      -0.00704976537263   2.1898890826e-05    -0.000840912559623  
4600000000.0        2.15873917389e-05   -0.000859768339664  0.999937234363      -0.00720712320935   0.999937234363      -0.00720712320935   2.15873917389e-05   -0.000859768339664  
4700000000.0        2.12697988253e-05   -0.000878629442483  0.999935947322      -0.00736451657535   0.999935947322      -0.00736451657535   2.12697988253e-05   -0.000878629442483  
4800000000.0        2.09461175098e-05   -0.000897495642333  0.999934634903      -0.00752194566449   0.999934634903      -0.00752194566449   2.09461175098e-05   -0.000897495642333  
4900000000.0        2.06163528205e-05   -0.000916366708221  0.99993329708       -0.00767941066352   0.99993329708       -0.00767941066352   2.06163528205e-05   -0.000916366708221  
5000000000.0        2.02805094351e-05   -0.000935242404463  0.999931933826      -0.0078369117527    0.999931933826      -0.0078369117527    2.02805094351e-05   -0.000935242404463  
5100000000.0        1.99385917239e-05   -0.000954122490539  0.999930545117      -0.00799444910581   0.999930545117      -0.00799444910581   1.99385917239e-05   -0.000954122490539  
5200000000.0        1.95906037921e-05   -0.000973006721375  0.999929130928      -0.00815202289043   0.999929130928      -0.00815202289043   1.95906037921e-05   -0.000973006721375  
5300000000.0        1.92365495104e-05   -0.000991894847447  0.999927691233      -0.00830963326816   0.999927691233      -0.00830963326816   1.92365495104e-05   -0.000991894847447  
5400000000.0        1.88764325528e-05   -0.00101078661507   0.999926226009      -0.00846728039502   0.999926226009      -0.00846728039502   1.88764325528e-05   -0.00101078661507   
5500000000.0        1.85102564243e-05   -0.00102968176634   0.99992473523       -0.00862496442137   0.99992473523       -0.00862496442137   1.85102564243e-05   -0.00102968176634   
5600000000.0        1.81380244886e-05   -0.0010485800395    0.999923218875      -0.00878268549243   0.999923218875      -0.00878268549243   1.81380244888e-05   -0.0010485800395    
5700000000.0        1.77597399929e-05   -0.00106748116885   0.999921676918      -0.00894044374819   0.999921676918      -0.00894044374819   1.77597399929e-05   -0.00106748116885   
5800000000.0        1.73754060941e-05   -0.00108638488506   0.999920109338      -0.00909823932382   0.999920109338      -0.00909823932382   1.73754060941e-05   -0.00108638488506   
5900000000.0        1.69850258771e-05   -0.00110529091516   0.999918516111      -0.00925607234971   0.999918516111      -0.00925607234971   1.69850258771e-05   -0.00110529091516   
6000000000.0        1.65886023773e-05   -0.00112419898285   0.999916897215      -0.00941394295181   0.999916897215      -0.00941394295181   1.65886023769e-05   -0.00112419898285   
6100000000.0        1.61861385959e-05   -0.00114310880831   0.999915252626      -0.00957185125151   0.999915252626      -0.00957185125151   1.61861385957e-05   -0.00114310880831   
6200000000.0        1.57776375203e-05   -0.00116202010865   0.999913582324      -0.00972979736615   0.999913582324      -0.00972979736615   1.57776375203e-05   -0.00116202010865   
6300000000.0        1.53631021396e-05   -0.00118093259771   0.999911886285      -0.00988778140884   0.999911886285      -0.00988778140884   1.53631021398e-05   -0.00118093259771   
6400000000.0        1.49425354574e-05   -0.00119984598637   0.999910164489      -0.0100458034888    0.999910164489      -0.0100458034888    1.49425354574e-05   -0.00119984598637   
6500000000.0        1.45159405061e-05   -0.00121875998265   0.999908416913      -0.0102038637117    0.999908416913      -0.0102038637117    1.45159405056e-05   -0.00121875998265   
6600000000.0        1.40833203612e-05   -0.00123767429162   0.999906643536      -0.0103619621791    0.999906643536      -0.0103619621791    1.4083320361e-05    -0.00123767429162   
6700000000.0        1.36446781496e-05   -0.00125658861572   0.999904844336      -0.0105200989894    0.999904844336      -0.0105200989894    1.36446781496e-05   -0.00125658861572   
6800000000.0        1.32000170665e-05   -0.00127550265466   0.999903019293      -0.0106782742376    0.999903019293      -0.0106782742376    1.32000170665e-05   -0.00127550265466   
6900000000.0        1.2749340381e-05    -0.00129441610562   0.999901168385      -0.0108364880152    0.999901168385      -0.0108364880152    1.27493403805e-05   -0.00129441610562   
7000000000.0        1.2292651445e-05    -0.00131332866323   0.999899291592      -0.0109947404107    0.999899291592      -0.0109947404107    1.22926514452e-05   -0.00131332866323   
7100000000.0        1.18299537097e-05   -0.0013322400198    0.999897388893      -0.0111530315094    0.999897388893      -0.0111530315094    1.18299537097e-05   -0.0013322400198    
7200000000.0        1.13612507229e-05   -0.0013511498653    0.999895460266      -0.0113113613939    0.999895460266      -0.0113113613939    1.13612507231e-05   -0.0013511498653    
7300000000.0        1.08865461461e-05   -0.0013700578874    0.999893505692      -0.0114697301438    0.999893505692      -0.0114697301438    1.08865461463e-05   -0.0013700578874    
7400000000.0        1.04058437598e-05   -0.00138896377159   0.99989152515       -0.0116281378359    0.99989152515       -0.0116281378359    1.040584376e-05     -0.00138896377159   
7500000000.0        9.91914746606e-06   -0.00140786720123   0.999889518619      -0.0117865845444    0.999889518619      -0.0117865845444    9.91914746651e-06   -0.00140786720123   
7600000000.0        9.42646130242e-06   -0.00142676785772   0.99988748608       -0.0119450703411    0.99988748608       -0.0119450703411    9.42646130264e-06   -0.00142676785772   
7700000000.0        8.9277894415e-06    -0.00144566542028   0.999885427513      -0.0121035952949    0.999885427513      -0.0121035952949    8.9277894415e-06    -0.00144566542028   
7800000000.0        8.42313620031e-06   -0.00146455956644   0.999883342896      -0.0122621594729    0.999883342896      -0.0122621594729    8.42313620031e-06   -0.00146455956644   
7900000000.0        7.91250604593e-06   -0.00148344997161   0.999881232211      -0.0124207629394    0.999881232211      -0.0124207629394    7.91250604593e-06   -0.00148344997161   
8000000000.0        7.39590359933e-06   -0.00150233630963   0.999879095438      -0.0125794057567    0.999879095438      -0.0125794057567    7.39590359933e-06   -0.00150233630963   
8100000000.0        6.87333364024e-06   -0.00152121825237   0.999876932556      -0.0127380879849    0.999876932556      -0.0127380879849    6.87333364047e-06   -0.00152121825237   
8200000000.0        6.34480111339e-06   -0.00154009547014   0.999874743545      -0.012896809682     0.999874743545      -0.012896809682     6.34480111361e-06   -0.00154009547014   
8300000000.0        5.81031113178e-06   -0.00155896763152   0.999872528388      -0.013055570904     0.999872528388      -0.013055570904     5.81031113178e-06   -0.00155896763152   
8400000000.0        5.26986898119e-06   -0.00157783440351   0.999870287062      -0.0132143717049    0.999870287062      -0.0132143717049    5.26986898075e-06   -0.00157783440351   
8500000000.0        4.72348012104e-06   -0.00159669545155   0.999868019551      -0.013373212137     0.999868019551      -0.013373212137     4.72348012126e-06   -0.00159669545155   
8600000000.0        4.17115019635e-06   -0.00161555043956   0.999865725832      -0.0135320922505    0.999865725832      -0.0135320922505    4.17115019635e-06   -0.00161555043956   
8700000000.0        3.61288503092e-06   -0.00163439903002   0.999863405889      -0.013691012094     0.999863405889      -0.013691012094     3.61288503115e-06   -0.00163439903002   
8800000000.0        3.04869063905e-06   -0.00165324088399   0.9998610597        -0.0138499717144    0.9998610597        -0.0138499717144    3.04869063883e-06   -0.00165324088399   
8900000000.0        2.47857322178e-06   -0.00167207566112   0.999858687247      -0.0140089711569    0.999858687247      -0.0140089711569    2.47857322178e-06   -0.00167207566112   
9000000000.0        1.90253917798e-06   -0.0016909030197    0.999856288511      -0.0141680104652    0.999856288511      -0.0141680104652    1.9025391782e-06    -0.0016909030197    
9100000000.0        1.32059509972e-06   -0.00170972261678   0.999853863473      -0.0143270896813    0.999853863473      -0.0143270896813    1.32059509972e-06   -0.00170972261678   
9200000000.0        7.32747778009e-07   -0.00172853410816   0.999851412113      -0.0144862088458    0.999851412113      -0.0144862088458    7.32747777787e-07   -0.00172853410816   
9300000000.0        1.39004206368e-07   -0.0017473371483    0.999848934413      -0.0146453679979    0.999848934413      -0.0146453679979    1.3900420659e-07    -0.0017473371483    
9400000000.0        -4.60628418075e-07  -0.00176613139062   0.999846430353      -0.0148045671753    0.999846430353      -0.0148045671753    -4.60628417964e-07  -0.00176613139062   
9500000000.0        -1.0661426908e-06   -0.00178491648725   0.999843899915      -0.0149638064142    0.999843899915      -0.0149638064142    -1.06614269091e-06  -0.00178491648725   
9600000000.0        -1.67753100133e-06  -0.00180369208933   0.99984134308       -0.0151230857499    0.99984134308       -0.0151230857499    -1.67753100133e-06  -0.00180369208933   
9700000000.0        -2.29478552505e-06  -0.00182245784677   0.999838759828      -0.0152824052161    0.999838759828      -0.0152824052161    -2.29478552494e-06  -0.00182245784677   
9800000000.0        -2.91789822804e-06  -0.00184121340857   0.999836150142      -0.0154417648453    0.999836150142      -0.0154417648453    -2.91789822804e-06  -0.00184121340857   
9900000000.0        -3.54686085691e-06  -0.00185995842257   0.999833514003      -0.0156011646689    0.999833514003      -0.0156011646689    -3.54686085691e-06  -0.00185995842257   
10000000000.0       -4.18166494753e-06  -0.00187869253571   0.999830851392      -0.015760604717     0.999830851392      -0.015760604717     -4.18166494776e-06  -0.00187869253571   
