# Hz S RI R 50.00 
100000000.0         5.90582363829e-05   -0.0110269991427    0.999661150265      -0.011620410098     0.999661150265      -0.011620410098     5.90582363831e-05   -0.0110269991427    
200000000.0         -0.000335020706521  -0.0220449380589    0.999263840536      -0.0232317729811    0.999263840536      -0.0232317729811    -0.000335020706521  -0.0220449380589    
300000000.0         -0.000984968446265  -0.0330452430251    0.998610997057      -0.0348255263078    0.998610997057      -0.0348255263078    -0.000984968446265  -0.0330452430251    
400000000.0         -0.00188963454126   -0.0440193754254    0.997703427465      -0.0463931405736    0.997703427465      -0.0463931405736    -0.00188963454126   -0.0440193754254    
500000000.0         -0.00304759557414   -0.0549588572596    0.996542423621      -0.0579261459766    0.996542423621      -0.0579261459766    -0.00304759557414   -0.0549588572596    
600000000.0         -0.00445708660419   -0.065855293591     0.995129683569      -0.0694161552254    0.995129683569      -0.0694161552254    -0.00445708660419   -0.065855293591     
700000000.0         -0.00611598877782   -0.0767003938059    0.993467286745      -0.0808548849656    0.993467286745      -0.0808548849656    -0.00611598877782   -0.0767003938059    
800000000.0         -0.00802183013993   -0.0874859920119    0.991557679604      -0.0922341762737    0.991557679604      -0.0922341762737    -0.00802183013993   -0.0874859920119    
900000000.0         -0.0101717915174    -0.0982040666334    0.989403663724      -0.103546014312     0.989403663724      -0.103546014312     -0.0101717915174    -0.0982040666334    
1000000000.0        -0.0125627151272    -0.108846759178     0.987008384143      -0.114782547135     0.987008384143      -0.114782547135     -0.0125627151272    -0.108846759178     
1100000000.0        -0.0151911150249    -0.11940639212      0.984375317226      -0.125936103608     0.984375317226      -0.125936103608     -0.0151911150249    -0.11940639212      
1200000000.0        -0.0180531889791    -0.129875485845     0.981508257777      -0.136999210367     0.981508257777      -0.136999210367     -0.0180531889791    -0.129875485845     
1300000000.0        -0.0211448315313    -0.140246774588     0.978411305356      -0.147964607777     0.978411305356      -0.147964607777     -0.0211448315313    -0.140246774588     
1400000000.0        -0.0244616480748    -0.150513221312     0.97508884978       -0.158825264828     0.97508884978       -0.158825264828     -0.0244616480748    -0.150513221312     
1500000000.0        -0.0279989698175    -0.160668031477     0.971545555881      -0.169574392909     0.971545555881      -0.169574392909     -0.0279989698175    -0.160668031477     
1600000000.0        -0.0317518695091    -0.170704665651     0.967786347578      -0.180205458433     0.967786347578      -0.180205458433     -0.0317518695091    -0.170704665651     
1700000000.0        -0.0357151778201    -0.180616850932     0.963816391361      -0.190712194266     0.963816391361      -0.190712194266     -0.0357151778201    -0.180616850932     
1800000000.0        -0.0398835002651    -0.190398591152     0.95964107926       -0.201088609935     0.95964107926       -0.201088609935     -0.0398835002651    -0.190398591152     
1900000000.0        -0.0442512345639    -0.200044175843     0.955266011403      -0.211329000604     0.955266011403      -0.211329000604     -0.0442512345639    -0.200044175843     
2000000000.0        -0.0488125883383    -0.20954818796      0.950696978267      -0.221427954796     0.950696978267      -0.221427954796     -0.0488125883383    -0.20954818796      
2100000000.0        -0.0535615970425    -0.218905510345     0.945939942694      -0.23138036087      0.945939942694      -0.23138036087      -0.0535615970425    -0.218905510345     
2200000000.0        -0.0584921420295    -0.228111330962     0.941001021793      -0.241181412252     0.941001021793      -0.241181412252     -0.0584921420295    -0.228111330962     
2300000000.0        -0.0635979686576    -0.237161146894     0.935886468801      -0.250826611439     0.935886468801      -0.250826611439     -0.0635979686576    -0.237161146894     
2400000000.0        -0.0688727043467    -0.24605076714      0.930602655008      -0.260311772797     0.930602655008      -0.260311772797     -0.0688727043467    -0.24605076714      
2500000000.0        -0.0743098764962    -0.254776314228     0.925156051818      -0.26963302418      0.925156051818      -0.26963302418      -0.0743098764962    -0.254776314228     
2600000000.0        -0.0799029301813    -0.263334224693     0.919553213035      -0.27878680741      0.919553213035      -0.27878680741      -0.0799029301813    -0.263334224693     
2700000000.0        -0.0856452455512    -0.271721248446     0.913800757458      -0.287769877645     0.913800757458      -0.287769877645     -0.0856452455512    -0.271721248446     
2800000000.0        -0.0915301548563    -0.279934447097     0.907905351837      -0.296579301706     0.907905351837      -0.296579301706     -0.0915301548563    -0.279934447097     
2900000000.0        -0.0975509590374    -0.287971191264     0.90187369428       -0.305212455391     0.90187369428       -0.305212455391     -0.0975509590374    -0.287971191264     
3000000000.0        -0.103700943818     -0.29582915694      0.895712498152      -0.313667019837     0.895712498152      -0.313667019837     -0.103700943818     -0.29582915694      
3100000000.0        -0.109973395241     -0.303506320963     0.889428476528      -0.321940977        0.889428476528      -0.321940977        -0.109973395241     -0.303506320963     
3200000000.0        -0.11636161461      -0.311000955661     0.883028327256      -0.330032604293     0.883028327256      -0.330032604293     -0.11636161461      -0.311000955661     
3300000000.0        -0.122858932779     -0.318311622725     0.876518718649      -0.337940468466     0.876518718649      -0.337940468466     -0.122858932779     -0.318311622725     
3400000000.0        -0.129458723774     -0.325437166376     0.869906275874      -0.345663418776     0.869906275874      -0.345663418776     -0.129458723774     -0.325437166376     
3500000000.0        -0.136154417694     -0.332376705903     0.863197568036      -0.35320057952      0.863197568036      -0.35320057952      -0.136154417694     -0.332376705903     
3600000000.0        -0.142939512888     -0.339129627619     0.856399096006      -0.360551341995     0.856399096006      -0.360551341995     -0.142939512888     -0.339129627619     
3700000000.0        -0.149807587377     -0.345695576306     0.849517280991      -0.367715355948     0.849517280991      -0.367715355948     -0.149807587377     -0.345695576306     
3800000000.0        -0.156752309515     -0.352074446231     0.842558453875      -0.374692520585     0.842558453875      -0.374692520585     -0.156752309515     -0.352074446231     
3900000000.0        -0.163767447874     -0.358266371761     0.835528845327      -0.381482975196     0.835528845327      -0.381482975196     -0.163767447874     -0.358266371761     
4000000000.0        -0.170846880365     -0.364271717676     0.828434576684      -0.388087089462     0.828434576684      -0.388087089462     -0.170846880365     -0.364271717676     
4100000000.0        -0.177984602578     -0.370091069211     0.821281651606      -0.394505453501     0.821281651606      -0.394505453501     -0.177984602578     -0.370091069211     
4200000000.0        -0.185174735365     -0.375725221904     0.814075948493      -0.400738867715     0.814075948493      -0.400738867715     -0.185174735365     -0.375725221904     
4300000000.0        -0.192411531665     -0.381175171285     0.806823213658      -0.406788332486     0.806823213658      -0.406788332486     -0.192411531665     -0.381175171285     
4400000000.0        -0.199689382591     -0.386442102489     0.799529055239      -0.412655037778     0.799529055239      -0.412655037778     -0.199689382591     -0.386442102489     
4500000000.0        -0.207002822795     -0.3915273798       0.792198937832      -0.418340352695     0.792198937832      -0.418340352695     -0.207002822795     -0.3915273798       
4600000000.0        -0.214346535131     -0.396432536214     0.784838177829      -0.423845815034     0.784838177829      -0.423845815034     -0.214346535131     -0.396432536214     
4700000000.0        -0.221715354639     -0.401159263038     0.777451939435      -0.429173120892     0.777451939435      -0.429173120892     -0.221715354639     -0.401159263038     
4800000000.0        -0.229104271869     -0.40570939957      0.770045231337      -0.434324114342     0.770045231337      -0.434324114342     -0.229104271869     -0.40570939957      
4900000000.0        -0.236508435589     -0.410084922906     0.762622904003      -0.439300777244     0.762622904003      -0.439300777244     -0.236508435589     -0.410084922906     
5000000000.0        -0.24392315488      -0.414287937897     0.75518964758       -0.444105219199     0.75518964758       -0.444105219199     -0.24392315488      -0.414287937897     
5100000000.0        -0.25134390067      -0.418320667288     0.747749990363      -0.448739667693     0.747749990363      -0.448739667693     -0.25134390067      -0.418320667288     
5200000000.0        -0.258766306725     -0.422185442074     0.740308297803      -0.453206458449     0.740308297803      -0.453206458449     -0.258766306725     -0.422185442074     
5300000000.0        -0.266186170131     -0.425884692087     0.732868772024      -0.457508026018     0.732868772024      -0.457508026018     -0.266186170131     -0.425884692087     
5400000000.0        -0.273599451294     -0.429420936839     0.725435451821      -0.461646894622     0.725435451821      -0.461646894622     -0.273599451294     -0.429420936839     
5500000000.0        -0.281002273504     -0.432796776642     0.718012213101      -0.465625669273     0.718012213101      -0.465625669273     -0.281002273504     -0.432796776642     
5600000000.0        -0.288390922073     -0.436014884019     0.71060276974       -0.469447027186     0.71060276974       -0.469447027186     -0.288390922073     -0.436014884019     
5700000000.0        -0.295761843092     -0.439077995414     0.703210674826      -0.473113709488     0.703210674826      -0.473113709488     -0.295761843092     -0.439077995414     
5800000000.0        -0.303111641834     -0.44198890322      0.695839322255      -0.476628513246     0.695839322255      -0.476628513246     -0.303111641834     -0.44198890322      
5900000000.0        -0.310437080839     -0.444750448121     0.688491948652      -0.479994283816     0.688491948652      -0.479994283816     -0.310437080839     -0.444750448121     
6000000000.0        -0.31773507769      -0.447365511772     0.681171635585      -0.483213907513     0.681171635585      -0.483213907513     -0.31773507769      -0.447365511772     
6100000000.0        -0.32500270254      -0.449837009802     0.673881312047      -0.486290304622     0.673881312047      -0.486290304622     -0.32500270254      -0.449837009802     
6200000000.0        -0.332237175384     -0.45216788515      0.666623757176      -0.489226422732     0.666623757176      -0.489226422732     -0.332237175384     -0.45216788515      
6300000000.0        -0.339435863127     -0.454361101739     0.659401603193      -0.492025230411     0.659401603193      -0.492025230411     -0.339435863127     -0.454361101739     
6400000000.0        -0.346596276463     -0.456419638478     0.652217338518      -0.494689711207     0.652217338518      -0.494689711207     -0.346596276463     -0.456419638478     
6500000000.0        -0.35371606659      -0.458346483593     0.64507331106       -0.497222857982     0.64507331106       -0.497222857982     -0.35371606659      -0.458346483593     
6600000000.0        -0.360793021779     -0.46014462929      0.637971731643      -0.499627667571     0.637971731643      -0.499627667571     -0.360793021779     -0.46014462929      
6700000000.0        -0.367825063833     -0.461817066724     0.63091467755       -0.501907135758     0.63091467755       -0.501907135758     -0.367825063833     -0.461817066724     
6800000000.0        -0.374810244439     -0.463366781297     0.623904096167      -0.504064252569     0.623904096167      -0.504064252569     -0.374810244439     -0.463366781297     
6900000000.0        -0.381746741444     -0.464796748253     0.616941808711      -0.506101997866     0.616941808711      -0.506101997866     -0.381746741444     -0.464796748253     
7000000000.0        -0.388632855071     -0.466109928574     0.610029514014      -0.508023337252     0.610029514014      -0.508023337252     -0.388632855071     -0.466109928574     
7100000000.0        -0.395467004083     -0.467309265169     0.603168792354      -0.509831218252     0.603168792354      -0.509831218252     -0.395467004083     -0.467309265169     
7200000000.0        -0.402247721927     -0.468397679343     0.596361109317      -0.511528566782     0.596361109317      -0.511528566782     -0.402247721927     -0.468397679343     
7300000000.0        -0.408973652855     -0.469378067533     0.58960781967       -0.513118283894     0.58960781967       -0.513118283894     -0.408973652855     -0.469378067533     
7400000000.0        -0.415643548048     -0.470253298319     0.582910171243      -0.514603242778     0.582910171243      -0.514603242778     -0.415643548048     -0.470253298319     
7500000000.0        -0.422256261747     -0.471026209671     0.576269308794      -0.515986286014     0.576269308794      -0.515986286014     -0.422256261747     -0.471026209671     
7600000000.0        -0.428810747405     -0.47169960645      0.569686277854      -0.517270223074     0.569686277854      -0.517270223074     -0.428810747405     -0.47169960645      
7700000000.0        -0.435306053878     -0.472276258136     0.563162028544      -0.518457828047     0.563162028544      -0.518457828047     -0.435306053878     -0.472276258136     
7800000000.0        -0.441741321644     -0.47275889678      0.55669741935       -0.519551837591     0.55669741935       -0.519551837591     -0.441741321644     -0.47275889678      
7900000000.0        -0.448115779081     -0.47315021516      0.550293220845      -0.520554949097     0.550293220845      -0.520554949097     -0.448115779081     -0.47315021516      
8000000000.0        -0.454428738796     -0.473452865144     0.543950119363      -0.521469819043     0.543950119363      -0.521469819043     -0.454428738796     -0.473452865144     
8100000000.0        -0.460679594018     -0.473669456245     0.537668720604      -0.522299061553     0.537668720604      -0.522299061553     -0.460679594018     -0.473669456245     
8200000000.0        -0.466867815059     -0.473802554347     0.531449553171      -0.523045247125     0.531449553171      -0.523045247125     -0.466867815059     -0.473802554347     
8300000000.0        -0.472992945845     -0.473854680611     0.525293072044      -0.523710901532     0.525293072044      -0.523710901532     -0.472992945845     -0.473854680611     
8400000000.0        -0.479054600529     -0.473828310533     0.519199661961      -0.52429850489      0.519199661961      -0.52429850489      -0.479054600529     -0.473828310533     
8500000000.0        -0.485052460183     -0.473725873163     0.513169640731      -0.524810490865     0.513169640731      -0.524810490865     -0.485052460183     -0.473725873163     
8600000000.0        -0.490986269571     -0.473549750453     0.507203262457      -0.525249246032     0.507203262457      -0.525249246032     -0.490986269571     -0.473549750453     
8700000000.0        -0.496855834011     -0.473302276754     0.501300720677      -0.525617109365     0.501300720677      -0.525617109365     -0.496855834011     -0.473302276754     
8800000000.0        -0.502661016325     -0.472985738419     0.495462151412      -0.525916371844     0.495462151412      -0.525916371844     -0.502661016325     -0.472985738419     
8900000000.0        -0.508401733879     -0.472602373539     0.489687636125      -0.526149276191     0.489687636125      -0.526149276191     -0.508401733879     -0.472602373539     
9000000000.0        -0.514077955709     -0.472154371774     0.483977204599      -0.5263180167       0.483977204599      -0.5263180167       -0.514077955709     -0.472154371774     
9100000000.0        -0.519689699746     -0.471643874292     0.478330837708      -0.526424739178     0.478330837708      -0.526424739178     -0.519689699746     -0.471643874292     
9200000000.0        -0.525237030123     -0.4710729738       0.472748470111      -0.526471540972     0.472748470111      -0.526471540972     -0.525237030123     -0.4710729738       
9300000000.0        -0.530720054584     -0.470443714654     0.467229992843      -0.526460471085     0.467229992843      -0.526460471085     -0.530720054584     -0.470443714654     
9400000000.0        -0.536138921971     -0.469758093056     0.461775255827      -0.526393530371     0.461775255827      -0.526393530371     -0.536138921971     -0.469758093056     
9500000000.0        -0.541493819817     -0.469018057321     0.456384070286      -0.526272671801     0.456384070286      -0.526272671801     -0.541493819817     -0.469018057321     
9600000000.0        -0.546784972011     -0.468225508208     0.45105621107       -0.526099800795     0.45105621107       -0.526099800795     -0.546784972011     -0.468225508208     
9700000000.0        -0.552012636564     -0.467382299314     0.445791418894      -0.525876775617     0.445791418894      -0.525876775617     -0.552012636564     -0.467382299314     
9800000000.0        -0.557177103461     -0.466490237524     0.440589402488      -0.525605407825     0.440589402488      -0.525605407825     -0.557177103461     -0.466490237524     
9900000000.0        -0.562278692587     -0.465551083507     0.435449840666      -0.525287462767     0.435449840666      -0.525287462767     -0.562278692587     -0.465551083507     
10000000000.0       -0.567317751754     -0.464566552261     0.430372384303      -0.524924660124     0.430372384303      -0.524924660124     -0.567317751754     -0.464566552261     
