# Hz S RI R 50.00 
100000000.0         5.5081951158e-05    -0.00240409847741   0.999925965254      -0.00268835696125   0.999925965254      -0.00268835696125   5.5081951158e-05    -0.00240409847741   
200000000.0         3.36366225868e-05   -0.0048081361012    0.999903523746      -0.00537666108621   0.999903523746      -0.00537666108621   3.36366225868e-05   -0.0048081361012    
300000000.0         -8.47148106553e-07  -0.00721204690814   0.999868187003      -0.00806485107131   0.999868187003      -0.00806485107131   -8.47148106553e-07  -0.00721204690814   
400000000.0         -4.83130544525e-05  -0.00961575763091   0.999819899996      -0.0107528572107    0.999819899996      -0.0107528572107    -4.83130544522e-05  -0.00961575763091   
500000000.0         -0.000108738535769  -0.0120191912677    0.999758642552      -0.0134406055483    0.999758642552      -0.0134406055483    -0.00010873853577   -0.0120191912677    
600000000.0         -0.00018211092173   -0.0144222683511    0.999684405615      -0.0161280193333    0.999684405615      -0.0161280193333    -0.00018211092173   -0.0144222683511    
700000000.0         -0.000268421351668  -0.0168249076019    0.999597185246      -0.0188150197659    0.999597185246      -0.0188150197659    -0.000268421351668  -0.0168249076019    
800000000.0         -0.000367662542217  -0.019227026325     0.999496980456      -0.0215015264479    0.999496980456      -0.0215015264479    -0.000367662542217  -0.019227026325     
900000000.0         -0.000479827783461  -0.0216285406757    0.999383792253      -0.0241874576842    0.999383792253      -0.0241874576842    -0.000479827783462  -0.0216285406757    
1000000000.0        -0.000604910422459  -0.0240293658489    0.99925762317       -0.0268727306967    0.99925762317       -0.0268727306967    -0.000604910422459  -0.0240293658489    
1100000000.0        -0.00074290357028   -0.0264294162223    0.999118477006      -0.0295572617854    0.999118477006      -0.0295572617854    -0.00074290357028   -0.0264294162223    
1200000000.0        -0.000893799922736  -0.0288286054687    0.998966358679      -0.0322409664548    0.998966358679      -0.0322409664548    -0.000893799922736  -0.0288286054687    
1300000000.0        -0.00105759164384   -0.0312268466466    0.998801274137      -0.0349237595155    0.998801274137      -0.0349237595155    -0.00105759164384   -0.0312268466466    
1400000000.0        -0.00123427028614   -0.0336240522762    0.998623230306      -0.0376055551674    0.998623230306      -0.0376055551674    -0.00123427028614   -0.0336240522762    
1500000000.0        -0.00142382673392   -0.036020134403     0.998432235052      -0.0402862670723    0.998432235052      -0.0402862670723    -0.00142382673392   -0.036020134403     
1600000000.0        -0.00162625116126   -0.0384150046535    0.998228297158      -0.042965808414     0.998228297158      -0.042965808414     -0.00162625116126   -0.0384150046535    
1700000000.0        -0.00184153300005   -0.0408085742841    0.998011426314      -0.0456440919529    0.998011426314      -0.0456440919529    -0.00184153300005   -0.0408085742841    
1800000000.0        -0.00206966091507   -0.0432007542248    0.997781633101      -0.0483210300735    0.997781633101      -0.0483210300735    -0.00206966091507   -0.0432007542248    
1900000000.0        -0.00231062278402   -0.0455914551184    0.997538928995      -0.0509965348275    0.997538928995      -0.0509965348275    -0.00231062278402   -0.0455914551184    
2000000000.0        -0.0025644056814    -0.047980587357     0.997283326354      -0.0536705179733    0.997283326354      -0.0536705179733    -0.0025644056814    -0.047980587357     
2100000000.0        -0.00283099586508   -0.0503680611142    0.997014838425      -0.0563428910111    0.997014838425      -0.0563428910111    -0.00283099586508   -0.0503680611142    
2200000000.0        -0.00311037876526   -0.0527537863771    0.996733479334      -0.0590135652176    0.996733479334      -0.0590135652176    -0.00311037876526   -0.0527537863771    
2300000000.0        -0.00340253897507   -0.0551376729747    0.996439264097      -0.0616824516756    0.996439264097      -0.0616824516756    -0.00340253897507   -0.0551376729747    
2400000000.0        -0.00370746024271   -0.0575196306048    0.996132208609      -0.0643494613043    0.996132208609      -0.0643494613043    -0.00370746024271   -0.0575196306048    
2500000000.0        -0.00402512546471   -0.0598995688604    0.995812329654      -0.0670145048865    0.995812329654      -0.0670145048865    -0.00402512546471   -0.0598995688604    
2600000000.0        -0.00435551668029   -0.0622773972539    0.9954796449        -0.0696774930946    0.9954796449        -0.0696774930946    -0.00435551668029   -0.0622773972539    
2700000000.0        -0.00469861506653   -0.0646530252409    0.995134172903      -0.072338336516     0.995134172903      -0.072338336516     -0.00469861506653   -0.0646530252409    
2800000000.0        -0.00505440093441   -0.0670263622425    0.994775933105      -0.0749969456767    0.994775933105      -0.0749969456767    -0.00505440093441   -0.0670263622425    
2900000000.0        -0.00542285372534   -0.0693973176671    0.994404945835      -0.0776532310643    0.994404945835      -0.0776532310643    -0.00542285372534   -0.0693973176671    
3000000000.0        -0.00580395200858   -0.0717658009317    0.994021232312      -0.0803071031504    0.994021232312      -0.0803071031504    -0.00580395200858   -0.0717658009317    
3100000000.0        -0.00619767347899   -0.0741317214822    0.993624814642      -0.0829584724118    0.993624814642      -0.0829584724118    -0.00619767347899   -0.0741317214822    
3200000000.0        -0.00660399495536   -0.0764949888128    0.993215715819      -0.0856072493512    0.993215715819      -0.0856072493512    -0.00660399495536   -0.0764949888128    
3300000000.0        -0.00702289237927   -0.0788555124858    0.992793959725      -0.0882533445179    0.992793959725      -0.0882533445179    -0.00702289237927   -0.0788555124858    
3400000000.0        -0.00745434081436   -0.0812132021498    0.992359571128      -0.0908966685266    0.992359571128      -0.0908966685266    -0.00745434081436   -0.0812132021498    
3500000000.0        -0.00789831444596   -0.0835679675587    0.991912575686      -0.093537132077     0.991912575686      -0.093537132077     -0.00789831444596   -0.0835679675587    
3600000000.0        -0.00835478658121   -0.085919718589     0.991452999939      -0.0961746459725    0.991452999939      -0.0961746459725    -0.00835478658121   -0.085919718589     
3700000000.0        -0.00882372964951   -0.0882683652576    0.990980871313      -0.098809121138     0.990980871313      -0.098809121138     -0.00882372964951   -0.0882683652576    
3800000000.0        -0.00930511520332   -0.0906138177392    0.990496218115      -0.101440468639     0.990496218115      -0.101440468639     -0.00930511520332   -0.0906138177392    
3900000000.0        -0.0097989139193    -0.0929559863826    0.989999069534      -0.104068599696     0.989999069534      -0.104068599696     -0.0097989139193    -0.0929559863826    
4000000000.0        -0.0103050955998    -0.095294781728     0.989489455638      -0.106693425706     0.989489455638      -0.106693425706     -0.0103050955998    -0.095294781728     
4100000000.0        -0.0108236291748    -0.0976301145224    0.988967407372      -0.109314858256     0.988967407372      -0.109314858256     -0.0108236291748    -0.0976301145224    
4200000000.0        -0.0113544827036    -0.0999618957362    0.988432956554      -0.111932809141     0.988432956554      -0.111932809141     -0.0113544827036    -0.0999618957362    
4300000000.0        -0.0118976233778    -0.102290036579     0.987886135872      -0.114547190378     0.987886135872      -0.114547190378     -0.0118976233778    -0.102290036579     
4400000000.0        -0.0124530175237    -0.104614448514     0.987326978885      -0.117157914227     0.987326978885      -0.117157914227     -0.0124530175237    -0.104614448514     
4500000000.0        -0.0130206306051    -0.106935043274     0.986755520015      -0.1197648932       0.986755520015      -0.1197648932       -0.0130206306051    -0.106935043274     
4600000000.0        -0.013600427227     -0.109251732878     0.986171794546      -0.122368040082     0.986171794546      -0.122368040082     -0.013600427227     -0.109251732878     
4700000000.0        -0.0141923711386    -0.111564429643     0.98557583862       -0.124967267942     0.98557583862       -0.124967267942     -0.0141923711386    -0.111564429643     
4800000000.0        -0.0147964252375    -0.113873046198     0.984967689231      -0.12756249015      0.984967689231      -0.12756249015      -0.0147964252375    -0.113873046198     
4900000000.0        -0.0154125515737    -0.116177495503     0.984347384224      -0.130153620394     0.984347384224      -0.130153620394     -0.0154125515737    -0.116177495503     
5000000000.0        -0.0160407113536    -0.118477690858     0.983714962288      -0.132740572688     0.983714962288      -0.132740572688     -0.0160407113536    -0.118477690858     
5100000000.0        -0.0166808649447    -0.120773545921     0.983070462953      -0.135323261393     0.983070462953      -0.135323261393     -0.0166808649447    -0.120773545921     
5200000000.0        -0.0173329718804    -0.123064974717     0.982413926583      -0.137901601226     0.982413926583      -0.137901601226     -0.0173329718804    -0.123064974717     
5300000000.0        -0.0179969908648    -0.125351891657     0.981745394375      -0.140475507277     0.981745394375      -0.140475507277     -0.0179969908648    -0.125351891657     
5400000000.0        -0.0186728797783    -0.127634211545     0.981064908347      -0.143044895021     0.981064908347      -0.143044895021     -0.0186728797783    -0.127634211545     
5500000000.0        -0.0193605956825    -0.129911849598     0.98037251134       -0.14560968033      0.98037251134       -0.14560968033      -0.0193605956825    -0.129911849598     
5600000000.0        -0.0200600948264    -0.132184721451     0.979668247005      -0.148169779492     0.979668247005      -0.148169779492     -0.0200600948264    -0.132184721451     
5700000000.0        -0.0207713326519    -0.134452743178     0.978952159805      -0.150725109215     0.978952159805      -0.150725109215     -0.0207713326519    -0.134452743178     
5800000000.0        -0.0214942637997    -0.136715831298     0.978224295         -0.153275586646     0.978224295         -0.153275586646     -0.0214942637997    -0.136715831298     
5900000000.0        -0.0222288421164    -0.138973902789     0.977484698648      -0.155821129384     0.977484698648      -0.155821129384     -0.0222288421164    -0.138973902789     
6000000000.0        -0.0229750206598    -0.141226875102     0.976733417595      -0.158361655488     0.976733417595      -0.158361655488     -0.0229750206598    -0.141226875102     
6100000000.0        -0.0237327517065    -0.14347466617      0.975970499469      -0.160897083491     0.975970499469      -0.160897083491     -0.0237327517065    -0.14347466617      
6200000000.0        -0.0245019867585    -0.145717194423     0.975195992673      -0.163427332412     0.975195992673      -0.163427332412     -0.0245019867585    -0.145717194423     
6300000000.0        -0.0252826765498    -0.147954378795     0.974409946377      -0.165952321771     0.974409946377      -0.165952321771     -0.0252826765498    -0.147954378795     
6400000000.0        -0.0260747710543    -0.15018613874      0.973612410512      -0.168471971594     0.973612410512      -0.168471971594     -0.0260747710543    -0.15018613874      
6500000000.0        -0.0268782194925    -0.15241239424      0.972803435763      -0.170986202429     0.972803435763      -0.170986202429     -0.0268782194925    -0.15241239424      
6600000000.0        -0.0276929703397    -0.154633065817     0.971983073561      -0.173494935355     0.971983073561      -0.173494935355     -0.0276929703397    -0.154633065817     
6700000000.0        -0.0285189713332    -0.156848074543     0.971151376073      -0.175998091995     0.971151376073      -0.175998091995     -0.0285189713332    -0.156848074543     
6800000000.0        -0.0293561694805    -0.159057342051     0.970308396198      -0.178495594523     0.970308396198      -0.178495594523     -0.0293561694805    -0.159057342051     
6900000000.0        -0.0302045110672    -0.161260790546     0.969454187555      -0.180987365679     0.969454187555      -0.180987365679     -0.0302045110672    -0.161260790546     
7000000000.0        -0.0310639416651    -0.163458342813     0.968588804478      -0.183473328776     0.968588804478      -0.183473328776     -0.0310639416651    -0.163458342813     
7100000000.0        -0.031934406141     -0.165649922229     0.967712302007      -0.185953407711     0.967712302007      -0.185953407711     -0.031934406141     -0.165649922229     
7200000000.0        -0.0328158486644    -0.167835452773     0.966824735876      -0.188427526976     0.966824735876      -0.188427526976     -0.0328158486644    -0.167835452773     
7300000000.0        -0.033708212717     -0.170014859032     0.96592616251       -0.190895611666     0.96592616251       -0.190895611666     -0.033708212717     -0.170014859032     
7400000000.0        -0.0346114411008    -0.172188066215     0.965016639012      -0.193357587487     0.965016639012      -0.193357587487     -0.0346114411008    -0.172188066215     
7500000000.0        -0.0355254759473    -0.174355000158     0.964096223156      -0.195813380772     0.964096223156      -0.195813380772     -0.0355254759473    -0.174355000158     
7600000000.0        -0.0364502587266    -0.176515587336     0.963164973377      -0.198262918482     0.963164973377      -0.198262918482     -0.0364502587266    -0.176515587336     
7700000000.0        -0.0373857302561    -0.17866975487      0.962222948762      -0.200706128218     0.962222948762      -0.200706128218     -0.0373857302561    -0.17866975487      
7800000000.0        -0.0383318307104    -0.180817430537     0.961270209042      -0.203142938232     0.961270209042      -0.203142938232     -0.0383318307104    -0.180817430537     
7900000000.0        -0.0392884996302    -0.182958542775     0.96030681458       -0.205573277433     0.96030681458       -0.205573277433     -0.0392884996302    -0.182958542775     
8000000000.0        -0.0402556759321    -0.185093020696     0.959332826365      -0.207997075395     0.959332826365      -0.207997075395     -0.0402556759321    -0.185093020696     
8100000000.0        -0.0412332979179    -0.187220794089     0.958348305999      -0.210414262365     0.958348305999      -0.210414262365     -0.0412332979179    -0.187220794089     
8200000000.0        -0.0422213032845    -0.189341793432     0.957353315689      -0.212824769274     0.957353315689      -0.212824769274     -0.0422213032845    -0.189341793432     
8300000000.0        -0.0432196291338    -0.191455949896     0.956347918236      -0.215228527739     0.956347918236      -0.215228527739     -0.0432196291338    -0.191455949896     
8400000000.0        -0.0442282119824    -0.193563195355     0.955332177029      -0.217625470077     0.955332177029      -0.217625470077     -0.0442282119824    -0.193563195355     
8500000000.0        -0.0452469877716    -0.19566346239      0.954306156029      -0.220015529306     0.954306156029      -0.220015529306     -0.0452469877716    -0.19566346239      
8600000000.0        -0.0462758918776    -0.197756684301     0.953269919764      -0.222398639156     0.953269919764      -0.222398639156     -0.0462758918776    -0.197756684301     
8700000000.0        -0.0473148591217    -0.199842795108     0.952223533313      -0.224774734074     0.952223533313      -0.224774734074     -0.0473148591217    -0.199842795108     
8800000000.0        -0.0483638237803    -0.201921729561     0.951167062305      -0.227143749234     0.951167062305      -0.227143749234     -0.0483638237803    -0.201921729561     
8900000000.0        -0.0494227195955    -0.203993423144     0.950100572899      -0.229505620537     0.950100572899      -0.229505620537     -0.0494227195955    -0.203993423144     
9000000000.0        -0.0504914797852    -0.206057812086     0.94902413178       -0.231860284623     0.94902413178       -0.231860284623     -0.0504914797852    -0.206057812086     
9100000000.0        -0.0515700370538    -0.208114833359     0.947937806145      -0.234207678874     0.947937806145      -0.234207678874     -0.0515700370538    -0.208114833359     
9200000000.0        -0.0526583236027    -0.210164424691     0.946841663694      -0.236547741422     0.946841663694      -0.236547741422     -0.0526583236027    -0.210164424691     
9300000000.0        -0.0537562711406    -0.212206524567     0.94573577262       -0.238880411153     0.94573577262       -0.238880411153     -0.0537562711406    -0.212206524567     
9400000000.0        -0.0548638108945    -0.214241072237     0.944620201596      -0.241205627711     0.944620201596      -0.241205627711     -0.0548638108945    -0.214241072237     
9500000000.0        -0.0559808736201    -0.216268007719     0.943495019768      -0.243523331506     0.943495019768      -0.243523331506     -0.0559808736201    -0.216268007719     
9600000000.0        -0.0571073896127    -0.218287271806     0.942360296742      -0.245833463719     0.942360296742      -0.245833463719     -0.0571073896127    -0.218287271806     
9700000000.0        -0.058243288718     -0.220298806068     0.941216102571      -0.248135966305     0.941216102571      -0.248135966305     -0.058243288718     -0.220298806068     
9800000000.0        -0.0593885003427    -0.22230255286      0.940062507748      -0.250430781997     0.940062507748      -0.250430781997     -0.0593885003427    -0.22230255286      
9900000000.0        -0.0605429534657    -0.224298455321     0.938899583195      -0.252717854314     0.938899583195      -0.252717854314     -0.0605429534657    -0.224298455321     
10000000000.0       -0.0617065766484    -0.226286457386     0.937727400248      -0.25499712756      0.937727400248      -0.25499712756      -0.0617065766484    -0.226286457386     
