# Hz S RI R 50.00 
100000000.0         0.00521154306135    0.00153584651239    0.994786428805      -0.00232026735751   0.994786428805      -0.00232026735751   0.00521154306135    0.00153584651239    
200000000.0         0.00525639471711    0.00307139094105    0.994739932585      -0.00464024032776   0.994739932585      -0.00464024032776   0.00525639471711    0.00307139094105    
300000000.0         0.00529922067153    0.00460670232873    0.994694845585      -0.00695999270323   0.994694845585      -0.00695999270323   0.00529922067153    0.00460670232873    
400000000.0         0.0053445280415     0.00614177924002    0.994646660628      -0.00927952680744   0.994646660628      -0.00927952680744   0.0053445280415     0.00614177924002    
500000000.0         0.00539405292684    0.00767660379071    0.994593641545      -0.0115988280132    0.994593641545      -0.0115988280132    0.00539405292684    0.00767660379071    
600000000.0         0.00544868046611    0.00921115080316    0.994534903121      -0.0139178740702    0.994534903121      -0.0139178740702    0.00544868046611    0.00921115080316    
700000000.0         0.00550893303536    0.0107453911028     0.994469922895      -0.0162366384892    0.994469922895      -0.0162366384892    0.00550893303536    0.0107453911028     
800000000.0         0.00557514845562    0.0122792930512     0.994398362954      -0.0185550921281    0.994398362954      -0.0185550921281    0.00557514845562    0.0122792930512     
900000000.0         0.00564755935195    0.0138128233713     0.994319990574      -0.020873204052     0.994319990574      -0.020873204052     0.00564755935195    0.0138128233713     
1000000000.0        0.00572633338433    0.0153459476379     0.994234637987      -0.0231909420481    0.994234637987      -0.0231909420481    0.00572633338433    0.0153459476379     
1100000000.0        0.00581159561439    0.0168786305899     0.994142180018      -0.025508272956     0.994142180018      -0.025508272956     0.00581159561439    0.0168786305899     
1200000000.0        0.00590344183453    0.0184108363403     0.994042520754      -0.027825162892     0.994042520754      -0.027825162892     0.00590344183453    0.0184108363403     
1300000000.0        0.00600194695497    0.0199425285236     0.99393558516       -0.0301415774072    0.99393558516       -0.0301415774072    0.00600194695497    0.0199425285236     
1400000000.0        0.00610717051702    0.0214736704028     0.993821313561      -0.0324574816032    0.993821313561      -0.0324574816032    0.00610717051702    0.0214736704028     
1500000000.0        0.00621916045041    0.0230042249492     0.99369965789       -0.0347728402199    0.99369965789       -0.0347728402199    0.00621916045041    0.0230042249492     
1600000000.0        0.00633795571241    0.0245341549041     0.993570579044      -0.0370876177023    0.993570579044      -0.0370876177023    0.00633795571241    0.0245341549041     
1700000000.0        0.00646358818996    0.0260634228263     0.993434044987      -0.0394017782539    0.993434044987      -0.0394017782539    0.00646358818996    0.0260634228263     
1800000000.0        0.00659608410137    0.0275919911307     0.993290029346      -0.0417152858794    0.993290029346      -0.0417152858794    0.00659608410137    0.0275919911307     
1900000000.0        0.0067354650494     0.0291198221191     0.993138510358      -0.0440281044193    0.993138510358      -0.0440281044193    0.0067354650494     0.0291198221191     
2000000000.0        0.00688174882598    0.0306468780057     0.992979470065      -0.0463401975791    0.992979470065      -0.0463401975791    0.00688174882598    0.0306468780057     
2100000000.0        0.0070349500366     0.0321731209385     0.992812893691      -0.0486515289534    0.992812893691      -0.0486515289534    0.0070349500366     0.0321731209385     
2200000000.0        0.00719508059118    0.0336985130173     0.99263876915       -0.0509620620464    0.99263876915       -0.0509620620464    0.00719508059118    0.0336985130173     
2300000000.0        0.00736215009489    0.0352230163088     0.992457086658      -0.0532717602898    0.992457086658      -0.0532717602898    0.00736215009489    0.0352230163088     
2400000000.0        0.00753616616258    0.0367465928602     0.992267838413      -0.0555805870579    0.992267838413      -0.0555805870579    0.00753616616258    0.0367465928602     
2500000000.0        0.00771713467432    0.0382692047107     0.992071018348      -0.0578885056815    0.992071018348      -0.0578885056815    0.00771713467432    0.0382692047107     
2600000000.0        0.00790505998509    0.0397908139014     0.991866621911      -0.0601954794593    0.991866621911      -0.0601954794593    0.00790505998509    0.0397908139014     
2700000000.0        0.00809994509813    0.0413113824846     0.991654645903      -0.0625014716691    0.991654645903      -0.0625014716691    0.00809994509813    0.0413113824846     
2800000000.0        0.00830179180948    0.0428308725317     0.991435088323      -0.0648064455766    0.991435088323      -0.0648064455766    0.00830179180948    0.0428308725317     
2900000000.0        0.00851060082934    0.0443492461409     0.991207948255      -0.0671103644448    0.991207948255      -0.0671103644448    0.00851060082934    0.0443492461409     
3000000000.0        0.00872637188458    0.0458664654431     0.990973225761      -0.0694131915412    0.990973225761      -0.0694131915412    0.00872637188458    0.0458664654431     
3100000000.0        0.00894910380602    0.0473824926086     0.990730921794      -0.0717148901452    0.990730921794      -0.0717148901452    0.00894910380602    0.0473824926086     
3200000000.0        0.00917879460295    0.0488972898523     0.990481038126      -0.0740154235551    0.990481038126      -0.0740154235551    0.00917879460296    0.0488972898523     
3300000000.0        0.00941544152737    0.050410819439      0.990223577282      -0.0763147550933    0.990223577282      -0.0763147550933    0.00941544152737    0.050410819439      
3400000000.0        0.0096590411294     0.0519230436881     0.989958542485      -0.0786128481131    0.989958542485      -0.0786128481131    0.0096590411294     0.0519230436881     
3500000000.0        0.00990958930554    0.0534339249778     0.989685937607      -0.080909666003     0.989685937607      -0.080909666003     0.00990958930554    0.0534339249778     
3600000000.0        0.0101670813407     0.05494342575       0.98940576713       -0.0832051721925    0.98940576713       -0.0832051721925    0.0101670813407     0.05494342575       
3700000000.0        0.0104315119451     0.0564515085134     0.989118036104      -0.0854993301561    0.989118036104      -0.0854993301561    0.0104315119451     0.0564515085134     
3800000000.0        0.0107028752867     0.0579581358479     0.988822750119      -0.0877921034185    0.988822750119      -0.0877921034185    0.0107028752867     0.0579581358479     
3900000000.0        0.0109811650201     0.0594632704076     0.988519915277      -0.090083455558     0.988519915277      -0.090083455558     0.0109811650201     0.0594632704076     
4000000000.0        0.0112663743118     0.0609668749248     0.988209538162      -0.0923733502111    0.988209538162      -0.0923733502111    0.0112663743118     0.0609668749248     
4100000000.0        0.011558495863      0.0624689122127     0.98789162582       -0.0946617510761    0.98789162582       -0.0946617510761    0.011558495863      0.0624689122127     
4200000000.0        0.01185752193       0.0639693451685     0.987566185739      -0.0969486219167    0.987566185739      -0.0969486219167    0.01185752193       0.0639693451685     
4300000000.0        0.0121634443423     0.0654681367768     0.987233225831      -0.0992339265658    0.987233225831      -0.0992339265658    0.0121634443423     0.0654681367768     
4400000000.0        0.012476254519      0.0669652501123     0.986892754415      -0.101517628929     0.986892754415      -0.101517628929     0.012476254519      0.0669652501123     
4500000000.0        0.0127959434838     0.0684606483421     0.986544780202      -0.103799692986     0.986544780202      -0.103799692986     0.0127959434838     0.0684606483421     
4600000000.0        0.0131225018784     0.0699542947293     0.986189312281      -0.106080082797     0.986189312281      -0.106080082797     0.0131225018784     0.0699542947293     
4700000000.0        0.0134559199746     0.0714461526347     0.985826360109      -0.108358762503     0.985826360109      -0.108358762503     0.0134559199746     0.0714461526347     
4800000000.0        0.0137961876854     0.0729361855198     0.985455933497      -0.110635696331     0.985455933497      -0.110635696331     0.0137961876854     0.0729361855198     
4900000000.0        0.0141432945758     0.0744243569493     0.985078042605      -0.112910848594     0.985078042605      -0.112910848594     0.0141432945758     0.0744243569493     
5000000000.0        0.0144972298713     0.075910630593      0.984692697924      -0.115184183696     0.984692697924      -0.115184183696     0.0144972298713     0.075910630593      
5100000000.0        0.0148579824674     0.0773949702289     0.984299910276      -0.117455666135     0.984299910276      -0.117455666135     0.0148579824674     0.0773949702289     
5200000000.0        0.015225540937      0.0788773397448     0.983899690801      -0.119725260503     0.983899690801      -0.119725260503     0.015225540937      0.0788773397448     
5300000000.0        0.0155998935379     0.0803577031408     0.983492050951      -0.121992931491     0.983492050951      -0.121992931491     0.0155998935379     0.0803577031408     
5400000000.0        0.01598102822       0.0818360245315     0.983077002485      -0.124258643892     0.983077002485      -0.124258643892     0.01598102822       0.0818360245315     
5500000000.0        0.0163689326315     0.0833122681481     0.982654557459      -0.1265223626       0.982654557459      -0.1265223626       0.0163689326315     0.0833122681481     
5600000000.0        0.0167635941247     0.0847863983404     0.982224728223      -0.128784052616     0.982224728223      -0.128784052616     0.0167635941247     0.0847863983404     
5700000000.0        0.0171649997619     0.0862583795791     0.981787527413      -0.131043679049     0.981787527413      -0.131043679049     0.0171649997619     0.0862583795791     
5800000000.0        0.0175731363207     0.0877281764574     0.981342967949      -0.133301207118     0.981342967949      -0.133301207118     0.0175731363207     0.0877281764574     
5900000000.0        0.0179879902987     0.0891957536933     0.980891063027      -0.135556602153     0.980891063027      -0.135556602153     0.0179879902987     0.0891957536933     
6000000000.0        0.0184095479184     0.0906610761316     0.980431826116      -0.1378098296       0.980431826116      -0.1378098296       0.0184095479184     0.0906610761316     
6100000000.0        0.0188377951316     0.0921241087454     0.979965270953      -0.140060855023     0.979965270953      -0.140060855023     0.0188377951316     0.0921241087454     
6200000000.0        0.0192727176238     0.0935848166383     0.979491411538      -0.142309644102     0.979491411538      -0.142309644102     0.0192727176238     0.0935848166383     
6300000000.0        0.019714300818      0.0950431650463     0.979010262132      -0.144556162641     0.979010262132      -0.144556162641     0.019714300818      0.0950431650463     
6400000000.0        0.0201625298784     0.0964991193392     0.978521837252      -0.146800376564     0.978521837252      -0.146800376564     0.0201625298784     0.0964991193392     
6500000000.0        0.0206173897148     0.0979526450228     0.978026151667      -0.149042251922     0.978026151667      -0.149042251922     0.0206173897148     0.0979526450228     
6600000000.0        0.0210788649851     0.0994037077407     0.977523220395      -0.151281754892     0.977523220395      -0.151281754892     0.0210788649851     0.0994037077407     
6700000000.0        0.0215469400996     0.100852273275      0.977013058699      -0.153518851782     0.977013058699      -0.153518851782     0.0215469400996     0.100852273275      
6800000000.0        0.0220215992239     0.102298307551      0.976495682086      -0.155753509027     0.976495682086      -0.155753509027     0.0220215992239     0.102298307551      
6900000000.0        0.0225028262817     0.103741776633      0.975971106301      -0.157985693197     0.975971106301      -0.157985693197     0.0225028262817     0.103741776633      
7000000000.0        0.0229906049587     0.105182646734      0.975439347324      -0.160215370997     0.975439347324      -0.160215370997     0.0229906049587     0.105182646734      
7100000000.0        0.0234849187048     0.106620884209      0.97490042137       -0.162442509267     0.97490042137       -0.162442509267     0.0234849187048     0.106620884209      
7200000000.0        0.0239857507372     0.108056455563      0.974354344885      -0.164667074985     0.974354344885      -0.164667074985     0.0239857507372     0.108056455563      
7300000000.0        0.0244930840434     0.10948932745       0.97380113454       -0.16688903527      0.97380113454       -0.16688903527      0.0244930840434     0.10948932745       
7400000000.0        0.0250069013835     0.110919466674      0.973240807232      -0.16910835738      0.973240807232      -0.16910835738      0.0250069013835     0.110919466674      
7500000000.0        0.0255271852935     0.112346840191      0.972673380082      -0.17132500872      0.972673380082      -0.17132500872      0.0255271852935     0.112346840191      
7600000000.0        0.0260539180872     0.113771415112      0.972098870429      -0.173538956836     0.972098870429      -0.173538956836     0.0260539180872     0.113771415112      
7700000000.0        0.0265870818592     0.115193158701      0.97151729583       -0.175750169423     0.97151729583       -0.175750169423     0.0265870818592     0.115193158701      
7800000000.0        0.0271266584872     0.116612038382      0.970928674054      -0.177958614322     0.970928674054      -0.177958614322     0.0271266584872     0.116612038382      
7900000000.0        0.0276726296344     0.118028021733      0.970333023087      -0.180164259526     0.970333023087      -0.180164259526     0.0276726296344     0.118028021733      
8000000000.0        0.0282249767521     0.119441076496      0.969730361121      -0.182367073178     0.969730361121      -0.182367073178     0.0282249767521     0.119441076496      
8100000000.0        0.028783681082      0.120851170571      0.969120706557      -0.184567023573     0.969120706557      -0.184567023573     0.028783681082      0.120851170571      
8200000000.0        0.0293487236583     0.12225827202       0.968504078002      -0.18676407916      0.968504078002      -0.18676407916      0.0293487236583     0.12225827202       
8300000000.0        0.0299200853105     0.12366234907       0.967880494265      -0.188958208547     0.967880494265      -0.188958208547     0.0299200853105     0.12366234907       
8400000000.0        0.030497746665      0.125063370114      0.967249974355      -0.191149380494     0.967249974355      -0.191149380494     0.030497746665      0.125063370114      
8500000000.0        0.0310816881479     0.126461303709      0.966612537482      -0.193337563924     0.966612537482      -0.193337563924     0.0310816881479     0.126461303709      
8600000000.0        0.031671889987      0.12785611858       0.965968203051      -0.195522727919     0.965968203051      -0.195522727919     0.031671889987      0.12785611858       
8700000000.0        0.0322683322137     0.129247783622      0.965316990659      -0.19770484172      0.965316990659      -0.19770484172      0.0322683322137     0.129247783622      
8800000000.0        0.032870994666      0.1306362679        0.964658920098      -0.199883874732     0.964658920098      -0.199883874732     0.032870994666      0.1306362679        
8900000000.0        0.0334798569896     0.132021540649      0.963994011349      -0.202059796527     0.963994011349      -0.202059796527     0.0334798569896     0.132021540649      
9000000000.0        0.0340948986408     0.133403571278      0.963322284581      -0.204232576837     0.963322284581      -0.204232576837     0.0340948986408     0.133403571278      
9100000000.0        0.0347160988883     0.134782329369      0.962643760148      -0.206402185565     0.962643760148      -0.206402185565     0.0347160988883     0.134782329369      
9200000000.0        0.0353434368154     0.136157784679      0.961958458587      -0.208568592781     0.961958458587      -0.208568592781     0.0353434368154     0.136157784679      
9300000000.0        0.035976891322      0.137529907142      0.961266400618      -0.210731768722     0.961266400618      -0.210731768722     0.035976891322      0.137529907142      
9400000000.0        0.0366164411268     0.138898666868      0.960567607141      -0.212891683797     0.960567607141      -0.212891683797     0.0366164411268     0.138898666868      
9500000000.0        0.037262064769      0.140264034145      0.95986209923       -0.215048308588     0.95986209923       -0.215048308588     0.037262064769      0.140264034145      
9600000000.0        0.037913740611      0.141625979441      0.959149898137      -0.217201613848     0.959149898137      -0.217201613848     0.037913740611      0.141625979441      
9700000000.0        0.0385714468398     0.142984473405      0.958431025289      -0.219351570503     0.958431025289      -0.219351570503     0.0385714468398     0.142984473405      
9800000000.0        0.0392351614695     0.144339486867      0.95770550228       -0.221498149656     0.95770550228       -0.221498149656     0.0392351614695     0.144339486867      
9900000000.0        0.0399048623429     0.14569099084       0.956973350877      -0.223641322586     0.956973350877      -0.223641322586     0.0399048623429     0.14569099084       
10000000000.0       0.040580527134      0.147038956518      0.956234593012      -0.225781060748     0.956234593012      -0.225781060748     0.040580527134      0.147038956518      
