# Hz S RI R 50.00 
100000000.0         0.000361455305274   3.0381076853e-05    0.99963557947       -0.00128476647175   0.99963557947       -0.00128476647175   0.000361455305274   3.0381076853e-05    
200000000.0         0.000363418068618   6.07478061526e-05   0.999630077668      -0.00256955190078   0.999630077668      -0.00256955190078   0.000363418068618   6.07478061525e-05   
300000000.0         0.000364823549519   9.10979440341e-05   0.999623559102      -0.00385437146342   0.999623559102      -0.00385437146342   0.00036482354952    9.10979440341e-05   
400000000.0         0.000365985495684   0.000121428796608   0.999615709726      -0.00513923524032   0.999615709726      -0.00513923524032   0.000365985495684   0.000121428796608   
500000000.0         0.000367024490625   0.000151737930332   0.999606408605      -0.0064241511902    0.999606408605      -0.0064241511902    0.000367024490625   0.000151737930332   
600000000.0         0.000368001883534   0.000182023184714   0.999595593993      -0.00770912596321   0.999595593993      -0.00770912596321   0.000368001883534   0.000182023184714   
700000000.0         0.00036895381027    0.000212282643655   0.999583229317      -0.00899416528451   0.999583229317      -0.00899416528451   0.00036895381027    0.000212282643655   
800000000.0         0.000369903601398   0.000242514607079   0.999569290775      -0.0102792741736    0.999569290775      -0.0102792741736    0.000369903601398   0.000242514607079   
900000000.0         0.000370867303451   0.000272717566346   0.999553761815      -0.0115644570854    0.999553761815      -0.0115644570854    0.000370867303452   0.000272717566346   
1000000000.0        0.000371856475872   0.000302890184567   0.999536630346      -0.0128497180071    0.999536630346      -0.0128497180071    0.000371856475872   0.000302890184567   
1100000000.0        0.00037287974498    0.000333031280048   0.999517887182      -0.0141350605291    0.999517887182      -0.0141350605291    0.00037287974498    0.000333031280048   
1200000000.0        0.000373943729536   0.000363139812761   0.999497525123      -0.0154204878985    0.999497525123      -0.0154204878985    0.000373943729535   0.000363139812761   
1300000000.0        0.000375053622809   0.000393214872802   0.999475538371      -0.0167060030608    0.999475538371      -0.0167060030608    0.000375053622809   0.000393214872802   
1400000000.0        0.000376213575089   0.000423255670495   0.999451922152      -0.0179916086936    0.999451922152      -0.0179916086936    0.000376213575089   0.000423255670495   
1500000000.0        0.00037742695427    0.000453261528069   0.999426672458      -0.0192773072338    0.999426672458      -0.0192773072338    0.000377426954271   0.000453261528069   
1600000000.0        0.000378696528874   0.000483231872057   0.999399785863      -0.0205631009004    0.999399785863      -0.0205631009004    0.000378696528874   0.000483231872057   
1700000000.0        0.000380024599946   0.000513166226869   0.999371259392      -0.0218489917138    0.999371259392      -0.0218489917138    0.000380024599946   0.000513166226869   
1800000000.0        0.000381413098268   0.000543064208953   0.999341090428      -0.0231349815124    0.999341090428      -0.0231349815124    0.000381413098268   0.000543064208953   
1900000000.0        0.000382863657411   0.000572925521554   0.999309276639      -0.0244210719663    0.999309276639      -0.0244210719663    0.000382863657411   0.000572925521554   
2000000000.0        0.00038437766958    0.00060274995003    0.999275815922      -0.0257072645903    0.999275815922      -0.0257072645903    0.00038437766958    0.00060274995003    
2100000000.0        0.000385956328969   0.000632537357561   0.999240706364      -0.0269935607543    0.999240706364      -0.0269935607543    0.000385956328969   0.000632537357561   
2200000000.0        0.000387600665878   0.000662287681323   0.999203946204      -0.0282799616932    0.999203946204      -0.0282799616932    0.000387600665878   0.000662287681323   
2300000000.0        0.00038931157389    0.000692000928839   0.999165533811      -0.0295664685153    0.999165533811      -0.0295664685153    0.00038931157389    0.000692000928839   
2400000000.0        0.000391089831763   0.00072167717469    0.999125467661      -0.0308530822104    0.999125467661      -0.0308530822104    0.000391089831763   0.00072167717469    
2500000000.0        0.000392936121252   0.000751316557562   0.99908374632       -0.0321398036565    0.99908374632       -0.0321398036565    0.000392936121252   0.000751316557562   
2600000000.0        0.000394851041741   0.000780919277293   0.999040368431      -0.0334266336261    0.999040368431      -0.0334266336261    0.000394851041741   0.000780919277293   
2700000000.0        0.000396835122366   0.00081048559234    0.998995332702      -0.034713572792     0.998995332702      -0.034713572792     0.000396835122366   0.00081048559234    
2800000000.0        0.000398888832141   0.000840015817305   0.998948637897      -0.0360006217328    0.998948637897      -0.0360006217328    0.000398888832141   0.000840015817305   
2900000000.0        0.000401012588471   0.000869510320575   0.998900282827      -0.0372877809374    0.998900282827      -0.0372877809374    0.000401012588471   0.000869510320575   
3000000000.0        0.000403206764361   0.00089896952225    0.998850266346      -0.0385750508095    0.998850266346      -0.0385750508095    0.000403206764361   0.00089896952225    
3100000000.0        0.000405471694562   0.000928393892037   0.998798587342      -0.0398624316719    0.998798587342      -0.0398624316719    0.000405471694562   0.000928393892037   
3200000000.0        0.000407807680838   0.000957783947386   0.998745244735      -0.0411499237703    0.998745244735      -0.0411499237703    0.000407807680839   0.000957783947386   
3300000000.0        0.000410214996505   0.000987140251635   0.998690237472      -0.0424375272766    0.998690237472      -0.0424375272766    0.000410214996505   0.000987140251635   
3400000000.0        0.000412693890365   0.00101646341232    0.998633564524      -0.0437252422924    0.998633564524      -0.0437252422924    0.000412693890365   0.00101646341232    
3500000000.0        0.00041524459013    0.00104575407955    0.998575224881      -0.0450130688521    0.998575224881      -0.0450130688521    0.00041524459013    0.00104575407955    
3600000000.0        0.000417867305424   0.00107501294445    0.998515217554      -0.0463010069257    0.998515217554      -0.0463010069257    0.000417867305424   0.00107501294445    
3700000000.0        0.00042056223041    0.00110424073772    0.998453541567      -0.0475890564213    0.998453541567      -0.0475890564213    0.000420562230409   0.00110424073772    
3800000000.0        0.000423329546112   0.00113343822817    0.998390195961      -0.0488772171881    0.998390195961      -0.0488772171881    0.000423329546112   0.00113343822817    
3900000000.0        0.00042616942248    0.00116260622149    0.998325179787      -0.0501654890185    0.998325179787      -0.0501654890185    0.00042616942248    0.00116260622149    
4000000000.0        0.00042908202021    0.00119174555888    0.99825849211       -0.0514538716502    0.99825849211       -0.0514538716502    0.00042908202021    0.00119174555888    
4100000000.0        0.000432067492381   0.00122085711588    0.998190132001      -0.0527423647687    0.998190132001      -0.0527423647687    0.000432067492381   0.00122085711588    
4200000000.0        0.000435125985913   0.00124994180121    0.998120098543      -0.054030968009     0.998120098543      -0.054030968009     0.000435125985912   0.00124994180121    
4300000000.0        0.000438257642879   0.00127900055564    0.998048390826      -0.0553196809575    0.998048390826      -0.0553196809575    0.000438257642879   0.00127900055564    
4400000000.0        0.000441462601692   0.00130803435091    0.997975007945      -0.0566085031541    0.997975007945      -0.0566085031541    0.000441462601692   0.00130803435091    
4500000000.0        0.000444740998163   0.00133704418875    0.997899949004      -0.0578974340935    0.997899949004      -0.0578974340935    0.000444740998163   0.00133704418875    
4600000000.0        0.000448092966475   0.00136603109985    0.99782321311       -0.0591864732272    0.99782321311       -0.0591864732272    0.000448092966476   0.00136603109985    
4700000000.0        0.000451518640063   0.00139499614295    0.997744799377      -0.0604756199648    0.997744799377      -0.0604756199648    0.000451518640063   0.00139499614295    
4800000000.0        0.000455018152406   0.0014239404039     0.997664706922      -0.0617648736753    0.997664706922      -0.0617648736753    0.000455018152406   0.0014239404039     
4900000000.0        0.000458591637767   0.0014528649948     0.997582934867      -0.063054233689     0.997582934867      -0.063054233689     0.000458591637766   0.0014528649948     
5000000000.0        0.000462239231854   0.00148177105318    0.997499482337      -0.0643436992983    0.997499482337      -0.0643436992983    0.000462239231854   0.00148177105318    
5100000000.0        0.000465961072438   0.00151065974115    0.99741434846       -0.0656332697594    0.99741434846       -0.0656332697594    0.000465961072438   0.00151065974115    
5200000000.0        0.000469757299917   0.00153953224465    0.997327532368      -0.0669229442933    0.997327532368      -0.0669229442933    0.000469757299917   0.00153953224465    
5300000000.0        0.00047362805783    0.00156838977269    0.997239033193      -0.0682127220867    0.997239033193      -0.0682127220867    0.00047362805783    0.00156838977269    
5400000000.0        0.000477573493339   0.0015972335566     0.997148850073      -0.0695026022938    0.997148850073      -0.0695026022938    0.000477573493339   0.0015972335566     
5500000000.0        0.000481593757674   0.00162606484936    0.997056982145      -0.0707925840365    0.997056982145      -0.0707925840365    0.000481593757674   0.00162606484936    
5600000000.0        0.00048568900654    0.0016548849249     0.99696342855       -0.0720826664062    0.99696342855       -0.0720826664062    0.00048568900654    0.0016548849249     
5700000000.0        0.000489859400497   0.00168369507749    0.99686818843       -0.0733728484641    0.99686818843       -0.0733728484641    0.000489859400497   0.00168369507749    
5800000000.0        0.00049410510532    0.00171249662102    0.996771260927      -0.0746631292427    0.996771260927      -0.0746631292427    0.000494105105319   0.00171249662102    
5900000000.0        0.000498426292317   0.00174129088847    0.996672645188      -0.0759535077463    0.996672645188      -0.0759535077463    0.000498426292317   0.00174129088847    
6000000000.0        0.000502823138652   0.00177007923127    0.996572340359      -0.077243982952     0.996572340359      -0.077243982952     0.000502823138652   0.00177007923127    
6100000000.0        0.000507295827613   0.00179886301876    0.996470345586      -0.0785345538105    0.996470345586      -0.0785345538105    0.000507295827613   0.00179886301876    
6200000000.0        0.000511844548897   0.0018276436376     0.996366660019      -0.079825219247     0.996366660019      -0.079825219247     0.000511844548898   0.0018276436376     
6300000000.0        0.000516469498853   0.00185642249125    0.996261282808      -0.0811159781617    0.996261282808      -0.0811159781617    0.000516469498853   0.00185642249125    
6400000000.0        0.00052117088071    0.00188520099947    0.996154213103      -0.0824068294307    0.996154213103      -0.0824068294307    0.000521170880711   0.00188520099947    
6500000000.0        0.000525948904822   0.00191398059777    0.996045450055      -0.0836977719068    0.996045450055      -0.0836977719068    0.000525948904822   0.00191398059777    
6600000000.0        0.000530803788842   0.00194276273694    0.995934992817      -0.0849888044199    0.995934992817      -0.0849888044199    0.000530803788842   0.00194276273694    
6700000000.0        0.000535735757947   0.00197154888258    0.995822840543      -0.0862799257779    0.995822840543      -0.0862799257779    0.000535735757947   0.00197154888258    
6800000000.0        0.000540745045007   0.00200034051463    0.995708992385      -0.0875711347671    0.995708992385      -0.0875711347671    0.000540745045007   0.00200034051463    
6900000000.0        0.000545831890757   0.00202913912695    0.995593447499      -0.088862430153     0.995593447499      -0.088862430153     0.000545831890757   0.00202913912695    
7000000000.0        0.000550996543977   0.00205794622682    0.995476205039      -0.0901538106809    0.995476205039      -0.0901538106809    0.000550996543977   0.00205794622682    
7100000000.0        0.00055623926162    0.00208676333458    0.995357264162      -0.0914452750762    0.995357264162      -0.0914452750762    0.00055623926162    0.00208676333458    
7200000000.0        0.000561560308987   0.0021155919832     0.995236624023      -0.0927368220449    0.995236624023      -0.0927368220449    0.000561560308987   0.0021155919832     
7300000000.0        0.000566959959843   0.00214443371786    0.99511428378       -0.0940284502748    0.99511428378       -0.0940284502748    0.000566959959843   0.00214443371786    
7400000000.0        0.000572438496563   0.00217329009558    0.994990242589      -0.0953201584351    0.994990242589      -0.0953201584351    0.000572438496563   0.00217329009558    
7500000000.0        0.000577996210248   0.00220216268486    0.99486449961       -0.0966119451773    0.99486449961       -0.0966119451773    0.000577996210248   0.00220216268486    
7600000000.0        0.000583633400845   0.00223105306527    0.994737054         -0.0979038091358    0.994737054         -0.0979038091358    0.000583633400846   0.00223105306527    
7700000000.0        0.000589350377261   0.00225996282711    0.994607904918      -0.0991957489281    0.994607904918      -0.0991957489281    0.000589350377261   0.00225996282711    
7800000000.0        0.00059514745747    0.00228889357108    0.994477051524      -0.100487763155     0.994477051524      -0.100487763155     0.00059514745747    0.00228889357108    
7900000000.0        0.000601024968608   0.00231784690793    0.994344492978      -0.101779850403     0.994344492978      -0.101779850403     0.000601024968608   0.00231784690793    
8000000000.0        0.000606983247077   0.00234682445809    0.994210228439      -0.10307200924      0.994210228439      -0.10307200924      0.000606983247077   0.00234682445809    
8100000000.0        0.000613022638633   0.00237582785143    0.994074257069      -0.10436423822      0.994074257069      -0.10436423822      0.000613022638633   0.00237582785143    
8200000000.0        0.000619143498472   0.00240485872687    0.993936578029      -0.105656535885     0.993936578029      -0.105656535885     0.000619143498472   0.00240485872687    
8300000000.0        0.000625346191318   0.00243391873209    0.993797190481      -0.106948900758     0.993797190481      -0.106948900758     0.000625346191318   0.00243391873209    
8400000000.0        0.000631631091492   0.00246300952328    0.993656093587      -0.108241331351     0.993656093587      -0.108241331351     0.000631631091492   0.00246300952328    
8500000000.0        0.000637998583007   0.00249213276477    0.993513286509      -0.109533826161     0.993513286509      -0.109533826161     0.000637998583007   0.00249213276477    
8600000000.0        0.000644449059612   0.00252129012882    0.99336876841       -0.110826383671     0.99336876841       -0.110826383671     0.000644449059612   0.00252129012882    
8700000000.0        0.00065098292489    0.00255048329528    0.993222538454      -0.112119002353     0.993222538454      -0.112119002353     0.00065098292489    0.00255048329528    
8800000000.0        0.000657600592302   0.00257971395137    0.993074595806      -0.113411680664     0.993074595806      -0.113411680664     0.000657600592302   0.00257971395137    
8900000000.0        0.000664302485264   0.00260898379138    0.992924939628      -0.11470441705      0.992924939628      -0.11470441705      0.000664302485264   0.00260898379138    
9000000000.0        0.000671089037194   0.00263829451644    0.992773569087      -0.115997209943     0.992773569087      -0.115997209943     0.000671089037194   0.00263829451644    
9100000000.0        0.000677960691582   0.00266764783421    0.992620483347      -0.117290057764     0.992620483347      -0.117290057764     0.000677960691582   0.00266764783421    
9200000000.0        0.000684917902038   0.00269704545872    0.992465681575      -0.118582958924     0.992465681575      -0.118582958924     0.000684917902039   0.00269704545872    
9300000000.0        0.000691961132345   0.00272648911004    0.992309162937      -0.119875911819     0.992309162937      -0.119875911819     0.000691961132345   0.00272648911004    
9400000000.0        0.000699090856507   0.00275598051412    0.992150926599      -0.121168914836     0.992150926599      -0.121168914836     0.000699090856507   0.00275598051412    
9500000000.0        0.0007063075588     0.00278552140248    0.991990971729      -0.12246196635      0.991990971729      -0.12246196635      0.000706307558801   0.00278552140248    
9600000000.0        0.000713611733818   0.00281511351207    0.991829297494      -0.123755064728     0.991829297494      -0.123755064728     0.000713611733818   0.00281511351207    
9700000000.0        0.000721003886518   0.00284475858496    0.991665903063      -0.125048208322     0.991665903063      -0.125048208322     0.000721003886518   0.00284475858496    
9800000000.0        0.000728484532257   0.00287445836818    0.991500787605      -0.126341395478     0.991500787605      -0.126341395478     0.000728484532257   0.00287445836818    
9900000000.0        0.000736054196832   0.00290421461351    0.991333950289      -0.127634624528     0.991333950289      -0.127634624528     0.000736054196832   0.00290421461351    
10000000000.0       0.000743713416517   0.00293402907722    0.991165390285      -0.128927893796     0.991165390285      -0.128927893796     0.000743713416518   0.00293402907722    
