# Hz S RI R 50.00 
100000000.0         -0.00285405897302   -0.0530989948514    0.997056992369      -0.0534220692366    0.997056992369      -0.0534220692366    -0.00285405897302   -0.0530989948514    
200000000.0         -0.0113430910132    -0.10528320349      0.988567195632      -0.105929419703     0.988567195632      -0.105929419703     -0.0113430910132    -0.10528320349      
300000000.0         -0.0251392993184    -0.15570181253      0.97477027021       -0.156671275283     0.97477027021       -0.156671275283     -0.0251392993184    -0.15570181253      
400000000.0         -0.0437971769588    -0.203599844813     0.956111646442      -0.204892688335     0.956111646442      -0.204892688335     -0.0437971769588    -0.203599844813     
500000000.0         -0.0667446734015    -0.248351728323     0.93316334539       -0.249968112336     0.93316334539       -0.249968112336     -0.0667446734015    -0.248351728323     
600000000.0         -0.0933243674051    -0.289481763053     0.906582773226      -0.291421870052     0.906582773226      -0.291421870052     -0.0933243674051    -0.289481763053     
700000000.0         -0.12283605364      -0.326670885924     0.877070126312      -0.328934919122     0.877070126312      -0.328934919122     -0.12283605364      -0.326670885924     
800000000.0         -0.154576213424     -0.359751133342     0.845328917442      -0.362339315017     0.845328917442      -0.362339315017     -0.154576213424     -0.359751133342     
900000000.0         -0.187871092381     -0.388690543517     0.812032896849      -0.391603113626     0.812032896849      -0.391603113626     -0.187871092381     -0.388690543517     
1000000000.0        -0.222101603318     -0.413571842627     0.777801148643      -0.416809057617     0.777801148643      -0.416809057617     -0.222101603318     -0.413571842627     
1100000000.0        -0.256719666922     -0.434568199457     0.743181749747      -0.438130331218     0.743181749747      -0.438130331218     -0.256719666922     -0.434568199457     
1200000000.0        -0.2912566715       -0.451918811927     0.708643309924      -0.45580614686      0.708643309924      -0.45580614686      -0.2912566715       -0.451918811927     
1300000000.0        -0.325325391765     -0.465906339093     0.674573052859      -0.470119177269     0.674573052859      -0.470119177269     -0.325325391765     -0.465906339093     
1400000000.0        -0.358616982564     -0.476837412677     0.641279822341      -0.481376067078     0.641279822341      -0.481376067078     -0.358616982564     -0.476837412677     
1500000000.0        -0.390894646777     -0.485026784971     0.609000414293      -0.489891580789     0.609000414293      -0.489891580789     -0.390894646777     -0.485026784971     
1600000000.0        -0.421985376136     -0.490785158259     0.577907835921      -0.495976432256     0.577907835921      -0.495976432256     -0.421985376136     -0.490785158259     
1700000000.0        -0.451770876621     -0.494410404403     0.548120380277      -0.499928504323     0.548120380277      -0.499928504323     -0.451770876621     -0.494410404403     
1800000000.0        -0.480178488164     -0.496181699131     0.519710706542      -0.502026983151     0.519710706542      -0.502026983151     -0.480178488164     -0.496181699131     
1900000000.0        -0.507172635444     -0.496356027081     0.492714389208      -0.502528863304     0.492714389208      -0.502528863304     -0.507172635444     -0.496356027081     
2000000000.0        -0.53274712382      -0.495166522726     0.467137622132      -0.501667288711     0.467137622132      -0.501667288711     -0.53274712382      -0.495166522726     
2100000000.0        -0.556918426765     -0.492822166567     0.442963931095      -0.499651248892     0.442963931095      -0.499651248892     -0.556918426765     -0.492822166567     
2200000000.0        -0.579719994226     -0.489508431096     0.420159865436      -0.496666224948     0.420159865436      -0.496666224948     -0.579719994226     -0.489508431096     
2300000000.0        -0.601197536268     -0.485388550875     0.398679714396      -0.492875459673     0.398679714396      -0.492875459673     -0.601197536268     -0.485388550875     
2400000000.0        -0.621405193296     -0.480605165916     0.378469336897      -0.488421600957     0.378469336897      -0.488421600957     -0.621405193296     -0.480605165916     
2500000000.0        -0.640402483871     -0.47528215254      0.359469213717      -0.48342853267      0.359469213717      -0.48342853267      -0.640402483871     -0.47528215254      
2600000000.0        -0.658251916202     -0.469526509409     0.341616836002      -0.478003260716     0.341616836002      -0.478003260716     -0.658251916202     -0.469526509409     
2700000000.0        -0.675017153815     -0.463430208668     0.324848539588      -0.472237764197     0.324848539588      -0.472237764197     -0.675017153815     -0.463430208668     
2800000000.0        -0.690761635682     -0.45707195433      0.309100884874      -0.466210753819     0.309100884874      -0.466210753819     -0.690761635682     -0.45707195433      
2900000000.0        -0.705547563225     -0.450518813818     0.294311669811      -0.459989303449     0.294311669811      -0.459989303449     -0.705547563225     -0.450518813818     
3000000000.0        -0.719435179349     -0.443827705576     0.280420650876      -0.45363033775      0.280420650876      -0.45363033775      -0.719435179349     -0.443827705576     
3100000000.0        -0.732482276841     -0.437046737438     0.267370034662      -0.44718197056      0.267370034662      -0.44718197056      -0.732482276841     -0.437046737438     
3200000000.0        -0.744743884581     -0.430216398226     0.255104791675      -0.440684696511     0.255104791675      -0.440684696511     -0.744743884581     -0.430216398226     
3300000000.0        -0.756272089697     -0.423370609971     0.243572834172      -0.434172443263     0.243572834172      -0.434172443263     -0.756272089697     -0.423370609971     
3400000000.0        -0.767115962109     -0.41653765096      0.232725091619      -0.427673494565     0.232725091619      -0.427673494565     -0.767115962109     -0.41653765096      
3500000000.0        -0.777321554809     -0.409740961177     0.222515510409      -0.42121129571      0.222515510409      -0.42121129571      -0.777321554809     -0.409740961177     
3600000000.0        -0.786931958956     -0.402999842123     0.212900998768      -0.414805153366     0.212900998768      -0.414805153366     -0.786931958956     -0.402999842123     
3700000000.0        -0.795987397498     -0.396330062735     0.203841333131      -0.408470841512     0.203841333131      -0.408470841512     -0.795987397498     -0.396330062735     
3800000000.0        -0.804525344763     -0.389744382517     0.19529903855       -0.402221124572     0.19529903855       -0.402221124572     -0.804525344763     -0.389744382517     
3900000000.0        -0.812580662451     -0.383253002129     0.187239252706      -0.396066208024     0.187239252706      -0.396066208024     -0.812580662451     -0.383253002129     
4000000000.0        -0.820185744805     -0.376863950747     0.179629580731      -0.390014125764     0.179629580731      -0.390014125764     -0.820185744805     -0.376863950747     
4100000000.0        -0.827370667591     -0.370583418529     0.172439946231      -0.384071072587     0.172439946231      -0.384071072587     -0.827370667591     -0.370583418529     
4200000000.0        -0.834163336973     -0.364416041584     0.165642442414      -0.378241689157     0.165642442414      -0.378241689157     -0.834163336973     -0.364416041584     
4300000000.0        -0.840589635452     -0.358365145937     0.159211186145      -0.372529305991     0.159211186145      -0.372529305991     -0.840589635452     -0.358365145937     
4400000000.0        -0.846673562937     -0.352432956187     0.153122176876      -0.366936152117     0.153122176876      -0.366936152117     -0.846673562937     -0.352432956187     
4500000000.0        -0.852437371641     -0.346620773803     0.147353161754      -0.361463533385     0.147353161754      -0.361463533385     -0.852437371641     -0.346620773803     
4600000000.0        -0.85790169399      -0.34092912935      0.141883507706      -0.356111984692     0.141883507706      -0.356111984692     -0.85790169399      -0.34092912935      
4700000000.0        -0.863085663126     -0.335357912339     0.13669408094       -0.350881399846     0.13669408094       -0.350881399846     -0.863085663126     -0.335357912339     
4800000000.0        -0.868007025822     -0.329906481916     0.131767134027      -0.345771142262     0.131767134027      -0.345771142262     -0.868007025822     -0.329906481916     
4900000000.0        -0.872682247852     -0.324573761123     0.127086200533      -0.340780139222     0.127086200533      -0.340780139222     -0.872682247852     -0.324573761123     
5000000000.0        -0.87712661199      -0.319358317101     0.122635997019      -0.335906962094     0.122635997019      -0.335906962094     -0.87712661199      -0.319358317101     
5100000000.0        -0.881354308894     -0.314258429254     0.118402332154      -0.331149894494     0.118402332154      -0.331149894494     -0.881354308894     -0.314258429254     
5200000000.0        -0.885378521222     -0.309272147128     0.114372022605      -0.326506990173     0.114372022605      -0.326506990173     -0.885378521222     -0.309272147128     
5300000000.0        -0.889211501335     -0.304397339469     0.110532815328      -0.321976122081     0.110532815328      -0.321976122081     -0.889211501335     -0.304397339469     
5400000000.0        -0.892864642984     -0.299631735759     0.106873315882      -0.317555023907     0.106873315882      -0.317555023907     -0.892864642984     -0.299631735759     
5500000000.0        -0.896348547376     -0.294972961311     0.103382922368      -0.31324132518      0.103382922368      -0.31324132518      -0.896348547376     -0.294972961311     
5600000000.0        -0.899673083993     -0.290418566853     0.100051764599      -0.309032580854     0.100051764599      -0.309032580854     -0.899673083993     -0.290418566853     
5700000000.0        -0.902847446575     -0.285966053416     0.0968706481309     -0.304926296204     0.0968706481309     -0.304926296204     -0.902847446575     -0.285966053416     
5800000000.0        -0.905880204594     -0.281612893195     0.0938310027742     -0.300919947688     0.0938310027742     -0.300919947688     -0.905880204594     -0.281612893195     
5900000000.0        -0.908779350601     -0.277356546979     0.0909248352579     -0.297011000384     0.0909248352579     -0.297011000384     -0.908779350601     -0.277356546979     
6000000000.0        -0.911552343743     -0.273194478653     0.0881446857055     -0.293196922488     0.0881446857055     -0.293196922488     -0.911552343743     -0.273194478653     
6100000000.0        -0.914206149777     -0.269124167189     0.0854835876237     -0.289475197322     0.0854835876237     -0.289475197322     -0.914206149777     -0.269124167189     
6200000000.0        -0.916747277855     -0.265143116519     0.0829350311164     -0.285843333194     0.0829350311164     -0.285843333194     -0.916747277855     -0.265143116519     
6300000000.0        -0.919181814349     -0.261248863576     0.0804929290606     -0.282298871453     0.0804929290606     -0.282298871453     -0.919181814349     -0.261248863576     
6400000000.0        -0.921515453956     -0.257438984793     0.0781515859993     -0.278839392989     0.0781515859993     -0.278839392989     -0.921515453956     -0.257438984793     
6500000000.0        -0.923753528317     -0.25371110129      0.0759056695243     -0.275462523418     0.0759056695243     -0.275462523418     -0.923753528317     -0.25371110129      
6600000000.0        -0.925901032348     -0.250062882936     0.0737501839433     -0.272165937153     0.0737501839433     -0.272165937153     -0.925901032348     -0.250062882936     
6700000000.0        -0.927962648483     -0.24649205147      0.0716804460385     -0.268947360521     0.0716804460385     -0.268947360521     -0.927962648483     -0.24649205147      
6800000000.0        -0.929942768996     -0.242996382814     0.0696920627422     -0.265804574083     0.0696920627422     -0.265804574083     -0.929942768996     -0.242996382814     
6900000000.0        -0.931845516569     -0.239573708714     0.0677809105695     -0.262735414275     0.0677809105695     -0.262735414275     -0.931845516569     -0.239573708714     
7000000000.0        -0.933674763253     -0.236221917808     0.0659431166598     -0.259737774478     0.0659431166598     -0.259737774478     -0.933674763253     -0.236221917808     
7100000000.0        -0.935434147946     -0.232938956217     0.0641750412937     -0.256809605611     0.0641750412937     -0.256809605611     -0.935434147946     -0.232938956217     
7200000000.0        -0.937127092528     -0.229722827734     0.0624732617623     -0.253948916324     0.0624732617623     -0.253948916324     -0.937127092528     -0.229722827734     
7300000000.0        -0.938756816747     -0.22657159368      0.0608345574755     -0.251153772851     0.0608345574755     -0.251153772851     -0.938756816747     -0.22657159368      
7400000000.0        -0.940326351981     -0.223483372488     0.0592558962083     -0.248422298602     0.0592558962083     -0.248422298602     -0.940326351981     -0.223483372488     
7500000000.0        -0.941838553941     -0.220456339057     0.0577344213891     -0.24575267351      0.0577344213891     -0.24575267351      -0.941838553941     -0.220456339057     
7600000000.0        -0.943296114428     -0.21748872392      0.0562674403471     -0.243143133211     0.0562674403471     -0.243143133211     -0.943296114428     -0.21748872392      
7700000000.0        -0.944701572206     -0.21457881227      0.0548524134371     -0.240591968061     0.0548524134371     -0.240591968061     -0.944701572206     -0.21457881227      
7800000000.0        -0.946057323071     -0.211724942861     0.0534869439737     -0.238097522044     0.0534869439737     -0.238097522044     -0.946057323071     -0.211724942861     
7900000000.0        -0.94736562917      -0.208925506817     0.0521687689064     -0.235658191584     0.0521687689064     -0.235658191584     -0.94736562917      -0.208925506817     
8000000000.0        -0.948628627648     -0.206178946378     0.0508957501779     -0.233272424286     0.0508957501779     -0.233272424286     -0.948628627648     -0.206178946378     
8100000000.0        -0.949848338658     -0.203483753584     0.0496658667102     -0.230938717626     0.0496658667102     -0.230938717626     -0.949848338658     -0.203483753584     
8200000000.0        -0.9510266728       -0.200838468931     0.0484772069686     -0.228655617609     0.0484772069686     -0.228655617609     -0.9510266728       -0.200838468931     
8300000000.0        -0.95216543802      -0.198241680003     0.0473279620576     -0.226421717397     0.0473279620576     -0.226421717397     -0.95216543802      -0.198241680003     
8400000000.0        -0.95326634603      -0.19569202009      0.0462164193076     -0.224235655928     0.0462164193076     -0.224235655928     -0.95326634603      -0.19569202009      
8500000000.0        -0.954331018263     -0.193188166805     0.0451409563134     -0.222096116544     0.0451409563134     -0.222096116544     -0.954331018263     -0.193188166805     
8600000000.0        -0.955360991419     -0.190728840711     0.0441000353895     -0.220001825604     0.0441000353895     -0.220001825604     -0.955360991419     -0.190728840711     
8700000000.0        -0.956357722628     -0.188312803952     0.0430921984105     -0.217951551128     0.0430921984105     -0.217951551128     -0.956357722628     -0.188312803952     
8800000000.0        -0.957322594251     -0.18593885891      0.0421160620071     -0.215944101449     0.0421160620071     -0.215944101449     -0.957322594251     -0.18593885891      
8900000000.0        -0.958256918353     -0.183605846881     0.0411703130893     -0.21397832389      0.0411703130893     -0.21397832389      -0.958256918353     -0.183605846881     
9000000000.0        -0.959161940882     -0.181312646771     0.0402537046747     -0.212053103465     0.0402537046747     -0.212053103465     -0.959161940882     -0.181312646771     
9100000000.0        -0.960038845556     -0.17905817383      0.0393650519963     -0.210167361605     0.0393650519963     -0.210167361605     -0.960038845556     -0.17905817383      
9200000000.0        -0.960888757495     -0.176841378408     0.0385032288702     -0.208320054925     0.0385032288702     -0.208320054925     -0.960888757495     -0.176841378408     
9300000000.0        -0.961712746615     -0.174661244744     0.0376671643048     -0.206510174009     0.0376671643048     -0.206510174009     -0.961712746615     -0.174661244744     
9400000000.0        -0.962511830793     -0.172516789793     0.036855839332      -0.204736742235     0.036855839332      -0.204736742235     -0.962511830793     -0.172516789793     
9500000000.0        -0.96328697883      -0.170407062082     0.0360682840452     -0.202998814636     0.0360682840452     -0.202998814636     -0.96328697883      -0.170407062082     
9600000000.0        -0.96403911322      -0.1683311406       0.0353035748295     -0.201295476788     0.0353035748295     -0.201295476788     -0.96403911322      -0.1683311406       
9700000000.0        -0.964769112746     -0.166288133724     0.034560831769      -0.19962584374      0.034560831769      -0.19962584374      -0.964769112746     -0.166288133724     
9800000000.0        -0.9654778149       -0.16427717818      0.0338392162196     -0.197989058972     0.0338392162196     -0.197989058972     -0.9654778149       -0.16427717818      
9900000000.0        -0.966166018164     -0.162297438036     0.0331379285359     -0.196384293388     0.0331379285359     -0.196384293388     -0.966166018164     -0.162297438036     
10000000000.0       -0.966834484134     -0.16034810373      0.0324562059396     -0.194810744351     0.0324562059396     -0.194810744351     -0.966834484134     -0.16034810373      
