# Hz S RI R 50.00 
100000000.0         0.00726205136217    0.000982441518728   0.992734294171      -0.00252944753677   0.992734294171      -0.00252944753677   0.00726205136217    0.000982441518728   
200000000.0         0.00731676304624    0.00196451869       0.992674528851      -0.00505853045084   0.992674528851      -0.00505853045084   0.00731676304624    0.00196451869       
300000000.0         0.00736369925879    0.00294634005689    0.992620139717      -0.00758735883609   0.992620139717      -0.00758735883609   0.00736369925879    0.00294634005689    
400000000.0         0.00740913232081    0.00392792526969    0.992564854329      -0.0101159532504    0.992564854329      -0.0101159532504    0.00740913232081    0.00392792526969    
500000000.0         0.00745547908225    0.00490927337531    0.992506255706      -0.0126443133271    0.992506255706      -0.0126443133271    0.00745547908225    0.00490927337531    
600000000.0         0.00750397242665    0.00589037432588    0.992443110825      -0.0151724293962    0.992443110825      -0.0151724293962    0.00750397242665    0.00589037432588    
700000000.0         0.00755534058106    0.00687121310481    0.9923746913        -0.0177002866681    0.9923746913        -0.0177002866681    0.00755534058106    0.00687121310481    
800000000.0         0.00761005510137    0.00785177163704    0.992300525407      -0.0202278671775    0.992300525407      -0.0202278671775    0.00761005510137    0.00785177163704    
900000000.0         0.00766844131217    0.00883202981341    0.992220287635      -0.0227551508306    0.992220287635      -0.0227551508306    0.00766844131217    0.00883202981341    
1000000000.0        0.00773073429796    0.00981196609614    0.992133742701      -0.0252821160263    0.992133742701      -0.0252821160263    0.00773073429796    0.00981196609614    
1100000000.0        0.00779711003407    0.0107915579028     0.992040714416      -0.0278087400516    0.992040714416      -0.0278087400516    0.00779711003407    0.0107915579028     
1200000000.0        0.00786770394016    0.0117707818631     0.991941067132      -0.0303349993471    0.991941067132      -0.0303349993471    0.00786770394016    0.0117707818631     
1300000000.0        0.00794262255528    0.0127496139981     0.991834694068      -0.0328608696935    0.991834694068      -0.0328608696935    0.00794262255528    0.0127496139981     
1400000000.0        0.00802195121315    0.0137280298497     0.991721509633      -0.035386326346     0.991721509633      -0.035386326346     0.00802195121315    0.0137280298497     
1500000000.0        0.00810575927315    0.0147060045764     0.991601444199      -0.0379113441351    0.991601444199      -0.0379113441351    0.00810575927315    0.0147060045764     
1600000000.0        0.00819410379485    0.0156835130265     0.991474440421      -0.0404358975435    0.991474440421      -0.0404358975435    0.00819410379485    0.0156835130265     
1700000000.0        0.00828703218641    0.0166605297949     0.991340450593      -0.0429599607653    0.991340450593      -0.0429599607653    0.00828703218641    0.0166605297949     
1800000000.0        0.00838458415637    0.0176370292677     0.991199434695      -0.0454835077544    0.991199434695      -0.0454835077544    0.00838458415637    0.0176370292677     
1900000000.0        0.00848679317986    0.0186129856583     0.991051358928      -0.0480065122622    0.991051358928      -0.0480065122622    0.00848679317986    0.0186129856583     
2000000000.0        0.00859368761923    0.0195883730369     0.990896194589      -0.050528947869     0.990896194589      -0.050528947869     0.00859368761923    0.0195883730369     
2100000000.0        0.00870529159326    0.0205631653542     0.990733917209      -0.0530507880099    0.990733917209      -0.0530507880099    0.00870529159326    0.0205631653542     
2200000000.0        0.00882162566063    0.0215373364622     0.990564505864      -0.0555720059969    0.990564505864      -0.0555720059969    0.00882162566063    0.0215373364622     
2300000000.0        0.0089427073639     0.0225108601309     0.990387942633      -0.0580925750367    0.990387942633      -0.0580925750367    0.0089427073639     0.0225108601309     
2400000000.0        0.0090685516671     0.0234837100626     0.990204212161      -0.0606124682466    0.990204212161      -0.0606124682466    0.0090685516671     0.0234837100626     
2500000000.0        0.0091991713113     0.0244558599049     0.990013301302      -0.0631316586685    0.990013301302      -0.0631316586685    0.0091991713113     0.0244558599049     
2600000000.0        0.00933457710621    0.0254272832609     0.989815198831      -0.0656501192798    0.989815198831      -0.0656501192798    0.00933457710621    0.0254272832609     
2700000000.0        0.00947477817124    0.026397953699      0.989609895198      -0.0681678230045    0.989609895198      -0.0681678230045    0.00947477817124    0.026397953699      
2800000000.0        0.00961978213627    0.0273678447612     0.989397382331      -0.0706847427218    0.989397382331      -0.0706847427218    0.00961978213627    0.0273678447612     
2900000000.0        0.00976959531021    0.0283369299703     0.989177653465      -0.0732008512744    0.989177653465      -0.0732008512744    0.00976959531021    0.0283369299703     
3000000000.0        0.00992422282321    0.0293051828364     0.988950703004      -0.0757161214756    0.988950703004      -0.0757161214756    0.00992422282321    0.0293051828364     
3100000000.0        0.0100836687476     0.030272576863      0.988716526395      -0.0782305261159    0.988716526395      -0.0782305261159    0.0100836687476     0.030272576863      
3200000000.0        0.0102479362012     0.0312390855524     0.988475120028      -0.0807440379688    0.988475120028      -0.0807440379688    0.0102479362012     0.0312390855524     
3300000000.0        0.0104170274358     0.03220468241       0.988226481146      -0.0832566297961    0.988226481146      -0.0832566297961    0.0104170274358     0.03220468241       
3400000000.0        0.0105909439143     0.0331693409493     0.98797060777       -0.0857682743528    0.98797060777       -0.0857682743528    0.0105909439143     0.0331693409493     
3500000000.0        0.0107696863763     0.0341330346957     0.987707498631      -0.0882789443917    0.987707498631      -0.0882789443917    0.0107696863763     0.0341330346957     
3600000000.0        0.0109532548968     0.03509573719       0.987437153113      -0.0907886126674    0.987437153113      -0.0907886126674    0.0109532548968     0.03509573719       
3700000000.0        0.0111416489362     0.0360574219924     0.987159571202      -0.0932972519401    0.987159571202      -0.0932972519401    0.0111416489362     0.0360574219924     
3800000000.0        0.0113348673851     0.037018062685      0.986874753442      -0.095804834979     0.986874753442      -0.095804834979     0.0113348673851     0.037018062685      
3900000000.0        0.0115329086033     0.0379776328755     0.986582700897      -0.0983113345662    0.986582700897      -0.0983113345662    0.0115329086033     0.0379776328755     
4000000000.0        0.0117357704545     0.0389361061996     0.986283415114      -0.100816723499     0.986283415114      -0.100816723499     0.0117357704545     0.0389361061996     
4100000000.0        0.0119434503371     0.0398934563237     0.985976898094      -0.103320974594     0.985976898094      -0.103320974594     0.0119434503371     0.0398934563237     
4200000000.0        0.0121559452115     0.0408496569474     0.985663152262      -0.105824060688     0.985663152262      -0.105824060688     0.0121559452115     0.0408496569474     
4300000000.0        0.0123732516247     0.041804681806      0.985342180449      -0.108325954643     0.985342180449      -0.108325954643     0.0123732516247     0.041804681806      
4400000000.0        0.012595365732      0.0427585046727     0.985013985863      -0.110826629346     0.985013985863      -0.110826629346     0.012595365732      0.0427585046727     
4500000000.0        0.0128222833171     0.0437110993605     0.984678572072      -0.113326057713     0.984678572072      -0.113326057713     0.0128222833171     0.0437110993605     
4600000000.0        0.0130539998094     0.0446624397246     0.984335942989      -0.115824212693     0.984335942989      -0.115824212693     0.0130539998094     0.0446624397246     
4700000000.0        0.0132905103005     0.0456124996643     0.983986102849      -0.118321067266     0.983986102849      -0.118321067266     0.0132905103005     0.0456124996643     
4800000000.0        0.0135318095582     0.0465612531245     0.983629056205      -0.120816594448     0.983629056205      -0.120816594448     0.0135318095582     0.0465612531245     
4900000000.0        0.0137778920402     0.047508674098      0.983264807903      -0.123310767292     0.983264807903      -0.123310767292     0.0137778920402     0.047508674098      
5000000000.0        0.0140287519057     0.0484547366272     0.982893363081      -0.12580355889      0.982893363081      -0.12580355889      0.0140287519057     0.0484547366272     
5100000000.0        0.0142843830269     0.0493994148054     0.982514727149      -0.128294942375     0.982514727149      -0.128294942375     0.0142843830269     0.0493994148054     
5200000000.0        0.0145447789983     0.0503426827788     0.982128905785      -0.130784890923     0.982128905785      -0.130784890923     0.0145447789983     0.0503426827788     
5300000000.0        0.0148099331467     0.0512845147481     0.981735904923      -0.133273377756     0.981735904923      -0.133273377756     0.0148099331467     0.0512845147481     
5400000000.0        0.0150798385388     0.0522248849697     0.981335730748      -0.135760376138     0.981335730748      -0.135760376138     0.0150798385388     0.0522248849697     
5500000000.0        0.01535448799       0.0531637677577     0.980928389681      -0.138245859386     0.980928389681      -0.138245859386     0.01535448799       0.0531637677577     
5600000000.0        0.0156338740705     0.0541011374847     0.98051388838       -0.140729800861     0.98051388838       -0.140729800861     0.0156338740705     0.0541011374847     
5700000000.0        0.0159179891128     0.0550369685842     0.980092233729      -0.143212173979     0.980092233729      -0.143212173979     0.0159179891128     0.0550369685842     
5800000000.0        0.0162068252174     0.0559712355508     0.979663432833      -0.145692952206     0.979663432833      -0.145692952206     0.0162068252174     0.0559712355508     
5900000000.0        0.0165003742587     0.0569039129426     0.979227493012      -0.148172109064     0.979227493012      -0.148172109064     0.0165003742587     0.0569039129426     
6000000000.0        0.0167986278904     0.057834975382      0.978784421795      -0.150649618128     0.978784421795      -0.150649618128     0.0167986278904     0.057834975382      
6100000000.0        0.0171015775501     0.058764397557      0.978334226918      -0.15312545303      0.978334226918      -0.15312545303      0.0171015775501     0.058764397557      
6200000000.0        0.0174092144646     0.0596921542227     0.977876916314      -0.155599587461     0.977876916314      -0.155599587461     0.0174092144646     0.0596921542227     
6300000000.0        0.0177215296534     0.0606182202024     0.977412498114      -0.158071995171     0.977412498114      -0.158071995171     0.0177215296534     0.0606182202024     
6400000000.0        0.0180385139336     0.061542570389      0.976940980642      -0.160542649971     0.976940980642      -0.160542649971     0.0180385139336     0.061542570389      
6500000000.0        0.0183601579232     0.062465179746      0.976462372407      -0.163011525731     0.976462372407      -0.163011525731     0.0183601579232     0.062465179746      
6600000000.0        0.018686452045      0.0633860233087     0.975976682106      -0.165478596389     0.975976682106      -0.165478596389     0.018686452045      0.0633860233087     
6700000000.0        0.0190173865299     0.0643050761855     0.975483918614      -0.167943835943     0.975483918614      -0.167943835943     0.0190173865299     0.0643050761855     
6800000000.0        0.0193529514201     0.0652223135592     0.974984090986      -0.17040721846      0.974984090986      -0.17040721846      0.0193529514201     0.0652223135592     
6900000000.0        0.0196931365722     0.0661377106877     0.974477208451      -0.17286871807      0.974477208451      -0.17286871807      0.0196931365722     0.0661377106877     
7000000000.0        0.0200379316601     0.0670512429054     0.97396328041       -0.175328308975     0.97396328041       -0.175328308975     0.0200379316601     0.0670512429054     
7100000000.0        0.0203873261779     0.0679628856243     0.973442316433      -0.177785965444     0.973442316433      -0.177785965444     0.0203873261779     0.0679628856243     
7200000000.0        0.0207413094421     0.068872614335      0.972914326258      -0.180241661815     0.972914326258      -0.180241661815     0.0207413094421     0.068872614335      
7300000000.0        0.0210998705946     0.0697804046079     0.972379319786      -0.1826953725       0.972379319786      -0.1826953725       0.0210998705946     0.0697804046079     
7400000000.0        0.021462998605      0.070686232094      0.971837307081      -0.185147071981     0.971837307081      -0.185147071981     0.021462998605      0.070686232094      
7500000000.0        0.0218306822727     0.0715900725261     0.971288298364      -0.187596734816     0.971288298364      -0.187596734816     0.0218306822727     0.0715900725261     
7600000000.0        0.022202910229      0.0724919017201     0.970732304016      -0.190044335635     0.970732304016      -0.190044335635     0.022202910229      0.0724919017201     
7700000000.0        0.0225796709398     0.0733916955754     0.970169334573      -0.192489849145     0.970169334573      -0.192489849145     0.0225796709398     0.0733916955754     
7800000000.0        0.0229609527071     0.0742894300764     0.969599400722      -0.19493325013      0.969599400722      -0.19493325013      0.0229609527071     0.0742894300764     
7900000000.0        0.0233467436711     0.0751850812934     0.969022513305      -0.19737451345      0.969022513305      -0.19737451345      0.0233467436711     0.0751850812934     
8000000000.0        0.0237370318121     0.0760786253833     0.96843868331       -0.199813614045     0.96843868331       -0.199813614045     0.0237370318121     0.0760786253833     
8100000000.0        0.0241318049526     0.0769700385909     0.967847921875      -0.202250526935     0.967847921875      -0.202250526935     0.0241318049526     0.0769700385909     
8200000000.0        0.0245310507585     0.0778592972496     0.967250240282      -0.204685227218     0.967250240282      -0.204685227218     0.0245310507585     0.0778592972496     
8300000000.0        0.0249347567416     0.0787463777825     0.966645649959      -0.207117690078     0.966645649959      -0.207117690078     0.0249347567416     0.0787463777825     
8400000000.0        0.0253429102605     0.0796312567035     0.966034162475      -0.209547890776     0.966034162475      -0.209547890776     0.0253429102605     0.0796312567035     
8500000000.0        0.0257554985227     0.0805139106176     0.965415789541      -0.211975804662     0.965415789541      -0.211975804662     0.0257554985227     0.0805139106176     
8600000000.0        0.0261725085863     0.0813943162224     0.964790543006      -0.214401407166     0.964790543006      -0.214401407166     0.0261725085863     0.0813943162224     
8700000000.0        0.0265939273609     0.0822724503089     0.964158434859      -0.216824673806     0.964158434859      -0.216824673806     0.0265939273609     0.0822724503089     
8800000000.0        0.02701974161       0.083148289762      0.963519477224      -0.219245580184     0.963519477224      -0.219245580184     0.02701974161       0.083148289762      
8900000000.0        0.0274499379517     0.0840218115619     0.962873682359      -0.221664101992     0.962873682359      -0.221664101992     0.0274499379517     0.0840218115619     
9000000000.0        0.0278845028606     0.0848929927845     0.962221062657      -0.224080215006     0.962221062657      -0.224080215006     0.0278845028606     0.0848929927845     
9100000000.0        0.0283234226691     0.0857618106027     0.961561630643      -0.226493895094     0.961561630643      -0.226493895094     0.0283234226691     0.0857618106027     
9200000000.0        0.0287666835687     0.0866282422869     0.960895398971      -0.228905118213     0.960895398971      -0.228905118213     0.0287666835687     0.0866282422869     
9300000000.0        0.0292142716117     0.0874922652057     0.960222380426      -0.231313860409     0.960222380426      -0.231313860409     0.0292142716117     0.0874922652057     
9400000000.0        0.0296661727119     0.0883538568274     0.95954258792       -0.23372009782      0.95954258792       -0.23372009782      0.0296661727119     0.0883538568274     
9500000000.0        0.0301223726468     0.08921299472       0.958856034493      -0.236123806678     0.958856034493      -0.236123806678     0.0301223726468     0.08921299472       
9600000000.0        0.030582857058      0.0900696565526     0.958162733309      -0.238524963305     0.958162733309      -0.238524963305     0.030582857058      0.0900696565526     
9700000000.0        0.0310476114531     0.0909238200958     0.957462697656      -0.240923544119     0.957462697656      -0.240923544119     0.0310476114531     0.0909238200958     
9800000000.0        0.0315166212069     0.0917754632228     0.956755940947      -0.24331952563      0.956755940947      -0.24331952563      0.0315166212069     0.0917754632228     
9900000000.0        0.0319898715623     0.0926245639099     0.956042476714      -0.245712884447     0.956042476714      -0.245712884447     0.0319898715623     0.0926245639099     
10000000000.0       0.032467347632      0.0934711002374     0.955322318612      -0.248103597271     0.955322318612      -0.248103597271     0.032467347632      0.0934711002374     
