# Hz S RI R 50.00 
100000000.0         0.0128006917775     0.000372906279978   0.987198206425      -0.000478091720237  0.987198206425      -0.000478091720237  0.0128006917775     0.000372906279978   
200000000.0         0.0128840230452     0.000745669597648   0.987114762246      -0.000956040726946  0.987114762246      -0.000956040726946  0.0128840230452     0.000745669597648   
300000000.0         0.012944940248      0.00111834862956    0.987053721019      -0.00143390583742   0.987053721019      -0.00143390583742   0.012944940248      0.00111834862956    
400000000.0         0.0129945108504     0.00149096382197    0.987004015278      -0.00191170760808   0.987004015278      -0.00191170760808   0.0129945108504     0.00149096382197    
500000000.0         0.0130370137006     0.00186352669321    0.986961366173      -0.00238945765211   0.986961366173      -0.00238945765211   0.0130370137006     0.00186352669321    
600000000.0         0.0130746392107     0.00223604479431    0.986923583294      -0.00286716360559   0.986923583294      -0.00286716360559   0.0130746392107     0.00223604479431    
700000000.0         0.01310868617       0.00260852349355    0.986889367849      -0.00334483091468   0.986889367849      -0.00334483091468   0.01310868617       0.00260852349355    
800000000.0         0.0131399992151     0.0029809668054     0.986857875202      -0.00382246366625   0.986857875202      -0.00382246366625   0.0131399992151     0.0029809668054     
900000000.0         0.0131691639038     0.00335337783625    0.986828519794      -0.00430006503466   0.986828519794      -0.00430006503466   0.0131691639038     0.00335337783625    
1000000000.0        0.0131966057392     0.00372575904863    0.986800876121      -0.00477763754674   0.986800876121      -0.00477763754674   0.0131966057392     0.00372575904863    
1100000000.0        0.0132226452968     0.00409811242922    0.986774623608      -0.0052551832503    0.986774623608      -0.0052551832503    0.0132226452968     0.00409811242922    
1200000000.0        0.01324753112       0.00447043960138    0.98674951371       -0.00573270382715   0.98674951371       -0.00573270382715   0.01324753112       0.00447043960138    
1300000000.0        0.0132714604472     0.00484274190384    0.986725349188      -0.0062102006721    0.986725349188      -0.0062102006721    0.0132714604472     0.00484274190384    
1400000000.0        0.0132945928549     0.0052150204476     0.986701970466      -0.00668767495006   0.986701970466      -0.00668767495006   0.0132945928549     0.0052150204476     
1500000000.0        0.013317059568      0.00558727615809    0.986679246318      -0.00716512763853   0.986679246318      -0.00716512763853   0.013317059568      0.00558727615809    
1600000000.0        0.0133389700082     0.00595950980738    0.986657067321      -0.00764255955988   0.986657067321      -0.00764255955988   0.0133389700082     0.00595950980738    
1700000000.0        0.0133604165201     0.00633172203906    0.98663534113       -0.00811997140642   0.98663534113       -0.00811997140642   0.0133604165201     0.00633172203906    
1800000000.0        0.0133814778579     0.00670391338789    0.98661398899       -0.00859736376021   0.98661398899       -0.00859736376021   0.0133814778579     0.00670391338789    
1900000000.0        0.0134022218097     0.0070760842956     0.986592943113      -0.00907473710894   0.986592943113      -0.00907473710894   0.0134022218097     0.0070760842956     
2000000000.0        0.0134227072036     0.00744823512364    0.98657214467       -0.00955209185875   0.98657214467       -0.00955209185875   0.0134227072036     0.00744823512364    
2100000000.0        0.0134429854677     0.00782036616369    0.986551542232      -0.0100294283449    0.986551542232      -0.0100294283449    0.0134429854677     0.00782036616369    
2200000000.0        0.0134631018572     0.00819247764639    0.986531090543      -0.0105067468404    0.986531090543      -0.0105067468404    0.0134631018572     0.00819247764639    
2300000000.0        0.0134830964328     0.0085645697486     0.986510749542      -0.0109840475637    0.986510749542      -0.0109840475637    0.0134830964328     0.0085645697486     
2400000000.0        0.0135030048482     0.00893664259956    0.986490483573      -0.0114613306844    0.986490483573      -0.0114613306844    0.0135030048482     0.00893664259956    
2500000000.0        0.0135228589917     0.00930869628619    0.986470260749      -0.0119385963291    0.986470260749      -0.0119385963291    0.0135228589917     0.00930869628619    
2600000000.0        0.013542687512      0.00968073085751    0.98645005242       -0.0124158445854    0.98645005242       -0.0124158445854    0.013542687512      0.00968073085751    
2700000000.0        0.0135625162539     0.0100527463285     0.98642983274       -0.0128930755064    0.98642983274       -0.0128930755064    0.0135625162539     0.0100527463285     
2800000000.0        0.0135823686218     0.0104247426837     0.986409578304      -0.0133702891134    0.986409578304      -0.0133702891134    0.0135823686218     0.0104247426837     
2900000000.0        0.0136022658846     0.0107967198796     0.986389267843      -0.0138474853996    0.986389267843      -0.0138474853996    0.0136022658846     0.0107967198796     
3000000000.0        0.0136222274339     0.011168677848      0.986368881963      -0.0143246643322    0.986368881963      -0.0143246643322    0.0136222274339     0.011168677848      
3100000000.0        0.0136422710031     0.0115406164974     0.986348402931      -0.0148018258548    0.986348402931      -0.0148018258548    0.0136422710031     0.0115406164974     
3200000000.0        0.0136624128553     0.0119125357156     0.986327814483      -0.0152789698897    0.986327814483      -0.0152789698897    0.0136624128553     0.0119125357156     
3300000000.0        0.0136826679442     0.0122844353715     0.986307101663      -0.0157560963392    0.986307101663      -0.0157560963392    0.0136826679442     0.0122844353715     
3400000000.0        0.013703050054      0.0126563153163     0.986286250689      -0.0162332050876    0.986286250689      -0.0162332050876    0.013703050054      0.0126563153163     
3500000000.0        0.0137235719197     0.0130281753849     0.986265248822      -0.0167102960026    0.986265248822      -0.0167102960026    0.0137235719197     0.0130281753849     
3600000000.0        0.0137442453331     0.0134000153979     0.986244084272      -0.0171873689364    0.986244084272      -0.0171873689364    0.0137442453331     0.0134000153979     
3700000000.0        0.0137650812344     0.0137718351618     0.986222746096      -0.0176644237271    0.986222746096      -0.0176644237271    0.0137650812344     0.0137718351618     
3800000000.0        0.0137860897936     0.0141436344705     0.986201224123      -0.0181414601995    0.986201224123      -0.0181414601995    0.0137860897936     0.0141436344705     
3900000000.0        0.0138072804819     0.0145154131064     0.986179508883      -0.0186184781663    0.986179508883      -0.0186184781663    0.0138072804819     0.0145154131064     
4000000000.0        0.0138286621348     0.0148871708409     0.986157591537      -0.0190954774288    0.986157591537      -0.0190954774288    0.0138286621348     0.0148871708409     
4100000000.0        0.0138502430081     0.0152589074354     0.98613546383       -0.0195724577776    0.98613546383       -0.0195724577776    0.0138502430081     0.0152589074354     
4200000000.0        0.0138720308279     0.0156306226417     0.986113118035      -0.0200494189937    0.986113118035      -0.0200494189937    0.0138720308279     0.0156306226417     
4300000000.0        0.0138940328351     0.0160023162031     0.986090546909      -0.0205263608488    0.986090546909      -0.0205263608488    0.0138940328351     0.0160023162031     
4400000000.0        0.0139162558251     0.0163739878546     0.986067743657      -0.0210032831059    0.986067743657      -0.0210032831059    0.0139162558251     0.0163739878546     
4500000000.0        0.0139387061841     0.0167456373238     0.986044701891      -0.0214801855202    0.986044701891      -0.0214801855202    0.0139387061841     0.0167456373238     
4600000000.0        0.0139613899207     0.0171172643309     0.986021415601      -0.0219570678392    0.986021415601      -0.0219570678392    0.0139613899207     0.0171172643309     
4700000000.0        0.0139843126952     0.0174888685896     0.985997879127      -0.0224339298033    0.985997879127      -0.0224339298033    0.0139843126952     0.0174888685896     
4800000000.0        0.014007479846      0.0178604498075     0.985974087128      -0.0229107711465    0.985974087128      -0.0229107711465    0.014007479846      0.0178604498075     
4900000000.0        0.0140308964132     0.018232007686      0.985950034565      -0.0233875915964    0.985950034565      -0.0233875915964    0.0140308964132     0.018232007686      
5000000000.0        0.0140545671601     0.0186035419214     0.985925716672      -0.0238643908747    0.985925716672      -0.0238643908747    0.0140545671601     0.0186035419214     
5100000000.0        0.0140784965931     0.0189750522048     0.985901128942      -0.0243411686977    0.985901128942      -0.0243411686977    0.0140784965931     0.0189750522048     
5200000000.0        0.0141026889794     0.0193465382221     0.985876267108      -0.0248179247765    0.985876267108      -0.0248179247765    0.0141026889794     0.0193465382221     
5300000000.0        0.0141271483633     0.0197179996551     0.985851127122      -0.0252946588173    0.985851127122      -0.0252946588173    0.0141271483633     0.0197179996551     
5400000000.0        0.0141518785815     0.0200894361812     0.985825705149      -0.0257713705217    0.985825705149      -0.0257713705217    0.0141518785815     0.0200894361812     
5500000000.0        0.0141768832762     0.0204608474737     0.985799997545      -0.0262480595869    0.985799997545      -0.0262480595869    0.0141768832762     0.0204608474737     
5600000000.0        0.0142021659083     0.020832233202      0.985774000847      -0.026724725706     0.985774000847      -0.026724725706     0.0142021659083     0.020832233202      
5700000000.0        0.0142277297684     0.0212035930324     0.985747711764      -0.0272013685682    0.985747711764      -0.0272013685682    0.0142277297684     0.0212035930324     
5800000000.0        0.014253577988      0.0215749266273     0.985721127163      -0.0276779878591    0.985721127163      -0.0276779878591    0.014253577988      0.0215749266273     
5900000000.0        0.0142797135486     0.0219462336462     0.985694244063      -0.0281545832607    0.985694244063      -0.0281545832607    0.0142797135486     0.0219462336462     
6000000000.0        0.0143061392915     0.0223175137455     0.98566705962       -0.0286311544517    0.98566705962       -0.0286311544517    0.0143061392915     0.0223175137455     
6100000000.0        0.0143328579255     0.0226887665791     0.985639571124      -0.0291077011078    0.985639571124      -0.0291077011078    0.0143328579255     0.0226887665791     
6200000000.0        0.0143598720353     0.0230599917977     0.985611775991      -0.0295842229018    0.985611775991      -0.0295842229018    0.0143598720353     0.0230599917977     
6300000000.0        0.0143871840879     0.0234311890499     0.985583671751      -0.0300607195034    0.985583671751      -0.0300607195034    0.0143871840879     0.0234311890499     
6400000000.0        0.0144147964399     0.0238023579819     0.985555256047      -0.0305371905799    0.985555256047      -0.0305371905799    0.0144147964399     0.0238023579819     
6500000000.0        0.0144427113436     0.0241734982373     0.985526526626      -0.031013635796     0.985526526626      -0.031013635796     0.0144427113436     0.0241734982373     
6600000000.0        0.0144709309524     0.0245446094581     0.985497481333      -0.031490054814     0.985497481333      -0.031490054814     0.0144709309524     0.0245446094581     
6700000000.0        0.0144994573264     0.0249156912839     0.985468118107      -0.031966447294     0.985468118107      -0.031966447294     0.0144994573264     0.0249156912839     
6800000000.0        0.0145282924375     0.0252867433526     0.985438434974      -0.0324428128939    0.985438434974      -0.0324428128939    0.0145282924375     0.0252867433526     
6900000000.0        0.0145574381738     0.0256577653002     0.985408430046      -0.0329191512695    0.985408430046      -0.0329191512695    0.0145574381738     0.0256577653002     
7000000000.0        0.0145868963443     0.0260287567611     0.985378101513      -0.0333954620747    0.985378101513      -0.0333954620747    0.0145868963443     0.0260287567611     
7100000000.0        0.0146166686825     0.0263997173682     0.985347447639      -0.0338717449616    0.985347447639      -0.0338717449616    0.0146166686825     0.0263997173682     
7200000000.0        0.0146467568507     0.0267706467527     0.985316466762      -0.0343479995805    0.985316466762      -0.0343479995805    0.0146467568507     0.0267706467527     
7300000000.0        0.0146771624431     0.0271415445446     0.985285157285      -0.03482422558      0.985285157285      -0.03482422558      0.0146771624431     0.0271415445446     
7400000000.0        0.0147078869896     0.0275124103722     0.985253517678      -0.0353004226073    0.985253517678      -0.0353004226073    0.0147078869896     0.0275124103722     
7500000000.0        0.0147389319587     0.0278832438629     0.985221546472      -0.0357765903079    0.985221546472      -0.0357765903079    0.0147389319587     0.0278832438629     
7600000000.0        0.0147702987603     0.0282540446428     0.985189242254      -0.0362527283259    0.985189242254      -0.0362527283259    0.0147702987603     0.0282540446428     
7700000000.0        0.0148019887488     0.0286248123369     0.98515660367       -0.0367288363041    0.98515660367       -0.0367288363041    0.0148019887488     0.0286248123369     
7800000000.0        0.0148340032256     0.0289955465689     0.985123629417      -0.037204913884     0.985123629417      -0.037204913884     0.0148340032256     0.0289955465689     
7900000000.0        0.0148663434414     0.0293662469619     0.985090318242      -0.037680960706     0.985090318242      -0.037680960706     0.0148663434414     0.0293662469619     
8000000000.0        0.0148990105987     0.0297369131378     0.985056668943      -0.0381569764091    0.985056668943      -0.0381569764091    0.0148990105987     0.0297369131378     
8100000000.0        0.0149320058538     0.0301075447177     0.985022680362      -0.0386329606313    0.985022680362      -0.0386329606313    0.0149320058538     0.0301075447177     
8200000000.0        0.0149653303191     0.0304781413218     0.984988351384      -0.0391089130097    0.984988351384      -0.0391089130097    0.0149653303191     0.0304781413218     
8300000000.0        0.0149989850648     0.0308487025696     0.984953680939      -0.0395848331801    0.984953680939      -0.0395848331801    0.0149989850648     0.0308487025696     
8400000000.0        0.015032971121      0.0312192280799     0.984918667996      -0.0400607207777    0.984918667996      -0.0400607207777    0.015032971121      0.0312192280799     
8500000000.0        0.0150672894791     0.0315897174706     0.984883311561      -0.0405365754366    0.984883311561      -0.0405365754366    0.0150672894791     0.0315897174706     
8600000000.0        0.0151019410936     0.0319601703593     0.984847610679      -0.0410123967901    0.984847610679      -0.0410123967901    0.0151019410936     0.0319601703593     
8700000000.0        0.015136926884      0.0323305863627     0.984811564429      -0.0414881844707    0.984811564429      -0.0414881844707    0.015136926884      0.0323305863627     
8800000000.0        0.0151722477356     0.032700965097      0.984775171925      -0.0419639381101    0.984775171925      -0.0419639381101    0.0151722477356     0.032700965097      
8900000000.0        0.0152079045015     0.0330713061781     0.984738432312      -0.0424396573394    0.984738432312      -0.0424396573394    0.0152079045015     0.0330713061781     
9000000000.0        0.0152438980035     0.0334416092211     0.984701344768      -0.0429153417888    0.984701344768      -0.0429153417888    0.0152438980035     0.0334416092211     
9100000000.0        0.0152802290336     0.0338118738409     0.984663908498      -0.0433909910882    0.984663908498      -0.0433909910882    0.0152802290336     0.0338118738409     
9200000000.0        0.0153168983552     0.0341820996519     0.984626122738      -0.0438666048665    0.984626122738      -0.0438666048665    0.0153168983552     0.0341820996519     
9300000000.0        0.0153539067041     0.034552286268      0.984587986751      -0.0443421827522    0.984587986751      -0.0443421827522    0.0153539067041     0.034552286268      
9400000000.0        0.0153912547897     0.0349224333029     0.984549499827      -0.0448177243735    0.984549499827      -0.0448177243735    0.0153912547897     0.0349224333029     
9500000000.0        0.0154289432958     0.0352925403699     0.98451066128       -0.0452932293577    0.98451066128       -0.0452932293577    0.0154289432958     0.0352925403699     
9600000000.0        0.015466972882      0.0356626070821     0.98447147045       -0.0457686973318    0.98447147045       -0.0457686973318    0.015466972882      0.0356626070821     
9700000000.0        0.0155053441842     0.0360326330521     0.984431926699      -0.0462441279223    0.984431926699      -0.0462441279223    0.0155053441842     0.0360326330521     
9800000000.0        0.0155440578157     0.0364026178926     0.984392029412      -0.0467195207554    0.984392029412      -0.0467195207554    0.0155440578157     0.0364026178926     
9900000000.0        0.015583114368      0.0367725612157     0.984351777998      -0.0471948754567    0.984351777998      -0.0471948754567    0.015583114368      0.0367725612157     
10000000000.0       0.0156225144117     0.0371424626336     0.984311171883      -0.0476701916517    0.984311171883      -0.0476701916517    0.0156225144117     0.0371424626336     
