# Hz S RI R 50.00 
100000000.0         0.0351747257243     0.00443714296465    0.96481883396       -0.00691914095736   0.96481883396       -0.00691914095736   0.0351747257243     0.00443714296465    
200000000.0         0.0354940356018     0.00886789506359    0.964487847366      -0.0138319144299    0.964487847366      -0.0138319144299    0.0354940356018     0.00886789506359    
300000000.0         0.0358166996018     0.013293296622      0.964147268714      -0.0207393856009    0.964147268714      -0.0207393856009    0.0358166996018     0.013293296622      
400000000.0         0.0361721901972     0.0177129922954     0.963767623937      -0.027641221523     0.963767623937      -0.027641221523     0.0361721901972     0.0177129922954     
500000000.0         0.036571794051      0.022126304838      0.963337624573      -0.0345367661075    0.963337624573      -0.0345367661075    0.036571794051      0.022126304838      
600000000.0         0.037021198055      0.0265324166876     0.962851581693      -0.0414252221384    0.962851581693      -0.0414252221384    0.037021198055      0.0265324166876     
700000000.0         0.0375236898582     0.0309304354746     0.962306205345      -0.0483057169998    0.962306205345      -0.0483057169998    0.0375236898582     0.0309304354746     
800000000.0         0.0380813262436     0.0353194246796     0.961699436177      -0.055177333463     0.961699436177      -0.055177333463     0.0380813262436     0.0353194246796     
900000000.0         0.0386954534784     0.0396984203481     0.961029925073      -0.0620391264877    0.961029925073      -0.0620391264877    0.0386954534784     0.0396984203481     
1000000000.0        0.039366971158      0.044066441211      0.96029676931       -0.0688901334031    0.96029676931       -0.0688901334031    0.039366971158      0.044066441211      
1100000000.0        0.0400964789553     0.048422495315      0.959499365806      -0.0757293805811    0.959499365806      -0.0757293805811    0.0400964789553     0.048422495315      
1200000000.0        0.0408843641443     0.0527655846443     0.958637323595      -0.0825558880931    0.958637323595      -0.0825558880931    0.0408843641443     0.0527655846443     
1300000000.0        0.0417308567485     0.0570947085143     0.957710408675      -0.0893686731295    0.957710408675      -0.0893686731295    0.0417308567485     0.0570947085143     
1400000000.0        0.0426360658742     0.0614088661726     0.956718507681      -0.0961667526216    0.956718507681      -0.0961667526216    0.0426360658742     0.0614088661726     
1500000000.0        0.0436000045551     0.0657070588668     0.95566160303       -0.102949145327     0.95566160303       -0.102949145327     0.0436000045551     0.0657070588668     
1600000000.0        0.0446226072904     0.0699882915417     0.954539755394      -0.109714873541     0.954539755394      -0.109714873541     0.0446226072904     0.0699882915417     
1700000000.0        0.045703742772      0.074251574269      0.953353090964      -0.116462964539     0.953353090964      -0.116462964539     0.045703742772      0.074251574269      
1800000000.0        0.0468432233521     0.0784959234789     0.952101791986      -0.123192451815     0.952101791986      -0.123192451815     0.0468432233521     0.0784959234789     
1900000000.0        0.0480408122457     0.0827203630418     0.950786089557      -0.129902376178     0.950786089557      -0.129902376178     0.0480408122457     0.0827203630418     
2000000000.0        0.0492962291229     0.0869239252328     0.949406258037      -0.136591786717     0.949406258037      -0.136591786717     0.0492962291229     0.0869239252328     
2100000000.0        0.0506091545379     0.0911056516022     0.947962610612      -0.143259741685     0.947962610612      -0.143259741685     0.0506091545379     0.0911056516022     
2200000000.0        0.0519792334992     0.0952645937705     0.946455495731      -0.149905309294     0.946455495731      -0.149905309294     0.0519792334992     0.0952645937705     
2300000000.0        0.0534060783999     0.0993998141596     0.944885294174      -0.156527568454     0.944885294174      -0.156527568454     0.0534060783999     0.0993998141596     
2400000000.0        0.0548892714629     0.10351038667       0.943252416604      -0.163125609455     0.943252416604      -0.163125609455     0.0548892714629     0.10351038667       
2500000000.0        0.056428366815      0.10759539731       0.941557301495      -0.169698534599     0.941557301495      -0.169698534599     0.056428366815      0.10759539731       
2600000000.0        0.0580228922732     0.111653944788      0.939800413346      -0.176245458795     0.939800413346      -0.176245458795     0.0580228922732     0.111653944788      
2700000000.0        0.0596723509062     0.115685141062      0.937982241118      -0.182765510115     0.937982241118      -0.182765510115     0.0596723509062     0.115685141062      
2800000000.0        0.0613762224196     0.119688111857      0.936103296849      -0.189257830311     0.936103296849      -0.189257830311     0.0613762224196     0.119688111857      
2900000000.0        0.0631339643997     0.123661997156      0.934164114411      -0.195721575309     0.934164114411      -0.195721575309     0.0631339643997     0.123661997156      
3000000000.0        0.0649450134447     0.127605951655      0.932165248378      -0.202155915669     0.932165248378      -0.202155915669     0.0649450134447     0.127605951655      
3100000000.0        0.0668087862062     0.131519145195      0.930107272984      -0.208560037015     0.930107272984      -0.208560037015     0.0668087862062     0.131519145195      
3200000000.0        0.0687246803555     0.135400763167      0.927990781157      -0.214933140444     0.927990781157      -0.214933140444     0.0687246803555     0.135400763167      
3300000000.0        0.0706920754916     0.139250006892      0.925816383609      -0.221274442909     0.925816383609      -0.221274442909     0.0706920754916     0.139250006892      
3400000000.0        0.0727103339981     0.143066093975      0.923584707981      -0.227583177571     0.923584707981      -0.227583177571     0.0727103339981     0.143066093975      
3500000000.0        0.0747788018603     0.14684825864       0.921296398025      -0.23385859414      0.921296398025      -0.23385859414      0.0747788018603     0.14684825864       
3600000000.0        0.0768968094481     0.150595752037      0.91895211282       -0.240099959179     0.91895211282       -0.240099959179     0.0768968094481     0.150595752037      
3700000000.0        0.07906367227       0.154307842533      0.916552526019      -0.246306556396     0.916552526019      -0.246306556396     0.07906367227       0.154307842533      
3800000000.0        0.0812786917025     0.157983815975      0.914098325116      -0.252477686914     0.914098325116      -0.252477686914     0.0812786917025     0.157983815975      
3900000000.0        0.0835411556999     0.161622975935      0.911590210739      -0.258612669509     0.911590210739      -0.258612669509     0.0835411556999     0.161622975935      
4000000000.0        0.0858503394847     0.165224643937      0.909028895958      -0.264710840842     0.909028895958      -0.264710840842     0.0858503394847     0.165224643937      
4100000000.0        0.0882055062234     0.168788159657      0.906415105608      -0.270771555661     0.906415105608      -0.270771555661     0.0882055062234     0.168788159657      
4200000000.0        0.090605907688      0.172312881106      0.90374957563       -0.27679418698      0.90374957563       -0.27679418698      0.090605907688      0.172312881106      
4300000000.0        0.0930507849044     0.175798184798      0.901033052415      -0.282778126254     0.901033052415      -0.282778126254     0.0930507849044     0.175798184798      
4400000000.0        0.0955393687904     0.17924346589       0.898266292175      -0.288722783512     0.898266292175      -0.288722783512     0.0955393687904     0.17924346589       
4500000000.0        0.0980708807828     0.182648138311      0.895450060305      -0.29462758749      0.895450060305      -0.29462758749      0.0980708807828     0.182648138311      
4600000000.0        0.100644533454      0.186011634862      0.892585130776      -0.300491985736     0.892585130776      -0.300491985736     0.100644533454      0.186011634862      
4700000000.0        0.10325953112       0.189333407313      0.889672285518      -0.306315444698     0.889672285518      -0.306315444698     0.10325953112       0.189333407313      
4800000000.0        0.105915070438      0.192612926465      0.886712313825      -0.312097449792     0.886712313825      -0.312097449792     0.105915070438      0.192612926465      
4900000000.0        0.108610340998      0.195849682205      0.883706011763      -0.317837505458     0.883706011763      -0.317837505458     0.108610340998      0.195849682205      
5000000000.0        0.111344525904      0.199043183542      0.880654181589      -0.323535135193     0.880654181589      -0.323535135193     0.111344525904      0.199043183542      
5100000000.0        0.114116802342      0.202192958623      0.877557631178      -0.329189881569     0.877557631178      -0.329189881569     0.114116802342      0.202192958623      
5200000000.0        0.116926342151      0.205298554736      0.874417173456      -0.334801306232     0.874417173456      -0.334801306232     0.116926342151      0.205298554736      
5300000000.0        0.11977231237       0.208359538291      0.871233625847      -0.340368989893     0.871233625847      -0.340368989893     0.11977231237       0.208359538291      
5400000000.0        0.122653875792      0.211375494794      0.868007809724      -0.345892532288     0.868007809724      -0.345892532288     0.122653875792      0.211375494794      
5500000000.0        0.125570191496      0.214346028797      0.864740549872      -0.351371552139     0.864740549872      -0.351371552139     0.125570191496      0.214346028797      
5600000000.0        0.128520415379      0.217270763836      0.861432673956      -0.356805687089     0.861432673956      -0.356805687089     0.128520415379      0.217270763836      
5700000000.0        0.131503700673      0.220149342359      0.858085012005      -0.362194593624     0.858085012005      -0.362194593624     0.131503700673      0.220149342359      
5800000000.0        0.134519198453      0.222981425629      0.854698395896      -0.367537946988     0.854698395896      -0.367537946988     0.134519198453      0.222981425629      
5900000000.0        0.137566058145      0.225766693627      0.851273658856      -0.37283544107      0.851273658856      -0.37283544107      0.137566058145      0.225766693627      
6000000000.0        0.140643428007      0.228504844928      0.847811634969      -0.378086788294     0.847811634969      -0.378086788294     0.140643428007      0.228504844928      
6100000000.0        0.143750455617      0.231195596574      0.844313158696      -0.383291719483     0.844313158696      -0.383291719483     0.143750455617      0.231195596574      
6200000000.0        0.14688628834       0.233838683931      0.840779064401      -0.38844998372      0.840779064401      -0.38844998372      0.14688628834       0.233838683931      
6300000000.0        0.150050073788      0.236433860532      0.83721018589       -0.393561348187     0.83721018589       -0.393561348187     0.150050073788      0.236433860532      
6400000000.0        0.153240960275      0.238980897915      0.833607355959      -0.398625598005     0.833607355959      -0.398625598005     0.153240960275      0.238980897915      
6500000000.0        0.156458097249      0.241479585437      0.829971405956      -0.403642536049     0.829971405956      -0.403642536049     0.156458097249      0.241479585437      
6600000000.0        0.159700635727      0.243929730097      0.826303165348      -0.408611982764     0.826303165348      -0.408611982764     0.159700635727      0.243929730097      
6700000000.0        0.16296772871       0.246331156328      0.822603461304      -0.413533775967     0.822603461304      -0.413533775967     0.16296772871       0.246331156328      
6800000000.0        0.166258531588      0.248683705794      0.818873118287      -0.418407770632     0.818873118287      -0.418407770632     0.166258531588      0.248683705794      
6900000000.0        0.169572202542      0.250987237173      0.815112957655      -0.423233838682     0.815112957655      -0.423233838682     0.169572202542      0.250987237173      
7000000000.0        0.17290790292       0.253241625929      0.811323797276      -0.428011868753     0.811323797276      -0.428011868753     0.17290790292       0.253241625929      
7100000000.0        0.176264797618      0.25544676408       0.807506451154      -0.432741765966     0.807506451154      -0.432741765966     0.176264797618      0.25544676408       
7200000000.0        0.179642055436      0.257602559954      0.803661729065      -0.437423451681     0.803661729065      -0.437423451681     0.179642055436      0.257602559954      
7300000000.0        0.183038849433      0.259708937942      0.799790436208      -0.442056863249     0.799790436208      -0.442056863249     0.183038849433      0.259708937942      
7400000000.0        0.186454357261      0.26176583824       0.795893372858      -0.446641953754     0.795893372858      -0.446641953754     0.186454357261      0.26176583824       
7500000000.0        0.189887761499      0.263773216589      0.791971334046      -0.45117869175      0.791971334046      -0.45117869175      0.189887761499      0.263773216589      
7600000000.0        0.19333824996       0.265731044003      0.788025109234      -0.455667060993     0.788025109234      -0.455667060993     0.19333824996       0.265731044003      
7700000000.0        0.196805016005      0.267639306499      0.784055482013      -0.460107060163     0.784055482013      -0.460107060163     0.196805016005      0.267639306499      
7800000000.0        0.200287258826      0.269498004816      0.780063229809      -0.46449870259      0.780063229809      -0.46449870259      0.200287258826      0.269498004816      
7900000000.0        0.203784183737      0.27130715413       0.776049123596      -0.468842015961     0.776049123596      -0.468842015961     0.203784183737      0.27130715413       
8000000000.0        0.207295002435      0.273066783769      0.772013927632      -0.47313704204      0.772013927632      -0.47313704204      0.207295002435      0.273066783769      
8100000000.0        0.210818933265      0.27477693692       0.767958399191      -0.477383836369     0.767958399191      -0.477383836369     0.210818933265      0.27477693692       
8200000000.0        0.214355201462      0.276437670333      0.76388328832       -0.481582467977     0.76388328832       -0.481582467977     0.214355201462      0.276437670333      
8300000000.0        0.217903039391      0.278049054025      0.759789337599      -0.485733019077     0.759789337599      -0.485733019077     0.217903039391      0.278049054025      
8400000000.0        0.221461686767      0.279611170977      0.755677281916      -0.489835584764     0.755677281916      -0.489835584764     0.221461686767      0.279611170977      
8500000000.0        0.225030390873      0.281124116834      0.75154784825       -0.493890272716     0.75154784825       -0.493890272716     0.225030390873      0.281124116834      
8600000000.0        0.228608406758      0.282587999597      0.747401755471      -0.497897202882     0.747401755471      -0.497897202882     0.228608406758      0.282587999597      
8700000000.0        0.232194997432      0.284002939319      0.743239714139      -0.501856507181     0.743239714139      -0.501856507181     0.232194997432      0.284002939319      
8800000000.0        0.235789434043      0.285369067799      0.739062426332      -0.505768329187     0.739062426332      -0.505768329187     0.235789434043      0.285369067799      
8900000000.0        0.239390996052      0.286686528271      0.734870585465      -0.509632823826     0.734870585465      -0.509632823826     0.239390996052      0.286686528271      
9000000000.0        0.242998971388      0.287955475096      0.730664876132      -0.513450157061     0.730664876132      -0.513450157061     0.242998971388      0.287955475096      
9100000000.0        0.246612656599      0.289176073456      0.726445973956      -0.517220505587     0.726445973956      -0.517220505587     0.246612656599      0.289176073456      
9200000000.0        0.250231356991      0.290348499041      0.722214545446      -0.520944056516     0.722214545446      -0.520944056516     0.250231356991      0.290348499041      
9300000000.0        0.253854386759      0.291472937747      0.717971247867      -0.524621007073     0.717971247867      -0.524621007073     0.253854386759      0.291472937747      
9400000000.0        0.257481069103      0.292549585364      0.713716729116      -0.528251564283     0.713716729116      -0.528251564283     0.257481069103      0.292549585364      
9500000000.0        0.261110736339      0.293578647271      0.709451627616      -0.531835944669     0.709451627616      -0.531835944669     0.261110736339      0.293578647271      
9600000000.0        0.264742730001      0.294560338134      0.705176572207      -0.535374373939     0.705176572207      -0.535374373939     0.264742730001      0.294560338134      
9700000000.0        0.268376400928      0.295494881598      0.700892182057      -0.538867086687     0.700892182057      -0.538867086687     0.268376400928      0.295494881598      
9800000000.0        0.272011109352      0.296382509992      0.696599066578      -0.542314326088     0.696599066578      -0.542314326088     0.272011109352      0.296382509992      
9900000000.0        0.275646224963      0.297223464022      0.692297825349      -0.545716343597     0.692297825349      -0.545716343597     0.275646224963      0.297223464022      
10000000000.0       0.279281126981      0.298017992481      0.687989048049      -0.54907339865      0.687989048049      -0.54907339865      0.279281126981      0.298017992481      
