# Hz S RI R 50.00 
100000000.0         0.00860802227747    0.00293282705544    0.991386700641      -0.00506473511471   0.991386700641      -0.00506473511471   0.00860802227747    0.00293282705544    
200000000.0         0.00870876553588    0.0058644017406     0.991277121664      -0.0101282560665    0.991277121664      -0.0101282560665    0.00870876553588    0.0058644017406     
300000000.0         0.00882440560505    0.00879474115666    0.991148086504      -0.015190605679     0.991148086504      -0.015190605679     0.00882440560505    0.00879474115666    
400000000.0         0.00896233593377    0.0117236216335     0.990992200791      -0.020251580856     0.990992200791      -0.020251580856     0.00896233593377    0.0117236216335     
500000000.0         0.00912539076071    0.0146507636663     0.990806629182      -0.0253109200401    0.990806629182      -0.0253109200401    0.00912539076071    0.0146507636663     
600000000.0         0.00931500160356    0.017575863284      0.990589938875      -0.0303683354708    0.990589938875      -0.0303683354708    0.00931500160356    0.017575863284      
700000000.0         0.00953199965908    0.0204986033829     0.990341297215      -0.0354235249738    0.990341297215      -0.0354235249738    0.00953199965908    0.0204986033829     
800000000.0         0.00977690863622    0.0234186590309     0.990060178871      -0.0404761775395    0.990060178871      -0.0404761775395    0.00977690863622    0.0234186590309     
900000000.0         0.0100500751306     0.0263357003572     0.989746235464      -0.0455259763937    0.989746235464      -0.0455259763937    0.0100500751306     0.0263357003572     
1000000000.0        0.0103517347045     0.0292493942966     0.989399229491      -0.0505726008703    0.989399229491      -0.0505726008703    0.0103517347045     0.0292493942966     
1100000000.0        0.0106820486207     0.0321594057273     0.989018997598      -0.0556157276438    0.989018997598      -0.0556157276438    0.0106820486207     0.0321594057273     
1200000000.0        0.0110411257328     0.03506539826       0.988605428694      -0.0606550315917    0.988605428694      -0.0606550315917    0.0110411257328     0.03506539826       
1300000000.0        0.0114290362625     0.0379670348126     0.988158450172      -0.0656901864268    0.988158450172      -0.0656901864268    0.0114290362625     0.0379670348126     
1400000000.0        0.0118458208612     0.0408639780483     0.987678018856      -0.0707208651815    0.987678018856      -0.0707208651815    0.0118458208612     0.0408639780483     
1500000000.0        0.0122914967904     0.0437558907202     0.987164114821      -0.0757467405913    0.987164114821      -0.0757467405913    0.0122914967904     0.0437558907202     
1600000000.0        0.0127660622705     0.0466424359533     0.986616737045      -0.0807674854086    0.986616737045      -0.0807674854086    0.0127660622705     0.0466424359533     
1700000000.0        0.0132694996215     0.0495232774792     0.986035900277      -0.0857827726653    0.986035900277      -0.0857827726653    0.0132694996215     0.0495232774792     
1800000000.0        0.0138017775851     0.0523980798389     0.985421632708      -0.090792275898     0.985421632708      -0.090792275898     0.0138017775851     0.0523980798389     
1900000000.0        0.0143628530775     0.055266508559      0.984773974229      -0.0957956693459    0.984773974229      -0.0957956693459    0.0143628530775     0.055266508559      
2000000000.0        0.0149526725363     0.0581282303096     0.98409297508       -0.100792628126     0.98409297508       -0.100792628126     0.0149526725363     0.0581282303096     
2100000000.0        0.0155711729741     0.0609829130466     0.983378694801      -0.105782828389     0.983378694801      -0.105782828389     0.0155711729741     0.0609829130466     
2200000000.0        0.0162182828147     0.0638302261429     0.982631201397      -0.110765947471     0.982631201397      -0.110765947471     0.0162182828147     0.0638302261429     
2300000000.0        0.0168939225679     0.0666698405087     0.981850570664      -0.115741664016     0.981850570664      -0.115741664016     0.0168939225679     0.0666698405087     
2400000000.0        0.0175980053798     0.0695014287048     0.981036885642      -0.120709658112     0.981036885642      -0.120709658112     0.0175980053798     0.0695014287048     
2500000000.0        0.0183304374893     0.0723246650491     0.980190236157      -0.125669611398     0.980190236157      -0.125669611398     0.0183304374893     0.0723246650491     
2600000000.0        0.0190911186105     0.0751392257173     0.979310718444      -0.130621207179     0.979310718444      -0.130621207179     0.0190911186105     0.0751392257173     
2700000000.0        0.0198799422574     0.0779447888389     0.978398434818      -0.13556413053      0.978398434818      -0.13556413053      0.0198799422574     0.0779447888389     
2800000000.0        0.0206967960233     0.0807410345891     0.977453493402      -0.140498068394     0.977453493402      -0.140498068394     0.0206967960233     0.0807410345891     
2900000000.0        0.0215415618231     0.0835276452766     0.976476007881      -0.14542270968      0.976476007881      -0.14542270968      0.0215415618231     0.0835276452766     
3000000000.0        0.0224141161068     0.0863043054284     0.975466097292      -0.150337745349     0.975466097292      -0.150337745349     0.0224141161068     0.0863043054284     
3100000000.0        0.0233143300493     0.0890707018718     0.974423885834      -0.155242868507     0.974423885834      -0.155242868507     0.0233143300493     0.0890707018718     
3200000000.0        0.0242420697206     0.091826523813      0.973349502701      -0.160137774488     0.973349502701      -0.160137774488     0.0242420697206     0.091826523813      
3300000000.0        0.0251971962404     0.0945714629134     0.972243081925      -0.165022160933     0.972243081925      -0.165022160933     0.0251971962404     0.0945714629134     
3400000000.0        0.02617956592       0.0973052133639     0.971104762237      -0.169895727873     0.971104762237      -0.169895727873     0.02617956592       0.0973052133639     
3500000000.0        0.0271890303935     0.100027471956      0.969934686936      -0.174758177803     0.969934686936      -0.174758177803     0.0271890303935     0.100027471956      
3600000000.0        0.0282254367398     0.102737938152      0.968733003768      -0.179609215753     0.968733003768      -0.179609215753     0.0282254367398     0.102737938152      
3700000000.0        0.0292886275977     0.105436314152      0.967499864813      -0.184448549365     0.967499864813      -0.184448549365     0.0292886275977     0.105436314152      
3800000000.0        0.0303784412747     0.108122304959      0.966235426373      -0.189275888959     0.966235426373      -0.189275888959     0.0303784412747     0.108122304959      
3900000000.0        0.0314947118511     0.110795618442      0.964939848874      -0.194090947597     0.964939848874      -0.194090947597     0.0314947118511     0.110795618442      
4000000000.0        0.0326372692791     0.1134559654        0.963613296764      -0.198893441155     0.963613296764      -0.198893441155     0.0326372692791     0.1134559654        
4100000000.0        0.0338059394793     0.116103059619      0.962255938415      -0.203683088379     0.962255938415      -0.203683088379     0.0338059394793     0.116103059619      
4200000000.0        0.0350005444336     0.118736617929      0.960867946036      -0.208459610951     0.960867946036      -0.208459610951     0.0350005444336     0.118736617929      
4300000000.0        0.0362209022755     0.121356360264      0.959449495581      -0.213222733541     0.959449495581      -0.213222733541     0.0362209022755     0.121356360264      
4400000000.0        0.0374668273791     0.123962009714      0.95800076666       -0.217972183873     0.95800076666       -0.217972183873     0.0374668273791     0.123962009714      
4500000000.0        0.0387381304456     0.126553292575      0.956521942451      -0.222707692772     0.956521942451      -0.222707692772     0.0387381304456     0.126553292575      
4600000000.0        0.0400346185884     0.129129938405      0.955013209621      -0.227428994221     0.955013209621      -0.227428994221     0.0400346185884     0.129129938405      
4700000000.0        0.0413560954173     0.131691680068      0.953474758235      -0.232135825411     0.953474758235      -0.232135825411     0.0413560954173     0.131691680068      
4800000000.0        0.0427023611219     0.134238253785      0.951906781681      -0.236827926791     0.951906781681      -0.236827926791     0.0427023611219     0.134238253785      
4900000000.0        0.0440732125529     0.136769399177      0.950309476582      -0.241505042116     0.950309476582      -0.241505042116     0.0440732125529     0.136769399177      
5000000000.0        0.0454684433041     0.13928485931       0.948683042718      -0.24616691849      0.948683042718      -0.24616691849      0.0454684433041     0.13928485931       
5100000000.0        0.046887843793      0.141784380737      0.947027682946      -0.250813306416     0.947027682946      -0.250813306416     0.046887843793      0.141784380737      
5200000000.0        0.0483312013411     0.144267713538      0.945343603118      -0.255443959829     0.945343603118      -0.255443959829     0.0483312013411     0.144267713538      
5300000000.0        0.0497983002535     0.146734611361      0.943631012004      -0.260058636145     0.943631012004      -0.260058636145     0.0497983002535     0.146734611361      
5400000000.0        0.0512889218983     0.149184831455      0.94189012121       -0.264657096295     0.94189012121       -0.264657096295     0.0512889218983     0.149184831455      
5500000000.0        0.0528028447859     0.151618134708      0.940121145103      -0.269239104764     0.940121145103      -0.269239104764     0.0528028447859     0.151618134708      
5600000000.0        0.0543398446473     0.154034285683      0.938324300728      -0.273804429625     0.938324300728      -0.273804429625     0.0543398446473     0.154034285683      
5700000000.0        0.0558996945129     0.156433052643      0.936499807735      -0.278352842571     0.936499807735      -0.278352842571     0.0558996945129     0.156433052643      
5800000000.0        0.0574821647906     0.158814207591      0.934647888297      -0.282884118952     0.934647888297      -0.282884118952     0.0574821647906     0.158814207591      
5900000000.0        0.0590870233438     0.161177526288      0.932768767032      -0.287398037797     0.932768767032      -0.287398037797     0.0590870233438     0.161177526288      
6000000000.0        0.060714035569      0.163522788291      0.93086267093       -0.29189438185      0.93086267093       -0.29189438185      0.060714035569      0.163522788291      
6100000000.0        0.0623629644735     0.16584977697       0.92892982927       -0.296372937592     0.92892982927       -0.296372937592     0.0623629644735     0.16584977697       
6200000000.0        0.0640335707526     0.168158279536      0.926970473547      -0.300833495269     0.926970473547      -0.300833495269     0.0640335707526     0.168158279536      
6300000000.0        0.0657256128667     0.170448087063      0.924984837393      -0.305275848909     0.924984837393      -0.305275848909     0.0657256128667     0.170448087063      
6400000000.0        0.067438847118      0.172718994507      0.922973156502      -0.309699796354     0.922973156502      -0.309699796354     0.067438847118      0.172718994507      
6500000000.0        0.0691730277273     0.174970800726      0.92093566855       -0.31410513927      0.92093566855       -0.31410513927      0.0691730277273     0.174970800726      
6600000000.0        0.0709279069104     0.1772033085        0.918872613124      -0.318491683171     0.918872613124      -0.318491683171     0.0709279069104     0.1772033085        
6700000000.0        0.0727032349539     0.17941632454       0.916784231642      -0.322859237434     0.916784231642      -0.322859237434     0.0727032349539     0.17941632454       
6800000000.0        0.0744987602912     0.18160965951       0.914670767279      -0.327207615315     0.914670767279      -0.327207615315     0.0744987602912     0.18160965951       
6900000000.0        0.0763142295777     0.183783128036      0.912532464889      -0.331536633961     0.912532464889      -0.331536633961     0.0763142295777     0.183783128036      
7000000000.0        0.0781493877667     0.185936548717      0.910369570934      -0.335846114423     0.910369570934      -0.335846114423     0.0781493877667     0.185936548717      
7100000000.0        0.0800039781832     0.188069744135      0.908182333409      -0.340135881668     0.908182333409      -0.340135881668     0.0800039781832     0.188069744135      
7200000000.0        0.0818777425993     0.190182540866      0.905971001761      -0.344405764582     0.905971001761      -0.344405764582     0.0818777425993     0.190182540866      
7300000000.0        0.0837704213077     0.192274769481      0.903735826823      -0.348655595987     0.903735826823      -0.348655595987     0.0837704213077     0.192274769481      
7400000000.0        0.0856817531958     0.194346264558      0.901477060738      -0.352885212638     0.901477060738      -0.352885212638     0.0856817531958     0.194346264558      
7500000000.0        0.0876114758186     0.19639686468       0.899194956881      -0.357094455231     0.899194956881      -0.357094455231     0.0876114758186     0.19639686468       
7600000000.0        0.0895593254719     0.198426412441      0.896889769794      -0.361283168407     0.896889769794      -0.361283168407     0.0895593254719     0.198426412441      
7700000000.0        0.0915250372644     0.200434754445      0.894561755106      -0.365451200752     0.894561755106      -0.365451200752     0.0915250372644     0.200434754445      
7800000000.0        0.0935083451899     0.202421741306      0.892211169467      -0.369598404797     0.892211169467      -0.369598404797     0.0935083451899     0.202421741306      
7900000000.0        0.095508982198      0.204387227648      0.889838270473      -0.373724637015     0.889838270473      -0.373724637015     0.095508982198      0.204387227648      
8000000000.0        0.0975266802658     0.206331072098      0.887443316597      -0.377829757823     0.887443316597      -0.377829757823     0.0975266802658     0.206331072098      
8100000000.0        0.0995611704677     0.208253137285      0.885026567119      -0.381913631574     0.885026567119      -0.381913631574     0.0995611704677     0.208253137285      
8200000000.0        0.101612183045      0.210153289833      0.882588282052      -0.385976126551     0.882588282052      -0.385976126551     0.101612183045      0.210153289833      
8300000000.0        0.103679447476      0.212031400352      0.88012872208       -0.390017114964     0.88012872208       -0.390017114964     0.103679447476      0.212031400352      
8400000000.0        0.105762692541      0.213887343432      0.877648148482      -0.394036472938     0.877648148482      -0.394036472938     0.105762692541      0.213887343432      
8500000000.0        0.107861646398      0.215720997632      0.87514682307       -0.398034080505     0.87514682307       -0.398034080505     0.107861646398      0.215720997632      
8600000000.0        0.109976036638      0.217532245469      0.872625008119      -0.402009821593     0.872625008119      -0.402009821593     0.109976036638      0.217532245469      
8700000000.0        0.112105590365      0.219320973408      0.870082966299      -0.405963584018     0.870082966299      -0.405963584018     0.112105590365      0.219320973408      
8800000000.0        0.11425003425       0.221087071844      0.867520960613      -0.409895259463     0.867520960613      -0.409895259463     0.11425003425       0.221087071844      
8900000000.0        0.116409094604      0.222830435092      0.864939254327      -0.413804743471     0.864939254327      -0.413804743471     0.116409094604      0.222830435092      
9000000000.0        0.118582497438      0.224550961369      0.862338110909      -0.417691935426     0.862338110909      -0.417691935426     0.118582497438      0.224550961369      
9100000000.0        0.12076996853       0.226248552778      0.859717793965      -0.421556738538     0.859717793965      -0.421556738538     0.12076996853       0.226248552778      
9200000000.0        0.122971233483      0.227923115291      0.857078567175      -0.425399059824     0.857078567175      -0.425399059824     0.122971233483      0.227923115291      
9300000000.0        0.125186017793      0.229574558725      0.854420694229      -0.429218810089     0.854420694229      -0.429218810089     0.125186017793      0.229574558725      
9400000000.0        0.127414046907      0.231202796731      0.851744438771      -0.433015903908     0.851744438771      -0.433015903908     0.127414046907      0.231202796731      
9500000000.0        0.129655046281      0.232807746764      0.849050064331      -0.436790259603     0.849050064331      -0.436790259603     0.129655046281      0.232807746764      
9600000000.0        0.131908741446      0.234389330068      0.846337834273      -0.440541799225     0.846337834273      -0.440541799225     0.131908741446      0.234389330068      
9700000000.0        0.134174858061      0.235947471646      0.84360801173       -0.444270448526     0.84360801173       -0.444270448526     0.134174858061      0.235947471646      
9800000000.0        0.136453121974      0.237482100244      0.840860859548      -0.447976136937     0.840860859548      -0.447976136937     0.136453121974      0.237482100244      
9900000000.0        0.138743259278      0.238993148319      0.838096640229      -0.451658797546     0.838096640229      -0.451658797546     0.138743259278      0.238993148319      
10000000000.0       0.141044996366      0.24048055202       0.835315615875      -0.455318367069     0.835315615875      -0.455318367069     0.141044996366      0.24048055202       
