# Hz S RI R 50.00 
100000000.0         -0.000252322742855  -0.0172736497008    0.999609399104      -0.0175734101123    0.999609399104      -0.0175734101123    -0.000252322742855  -0.0172736497008    
200000000.0         -0.00117894935856   -0.0345144176248    0.998681696376      -0.0351139610687    0.998681696376      -0.0351139610687    -0.00117894935856   -0.0345144176248    
300000000.0         -0.00270846535398   -0.0516908492867    0.997151252782      -0.052590211249     0.997151252782      -0.052590211249     -0.00270846535398   -0.0516908492867    
400000000.0         -0.0048352637061    -0.0687718839271    0.995023556292      -0.0699711100644    0.995023556292      -0.0699711100644    -0.0048352637061    -0.0687718839271    
500000000.0         -0.00755166457247   -0.0857270349401    0.992306241066      -0.0872261797554    0.992306241066      -0.0872261797554    -0.00755166457247   -0.0857270349401    
600000000.0         -0.0108479582822    -0.102526565055     0.989008993547      -0.104325691035     0.989008993547      -0.104325691035     -0.0108479582822    -0.102526565055     
700000000.0         -0.0147124844994    -0.119141652761     0.985143460374      -0.121240829742     0.985143460374      -0.121240829742     -0.0147124844994    -0.119141652761     
800000000.0         -0.0191317313048    -0.135544547783     0.9807231446        -0.137943852458     0.9807231446        -0.137943852458     -0.0191317313048    -0.135544547783     
900000000.0         -0.0240904497897    -0.151708713837     0.975763289007      -0.154408229353     0.975763289007      -0.154408229353     -0.0240904497897    -0.151708713837     
1000000000.0        -0.0295717815726    -0.167608957219     0.970280747531      -0.170608772833     0.970280747531      -0.170608772833     -0.0295717815726    -0.167608957219     
1100000000.0        -0.0355573970109    -0.183221540045     0.964293846465      -0.186521750831     0.964293846465      -0.186521750831     -0.0355573970109    -0.183221540045     
1200000000.0        -0.0420276419449    -0.198524277308     0.957822237363      -0.202124983897     0.957822237363      -0.202124983897     -0.0420276419449    -0.198524277308     
1300000000.0        -0.048961690826     -0.213496617186     0.950886743699      -0.21739792554      0.950886743699      -0.21739792554      -0.048961690826     -0.213496617186     
1400000000.0        -0.0563377041002    -0.228119704349     0.943509203333      -0.232321725549     0.943509203333      -0.232321725549     -0.0563377041002    -0.228119704349     
1500000000.0        -0.0641329877679    -0.242376426282     0.935712308859      -0.246879276338     0.935712308859      -0.246879276338     -0.0641329877679    -0.242376426282     
1600000000.0        -0.0723241531287    -0.256251442909     0.927519447789      -0.26105524259      0.927519447789      -0.26105524259      -0.0723241531287    -0.256251442909     
1700000000.0        -0.080887274831     -0.269731200075     0.918954544455      -0.274836074747     0.918954544455      -0.274836074747     -0.080887274831     -0.269731200075     
1800000000.0        -0.0897980454942    -0.282803927609     0.910041905352      -0.288210007087     0.910041905352      -0.288210007087     -0.0897980454942    -0.282803927609     
1900000000.0        -0.0990319253362    -0.29545962292      0.90080606948       -0.301167041327     0.90080606948       -0.301167041327     -0.0990319253362    -0.29545962292      
2000000000.0        -0.108564285424     -0.307690021208     0.891271665078      -0.313698916846     0.891271665078      -0.313698916846     -0.108564285424     -0.307690021208     
2100000000.0        -0.11837054336      -0.319488553509     0.881463273916      -0.325799068738     0.881463273916      -0.325799068738     -0.11837054336      -0.319488553509     
2200000000.0        -0.128426290425     -0.33085029386      0.871405304146      -0.33746257498      0.871405304146      -0.33746257498      -0.128426290425     -0.33085029386      
2300000000.0        -0.138707409386     -0.341771896947     0.861121872477      -0.348686094092     0.861121872477      -0.348686094092     -0.138707409386     -0.341771896947     
2400000000.0        -0.149190182402     -0.352251527612     0.850636696269      -0.359467794644     0.850636696269      -0.359467794644     -0.149190182402     -0.352251527612     
2500000000.0        -0.159851388622     -0.362288783589     0.839972995922      -0.369807278        0.839972995922      -0.369807278        -0.159851388622     -0.362288783589     
2600000000.0        -0.170668391272     -0.371884612829     0.829153407788      -0.37970549565      0.829153407788      -0.37970549565      -0.170668391272     -0.371884612829     
2700000000.0        -0.181619214182     -0.381041226713     0.818199907637      -0.38916466242      0.818199907637      -0.38916466242      -0.181619214182     -0.381041226713     
2800000000.0        -0.192682607855     -0.389762010374     0.807133744588      -0.398188166807     0.807133744588      -0.398188166807     -0.192682607855     -0.389762010374     
2900000000.0        -0.203838105307     -0.39805143131      0.79597538526       -0.406780479589     0.79597538526       -0.406780479589     -0.203838105307     -0.39805143131      
3000000000.0        -0.215066068038     -0.405914947325     0.784744467806      -0.414947061773     0.784744467806      -0.414947061773     -0.215066068038     -0.405914947325     
3100000000.0        -0.226347722551     -0.413358914777     0.773459765389      -0.422694272849     0.773459765389      -0.422694272849     -0.226347722551     -0.413358914777     
3200000000.0        -0.237665187958     -0.420390497996     0.762139158568      -0.4300292802       0.762139158568      -0.4300292802       -0.237665187958     -0.420390497996     
3300000000.0        -0.24900149524      -0.427017580608     0.750799616047      -0.436959970442     0.750799616047      -0.436959970442     -0.24900149524      -0.427017580608     
3400000000.0        -0.260340598773     -0.433248679442     0.739457183141      -0.443494863325     0.739457183141      -0.443494863325     -0.260340598773     -0.433248679442     
3500000000.0        -0.271667380777     -0.439092861539     0.728126977327      -0.449643028752     0.728126977327      -0.449643028752     -0.271667380777     -0.439092861539     
3600000000.0        -0.282967649343     -0.444559664738     0.716823190217      -0.455414007358     0.716823190217      -0.455414007358     -0.282967649343     -0.444559664738     
3700000000.0        -0.294228130694     -0.449659022166     0.705559095296      -0.46081773501      0.705559095296      -0.46081773501      -0.294228130694     -0.449659022166     
3800000000.0        -0.305436456351     -0.454401190926     0.694347060756      -0.465864471495     0.694347060756      -0.465864471495     -0.305436456351     -0.454401190926     
3900000000.0        -0.316581145819     -0.458796685151     0.683198566806      -0.470564733574     0.683198566806      -0.470564733574     -0.316581145819     -0.458796685151     
4000000000.0        -0.327651585428     -0.462856213553     0.672124226834      -0.474929232537     0.672124226834      -0.474929232537     -0.327651585428     -0.462856213553     
4100000000.0        -0.338638003896     -0.466590621516     0.661133811843      -0.478968816293     0.661133811843      -0.478968816293     -0.338638003896     -0.466590621516     
4200000000.0        -0.349531445177     -0.470010837723     0.650236277601      -0.482694416005     0.650236277601      -0.482694416005     -0.349531445177     -0.470010837723     
4300000000.0        -0.360323739096     -0.473127825274     0.639439794008      -0.486116997205     0.639439794008      -0.486116997205     -0.360323739096     -0.473127825274     
4400000000.0        -0.371007470253     -0.475952537196     0.628751776189      -0.489247515305     0.628751776189      -0.489247515305     -0.371007470253     -0.475952537196     
4500000000.0        -0.381575945621     -0.478495876211     0.618178916895      -0.492096875372     0.618178916895      -0.492096875372     -0.381575945621     -0.478495876211     
4600000000.0        -0.392023161248     -0.480768658617     0.607727219808      -0.494675896006     0.607727219808      -0.494675896006     -0.392023161248     -0.480768658617     
4700000000.0        -0.402343768389     -0.482781582093     0.597402033398      -0.496995277146     0.597402033398      -0.496995277146     -0.402343768389     -0.482781582093     
4800000000.0        -0.412533039412     -0.484545197235     0.587208085025      -0.499065571613     0.587208085025      -0.499065571613     -0.412533039412     -0.484545197235     
4900000000.0        -0.422586833736     -0.486069882621     0.577149514999      -0.50089716017      0.577149514999      -0.50089716017      -0.422586833736     -0.486069882621     
5000000000.0        -0.43250156405      -0.487365823182     0.567229910357      -0.502500229898     0.567229910357      -0.502500229898     -0.43250156405      -0.487365823182     
5100000000.0        -0.442274163018     -0.488442991666     0.557452338163      -0.50388475566      0.557452338163      -0.50388475566      -0.442274163018     -0.488442991666     
5200000000.0        -0.451902050652     -0.48931113297      0.547819378131      -0.505060484437     0.547819378131      -0.505060484437     -0.451902050652     -0.48931113297      
5300000000.0        -0.461383102499     -0.489979751129     0.538333154441      -0.506036922312     0.538333154441      -0.506036922312     -0.461383102499     -0.489979751129     
5400000000.0        -0.47071561876      -0.490458098742     0.528995366618      -0.506823323905     0.528995366618      -0.506823323905     -0.47071561876      -0.490458098742     
5500000000.0        -0.479898294443     -0.490755168628     0.519807319378      -0.507428684024     0.519807319378      -0.507428684024     -0.479898294443     -0.490755168628     
5600000000.0        -0.488930190633     -0.490879687518     0.510769951361      -0.50786173136      0.510769951361      -0.50786173136      -0.488930190633     -0.490879687518     
5700000000.0        -0.497810706919     -0.490840111581     0.501883862701      -0.508130924019     0.501883862701      -0.508130924019     -0.497810706919     -0.490840111581     
5800000000.0        -0.506539555034     -0.490644623614     0.493149341387      -0.508244446702     0.493149341387      -0.508244446702     -0.506539555034     -0.490644623614     
5900000000.0        -0.515116733727     -0.49030113171      0.484566388393      -0.508210209387     0.484566388393      -0.508210209387     -0.515116733727     -0.49030113171      
6000000000.0        -0.523542504873     -0.489817269255     0.476134741562      -0.508035847315     0.476134741562      -0.508035847315     -0.523542504873     -0.489817269255     
6100000000.0        -0.531817370832     -0.489200396091     0.467853898254      -0.507728722165     0.467853898254      -0.507728722165     -0.531817370832     -0.489200396091     
6200000000.0        -0.53994205304      -0.488457600718     0.459723136751      -0.507295924247     0.459723136751      -0.507295924247     -0.53994205304      -0.488457600718     
6300000000.0        -0.547917471816     -0.487595703388     0.45174153645       -0.506744275605     0.45174153645       -0.506744275605     -0.547917471816     -0.487595703388     
6400000000.0        -0.555744727358     -0.486621259978     0.443907996868      -0.506080333885     0.443907996868      -0.506080333885     -0.555744727358     -0.486621259978     
6500000000.0        -0.563425081905     -0.485540566542     0.436221255482      -0.505310396892     0.436221255482      -0.505310396892     -0.563425081905     -0.485540566542     
6600000000.0        -0.570959943018     -0.484359664418     0.428679904441      -0.504440507695     0.428679904441      -0.504440507695     -0.570959943018     -0.484359664418     
6700000000.0        -0.578350847959     -0.48308434582      0.421282406196      -0.50347646022      0.421282406196      -0.50347646022      -0.578350847959     -0.48308434582      
6800000000.0        -0.585599449105     -0.481720159814     0.414027108078      -0.50242380523      0.414027108078      -0.50242380523      -0.585599449105     -0.481720159814     
6900000000.0        -0.592707500374     -0.480272418618     0.406912255879      -0.501287856623     0.406912255879      -0.501287856623     -0.592707500374     -0.480272418618     
7000000000.0        -0.599676844605     -0.478746204142     0.399936006466      -0.500073697971     0.399936006466      -0.500073697971     -0.599676844605     -0.478746204142     
7100000000.0        -0.606509401855     -0.477146374722     0.393096439486      -0.498786189261     0.393096439486      -0.498786189261     -0.606509401855     -0.477146374722     
7200000000.0        -0.613207158562     -0.475477571983     0.386391568206      -0.497429973751     0.386391568206      -0.497429973751     -0.613207158562     -0.475477571983     
7300000000.0        -0.619772157536     -0.473744227788     0.379819349518      -0.496009484925     0.379819349518      -0.496009484925     -0.619772157536     -0.473744227788     
7400000000.0        -0.626206488719     -0.471950571225     0.373377693179      -0.494528953478     0.373377693179      -0.494528953478     -0.626206488719     -0.471950571225     
7500000000.0        -0.632512280692     -0.470100635606     0.367064470307      -0.492992414318     0.367064470307      -0.492992414318     -0.632512280692     -0.470100635606     
7600000000.0        -0.638691692866     -0.46819826543      0.360877521189      -0.491403713528     0.360877521189      -0.491403713528     -0.638691692866     -0.46819826543      
7700000000.0        -0.644746908322     -0.466247123289     0.354814662439      -0.489766515273     0.354814662439      -0.489766515273     -0.644746908322     -0.466247123289     
7800000000.0        -0.650680127271     -0.464250696704     0.348873693539      -0.488084308636     0.348873693539      -0.488084308636     -0.650680127271     -0.464250696704     
7900000000.0        -0.656493561073     -0.46221230484      0.343052402821      -0.486360414336     0.343052402821      -0.486360414336     -0.656493561073     -0.46221230484      
8000000000.0        -0.662189426797     -0.460135105118     0.337348572907      -0.484597991335     0.337348572907      -0.484597991335     -0.662189426797     -0.460135105118     
8100000000.0        -0.667769942282     -0.45802209968      0.331759985645      -0.482800043311     0.331759985645      -0.482800043311     -0.667769942282     -0.45802209968      
8200000000.0        -0.673237321654     -0.455876141712     0.326284426596      -0.480969424977     0.326284426596      -0.480969424977     -0.673237321654     -0.455876141712     
8300000000.0        -0.678593771284     -0.453699941612     0.320919689073      -0.47910884825      0.320919689073      -0.47910884825      -0.678593771284     -0.453699941612     
8400000000.0        -0.683841486145     -0.451496072985     0.315663577787      -0.477220888246     0.315663577787      -0.477220888246     -0.683841486145     -0.451496072985     
8500000000.0        -0.688982646536     -0.449266978475     0.31051391212       -0.475307989115     0.31051391212       -0.475307989115     -0.688982646536     -0.449266978475     
8600000000.0        -0.694019415162     -0.447014975416     0.305468529045      -0.47337246969      0.305468529045      -0.47337246969      -0.694019415162     -0.447014975416     
8700000000.0        -0.698953934523     -0.444742261309     0.30052528574       -0.471416528965     0.30052528574       -0.471416528965     -0.698953934523     -0.444742261309     
8800000000.0        -0.703788324608     -0.442450919112     0.295682061891      -0.469442251388     0.295682061891      -0.469442251388     -0.703788324608     -0.442450919112     
8900000000.0        -0.708524680851     -0.440142922358     0.290936761737      -0.467451611974     0.290936761737      -0.467451611974     -0.708524680851     -0.440142922358     
9000000000.0        -0.713165072348     -0.437820140086     0.286287315853      -0.465446481243     0.286287315853      -0.465446481243     -0.713165072348     -0.437820140086     
9100000000.0        -0.7177115403       -0.435484341594     0.281731682709      -0.463428629968     0.281731682709      -0.463428629968     -0.7177115403       -0.435484341594     
9200000000.0        -0.722166096664     -0.43313720102      0.277267850014      -0.461399733759     0.277267850014      -0.461399733759     -0.722166096664     -0.43313720102      
9300000000.0        -0.726530723009     -0.430780301737     0.272893835864      -0.459361377459     0.272893835864      -0.459361377459     -0.726530723009     -0.430780301737     
9400000000.0        -0.730807369542     -0.428415140591     0.268607689717      -0.457315059381     0.268607689717      -0.457315059381     -0.730807369542     -0.428415140591     
9500000000.0        -0.734997954299     -0.426043131958     0.264407493196      -0.455262195365     0.264407493196      -0.455262195365     -0.734997954299     -0.426043131958     
9600000000.0        -0.739104362487     -0.423665611642     0.260291360754      -0.453204122678     0.260291360754      -0.453204122678     -0.739104362487     -0.423665611642     
9700000000.0        -0.743128445962     -0.421283840614     0.256257440194      -0.451142103753     0.256257440194      -0.451142103753     -0.743128445962     -0.421283840614     
9800000000.0        -0.747072022825     -0.418899008591     0.252303913068      -0.449077329765     0.252303913068      -0.449077329765     -0.747072022825     -0.418899008591     
9900000000.0        -0.750936877137     -0.416512237464     0.248428994967      -0.447010924068     0.248428994967      -0.447010924068     -0.750936877137     -0.416512237464     
10000000000.0       -0.754724758736     -0.414124584585     0.244630935706      -0.44494394547      0.244630935706      -0.44494394547      -0.754724758736     -0.414124584585     
