# Hz S RI R 50.00 
100000000.0         0.00459283369582    0.00244037373709    0.995400988617      -0.004862949425     0.995400988617      -0.004862949425     0.00459283369582    0.00244037373709    
200000000.0         0.00465798225983    0.00488005133371    0.99532478405       -0.00972523308681   0.99532478405       -0.00972523308681   0.00465798225983    0.00488005133371    
300000000.0         0.00473893919858    0.00731895214217    0.995226892069      -0.0145867914418    0.995226892069      -0.0145867914418    0.00473893919858    0.00731895214217    
400000000.0         0.00483965595371    0.00975687856425    0.995103360285      -0.0194474430597    0.995103360285      -0.0194474430597    0.00483965595371    0.00975687856425    
500000000.0         0.00496164500519    0.0121936059683     0.99495267506       -0.0243069769575    0.99495267506       -0.0243069769575    0.00496164500519    0.0121936059683     
600000000.0         0.00510566828391    0.0146288979299     0.9947740731        -0.029165168693     0.9947740731        -0.029165168693     0.00510566828391    0.0146288979299     
700000000.0         0.00527216625982    0.0170625117384     0.994567112384      -0.0340217863076    0.994567112384      -0.0340217863076    0.00527216625982    0.0170625117384     
800000000.0         0.00546141449691    0.0194942009756     0.994331515609      -0.0388765931684    0.994331515609      -0.0388765931684    0.00546141449691    0.0194942009756     
900000000.0         0.00567359333734    0.021923716922      0.994067100517      -0.0437293495487    0.994067100517      -0.0437293495487    0.00567359333734    0.021923716922      
1000000000.0        0.00590882321237    0.0243508094094     0.993773744589      -0.0485798136028    0.993773744589      -0.0485798136028    0.00590882321237    0.0243508094094     
1100000000.0        0.00616718426645    0.0267752273778     0.993451365423      -0.0534277420143    0.993451365423      -0.0534277420143    0.00616718426645    0.0267752273778     
1200000000.0        0.00644872804932    0.0291967192642     0.993099909051      -0.0582728904551    0.993099909051      -0.0582728904551    0.00644872804932    0.0291967192642     
1300000000.0        0.0067534848724     0.0316150332884     0.992719342582      -0.0631150139262    0.992719342582      -0.0631150139262    0.0067534848724     0.0316150332884     
1400000000.0        0.0070814686459     0.0340299176712     0.992309649371      -0.0679538670206    0.992309649371      -0.0679538670206    0.0070814686459     0.0340299176712     
1500000000.0        0.00743268017728    0.036441120809      0.991870825723      -0.0727892041347    0.991870825723      -0.0727892041347    0.00743268017728    0.036441120809      
1600000000.0        0.00780710949102    0.0388483914174     0.991402878575      -0.0776207796427    0.991402878575      -0.0776207796427    0.00780710949102    0.0388483914174     
1700000000.0        0.00820473750369    0.041251478652      0.990905823828      -0.0824483480437    0.990905823828      -0.0824483480437    0.00820473750368    0.041251478652      
1800000000.0        0.00862553726183    0.0436501322144     0.990379685103      -0.0872716640898    0.990379685103      -0.0872716640898    0.00862553726183    0.0436501322144     
1900000000.0        0.00906947487581    0.046044102445      0.989824492819      -0.0920904828986    0.989824492819      -0.0920904828986    0.00906947487581    0.046044102445      
2000000000.0        0.00953651023729    0.048433140407      0.989240283472      -0.0969045600543    0.989240283472      -0.0969045600543    0.00953651023729    0.048433140407      
2100000000.0        0.0100265975799     0.0508169979637     0.988627099077      -0.101713651699     0.988627099077      -0.101713651699     0.0100265975799     0.0508169979637     
2200000000.0        0.0105396859245     0.0531954278489     0.987984986726      -0.106517514619     0.987984986726      -0.106517514619     0.0105396859245     0.0531954278489     
2300000000.0        0.011075719437      0.0555681837342     0.98731399823       -0.111315906321     0.98731399823       -0.111315906321     0.011075719437      0.0555681837342     
2400000000.0        0.0116346377218     0.0579350202913     0.986614189829      -0.116108585106     0.986614189829      -0.116108585106     0.0116346377218     0.0579350202913     
2500000000.0        0.0122163760633     0.0602956932521     0.985885621953      -0.120895310139     0.985885621953      -0.120895310139     0.0122163760633     0.0602956932521     
2600000000.0        0.0128208656291     0.0626499594651     0.985128359014      -0.125675841516     0.985128359014      -0.125675841516     0.0128208656291     0.0626499594651     
2700000000.0        0.0134480336422     0.0649975769511     0.984342469245      -0.130449940326     0.984342469245      -0.130449940326     0.0134480336422     0.0649975769511     
2800000000.0        0.0140978035284     0.0673383049549     0.983528024544      -0.135217368707     0.983528024544      -0.135217368707     0.0140978035284     0.0673383049549     
2900000000.0        0.0147700950453     0.0696719039974     0.982685100355      -0.139977889912     0.982685100355      -0.139977889912     0.0147700950453     0.0696719039974     
3000000000.0        0.0154648243945     0.0719981359243     0.981813775548      -0.144731268358     0.981813775548      -0.144731268358     0.0154648243945     0.0719981359243     
3100000000.0        0.0161819043224     0.0743167639548     0.980914132329      -0.149477269679     0.980914132329      -0.149477269679     0.0161819043224     0.0743167639548     
3200000000.0        0.0169212442095     0.0766275527281     0.979986256142      -0.154215660785     0.979986256142      -0.154215660785     0.0169212442095     0.0766275527281     
3300000000.0        0.0176827501529     0.0789302683488     0.979030235596      -0.158946209905     0.979030235596      -0.158946209905     0.0176827501529     0.0789302683488     
3400000000.0        0.0184663250404     0.081224678432      0.978046162386      -0.163668686642     0.978046162386      -0.163668686642     0.0184663250404     0.081224678432      
3500000000.0        0.0192718686202     0.0835105521462     0.977034131226      -0.168382862014     0.977034131226      -0.168382862014     0.0192718686202     0.0835105521462     
3600000000.0        0.0200992775651     0.085787660256      0.975994239788      -0.173088508506     0.975994239788      -0.173088508506     0.0200992775651     0.085787660256      
3700000000.0        0.0209484455335     0.0880557751635     0.974926588636      -0.177785400114     0.974926588636      -0.177785400114     0.0209484455335     0.0880557751635     
3800000000.0        0.0218192632266     0.0903146709488     0.973831281177      -0.182473312386     0.973831281177      -0.182473312386     0.0218192632266     0.0903146709488     
3900000000.0        0.0227116184438     0.0925641234097     0.9727084236        -0.187152022468     0.9727084236        -0.187152022468     0.0227116184438     0.0925641234097     
4000000000.0        0.0236253961351     0.0948039101002     0.971558124827      -0.191821309143     0.971558124827      -0.191821309143     0.0236253961351     0.0948039101002     
4100000000.0        0.024560478452      0.0970338103687     0.970380496464      -0.196480952875     0.970380496464      -0.196480952875     0.024560478452      0.0970338103687     
4200000000.0        0.0255167447971     0.0992536053947     0.969175652749      -0.201130735845     0.969175652749      -0.201130735845     0.0255167447971     0.0992536053947     
4300000000.0        0.0264940718721     0.101463078225      0.967943710507      -0.205770441992     0.967943710507      -0.205770441992     0.0264940718721     0.101463078225      
4400000000.0        0.0274923337251     0.103662013809      0.966684789102      -0.210399857049     0.966684789102      -0.210399857049     0.0274923337251     0.103662013809      
4500000000.0        0.028511401797      0.105850199034      0.96539901039       -0.215018768581     0.96539901039       -0.215018768581     0.028511401797      0.105850199034      
4600000000.0        0.0295511449666     0.108027422757      0.96408649868       -0.21962696602      0.96408649868       -0.21962696602      0.0295511449666     0.108027422757      
4700000000.0        0.0306114295964     0.11019347584       0.962747380679      -0.224224240702     0.962747380679      -0.224224240702     0.0306114295964     0.11019347584       
4800000000.0        0.0316921195766     0.112348151177      0.961381785459      -0.228810385894     0.961381785459      -0.228810385894     0.0316921195766     0.112348151177      
4900000000.0        0.0327930763698     0.114491243734      0.959989844406      -0.233385196835     0.959989844406      -0.233385196835     0.0327930763698     0.114491243734      
5000000000.0        0.0339141590545     0.11662255057       0.958571691176      -0.237948470763     0.958571691176      -0.237948470763     0.0339141590545     0.11662255057       
5100000000.0        0.0350552243694     0.118741870872      0.957127461658      -0.242500006949     0.957127461658      -0.242500006949     0.0350552243694     0.118741870872      
5200000000.0        0.0362161267563     0.120849005981      0.955657293924      -0.247039606724     0.955657293924      -0.247039606724     0.0362161267563     0.120849005981      
5300000000.0        0.0373967184044     0.122943759424      0.95416132819       -0.25156707351      0.95416132819       -0.25156707351      0.0373967184044     0.122943759424      
5400000000.0        0.0385968492927     0.125025936936      0.952639706771      -0.256082212848     0.952639706771      -0.256082212848     0.0385968492927     0.125025936936      
5500000000.0        0.039816367234      0.127095346487      0.95109257404       -0.260584832425     0.95109257404       -0.260584832425     0.039816367234      0.127095346487      
5600000000.0        0.0410551179181     0.129151798311      0.949520076381      -0.265074742104     0.949520076381      -0.265074742104     0.0410551179181     0.129151798311      
5700000000.0        0.0423129449546     0.131195104928      0.947922362152      -0.269551753942     0.947922362152      -0.269551753942     0.0423129449546     0.131195104928      
5800000000.0        0.0435896899167     0.133225081167      0.946299581635      -0.274015682223     0.946299581635      -0.274015682223     0.0435896899167     0.133225081167      
5900000000.0        0.044885192384      0.13524154419       0.944651887         -0.278466343475     0.944651887         -0.278466343475     0.044885192384      0.13524154419       
6000000000.0        0.0461992899862     0.137244313515      0.942979432257      -0.282903556499     0.942979432257      -0.282903556499     0.0461992899862     0.137244313515      
6100000000.0        0.0475318184461     0.139233211034      0.941282373215      -0.287327142386     0.941282373215      -0.287327142386     0.0475318184461     0.139233211034      
6200000000.0        0.0488826116229     0.141208061038      0.939560867438      -0.291736924542     0.939560867438      -0.291736924542     0.0488826116229     0.141208061038      
6300000000.0        0.050251501556      0.143168690233      0.937815074202      -0.296132728706     0.937815074202      -0.296132728706     0.050251501556      0.143168690233      
6400000000.0        0.0516383185076     0.14511492776       0.936045154452      -0.300514382969     0.936045154452      -0.300514382969     0.0516383185076     0.14511492776       
6500000000.0        0.0530428910068     0.147046605212      0.934251270759      -0.304881717795     0.934251270759      -0.304881717795     0.0530428910068     0.147046605212      
6600000000.0        0.0544650458927     0.148963556654      0.932433587278      -0.309234566037     0.932433587278      -0.309234566037     0.0544650458927     0.148963556654      
6700000000.0        0.0559046083578     0.150865618636      0.930592269699      -0.313572762955     0.930592269699      -0.313572762955     0.0559046083578     0.150865618636      
6800000000.0        0.0573614019915     0.152752630209      0.928727485214      -0.31789614623      0.928727485214      -0.31789614623      0.0573614019915     0.152752630209      
6900000000.0        0.0588352488235     0.154624432941      0.926839402461      -0.322204555981     0.926839402461      -0.322204555981     0.0588352488235     0.154624432941      
7000000000.0        0.0603259693672     0.15648087093       0.924928191492      -0.326497834777     0.924928191492      -0.326497834777     0.0603259693672     0.15648087093       
7100000000.0        0.0618333826629     0.158321790819      0.922994023723      -0.330775827656     0.922994023723      -0.330775827656     0.0618333826629     0.158321790819      
7200000000.0        0.0633573063215     0.160147041804      0.921037071893      -0.33503838213      0.921037071893      -0.33503838213      0.0633573063215     0.160147041804      
7300000000.0        0.0648975565673     0.161956475648      0.91905751002       -0.339285348201     0.91905751002       -0.339285348201     0.0648975565673     0.161956475648      
7400000000.0        0.0664539482819     0.163749946693      0.917055513359      -0.343516578372     0.917055513359      -0.343516578372     0.0664539482819     0.163749946693      
7500000000.0        0.0680262950467     0.165527311867      0.915031258357      -0.347731927657     0.915031258357      -0.347731927657     0.0680262950467     0.165527311867      
7600000000.0        0.0696144091864     0.167288430694      0.912984922614      -0.351931253588     0.912984922614      -0.351931253588     0.0696144091864     0.167288430694      
7700000000.0        0.071218101812      0.169033165303      0.910916684832      -0.356114416226     0.910916684832      -0.356114416226     0.071218101812      0.169033165303      
7800000000.0        0.0728371828634     0.170761380435      0.908826724782      -0.360281278168     0.908826724782      -0.360281278168     0.0728371828634     0.170761380435      
7900000000.0        0.0744714611526     0.172472943449      0.906715223254      -0.364431704554     0.906715223254      -0.364431704554     0.0744714611526     0.172472943449      
8000000000.0        0.076120744406      0.17416772433       0.904582362016      -0.36856556307      0.904582362016      -0.36856556307      0.076120744406      0.17416772433       
8100000000.0        0.0777848393071     0.175845595689      0.902428323775      -0.37268272396      0.902428323775      -0.37268272396      0.0777848393071     0.175845595689      
8200000000.0        0.079463551539      0.177506432775      0.900253292128      -0.376783060022     0.900253292128      -0.376783060022     0.079463551539      0.177506432775      
8300000000.0        0.0811566858264     0.179150113472      0.898057451526      -0.38086644662      0.898057451526      -0.38086644662      0.0811566858264     0.179150113472      
8400000000.0        0.0828640459775     0.180776518305      0.895840987229      -0.384932761679     0.895840987229      -0.384932761679     0.0828640459775     0.180776518305      
8500000000.0        0.0845854349264     0.182385530442      0.893604085264      -0.388981885694     0.893604085264      -0.388981885694     0.0845854349264     0.182385530442      
8600000000.0        0.0863206547742     0.183977035694      0.891346932384      -0.393013701728     0.891346932384      -0.393013701728     0.0863206547742     0.183977035694      
8700000000.0        0.0880695068307     0.185550922516      0.889069716027      -0.397028095412     0.889069716027      -0.397028095412     0.0880695068307     0.185550922516      
8800000000.0        0.0898317916556     0.18710708201       0.886772624273      -0.401024954948     0.886772624273      -0.401024954948     0.0898317916556     0.18710708201       
8900000000.0        0.0916073090992     0.18864540792       0.884455845804      -0.405004171104     0.884455845804      -0.405004171104     0.0916073090992     0.18864540792       
9000000000.0        0.0933958583437     0.190165796633      0.882119569863      -0.408965637216     0.882119569863      -0.408965637216     0.0933958583437     0.190165796633      
9100000000.0        0.0951972379431     0.191668147175      0.879763986215      -0.412909249185     0.879763986215      -0.412909249185     0.0951972379431     0.191668147175      
9200000000.0        0.0970112458638     0.19315236121       0.877389285103      -0.416834905473     0.877389285103      -0.416834905473     0.0970112458638     0.19315236121       
9300000000.0        0.0988376795243     0.194618343038      0.874995657213      -0.4207425071       0.874995657213      -0.4207425071       0.0988376795243     0.194618343038      
9400000000.0        0.100676335835      0.196065999585      0.872583293628      -0.42463195764      0.872583293628      -0.42463195764      0.100676335835      0.196065999585      
9500000000.0        0.102527011237      0.197495240405      0.870152385795      -0.428503163217     0.870152385795      -0.428503163217     0.102527011237      0.197495240405      
9600000000.0        0.104389501742      0.19890597767       0.867703125481      -0.432356032495     0.867703125481      -0.432356032495     0.104389501742      0.19890597767       
9700000000.0        0.106263602971      0.200298126166      0.865235704737      -0.436190476678     0.865235704737      -0.436190476678     0.106263602971      0.200298126166      
9800000000.0        0.108149110191      0.201671603286      0.862750315858      -0.440006409499     0.862750315858      -0.440006409499     0.108149110191      0.201671603286      
9900000000.0        0.110045818356      0.203026329022      0.860247151346      -0.443803747214     0.860247151346      -0.443803747214     0.110045818356      0.203026329022      
10000000000.0       0.11195352214       0.204362225958      0.85772640387       -0.447582408592     0.85772640387       -0.447582408592     0.11195352214       0.204362225958      
