# Hz S RI R 50.00 
100000000.0         8.28141040101e-05   -0.000419369227702  0.999914133289      -0.000859464715826  0.999914133289      -0.000859464715826  8.28141040103e-05   -0.000419369227701  
200000000.0         8.16835726918e-05   -0.000838768398724  0.999911575461      -0.00171897375545   0.999911575461      -0.00171897375545   8.1683572692e-05    -0.000838768398724  
300000000.0         7.96845946147e-05   -0.00125821220659   0.999908249834      -0.00257855014506   0.999908249834      -0.00257855014506   7.96845946147e-05   -0.00125821220659   
400000000.0         7.68897421144e-05   -0.00167771143555   0.999904083204      -0.00343821097657   0.999904083204      -0.00343821097657   7.68897421144e-05   -0.00167771143555   
500000000.0         7.33266628554e-05   -0.002097274798     0.99989904718       -0.0042979703359    0.99989904718       -0.0042979703359    7.33266628554e-05   -0.002097274798     
600000000.0         6.90092091009e-05   -0.00251690960765   0.99989312707       -0.00515784032176   0.99989312707       -0.00515784032176   6.90092091007e-05   -0.00251690960765   
700000000.0         6.39453458666e-05   -0.00293662212895   0.999886313987      -0.00601783156578   0.999886313987      -0.00601783156578   6.39453458666e-05   -0.00293662212895   
800000000.0         5.81400365536e-05   -0.00335641779051   0.999878601975      -0.00687795354594   0.999878601975      -0.00687795354594   5.81400365534e-05   -0.00335641779051   
900000000.0         5.15965281276e-05   -0.00377630132738   0.99986998673       -0.00773821479392   0.99986998673       -0.00773821479392   5.15965281276e-05   -0.00377630132738   
1000000000.0        4.43170032551e-05   -0.00419627688282   0.999860464955      -0.00859862304204   0.999860464955      -0.00859862304204   4.43170032554e-05   -0.00419627688282   
1100000000.0        3.63029434121e-05   -0.00461634808526   0.999850034003      -0.00945918533316   0.999850034003      -0.00945918533316   3.63029434121e-05   -0.00461634808526   
1200000000.0        2.75553458409e-05   -0.00503651810723   0.999838691667      -0.0103199081046    0.999838691667      -0.0103199081046    2.75553458409e-05   -0.00503651810723   
1300000000.0        1.80748605743e-05   -0.00545678971288   0.999826436046      -0.0111807972553    0.999826436046      -0.0111807972553    1.80748605745e-05   -0.00545678971288   
1400000000.0        7.86188094226e-06   -0.00587716529688   0.999813265459      -0.0120418581997    0.999813265459      -0.0120418581997    7.86188094226e-06   -0.00587716529688   
1500000000.0        -3.08339435862e-06  -0.00629764691687   0.999799178386      -0.0129030959138    0.999799178386      -0.0129030959138    -3.08339435862e-06  -0.00629764691687   
1600000000.0        -1.47609173302e-05  -0.00671823632091   0.999784173429      -0.013764514972     0.999784173429      -0.013764514972     -1.47609173301e-05  -0.00671823632091   
1700000000.0        -2.7170758707e-05   -0.00713893497107   0.999768249284      -0.0146261195804    0.999768249284      -0.0146261195804    -2.7170758707e-05   -0.00713893497107   
1800000000.0        -4.03130841491e-05  -0.00755974406395   0.999751404716      -0.0154879136042    0.999751404716      -0.0154879136042    -4.03130841491e-05  -0.00755974406395   
1900000000.0        -5.41881361122e-05  -0.00798066454888   0.999733638551      -0.0163499005925    0.999733638551      -0.0163499005925    -5.41881361122e-05  -0.00798066454888   
2000000000.0        -6.87962198035e-05  -0.00840169714372   0.999714949656      -0.0172120837998    0.999714949656      -0.0172120837998    -6.87962198034e-05  -0.00840169714372   
2100000000.0        -8.41376920888e-05  -0.00882284234926   0.999695336935      -0.0180744662048    0.999695336935      -0.0180744662048    -8.41376920886e-05  -0.00882284234926   
2200000000.0        -0.000100212952629  -0.00924410046218   0.999674799325      -0.0189370505282    0.999674799325      -0.0189370505282    -0.000100212952628  -0.00924410046218   
2300000000.0        -0.00011702243666   -0.00966547158654   0.999653335783      -0.0197998392474    0.999653335783      -0.0197998392474    -0.000117022436659  -0.00966547158654   
2400000000.0        -0.000134566609068  -0.0100869556445    0.999630945289      -0.0206628346111    0.999630945289      -0.0206628346111    -0.000134566609068  -0.0100869556445    
2500000000.0        -0.000152845959453  -0.0105085523859    0.999607626842      -0.0215260386516    0.999607626842      -0.0215260386516    -0.000152845959453  -0.0105085523859    
2600000000.0        -0.000171860997977  -0.0109302613974    0.999583379454      -0.0223894531964    0.999583379454      -0.0223894531964    -0.000171860997977  -0.0109302613974    
2700000000.0        -0.000191612251831  -0.0113520821105    0.999558202151      -0.0232530798792    0.999558202151      -0.0232530798792    -0.000191612251831  -0.0113520821105    
2800000000.0        -0.000212100262213  -0.0117740138092    0.99953209397       -0.0241169201496    0.99953209397       -0.0241169201496    -0.000212100262212  -0.0117740138092    
2900000000.0        -0.000233325581708  -0.0121960556371    0.999505053962      -0.024980975282     0.999505053962      -0.024980975282     -0.000233325581708  -0.0121960556371    
3000000000.0        -0.000255288772012  -0.0126182066042    0.999477081184      -0.0258452463843    0.999477081184      -0.0258452463843    -0.000255288772012  -0.0126182066042    
3100000000.0        -0.000277990401921  -0.0130404655926    0.999448174704      -0.0267097344057    0.999448174704      -0.0267097344057    -0.000277990401921  -0.0130404655926    
3200000000.0        -0.000301431045569  -0.0134628313627    0.9994183336        -0.027574440144     0.9994183336        -0.027574440144     -0.000301431045568  -0.0134628313627    
3300000000.0        -0.00032561128085   -0.0138853025586    0.999387556954      -0.0284393642525    0.999387556954      -0.0284393642525    -0.00032561128085   -0.0138853025586    
3400000000.0        -0.000350531688011  -0.0143078777127    0.999355843862      -0.0293045072464    0.999355843862      -0.0293045072464    -0.000350531688011  -0.0143078777127    
3500000000.0        -0.000376192848386  -0.0147305552511    0.999323193423      -0.0301698695088    0.999323193423      -0.0301698695088    -0.000376192848386  -0.0147305552511    
3600000000.0        -0.000402595343261  -0.0151533334982    0.999289604747      -0.0310354512966    0.999289604747      -0.0310354512966    -0.000402595343261  -0.0151533334982    
3700000000.0        -0.000429739752824  -0.0155762106802    0.999255076949      -0.0319012527457    0.999255076949      -0.0319012527457    -0.000429739752823  -0.0155762106802    
3800000000.0        -0.000457626655233  -0.0159991849301    0.999219609154      -0.0327672738759    0.999219609154      -0.0327672738759    -0.000457626655233  -0.0159991849301    
3900000000.0        -0.000486256625745  -0.0164222542908    0.999183200494      -0.0336335145962    0.999183200494      -0.0336335145962    -0.000486256625744  -0.0164222542908    
4000000000.0        -0.000515630235932  -0.0168454167196    0.999145850108      -0.0344999747088    0.999145850108      -0.0344999747088    -0.000515630235932  -0.0168454167196    
4100000000.0        -0.000545748052947  -0.0172686700906    0.999107557144      -0.0353666539137    0.999107557144      -0.0353666539137    -0.000545748052947  -0.0172686700906    
4200000000.0        -0.000576610638851  -0.0176920121993    0.999068320758      -0.0362335518129    0.999068320758      -0.0362335518129    -0.000576610638851  -0.0176920121993    
4300000000.0        -0.000608218549999  -0.0181154407645    0.999028140114      -0.0371006679141    0.999028140114      -0.0371006679141    -0.000608218549999  -0.0181154407645    
4400000000.0        -0.000640572336452  -0.0185389534323    0.998987014383      -0.0379680016342    0.998987014383      -0.0379680016342    -0.000640572336452  -0.0185389534323    
4500000000.0        -0.000673672541452  -0.0189625477785    0.998944942745      -0.0388355523035    0.998944942745      -0.0388355523035    -0.000673672541452  -0.0189625477785    
4600000000.0        -0.000707519700918  -0.0193862213114    0.998901924391      -0.0397033191683    0.998901924391      -0.0397033191683    -0.000707519700918  -0.0193862213114    
4700000000.0        -0.000742114342979  -0.0198099714746    0.998857958516      -0.0405713013946    0.998857958516      -0.0405713013946    -0.000742114342979  -0.0198099714746    
4800000000.0        -0.000777456987545  -0.0202337956493    0.998813044328      -0.0414394980713    0.998813044328      -0.0414394980713    -0.000777456987545  -0.0202337956493    
4900000000.0        -0.000813548145891  -0.020657691157     0.998767181042      -0.0423079082124    0.998767181042      -0.0423079082124    -0.000813548145891  -0.020657691157     
5000000000.0        -0.000850388320289  -0.0210816552617    0.998720367882      -0.0431765307609    0.998720367882      -0.0431765307609    -0.000850388320289  -0.0210816552617    
5100000000.0        -0.000887978003639  -0.0215056851718    0.998672604082      -0.0440453645903    0.998672604082      -0.0440453645903    -0.000887978003639  -0.0215056851718    
5200000000.0        -0.000926317679139  -0.0219297780428    0.998623888884      -0.0449144085083    0.998623888884      -0.0449144085083    -0.000926317679139  -0.0219297780428    
5300000000.0        -0.000965407819967  -0.0223539309789    0.998574221542      -0.0457836612585    0.998574221542      -0.0457836612585    -0.000965407819967  -0.0223539309789    
5400000000.0        -0.00100524888899   -0.0227781410354    0.998523601318      -0.046653121523     0.998523601318      -0.046653121523     -0.00100524888899   -0.0227781410354    
5500000000.0        -0.00104584133846   -0.0232024052199    0.998472027483      -0.047522787925     0.998472027483      -0.047522787925     -0.00104584133846   -0.0232024052199    
5600000000.0        -0.00108718560981   -0.0236267204951    0.99841949932       -0.0483926590304    0.99841949932       -0.0483926590304    -0.00108718560981   -0.0236267204951    
5700000000.0        -0.00112928213334   -0.0240510837795    0.99836601612       -0.0492627333503    0.99836601612       -0.0492627333503    -0.00112928213334   -0.0240510837795    
5800000000.0        -0.001172131328     -0.0244754919499    0.998311577187      -0.0501330093431    0.998311577187      -0.0501330093431    -0.001172131328     -0.0244754919499    
5900000000.0        -0.0012157336012    -0.0248999418426    0.998256181832      -0.0510034854162    0.998256181832      -0.0510034854162    -0.0012157336012    -0.0248999418426    
6000000000.0        -0.00126008934859   -0.0253244302551    0.998199829378      -0.0518741599279    0.998199829378      -0.0518741599279    -0.00126008934859   -0.0253244302551    
6100000000.0        -0.00130519895382   -0.0257489539477    0.99814251916       -0.0527450311892    0.99814251916       -0.0527450311892    -0.00130519895382   -0.0257489539477    
6200000000.0        -0.00135106278841   -0.0261735096446    0.998084250521      -0.0536160974658    0.998084250521      -0.0536160974658    -0.00135106278841   -0.0261735096446    
6300000000.0        -0.00139768121157   -0.0265980940357    0.998025022817      -0.0544873569795    0.998025022817      -0.0544873569795    -0.00139768121157   -0.0265980940357    
6400000000.0        -0.00144505456999   -0.0270227037778    0.997964835412      -0.0553588079097    0.997964835412      -0.0553588079097    -0.00144505456999   -0.0270227037778    
6500000000.0        -0.00149318319772   -0.0274473354957    0.997903687685      -0.0562304483954    0.997903687685      -0.0562304483954    -0.00149318319772   -0.0274473354957    
6600000000.0        -0.00154206741603   -0.027871985784     0.997841579023      -0.0571022765363    0.997841579023      -0.0571022765363    -0.00154206741603   -0.027871985784     
6700000000.0        -0.00159170753324   -0.0282966512076    0.997778508826      -0.0579742903943    0.997778508826      -0.0579742903943    -0.00159170753324   -0.0282966512076    
6800000000.0        -0.00164210384461   -0.0287213283033    0.997714476502      -0.0588464879951    0.997714476502      -0.0588464879951    -0.00164210384461   -0.0287213283033    
6900000000.0        -0.00169325663221   -0.0291460135812    0.997649481475      -0.0597188673293    0.997649481475      -0.0597188673293    -0.00169325663221   -0.0291460135812    
7000000000.0        -0.0017451661648    -0.029570703525     0.997583523177      -0.0605914263538    0.997583523177      -0.0605914263538    -0.0017451661648    -0.029570703525     
7100000000.0        -0.00179783269774   -0.0299953945937    0.997516601053      -0.0614641629932    0.997516601053      -0.0614641629932    -0.00179783269774   -0.0299953945937    
7200000000.0        -0.00185125647285   -0.0304200832226    0.997448714559      -0.0623370751409    0.997448714559      -0.0623370751409    -0.00185125647285   -0.0304200832226    
7300000000.0        -0.00190543771834   -0.0308447658238    0.997379863162      -0.0632101606598    0.997379863162      -0.0632101606598    -0.00190543771834   -0.0308447658238    
7400000000.0        -0.00196037664871   -0.0312694387878    0.997310046342      -0.0640834173844    0.997310046342      -0.0640834173844    -0.00196037664871   -0.0312694387878    
7500000000.0        -0.00201607346467   -0.0316940984839    0.997239263589      -0.0649568431211    0.997239263589      -0.0649568431211    -0.00201607346467   -0.0316940984839    
7600000000.0        -0.00207252835304   -0.0321187412613    0.997167514408      -0.0658304356495    0.997167514408      -0.0658304356495    -0.00207252835304   -0.0321187412613    
7700000000.0        -0.00212974148669   -0.03254336345      0.997094798312      -0.0667041927234    0.997094798312      -0.0667041927234    -0.00212974148669   -0.03254336345      
7800000000.0        -0.00218771302448   -0.0329679613617    0.997021114828      -0.067578112072     0.997021114828      -0.067578112072     -0.00218771302448   -0.0329679613617    
7900000000.0        -0.00224644311116   -0.0333925312903    0.996946463495      -0.0684521914005    0.996946463495      -0.0684521914005    -0.00224644311116   -0.0333925312903    
8000000000.0        -0.00230593187733   -0.033817069513     0.996870843864      -0.0693264283911    0.996870843864      -0.0693264283911    -0.00230593187733   -0.033817069513     
8100000000.0        -0.00236617943939   -0.0342415722909    0.996794255496      -0.0702008207043    0.996794255496      -0.0702008207043    -0.00236617943939   -0.0342415722909    
8200000000.0        -0.00242718589945   -0.0346660358699    0.996716697966      -0.071075365979     0.996716697966      -0.071075365979     -0.00242718589945   -0.0346660358699    
8300000000.0        -0.00248895134532   -0.0350904564811    0.996638170862      -0.0719500618342    0.996638170862      -0.0719500618342    -0.00248895134532   -0.0350904564811    
8400000000.0        -0.00255147585043   -0.0355148303418    0.996558673781      -0.0728249058691    0.996558673781      -0.0728249058691    -0.00255147585043   -0.0355148303418    
8500000000.0        -0.00261475947383   -0.0359391536562    0.996478206336      -0.0736998956642    0.996478206336      -0.0736998956642    -0.00261475947383   -0.0359391536562    
8600000000.0        -0.00267880226009   -0.0363634226155    0.996396768149      -0.0745750287821    0.996396768149      -0.0745750287821    -0.00267880226009   -0.0363634226155    
8700000000.0        -0.00274360423932   -0.0367876333993    0.996314358856      -0.0754503027681    0.996314358856      -0.0754503027681    -0.00274360423932   -0.0367876333993    
8800000000.0        -0.00280916542709   -0.0372117821756    0.996230978105      -0.0763257151511    0.996230978105      -0.0763257151511    -0.00280916542709   -0.0372117821756    
8900000000.0        -0.00287548582443   -0.0376358651018    0.996146625555      -0.0772012634438    0.996146625555      -0.0772012634438    -0.00287548582443   -0.0376358651018    
9000000000.0        -0.00294256541781   -0.038059878325     0.996061300879      -0.0780769451441    0.996061300879      -0.0780769451441    -0.00294256541781   -0.038059878325     
9100000000.0        -0.00301040417906   -0.0384838179826    0.99597500376       -0.078952757735     0.99597500376       -0.078952757735     -0.00301040417906   -0.0384838179826    
9200000000.0        -0.00307900206542   -0.038907680203     0.995887733897      -0.079828698686     0.995887733897      -0.079828698686     -0.00307900206542   -0.038907680203     
9300000000.0        -0.00314835901947   -0.0393314611059    0.995799490999      -0.0807047654529    0.995799490999      -0.0807047654529    -0.00314835901947   -0.0393314611059    
9400000000.0        -0.00321847496911   -0.0397551568031    0.995710274786      -0.0815809554789    0.995710274786      -0.0815809554789    -0.00321847496911   -0.0397551568031    
9500000000.0        -0.00328934982759   -0.0401787633985    0.995620084992      -0.0824572661951    0.995620084992      -0.0824572661951    -0.00328934982759   -0.0401787633985    
9600000000.0        -0.00336098349346   -0.0406022769893    0.995528921365      -0.083333695021     0.995528921365      -0.083333695021     -0.00336098349346   -0.0406022769893    
9700000000.0        -0.00343337585055   -0.0410256936657    0.995436783662      -0.0842102393649    0.995436783662      -0.0842102393649    -0.00343337585055   -0.0410256936657    
9800000000.0        -0.00350652676799   -0.0414490095118    0.995343671655      -0.0850868966247    0.995343671655      -0.0850868966247    -0.00350652676799   -0.0414490095118    
9900000000.0        -0.0035804361002    -0.0418722206061    0.995249585126      -0.0859636641881    0.995249585126      -0.0859636641881    -0.0035804361002    -0.0418722206061    
10000000000.0       -0.00365510368686   -0.0422953230215    0.995154523872      -0.0868405394334    0.995154523872      -0.0868405394334    -0.00365510368686   -0.0422953230215    
