# Hz S RI R 50.00 
100000000.0         0.045920852614      0.00161089912389    0.954077353522      -0.00225281412437   0.954077353522      -0.00225281412437   0.045920852614      0.00161089912389    
200000000.0         0.0462198776084     0.00321941671786    0.953777115908      -0.00450324716657   0.953777115908      -0.00450324716657   0.0462198776084     0.00321941671786    
300000000.0         0.0464477308187     0.00482646798094    0.953547631239      -0.00675221517645   0.953547631239      -0.00675221517645   0.0464477308187     0.00482646798094    
400000000.0         0.0466427651713     0.00643234473648    0.953350546529      -0.00900001074254   0.953350546529      -0.00900001074254   0.0466427651713     0.00643234473648    
500000000.0         0.0468197947831     0.00803719363888    0.953171047611      -0.0112467812419    0.953171047611      -0.0112467812419    0.0468197947831     0.00803719363888    
600000000.0         0.046986395569      0.00964109699269    0.953001558522      -0.0134926096744    0.953001558522      -0.0134926096744    0.046986395569      0.00964109699269    
700000000.0         0.0471470544876     0.0112441017893     0.952837592262      -0.0157375437068    0.952837592262      -0.0157375437068    0.0471470544876     0.0112441017893     
800000000.0         0.0473046857136     0.0128462331772     0.952676234613      -0.0179816091476    0.952676234613      -0.0179816091476    0.0473046857136     0.0128462331772     
900000000.0         0.0474613065014     0.0144475016975     0.95251546828       -0.0202248171862    0.95251546828       -0.0202248171862    0.0474613065014     0.0144475016975     
1000000000.0        0.047618380155      0.0160479075688     0.952353829917      -0.0224671686786    0.952353829917      -0.0224671686786    0.047618380155      0.0160479075688     
1100000000.0        0.0477770068944     0.0176474434077     0.952190219261      -0.0247086568706    0.952190219261      -0.0247086568706    0.0477770068944     0.0176474434077     
1200000000.0        0.0479380377133     0.0192460960514     0.952023785278      -0.0269492692214    0.952023785278      -0.0269492692214    0.0479380377133     0.0192460960514     
1300000000.0        0.0481021460916     0.0208438478305     0.951853854443      -0.0291889886767    0.951853854443      -0.0291889886767    0.0481021460916     0.0208438478305     
1400000000.0        0.0482698751831     0.0224406774885     0.951679883558      -0.0314277945891    0.951679883558      -0.0314277945891    0.0482698751831     0.0224406774885     
1500000000.0        0.0484416700049     0.024036560864      0.951501427561      -0.0336656634019    0.951501427561      -0.0336656634019    0.0484416700049     0.024036560864      
1600000000.0        0.0486179000701     0.0256314714109     0.951318116892      -0.0359025691682    0.951318116892      -0.0359025691682    0.0486179000701     0.0256314714109     
1700000000.0        0.0487988757147     0.0272253806009     0.951129641166      -0.0381384839551    0.951129641166      -0.0381384839551    0.0487988757147     0.0272253806009     
1800000000.0        0.0489848601411     0.028818258242      0.950935737133      -0.040373378162     0.950935737133      -0.040373378162     0.0489848601411     0.028818258242      
1900000000.0        0.0491760784745     0.0304100727338     0.950736179614      -0.0426072207762    0.950736179614      -0.0426072207762    0.0491760784745     0.0304100727338     
2000000000.0        0.0493727246894     0.0320007912748     0.950530774583      -0.0448399795806    0.950530774583      -0.0448399795806    0.0493727246894     0.0320007912748     
2100000000.0        0.0495749669886     0.0335903800329     0.950319353783      -0.0470716213246    0.950319353783      -0.0470716213246    0.0495749669886     0.0335903800329     
2200000000.0        0.0497829520358     0.0351788042878     0.950101770495      -0.0493021118661    0.950101770495      -0.0493021118661    0.0497829520358     0.0351788042878     
2300000000.0        0.0499968083273     0.0367660285496     0.949877896164      -0.051531416291     0.949877896164      -0.051531416291     0.0499968083273     0.0367660285496     
2400000000.0        0.0502166489072     0.0383520166601     0.949647617686      -0.0537594990143    0.949647617686      -0.0537594990143    0.0502166489072     0.0383520166601     
2500000000.0        0.0504425735751     0.0399367318792     0.949410835202      -0.0559863238666    0.949410835202      -0.0559863238666    0.0504425735751     0.0399367318792     
2600000000.0        0.0506746706988     0.041520136959      0.94916746028       -0.0582118541684    0.94916746028       -0.0582118541684    0.0506746706988     0.041520136959      
2700000000.0        0.0509130187133     0.043102194208      0.948917414421      -0.0604360527947    0.948917414421      -0.0604360527947    0.0509130187133     0.043102194208      
2800000000.0        0.0511576873714     0.0446828655477     0.948660627806      -0.0626588822311    0.948660627806      -0.0626588822311    0.0511576873714     0.0446828655477     
2900000000.0        0.0514087387935     0.0462621125616     0.948397038245      -0.0648803046235    0.948397038245      -0.0648803046235    0.0514087387935     0.0462621125616     
3000000000.0        0.0516662283546     0.047839896539      0.948126590295      -0.0671002818216    0.948126590295      -0.0671002818216    0.0516662283546     0.047839896539      
3100000000.0        0.0519302054389     0.0494161785134     0.947849234498      -0.0693187754175    0.947849234498      -0.0693187754175    0.0519302054389     0.0494161785134     
3200000000.0        0.052200714085      0.0509909192971     0.947564926743      -0.0715357467807    0.947564926743      -0.0715357467807    0.052200714085      0.0509909192971     
3300000000.0        0.0524777935402     0.0525640795121     0.947273627706      -0.0737511570884    0.947273627706      -0.0737511570884    0.0524777935402     0.0525640795121     
3400000000.0        0.0527614787395     0.0541356196181     0.946975302376      -0.075964967354     0.946975302376      -0.075964967354     0.0527614787395     0.0541356196181     
3500000000.0        0.0530518007214     0.0557054999372     0.946669919634      -0.078177138452     0.946669919634      -0.078177138452     0.0530518007214     0.0557054999372     
3600000000.0        0.05334878699       0.0572736806773     0.946357451894      -0.0803876311411    0.946357451894      -0.0803876311411    0.05334878699       0.0572736806773     
3700000000.0        0.0536524618325     0.0588401219526     0.946037874788      -0.0825964060849    0.946037874788      -0.0825964060849    0.0536524618325     0.0588401219526     
3800000000.0        0.0539628465971     0.0604047838027     0.945711166881      -0.0848034238711    0.945711166881      -0.0848034238711    0.0539628465971     0.0604047838027     
3900000000.0        0.0542799599395     0.06196762621       0.94537730943       -0.087008645029     0.94537730943       -0.087008645029     0.0542799599395     0.06196762621       
4000000000.0        0.0546038180397     0.0635286091163     0.945036286168      -0.0892120300456    0.945036286168      -0.0892120300456    0.0546038180397     0.0635286091163     
4100000000.0        0.0549344347952     0.0650876924368     0.944688083106      -0.0914135393808    0.944688083106      -0.0914135393808    0.0549344347952     0.0650876924368     
4200000000.0        0.055271821993      0.0666448360749     0.944332688363      -0.0936131334809    0.944332688363      -0.0936131334809    0.055271821993      0.0666448360749     
4300000000.0        0.0556159894631     0.0681999999343     0.943970092017      -0.0958107727917    0.943970092017      -0.0958107727917    0.0556159894631     0.0681999999343     
4400000000.0        0.0559669452164     0.0697531439312     0.943600285958      -0.0980064177702    0.943600285958      -0.0980064177702    0.0559669452164     0.0697531439312     
4500000000.0        0.0563246955678     0.0713042280056     0.943223263775      -0.100200028896     0.943223263775      -0.100200028896     0.0563246955678     0.0713042280056     
4600000000.0        0.0566892452481     0.0728532121316     0.942839020636      -0.102391566683     0.942839020636      -0.102391566683     0.0566892452481     0.0728532121316     
4700000000.0        0.0570605975043     0.0744000563274     0.942447553191      -0.104580991685     0.942447553191      -0.104580991685     0.0570605975043     0.0744000563274     
4800000000.0        0.0574387541908     0.0759447206643     0.942048859482      -0.106768264513     0.942048859482      -0.106768264513     0.0574387541908     0.0759447206643     
4900000000.0        0.057823715852      0.0774871652758     0.941642938859      -0.108953345834     0.941642938859      -0.108953345834     0.057823715852      0.0774871652758     
5000000000.0        0.0582154817978     0.0790273503657     0.941229791904      -0.111136196387     0.941229791904      -0.111136196387     0.0582154817978     0.0790273503657     
5100000000.0        0.0586140501715     0.0805652362158     0.940809420363      -0.113316776988     0.940809420363      -0.113316776988     0.0586140501715     0.0805652362158     
5200000000.0        0.0590194180131     0.0821007831935     0.940381827085      -0.115495048539     0.940381827085      -0.115495048539     0.0590194180131     0.0821007831935     
5300000000.0        0.0594315813163     0.0836339517591     0.939947015961      -0.11767097203      0.939947015961      -0.11767097203      0.0594315813163     0.0836339517591     
5400000000.0        0.0598505350812     0.0851647024721     0.939504991877      -0.119844508553     0.939504991877      -0.119844508553     0.0598505350812     0.0851647024721     
5500000000.0        0.0602762733627     0.0866929959976     0.93905576066       -0.122015619304     0.93905576066       -0.122015619304     0.0602762733627     0.0866929959976     
5600000000.0        0.0607087893148     0.0882187931132     0.938599329035      -0.124184265589     0.938599329035      -0.124184265589     0.0607087893148     0.0882187931132     
5700000000.0        0.0611480752322     0.089742054714      0.938135704587      -0.126350408833     0.938135704587      -0.126350408833     0.0611480752322     0.089742054714      
5800000000.0        0.061594122588      0.0912627418186     0.937664895719      -0.128514010583     0.937664895719      -0.128514010583     0.061594122588      0.0912627418186     
5900000000.0        0.0620469220686     0.0927808155748     0.937186911619      -0.130675032514     0.937186911619      -0.130675032514     0.0620469220686     0.0927808155748     
6000000000.0        0.0625064636072     0.0942962372642     0.936701762227      -0.132833436433     0.936701762227      -0.132833436433     0.0625064636072     0.0942962372642     
6100000000.0        0.0629727364133     0.0958089683078     0.936209458203      -0.134989184289     0.936209458203      -0.134989184289     0.0629727364133     0.0958089683078     
6200000000.0        0.0634457290015     0.0973189702704     0.935710010902      -0.13714223817      0.935710010902      -0.13714223817      0.0634457290015     0.0973189702704     
6300000000.0        0.0639254292177     0.0988262048655     0.935203432345      -0.139292560315     0.935203432345      -0.139292560315     0.0639254292177     0.0988262048655     
6400000000.0        0.0644118242637     0.10033063396       0.934689735194      -0.141440113115     0.934689735194      -0.141440113115     0.0644118242637     0.10033063396       
6500000000.0        0.0649049007203     0.101832219577      0.934168932732      -0.143584859115     0.934168932732      -0.143584859115     0.0649049007203     0.101832219577      
6600000000.0        0.0654046445691     0.103330923902      0.933641038838      -0.145726761025     0.933641038838      -0.145726761025     0.0654046445691     0.103330923902      
6700000000.0        0.0659110412124     0.104826709287      0.933106067968      -0.147865781717     0.933106067968      -0.147865781717     0.0659110412124     0.104826709287      
6800000000.0        0.0664240754926     0.106319538253      0.932564035138      -0.150001884234     0.932564035138      -0.150001884234     0.0664240754926     0.106319538253      
6900000000.0        0.06694373171       0.107809373494      0.932014955902      -0.15213503179      0.932014955902      -0.15213503179      0.06694373171       0.107809373494      
7000000000.0        0.0674699936398     0.109296177881      0.931458846338      -0.154265187776     0.931458846338      -0.154265187776     0.0674699936398     0.109296177881      
7100000000.0        0.0680028445481     0.110779914466      0.93089572303       -0.156392315764     0.93089572303       -0.156392315764     0.0680028445481     0.110779914466      
7200000000.0        0.068542267207      0.112260546484      0.930325603057      -0.158516379508     0.930325603057      -0.158516379508     0.068542267207      0.112260546484      
7300000000.0        0.0690882439093     0.113738037361      0.929748503972      -0.160637342951     0.929748503972      -0.160637342951     0.0690882439093     0.113738037361      
7400000000.0        0.0696407564813     0.115212350709      0.929164443795      -0.162755170224     0.929164443795      -0.162755170224     0.0696407564813     0.115212350709      
7500000000.0        0.0701997862968     0.116683450337      0.928573440995      -0.164869825652     0.928573440995      -0.164869825652     0.0701997862968     0.116683450337      
7600000000.0        0.0707653142885     0.118151300251      0.927975514481      -0.166981273757     0.927975514481      -0.166981273757     0.0707653142885     0.118151300251      
7700000000.0        0.0713373209601     0.119615864655      0.927370683588      -0.169089479261     0.927370683588      -0.169089479261     0.0713373209601     0.119615864655      
7800000000.0        0.0719157863978     0.121077107958      0.926758968069      -0.171194407086     0.926758968069      -0.171194407086     0.0719157863978     0.121077107958      
7900000000.0        0.0725006902803     0.122534994773      0.926140388079      -0.173296022362     0.926140388079      -0.173296022362     0.0725006902803     0.122534994773      
8000000000.0        0.0730920118897     0.123989489924      0.92551496417       -0.175394290425     0.92551496417       -0.175394290425     0.0730920118897     0.123989489924      
8100000000.0        0.073689730121      0.125440558443      0.924882717279      -0.177489176824     0.924882717279      -0.177489176824     0.073689730121      0.125440558443      
8200000000.0        0.0742938234913     0.126888165579      0.924243668719      -0.179580647318     0.924243668719      -0.179580647318     0.0742938234913     0.126888165579      
8300000000.0        0.0749042701494     0.128332276795      0.923597840168      -0.181668667886     0.923597840168      -0.181668667886     0.0749042701494     0.128332276795      
8400000000.0        0.075521047884      0.129772857776      0.922945253663      -0.183753204722     0.922945253663      -0.183753204722     0.075521047884      0.129772857776      
8500000000.0        0.0761441341322     0.131209874423      0.922285931592      -0.185834224243     0.922285931592      -0.185834224243     0.0761441341322     0.131209874423      
8600000000.0        0.0767735059877     0.132643292867      0.921619896682      -0.187911693088     0.921619896682      -0.187911693088     0.0767735059877     0.132643292867      
8700000000.0        0.0774091402085     0.134073079461      0.920947171996      -0.189985578121     0.920947171996      -0.189985578121     0.0774091402085     0.134073079461      
8800000000.0        0.0780510132243     0.135499200786      0.920267780921      -0.192055846436     0.920267780921      -0.192055846436     0.0780510132243     0.135499200786      
8900000000.0        0.078699101144      0.136921623655      0.919581747164      -0.194122465354     0.919581747164      -0.194122465354     0.078699101144      0.136921623655      
9000000000.0        0.0793533797626     0.138340315114      0.918889094746      -0.19618540243      0.918889094746      -0.19618540243      0.0793533797626     0.138340315114      
9100000000.0        0.0800138245682     0.139755242441      0.918189847989      -0.198244625454     0.918189847989      -0.198244625454     0.0800138245682     0.139755242441      
9200000000.0        0.0806804107483     0.141166373153      0.917484031516      -0.200300102449     0.917484031516      -0.200300102449     0.0806804107483     0.141166373153      
9300000000.0        0.0813531131968     0.142573675004      0.916771670242      -0.202351801678     0.916771670242      -0.202351801678     0.0813531131968     0.142573675004      
9400000000.0        0.0820319065197     0.14397711599       0.916052789367      -0.204399691645     0.916052789367      -0.204399691645     0.0820319065197     0.14397711599       
9500000000.0        0.0827167650414     0.145376664347      0.91532741437       -0.206443741093     0.91532741437       -0.206443741093     0.0827167650414     0.145376664347      
9600000000.0        0.0834076628111     0.146772288556      0.914595571005      -0.20848391901      0.914595571005      -0.20848391901      0.0834076628111     0.146772288556      
9700000000.0        0.0841045736076     0.148163957345      0.913857285294      -0.210520194631     0.913857285294      -0.210520194631     0.0841045736076     0.148163957345      
9800000000.0        0.0848074709462     0.149551639687      0.913112583518      -0.212552537435     0.913112583518      -0.212552537435     0.0848074709462     0.149551639687      
9900000000.0        0.085516328083      0.150935304806      0.91236149222       -0.214580917153     0.91236149222       -0.214580917153     0.085516328083      0.150935304806      
10000000000.0       0.0862311180214     0.152314922177      0.911604038189      -0.216605303762     0.911604038189      -0.216605303762     0.0862311180214     0.152314922177      
