# Hz S RI R 50.00 
100000000.0         0.00487653146917    0.00121555820091    0.995117092074      -0.00367858627413   0.995117092074      -0.00367858627413   0.00487653146917    0.00121555820091    
200000000.0         0.00492120888972    0.00243073327687    0.995060961446      -0.00735680138836   0.995060961446      -0.00735680138836   0.00492120888972    0.00243073327687    
300000000.0         0.00496631460005    0.00364558158104    0.994998325274      -0.0110347100927    0.994998325274      -0.0110347100927    0.00496631460005    0.00364558158104    
400000000.0         0.00501606160722    0.0048600766008     0.99492496993       -0.0147122906116    0.99492496993       -0.0147122906116    0.00501606160722    0.0048600766008     
500000000.0         0.00507207089996    0.00607417271836    0.994839273687      -0.0183895002155    0.994839273687      -0.0183895002155    0.00507207089996    0.00607417271836    
600000000.0         0.00513516752668    0.00728781593937    0.994740410647      -0.0220662865851    0.994740410647      -0.0220662865851    0.00513516752668    0.00728781593937    
700000000.0         0.00520583715868    0.00850094773515    0.994627894184      -0.0257425919786    0.994627894184      -0.0257425919786    0.00520583715868    0.00850094773515    
800000000.0         0.00528439271036    0.00971350682031    0.994501410332      -0.0294183552033    0.994501410332      -0.0294183552033    0.00528439271036    0.00971350682031    
900000000.0         0.00537104852105    0.0109254301059     0.994360743602      -0.0330935126965    0.994360743602      -0.0330935126965    0.00537104852105    0.0109254301059     
1000000000.0        0.00546595795256    0.0121366532628     0.99420573939       -0.0367679991793    0.99420573939       -0.0367679991793    0.00546595795256    0.0121366532628     
1100000000.0        0.00556923428709    0.01334711108       0.994036283085      -0.0404417480808    0.994036283085      -0.0404417480808    0.00556923428709    0.01334711108       
1200000000.0        0.00568096317822    0.0145567377045     0.993852287619      -0.0441146918286    0.993852287619      -0.0441146918286    0.00568096317822    0.0145567377045     
1300000000.0        0.00580121048369    0.0157654668095     0.993653685636      -0.0477867620574    0.993653685636      -0.0477867620574    0.00580121048369    0.0157654668095     
1400000000.0        0.00593002741318    0.0169732317162     0.993440424348      -0.0514578897621    0.993440424348      -0.0514578897621    0.00593002741318    0.0169732317162     
1500000000.0        0.00606745403591    0.0181799654859     0.993212462029      -0.0551280054162    0.993212462029      -0.0551280054162    0.00606745403591    0.0181799654859     
1600000000.0        0.00621352174395    0.0193856009893     0.992969765556      -0.0587970390635    0.992969765556      -0.0587970390635    0.00621352174395    0.0193856009893     
1700000000.0        0.00636825502731    0.020590070962      0.992712308631      -0.0624649203913    0.992712308631      -0.0624649203913    0.00636825502731    0.020590070962      
1800000000.0        0.00653167278188    0.0217933080488     0.992440070479      -0.0661315787909    0.992440070479      -0.0661315787909    0.00653167278188    0.0217933080488     
1900000000.0        0.00670378929207    0.0229952448398     0.992153034865      -0.0697969434068    0.992153034865      -0.0697969434068    0.00670378929207    0.0229952448398     
2000000000.0        0.00688461498165    0.0241958139        0.991851189347      -0.0734609431789    0.991851189347      -0.0734609431789    0.00688461498165    0.0241958139        
2100000000.0        0.00707415699633    0.0253949477951     0.991534524691      -0.0771235068776    0.991534524691      -0.0771235068776    0.00707415699633    0.0253949477951     
2200000000.0        0.00727241966198    0.0265925791131     0.991203034418      -0.0807845631353    0.991203034418      -0.0807845631353    0.00727241966198    0.0265925791131     
2300000000.0        0.00747940484936    0.0277886404826     0.990856714438      -0.0844440404726    0.990856714438      -0.0844440404726    0.00747940484936    0.0277886404826     
2400000000.0        0.00769511226777    0.0289830645899     0.990495562758      -0.0881018673228    0.990495562758      -0.0881018673228    0.00769511226777    0.0289830645899     
2500000000.0        0.00791953970389    0.0301757841933     0.990119579247      -0.0917579720522    0.990119579247      -0.0917579720522    0.00791953970389    0.0301757841933     
2600000000.0        0.00815268321774    0.0313667321363     0.989728765435      -0.0954122829797    0.989728765435      -0.0954122829797    0.00815268321774    0.0313667321363     
2700000000.0        0.008394537305      0.0325558413594     0.98932312436       -0.099064728394     0.98932312436       -0.099064728394     0.008394537305      0.0325558413594     
2800000000.0        0.00864509503238    0.0337430449113     0.988902660427      -0.102715236569     0.988902660427      -0.102715236569     0.00864509503238    0.0337430449113     
2900000000.0        0.00890434815147    0.0349282759582     0.988467379297      -0.106363735779     0.988467379297      -0.106363735779     0.00890434815147    0.0349282759582     
3000000000.0        0.00917228719515    0.0361114677938     0.988017287794      -0.11001015431      0.988017287794      -0.11001015431      0.00917228719515    0.0361114677938     
3100000000.0        0.00944890155967    0.0372925538478     0.987552393818      -0.113654420475     0.987552393818      -0.113654420475     0.00944890155967    0.0372925538478     
3200000000.0        0.00973417957509    0.0384714676935     0.987072706284      -0.117296462623     0.987072706284      -0.117296462623     0.00973417957509    0.0384714676935     
3300000000.0        0.010028108566      0.0396481430565     0.986578235053      -0.120936209152     0.986578235053      -0.120936209152     0.010028108566      0.0396481430565     
3400000000.0        0.0103306749044     0.0408225138209     0.986068990887      -0.124573588518     0.986068990887      -0.124573588518     0.0103306749044     0.0408225138209     
3500000000.0        0.010641864055      0.0419945140372     0.9855449854        -0.128208529245     0.9855449854        -0.128208529245     0.010641864055      0.0419945140372     
3600000000.0        0.0109616606166     0.0431640779285     0.98500623102       -0.131840959934     0.98500623102       -0.131840959934     0.0109616606166     0.0431640779285     
3700000000.0        0.0112900483563     0.0443311398971     0.984452740953      -0.135470809271     0.984452740953      -0.135470809271     0.0112900483563     0.0443311398971     
3800000000.0        0.011627010242      0.0454956345305     0.983884529154      -0.139098006038     0.983884529154      -0.139098006038     0.011627010242      0.0454956345305     
3900000000.0        0.0119725284696     0.0466574966076     0.9833016103        -0.142722479118     0.9833016103        -0.142722479118     0.0119725284696     0.0466574966076     
4000000000.0        0.0123265844885     0.0478166611046     0.982703999761      -0.146344157506     0.982703999761      -0.146344157506     0.0123265844885     0.0478166611046     
4100000000.0        0.0126891590237     0.0489730632004     0.982091713586      -0.149962970313     0.982091713586      -0.149962970313     0.0126891590237     0.0489730632004     
4200000000.0        0.013060232096      0.0501266382823     0.981464768475      -0.153578846775     0.981464768475      -0.153578846775     0.013060232096      0.0501266382823     
4300000000.0        0.0134397830407     0.0512773219511     0.980823181768      -0.15719171626      0.980823181768      -0.15719171626      0.0134397830407     0.0512773219511     
4400000000.0        0.0138277905237     0.0524250500267     0.980166971426      -0.160801508276     0.980166971426      -0.160801508276     0.0138277905237     0.0524250500267     
4500000000.0        0.0142242325574     0.0535697585532     0.979496156015      -0.164408152473     0.979496156015      -0.164408152473     0.0142242325574     0.0535697585532     
4600000000.0        0.014629086514      0.0547113838037     0.978810754695      -0.168011578655     0.978810754695      -0.168011578655     0.014629086514      0.0547113838037     
4700000000.0        0.0150423291387     0.0558498622853     0.978110787209      -0.171611716783     0.978110787209      -0.171611716783     0.0150423291387     0.0558498622853     
4800000000.0        0.0154639365619     0.0569851307441     0.977396273865      -0.175208496981     0.977396273865      -0.175208496981     0.0154639365619     0.0569851307441     
4900000000.0        0.0158938843096     0.0581171261699     0.976667235534      -0.178801849543     0.976667235534      -0.178801849543     0.0158938843096     0.0581171261699     
5000000000.0        0.0163321473141     0.0592457858009     0.975923693633      -0.182391704939     0.975923693633      -0.182391704939     0.0163321473141     0.0592457858009     
5100000000.0        0.0167786999236     0.0603710471283     0.975165670121      -0.185977993819     0.975165670121      -0.185977993819     0.0167786999236     0.0603710471283     
5200000000.0        0.0172335159115     0.0614928479006     0.974393187487      -0.18956064702      0.974393187487      -0.18956064702      0.0172335159115     0.0614928479006     
5300000000.0        0.0176965684844     0.0626111261285     0.973606268743      -0.193139595569     0.973606268743      -0.193139595569     0.0176965684844     0.0626111261285     
5400000000.0        0.0181678302906     0.0637258200893     0.972804937418      -0.196714770693     0.972804937418      -0.196714770693     0.0181678302906     0.0637258200893     
5500000000.0        0.0186472734277     0.0648368683306     0.971989217546      -0.200286103819     0.971989217546      -0.200286103819     0.0186472734277     0.0648368683306     
5600000000.0        0.0191348694499     0.0659442096755     0.971159133667      -0.203853526581     0.971159133667      -0.203853526581     0.0191348694499     0.0659442096755     
5700000000.0        0.0196305893749     0.0670477832262     0.970314710812      -0.207416970828     0.970314710812      -0.207416970828     0.0196305893749     0.0670477832262     
5800000000.0        0.0201344036908     0.0681475283682     0.969455974502      -0.210976368622     0.969455974502      -0.210976368622     0.0201344036908     0.0681475283682     
5900000000.0        0.0206462823622     0.0692433847748     0.968582950739      -0.21453165225      0.968582950739      -0.21453165225      0.0206462823622     0.0692433847748     
6000000000.0        0.0211661948371     0.0703352924109     0.967695666004      -0.218082754225     0.967695666004      -0.218082754225     0.0211661948371     0.0703352924109     
6100000000.0        0.021694110052      0.071423191537      0.966794147247      -0.221629607288     0.966794147247      -0.221629607288     0.021694110052      0.071423191537      
6200000000.0        0.0222299964384     0.0725070227132     0.965878421885      -0.225172144421     0.965878421885      -0.225172144421     0.0222299964384     0.0725070227132     
6300000000.0        0.0227738219283     0.0735867268031     0.964948517792      -0.22871029884      0.964948517792      -0.22871029884      0.0227738219283     0.0735867268031     
6400000000.0        0.0233255539596     0.0746622449777     0.964004463301      -0.232244004011     0.964004463301      -0.232244004011     0.0233255539596     0.0746622449777     
6500000000.0        0.0238851594816     0.0757335187192     0.963046287191      -0.235773193644     0.963046287191      -0.235773193644     0.0238851594816     0.0757335187193     
6600000000.0        0.0244526049601     0.0768004898249     0.96207401869       -0.239297801706     0.96207401869       -0.239297801706     0.0244526049601     0.0768004898249     
6700000000.0        0.025027856383      0.0778631004103     0.961087687464      -0.242817762417     0.961087687464      -0.242817762417     0.025027856383      0.0778631004103     
6800000000.0        0.0256108792646     0.0789212929138     0.960087323613      -0.24633301026      0.960087323613      -0.24633301026      0.0256108792646     0.0789212929138     
6900000000.0        0.0262016386515     0.0799750100992     0.959072957671      -0.249843479984     0.959072957671      -0.249843479984     0.0262016386515     0.0799750100992     
7000000000.0        0.0268000991266     0.0810241950602     0.958044620596      -0.253349106606     0.958044620596      -0.253349106606     0.0268000991266     0.0810241950602     
7100000000.0        0.0274062248148     0.0820687912234     0.957002343768      -0.256849825416     0.957002343768      -0.256849825416     0.0274062248148     0.0820687912234     
7200000000.0        0.0280199793872     0.0831087423518     0.955946158985      -0.260345571979     0.955946158985      -0.260345571979     0.0280199793872     0.0831087423518     
7300000000.0        0.0286413260658     0.0841439925484     0.954876098456      -0.263836282143     0.954876098456      -0.263836282143     0.0286413260658     0.0841439925484     
7400000000.0        0.0292702276286     0.0851744862595     0.9537921948        -0.267321892039     0.9537921948        -0.267321892039     0.0292702276286     0.0851744862595     
7500000000.0        0.0299066464139     0.0862001682781     0.952694481039      -0.270802338086     0.952694481039      -0.270802338086     0.0299066464139     0.0862001682781     
7600000000.0        0.0305505443251     0.0872209837471     0.951582990595      -0.274277556992     0.951582990595      -0.274277556992     0.0305505443251     0.0872209837471     
7700000000.0        0.031201882835      0.0882368781624     0.950457757286      -0.277747485763     0.950457757286      -0.277747485763     0.031201882835      0.0882368781624     
7800000000.0        0.0318606229907     0.0892477973764     0.94931881532       -0.2812120617       0.94931881532       -0.2812120617       0.0318606229907     0.0892477973764     
7900000000.0        0.0325267254176     0.0902536876011     0.948166199293      -0.284671222408     0.948166199293      -0.284671222408     0.0325267254176     0.0902536876011     
8000000000.0        0.0332001503246     0.091254495411      0.946999944182      -0.288124905796     0.946999944182      -0.288124905796     0.0332001503246     0.091254495411      
8100000000.0        0.0338808575077     0.0922501677461     0.945820085345      -0.291573050079     0.945820085345      -0.291573050079     0.0338808575077     0.0922501677461     
8200000000.0        0.0345688063552     0.0932406519154     0.944626658511      -0.295015593785     0.944626658511      -0.295015593785     0.0345688063552     0.0932406519154     
8300000000.0        0.0352639558518     0.0942258955992     0.943419699782      -0.298452475757     0.943419699782      -0.298452475757     0.0352639558518     0.0942258955992     
8400000000.0        0.0359662645828     0.0952058468527     0.942199245625      -0.301883635154     0.942199245625      -0.301883635154     0.0359662645828     0.0952058468527     
8500000000.0        0.0366756907392     0.0961804541081     0.940965332867      -0.305309011454     0.940965332867      -0.305309011454     0.0366756907392     0.0961804541081     
8600000000.0        0.0373921921212     0.0971496661782     0.939717998695      -0.308728544462     0.939717998695      -0.308728544462     0.0373921921212     0.0971496661782     
8700000000.0        0.0381157261433     0.0981134322586     0.938457280649      -0.312142174305     0.938457280649      -0.312142174305     0.0381157261433     0.0981134322586     
8800000000.0        0.0388462498384     0.0990717019306     0.937183216617      -0.315549841442     0.937183216617      -0.315549841442     0.0388462498384     0.0990717019306     
8900000000.0        0.0395837198621     0.100024425164      0.935895844832      -0.318951486662     0.935895844832      -0.318951486662     0.0395837198621     0.100024425164      
9000000000.0        0.0403280924971     0.10097155232       0.934595203871      -0.32234705109      0.934595203871      -0.32234705109      0.0403280924971     0.10097155232       
9100000000.0        0.041079323658      0.101913034153      0.933281332644      -0.325736476186     0.933281332644      -0.325736476186     0.041079323658      0.101913034153      
9200000000.0        0.0418373688948     0.102848821813      0.931954270396      -0.329119703752     0.931954270396      -0.329119703752     0.0418373688948     0.102848821813      
9300000000.0        0.0426021833981     0.103778866849      0.9306140567        -0.33249667593      0.9306140567        -0.33249667593      0.0426021833981     0.103778866849      
9400000000.0        0.0433737220031     0.104703121214      0.929260731454      -0.335867335209     0.929260731454      -0.335867335209     0.0433737220031     0.104703121214      
9500000000.0        0.0441519391939     0.105621537259      0.927894334874      -0.339231624424     0.927894334874      -0.339231624424     0.0441519391939     0.105621537259      
9600000000.0        0.0449367891079     0.106534067745      0.926514907495      -0.342589486759     0.926514907495      -0.342589486759     0.0449367891079     0.106534067745      
9700000000.0        0.0457282255402     0.107440665841      0.925122490163      -0.345940865751     0.925122490163      -0.345940865751     0.0457282255402     0.107440665841      
9800000000.0        0.0465262019482     0.108341285124      0.923717124031      -0.34928570529      0.923717124031      -0.34928570529      0.0465262019482     0.108341285124      
9900000000.0        0.0473306714552     0.109235879586      0.922298850555      -0.352623949625     0.922298850555      -0.352623949625     0.0473306714552     0.109235879586      
10000000000.0       0.0481415868559     0.110124403632      0.920867711494      -0.355955543359     0.920867711494      -0.355955543359     0.0481415868559     0.110124403632      
