# Hz S RI R 50.00 
100000000.0         -0.00246827992727   -0.0491903136459    0.997493706763      -0.0494309775622    0.997493706763      -0.0494309775622    -0.00246827992727   -0.0491903136459    
200000000.0         -0.00975634978372   -0.0976471982041    0.990205290271      -0.0981286642487    0.990205290271      -0.0981286642487    -0.00975634978372   -0.0976471982041    
300000000.0         -0.0216333704252    -0.14468694387      0.978327929973      -0.145409419889     0.978327929973      -0.145409419889     -0.0216333704252    -0.14468694387      
400000000.0         -0.0377647617207    -0.189693690929     0.962196173135      -0.19065743618      0.962196173135      -0.19065743618      -0.0377647617207    -0.189693690929     
500000000.0         -0.0577168801423    -0.232143394418     0.942243650533      -0.233348709493     0.942243650533      -0.233348709493     -0.0577168801423    -0.232143394418     
600000000.0         -0.0809846727233    -0.271619853978     0.918975408512      -0.273067073664     0.918975408512      -0.273067073664     -0.0809846727233    -0.271619853978     
700000000.0         -0.107021007751     -0.307822006156     0.892938574759      -0.309511493859     0.892938574759      -0.309511493859     -0.107021007751     -0.307822006156     
800000000.0         -0.13526485739      -0.340562984496     0.86469417439       -0.342495127659     0.86469417439       -0.342495127659     -0.13526485739      -0.340562984496     
900000000.0         -0.165166104838     -0.369762335396     0.834792322225      -0.371937541625     0.834792322225      -0.371937541625     -0.165166104838     -0.369762335396     
1000000000.0        -0.196205545358     -0.395433271419     0.803752221471      -0.397851965139     0.803752221471      -0.397851965139     -0.196205545358     -0.395433271419     
1100000000.0        -0.22790946398      -0.417666966693     0.772047585858      -0.420329586239     0.772047585858      -0.420329586239     -0.22790946398      -0.417666966693     
1200000000.0        -0.259858865631     -0.436615729456     0.740097409419      -0.439522724519     0.740097409419      -0.439522724519     -0.259858865631     -0.436615729456     
1300000000.0        -0.291693931616     -0.452476533648     0.708261509952      -0.455628363027     0.708261509952      -0.455628363027     -0.291693931616     -0.452476533648     
1400000000.0        -0.323114564217     -0.465475962873     0.67683998438       -0.468873092491     0.67683998438       -0.468873092491     -0.323114564217     -0.465475962873     
1500000000.0        -0.353877984817     -0.475857200792     0.646075610604      -0.479500101948     0.646075610604      -0.479500101948     -0.353877984817     -0.475857200792     
1600000000.0        -0.383794317796     -0.483869345695     0.616158263588      -0.487758493518     0.616158263588      -0.487758493518     -0.383794317796     -0.483869345695     
1700000000.0        -0.412720974116     -0.489759057664     0.587230531765      -0.493894929763     0.587230531765      -0.493894929763     -0.412720974116     -0.489759057664     
1800000000.0        -0.440556489861     -0.493764366429     0.559393878483      -0.498147441696     0.559393878483      -0.498147441696     -0.440556489861     -0.493764366429     
1900000000.0        -0.467234309336     -0.496110365075     0.532714858903      -0.500741122648     0.532714858903      -0.500741122648     -0.467234309336     -0.496110365075     
2000000000.0        -0.492716850518     -0.497006471944     0.507231054543      -0.501885390307     0.507231054543      -0.501885390307     -0.492716850518     -0.497006471944     
2100000000.0        -0.516990063659     -0.496644942076     0.482956514669      -0.501772498269     0.482956514669      -0.501772498269     -0.516990063659     -0.496644942076     
2200000000.0        -0.54005859475      -0.495200334472     0.459886592828      -0.500577003424     0.459886592828      -0.500577003424     -0.54005859475      -0.495200334472     
2300000000.0        -0.56194159328      -0.492829680071     0.438002139088      -0.498455934025     0.438002139088      -0.498455934025     -0.56194159328      -0.492829680071     
2400000000.0        -0.582669154339     -0.489673138664     0.417273057936      -0.495549446698     0.417273057936      -0.495549446698     -0.582669154339     -0.489673138664     
2500000000.0        -0.602279354116     -0.485854975553     0.397661272771      -0.491981803171     0.397661272771      -0.491981803171     -0.602279354116     -0.485854975553     
2600000000.0        -0.620815820623     -0.481484727286     0.379123155181      -0.487862536095     0.379123155181      -0.487862536095     -0.620815820623     -0.481484727286     
2700000000.0        -0.638325774063     -0.476658458861     0.361611484582      -0.4832877063       0.361611484582      -0.4832877063       -0.638325774063     -0.476658458861     
2800000000.0        -0.654858470401     -0.471460041959     0.345077004632      -0.478341181097     0.345077004632      -0.478341181097     -0.654858470401     -0.471460041959     
2900000000.0        -0.670463985022     -0.465962405397     0.329469639584      -0.473095884774     0.329469639584      -0.473095884774     -0.670463985022     -0.465962405397     
3000000000.0        -0.685192278886     -0.460228725699     0.314739428123      -0.467614989218     0.314739428123      -0.467614989218     -0.685192278886     -0.460228725699     
3100000000.0        -0.699092496291     -0.454313538258     0.300837225608      -0.461953025121     0.300837225608      -0.461953025121     -0.699092496291     -0.454313538258     
3200000000.0        -0.712212450227     -0.448263758759     0.28771521871       -0.456156903429     0.28771521871       -0.456156903429     -0.712212450227     -0.448263758759     
3300000000.0        -0.724598257979     -0.442119611072     0.275327289815      -0.45026684328      0.275327289815      -0.45026684328      -0.724598257979     -0.442119611072     
3400000000.0        -0.736294095713     -0.435915462336     0.263629262435      -0.444317207106     0.263629262435      -0.444317207106     -0.736294095713     -0.435915462336     
3500000000.0        -0.747342046219     -0.429680568895     0.252579053462      -0.438337246596     0.252579053462      -0.438337246596     -0.747342046219     -0.429680568895     
3600000000.0        -0.757782018697     -0.42343973856      0.242136753386      -0.432351764984     0.242136753386      -0.432351764984     -0.757782018697     -0.42343973856      
3700000000.0        -0.767651723461     -0.417213915697     0.232264651589      -0.426381702152     0.232264651589      -0.426381702152     -0.767651723461     -0.417213915697     
3800000000.0        -0.776986687833     -0.411020696024     0.222927220448      -0.420444649442     0.222927220448      -0.420444649442     -0.776986687833     -0.411020696024     
3900000000.0        -0.785820302271     -0.404874778061     0.214091069208      -0.41455530112      0.214091069208      -0.41455530112      -0.785820302271     -0.404874778061     
4000000000.0        -0.79418388809      -0.398788357936     0.205724876263      -0.408725849197     0.205724876263      -0.408725849197     -0.79418388809      -0.398788357936     
4100000000.0        -0.802106779989     -0.39277147386      0.197799306625      -0.402966327911     0.197799306625      -0.402966327911     -0.802106779989     -0.39277147386      
4200000000.0        -0.809616418136     -0.386832306129     0.190286919842      -0.397284913734     0.190286919842      -0.397284913734     -0.809616418136     -0.386832306129     
4300000000.0        -0.816738445756     -0.380977437962     0.183162072406      -0.391688186224     0.183162072406      -0.391688186224     -0.816738445756     -0.380977437962     
4400000000.0        -0.82349680915      -0.375212082005     0.176400817736      -0.386181354525     0.176400817736      -0.386181354525     -0.82349680915      -0.375212082005     
4500000000.0        -0.829913857858     -0.369540276777     0.169980806013      -0.380768453826     0.169980806013      -0.380768453826     -0.829913857858     -0.369540276777     
4600000000.0        -0.836010443258     -0.363965056903     0.163881185586      -0.375452515592     0.163881185586      -0.375452515592     -0.836010443258     -0.363965056903     
4700000000.0        -0.84180601439      -0.358488600487     0.158082507138      -0.370235714938     0.158082507138      -0.370235714938     -0.84180601439      -0.358488600487     
4800000000.0        -0.847318710181     -0.353112356612     0.152566631471      -0.365119498131     0.152566631471      -0.365119498131     -0.847318710181     -0.353112356612     
4900000000.0        -0.852565447482     -0.347837155559     0.147316641461      -0.360104692812     0.147316641461      -0.360104692812     -0.852565447482     -0.347837155559     
5000000000.0        -0.857562004622     -0.342663304037     0.142316758508      -0.355191603225     0.142316758508      -0.355191603225     -0.857562004622     -0.342663304037     
5100000000.0        -0.862323100275     -0.337590667394     0.137552263666      -0.350380092424     0.137552263666      -0.350380092424     -0.862323100275     -0.337590667394     
5200000000.0        -0.866862467629     -0.332618740557     0.133009423478      -0.345669653215     0.133009423478      -0.345669653215     -0.866862467629     -0.332618740557     
5300000000.0        -0.871192923877     -0.327746709188     0.12867542048       -0.341059469309     0.12867542048       -0.341059469309     -0.871192923877     -0.327746709188     
5400000000.0        -0.875326435173     -0.32297350238      0.124538288245      -0.336548468017     0.124538288245      -0.336548468017     -0.875326435173     -0.32297350238      
5500000000.0        -0.879274177197     -0.318297838013     0.120586850823      -0.332135365604     0.120586850823      -0.332135365604     -0.879274177197     -0.318297838013     
5600000000.0        -0.883046591531     -0.313718261766     0.11681066636       -0.327818706296     0.11681066636       -0.327818706296     -0.883046591531     -0.313718261766     
5700000000.0        -0.886653438051     -0.309233180627     0.113199974706      -0.323596895789     0.113199974706      -0.323596895789     -0.886653438051     -0.309233180627     
5800000000.0        -0.890103843568     -0.304840891648     0.109745648776      -0.319468230003     0.109745648776      -0.319468230003     -0.890103843568     -0.304840891648     
5900000000.0        -0.893406346941     -0.300539606579     0.106439149436      -0.315430919709     0.106439149436      -0.315430919709     -0.893406346941     -0.300539606579     
6000000000.0        -0.896568940871     -0.296327472946     0.103272483708      -0.311483111606     0.103272483708      -0.311483111606     -0.896568940871     -0.296327472946     
6100000000.0        -0.899599110629     -0.292202592034     0.100238166042      -0.307622906304     0.100238166042      -0.307622906304     -0.899599110629     -0.292202592034     
6200000000.0        -0.902503869898     -0.288163034218     0.0973291824753     -0.303848373644     0.0973291824753     -0.303848373644     -0.902503869898     -0.288163034218     
6300000000.0        -0.905289793948     -0.284206851974     0.0945389574556     -0.300157565713     0.0945389574556     -0.300157565713     -0.905289793948     -0.284206851974     
6400000000.0        -0.907963050338     -0.280332090907     0.0918613231391     -0.296548527863     0.0918613231391     -0.296548527863     -0.907963050338     -0.280332090907     
6500000000.0        -0.910529427323     -0.276536799046     0.0892904909852     -0.293019308009     0.0892904909852     -0.293019308009     -0.910529427323     -0.276536799046     
6600000000.0        -0.912994360134     -0.272819034658     0.0868210254724     -0.289567964435     0.0868210254724     -0.289567964435     -0.912994360134     -0.272819034658     
6700000000.0        -0.915362955306     -0.269176872774     0.0844478197768     -0.286192572316     0.0844478197768     -0.286192572316     -0.915362955306     -0.269176872774     
6800000000.0        -0.917640013177     -0.265608410601     0.082166073264      -0.282891229133     0.082166073264      -0.282891229133     -0.917640013177     -0.265608410601     
6900000000.0        -0.919830048732     -0.262111771984     0.0799712706541     -0.279662059123     0.0799712706541     -0.279662059123     -0.919830048732     -0.262111771984     
7000000000.0        -0.921937310885     -0.258685111041     0.0778591627325     -0.276503216916     0.0778591627325     -0.276503216916     -0.921937310885     -0.258685111041     
7100000000.0        -0.923965800347     -0.255326615085     0.0758257484856     -0.273412890457     0.0758257484856     -0.273412890457     -0.923965800347     -0.255326615085     
7200000000.0        -0.925919286174     -0.252034506945     0.0738672585517     -0.270389303316     0.0738672585517     -0.270389303316     -0.925919286174     -0.252034506945     
7300000000.0        -0.927801321103     -0.248807046751     0.0719801398856     -0.267430716478     0.0719801398856     -0.267430716478     -0.927801321103     -0.248807046751     
7400000000.0        -0.929615255769     -0.245642533287     0.0701610415405     -0.264535429684     0.0701610415405     -0.264535429684     -0.929615255769     -0.245642533287     
7500000000.0        -0.931364251888     -0.242539304941     0.0684068014839     -0.26170178239      0.0684068014839     -0.26170178239      -0.931364251888     -0.242539304941     
7600000000.0        -0.933051294492     -0.239495740348     0.066714434364      -0.258928154396     0.066714434364      -0.258928154396     -0.933051294492     -0.239495740348     
7700000000.0        -0.934679203286     -0.236510258739     0.0650811201556     -0.256212966198     0.0650811201556     -0.256212966198     -0.934679203286     -0.236510258739     
7800000000.0        -0.936250643183     -0.233581320061     0.0635041936166     -0.253554679108     0.0635041936166     -0.253554679108     -0.936250643183     -0.233581320061     
7900000000.0        -0.93776813411      -0.230707424902     0.0619811344926     -0.250951795167     0.0619811344926     -0.250951795167     -0.93776813411      -0.230707424902     
8000000000.0        -0.939234060102     -0.227887114235     0.0605095584125     -0.248402856899     0.0605095584125     -0.248402856899     -0.939234060102     -0.227887114235     
8100000000.0        -0.940650677774     -0.225118969039     0.059087208423      -0.245906446918     0.059087208423      -0.245906446918     -0.940650677774     -0.225118969039     
8200000000.0        -0.942020124198     -0.222401609792     0.0577119471121     -0.243461187425     0.0577119471121     -0.243461187425     -0.942020124198     -0.222401609792     
8300000000.0        -0.943344424229     -0.219733695872     0.0563817492781     -0.24106573961      0.0563817492781     -0.24106573961      -0.943344424229     -0.219733695872     
8400000000.0        -0.944625497334     -0.217113924882     0.0550946951022     -0.238718802964     0.0550946951022     -0.238718802964     -0.944625497334     -0.217113924882     
8500000000.0        -0.945865163957     -0.214541031912     0.0538489637876     -0.23641911455      0.0538489637876     -0.23641911455      -0.945865163957     -0.214541031912     
8600000000.0        -0.947065151442     -0.212013788747     0.0526428276303     -0.234165448202     0.0526428276303     -0.234165448202     -0.947065151442     -0.212013788747     
8700000000.0        -0.948227099568     -0.209531003044     0.0514746464881     -0.231956613706     0.0514746464881     -0.231956613706     -0.948227099568     -0.209531003044     
8800000000.0        -0.949352565707     -0.207091517477     0.0503428626209     -0.229791455936     0.0503428626209     -0.229791455936     -0.949352565707     -0.207091517477     
8900000000.0        -0.950443029643     -0.204694208864     0.0492459958727     -0.227668853986     0.0492459958727     -0.227668853986     -0.950443029643     -0.204694208864     
9000000000.0        -0.95149989807      -0.202337987278     0.0481826391716     -0.225587720273     0.0481826391716     -0.225587720273     -0.95149989807      -0.202337987278     
9100000000.0        -0.9525245088       -0.200021795156     0.047151454325      -0.223546999651     0.047151454325      -0.223546999651     -0.9525245088       -0.200021795156     
9200000000.0        -0.95351813469      -0.197744606401     0.0461511680873     -0.221545668506     0.0461511680873     -0.221545668506     -0.95351813469      -0.197744606401     
9300000000.0        -0.954481987327     -0.195505425492     0.0451805684819     -0.219582733869     0.0451805684819     -0.219582733869     -0.954481987327     -0.195505425492     
9400000000.0        -0.955417220463     -0.193303286599     0.0442385013588     -0.217657232524     0.0442385013588     -0.217657232524     -0.955417220463     -0.193303286599     
9500000000.0        -0.956324933243     -0.191137252705     0.0433238671716     -0.215768230133     0.0433238671716     -0.215768230133     -0.956324933243     -0.191137252705     
9600000000.0        -0.957206173224     -0.189006414742     0.0424356179571     -0.213914820371     0.0424356179571     -0.213914820371     -0.957206173224     -0.189006414742     
9700000000.0        -0.958061939204     -0.186909890742     0.0415727545055     -0.212096124073     0.0415727545055     -0.212096124073     -0.958061939204     -0.186909890742     
9800000000.0        -0.958893183877     -0.184846825002     0.040734323706      -0.210311288398     0.040734323706      -0.210311288398     -0.958893183877     -0.184846825002     
9900000000.0        -0.959700816322     -0.182816387266     0.0399194160569     -0.208559486014     0.0399194160569     -0.208559486014     -0.959700816322     -0.182816387266     
10000000000.0       -0.960485704342     -0.180817771929     0.0391271633277     -0.206839914293     0.0391271633277     -0.206839914293     -0.960485704342     -0.180817771929     
