# Hz S RI R 50.00 
100000000.0         -6.52946741552e-05  -0.0108463861171    0.999803538213      -0.0110203539019    0.999803538213      -0.0110203539019    -6.52946741551e-05  -0.0108463861171    
200000000.0         -0.000434129026634  -0.0216844301438    0.999433765291      -0.0220323706109    0.999433765291      -0.0220323706109    -0.000434129026634  -0.0216844301438    
300000000.0         -0.00104144796939   -0.0325063071799    0.998825703862      -0.0330282281903    0.998825703862      -0.0330282281903    -0.00104144796939   -0.0325063071799    
400000000.0         -0.00188631604301   -0.0433042369233    0.997980176502      -0.0440001486552    0.997980176502      -0.0440001486552    -0.00188631604301   -0.0433042369233    
500000000.0         -0.0029674958884    -0.0540704991582    0.996898377295      -0.0549404138054    0.996898377295      -0.0549404138054    -0.0029674958884    -0.0540704991582    
600000000.0         -0.00428342860257   -0.0647974508384    0.99558184317       -0.0658413824177    0.99558184317       -0.0658413824177    -0.00428342860257   -0.0647974508384    
700000000.0         -0.00583223322118   -0.0754775432823    0.994032442169      -0.0766955074949    0.994032442169      -0.0766955074949    -0.00583223322118   -0.0754775432823    
800000000.0         -0.00761171118576   -0.0861033391075    0.992252364512      -0.0874953532321    0.992252364512      -0.0874953532321    -0.00761171118576   -0.0861033391075    
900000000.0         -0.00961935310654   -0.0966675287261    0.990244113857      -0.0982336115325    0.990244113857      -0.0982336115325    -0.00961935310654   -0.0966675287261    
1000000000.0        -0.0118523470281    -0.107162946275     0.988010498024      -0.108903117953     0.988010498024      -0.108903117953     -0.0118523470281    -0.107162946275     
1100000000.0        -0.0143075878777    -0.117582584895     0.985554618996      -0.119496866992     0.985554618996      -0.119496866992     -0.0143075878777    -0.117582584895     
1200000000.0        -0.0169816879269    -0.127919611274     0.982879862124      -0.130008026641     0.982879862124      -0.130008026641     -0.0169816879269    -0.127919611274     
1300000000.0        -0.01987098815      -0.138167379388     0.97998988456       -0.140429952136     0.97998988456       -0.140429952136     -0.01987098815      -0.138167379388     
1400000000.0        -0.0229715703838    -0.148319443392     0.976888602963      -0.150756198845     0.976888602963      -0.150756198845     -0.0229715703838    -0.148319443392     
1500000000.0        -0.0262792702024    -0.158369569596     0.973580180531      -0.160980534257     0.973580180531      -0.160980534257     -0.0262792702024    -0.158369569596     
1600000000.0        -0.0297896904206    -0.168311747495     0.970069013429      -0.171096949009     0.970069013429      -0.171096949009     -0.0297896904206    -0.168311747495     
1700000000.0        -0.0334982151448    -0.178140199819     0.966359716699      -0.181099666941     0.966359716699      -0.181099666941     -0.0334982151448    -0.178140199819     
1800000000.0        -0.0374000242866    -0.187849391567     0.962457109705      -0.190983154134     0.962457109705      -0.190983154134     -0.0374000242866    -0.187849391567     
1900000000.0        -0.0414901084577    -0.197434038023     0.958366201213      -0.200742126926     0.958366201213      -0.200742126926     -0.0414901084577    -0.197434038023     
2000000000.0        -0.0457632841619    -0.206889111725     0.954092174186      -0.210371558884     0.954092174186      -0.210371558884     -0.0457632841619    -0.206889111725     
2100000000.0        -0.0502142092056    -0.216209848396     0.94964037035       -0.219866686734     0.94964037035       -0.219866686734     -0.0502142092056    -0.216209848396     
2200000000.0        -0.0548373982454    -0.225391751826     0.945016274639      -0.22922301525      0.945016274639      -0.22922301525      -0.0548373982454    -0.225391751826     
2300000000.0        -0.0596272383945    -0.234430597734     0.940225499579      -0.23843632111      0.940225499579      -0.23843632111      -0.0596272383945    -0.234430597734     
2400000000.0        -0.0645780048151    -0.243322436601     0.935273769687      -0.247502655738     0.935273769687      -0.247502655738     -0.0645780048151    -0.243322436601     
2500000000.0        -0.0696838762224    -0.252063595512     0.930166905961      -0.256418347139     0.930166905961      -0.256418347139     -0.0696838762224    -0.252063595512     
2600000000.0        -0.0749389502327    -0.26065067903      0.924910810526      -0.26518000078      0.924910810526      -0.26518000078      -0.0749389502327    -0.26065067903      
2700000000.0        -0.0803372584895    -0.269080569124     0.919511451507      -0.273784499516     0.919511451507      -0.273784499516     -0.0803372584895    -0.269080569124     
2800000000.0        -0.0858727815083    -0.277350424201     0.913974848176      -0.282229002624     0.913974848176      -0.282229002624     -0.0858727815083    -0.277350424201     
2900000000.0        -0.091539463182     -0.285457677271     0.908307056449      -0.290510943968     0.908307056449      -0.290510943968     -0.091539463182     -0.285457677271     
3000000000.0        -0.0973312248955    -0.293400033288     0.902514154764      -0.298628029342     0.902514154764      -0.298628029342     -0.0973312248955    -0.293400033288     
3100000000.0        -0.103241979203     -0.301175465723     0.896602230404      -0.306578233039     0.896602230404      -0.306578233039     -0.103241979203     -0.301175465723     
3200000000.0        -0.109265643026     -0.308782212402     0.890577366301      -0.314359793695     0.890577366301      -0.314359793695     -0.109265643026     -0.308782212402     
3300000000.0        -0.115396150331     -0.316218770672     0.884445628347      -0.321971209454     0.884445628347      -0.321971209454     -0.115396150331     -0.316218770672     
3400000000.0        -0.12162746426      -0.323483891942     0.878213053272      -0.329411232509     0.878213053272      -0.329411232509     -0.12162746426      -0.323483891942     
3500000000.0        -0.127953588681     -0.330576575652     0.871885637088      -0.33667886307      0.871885637088      -0.33667886307      -0.127953588681     -0.330576575652     
3600000000.0        -0.134368579144     -0.337496062716     0.865469324132      -0.343773342811     0.865469324132      -0.343773342811     -0.134368579144     -0.337496062716     
3700000000.0        -0.140866553209     -0.34424182851      0.858969996738      -0.350694147853     0.858969996738      -0.350694147853     -0.140866553209     -0.34424182851      
3800000000.0        -0.147441700149     -0.350813575437     0.852393465533      -0.357440981335     0.852393465533      -0.357440981335     -0.147441700149     -0.350813575437     
3900000000.0        -0.154088290013     -0.357211225136     0.845745460374      -0.364013765622     0.845745460374      -0.364013765622     -0.154088290013     -0.357211225136     
4000000000.0        -0.160800682035     -0.363434910381     0.839031621938      -0.370412634201     0.839031621938      -0.370412634201     -0.160800682035     -0.363434910381     
4100000000.0        -0.167573332403     -0.369484966717     0.832257493952      -0.376637923319     0.832257493952      -0.376637923319     -0.167573332403     -0.369484966717     
4200000000.0        -0.174400801379     -0.375361923888     0.825428516071      -0.382690163414     0.825428516071      -0.382690163414     -0.174400801379     -0.375361923888     
4300000000.0        -0.181277759782     -0.381066497097     0.818550017399      -0.388570070374     0.818550017399      -0.388570070374     -0.181277759782     -0.381066497097     
4400000000.0        -0.188198994835     -0.386599578152     0.811627210639      -0.394278536678     0.811627210639      -0.394278536678     -0.188198994835     -0.386599578152     
4500000000.0        -0.195159415404     -0.391962226522     0.804665186852      -0.399816622463     0.804665186852      -0.399816622463     -0.195159415404     -0.391962226522     
4600000000.0        -0.20215405662      -0.39715566037      0.79766891084       -0.405185546545     0.79766891084       -0.405185546545     -0.20215405662      -0.39715566037      
4700000000.0        -0.20917808392      -0.402181247573     0.790643217097      -0.410386677449     0.790643217097      -0.410386677449     -0.20917808392      -0.402181247573     
4800000000.0        -0.216226796521     -0.407040496783     0.783592806344      -0.415421524466     0.783592806344      -0.415421524466     -0.216226796521     -0.407040496783     
4900000000.0        -0.223295630336     -0.411735048559     0.776522242602      -0.420291728784     0.776522242602      -0.420291728784     -0.223295630336     -0.411735048559     
5000000000.0        -0.23038016037      -0.416266666589     0.769435950807      -0.424999054713     0.769435950807      -0.424999054713     -0.23038016037      -0.416266666589     
5100000000.0        -0.23747610261      -0.42063722904      0.762338214912      -0.429545381035     0.762338214912      -0.429545381035     -0.23747610261      -0.42063722904      
5200000000.0        -0.24457931543      -0.424848720063     0.755233176485      -0.433932692507     0.755233176485      -0.433932692507     -0.24457931543      -0.424848720063     
5300000000.0        -0.251685800544     -0.428903221466     0.748124833755      -0.438163071534     0.748124833755      -0.438163071534     -0.251685800544     -0.428903221466     
5400000000.0        -0.258791703527     -0.432802904578     0.741017041093      -0.442238690039     0.741017041093      -0.442238690039     -0.258791703527     -0.432802904578     
5500000000.0        -0.265893313926     -0.436550022332     0.733913508896      -0.446161801538     0.733913508896      -0.446161801538     -0.265893313926     -0.436550022332     
5600000000.0        -0.272987064997     -0.440146901563     0.726817803854      -0.449934733444     0.726817803854      -0.449934733444     -0.272987064997     -0.440146901563     
5700000000.0        -0.280069533082     -0.443595935556     0.719733349573      -0.453559879611     0.719733349573      -0.453559879611     -0.280069533082     -0.443595935556     
5800000000.0        -0.287137436659     -0.446899576833     0.712663427523      -0.457039693126     0.712663427523      -0.457039693126     -0.287137436659     -0.446899576833     
5900000000.0        -0.294187635088     -0.450060330208     0.705611178294      -0.460376679361     0.705611178294      -0.460376679361     -0.294187635088     -0.450060330208     
6000000000.0        -0.301217127071     -0.453080746106     0.698579603132      -0.463573389291     0.698579603132      -0.463573389291     -0.301217127071     -0.453080746106     
6100000000.0        -0.308223048863     -0.45596341415      0.691571565732      -0.466632413084     0.691571565732      -0.466632413084     -0.308223048863     -0.45596341415      
6200000000.0        -0.315202672249     -0.458710957029     0.684589794259      -0.469556373966     0.684589794259      -0.469556373966     -0.31520267225      -0.458710957029     
6300000000.0        -0.322153402307     -0.461326024638     0.677636883588      -0.472347922368     0.677636883588      -0.472347922368     -0.322153402307     -0.461326024638     
6400000000.0        -0.329072774983     -0.463811288505     0.670715297723      -0.475009730341     0.670715297723      -0.475009730341     -0.329072774983     -0.463811288505     
6500000000.0        -0.335958454502     -0.466169436482     0.663827372391      -0.477544486263     0.663827372391      -0.477544486263     -0.335958454502     -0.466169436482     
6600000000.0        -0.34280823063      -0.468403167732     0.656975317778      -0.479954889809     0.656975317778      -0.479954889809     -0.34280823063      -0.468403167732     
6700000000.0        -0.349620015805     -0.470515187969     0.650161221398      -0.482243647204     0.650161221398      -0.482243647204     -0.349620015805     -0.470515187969     
6800000000.0        -0.356391842161     -0.472508204981     0.64338705107       -0.484413466742     0.64338705107       -0.484413466742     -0.356391842161     -0.472508204981     
6900000000.0        -0.363121858457     -0.474384924416     0.636654657987      -0.486467054571     0.636654657987      -0.486467054571     -0.363121858457     -0.474384924416     
7000000000.0        -0.369808326931     -0.476148045827     0.629965779865      -0.488407110737     0.629965779865      -0.488407110737     -0.369808326931     -0.476148045827     
7100000000.0        -0.376449620089     -0.477800258968     0.623322044151      -0.490236325485     0.623322044151      -0.490236325485     -0.376449620089     -0.477800258968     
7200000000.0        -0.383044217449     -0.479344240343     0.616724971279      -0.491957375803     0.616724971279      -0.491957375803     -0.383044217449     -0.479344240343     
7300000000.0        -0.389590702254     -0.480782649991     0.61017597796       -0.493572922213     0.61017597796       -0.493572922213     -0.389590702254     -0.480782649991     
7400000000.0        -0.396087758156     -0.48211812851      0.603676380496      -0.495085605785     0.603676380496      -0.495085605785     -0.396087758156     -0.48211812851      
7500000000.0        -0.402534165895     -0.483353294298     0.597227398099      -0.49649804539      0.597227398099      -0.49649804539      -0.402534165895     -0.483353294298     
7600000000.0        -0.408928799979     -0.484490741017     0.590830156216      -0.497812835156     0.590830156216      -0.497812835156     -0.408928799979     -0.484490741017     
7700000000.0        -0.41527062537      -0.485533035267     0.584485689838      -0.499032542145     0.584485689838      -0.499032542145     -0.41527062537      -0.485533035267     
7800000000.0        -0.42155869419      -0.486482714457     0.578194946796      -0.500159704226     0.578194946796      -0.500159704226     -0.42155869419      -0.486482714457     
7900000000.0        -0.427792142459     -0.48734228487      0.571958791024      -0.501196828134     0.571958791024      -0.501196828134     -0.427792142459     -0.48734228487      
8000000000.0        -0.43397018686      -0.488114219914     0.565778005792      -0.502146387727     0.565778005792      -0.502146387727     -0.43397018686      -0.488114219914     
8100000000.0        -0.440092121549     -0.488800958545     0.559653296898      -0.503010822406     0.559653296898      -0.503010822406     -0.440092121549     -0.488800958545     
8200000000.0        -0.446157315012     -0.489404903857     0.553585295808      -0.50379253571      0.553585295808      -0.50379253571      -0.446157315012     -0.489404903857     
8300000000.0        -0.452165206972     -0.489928421836     0.547574562754      -0.504493894061     0.547574562754      -0.504493894061     -0.452165206972     -0.489928421836     
8400000000.0        -0.458115305352     -0.490373840261     0.541621589766      -0.505117225671     0.541621589766      -0.505117225671     -0.458115305352     -0.490373840261     
8500000000.0        -0.464007183302     -0.490743447744     0.535726803645      -0.505664819586     0.535726803645      -0.505664819586     -0.464007183302     -0.490743447744     
8600000000.0        -0.469840476287     -0.49103949291      0.529890568881      -0.506138924857     0.529890568881      -0.506138924857     -0.469840476287     -0.49103949291      
8700000000.0        -0.475614879245     -0.491264183706     0.524113190488      -0.506541749854     0.524113190488      -0.506541749854     -0.475614879245     -0.491264183706     
8800000000.0        -0.481330143808     -0.491419686818     0.518394916787      -0.506875461684     0.518394916787      -0.506875461684     -0.481330143808     -0.491419686818     
8900000000.0        -0.486986075605     -0.491508127215     0.512735942103      -0.507142185734     0.512735942103      -0.507142185734     -0.486986075605     -0.491508127215     
9000000000.0        -0.492582531624     -0.491531587786     0.507136409397      -0.507344005307     0.507136409397      -0.507344005307     -0.492582531624     -0.491531587786     
9100000000.0        -0.498119417666     -0.491492109084     0.501596412824      -0.507482961364     0.501596412824      -0.507482961364     -0.498119417666     -0.491492109084     
9200000000.0        -0.503596685856     -0.491391689153     0.496116000209      -0.50756105236      0.496116000209      -0.50756105236      -0.503596685856     -0.491391689153     
9300000000.0        -0.509014332245     -0.49123228345      0.490695175454      -0.507580234155     0.490695175454      -0.507580234155     -0.509014332245     -0.49123228345      
9400000000.0        -0.514372394478     -0.491015804839     0.485333900866      -0.507542420014     0.485333900866      -0.507542420014     -0.514372394478     -0.491015804839     
9500000000.0        -0.51967094954      -0.490744123659     0.48003209941       -0.507449480677     0.48003209941       -0.507449480677     -0.51967094954      -0.490744123659     
9600000000.0        -0.524910111585     -0.490419067866     0.474789656886      -0.507303244494     0.474789656886      -0.507303244494     -0.524910111585     -0.490419067866     
9700000000.0        -0.530090029831     -0.490042423231     0.469606424026      -0.50710549763      0.469606424026      -0.50710549763      -0.530090029831     -0.490042423231     
9800000000.0        -0.535210886534     -0.489615933598     0.464482218525      -0.506857984319     0.464482218525      -0.506857984319     -0.535210886534     -0.489615933598     
9900000000.0        -0.540272895037     -0.489141301192     0.459416826992      -0.506562407175     0.459416826992      -0.506562407175     -0.540272895037     -0.489141301192     
10000000000.0       -0.545276297887     -0.488620186985     0.45441000683       -0.506220427554     0.45441000683       -0.506220427554     -0.545276297887     -0.488620186985     
