# Hz S RI R 50.00 
100000000.0         0.00777759755843    0.000481871652792   0.992221299392      -0.000588743537282  0.992221299392      -0.000588743537282  0.00777759755843    0.000481871652792   
200000000.0         0.00782919576923    0.000963634480912   0.992169586678      -0.00117737916347   0.992169586678      -0.00117737916347   0.00782919576923    0.000963634480912   
300000000.0         0.00786751747157    0.001445333325      0.992131139018      -0.00176595220198   0.992131139018      -0.00176595220198   0.00786751747157    0.001445333325      
400000000.0         0.00789930876095    0.00192698371931    0.992099210315      -0.00235447856085   0.992099210315      -0.00235447856085   0.00789930876095    0.00192698371931    
500000000.0         0.0079271755531     0.00240859433229    0.992071194652      -0.0029429672274    0.992071194652      -0.0029429672274    0.0079271755531     0.00240859433229    
600000000.0         0.00795245074911    0.00289017077529    0.992045759127      -0.00353142409582   0.992045759127      -0.00353142409582   0.00795245074911    0.00289017077529    
700000000.0         0.00797592402654    0.00337171697534    0.99202211406       -0.00411985334981   0.99202211406       -0.00411985334981   0.00797592402654    0.00337171697534    
800000000.0         0.0079981085039     0.00385323581401    0.991999746332      -0.00470825810705   0.991999746332      -0.00470825810705   0.0079981085039     0.00385323581401    
900000000.0         0.00801935960859    0.00433472947151    0.991978300514      -0.00529664076721   0.991978300514      -0.00529664076721   0.00801935960859    0.00433472947151    
1000000000.0        0.00803993539664    0.00481619963102    0.991957518548      -0.00588500321885   0.991957518548      -0.00588500321885   0.00803993539664    0.00481619963102    
1100000000.0        0.00806003012089    0.0052976476087     0.991937206179      -0.00647334697158   0.991937206179      -0.00647334697158   0.00806003012089    0.0052976476087     
1200000000.0        0.00807979425565    0.0057790744411     0.991917212933      -0.00706167324481   0.991917212933      -0.00706167324481   0.00807979425565    0.0057790744411     
1300000000.0        0.00809934710914    0.00626048094622    0.991897419497      -0.00764998303003   0.991897419497      -0.00764998303003   0.00809934710914    0.00626048094622    
1400000000.0        0.00811878512273    0.00674186776767    0.991877729431      -0.008238277136     0.991877729431      -0.008238277136     0.00811878512273    0.00674186776767    
1500000000.0        0.00813818753255    0.00722323540764    0.991858063495      -0.00882655622241   0.991858063495      -0.00882655622241   0.00813818753255    0.00722323540764    
1600000000.0        0.00815762035017    0.00770458425186    0.991838355676      -0.00941482082557   0.991838355676      -0.00941482082557   0.00815762035017    0.00770458425186    
1700000000.0        0.00817713923447    0.00818591458911    0.991818550314      -0.0100030713783    0.991818550314      -0.0100030713783    0.00817713923446    0.00818591458911    
1800000000.0        0.00819679160994    0.00866722662646    0.991798599982      -0.0105913082261    0.991798599982      -0.0105913082261    0.00819679160994    0.00866722662646    
1900000000.0        0.00821661825977    0.00914852050171    0.991778463894      -0.0111795316391    0.991778463894      -0.0111795316391    0.00821661825977    0.00914852050171    
2000000000.0        0.00823665454426    0.00962979629326    0.991758106689      -0.0117677418235    0.991758106689      -0.0117677418235    0.00823665454426    0.00962979629326    
2100000000.0        0.00825693134701    0.0101110540284     0.991737497481      -0.012355938929     0.991737497481      -0.012355938929     0.00825693134701    0.0101110540284     
2200000000.0        0.00827747581955    0.0105922936901     0.991716609116      -0.0129441230566    0.991716609116      -0.0129441230566    0.00827747581955    0.0105922936901     
2300000000.0        0.00829831197447    0.0110735152226     0.99169541758       -0.0135322942643    0.99169541758       -0.0135322942643    0.00829831197447    0.0110735152226     
2400000000.0        0.008319461163      0.0115547185365     0.991673901519      -0.0141204525721    0.991673901519      -0.0141204525721    0.008319461163      0.0115547185365     
2500000000.0        0.00834094246354    0.0120359035125     0.991652041852      -0.0147085979664    0.991652041852      -0.0147085979664    0.00834094246354    0.0120359035125     
2600000000.0        0.00836277300036    0.0125170700052     0.991629821453      -0.0152967304037    0.991629821453      -0.0152967304037    0.00836277300036    0.0125170700052     
2700000000.0        0.00838496820744    0.012998217846      0.991607224886      -0.0158848498135    0.991607224886      -0.0158848498135    0.00838496820744    0.012998217846      
2800000000.0        0.00840754204833    0.0134793468457     0.991584238185      -0.0164729561015    0.991584238185      -0.0164729561015    0.00840754204833    0.0134793468457     
2900000000.0        0.00843050720083    0.0139604567968     0.99156084867       -0.0170610491517    0.99156084867       -0.0170610491517    0.00843050720083    0.0139604567968     
3000000000.0        0.00845387521301    0.0144415474755     0.99153704479       -0.0176491288287    0.99153704479       -0.0176491288287    0.00845387521301    0.0144415474755     
3100000000.0        0.00847765663587    0.0149226186436     0.991512815992      -0.0182371949795    0.991512815992      -0.0182371949795    0.00847765663587    0.0149226186436     
3200000000.0        0.00850186113673    0.0154036700498     0.991488152607      -0.0188252474352    0.991488152607      -0.0188252474352    0.00850186113673    0.0154036700498     
3300000000.0        0.00852649759669    0.0158847014312     0.99146304575       -0.0194132860122    0.99146304575       -0.0194132860122    0.00852649759669    0.0158847014312     
3400000000.0        0.0085515741948     0.0163657125145     0.991437487241      -0.0200013105141    0.991437487241      -0.0200013105141    0.0085515741948     0.0163657125145     
3500000000.0        0.00857709848106    0.0168467030172     0.991411469527      -0.0205893207324    0.991411469527      -0.0205893207324    0.00857709848106    0.0168467030172     
3600000000.0        0.00860307744004    0.0173276726484     0.991384985621      -0.0211773164475    0.991384985621      -0.0211773164475    0.00860307744004    0.0173276726484     
3700000000.0        0.00862951754649    0.0178086211099     0.991358029045      -0.0217652974302    0.991358029045      -0.0217652974302    0.00862951754649    0.0178086211099     
3800000000.0        0.00865642481424    0.0182895480965     0.991330593784      -0.0223532634419    0.991330593784      -0.0223532634419    0.00865642481424    0.0182895480965     
3900000000.0        0.00868380483925    0.0187704532976     0.991302674239      -0.0229412142358    0.991302674239      -0.0229412142358    0.00868380483925    0.0187704532976     
4000000000.0        0.00871166283767    0.0192513363967     0.991274265191      -0.0235291495575    0.991274265191      -0.0235291495575    0.00871166283767    0.0192513363967     
4100000000.0        0.00874000367962    0.019732197073      0.991245361767      -0.0241170691455    0.991245361767      -0.0241170691455    0.00874000367962    0.019732197073      
4200000000.0        0.00876883191925    0.0202130350014     0.991215959412      -0.0247049727321    0.991215959412      -0.0247049727321    0.00876883191925    0.0202130350014     
4300000000.0        0.00879815182157    0.020693849853      0.991186053856      -0.0252928600437    0.991186053856      -0.0252928600437    0.00879815182157    0.020693849853      
4400000000.0        0.00882796738639    0.0211746412958     0.991155641099      -0.0258807308012    0.991155641099      -0.0258807308012    0.00882796738639    0.0211746412958     
4500000000.0        0.00885828236995    0.0216554089947     0.99112471738       -0.0264685847206    0.99112471738       -0.0264685847206    0.00885828236995    0.0216554089947     
4600000000.0        0.00888910030419    0.0221361526123     0.991093279166      -0.0270564215135    0.991093279166      -0.0270564215135    0.00888910030419    0.0221361526123     
4700000000.0        0.00892042451428    0.0226168718088     0.991061323129      -0.0276442408874    0.991061323129      -0.0276442408874    0.00892042451428    0.0226168718088     
4800000000.0        0.00895225813435    0.0230975662428     0.991028846131      -0.0282320425459    0.991028846131      -0.0282320425459    0.00895225813435    0.0230975662428     
4900000000.0        0.0089846041218     0.0235782355712     0.990995845214      -0.0288198261891    0.990995845214      -0.0288198261891    0.0089846041218     0.0235782355712     
5000000000.0        0.00901746527028    0.0240588794494     0.99096231758       -0.0294075915141    0.99096231758       -0.0294075915141    0.00901746527028    0.0240588794494     
5100000000.0        0.00905084422145    0.0245394975319     0.990928260586      -0.0299953382149    0.990928260586      -0.0299953382149    0.00905084422145    0.0245394975319     
5200000000.0        0.00908474347573    0.0250200894723     0.990893671727      -0.030583065983     0.990893671727      -0.030583065983     0.00908474347573    0.0250200894723     
5300000000.0        0.00911916540215    0.0255006549234     0.990858548634      -0.0311707745076    0.990858548634      -0.0311707745076    0.00911916540215    0.0255006549234     
5400000000.0        0.00915411224722    0.0259811935378     0.990822889055      -0.0317584634754    0.990822889055      -0.0317584634754    0.00915411224722    0.0259811935378     
5500000000.0        0.00918958614326    0.0264617049674     0.990786690858      -0.0323461325713    0.990786690858      -0.0323461325713    0.00918958614326    0.0264617049674     
5600000000.0        0.00922558911581    0.0269421888641     0.990749952012      -0.0329337814785    0.990749952012      -0.0329337814785    0.00922558911581    0.0269421888641     
5700000000.0        0.00926212309066    0.02742264488       0.99071267059       -0.0335214098784    0.99071267059       -0.0335214098784    0.00926212309066    0.02742264488       
5800000000.0        0.00929918990015    0.0279030726669     0.990674844757      -0.034109017451     0.990674844757      -0.034109017451     0.00929918990015    0.0279030726669     
5900000000.0        0.00933679128907    0.0283834718771     0.990636472765      -0.0346966038749    0.990636472765      -0.0346966038749    0.00933679128907    0.0283834718771     
6000000000.0        0.00937492892006    0.0288638421633     0.990597552949      -0.0352841688278    0.990597552949      -0.0352841688278    0.00937492892006    0.0288638421633     
6100000000.0        0.00941360437865    0.0293441831786     0.990558083721      -0.0358717119859    0.990558083721      -0.0358717119859    0.00941360437865    0.0293441831786     
6200000000.0        0.00945281917783    0.0298244945765     0.990518063565      -0.036459233025     0.990518063565      -0.036459233025     0.00945281917783    0.0298244945765     
6300000000.0        0.00949257476243    0.0303047760113     0.990477491033      -0.0370467316197    0.990477491033      -0.0370467316197    0.00949257476243    0.0303047760113     
6400000000.0        0.00953287251303    0.0307850271381     0.990436364743      -0.0376342074441    0.990436364743      -0.0376342074441    0.00953287251303    0.0307850271381     
6500000000.0        0.00957371374967    0.0312652476126     0.990394683371      -0.0382216601716    0.990394683371      -0.0382216601716    0.00957371374967    0.0312652476126     
6600000000.0        0.00961509973533    0.0317454370917     0.990352445653      -0.0388090894751    0.990352445653      -0.0388090894751    0.00961509973533    0.0317454370917     
6700000000.0        0.00965703167911    0.0322255952329     0.990309650376      -0.0393964950272    0.990309650376      -0.0393964950272    0.00965703167911    0.0322255952329     
6800000000.0        0.00969951073917    0.032705721695      0.990266296379      -0.0399838764999    0.990266296379      -0.0399838764999    0.00969951073917    0.032705721695      
6900000000.0        0.00974253802559    0.0331858161376     0.990222382549      -0.0405712335654    0.990222382549      -0.0405712335654    0.00974253802559    0.0331858161376     
7000000000.0        0.00978611460291    0.0336658782217     0.990177907821      -0.0411585658951    0.990177907821      -0.0411585658951    0.00978611460291    0.0336658782217     
7100000000.0        0.00983024149262    0.0341459076092     0.990132871168      -0.0417458731608    0.990132871168      -0.0417458731608    0.00983024149262    0.0341459076092     
7200000000.0        0.00987491967533    0.0346259039635     0.990087271609      -0.042333155034     0.990087271609      -0.042333155034     0.00987491967533    0.0346259039635     
7300000000.0        0.00992015009304    0.035105866949      0.990041108198      -0.0429204111861    0.990041108198      -0.0429204111861    0.00992015009304    0.035105866949      
7400000000.0        0.009965933651      0.0355857962315     0.989994380028      -0.0435076412887    0.989994380028      -0.0435076412887    0.009965933651      0.0355857962315     
7500000000.0        0.0100122712197     0.0360656914782     0.989947086225      -0.0440948450135    0.989947086225      -0.0440948450135    0.0100122712197     0.0360656914782     
7600000000.0        0.0100591636365     0.0365455523574     0.98989922595       -0.0446820220322    0.98989922595       -0.0446820220322    0.0100591636365     0.0365455523574     
7700000000.0        0.0101066117074     0.0370253785391     0.989850798394      -0.0452691720169    0.989850798394      -0.0452691720169    0.0101066117074     0.0370253785391     
7800000000.0        0.0101546162086     0.0375051696946     0.989801802778      -0.0458562946398    0.989801802778      -0.0458562946398    0.0101546162086     0.0375051696946     
7900000000.0        0.0102031778879     0.0379849254965     0.989752238352      -0.0464433895734    0.989752238352      -0.0464433895734    0.0102031778879     0.0379849254965     
8000000000.0        0.0102522974659     0.0384646456191     0.989702104392      -0.0470304564903    0.989702104392      -0.0470304564903    0.0102522974659     0.0384646456191     
8100000000.0        0.0103019756378     0.038944329738      0.989651400201      -0.0476174950639    0.989651400201      -0.0476174950639    0.0103019756378     0.038944329738      
8200000000.0        0.0103522130741     0.0394239775303     0.989600125106      -0.0482045049675    0.989600125106      -0.0482045049675    0.0103522130741     0.0394239775303     
8300000000.0        0.010403010422      0.0399035886747     0.989548278457      -0.048791485875     0.989548278457      -0.048791485875     0.010403010422      0.0399035886747     
8400000000.0        0.0104543683066     0.0403831628514     0.989495859627      -0.0493784374608    0.989495859627      -0.0493784374608    0.0104543683066     0.0403831628514     
8500000000.0        0.0105062873317     0.0408626997421     0.989442868009      -0.0499653593997    0.989442868009      -0.0499653593997    0.0105062873317     0.0408626997421     
8600000000.0        0.0105587680808     0.0413421990301     0.989389303017      -0.0505522513668    0.989389303017      -0.0505522513668    0.0105587680808     0.0413421990301     
8700000000.0        0.0106118111183     0.0418216604003     0.989335164084      -0.0511391130379    0.989335164084      -0.0511391130379    0.0106118111183     0.0418216604003     
8800000000.0        0.0106654169901     0.042301083539      0.989280450663      -0.0517259440892    0.989280450663      -0.0517259440892    0.0106654169901     0.042301083539      
8900000000.0        0.0107195862245     0.0427804681344     0.989225162221      -0.0523127441975    0.989225162221      -0.0523127441975    0.0107195862245     0.0427804681344     
9000000000.0        0.0107743193329     0.0432598138758     0.989169298246      -0.0528995130402    0.989169298246      -0.0528995130402    0.0107743193329     0.0432598138758     
9100000000.0        0.0108296168109     0.0437391204546     0.989112858239      -0.0534862502951    0.989112858239      -0.0534862502951    0.0108296168109     0.0437391204546     
9200000000.0        0.0108854791386     0.0442183875634     0.989055841718      -0.0540729556408    0.989055841718      -0.0540729556408    0.0108854791386     0.0442183875634     
9300000000.0        0.0109419067815     0.0446976148966     0.988998248215      -0.0546596287562    0.988998248215      -0.0546596287562    0.0109419067815     0.0446976148966     
9400000000.0        0.0109989001909     0.0451768021502     0.988940077276      -0.055246269321     0.988940077276      -0.055246269321     0.0109989001909     0.0451768021502     
9500000000.0        0.0110564598051     0.0456559490218     0.988881328461      -0.0558328770156    0.988881328461      -0.0558328770156    0.0110564598051     0.0456559490218     
9600000000.0        0.0111145860491     0.0461350552104     0.988822001342      -0.0564194515209    0.988822001342      -0.0564194515209    0.0111145860491     0.0461350552104     
9700000000.0        0.0111732793359     0.0466141204169     0.988762095504      -0.0570059925183    0.988762095504      -0.0570059925183    0.0111732793359     0.0466141204169     
9800000000.0        0.0112325400667     0.0470931443435     0.988701610544      -0.0575924996902    0.988701610544      -0.0575924996902    0.0112325400667     0.0470931443435     
9900000000.0        0.0112923686315     0.0475721266943     0.988640546068      -0.0581789727193    0.988640546068      -0.0581789727193    0.0112923686315     0.0475721266943     
10000000000.0       0.0113527654095     0.0480510671748     0.988578901697      -0.0587654112891    0.988578901697      -0.0587654112891    0.0113527654095     0.0480510671748     
