# Hz S RI R 50.00 
100000000.0         -0.00457657078121   -0.0671686320693    0.995338487953      -0.0674453300732    0.995338487953      -0.0674453300732    -0.00457657078121   -0.0671686320693    
200000000.0         -0.0180478670521    -0.132503766319     0.981866495559      -0.133057213927     0.981866495559      -0.133057213927     -0.0180478670521    -0.132503766319     
300000000.0         -0.0396629078433    -0.194353404363     0.960250827067      -0.195183682202     0.960250827067      -0.195183682202     -0.0396629078433    -0.194353404363     
400000000.0         -0.0683447924549    -0.251357856587     0.931568310089      -0.252465068503     0.931568310089      -0.252465068503     -0.0683447924549    -0.251357856587     
500000000.0         -0.102775628212     -0.302530825023     0.897136809216      -0.303915095077     0.897136809216      -0.303915095077     -0.102775628212     -0.302530825023     
600000000.0         -0.141533282816     -0.34728510873      0.858378442415      -0.348946579166     0.858378442415      -0.348946579166     -0.141533282816     -0.34728510873      
700000000.0         -0.183215150336     -0.385409018983     0.816695807125      -0.387347848699     0.816695807125      -0.387347848699     -0.183215150336     -0.385409018983     
800000000.0         -0.226533471106     -0.417008022886     0.77337665746       -0.419224386195     0.77337665746       -0.419224386195     -0.226533471106     -0.417008022886     
900000000.0         -0.270376198313     -0.442428742654     0.729533036355      -0.444922828257     0.729533036355      -0.444922828257     -0.270376198313     -0.442428742654     
1000000000.0        -0.313835264242     -0.462180362741     0.686073008665      -0.464952372838     0.686073008665      -0.464952372838     -0.313835264242     -0.462180362741     
1100000000.0        -0.356208853404     -0.476863950799     0.643698387678      -0.479914100303     0.643698387678      -0.479914100303     -0.356208853404     -0.476863950799     
1200000000.0        -0.396985961378     -0.487115264594     0.602920176064      -0.490443780444     0.602920176064      -0.490443780444     -0.396985961378     -0.487115264594     
1300000000.0        -0.435820993999     -0.493562599716     0.564083966552      -0.497169720241     0.564083966552      -0.497169720241     -0.435820993999     -0.493562599716     
1400000000.0        -0.472504509444     -0.496798604355     0.527399199756      -0.50068457871      0.527399199756      -0.50068457871      -0.472504509444     -0.496798604355     
1500000000.0        -0.506934269207     -0.497363653571     0.492968113141      -0.501528741212     0.492968113141      -0.501528741212     -0.506934269207     -0.497363653571     
1600000000.0        -0.539089041586     -0.495737988202     0.460811937493      -0.500182458406     0.460811937493      -0.500182458406     -0.539089041586     -0.495737988202     
1700000000.0        -0.569006296554     -0.492340003799     0.430893202021      -0.497064135222     0.430893202021      -0.497064135222     -0.569006296554     -0.492340003799     
1800000000.0        -0.596764059754     -0.487528520816     0.40313388034       -0.492532601083     0.40313388034       -0.492532601083     -0.596764059754     -0.487528520816     
1900000000.0        -0.622466681274     -0.481607381317     0.377429621679      -0.486891706641     0.377429621679      -0.486891706641     -0.622466681274     -0.481607381317     
2000000000.0        -0.646234022182     -0.474831191933     0.353660564331      -0.480396066761     0.353660564331      -0.480396066761     -0.646234022182     -0.474831191933     
2100000000.0        -0.668193477006     -0.467411422297     0.331699313168      -0.47325715898      0.331699313168      -0.47325715898      -0.668193477006     -0.467411422297     
2200000000.0        -0.688474263111     -0.459522363967     0.311416650256      -0.465649282453     0.311416650256      -0.465649282453     -0.688474263111     -0.459522363967     
2300000000.0        -0.707203469733     -0.451306666516     0.292685485811      -0.457715094063     0.292685485811      -0.457715094063     -0.707203469733     -0.451306666516     
2400000000.0        -0.724503439811     -0.442880311294     0.275383476368      -0.449570582207     0.275383476368      -0.449570582207     -0.724503439811     -0.442880311294     
2500000000.0        -0.740490139383     -0.434336976185     0.259394655376      -0.441309431563     0.259394655376      -0.441309431563     -0.740490139383     -0.434336976185     
2600000000.0        -0.755272243392     -0.425751801086     0.244610347395      -0.433006788593     0.244610347395      -0.433006788593     -0.755272243392     -0.425751801086     
2700000000.0        -0.768950729702     -0.417184595466     0.230929574071      -0.424722469114     0.230929574071      -0.424722469114     -0.768950729702     -0.417184595466     
2800000000.0        -0.781618824537     -0.408682544598     0.218259108698      -0.416503664549     0.218259108698      -0.416503664549     -0.781618824537     -0.408682544598     
2900000000.0        -0.793362183131     -0.400282476201     0.206513295567      -0.408387208577     0.206513295567      -0.408387208577     -0.793362183131     -0.400282476201     
3000000000.0        -0.804259220849     -0.392012748229     0.195613718845      -0.400401464941     0.195613718845      -0.400401464941     -0.804259220849     -0.392012748229     
3100000000.0        -0.814381533902     -0.383894814286     0.185488781854      -0.392567892872     0.185488781854      -0.392567892872     -0.814381533902     -0.383894814286     
3200000000.0        -0.823794366714     -0.375944517286     0.176073239704      -0.384902340766     0.176073239704      -0.384902340766     -0.823794366714     -0.375944517286     
3300000000.0        -0.832557096207     -0.368173155673     0.167307715014      -0.377416112408     0.167307715014      -0.377416112408     -0.832557096207     -0.368173155673     
3400000000.0        -0.840723712978     -0.360588360266     0.159138216724      -0.370116843834     0.159138216724      -0.370116843834     -0.840723712978     -0.360588360266     
3500000000.0        -0.848343286337     -0.353194814086     0.151515675064      -0.363009223166     0.151515675064      -0.363009223166     -0.848343286337     -0.353194814086     
3600000000.0        -0.855460405165     -0.345994842376     0.144395500691      -0.356095580641     0.144395500691      -0.356095580641     -0.855460405165     -0.345994842376     
3700000000.0        -0.862115590096     -0.338988895557     0.137737172511      -0.349376371578     0.137737172511      -0.349376371578     -0.862115590096     -0.338988895557     
3800000000.0        -0.868345674931     -0.332175944017     0.131503856257      -0.342850571174     0.131503856257      -0.342850571174     -0.868345674931     -0.332175944017     
3900000000.0        -0.874184156895     -0.325553800392     0.125662054243      -0.336515996794     0.125662054243      -0.336515996794     -0.874184156895     -0.325553800392     
4000000000.0        -0.879661516385     -0.31911938228      0.120181285602      -0.330369570695     0.120181285602      -0.330369570695     -0.879661516385     -0.31911938228      
4100000000.0        -0.884805507597     -0.312868926024     0.11503379567       -0.324407533813     0.11503379567       -0.324407533813     -0.884805507597     -0.312868926024     
4200000000.0        -0.889641421777     -0.306798160354     0.11019429273       -0.318625619413     0.11019429273       -0.318625619413     -0.889641421777     -0.306798160354     
4300000000.0        -0.894192325086     -0.300902447082     0.105639710145      -0.313019193795     0.105639710145      -0.313019193795     -0.894192325086     -0.300902447082     
4400000000.0        -0.89847927312      -0.295176894789     0.101348991842      -0.307583369982     0.101348991842      -0.307583369982     -0.89847927312      -0.295176894789     
4500000000.0        -0.902521504114     -0.289616450363     0.0973028991051     -0.302313099267     0.0973028991051     -0.302313099267     -0.902521504114     -0.289616450363     
4600000000.0        -0.906336612793     -0.284215972383     0.0934838367239     -0.2972032446       0.0934838367239     -0.2972032446       -0.906336612793     -0.284215972383     
4700000000.0        -0.909940706716     -0.278970289639     0.0898756966515     -0.292248639121     0.0898756966515     -0.292248639121     -0.909940706716     -0.278970289639     
4800000000.0        -0.913348546831     -0.273874247482     0.0864637174461     -0.287444132506     0.0864637174461     -0.287444132506     -0.913348546831     -0.273874247482     
4900000000.0        -0.916573673835     -0.26892274422      0.0832343579135     -0.282784627373     0.0832343579135     -0.282784627373     -0.916573673835     -0.26892274422      
5000000000.0        -0.919628521783     -0.264110759375     0.0801751834998     -0.278265107545     0.0801751834998     -0.278265107545     -0.919628521783     -0.264110759375     
5100000000.0        -0.92252452025      -0.259433375313     0.0772747641211     -0.273880659682     0.0772747641211     -0.273880659682     -0.92252452025      -0.259433375313     
5200000000.0        -0.925272186266     -0.254885793461     0.0745225822384     -0.269626489501     0.0745225822384     -0.269626489501     -0.925272186266     -0.254885793461     
5300000000.0        -0.927881207056     -0.250463346132     0.0719089501104     -0.265497933611     0.0719089501104     -0.265497933611     -0.927881207056     -0.250463346132     
5400000000.0        -0.930360514576     -0.246161504793     0.0694249352602     -0.261490467776     0.0694249352602     -0.261490467776     -0.930360514576     -0.246161504793     
5500000000.0        -0.93271835269      -0.241975885449     0.0670622932971     -0.257599712313     0.0670622932971     -0.257599712313     -0.93271835269      -0.241975885449     
5600000000.0        -0.934962337768     -0.237902251723     0.0648134073207     -0.253821435165     0.0648134073207     -0.253821435165     -0.934962337768     -0.237902251723     
5700000000.0        -0.937099513382     -0.23393651607      0.062671233222      -0.250151553129     0.062671233222      -0.250151553129     -0.937099513382     -0.23393651607      
5800000000.0        -0.939136399725     -0.230074739534     0.0606292502643     -0.246586131609     0.0606292502643     -0.246586131609     -0.939136399725     -0.230074739534     
5900000000.0        -0.941079038298     -0.226313130339     0.0586814163971     -0.24312138321      0.0586814163971     -0.24312138321      -0.941079038298     -0.226313130339     
6000000000.0        -0.942933032353     -0.222648041573     0.0568221278151     -0.239753665428     0.0568221278151     -0.239753665428     -0.942933032353     -0.222648041573     
6100000000.0        -0.944703583523     -0.219075968179     0.0550461823231     -0.236479477644     0.0550461823231     -0.236479477644     -0.944703583523     -0.219075968179     
6200000000.0        -0.946395525041     -0.215593543429     0.0533487461214     -0.233295457597     0.0533487461214     -0.233295457597     -0.946395525041     -0.215593543429     
6300000000.0        -0.948013351879     -0.212197535002     0.0517253236625     -0.230198377468     0.0517253236625     -0.230198377468     -0.948013351879     -0.212197535002     
6400000000.0        -0.949561248134     -0.208884840802     0.0501717302697     -0.227185139699     0.0501717302697     -0.227185139699     -0.949561248134     -0.208884840802     
6500000000.0        -0.951043111919     -0.20565248459      0.0486840672424     -0.224252772627     0.0486840672424     -0.224252772627     -0.951043111919     -0.20565248459      
6600000000.0        -0.95246257802      -0.202497611518     0.0472586991992     -0.221398426019     0.0472586991992     -0.221398426019     -0.95246257802      -0.202497611518     
6700000000.0        -0.953823038536     -0.19941748361      0.0458922334404     -0.218619366559     0.0458922334404     -0.218619366559     -0.953823038536     -0.19941748361      
6800000000.0        -0.955127661693     -0.196409475257     0.0445815011302     -0.21591297334      0.0445815011302     -0.21591297334      -0.955127661693     -0.196409475257     
6900000000.0        -0.956379409018     -0.193471068738     0.0433235401241     -0.213276733391     0.0433235401241     -0.213276733391     -0.956379409018     -0.193471068738     
7000000000.0        -0.957581051029     -0.190599849824     0.0421155792818     -0.210708237279     0.0421155792818     -0.210708237279     -0.957581051029     -0.190599849824     
7100000000.0        -0.958735181572     -0.187793503467     0.0409550241248     -0.208205174803     0.0409550241248     -0.208205174803     -0.958735181572     -0.187793503467     
7200000000.0        -0.959844230949     -0.185049809598     0.0398394437108     -0.205765330792     0.0398394437108     -0.205765330792     -0.959844230949     -0.185049809598     
7300000000.0        -0.96091047794      -0.182366639052     0.0387665586115     -0.203386581031     0.0387665586115     -0.203386581031     -0.96091047794      -0.182366639052     
7400000000.0        -0.961936060824     -0.179741949618     0.0377342298912     -0.201066888314     0.0377342298912     -0.201066888314     -0.961936060824     -0.179741949618     
7500000000.0        -0.962922987495     -0.17717378223      0.0367404489929     -0.198804298634     0.0367404489929     -0.198804298634     -0.962922987495     -0.17717378223      
7600000000.0        -0.963873144744     -0.174660257296     0.0357833284508     -0.196596937516     0.0357833284508     -0.196596937516     -0.963873144744     -0.174660257296     
7700000000.0        -0.964788306802     -0.172199571171     0.0348610933529     -0.194443006491     0.0348610933529     -0.194443006491     -0.964788306802     -0.172199571171     
7800000000.0        -0.965670143189     -0.16978999277      0.0339720734871     -0.192340779708     0.0339720734871     -0.192340779708     -0.965670143189     -0.16978999277      
7900000000.0        -0.966520225949     -0.167429860324     0.0331146961103     -0.190288600693     0.0331146961103     -0.190288600693     -0.966520225949     -0.167429860324     
8000000000.0        -0.96734003631      -0.165117578272     0.0322874792844     -0.18828487924      0.0322874792844     -0.18828487924      -0.96734003631      -0.165117578272     
8100000000.0        -0.968130970832     -0.16285161429      0.0314890257315     -0.186328088444     0.0314890257315     -0.186328088444     -0.968130970832     -0.16285161429      
8200000000.0        -0.968894347077     -0.160630496453     0.0307180171616     -0.184416761864     0.0307180171616     -0.184416761864     -0.968894347077     -0.160630496453     
8300000000.0        -0.969631408847     -0.158452810523     0.0299732090332     -0.182549490809     0.0299732090332     -0.182549490809     -0.969631408847     -0.158452810523     
8400000000.0        -0.970343331032     -0.156317197362     0.0292534257104     -0.180724921756     0.0292534257104     -0.180724921756     -0.970343331032     -0.156317197362     
8500000000.0        -0.971031224084     -0.154222350469     0.0285575559815     -0.178941753881     0.0285575559815     -0.178941753881     -0.971031224084     -0.154222350469     
8600000000.0        -0.971696138171     -0.152167013623     0.0278845489109     -0.177198736712     0.0278845489109     -0.177198736712     -0.971696138171     -0.152167013623     
8700000000.0        -0.972339067018     -0.150149978644     0.0272334099951     -0.175494667884     0.0272334099951     -0.175494667884     -0.972339067018     -0.150149978644     
8800000000.0        -0.972960951471     -0.148170083255     0.0266031975988     -0.173828391008     0.0266031975988     -0.173828391008     -0.972960951471     -0.148170083255     
8900000000.0        -0.973562682803     -0.146226209053     0.0259930196479     -0.172198793633     0.0259930196479     -0.172198793633     -0.973562682803     -0.146226209053     
9000000000.0        -0.974145105786     -0.144317279566     0.0254020305588     -0.170604805316     0.0254020305588     -0.170604805316     -0.974145105786     -0.144317279566     
9100000000.0        -0.974709021546     -0.142442258411     0.024829428385      -0.169045395771     0.024829428385      -0.169045395771     -0.974709021546     -0.142442258411     
9200000000.0        -0.975255190211     -0.140600147537     0.0242744521643     -0.167519573117     0.0242744521643     -0.167519573117     -0.975255190211     -0.140600147537     
9300000000.0        -0.975784333381     -0.138789985551     0.0237363794498     -0.166026382207     0.0237363794498     -0.166026382207     -0.975784333381     -0.138789985551     
9400000000.0        -0.976297136431     -0.137010846128     0.0232145240117     -0.164564903034     0.0232145240117     -0.164564903034     -0.976297136431     -0.137010846128     
9500000000.0        -0.976794250645     -0.135261836491     0.0227082336955     -0.163134249214     0.0227082336955     -0.163134249214     -0.976794250645     -0.135261836491     
9600000000.0        -0.977276295218     -0.133542095972     0.0222168884254     -0.161733566547     0.0222168884254     -0.161733566547     -0.977276295218     -0.133542095972     
9700000000.0        -0.977743859117     -0.131850794631     0.0217398983417     -0.16036203164      0.0217398983417     -0.16036203164      -0.977743859117     -0.131850794631     
9800000000.0        -0.978197502817     -0.130187131952     0.0212767020623     -0.159018850599     0.0212767020623     -0.159018850599     -0.978197502817     -0.130187131952     
9900000000.0        -0.97863775993      -0.128550335593     0.020826765058      -0.157703257782     0.020826765058      -0.157703257782     -0.97863775993      -0.128550335593     
10000000000.0       -0.979065138717     -0.126939660199     0.0203895781349     -0.156414514613     0.0203895781349     -0.156414514613     -0.979065138717     -0.126939660199     
