# Hz S RI R 50.00 
100000000.0         0.00339882049229    0.000984881769343   0.996588553053      -0.00495913468602   0.996588553053      -0.00495913468602   0.00339882049229    0.000984881769343   
200000000.0         0.00343437598783    0.00196940075396    0.996525557782      -0.00991787927703   0.996525557782      -0.00991787927703   0.00343437598783    0.00196940075396    
300000000.0         0.00347380831691    0.00295356015205    0.996442871393      -0.0148762151431    0.996442871393      -0.0148762151431    0.00347380831691    0.00295356015205    
400000000.0         0.0035200502945     0.00393729400496    0.996337559866      -0.0198340486347    0.996337559866      -0.0198340486347    0.0035200502945     0.00393729400496    
500000000.0         0.00357422748926    0.00492052069127    0.996208496209      -0.0247912674661    0.996208496209      -0.0247912674661    0.00357422748926    0.00492052069127    
600000000.0         0.00363691038497    0.00590315184808    0.996055108317      -0.0297477506515    0.996055108317      -0.0297477506515    0.00363691038497    0.00590315184808    
700000000.0         0.00370843254784    0.00688509554513    0.995877060823      -0.0347033721959    0.995877060823      -0.0347033721959    0.00370843254784    0.00688509554513    
800000000.0         0.00378900669484    0.00786625774554    0.995674139044      -0.0396580028651    0.995674139044      -0.0396580028651    0.00378900669484    0.00786625774554    
900000000.0         0.00387877634988    0.00884654308558    0.995446197338      -0.0446115111684    0.995446197338      -0.0446115111684    0.00387877634988    0.00884654308558    
1000000000.0        0.00397784201536    0.00982585533485    0.995193132941      -0.0495637639613    0.995193132941      -0.0495637639613    0.00397784201536    0.00982585533485    
1100000000.0        0.00408627571427    0.0108040976885     0.994914871438      -0.0545146268426    0.994914871438      -0.0545146268426    0.00408627571427    0.0108040976885     
1200000000.0        0.00420412965175    0.0117811729635     0.994611358107      -0.0594639644299    0.994611358107      -0.0594639644299    0.00420412965175    0.0117811729635     
1300000000.0        0.00433144166254    0.0127569837372     0.994282552478      -0.0644116405612    0.994282552478      -0.0644116405612    0.00433144166254    0.0127569837372     
1400000000.0        0.00446823879043    0.0137314324487     0.993928424765      -0.0693575184455    0.993928424765      -0.0693575184455    0.00446823879043    0.0137314324487     
1500000000.0        0.0046145397268     0.0147044214756     0.993548953427      -0.0743014607807    0.993548953427      -0.0743014607807    0.0046145397268     0.0147044214756     
1600000000.0        0.00477035652323    0.015675853194      0.993144123468      -0.0792433298469    0.993144123468      -0.0792433298469    0.00477035652323    0.015675853194      
1700000000.0        0.0049356958257     0.0166456300267     0.992713925204      -0.0841829875833    0.992713925204      -0.0841829875833    0.0049356958257     0.0166456300267     
1800000000.0        0.0051105597842     0.017613654483      0.992258353359      -0.0891202956515    0.992258353359      -0.0891202956515    0.0051105597842     0.017613654483      
1900000000.0        0.0052949467365     0.0185798291916     0.991777406386      -0.0940551154894    0.991777406386      -0.0940551154894    0.0052949467365     0.0185798291916     
2000000000.0        0.00548885173089    0.0195440569298     0.991271085949      -0.0989873083573    0.991271085949      -0.0989873083573    0.00548885173089    0.0195440569298     
2100000000.0        0.00569226693232    0.0205062406476     0.990739396522      -0.103916735379     0.990739396522      -0.103916735379     0.00569226693232    0.0205062406476     
2200000000.0        0.00590518194213    0.0214662834905     0.99018234507       -0.108843257575     0.99018234507       -0.108843257575     0.00590518194213    0.0214662834905     
2300000000.0        0.00612758405311    0.0224240888195     0.989599940801      -0.113766735899     0.989599940801      -0.113766735899     0.00612758405311    0.0224240888195     
2400000000.0        0.00635945845526    0.0233795602288     0.988992194963      -0.118687031261     0.988992194963      -0.118687031261     0.00635945845526    0.0233795602288     
2500000000.0        0.00660078840363    0.024332601563      0.988359120679      -0.123604004559     0.988359120679      -0.123604004559     0.00660078840363    0.024332601563      
2600000000.0        0.0068515553565     0.0252831169326     0.987700732811      -0.128517516697     0.987700732811      -0.128517516697     0.0068515553565     0.0252831169326     
2700000000.0        0.00711173909033    0.0262310107288     0.98701704785       -0.133427428613     0.98701704785       -0.133427428613     0.00711173909033    0.0262310107288     
2800000000.0        0.00738131779612    0.0271761876376     0.986308083824      -0.138333601296     0.986308083824      -0.138333601296     0.00738131779612    0.0271761876376     
2900000000.0        0.00766026816091    0.0281185526526     0.985573860214      -0.143235895806     0.985573860214      -0.143235895806     0.00766026816091    0.0281185526526     
3000000000.0        0.00794856543727    0.0290580110885     0.984814397895      -0.148134173295     0.984814397895      -0.148134173295     0.00794856543727    0.0290580110885     
3100000000.0        0.00824618350299    0.0299944685928     0.984029719073      -0.153028295018     0.984029719073      -0.153028295018     0.00824618350299    0.0299944685928     
3200000000.0        0.00855309491272    0.0309278311581     0.983219847237      -0.157918122357     0.983219847237      -0.157918122357     0.00855309491272    0.0309278311581     
3300000000.0        0.00886927094305    0.0318580051334     0.98238480712       -0.16280351683      0.98238480712       -0.16280351683      0.00886927094305    0.0318580051334     
3400000000.0        0.00919468163201    0.0327848972354     0.981524624658      -0.167684340111     0.981524624658      -0.167684340111     0.00919468163201    0.0327848972354     
3500000000.0        0.009529295814      0.0337084145597     0.98063932696       -0.172560454041     0.98063932696       -0.172560454041     0.009529295814      0.0337084145597     
3600000000.0        0.00987308115093    0.0346284645912     0.979728942277      -0.177431720642     0.979728942277      -0.177431720642     0.00987308115093    0.0346284645912     
3700000000.0        0.01022600416       0.0355449552151     0.978793499981      -0.182298002135     0.978793499981      -0.182298002135     0.01022600416       0.0355449552151     
3800000000.0        0.010588030239      0.0364577947267     0.977833030535      -0.187159160946     0.977833030535      -0.187159160946     0.010588030239      0.0364577947267     
3900000000.0        0.0109591236889     0.0373668918421     0.97684756548       -0.192015059721     0.97684756548       -0.192015059721     0.0109591236889     0.0373668918421     
4000000000.0        0.0113392477346     0.038272155708      0.975837137411      -0.196865561343     0.975837137411      -0.196865561343     0.0113392477346     0.038272155708      
4100000000.0        0.0117283645443     0.0391734959113     0.974801779964      -0.201710528937     0.974801779964      -0.201710528937     0.0117283645443     0.0391734959113     
4200000000.0        0.012126435247      0.0400708224896     0.973741527797      -0.206549825883     0.973741527797      -0.206549825883     0.012126435247      0.0400708224896     
4300000000.0        0.012533419949      0.0409640459397     0.972656416578      -0.211383315831     0.972656416578      -0.211383315831     0.012533419949      0.0409640459397     
4400000000.0        0.0129492777491     0.0418530772282     0.971546482969      -0.216210862709     0.971546482969      -0.216210862709     0.0129492777491     0.0418530772282     
4500000000.0        0.0133739667531     0.0427378278        0.970411764619      -0.221032330733     0.970411764619      -0.221032330733     0.0133739667531     0.0427378278        
4600000000.0        0.0138074440875     0.043618209588      0.969252300145      -0.225847584418     0.969252300145      -0.225847584418     0.0138074440875     0.043618209588      
4700000000.0        0.0142496659121     0.0444941350221     0.968068129128      -0.230656488591     0.968068129128      -0.230656488591     0.0142496659121     0.0444941350221     
4800000000.0        0.0147005874329     0.0453655170384     0.966859292098      -0.235458908398     0.966859292098      -0.235458908398     0.0147005874329     0.0453655170384     
4900000000.0        0.0151601629132     0.0462322690877     0.965625830527      -0.240254709313     0.965625830527      -0.240254709313     0.0151601629132     0.0462322690877     
5000000000.0        0.0156283456854     0.0470943051448     0.964367786816      -0.245043757152     0.964367786816      -0.245043757152     0.0156283456854     0.0470943051448     
5100000000.0        0.0161050881619     0.0479515397171     0.963085204291      -0.249825918077     0.963085204291      -0.249825918077     0.0161050881619     0.0479515397171     
5200000000.0        0.0165903418456     0.0488038878531     0.961778127189      -0.254601058609     0.961778127189      -0.254601058609     0.0165903418456     0.0488038878531     
5300000000.0        0.0170840573401     0.0496512651509     0.960446600653      -0.259369045637     0.960446600653      -0.259369045637     0.0170840573401     0.0496512651509     
5400000000.0        0.0175861843601     0.050493587767      0.959090670722      -0.264129746426     0.959090670722      -0.264129746426     0.0175861843601     0.050493587767      
5500000000.0        0.0180966717409     0.0513307724243     0.957710384325      -0.268883028624     0.957710384325      -0.268883028624     0.0180966717409     0.0513307724243     
5600000000.0        0.0186154674483     0.0521627364204     0.95630578927       -0.273628760274     0.95630578927       -0.273628760274     0.0186154674483     0.0521627364204     
5700000000.0        0.0191425185878     0.0529893976359     0.95487693424       -0.27836680982      0.95487693424       -0.27836680982      0.0191425185878     0.0529893976359     
5800000000.0        0.0196777714143     0.0538106745424     0.953423868781      -0.283097046118     0.953423868781      -0.283097046118     0.0196777714143     0.0538106745424     
5900000000.0        0.020221171341      0.0546264862104     0.9519466433        -0.287819338439     0.9519466433        -0.287819338439     0.020221171341      0.0546264862104     
6000000000.0        0.0207726629485     0.0554367523175     0.950445309051      -0.292533556484     0.950445309051      -0.292533556484     0.0207726629485     0.0554367523175     
6100000000.0        0.021332189994      0.0562413931555     0.948919918135      -0.297239570386     0.948919918135      -0.297239570386     0.021332189994      0.0562413931555     
6200000000.0        0.0218996954204     0.0570403296391     0.947370523486      -0.301937250721     0.947370523486      -0.301937250721     0.0218996954204     0.0570403296391     
6300000000.0        0.0224751213647     0.0578334833125     0.94579717887       -0.306626468515     0.94579717887       -0.306626468515     0.0224751213647     0.0578334833125     
6400000000.0        0.0230584091671     0.0586207763575     0.94419993887       -0.311307095251     0.94419993887       -0.311307095251     0.0230584091671     0.0586207763575     
6500000000.0        0.0236494993802     0.059402131601      0.942578858889      -0.315979002876     0.942578858889      -0.315979002876     0.0236494993802     0.059402131601      
6600000000.0        0.0242483317769     0.0601774725217     0.940933995134      -0.32064206381      0.940933995134      -0.32064206381      0.0242483317769     0.0601774725217     
6700000000.0        0.0248548453599     0.060946723258      0.939265404614      -0.32529615095      0.939265404614      -0.32529615095      0.0248548453599     0.060946723258      
6800000000.0        0.02546897837       0.0617098086148     0.93757314513       -0.329941137681     0.93757314513       -0.329941137681     0.02546897837       0.0617098086148     
6900000000.0        0.0260906682951     0.0624666540705     0.93585727527       -0.33457689788      0.93585727527       -0.33457689788      0.0260906682951     0.0624666540705     
7000000000.0        0.0267198518786     0.0632171857842     0.934117854402      -0.339203305923     0.934117854402      -0.339203305923     0.0267198518786     0.0632171857842     
7100000000.0        0.0273564651286     0.0639613306022     0.932354942665      -0.343820236693     0.932354942665      -0.343820236693     0.0273564651286     0.0639613306022     
7200000000.0        0.0280004433258     0.064699016065      0.930568600964      -0.348427565584     0.930568600964      -0.348427565584     0.0280004433258     0.064699016065      
7300000000.0        0.028651721033      0.065430170414      0.928758890962      -0.353025168512     0.928758890962      -0.353025168512     0.028651721033      0.065430170414      
7400000000.0        0.0293102321036     0.0661547225976     0.926925875072      -0.357612921916     0.926925875072      -0.357612921916     0.0293102321036     0.0661547225976     
7500000000.0        0.02997590969       0.0668726022783     0.925069616452      -0.362190702767     0.925069616452      -0.362190702767     0.02997590969       0.0668726022783     
7600000000.0        0.0306486862527     0.0675837398385     0.923190178997      -0.366758388572     0.923190178997      -0.366758388572     0.0306486862527     0.0675837398385     
7700000000.0        0.0313284935691     0.0682880663872     0.92128762733       -0.371315857384     0.92128762733       -0.371315857384     0.0313284935691     0.0682880663872     
7800000000.0        0.032015262742      0.0689855137657     0.919362026799      -0.375862987802     0.919362026799      -0.375862987802     0.032015262742      0.0689855137657     
7900000000.0        0.0327089242085     0.069676014554      0.917413443464      -0.380399658983     0.917413443464      -0.380399658983     0.0327089242085     0.069676014554      
8000000000.0        0.0334094077491     0.0703595020767     0.915441944097      -0.384925750642     0.915441944097      -0.384925750642     0.0334094077491     0.0703595020767     
8100000000.0        0.034116642496      0.0710359104088     0.913447596168      -0.38944114306      0.913447596168      -0.38944114306      0.034116642496      0.0710359104088     
8200000000.0        0.0348305569426     0.0717051743813     0.911430467842      -0.393945717089     0.911430467842      -0.393945717089     0.0348305569426     0.0717051743813     
8300000000.0        0.0355510789518     0.0723672295872     0.90939062797       -0.398439354157     0.90939062797       -0.398439354157     0.0355510789518     0.0723672295872     
8400000000.0        0.0362781357655     0.0730220123867     0.907328146084      -0.402921936274     0.907328146084      -0.402921936274     0.0362781357655     0.0730220123867     
8500000000.0        0.0370116540127     0.073669459913      0.905243092385      -0.407393346037     0.905243092385      -0.407393346037     0.0370116540127     0.073669459913      
8600000000.0        0.0377515597195     0.0743095100772     0.903135537741      -0.41185346663      0.903135537741      -0.41185346663      0.0377515597195     0.0743095100772     
8700000000.0        0.0384977783172     0.0749421015739     0.901005553676      -0.416302181838     0.901005553676      -0.416302181838     0.0384977783172     0.0749421015739     
8800000000.0        0.0392502346518     0.0755671738863     0.898853212365      -0.420739376043     0.898853212365      -0.420739376043     0.0392502346518     0.0755671738863     
8900000000.0        0.0400088529929     0.0761846672912     0.896678586625      -0.425164934233     0.896678586625      -0.425164934233     0.0400088529929     0.0761846672912     
9000000000.0        0.0407735570424     0.0767945228635     0.894481749908      -0.429578742004     0.894481749908      -0.429578742004     0.0407735570424     0.0767945228635     
9100000000.0        0.0415442699444     0.077396682482      0.892262776295      -0.433980685567     0.892262776295      -0.433980685567     0.0415442699444     0.077396682482      
9200000000.0        0.0423209142934     0.0779910888332     0.890021740485      -0.438370651751     0.890021740485      -0.438370651751     0.0423209142934     0.0779910888332     
9300000000.0        0.0431034121439     0.0785776854162     0.887758717794      -0.442748528005     0.887758717794      -0.442748528005     0.0431034121439     0.0785776854162     
9400000000.0        0.0438916850196     0.0791564165475     0.885473784139      -0.447114202405     0.885473784139      -0.447114202405     0.0438916850196     0.0791564165475     
9500000000.0        0.044685653922      0.0797272273651     0.883167016038      -0.451467563656     0.883167016038      -0.451467563656     0.044685653922      0.0797272273651     
9600000000.0        0.0454852393404     0.080290063833      0.880838490599      -0.455808501095     0.880838490599      -0.455808501095     0.0454852393404     0.080290063833      
9700000000.0        0.0462903612604     0.0808448727451     0.878488285512      -0.460136904698     0.878488285512      -0.460136904698     0.0462903612604     0.0808448727451     
9800000000.0        0.0471009391734     0.0813916017296     0.876116479046      -0.464452665081     0.876116479046      -0.464452665081     0.0471009391734     0.0813916017296     
9900000000.0        0.0479168920858     0.081930199253      0.873723150033      -0.468755673501     0.873723150033      -0.468755673501     0.0479168920858     0.081930199253      
10000000000.0       0.0487381385283     0.0824606146237     0.87130837787       -0.473045821864     0.87130837787       -0.473045821864     0.0487381385283     0.0824606146237     
