# Hz S RI R 50.00 
100000000.0         3.79516670721e-05   -0.00400951684208   0.999919335129      -0.00419076900389   0.999919335129      -0.00419076900389   3.79516670721e-05   -0.00400951684208   
200000000.0         -1.60979074978e-05  -0.00801859314535   0.999864431022      -0.00838110202833   0.999864431022      -0.00838110202833   -1.6097907498e-05   -0.00801859314535   
300000000.0         -0.000103844254312  -0.0120268369816    0.999776002749      -0.0125706098209    0.999776002749      -0.0125706098209    -0.000103844254312  -0.0120268369816    
400000000.0         -0.000225220312301  -0.0160338524296    0.999654015156      -0.0167588985137    0.999654015156      -0.0167588985137    -0.000225220312301  -0.0160338524296    
500000000.0         -0.000380184253707  -0.0200392417854    0.999498470859      -0.0209455721647    0.999498470859      -0.0209455721647    -0.000380184253707  -0.0200392417854    
600000000.0         -0.000568697583589  -0.0240426064239    0.999309388431      -0.0251302337253    0.999309388431      -0.0251302337253    -0.000568697583589  -0.0240426064239    
700000000.0         -0.000790719568848  -0.0280435473022    0.99908679688       -0.029312485595     0.99908679688       -0.029312485595     -0.000790719568848  -0.0280435473022    
800000000.0         -0.00104620520498   -0.0320416653125    0.998830733642      -0.033491930006     0.998830733642      -0.033491930006     -0.00104620520498   -0.0320416653125    
900000000.0         -0.00133510431382   -0.0360365615577    0.998541243684      -0.037668169318     0.998541243684      -0.037668169318     -0.00133510431382   -0.0360365615577    
1000000000.0        -0.00165736109187   -0.0400278375839    0.998218379054      -0.0418408062648    0.998218379054      -0.0418408062648    -0.00165736109187   -0.0400278375839    
1100000000.0        -0.00201291386671   -0.0440150955839    0.99786219861       -0.0460094441683    0.99786219861       -0.0460094441683    -0.00201291386671   -0.0440150955839    
1200000000.0        -0.00240169496084   -0.0479979385839    0.997472767868      -0.0501736871323    0.997472767868      -0.0501736871323    -0.00240169496084   -0.0479979385839    
1300000000.0        -0.00282363061586   -0.0519759706158    0.997050158878      -0.0543331402215    0.997050158878      -0.0543331402215    -0.00282363061586   -0.0519759706158    
1400000000.0        -0.00327864095353   -0.0559487968805    0.996594450148      -0.058487409629     0.996594450148      -0.058487409629     -0.00327864095353   -0.0559487968805    
1500000000.0        -0.00376663996055   -0.0599160239042    0.996105726569      -0.0626361028372    0.996105726569      -0.0626361028372    -0.00376663996055   -0.0599160239042    
1600000000.0        -0.00428753548993   -0.0638772596883    0.99558407936       -0.0667788287704    0.99558407936       -0.0667788287704    -0.00428753548993   -0.0638772596883    
1700000000.0        -0.00484122927411   -0.0678321138542    0.995029606008      -0.0709151979424    0.995029606008      -0.0709151979424    -0.00484122927411   -0.0678321138542    
1800000000.0        -0.00542761694756   -0.0717801977849    0.994442410217      -0.0750448226011    0.994442410217      -0.0750448226011    -0.00542761694756   -0.0717801977849    
1900000000.0        -0.00604658807645   -0.0757211247622    0.993822601854      -0.0791673168669    0.993822601854      -0.0791673168669    -0.00604658807645   -0.0757211247622    
2000000000.0        -0.00669802619456   -0.0796545101009    0.993170296895      -0.0832822968693    0.993170296895      -0.0832822968693    -0.00669802619456   -0.0796545101009    
2100000000.0        -0.00738180884454   -0.0835799712804    0.992485617371      -0.0873893808795    0.992485617371      -0.0873893808795    -0.00738180884454   -0.0835799712804    
2200000000.0        -0.00809780762366   -0.0874971280734    0.99176869131       -0.0914881894408    0.99176869131       -0.0914881894408    -0.00809780762366   -0.0874971280734    
2300000000.0        -0.00884588823375   -0.0914056026711    0.991019652678      -0.0955783454952    0.991019652678      -0.0955783454952    -0.00884588823375   -0.0914056026711    
2400000000.0        -0.00962591053512   -0.0953050198074    0.990238641322      -0.0996594745081    0.990238641322      -0.0996594745081    -0.00962591053512   -0.0953050198074    
2500000000.0        -0.0104377286039    -0.0991950068793    0.989425802904      -0.10373120459      0.989425802904      -0.10373120459      -0.0104377286039    -0.0991950068793    
2600000000.0        -0.0112811907927    -0.103075194066     0.988581288833      -0.107793166617     0.988581288833      -0.107793166617     -0.0112811907927    -0.103075194066     
2700000000.0        -0.0121561397947    -0.106945214444     0.987705256205      -0.111844994346     0.987705256205      -0.111844994346     -0.0121561397947    -0.106945214444     
2800000000.0        -0.0130624127104    -0.110804704103     0.986797867725      -0.115886324531     0.986797867725      -0.115886324531     -0.0130624127104    -0.110804704103     
2900000000.0        -0.0139998411174    -0.114653302254     0.985859291639      -0.119916797033     0.985859291639      -0.119916797033     -0.0139998411174    -0.114653302254     
3000000000.0        -0.0149682511428    -0.11849065134      0.984889701659      -0.123936054931     0.984889701659      -0.123936054931     -0.0149682511428    -0.11849065134      
3100000000.0        -0.0159674635384    -0.122316397145     0.983889276886      -0.12794374463      0.983889276886      -0.12794374463      -0.0159674635384    -0.122316397145     
3200000000.0        -0.0169972937585    -0.126130188891     0.982858201728      -0.131939515962     0.982858201728      -0.131939515962     -0.0169972937585    -0.126130188891     
3300000000.0        -0.0180575520396    -0.12993167935      0.981796665823      -0.135923022294     0.981796665823      -0.135923022294     -0.0180575520396    -0.12993167935      
3400000000.0        -0.0191480434829    -0.133720524932     0.980704863952      -0.13989392062      0.980704863952      -0.13989392062      -0.0191480434829    -0.133720524932     
3500000000.0        -0.0202685681392    -0.137496385789     0.979582995954      -0.143851871664     0.979582995954      -0.143851871664     -0.0202685681392    -0.137496385789     
3600000000.0        -0.0214189210951    -0.141258925907     0.978431266641      -0.147796539974     0.978431266641      -0.147796539974     -0.0214189210951    -0.141258925907     
3700000000.0        -0.0225988925622    -0.145007813197     0.977249885706      -0.151727594011     0.977249885706      -0.151727594011     -0.0225988925622    -0.145007813197     
3800000000.0        -0.0238082679674    -0.148742719585     0.97603906763       -0.155644706237     0.97603906763       -0.155644706237     -0.0238082679674    -0.148742719585     
3900000000.0        -0.0250468280461    -0.152463321095     0.974799031593      -0.159547553209     0.974799031593      -0.159547553209     -0.0250468280461    -0.152463321095     
4000000000.0        -0.0263143489361    -0.156169297938     0.973530001376      -0.163435815654     0.973530001376      -0.163435815654     -0.0263143489361    -0.156169297938     
4100000000.0        -0.0276106022737    -0.159860334589     0.972232205268      -0.167309178556     0.972232205268      -0.167309178556     -0.0276106022737    -0.159860334589     
4200000000.0        -0.0289353552917    -0.163536119864     0.970905875961      -0.171167331232     0.970905875961      -0.171167331232     -0.0289353552917    -0.163536119864     
4300000000.0        -0.0302883709182    -0.167196346999     0.969551250458      -0.17500996741      0.969551250458      -0.17500996741      -0.0302883709182    -0.167196346999     
4400000000.0        -0.0316694078778    -0.170840713722     0.968168569969      -0.178836785298     0.968168569969      -0.178836785298     -0.0316694078778    -0.170840713722     
4500000000.0        -0.033078220793     -0.174468922322     0.966758079806      -0.182647487658     0.966758079806      -0.182647487658     -0.033078220793     -0.174468922322     
4600000000.0        -0.0345145602878    -0.178080679714     0.965320029285      -0.18644178187      0.965320029285      -0.18644178187      -0.0345145602878    -0.178080679714     
4700000000.0        -0.0359781730921    -0.181675697507     0.963854671617      -0.190219380001     0.963854671617      -0.190219380001     -0.0359781730921    -0.181675697507     
4800000000.0        -0.0374688021473    -0.185253692066     0.962362263803      -0.193979998863     0.962362263803      -0.193979998863     -0.0374688021473    -0.185253692066     
4900000000.0        -0.038986186713     -0.188814384565     0.960843066528      -0.197723360072     0.960843066528      -0.197723360072     -0.038986186713     -0.188814384565     
5000000000.0        -0.0405300624739    -0.192357501049     0.959297344055      -0.201449190106     0.959297344055      -0.201449190106     -0.0405300624739    -0.192357501049     
5100000000.0        -0.0421001616488    -0.195882772485     0.957725364112      -0.205157220358     0.957725364112      -0.205157220358     -0.0421001616488    -0.195882772485     
5200000000.0        -0.0436962130996    -0.199389934811     0.956127397788      -0.208847187185     0.956127397788      -0.208847187185     -0.0436962130996    -0.199389934811     
5300000000.0        -0.0453179424408    -0.202878728983     0.954503719419      -0.212518831955     0.954503719419      -0.212518831955     -0.0453179424408    -0.202878728983     
5400000000.0        -0.04696507215      -0.206348901022     0.952854606479      -0.216171901094     0.952854606479      -0.216171901094     -0.04696507215      -0.206348901022     
5500000000.0        -0.0486373216788    -0.209800202055     0.95118033947       -0.219806146128     0.95118033947       -0.219806146128     -0.0486373216788    -0.209800202055     
5600000000.0        -0.0503344075643    -0.213232388351     0.949481201809      -0.223421323717     0.949481201809      -0.223421323717     -0.0503344075643    -0.213232388351     
5700000000.0        -0.0520560435407    -0.216645221361     0.947757479717      -0.227017195697     0.947757479717      -0.227017195697     -0.0520560435407    -0.216645221361     
5800000000.0        -0.0538019406509    -0.220038467748     0.946009462106      -0.230593529111     0.946009462106      -0.230593529111     -0.0538019406509    -0.220038467748     
5900000000.0        -0.0555718073592    -0.223411899419     0.94423744047       -0.234150096239     0.94423744047       -0.234150096239     -0.0555718073592    -0.223411899419     
6000000000.0        -0.0573653496634    -0.226765293552     0.942441708768      -0.237686674626     0.942441708768      -0.237686674626     -0.0573653496634    -0.226765293552     
6100000000.0        -0.0591822712068    -0.230098432619     0.940622563314      -0.241203047107     0.940622563314      -0.241203047107     -0.0591822712068    -0.230098432619     
6200000000.0        -0.061022273391     -0.233411104413     0.938780302665      -0.24469900183      0.938780302665      -0.24469900183      -0.061022273391     -0.233411104413     
6300000000.0        -0.0628850554875    -0.236703102063     0.93691522751       -0.248174332273     0.93691522751       -0.248174332273     -0.0628850554875    -0.236703102063     
6400000000.0        -0.0647703147505    -0.23997422405      0.935027640553      -0.251628837263     0.935027640553      -0.251628837263     -0.0647703147505    -0.23997422405      
6500000000.0        -0.0666777465275    -0.243224274225     0.933117846407      -0.255062320989     0.933117846407      -0.255062320989     -0.0666777465275    -0.243224274225     
6600000000.0        -0.0686070443719    -0.246453061815     0.931186151479      -0.258474593015     0.931186151479      -0.258474593015     -0.0686070443719    -0.246453061815     
6700000000.0        -0.0705579001533    -0.249660401437     0.929232863861      -0.261865468285     0.929232863861      -0.261865468285     -0.0705579001533    -0.249660401437     
6800000000.0        -0.0725300041682    -0.252846113099     0.927258293217      -0.265234767132     0.927258293217      -0.265234767132     -0.0725300041682    -0.252846113099     
6900000000.0        -0.0745230452501    -0.256010022207     0.925262750674      -0.26858231528      0.925262750674      -0.26858231528      -0.0745230452501    -0.256010022207     
7000000000.0        -0.076536710879     -0.259151959562     0.923246548716      -0.271907943848     0.923246548716      -0.271907943848     -0.076536710879     -0.259151959562     
7100000000.0        -0.0785706872901    -0.262271761365     0.921210001068      -0.275211489342     0.921210001068      -0.275211489342     -0.0785706872901    -0.262271761365     
7200000000.0        -0.080624659582     -0.265369269204     0.919153422594      -0.27849279366      0.919153422594      -0.27849279366      -0.080624659582     -0.265369269204     
7300000000.0        -0.0826983118236    -0.268444330055     0.917077129188      -0.281751704075     0.917077129188      -0.281751704075     -0.0826983118236    -0.268444330055     
7400000000.0        -0.0847913271612    -0.271496796268     0.914981437667      -0.284988073235     0.914981437667      -0.284988073235     -0.0847913271612    -0.271496796268     
7500000000.0        -0.0869033879236    -0.274526525558     0.912866665663      -0.288201759148     0.912866665663      -0.288201759148     -0.0869033879236    -0.274526525558     
7600000000.0        -0.0890341757268    -0.277533380992     0.910733131524      -0.291392625168     0.910733131524      -0.291392625168     -0.0890341757268    -0.277533380992     
7700000000.0        -0.0911833715777    -0.280517230971     0.908581154207      -0.29456053998      0.908581154207      -0.29456053998      -0.0911833715777    -0.280517230971     
7800000000.0        -0.0933506559768    -0.283477949213     0.906411053174      -0.297705377581     0.906411053174      -0.297705377581     -0.0933506559768    -0.283477949213     
7900000000.0        -0.0955357090192    -0.286415414733     0.904223148293      -0.300827017261     0.904223148293      -0.300827017261     -0.0955357090192    -0.286415414733     
8000000000.0        -0.0977382104957    -0.289329511818     0.902017759737      -0.303925343582     0.902017759737      -0.303925343582     -0.0977382104957    -0.289329511818     
8100000000.0        -0.099957839991     -0.292220130008     0.899795207884      -0.30700024635      0.899795207884      -0.30700024635      -0.099957839991     -0.292220130008     
8200000000.0        -0.102194276982     -0.295087164064     0.897555813221      -0.310051620589     0.897555813221      -0.310051620589     -0.102194276982     -0.295087164064     
8300000000.0        -0.104447200936     -0.29793051394      0.895299896246      -0.313079366516     0.895299896246      -0.313079366516     -0.104447200936     -0.29793051394      
8400000000.0        -0.106716291402     -0.300750084757     0.893027777371      -0.316083389508     0.893027777371      -0.316083389508     -0.106716291402     -0.300750084757     
8500000000.0        -0.109001228108     -0.303545786765     0.890739776832      -0.319063600068     0.890739776832      -0.319063600068     -0.109001228108     -0.303545786765     
8600000000.0        -0.111301691054     -0.306317535312     0.888436214595      -0.322019913796     0.888436214595      -0.322019913796     -0.111301691054     -0.306317535312     
8700000000.0        -0.113617360601     -0.309065250807     0.886117410261      -0.324952251346     0.886117410261      -0.324952251346     -0.113617360601     -0.309065250807     
8800000000.0        -0.115947917559     -0.311788858683     0.883783682983      -0.327860538395     0.883783682983      -0.327860538395     -0.115947917559     -0.311788858683     
8900000000.0        -0.118293043281     -0.314488289358     0.881435351373      -0.330744705601     0.881435351373      -0.330744705601     -0.118293043281     -0.314488289358     
9000000000.0        -0.120652419744     -0.317163478191     0.879072733418      -0.33360468856      0.879072733418      -0.33360468856      -0.120652419744     -0.317163478191     
9100000000.0        -0.123025729637     -0.319814365442     0.876696146392      -0.336440427767     0.876696146392      -0.336440427767     -0.123025729637     -0.319814365442     
9200000000.0        -0.125412656444     -0.32244089623      0.874305906775      -0.33925186857      0.874305906775      -0.33925186857      -0.125412656444     -0.32244089623      
9300000000.0        -0.127812884523     -0.32504302048      0.871902330172      -0.342038961123     0.871902330172      -0.342038961123     -0.127812884523     -0.32504302048      
9400000000.0        -0.130226099191     -0.327620692885     0.86948573123       -0.344801660344     0.86948573123       -0.344801660344     -0.130226099191     -0.327620692885     
9500000000.0        -0.132651986802     -0.330173872851     0.86705642356       -0.347539925861     0.86705642356       -0.347539925861     -0.132651986802     -0.330173872851     
9600000000.0        -0.135090234818     -0.332702524452     0.864614719661      -0.350253721965     0.864614719661      -0.350253721965     -0.135090234818     -0.332702524452     
9700000000.0        -0.137540531892     -0.335206616373     0.862160930845      -0.352943017562     0.862160930845      -0.352943017562     -0.137540531892     -0.335206616373     
9800000000.0        -0.140002567936     -0.337686121867     0.859695367164      -0.355607786114     0.859695367164      -0.355607786114     -0.140002567936     -0.337686121867     
9900000000.0        -0.142476034198     -0.340141018692     0.857218337333      -0.358248005593     0.857218337333      -0.358248005593     -0.142476034198     -0.340141018692     
10000000000.0       -0.144960623325     -0.342571289063     0.854730148667      -0.360863658423     0.854730148667      -0.360863658423     -0.144960623325     -0.342571289063     
