# Hz S RI R 50.00 
100000000.0         0.002648789545      0.000163269074818   0.997343249879      -0.00306088834292   0.997343249879      -0.00306088834292   0.002648789545      0.000163269074819   
200000000.0         0.00266660101666    0.000326419370511   0.99731007395       -0.00612164648819   0.99731007395       -0.00612164648819   0.00266660101666    0.00032641937051    
300000000.0         0.00268076600767    0.000489486714863   0.997272140313      -0.00918230146921   0.997272140313      -0.00918230146921   0.00268076600767    0.000489486714863   
400000000.0         0.00269357853115    0.000652477992489   0.997227154603      -0.0122428481509    0.997227154603      -0.0122428481509    0.00269357853115    0.000652477992489   
500000000.0         0.00270592142642    0.000815393609598   0.997174233594      -0.0153032732979    0.997174233594      -0.0153032732979    0.00270592142642    0.000815393609597   
600000000.0         0.00271824450713    0.000978231205748   0.997112927058      -0.0183635598486    0.997112927058      -0.0183635598486    0.00271824450713    0.000978231205748   
700000000.0         0.00273081314902    0.00114098696264    0.997042969187      -0.0214236885105    0.997042969187      -0.0214236885105    0.00273081314902    0.00114098696264    
800000000.0         0.00274379899214    0.00130365620024    0.996964187892      -0.0244836385273    0.996964187892      -0.0244836385273    0.00274379899214    0.00130365620024    
900000000.0         0.00275732031544    0.00146623369079    0.996876464434      -0.0275433881059    0.996876464434      -0.0275433881059    0.00275732031544    0.00146623369079    
1000000000.0        0.0027714624964     0.0016287138411     0.996779712973      -0.0306029146775    0.996779712973      -0.0306029146775    0.0027714624964     0.0016287138411     
1100000000.0        0.00278628938122    0.00179109080598    0.996673869195      -0.0336621950694    0.996673869195      -0.0336621950694    0.00278628938122    0.00179109080598    
1200000000.0        0.00280185005836    0.00195335856255    0.996558883546      -0.0367212056238    0.996558883546      -0.0367212056238    0.00280185005836    0.00195335856255    
1300000000.0        0.0028181831189     0.00211551096099    0.996434716972      -0.0397799222831    0.996434716972      -0.0397799222831    0.0028181831189     0.00211551096099    
1400000000.0        0.00283531945627    0.00227754176037    0.996301338124      -0.0428383206543    0.996301338124      -0.0428383206543    0.00283531945627    0.00227754176037    
1500000000.0        0.00285328417356    0.00243944465453    0.99615872145       -0.0458963760574    0.99615872145       -0.0458963760574    0.00285328417356    0.00243944465453    
1600000000.0        0.00287209792275    0.00260121329138    0.996006845861      -0.048954063564     0.996006845861      -0.048954063564     0.00287209792275    0.00260121329138    
1700000000.0        0.00289177786974    0.00276284128734    0.995845693766      -0.0520113580277    0.995845693766      -0.0520113580277    0.00289177786974    0.00276284128734    
1800000000.0        0.00291233840511    0.00292432223857    0.995675250364      -0.0550682341094    0.995675250364      -0.0550682341094    0.00291233840511    0.00292432223857    
1900000000.0        0.00293379167804    0.00308564972955    0.995495503111      -0.0581246662974    0.995495503111      -0.0581246662974    0.00293379167804    0.00308564972955    
2000000000.0        0.0029561480042     0.00324681734       0.995306441313      -0.061180628925     0.995306441313      -0.061180628925     0.0029561480042     0.00324681734       
2100000000.0        0.00297941618204    0.00340781865025    0.995108055816      -0.0642360961848    0.995108055816      -0.0642360961848    0.00297941618204    0.00340781865025    
2200000000.0        0.00300360374144    0.00356864724565    0.99490033875       -0.067291042141     0.99490033875       -0.067291042141     0.00300360374144    0.00356864724565    
2300000000.0        0.00302871714158    0.00372929672006    0.994683283341      -0.0703454407403    0.994683283341      -0.0703454407403    0.00302871714158    0.00372929672006    
2400000000.0        0.00305476193007    0.00388976067879    0.994456883749      -0.0733992658213    0.994456883749      -0.0733992658213    0.00305476193007    0.00388976067879    
2500000000.0        0.00308174287222    0.00405003274093    0.994221134939      -0.0764524911221    0.994221134939      -0.0764524911221    0.00308174287222    0.00405003274093    
2600000000.0        0.0031096640571     0.00421010654133    0.993976032581      -0.0795050902882    0.993976032581      -0.0795050902882    0.0031096640571     0.00421010654133    
2700000000.0        0.00313852898512    0.00436997573221    0.993721572956      -0.0825570368785    0.993721572956      -0.0825570368785    0.00313852898512    0.00436997573221    
2800000000.0        0.00316834064106    0.00452963398449    0.993457752891      -0.0856083043708    0.993457752891      -0.0856083043708    0.00316834064106    0.00452963398449    
2900000000.0        0.00319910155531    0.00468907498895    0.993184569696      -0.0886588661674    0.993184569696      -0.0886588661674    0.00319910155531    0.00468907498895    
3000000000.0        0.00323081385561    0.00484829245717    0.992902021111      -0.0917086955993    0.992902021111      -0.0917086955993    0.00323081385561    0.00484829245717    
3100000000.0        0.00326347931093    0.00500728012231    0.992610105269      -0.0947577659305    0.992610105269      -0.0947577659305    0.00326347931093    0.00500728012231    
3200000000.0        0.00329709936911    0.00516603173979    0.992308820651      -0.0978060503621    0.992308820651      -0.0978060503621    0.00329709936911    0.00516603173979    
3300000000.0        0.00333167518907    0.00532454108787    0.991998166064      -0.100853522035     0.991998166064      -0.100853522035     0.00333167518907    0.00532454108787    
3400000000.0        0.00336720766863    0.0054828019681     0.991678140605      -0.103900154035     0.991678140605      -0.103900154035     0.00336720766863    0.0054828019681     
3500000000.0        0.00340369746875    0.00564080820575    0.991348743644      -0.106945919392     0.991348743644      -0.106945919392     0.00340369746875    0.00564080820575    
3600000000.0        0.00344114503449    0.00579855365014    0.991009974802      -0.109990791087     0.991009974802      -0.109990791087     0.00344114503449    0.00579855365014    
3700000000.0        0.00347955061346    0.00595603217494    0.990661833932      -0.113034742053     0.990661833932      -0.113034742053     0.00347955061346    0.00595603217494    
3800000000.0        0.00351891427201    0.00611323767838    0.990304321104      -0.116077745175     0.990304321104      -0.116077745175     0.00351891427201    0.00611323767838    
3900000000.0        0.00355923590946    0.00627016408352    0.989937436593      -0.119119773296     0.989937436593      -0.119119773296     0.00355923590946    0.00627016408352    
4000000000.0        0.00360051527073    0.00642680533835    0.989561180866      -0.122160799216     0.989561180866      -0.122160799216     0.00360051527073    0.00642680533835    
4100000000.0        0.00364275195752    0.00658315541601    0.989175554572      -0.125200795697     0.989175554572      -0.125200795697     0.00364275195752    0.00658315541601    
4200000000.0        0.00368594543832    0.00673920831486    0.98878055853       -0.128239735462     0.98878055853       -0.128239735462     0.00368594543832    0.00673920831486    
4300000000.0        0.00373009505728    0.00689495805858    0.988376193726      -0.131277591198     0.988376193726      -0.131277591198     0.00373009505728    0.00689495805858    
4400000000.0        0.00377520004224    0.0070503986963     0.987962461301      -0.134314335555     0.987962461301      -0.134314335555     0.00377520004224    0.0070503986963     
4500000000.0        0.00382125951186    0.00720552430263    0.987539362546      -0.137349941155     0.987539362546      -0.137349941155     0.00382125951186    0.00720552430263    
4600000000.0        0.00386827248212    0.00736032897773    0.987106898896      -0.140384380583     0.987106898896      -0.140384380583     0.00386827248212    0.00736032897773    
4700000000.0        0.00391623787216    0.00751480684734    0.986665071926      -0.143417626396     0.986665071926      -0.143417626396     0.00391623787216    0.00751480684734    
4800000000.0        0.00396515450954    0.00766895206284    0.986213883345      -0.146449651123     0.986213883345      -0.146449651123     0.00396515450954    0.00766895206284    
4900000000.0        0.00401502113506    0.00782275880126    0.98575333499       -0.149480427264     0.98575333499       -0.149480427264     0.00401502113506    0.00782275880126    
5000000000.0        0.00406583640716    0.00797622126532    0.985283428828      -0.152509927292     0.985283428828      -0.152509927292     0.00406583640716    0.00797622126532    
5100000000.0        0.00411759890586    0.00812933368339    0.984804166944      -0.155538123655     0.984804166944      -0.155538123655     0.00411759890586    0.00812933368339    
5200000000.0        0.00417030713643    0.00828209030958    0.984315551546      -0.158564988776     0.984315551546      -0.158564988776     0.00417030713643    0.00828209030958    
5300000000.0        0.00422395953272    0.00843448542368    0.983817584958      -0.161590495058     0.983817584958      -0.161590495058     0.00422395953272    0.00843448542368    
5400000000.0        0.00427855446021    0.00858651333118    0.983310269618      -0.164614614877     0.983310269618      -0.164614614877     0.00427855446021    0.00858651333118    
5500000000.0        0.00433409021889    0.00873816836328    0.982793608075      -0.16763732059      0.982793608075      -0.16763732059      0.00433409021889    0.00873816836328    
5600000000.0        0.00439056504576    0.00888944487686    0.982267602989      -0.170658584534     0.982267602989      -0.170658584534     0.00439056504576    0.00888944487686    
5700000000.0        0.00444797711733    0.00904033725449    0.981732257126      -0.173678379025     0.981732257126      -0.173678379025     0.00444797711733    0.00904033725449    
5800000000.0        0.00450632455174    0.00919083990442    0.981187573361      -0.176696676363     0.981187573361      -0.176696676363     0.00450632455174    0.00919083990442    
5900000000.0        0.00456560541091    0.00934094726057    0.980633554671      -0.179713448828     0.980633554671      -0.179713448828     0.00456560541091    0.00934094726057    
6000000000.0        0.00462581770238    0.00949065378248    0.980070204136      -0.182728668683     0.980070204136      -0.182728668683     0.00462581770238    0.00949065378248    
6100000000.0        0.00468695938112    0.00963995395536    0.979497524939      -0.185742308175     0.979497524939      -0.185742308175     0.00468695938112    0.00963995395536    
6200000000.0        0.00474902835116    0.00978884229003    0.978915520363      -0.188754339538     0.978915520363      -0.188754339538     0.00474902835116    0.00978884229003    
6300000000.0        0.00481202246716    0.00993731332291    0.978324193788      -0.191764734988     0.978324193788      -0.191764734988     0.00481202246716    0.00993731332291    
6400000000.0        0.00487593953583    0.010085361616      0.977723548696      -0.19477346673      0.977723548696      -0.19477346673      0.00487593953583    0.010085361616      
6500000000.0        0.00494077731729    0.010232981757      0.977113588664      -0.197780506952     0.977113588664      -0.197780506952     0.00494077731729    0.010232981757      
6600000000.0        0.00500653352634    0.0103801683588     0.976494317366      -0.200785827834     0.976494317366      -0.200785827834     0.00500653352634    0.0103801683588     
6700000000.0        0.00507320583362    0.0105269160604     0.975865738571      -0.203789401542     0.975865738571      -0.203789401542     0.00507320583362    0.0105269160604     
6800000000.0        0.00514079186677    0.0106732195258     0.975227856144      -0.20679120023      0.975227856144      -0.20679120023      0.00514079186677    0.0106732195258     
6900000000.0        0.00520928921145    0.0108190734448     0.974580674042      -0.209791196043     0.974580674042      -0.209791196043     0.00520928921145    0.0108190734448     
7000000000.0        0.00527869541235    0.0109644725326     0.973924196319      -0.212789361115     0.973924196319      -0.212789361115     0.00527869541235    0.0109644725326     
7100000000.0        0.00534900797409    0.0111094115299     0.973258427119      -0.215785667572     0.973258427119      -0.215785667572     0.00534900797409    0.0111094115299     
7200000000.0        0.00542022436217    0.0112538852029     0.97258337068       -0.21878008753      0.97258337068       -0.21878008753      0.00542022436217    0.0112538852029     
7300000000.0        0.00549234200374    0.011397888343      0.971899031332      -0.221772593098     0.971899031332      -0.221772593098     0.00549234200374    0.011397888343      
7400000000.0        0.00556535828846    0.0115414157674     0.971205413495      -0.224763156377     0.971205413495      -0.224763156377     0.00556535828846    0.0115414157674     
7500000000.0        0.00563927056918    0.0116844623185     0.970502521682      -0.227751749461     0.970502521682      -0.227751749461     0.00563927056918    0.0116844623185     
7600000000.0        0.00571407616275    0.011827022864      0.969790360496      -0.230738344437     0.969790360496      -0.230738344437     0.00571407616275    0.011827022864      
7700000000.0        0.0057897723506     0.0119690922973     0.969068934631      -0.233722913388     0.969068934631      -0.233722913388     0.0057897723506     0.0119690922973     
7800000000.0        0.00586635637949    0.0121106655368     0.968338248868      -0.236705428391     0.968338248868      -0.236705428391     0.00586635637949    0.0121106655368     
7900000000.0        0.00594382546204    0.0122517375265     0.967598308083      -0.239685861516     0.967598308083      -0.239685861516     0.00594382546204    0.0122517375265     
8000000000.0        0.00602217677739    0.0123923032358     0.966849117237      -0.242664184833     0.966849117237      -0.242664184833     0.00602217677739    0.0123923032358     
8100000000.0        0.00610140747175    0.0125323576591     0.966090681381      -0.245640370404     0.966090681381      -0.245640370404     0.00610140747175    0.0125323576591     
8200000000.0        0.00618151465891    0.0126718958165     0.965323005658      -0.24861439029      0.965323005658      -0.24861439029      0.00618151465891    0.0126718958165     
8300000000.0        0.0062624954208     0.0128109127531     0.964546095296      -0.251586216551     0.964546095296      -0.251586216551     0.0062624954208     0.0128109127531     
8400000000.0        0.00634434680799    0.0129494035395     0.963759955614      -0.254555821241     0.963759955614      -0.254555821241     0.00634434680799    0.0129494035395     
8500000000.0        0.00642706584011    0.0130873632715     0.962964592017      -0.257523176414     0.962964592017      -0.257523176414     0.00642706584011    0.0130873632715     
8600000000.0        0.0065106495064     0.0132247870703     0.96216001          -0.260488254124     0.96216001          -0.260488254124     0.0065106495064     0.0132247870703     
8700000000.0        0.00659509476608    0.0133616700821     0.961346215146      -0.263451026423     0.961346215146      -0.263451026423     0.00659509476608    0.0133616700821     
8800000000.0        0.00668039854881    0.0134980074786     0.960523213125      -0.266411465362     0.960523213125      -0.266411465362     0.00668039854881    0.0134980074786     
8900000000.0        0.0067665577551     0.0136337944566     0.959691009696      -0.269369542993     0.959691009696      -0.269369542993     0.0067665577551     0.0136337944566     
9000000000.0        0.00685356925669    0.0137690262383     0.958849610703      -0.272325231369     0.958849610703      -0.272325231369     0.00685356925669    0.0137690262383     
9100000000.0        0.00694142989696    0.013903698071      0.95799902208       -0.275278502543     0.95799902208       -0.275278502543     0.00694142989696    0.013903698071      
9200000000.0        0.00703013649129    0.0140378052273     0.957139249848      -0.278229328571     0.957139249848      -0.278229328571     0.00703013649129    0.0140378052273     
9300000000.0        0.00711968582739    0.0141713430048     0.956270300113      -0.28117768151      0.956270300113      -0.28117768151      0.00711968582739    0.0141713430048     
9400000000.0        0.00721007466571    0.0143043067267     0.955392179071      -0.284123533418     0.955392179071      -0.284123533418     0.00721007466571    0.0143043067267     
9500000000.0        0.00730129973972    0.0144366917411     0.954504893003      -0.287066856359     0.954504893003      -0.287066856359     0.00730129973972    0.0144366917411     
9600000000.0        0.00739335775627    0.0145684934215     0.953608448279      -0.290007622397     0.953608448279      -0.290007622397     0.00739335775627    0.0145684934215     
9700000000.0        0.00748624539588    0.0146997071663     0.952702851354      -0.292945803603     0.952702851354      -0.292945803603     0.00748624539588    0.0146997071663     
9800000000.0        0.00757995931307    0.0148303283995     0.95178810877       -0.295881372048     0.95178810877       -0.295881372048     0.00757995931307    0.0148303283995     
9900000000.0        0.00767449613668    0.0149603525699     0.950864227157      -0.298814299812     0.950864227157      -0.298814299812     0.00767449613668    0.0149603525699     
10000000000.0       0.00776985247009    0.0150897751518     0.949931213231      -0.301744558975     0.949931213231      -0.301744558975     0.00776985247009    0.0150897751518     
