# Hz S RI R 50.00 
100000000.0         0.00409544206699    0.000124121019056   0.995903518927      -0.000165250028639  0.995903518927      -0.000165250028639  0.00409544206699    0.000124121019056   
200000000.0         0.00412223327307    0.000248226632668   0.99587668702       -0.000330484780955  0.99587668702       -0.000330484780955  0.00412223327307    0.000248226632668   
300000000.0         0.00414171782906    0.000372323312468   0.995857160069      -0.000495710797086  0.995857160069      -0.000495710797086  0.00414171782906    0.000372323312468   
400000000.0         0.00415746686359    0.000496413361183   0.995841366946      -0.000660930433029  0.995841366946      -0.000660930433029  0.00415746686359    0.000496413361183   
500000000.0         0.00417086098576    0.00062049810481    0.99582792704       -0.000826145060489  0.99582792704       -0.000826145060489  0.00417086098576    0.00062049810481    
600000000.0         0.00418260693144    0.000744578434224   0.995816133616      -0.00099135561111   0.995816133616      -0.00099135561111   0.00418260693144    0.000744578434224   
700000000.0         0.00419312374314    0.000868655000306   0.995805567631      -0.00115656277304   0.995805567631      -0.00115656277304   0.00419312374314    0.000868655000306   
800000000.0         0.00420268392779    0.000992728304798   0.995795956579      -0.00132176708247   0.995795956579      -0.00132176708247   0.00420268392779    0.000992728304798   
900000000.0         0.0042114764004     0.00111679874913    0.995787111544      -0.00148696897316   0.995787111544      -0.00148696897316   0.0042114764004     0.00111679874913    
1000000000.0        0.004219638435      0.00124086666352    0.995778895252      -0.0016521688058    0.995778895252      -0.0016521688058    0.004219638435      0.00124086666352    
1100000000.0        0.00422727345175    0.00136493232546    0.995771204282      -0.00181736688671   0.995771204282      -0.00181736688671   0.00422727345175    0.00136493232546    
1200000000.0        0.00423446163094    0.00148899597209    0.995763958455      -0.00198256348058   0.995763958455      -0.00198256348058   0.00423446163094    0.00148899597209    
1300000000.0        0.00424126660031    0.00161305780889    0.995757094142      -0.00214775881925   0.995757094142      -0.00214775881925   0.00424126660031    0.00161305780889    
1400000000.0        0.00424773983723    0.00173711801595    0.995750559867      -0.00231295310815   0.995750559867      -0.00231295310815   0.00424773983723    0.00173711801595    
1500000000.0        0.00425392367226    0.00186117675275    0.995744313298      -0.00247814653103   0.995744313298      -0.00247814653103   0.00425392367226    0.00186117675275    
1600000000.0        0.00425985340213    0.00198523416161    0.995738319138      -0.00264333925366   0.995738319138      -0.00264333925366   0.00425985340213    0.00198523416161    
1700000000.0        0.00426555881454    0.00210929037044    0.995732547599      -0.00280853142673   0.995732547599      -0.00280853142673   0.00426555881454    0.00210929037044    
1800000000.0        0.00427106531296    0.0022333454951     0.995726973279      -0.00297372318794   0.995726973279      -0.00297372318794   0.00427106531296    0.0022333454951     
1900000000.0        0.00427639476337    0.00235739964093    0.995721574311      -0.00313891466398   0.995721574311      -0.00313891466398   0.00427639476337    0.00235739964093    
2000000000.0        0.00428156614155    0.00248145290436    0.995716331719      -0.00330410597189   0.995716331719      -0.00330410597189   0.00428156614155    0.00248145290436    
2100000000.0        0.00428659603617    0.00260550537391    0.995711228914      -0.00346929722036   0.995711228914      -0.00346929722036   0.00428659603617    0.00260550537391    
2200000000.0        0.00429149904492    0.00272955713138    0.995706251298      -0.00363448851066   0.995706251298      -0.00363448851066   0.00429149904492    0.00272955713138    
2300000000.0        0.00429628808997    0.00285360825247    0.995701385949      -0.00379967993753   0.995701385949      -0.00379967993753   0.00429628808997    0.00285360825247    
2400000000.0        0.00430097467215    0.00297765880752    0.995696621367      -0.00396487158994   0.995696621367      -0.00396487158994   0.00430097467215    0.00297765880752    
2500000000.0        0.00430556907776    0.00310170886227    0.995691947264      -0.00413006355155   0.995691947264      -0.00413006355155   0.00430556907776    0.00310170886227    
2600000000.0        0.00431008054844    0.00322575847809    0.995687354399      -0.00429525590145   0.995687354399      -0.00429525590145   0.00431008054844    0.00322575847809    
2700000000.0        0.00431451742157    0.00334980771259    0.995682834435      -0.0044604487145    0.995682834435      -0.0044604487145    0.00431451742157    0.00334980771259    
2800000000.0        0.00431888724756    0.00347385661993    0.99567837982       -0.00462564206174   0.99567837982       -0.00462564206174   0.00431888724756    0.00347385661993    
2900000000.0        0.00432319688823    0.00359790525124    0.995673983693      -0.00479083601072   0.995673983693      -0.00479083601072   0.00432319688823    0.00359790525124    
3000000000.0        0.00432745260008    0.0037219536548     0.995669639798      -0.00495603062586   0.995669639798      -0.00495603062586   0.00432745260008    0.0037219536548     
3100000000.0        0.00433166010498    0.00384600187636    0.995665342411      -0.00512122596867   0.995665342411      -0.00512122596867   0.00433166010498    0.00384600187636    
3200000000.0        0.00433582465079    0.00397004995935    0.995661086286      -0.00528642209802   0.995661086286      -0.00528642209802   0.00433582465079    0.00397004995935    
3300000000.0        0.00433995106333    0.00409409794507    0.995656866596      -0.00545161907038   0.995656866596      -0.00545161907038   0.00433995106333    0.00409409794507    
3400000000.0        0.00434404379134    0.00421814587292    0.995652678892      -0.0056168169399    0.995652678892      -0.0056168169399    0.00434404379134    0.00421814587292    
3500000000.0        0.00434810694548    0.00434219378049    0.995648519063      -0.00578201575872   0.995648519063      -0.00578201575872   0.00434810694548    0.00434219378049    
3600000000.0        0.0043521443323     0.00446624170375    0.995644383304      -0.00594721557706   0.995644383304      -0.00594721557706   0.0043521443323     0.00446624170375    
3700000000.0        0.00435615948408    0.00459028967715    0.99564026808       -0.00611241644334   0.99564026808       -0.00611241644334   0.00435615948408    0.00459028967715    
3800000000.0        0.00436015568483    0.00471433773379    0.995636170109      -0.00627761840435   0.995636170109      -0.00627761840435   0.00436015568483    0.00471433773379    
3900000000.0        0.00436413599344    0.00483838590548    0.995632086331      -0.00644282150532   0.995632086331      -0.00644282150532   0.00436413599344    0.00483838590548    
4000000000.0        0.00436810326402    0.00496243422282    0.995628013891      -0.00660802579009   0.995628013891      -0.00660802579009   0.00436810326402    0.00496243422282    
4100000000.0        0.00437206016393    0.00508648271537    0.995623950123      -0.00677323130112   0.995623950123      -0.00677323130112   0.00437206016393    0.00508648271537    
4200000000.0        0.00437600918994    0.00521053141162    0.99561989253       -0.00693843807967   0.99561989253       -0.00693843807967   0.00437600918994    0.00521053141162    
4300000000.0        0.0043799526826     0.00533458033916    0.995615838769      -0.00710364616581   0.995615838769      -0.00710364616581   0.0043799526826     0.00533458033916    
4400000000.0        0.00438389283903    0.00545862952472    0.995611786646      -0.0072688555985    0.995611786646      -0.0072688555985    0.00438389283903    0.00545862952472    
4500000000.0        0.00438783172456    0.00558267899416    0.995607734093      -0.00743406641571   0.995607734093      -0.00743406641571   0.00438783172456    0.00558267899416    
4600000000.0        0.00439177128302    0.00570672877266    0.995603679166      -0.00759927865442   0.995603679166      -0.00759927865442   0.00439177128302    0.00570672877266    
4700000000.0        0.0043957133462     0.00583077888468    0.995599620035      -0.00776449235069   0.995599620035      -0.00776449235069   0.0043957133462     0.00583077888468    
4800000000.0        0.00439965964223    0.005954829354      0.99559555497       -0.00792970753978   0.99559555497       -0.00792970753978   0.00439965964223    0.005954829354      
4900000000.0        0.00440361180331    0.00607888020379    0.995591482339      -0.00809492425614   0.995591482339      -0.00809492425614   0.00440361180331    0.00607888020379    
5000000000.0        0.00440757137266    0.00620293145672    0.9955874006        -0.0082601425334    0.9955874006        -0.0082601425334    0.00440757137266    0.00620293145672    
5100000000.0        0.00441153981082    0.00632698313485    0.99558330829       -0.00842536240456   0.99558330829       -0.00842536240456   0.00441153981082    0.00632698313485    
5200000000.0        0.00441551850147    0.00645103525984    0.995579204026      -0.00859058390188   0.995579204026      -0.00859058390188   0.00441551850147    0.00645103525984    
5300000000.0        0.00441950875668    0.00657508785279    0.995575086496      -0.00875580705703   0.995575086496      -0.00875580705703   0.00441950875668    0.00657508785279    
5400000000.0        0.00442351182172    0.00669914093446    0.995570954455      -0.00892103190105   0.995570954455      -0.00892103190105   0.00442351182172    0.00669914093446    
5500000000.0        0.00442752887947    0.00682319452517    0.995566806719      -0.00908625846444   0.995566806719      -0.00908625846444   0.00442752887947    0.00682319452517    
5600000000.0        0.00443156105452    0.00694724864487    0.995562642164      -0.00925148677714   0.995562642164      -0.00925148677714   0.00443156105452    0.00694724864487    
5700000000.0        0.00443560941684    0.00707130331318    0.995558459719      -0.00941671686858   0.995558459719      -0.00941671686858   0.00443560941684    0.00707130331318    
5800000000.0        0.00443967498524    0.0071953585494     0.995554258365      -0.00958194876771   0.995554258365      -0.00958194876771   0.00443967498524    0.0071953585494     
5900000000.0        0.00444375873052    0.0073194143725     0.995550037132      -0.00974718250304   0.995550037132      -0.00974718250304   0.00444375873052    0.0073194143725     
6000000000.0        0.00444786157838    0.00744347080121    0.995545795094      -0.0099124181026    0.995545795094      -0.0099124181026    0.00444786157838    0.00744347080121    
6100000000.0        0.00445198441215    0.00756752785397    0.995541531367      -0.0100776555941    0.995541531367      -0.0100776555941    0.00445198441215    0.00756752785397    
6200000000.0        0.00445612807524    0.007691585549      0.995537245107      -0.0102428950047    0.995537245107      -0.0102428950047    0.00445612807524    0.007691585549      
6300000000.0        0.0044602933735     0.00781564390427    0.995532935508      -0.0104081363614    0.995532935508      -0.0104081363614    0.0044602933735     0.00781564390427    
6400000000.0        0.00446448107731    0.00793970293757    0.995528601801      -0.0105733796906    0.995528601801      -0.0105733796906    0.00446448107731    0.00793970293757    
6500000000.0        0.00446869192366    0.00806376266646    0.995524243247      -0.0107386250186    0.995524243247      -0.0107386250186    0.00446869192366    0.00806376266646    
6600000000.0        0.00447292661791    0.00818782310838    0.995519859141      -0.0109038723712    0.995519859141      -0.0109038723712    0.00447292661791    0.00818782310838    
6700000000.0        0.0044771858356     0.00831188428054    0.995515448807      -0.0110691217741    0.995515448807      -0.0110691217741    0.0044771858356     0.00831188428054    
6800000000.0        0.004481470224      0.00843594620003    0.995511011598      -0.0112343732524    0.995511011598      -0.0112343732524    0.004481470224      0.00843594620003    
6900000000.0        0.00448578040364    0.00856000888378    0.995506546894      -0.0113996268313    0.995506546894      -0.0113996268313    0.00448578040364    0.00856000888378    
7000000000.0        0.00449011696971    0.00868407234862    0.995502054098      -0.0115648825354    0.995502054098      -0.0115648825354    0.00449011696971    0.00868407234862    
7100000000.0        0.00449448049339    0.00880813661125    0.99549753264       -0.0117301403894    0.99549753264       -0.0117301403894    0.00449448049339    0.00880813661125    
7200000000.0        0.00449887152303    0.00893220168823    0.99549298197       -0.0118954004173    0.99549298197       -0.0118954004173    0.00449887152303    0.00893220168823    
7300000000.0        0.00450329058537    0.00905626759605    0.995488401562      -0.0120606626433    0.995488401562      -0.0120606626433    0.00450329058537    0.00905626759605    
7400000000.0        0.00450773818653    0.00918033435111    0.99548379091       -0.0122259270913    0.99548379091       -0.0122259270913    0.00450773818653    0.00918033435111    
7500000000.0        0.00451221481311    0.00930440196972    0.995479149527      -0.0123911937847    0.995479149527      -0.0123911937847    0.00451221481311    0.00930440196972    
7600000000.0        0.00451672093309    0.00942847046811    0.995474476944      -0.0125564627472    0.995474476944      -0.0125564627472    0.00451672093309    0.00942847046811    
7700000000.0        0.00452125699674    0.00955253986246    0.995469772711      -0.0127217340018    0.995469772711      -0.0127217340018    0.00452125699674    0.00955253986246    
7800000000.0        0.00452582343745    0.00967661016886    0.995465036395      -0.0128870075717    0.995465036395      -0.0128870075717    0.00452582343745    0.00967661016886    
7900000000.0        0.00453042067253    0.0098006814034     0.995460267577      -0.0130522834798    0.995460267577      -0.0130522834798    0.00453042067253    0.0098006814034     
8000000000.0        0.00453504910395    0.00992475358208    0.995455465857      -0.0132175617488    0.995455465857      -0.0132175617488    0.00453504910395    0.00992475358208    
8100000000.0        0.00453970911907    0.0100488267209     0.995450630845      -0.0133828424014    0.995450630845      -0.0133828424014    0.00453970911907    0.0100488267209     
8200000000.0        0.00454440109124    0.0101729008357     0.99544576217       -0.0135481254599    0.99544576217       -0.0135481254599    0.00454440109124    0.0101729008357     
8300000000.0        0.0045491253805     0.0102969759425     0.995440859469      -0.0137134109467    0.995440859469      -0.0137134109467    0.0045491253805     0.0102969759425     
8400000000.0        0.00455388233411    0.0104210520571     0.995435922397      -0.013878698884     0.995435922397      -0.013878698884     0.00455388233411    0.0104210520571     
8500000000.0        0.00455867228717    0.0105451291955     0.995430950617      -0.0140439892938    0.995430950617      -0.0140439892938    0.00455867228717    0.0105451291955     
8600000000.0        0.0045634955631     0.0106692073735     0.995425943806      -0.014209282198     0.995425943806      -0.014209282198     0.0045634955631     0.0106692073735     
8700000000.0        0.00456835247414    0.0107932866069     0.995420901652      -0.0143745776186    0.995420901652      -0.0143745776186    0.00456835247414    0.0107932866069     
8800000000.0        0.00457324332186    0.0109173669116     0.995415823853      -0.0145398755772    0.995415823853      -0.0145398755772    0.00457324332186    0.0109173669116     
8900000000.0        0.00457816839762    0.0110414483034     0.995410710117      -0.0147051760954    0.995410710117      -0.0147051760954    0.00457816839762    0.0110414483034     
9000000000.0        0.00458312798291    0.0111655307983     0.995405560162      -0.0148704791948    0.995405560162      -0.0148704791948    0.00458312798291    0.0111655307983     
9100000000.0        0.00458812234987    0.0112896144119     0.995400373716      -0.0150357848968    0.995400373716      -0.0150357848968    0.00458812234987    0.0112896144119     
9200000000.0        0.00459315176159    0.0114136991604     0.995395150516      -0.0152010932228    0.995395150516      -0.0152010932228    0.00459315176159    0.0114136991604     
9300000000.0        0.00459821647251    0.0115377850594     0.995389890308      -0.015366404194     0.995389890308      -0.015366404194     0.00459821647251    0.0115377850594     
9400000000.0        0.00460331672877    0.011661872125      0.995384592844      -0.0155317178317    0.995384592844      -0.0155317178317    0.00460331672877    0.011661872125      
9500000000.0        0.00460845276853    0.011785960373      0.995379257886      -0.0156970341569    0.995379257886      -0.0156970341569    0.00460845276853    0.011785960373      
9600000000.0        0.00461362482228    0.0119100498194     0.995373885205      -0.0158623531907    0.995373885205      -0.0158623531907    0.00461362482228    0.0119100498194     
9700000000.0        0.00461883311314    0.0120341404803     0.995368474576      -0.016027674954     0.995368474576      -0.016027674954     0.00461883311314    0.0120341404803     
9800000000.0        0.00462407785718    0.0121582323715     0.995363025782      -0.016192999468     0.995363025782      -0.016192999468     0.00462407785718    0.0121582323715     
9900000000.0        0.00462935926364    0.0122823255093     0.995357538616      -0.0163583267532    0.995357538616      -0.0163583267532    0.00462935926364    0.0122823255093     
10000000000.0       0.00463467753521    0.0124064199095     0.995352012873      -0.0165236568307    0.995352012873      -0.0165236568307    0.00463467753521    0.0124064199095     
