# Hz S RI R 50.00 
100000000.0         0.00173098589804    0.000107106686281   0.998267981956      -0.000140862875015  0.998267981956      -0.000140862875015  0.00173098589804    0.000107106686281   
200000000.0         0.00174239346744    0.000214208269095   0.9982565411        -0.000281721075357  0.9982565411        -0.000281721075357  0.00174239346744    0.000214208269095   
300000000.0         0.00175073068393    0.000321307346881   0.998248169456      -0.000422577420998  0.998248169456      -0.000422577420997  0.00175073068393    0.000321307346881   
400000000.0         0.00175750812151    0.000428404958882   0.998241356449      -0.00056343312209   0.998241356449      -0.00056343312209   0.00175750812151    0.000428404958882   
500000000.0         0.00176330928588    0.000535501768039   0.998235518574      -0.000704288986916  0.998235518574      -0.000704288986916  0.00176330928588    0.000535501768039   
600000000.0         0.00176843263182    0.00064259826638    0.998230357376      -0.000845145636016  0.998230357376      -0.000845145636016  0.00176843263182    0.00064259826638    
700000000.0         0.00177305497761    0.000749694850139   0.998225696035      -0.000986003582135  0.998225696035      -0.000986003582135  0.00177305497761    0.000749694850139   
800000000.0         0.00177729121624    0.000856791855573   0.99822141966       -0.00112686326825   0.99822141966       -0.00112686326825   0.00177729121624    0.000856791855573   
900000000.0         0.00178122093137    0.000963889578292   0.998217448665      -0.0012677250889    0.998217448665      -0.0012677250889    0.00178122093137    0.000963889578292   
1000000000.0        0.00178490190441    0.00107098828495    0.998213725269      -0.00140858940321   0.998213725269      -0.00140858940321   0.00178490190441    0.00107098828495    
1100000000.0        0.00178837763029    0.00117808822084    0.998210205977      -0.00154945654323   0.998210205977      -0.00154945654323   0.00178837763029    0.00117808822084    
1200000000.0        0.00179168180176    0.00128518961505    0.998206857096      -0.00169032681982   0.998206857096      -0.00169032681982   0.00179168180176    0.00128518961505    
1300000000.0        0.00179484113327    0.00139229268396    0.998203651911      -0.00183120052697   0.998203651911      -0.00183120052697   0.00179484113327    0.00139229268396    
1400000000.0        0.00179787721928    0.00149939763417    0.998200568828      -0.00197207794456   0.998200568828      -0.00197207794456   0.00179787721928    0.00149939763417    
1500000000.0        0.00180080780181    0.0016065046642     0.998197590103      -0.0021129593411    0.998197590103      -0.0021129593411    0.00180080780181    0.0016065046642     
1600000000.0        0.00180364766219    0.00171361396612    0.998194700956      -0.00225384497546   0.998194700956      -0.00225384497546   0.00180364766219    0.00171361396612    
1700000000.0        0.00180640926356    0.00182072572697    0.998191888923      -0.00239473509807   0.998191888923      -0.00239473509807   0.00180640926356    0.00182072572697    
1800000000.0        0.00180910322562    0.0019278401294     0.998189143384      -0.00253562995246   0.998189143384      -0.00253562995246   0.00180910322562    0.0019278401294     
1900000000.0        0.00181173868104    0.00203495735253    0.998186455205      -0.0026765297761    0.998186455205      -0.0026765297761    0.00181173868104    0.00203495735253    
2000000000.0        0.00181432354844    0.00214207757284    0.998183816469      -0.00281743480098   0.998183816469      -0.00281743480098   0.00181432354844    0.00214207757284    
2100000000.0        0.00181686474426    0.00224920096432    0.998181220258      -0.0029583452546    0.998181220258      -0.0029583452546    0.00181686474426    0.00224920096432    
2200000000.0        0.00181936834934    0.0023563276991     0.998178660491      -0.00309926136039   0.998178660491      -0.00309926136039   0.00181936834934    0.0023563276991     
2300000000.0        0.00182183974192    0.00246345794776    0.998176131789      -0.0032401833382    0.998176131789      -0.0032401833382    0.00182183974192    0.00246345794776    
2400000000.0        0.00182428370438    0.00257059187977    0.99817362937       -0.00338111140462   0.99817362937       -0.00338111140462   0.00182428370438    0.00257059187977    
2500000000.0        0.00182670451035    0.00267772966357    0.99817114896       -0.00352204577352   0.99817114896       -0.00352204577352   0.00182670451035    0.00267772966357    
2600000000.0        0.0018291059962     0.00278487146682    0.998168686722      -0.00366298665629   0.998168686722      -0.00366298665629   0.0018291059962     0.00278487146682    
2700000000.0        0.00183149161968    0.00289201745689    0.998166239197      -0.0038039342619    0.998166239197      -0.0038039342619    0.00183149161969    0.00289201745689    
2800000000.0        0.00183386450975    0.00299916780044    0.998163803258      -0.00394488879766   0.998163803258      -0.00394488879766   0.00183386450975    0.00299916780044    
2900000000.0        0.00183622750737    0.00310632266424    0.998161376062      -0.00408585046879   0.998161376062      -0.00408585046879   0.00183622750737    0.00310632266424    
3000000000.0        0.00183858320079    0.00321348221486    0.99815895502       -0.00422681947901   0.99815895502       -0.00422681947901   0.00183858320079    0.00321348221486    
3100000000.0        0.00184093395516    0.00332064661882    0.998156537768      -0.00436779603077   0.998156537768      -0.00436779603077   0.00184093395516    0.00332064661882    
3200000000.0        0.00184328193784    0.00342781604294    0.998154122137      -0.00450878032504   0.998154122137      -0.00450878032504   0.00184328193784    0.00342781604294    
3300000000.0        0.00184562914033    0.00353499065407    0.998151706136      -0.00464977256183   0.998151706136      -0.00464977256183   0.00184562914033    0.00353499065407    
3400000000.0        0.001847977397      0.00364217061956    0.99814928793       -0.00479077293999   0.99814928793       -0.00479077293999   0.001847977397      0.00364217061956    
3500000000.0        0.0018503284016     0.00374935610698    0.998146865825      -0.00493178165755   0.998146865825      -0.00493178165755   0.0018503284016     0.00374935610698    
3600000000.0        0.00185268372131    0.00385654728443    0.998144438253      -0.00507279891168   0.998144438253      -0.00507279891168   0.00185268372131    0.00385654728443    
3700000000.0        0.00185504480935    0.00396374432041    0.998142003761      -0.0052138248989    0.998142003761      -0.0052138248989    0.00185504480935    0.00396374432041    
3800000000.0        0.00185741301584    0.004070947384      0.998139560998      -0.00535485981506   0.998139560998      -0.00535485981506   0.00185741301584    0.004070947384      
3900000000.0        0.00185978959744    0.00417815664486    0.998137108707      -0.00549590385543   0.998137108707      -0.00549590385543   0.00185978959744    0.00417815664486    
4000000000.0        0.00186217572594    0.00428537227322    0.998134645716      -0.00563695721485   0.998134645716      -0.00563695721485   0.00186217572594    0.00428537227322    
4100000000.0        0.00186457249574    0.00439259444       0.998132170931      -0.00577802008769   0.998132170931      -0.00577802008769   0.00186457249574    0.00439259444       
4200000000.0        0.00186698093062    0.00449982331681    0.998129683326      -0.00591909266794   0.998129683326      -0.00591909266794   0.00186698093062    0.00449982331681    
4300000000.0        0.00186940198973    0.00460705907593    0.998127181943      -0.00606017514931   0.998127181943      -0.00606017514931   0.00186940198973    0.00460705907593    
4400000000.0        0.001871836573      0.00471430189039    0.998124665882      -0.00620126772521   0.998124665882      -0.00620126772521   0.001871836573      0.00471430189039    
4500000000.0        0.00187428552589    0.00482155193395    0.998122134296      -0.00634237058887   0.998122134296      -0.00634237058887   0.00187428552589    0.00482155193395    
4600000000.0        0.00187674964378    0.0049288093812     0.99811958639       -0.00648348393328   0.99811958639       -0.00648348393328   0.00187674964378    0.0049288093812     
4700000000.0        0.00187922967587    0.00503607440745    0.998117021414      -0.00662460795137   0.998117021414      -0.00662460795137   0.00187922967587    0.00503607440745    
4800000000.0        0.00188172632868    0.00514334718891    0.998114438661      -0.00676574283581   0.998114438661      -0.00676574283581   0.00188172632868    0.00514334718891    
4900000000.0        0.00188424026931    0.00525062790248    0.998111837464      -0.00690688877942   0.998111837464      -0.00690688877942   0.00188424026931    0.00525062790248    
5000000000.0        0.00188677212825    0.005357916726      0.998109217192      -0.00704804597477   0.998109217192      -0.00704804597477   0.00188677212825    0.005357916726      
5100000000.0        0.00188932250211    0.00546521383813    0.998106577248      -0.00718921461451   0.998106577248      -0.00718921461451   0.00188932250211    0.00546521383813    
5200000000.0        0.00189189195597    0.00557251941839    0.998103917066      -0.00733039489126   0.998103917066      -0.00733039489126   0.00189189195597    0.00557251941839    
5300000000.0        0.0018944810256     0.00567983364708    0.998101236111      -0.00747158699777   0.998101236111      -0.00747158699777   0.0018944810256     0.00567983364708    
5400000000.0        0.00189709021943    0.00578715670549    0.998098533874      -0.00761279112672   0.998098533874      -0.00761279112672   0.00189709021943    0.00578715670549    
5500000000.0        0.00189972002044    0.00589448877571    0.99809580987       -0.00775400747095   0.99809580987       -0.00775400747095   0.00189972002043    0.00589448877571    
5600000000.0        0.00190237088779    0.00600183004075    0.998093063642      -0.00789523622336   0.998093063642      -0.00789523622336   0.00190237088779    0.00600183004075    
5700000000.0        0.00190504325842    0.00610918068449    0.998090294751      -0.00803647757698   0.998090294751      -0.00803647757698   0.00190504325842    0.00610918068449    
5800000000.0        0.00190773754845    0.00621654089165    0.998087502781      -0.00817773172502   0.998087502781      -0.00817773172502   0.00190773754845    0.00621654089165    
5900000000.0        0.00191045415445    0.00632391084798    0.998084687334      -0.00831899886072   0.998084687334      -0.00831899886072   0.00191045415445    0.00632391084798    
6000000000.0        0.00191319345475    0.00643129073999    0.998081848033      -0.00846027917762   0.998081848033      -0.00846027917762   0.00191319345475    0.00643129073999    
6100000000.0        0.00191595581047    0.00653868075518    0.998078984516      -0.00860157286934   0.998078984516      -0.00860157286934   0.00191595581047    0.00653868075518    
6200000000.0        0.0019187415666     0.00664608108191    0.998076096438      -0.00874288012974   0.998076096438      -0.00874288012974   0.0019187415666     0.00664608108191    
6300000000.0        0.00192155105295    0.00675349190941    0.998073183468      -0.00888420115292   0.998073183468      -0.00888420115292   0.00192155105295    0.00675349190941    
6400000000.0        0.00192438458503    0.00686091342791    0.99807024529       -0.00902553613311   0.99807024529       -0.00902553613311   0.00192438458503    0.00686091342791    
6500000000.0        0.0019272424649     0.00696834582847    0.998067281602      -0.00916688526484   0.998067281602      -0.00916688526484   0.0019272424649     0.00696834582847    
6600000000.0        0.00193012498191    0.0070757893031     0.998064292115      -0.00930824874283   0.998064292115      -0.00930824874283   0.00193012498191    0.0070757893031     
6700000000.0        0.00193303241346    0.00718324404468    0.99806127655       -0.00944962676207   0.99806127655       -0.00944962676207   0.00193303241346    0.00718324404468    
6800000000.0        0.00193596502558    0.00729071024702    0.998058234642      -0.00959101951782   0.998058234642      -0.00959101951782   0.00193596502558    0.00729071024702    
6900000000.0        0.00193892307368    0.00739818810483    0.998055166134      -0.00973242720559   0.998055166134      -0.00973242720559   0.00193892307368    0.00739818810483    
7000000000.0        0.001941906803      0.00750567781373    0.998052070781      -0.00987385002115   0.998052070781      -0.00987385002115   0.001941906803      0.00750567781373    
7100000000.0        0.00194491644925    0.00761317957026    0.998048948346      -0.0100152881606    0.998048948346      -0.0100152881606    0.00194491644925    0.00761317957026    
7200000000.0        0.00194795223906    0.00772069357182    0.998045798604      -0.0101567418202    0.998045798604      -0.0101567418202    0.00194795223906    0.00772069357182    
7300000000.0        0.00195101439049    0.00782822001674    0.998042621335      -0.0102982111967    0.998042621335      -0.0102982111967    0.00195101439049    0.00782822001674    
7400000000.0        0.00195410311344    0.0079357591043     0.998039416329      -0.010439696487     0.998039416329      -0.010439696487     0.00195410311344    0.0079357591043     
7500000000.0        0.00195721861011    0.00804331103457    0.998036183384      -0.0105811978885    0.998036183384      -0.0105811978885    0.00195721861011    0.00804331103457    
7600000000.0        0.00196036107535    0.00815087600863    0.998032922304      -0.0107227155985    0.998032922304      -0.0107227155985    0.00196036107535    0.00815087600863    
7700000000.0        0.00196353069708    0.00825845422839    0.998029632902      -0.0108642498151    0.998029632902      -0.0108642498151    0.00196353069708    0.00825845422839    
7800000000.0        0.00196672765658    0.00836604589669    0.998026314995      -0.0110058007364    0.998026314995      -0.0110058007364    0.00196672765658    0.00836604589669    
7900000000.0        0.00196995212886    0.00847365121725    0.998022968409      -0.0111473685611    0.998022968409      -0.0111473685611    0.00196995212886    0.00847365121725    
8000000000.0        0.00197320428294    0.00858127039468    0.998019592974      -0.0112889534879    0.998019592974      -0.0112889534879    0.00197320428294    0.00858127039468    
8100000000.0        0.00197648428214    0.0086889036345     0.998016188526      -0.0114305557161    0.998016188526      -0.0114305557161    0.00197648428214    0.0086889036345     
8200000000.0        0.00197979228439    0.00879655114313    0.998012754907      -0.0115721754452    0.998012754907      -0.0115721754452    0.00197979228439    0.00879655114313    
8300000000.0        0.00198312844246    0.00890421312781    0.998009291964      -0.0117138128752    0.998009291964      -0.0117138128752    0.00198312844246    0.00890421312781    
8400000000.0        0.00198649290417    0.00901188979673    0.998005799549      -0.0118554682063    0.998005799549      -0.0118554682063    0.00198649290417    0.00901188979673    
8500000000.0        0.0019898858127     0.00911958135897    0.998002277519      -0.0119971416391    0.998002277519      -0.0119971416391    0.00198988581269    0.00911958135897    
8600000000.0        0.00199330730672    0.00922728802445    0.997998725734      -0.0121388333746    0.997998725734      -0.0121388333746    0.00199330730672    0.00922728802445    
8700000000.0        0.00199675752068    0.00933501000402    0.997995144059      -0.0122805436141    0.997995144059      -0.0122805436141    0.00199675752068    0.00933501000402    
8800000000.0        0.00200023658494    0.00944274750934    0.997991532365      -0.0124222725593    0.997991532365      -0.0124222725593    0.00200023658494    0.00944274750934    
8900000000.0        0.00200374462599    0.00955050075302    0.997987890524      -0.0125640204122    0.997987890524      -0.0125640204122    0.00200374462599    0.00955050075302    
9000000000.0        0.00200728176661    0.00965826994852    0.997984218413      -0.0127057873753    0.997984218413      -0.0127057873753    0.00200728176661    0.00965826994852    
9100000000.0        0.00201084812604    0.00976605531014    0.997980515913      -0.0128475736513    0.997980515913      -0.0128475736513    0.00201084812604    0.00976605531014    
9200000000.0        0.00201444382015    0.0098738570531     0.997976782907      -0.0129893794436    0.997976782907      -0.0129893794436    0.00201444382015    0.0098738570531     
9300000000.0        0.00201806896157    0.00998167539346    0.997973019283      -0.0131312049555    0.997973019283      -0.0131312049555    0.00201806896157    0.00998167539346    
9400000000.0        0.00202172365986    0.0100895105482     0.997969224931      -0.0132730503911    0.997969224931      -0.0132730503911    0.00202172365986    0.0100895105482     
9500000000.0        0.00202540802159    0.010197362735      0.997965399744      -0.0134149159547    0.997965399744      -0.0134149159547    0.00202540802159    0.010197362735      
9600000000.0        0.00202912215055    0.0103052321727     0.997961543617      -0.0135568018509    0.997961543617      -0.0135568018509    0.00202912215055    0.0103052321727     
9700000000.0        0.0020328661478     0.0104131190808     0.997957656451      -0.013698708285     0.997957656451      -0.013698708285     0.0020328661478     0.0104131190808     
9800000000.0        0.00203664011184    0.0105210236797     0.997953738145      -0.0138406354623    0.997953738145      -0.0138406354623    0.00203664011184    0.0105210236797     
9900000000.0        0.00204044413868    0.0106289461905     0.997949788603      -0.0139825835887    0.997949788603      -0.0139825835887    0.00204044413868    0.0106289461905     
10000000000.0       0.00204427832197    0.0107368868356     0.997945807732      -0.0141245528706    0.997945807732      -0.0141245528706    0.00204427832197    0.0107368868356     
