# Hz S RI R 50.00 
100000000.0         0.000227491403141   -0.00187219596123   0.99975259946       -0.00338767471449   0.99975259946       -0.00338767471449   0.000227491403141   -0.00187219596123   
200000000.0         0.000207523961467   -0.00374443135455   0.999725985869      -0.00677544419201   0.999725985869      -0.00677544419201   0.000207523961467   -0.00374443135455   
300000000.0         0.000174454182004   -0.0056166854387    0.999684796711      -0.0101633253635    0.999684796711      -0.0101633253635    0.000174454182004   -0.0056166854387    
400000000.0         0.000128483417216   -0.00748891851309   0.999628823472      -0.0135513062952    0.999628823472      -0.0135513062952    0.000128483417216   -0.00748891851309   
500000000.0         6.96868037715e-05   -0.00936108057651   0.999557983328      -0.0169393604969    0.999557983328      -0.0169393604969    6.9686803772e-05    -0.00936108057651   
600000000.0         -1.89914294935e-06  -0.0112331145904    0.999472231925      -0.0203274518145    0.999472231925      -0.0203274518145    -1.89914294924e-06  -0.0112331145904    
700000000.0         -8.62542042306e-05  -0.0131049581931    0.999371541341      -0.0237155369249    0.999371541341      -0.0237155369249    -8.62542042305e-05  -0.0131049581931    
800000000.0         -0.000183366264878  -0.0149765447504    0.999255892098      -0.0271035668368    0.999255892098      -0.0271035668368    -0.000183366264878  -0.0149765447504    
900000000.0         -0.000293227630687  -0.0168478040653    0.999125269667      -0.0304914878892    0.999125269667      -0.0304914878892    -0.000293227630687  -0.0168478040653    
1000000000.0        -0.000415833135167  -0.0187186628877    0.998979662715      -0.0338792424609    0.998979662715      -0.0338792424609    -0.000415833135167  -0.0187186628877    
1100000000.0        -0.000551179066041  -0.0205890453       0.998819062165      -0.0372667695012    0.998819062165      -0.0372667695012    -0.000551179066041  -0.0205890453       
1200000000.0        -0.000699262508627  -0.0224588730203    0.99864346065       -0.0406540049417    0.99864346065       -0.0406540049417    -0.000699262508627  -0.0224588730203    
1300000000.0        -0.000860080918827  -0.0243280656461    0.99845285219       -0.0440408820255    0.99845285219       -0.0440408820255    -0.000860080918827  -0.0243280656461    
1400000000.0        -0.00103363183094   -0.0261965408572    0.998247231989      -0.0474273315779    0.998247231989      -0.0474273315779    -0.00103363183094   -0.0261965408572    
1500000000.0        -0.0012199126489    -0.0280642145866    0.998026596307      -0.0508132822319    0.998026596307      -0.0508132822319    -0.0012199126489    -0.0280642145866    
1600000000.0        -0.00141892049142   -0.0299310011678    0.997790942379      -0.0541986606217    0.997790942379      -0.0541986606217    -0.00141892049142   -0.0299310011678    
1700000000.0        -0.00163065207344   -0.0317968134634    0.997540268372      -0.0575833915485    0.997540268372      -0.0575833915485    -0.00163065207344   -0.0317968134634    
1800000000.0        -0.00185510361271   -0.0336615629783    0.997274573344      -0.0609673981272    0.997274573344      -0.0609673981272    -0.00185510361271   -0.0336615629783    
1900000000.0        -0.00209227075453   -0.0355251599617    0.996993857234      -0.0643506019154    0.996993857234      -0.0643506019154    -0.00209227075453   -0.0355251599617    
2000000000.0        -0.00234214850964   -0.0373875134987    0.996698120854      -0.0677329230293    0.996698120854      -0.0677329230293    -0.00234214850964   -0.0373875134987    
2100000000.0        -0.00260473120222   -0.0392485315937    0.996387365882      -0.0711142802483    0.996387365882      -0.0711142802483    -0.00260473120222   -0.0392485315937    
2200000000.0        -0.00288001242561   -0.0411081212471    0.996061594865      -0.0744945911101    0.996061594865      -0.0744945911101    -0.00288001242561   -0.0411081212471    
2300000000.0        -0.00316798500409   -0.0429661885262    0.995720811229      -0.0778737719979    0.995720811229      -0.0778737719979    -0.00316798500409   -0.0429661885262    
2400000000.0        -0.00346864095961   -0.044822638631     0.995365019278      -0.0812517382209    0.995365019278      -0.0812517382209    -0.00346864095961   -0.044822638631     
2500000000.0        -0.00378197148246   -0.046677375956     0.994994224206      -0.0846284040889    0.994994224206      -0.0846284040889    -0.00378197148246   -0.046677375956     
2600000000.0        -0.00410796690539   -0.0485303041474    0.994608432103      -0.0880036829819    0.994608432103      -0.0880036829819    -0.00410796690539   -0.0485303041474    
2700000000.0        -0.00444661668042   -0.0503813261582    0.994207649967      -0.0913774874152    0.994207649967      -0.0913774874152    -0.00444661668042   -0.0503813261582    
2800000000.0        -0.00479790935815   -0.0522303442998    0.993791885709      -0.0947497291006    0.993791885709      -0.0947497291006    -0.00479790935815   -0.0522303442998    
2900000000.0        -0.00516183256916   -0.0540772602904    0.993361148163      -0.0981203190047    0.993361148163      -0.0981203190047    -0.00516183256916   -0.0540772602904    
3000000000.0        -0.00553837300722   -0.0559219753028    0.992915447097      -0.101489167403     0.992915447097      -0.101489167403     -0.00553837300722   -0.0559219753028    
3100000000.0        -0.00592751641417   -0.0577643900079    0.992454793216      -0.104856183932     0.992454793216      -0.104856183932     -0.00592751641417   -0.0577643900079    
3200000000.0        -0.00632924756627   -0.0596044046187    0.991979198174      -0.108221277641     0.991979198174      -0.108221277641     -0.00632924756627   -0.0596044046187    
3300000000.0        -0.00674355026186   -0.0614419189306    0.991488674582      -0.111584357035     0.991488674582      -0.111584357035     -0.00674355026186   -0.0614419189306    
3400000000.0        -0.00717040731026   -0.0632768323612    0.990983236008      -0.114945330124     0.990983236008      -0.114945330124     -0.00717040731026   -0.0632768323612    
3500000000.0        -0.00760980052175   -0.0651090439887    0.990462896994      -0.118304104466     0.990462896994      -0.118304104466     -0.00760980052175   -0.0651090439887    
3600000000.0        -0.00806171069861   -0.0669384525886    0.98992767305       -0.121660587207     0.98992767305       -0.121660587207     -0.00806171069861   -0.0669384525886    
3700000000.0        -0.00852611762714   -0.0687649566695    0.98937758067       -0.125014685123     0.98937758067       -0.125014685123     -0.00852611762714   -0.0687649566695    
3800000000.0        -0.0090030000705    -0.0705884545074    0.988812637329      -0.128366304658     0.988812637329      -0.128366304658     -0.0090030000705    -0.0705884545074    
3900000000.0        -0.00949233576246   -0.0724088441795    0.988232861492      -0.131715351961     0.988232861492      -0.131715351961     -0.00949233576246   -0.0724088441795    
4000000000.0        -0.00999410140193   -0.0742260235967    0.987638272615      -0.135061732927     0.987638272615      -0.135061732927     -0.00999410140193   -0.0742260235967    
4100000000.0        -0.0105082726482    -0.0760398905353    0.98702889115       -0.138405353223     0.98702889115       -0.138405353223     -0.0105082726482    -0.0760398905353    
4200000000.0        -0.011034824117     -0.0778503426676    0.986404738546      -0.141746118332     0.986404738546      -0.141746118332     -0.011034824117     -0.0778503426676    
4300000000.0        -0.011573729377     -0.0796572775922    0.985765837251      -0.14508393358      0.985765837251      -0.14508393358      -0.011573729377     -0.0796572775922    
4400000000.0        -0.0121249609474    -0.0814605928629    0.985112210715      -0.148418704169     0.985112210715      -0.148418704169     -0.0121249609474    -0.0814605928629    
4500000000.0        -0.0126884902954    -0.0832601860176    0.984443883393      -0.15175033521      0.984443883393      -0.15175033521      -0.0126884902954    -0.0832601860176    
4600000000.0        -0.0132642878352    -0.0850559546058    0.98376088074       -0.155078731754     0.98376088074       -0.155078731754     -0.0132642878352    -0.0850559546058    
4700000000.0        -0.0138523229269    -0.086847796216     0.983063229216      -0.158403798817     0.983063229216      -0.158403798817     -0.0138523229269    -0.086847796216     
4800000000.0        -0.0144525638758    -0.088635608502     0.982350956283      -0.161725441415     0.982350956283      -0.161725441415     -0.0144525638758    -0.088635608502     
4900000000.0        -0.0150649779332    -0.0904192892092    0.981624090409      -0.165043564588     0.981624090409      -0.165043564588     -0.0150649779332    -0.0904192892092    
5000000000.0        -0.0156895312966    -0.0921987361996    0.980882661058      -0.168358073428     0.980882661058      -0.168358073428     -0.0156895312966    -0.0921987361996    
5100000000.0        -0.0163261891107    -0.093973847477     0.980126698697      -0.171668873107     0.980126698697      -0.171668873107     -0.0163261891107    -0.093973847477     
5200000000.0        -0.0169749154697    -0.0957445212108    0.97935623479       -0.174975868902     0.97935623479       -0.174975868902     -0.0169749154697    -0.0957445212108    
5300000000.0        -0.0176356734186    -0.0975106557602    0.978571301795      -0.178278966223     0.978571301795      -0.178278966223     -0.0176356734186    -0.0975106557602    
5400000000.0        -0.0183084249562    -0.0992721496974    0.977771933165      -0.181578070634     0.977771933165      -0.181578070634     -0.0183084249562    -0.0992721496974    
5500000000.0        -0.0189931310378    -0.10102890183      0.976958163338      -0.184873087879     0.976958163338      -0.184873087879     -0.0189931310378    -0.10102890183      
5600000000.0        -0.0196897515789    -0.102780811224     0.97613002774       -0.188163923907     0.97613002774       -0.188163923907     -0.0196897515789    -0.102780811224     
5700000000.0        -0.0203982454583    -0.104527777225     0.975287562778      -0.191450484895     0.975287562778      -0.191450484895     -0.0203982454583    -0.104527777225     
5800000000.0        -0.0211185705231    -0.106269699479     0.974430805836      -0.194732677269     0.974430805836      -0.194732677269     -0.0211185705231    -0.106269699479     
5900000000.0        -0.0218506835922    -0.108006477956     0.973559795268      -0.198010407727     0.973559795268      -0.198010407727     -0.0218506835922    -0.108006477956     
6000000000.0        -0.0225945404623    -0.109738012967     0.972674570399      -0.201283583262     0.972674570399      -0.201283583262     -0.0225945404623    -0.109738012967     
6100000000.0        -0.0233500959122    -0.111464205186     0.971775171512      -0.204552111182     0.971775171512      -0.204552111182     -0.0233500959122    -0.111464205186     
6200000000.0        -0.0241173037087    -0.113184955671     0.970861639847      -0.207815899131     0.970861639847      -0.207815899131     -0.0241173037087    -0.113184955671     
6300000000.0        -0.0248961166127    -0.114900165881     0.969934017596      -0.21107485511      0.969934017596      -0.21107485511      -0.0248961166127    -0.114900165881     
6400000000.0        -0.0256864863853    -0.116609737694     0.968992347891      -0.214328887496     0.968992347891      -0.214328887496     -0.0256864863853    -0.116609737694     
6500000000.0        -0.026488363794     -0.118313573431     0.968036674803      -0.21757790506      0.968036674803      -0.21757790506      -0.026488363794     -0.118313573431     
6600000000.0        -0.0273016986202    -0.120011575867     0.967067043331      -0.220821816991     0.967067043331      -0.220821816991     -0.0273016986202    -0.120011575867     
6700000000.0        -0.0281264396658    -0.121703648253     0.9660834994        -0.224060532908     0.9660834994        -0.224060532908     -0.0281264396658    -0.121703648253     
6800000000.0        -0.0289625347606    -0.123389694334     0.965086089845      -0.227293962886     0.965086089845      -0.227293962886     -0.0289625347606    -0.123389694334     
6900000000.0        -0.0298099307705    -0.125069618363     0.964074862411      -0.230522017464     0.964074862411      -0.230522017464     -0.0298099307705    -0.125069618363     
7000000000.0        -0.0306685736051    -0.12674332512      0.963049865743      -0.233744607671     0.963049865743      -0.233744607671     -0.0306685736051    -0.12674332512      
7100000000.0        -0.0315384082257    -0.128410719927     0.962011149373      -0.23696164504      0.962011149373      -0.23696164504      -0.0315384082257    -0.128410719927     
7200000000.0        -0.0324193786544    -0.130071708667     0.960958763719      -0.240173041623     0.960958763719      -0.240173041623     -0.0324193786544    -0.130071708667     
7300000000.0        -0.0333114279823    -0.131726197793     0.95989276007       -0.243378710009     0.95989276007       -0.243378710009     -0.0333114279823    -0.131726197793     
7400000000.0        -0.0342144983785    -0.133374094351     0.958813190579      -0.24657856334      0.958813190579      -0.24657856334      -0.0342144983785    -0.133374094351     
7500000000.0        -0.0351285310997    -0.135015305989     0.957720108256      -0.249772515323     0.957720108256      -0.249772515323     -0.0351285310997    -0.135015305989     
7600000000.0        -0.036053466499     -0.136649740977     0.956613566954      -0.252960480252     0.956613566954      -0.252960480252     -0.036053466499     -0.136649740977     
7700000000.0        -0.0369892440361    -0.138277308216     0.955493621362      -0.256142373017     0.955493621362      -0.256142373017     -0.0369892440361    -0.138277308216     
7800000000.0        -0.0379358022867    -0.139897917254     0.954360326996      -0.259318109119     0.954360326996      -0.259318109119     -0.0379358022867    -0.139897917254     
7900000000.0        -0.0388930789527    -0.141511478301     0.953213740187      -0.262487604687     0.953213740187      -0.262487604687     -0.0388930789527    -0.141511478301     
8000000000.0        -0.0398610108724    -0.143117902242     0.952053918071      -0.265650776489     0.952053918071      -0.265650776489     -0.0398610108724    -0.143117902242     
8100000000.0        -0.0408395340308    -0.144717100648     0.950880918578      -0.268807541945     0.950880918578      -0.268807541945     -0.0408395340308    -0.144717100648     
8200000000.0        -0.0418285835704    -0.146308985788     0.949694800425      -0.271957819143     0.949694800425      -0.271957819143     -0.0418285835704    -0.146308985788     
8300000000.0        -0.0428280938019    -0.147893470648     0.948495623099      -0.27510152685      0.948495623099      -0.27510152685      -0.0428280938019    -0.147893470648     
8400000000.0        -0.0438379982148    -0.149470468934     0.947283446851      -0.278238584521     0.947283446851      -0.278238584521     -0.0438379982148    -0.149470468934     
8500000000.0        -0.044858229489     -0.15103989509      0.946058332682      -0.281368912319     0.946058332682      -0.281368912319     -0.044858229489     -0.15103989509      
8600000000.0        -0.0458887195054    -0.152601664306     0.944820342333      -0.284492431118     0.944820342333      -0.284492431118     -0.0458887195054    -0.152601664306     
8700000000.0        -0.0469293993581    -0.154155692533     0.943569538276      -0.28760906252      0.943569538276      -0.28760906252      -0.0469293993581    -0.154155692533     
8800000000.0        -0.047980199365     -0.155701896489     0.942305983695      -0.290718728863     0.942305983695      -0.290718728863     -0.047980199365     -0.155701896489     
8900000000.0        -0.0490410490803    -0.157240193673     0.941029742481      -0.293821353235     0.941029742481      -0.293821353235     -0.0490410490803    -0.157240193673     
9000000000.0        -0.0501118773056    -0.158770502373     0.93974087922       -0.296916859479     0.93974087922       -0.296916859479     -0.0501118773056    -0.158770502373     
9100000000.0        -0.0511926121021    -0.160292741679     0.938439459176      -0.300005172209     0.938439459176      -0.300005172209     -0.0511926121021    -0.160292741679     
9200000000.0        -0.0522831808029    -0.161806831489     0.937125548284      -0.303086216816     0.937125548284      -0.303086216816     -0.0522831808029    -0.161806831489     
9300000000.0        -0.0533835100246    -0.16331269252      0.935799213134      -0.30615991948      0.935799213134      -0.30615991948      -0.0533835100246    -0.16331269252      
9400000000.0        -0.0544935256799    -0.164810246319     0.934460520961      -0.309226207175     0.934460520961      -0.309226207175     -0.0544935256799    -0.164810246319     
9500000000.0        -0.0556131529896    -0.166299415268     0.933109539633      -0.312285007683     0.933109539633      -0.312285007683     -0.0556131529896    -0.166299415268     
9600000000.0        -0.0567423164957    -0.167780122594     0.931746337636      -0.315336249599     0.931746337636      -0.315336249599     -0.0567423164957    -0.167780122594     
9700000000.0        -0.057880940073     -0.169252292378     0.930370984064      -0.318379862341     0.930370984064      -0.318379862341     -0.057880940073     -0.169252292378     
9800000000.0        -0.0590289469425    -0.170715849564     0.928983548604      -0.321415776155     0.928983548604      -0.321415776155     -0.0590289469425    -0.170715849564     
9900000000.0        -0.0601862596837    -0.172170719963     0.927584101525      -0.324443922129     0.927584101525      -0.324443922129     -0.0601862596837    -0.172170719963     
10000000000.0       -0.0613528002474    -0.173616830262     0.926172713663      -0.327464232193     0.926172713663      -0.327464232193     -0.0613528002474    -0.173616830262     
