# Hz S RI R 50.00 
100000000.0         0.0109324945015     0.00142327934942    0.989065750826      -0.00203587709484   0.989065750826      -0.00203587709484   0.0109324945015     0.00142327934942    
200000000.0         0.011012576867      0.00284603149773    0.9889845371        -0.00407123070772   0.9889845371        -0.00407123070772   0.011012576867      0.00284603149773    
300000000.0         0.0110792448581     0.0042684306184     0.988916361028      -0.00610623743888   0.988916361028      -0.00610623743888   0.0110792448581     0.0042684306184     
400000000.0         0.0111419233697     0.00569051855134    0.988851797684      -0.00814094107605   0.988851797684      -0.00814094107605   0.0111419233697     0.00569051855134    
500000000.0         0.0112042473328     0.00711230632812    0.988787212102      -0.0101753543582    0.988787212102      -0.0101753543582    0.0112042473328     0.00711230632812    
600000000.0         0.0112680727767     0.00853379133138    0.988720748217      -0.0122094762186    0.988720748217      -0.0122094762186    0.0112680727767     0.00853379133138    
700000000.0         0.011334497153      0.00995496346046    0.988651308538      -0.0142432979928    0.988651308538      -0.0142432979928    0.011334497153      0.00995496346046    
800000000.0         0.0114042319423     0.0113758079923     0.988578181544      -0.016276806305     0.988578181544      -0.016276806305     0.0114042319423     0.0113758079923     
900000000.0         0.0114777686524     0.0127963071183     0.988500875683      -0.0183099846223    0.988500875683      -0.0183099846223    0.0114777686524     0.0127963071183     
1000000000.0        0.0115554630048     0.0142164408549     0.988419035185      -0.020342814176     0.988419035185      -0.020342814176     0.0115554630048     0.0142164408549     
1100000000.0        0.0116375817588     0.0156361876221     0.988332393242      -0.0223752745497    0.988332393242      -0.0223752745497    0.0116375817588     0.0156361876221     
1200000000.0        0.0117243306272     0.017055524631      0.988240744089      -0.0244073440729    0.988240744089      -0.0244073440729    0.0117243306272     0.017055524631      
1300000000.0        0.011815871848      0.0184744281543     0.988143925432      -0.0264390000972    0.988143925432      -0.0264390000972    0.011815871848      0.0184744281543     
1400000000.0        0.0119123357415     0.0198928737231     0.988041806895      -0.0284702191968    0.988041806895      -0.0284702191968    0.0119123357415     0.0198928737231     
1500000000.0        0.012013828588      0.0213108362715     0.987934282136      -0.0305009773168    0.987934282136      -0.0305009773168    0.012013828588      0.0213108362715     
1600000000.0        0.0121204381646     0.0227282902483     0.987821263317      -0.0325312498878    0.987821263317      -0.0325312498878    0.0121204381646     0.0227282902483     
1700000000.0        0.0122322377367     0.0241452097029     0.987702677106      -0.0345610119138    0.987702677106      -0.0345610119138    0.0122322377367     0.0241452097029     
1800000000.0        0.0123492890006     0.0255615683534     0.987578461741      -0.0365902380432    0.987578461741      -0.0365902380432    0.0123492890006     0.0255615683534     
1900000000.0        0.0124716442951     0.0269773396416     0.987448564814      -0.0386189026247    0.987448564814      -0.0386189026247    0.0124716442951     0.0269773396416     
2000000000.0        0.0125993482918     0.0283924967779     0.98731294158       -0.0406469797541    0.98731294158       -0.0406469797541    0.0125993482918     0.0283924967779     
2100000000.0        0.0127324393076     0.0298070127776     0.987171553649      -0.0426744433121    0.987171553649      -0.0426744433121    0.0127324393076     0.0298070127776     
2200000000.0        0.012870950336      0.0312208604922     0.98702436795       -0.0447012669967    0.98702436795       -0.0447012669967    0.012870950336      0.0312208604922     
2300000000.0        0.0130149098691     0.032634012635      0.986871355914      -0.0467274243497    0.986871355914      -0.0467274243497    0.0130149098691     0.032634012635      
2400000000.0        0.0131643425585     0.0340464418033     0.986712492808      -0.0487528887802    0.986712492808      -0.0487528887802    0.0131643425585     0.0340464418033     
2500000000.0        0.0133192697528     0.0354581204974     0.9865477572        -0.0507776335842    0.9865477572        -0.0507776335842    0.0133192697528     0.0354581204974     
2600000000.0        0.0134797099385     0.036869021137      0.986377130519      -0.0528016319619    0.986377130519      -0.0528016319619    0.0134797099385     0.036869021137      
2700000000.0        0.0136456791044     0.0382791160752     0.986200596689      -0.0548248570323    0.986200596689      -0.0548248570323    0.0136456791044     0.0382791160752     
2800000000.0        0.0138171910457     0.0396883776116     0.986018141826      -0.056847281847     0.986018141826      -0.056847281847     0.0138171910457     0.0396883776116     
2900000000.0        0.0139942576188     0.0410967780029     0.985829753982      -0.0588688794018    0.985829753982      -0.0588688794018    0.0139942576188     0.0410967780029     
3000000000.0        0.0141768889568     0.0425042894731     0.985635422932      -0.0608896226465    0.985635422932      -0.0608896226465    0.0141768889568     0.0425042894731     
3100000000.0        0.0143650936526     0.0439108842222     0.985435139987      -0.0629094844952    0.985435139987      -0.0629094844952    0.0143650936526     0.0439108842222     
3200000000.0        0.0145588789152     0.0453165344341     0.985228897841      -0.0649284378338    0.985228897841      -0.0649284378338    0.0145588789152     0.0453165344341     
3300000000.0        0.0147582507044     0.046721212284      0.985016690436      -0.0669464555284    0.985016690436      -0.0669464555284    0.0147582507044     0.046721212284      
3400000000.0        0.0149632138469     0.0481248899446     0.984798512843      -0.0689635104317    0.984798512843      -0.0689635104317    0.0149632138469     0.0481248899446     
3500000000.0        0.0151737721369     0.0495275395925     0.984574361167      -0.0709795753895    0.984574361167      -0.0709795753895    0.0151737721369     0.0495275395925     
3600000000.0        0.0153899284239     0.0509291334133     0.984344232453      -0.0729946232467    0.984344232453      -0.0729946232467    0.0153899284239     0.0509291334133     
3700000000.0        0.0156116846894     0.0523296436068     0.984108124613      -0.0750086268525    0.984108124613      -0.0750086268525    0.0156116846894     0.0523296436068     
3800000000.0        0.0158390421148     0.0537290423917     0.983866036358      -0.0770215590654    0.983866036358      -0.0770215590654    0.0158390421148     0.0537290423917     
3900000000.0        0.0160720011401     0.05512730201       0.983617967137      -0.0790333927579    0.983617967137      -0.0790333927579    0.0160720011401     0.05512730201       
4000000000.0        0.0163105615176     0.0565243947308     0.983363917087      -0.0810441008209    0.983363917087      -0.0810441008209    0.0163105615176     0.0565243947308     
4100000000.0        0.0165547223575     0.0579202928544     0.983103886983      -0.0830536561674    0.983103886983      -0.0830536561674    0.0165547223575     0.0579202928544     
4200000000.0        0.0168044821704     0.0593149687154     0.982837878201      -0.0850620317365    0.982837878201      -0.0850620317365    0.0168044821704     0.0593149687154     
4300000000.0        0.0170598389041     0.0607083946868     0.982565892675      -0.0870692004974    0.982565892675      -0.0870692004974    0.0170598389041     0.0607083946868     
4400000000.0        0.0173207899769     0.0621005431822     0.982287932868      -0.0890751354519    0.982287932868      -0.0890751354519    0.0173207899769     0.0621005431822     
4500000000.0        0.0175873323078     0.0634913866597     0.982004001741      -0.0910798096384    0.982004001741      -0.0910798096384    0.0175873323078     0.0634913866597     
4600000000.0        0.0178594623433     0.0648808976241     0.981714102726      -0.0930831961345    0.981714102726      -0.0930831961345    0.0178594623433     0.0648808976241     
4700000000.0        0.0181371760819     0.0662690486298     0.9814182397        -0.0950852680601    0.9814182397        -0.0950852680601    0.0181371760819     0.0662690486298     
4800000000.0        0.0184204690962     0.0676558122837     0.981116416966      -0.0970859985798    0.981116416966      -0.0970859985798    0.0184204690962     0.0676558122837     
4900000000.0        0.0187093365527     0.0690411612471     0.980808639229      -0.0990853609063    0.980808639229      -0.0990853609063    0.0187093365527     0.0690411612471     
5000000000.0        0.0190037732307     0.0704250682384     0.980494911583      -0.101083328302     0.980494911583      -0.101083328302     0.0190037732307     0.0704250682384     
5100000000.0        0.0193037735383     0.0718075060356     0.980175239489      -0.103079874082     0.980175239489      -0.103079874082     0.0193037735383     0.0718075060356     
5200000000.0        0.0196093315282     0.0731884474779     0.979849628762      -0.105074971617     0.979849628762      -0.105074971617     0.0196093315282     0.0731884474779     
5300000000.0        0.0199204409113     0.0745678654683     0.979518085559      -0.107068594334     0.979518085559      -0.107068594334     0.0199204409113     0.0745678654683     
5400000000.0        0.0202370950697     0.0759457329753     0.979180616363      -0.10906071572      0.979180616363      -0.10906071572      0.0202370950697     0.0759457329753     
5500000000.0        0.0205592870687     0.0773220230353     0.978837227971      -0.111051309322     0.978837227971      -0.111051309322     0.0205592870687     0.0773220230353     
5600000000.0        0.0208870096674     0.0786967087541     0.978487927488      -0.113040348752     0.978487927488      -0.113040348752     0.0208870096674     0.0786967087541     
5700000000.0        0.0212202553291     0.0800697633088     0.97813272231       -0.115027807688     0.97813272231       -0.115027807688     0.0212202553291     0.0800697633088     
5800000000.0        0.0215590162305     0.0814411599498     0.977771620121      -0.117013659873     0.977771620121      -0.117013659873     0.0215590162305     0.0814411599498     
5900000000.0        0.0219032842703     0.0828108720025     0.977404628878      -0.118997879122     0.977404628878      -0.118997879122     0.0219032842703     0.0828108720025     
6000000000.0        0.0222530510776     0.0841788728687     0.977031756809      -0.120980439319     0.977031756809      -0.120980439319     0.0222530510776     0.0841788728687     
6100000000.0        0.022608308019      0.0855451360286     0.976653012403      -0.122961314422     0.976653012403      -0.122961314422     0.022608308019      0.0855451360286     
6200000000.0        0.0229690462061     0.0869096350423     0.976268404401      -0.124940478462     0.976268404401      -0.124940478462     0.0229690462061     0.0869096350423     
6300000000.0        0.0233352565017     0.0882723435515     0.975877941792      -0.126917905548     0.975877941792      -0.126917905548     0.0233352565017     0.0882723435515     
6400000000.0        0.0237069295261     0.0896332352806     0.975481633806      -0.128893569866     0.975481633806      -0.128893569866     0.0237069295261     0.0896332352806     
6500000000.0        0.0240840556631     0.0909922840388     0.975079489909      -0.130867445681     0.975079489909      -0.130867445681     0.0240840556631     0.0909922840388     
6600000000.0        0.0244666250652     0.0923494637209     0.974671519795      -0.13283950734      0.974671519795      -0.13283950734      0.0244666250652     0.0923494637209     
6700000000.0        0.0248546276587     0.0937047483096     0.974257733385      -0.134809729271     0.974257733385      -0.134809729271     0.0248546276587     0.0937047483096     
6800000000.0        0.0252480531489     0.0950581118759     0.973838140819      -0.136778085987     0.973838140819      -0.136778085987     0.0252480531489     0.0950581118759     
6900000000.0        0.0256468910244     0.0964095285812     0.973412752451      -0.138744552087     0.973412752451      -0.138744552087     0.0256468910244     0.0964095285812     
7000000000.0        0.0260511305613     0.0977589726786     0.972981578847      -0.140709102255     0.972981578847      -0.140709102255     0.0260511305613     0.0977589726786     
7100000000.0        0.026460760828      0.0991064185138     0.97254463078       -0.142671711264     0.97254463078       -0.142671711264     0.026460760828      0.0991064185138     
7200000000.0        0.0268757706885     0.100451840527      0.972101919225      -0.144632353979     0.972101919225      -0.144632353979     0.0268757706885     0.100451840527      
7300000000.0        0.0272961488062     0.101795213253      0.971653455357      -0.146591005352     0.971653455357      -0.146591005352     0.0272961488062     0.101795213253      
7400000000.0        0.0277218836478     0.103136511324      0.971199250547      -0.14854764043      0.971199250547      -0.14854764043      0.0277218836478     0.103136511324      
7500000000.0        0.0281529634866     0.104475709471      0.970739316356      -0.150502234352     0.970739316356      -0.150502234352     0.0281529634866     0.104475709471      
7600000000.0        0.0285893764056     0.105812782521      0.970273664535      -0.152454762354     0.970273664535      -0.152454762354     0.0285893764056     0.105812782521      
7700000000.0        0.0290311103009     0.107147705406      0.969802307022      -0.154405199766     0.969802307022      -0.154405199766     0.0290311103009     0.107147705406      
7800000000.0        0.0294781528844     0.108480453154      0.969325255936      -0.156353522015     0.969325255936      -0.156353522015     0.0294781528844     0.108480453154      
7900000000.0        0.029930491687      0.109811000901      0.968842523577      -0.15829970463      0.968842523577      -0.15829970463      0.029930491687      0.109811000901      
8000000000.0        0.0303881140613     0.111139323882      0.968354122422      -0.160243723235     0.968354122422      -0.160243723235     0.0303881140613     0.111139323882      
8100000000.0        0.0308510071842     0.112465397441      0.96786006512       -0.162185553559     0.96786006512       -0.162185553559     0.0308510071842     0.112465397441      
8200000000.0        0.0313191580595     0.113789197024      0.967360364496      -0.16412517143      0.967360364496      -0.16412517143      0.0313191580595     0.113789197024      
8300000000.0        0.0317925535206     0.115110698188      0.966855033541      -0.16606255278      0.966855033541      -0.16606255278      0.0317925535206     0.115110698188      
8400000000.0        0.0322711802329     0.116429876594      0.966344085413      -0.167997673647     0.966344085413      -0.167997673647     0.0322711802329     0.116429876594      
8500000000.0        0.0327550246959     0.117746708015      0.965827533437      -0.169930510172     0.965827533437      -0.169930510172     0.0327550246959     0.117746708015      
8600000000.0        0.033244073246      0.119061168333      0.965305391097      -0.171861038604     0.965305391097      -0.171861038604     0.033244073246      0.119061168333      
8700000000.0        0.0337383120582     0.120373233541      0.96477767204       -0.173789235299     0.96477767204       -0.173789235299     0.0337383120582     0.120373233541      
8800000000.0        0.0342377271485     0.121682879745      0.964244390067      -0.17571507672      0.964244390067      -0.17571507672      0.0342377271485     0.121682879745      
8900000000.0        0.0347423043763     0.122990083162      0.963705559139      -0.177638539442     0.963705559139      -0.177638539442     0.0347423043763     0.122990083162      
9000000000.0        0.035252029446      0.124294820126      0.963161193368      -0.179559600149     0.963161193368      -0.179559600149     0.035252029446      0.124294820126      
9100000000.0        0.0357668879094     0.125597067083      0.962611307017      -0.181478235636     0.962611307017      -0.181478235636     0.0357668879094     0.125597067083      
9200000000.0        0.0362868651674     0.126896800597      0.9620559145        -0.183394422813     0.9620559145        -0.183394422813     0.0362868651674     0.126896800597      
9300000000.0        0.0368119464721     0.128193997347      0.961495030378      -0.1853081387       0.961495030378      -0.1853081387       0.0368119464721     0.128193997347      
9400000000.0        0.0373421169289     0.129488634132      0.960928669359      -0.187219360433     0.960928669359      -0.187219360433     0.0373421169289     0.129488634132      
9500000000.0        0.0378773614979     0.130780687867      0.960356846294      -0.189128065264     0.960356846294      -0.189128065264     0.0378773614979     0.130780687867      
9600000000.0        0.038417664996      0.132070135588      0.959779576174      -0.19103423056      0.959779576174      -0.19103423056      0.038417664996      0.132070135588      
9700000000.0        0.0389630120989     0.13335695445       0.959196874134      -0.192937833806     0.959196874134      -0.192937833806     0.0389630120989     0.13335695445       
9800000000.0        0.0395133873424     0.134641121731      0.958608755446      -0.194838852603     0.958608755446      -0.194838852603     0.0395133873424     0.134641121731      
9900000000.0        0.0400687751246     0.135922614829      0.958015235517      -0.196737264673     0.958015235517      -0.196737264673     0.0400687751246     0.135922614829      
10000000000.0       0.0406291597073     0.137201411266      0.957416329892      -0.198633047856     0.957416329892      -0.198633047856     0.0406291597073     0.137201411266      
