# Hz S RI R 50.00 
100000000.0         0.0282991510276     0.000562643127662   0.971699628711      -0.000776287217519  0.971699628711      -0.000776287217519  0.0282991510276     0.000562643127662   
200000000.0         0.0284803582952     0.00112478813477    0.971518155089      -0.00155207654017   0.971518155089      -0.00155207654017   0.0284803582952     0.00112478813477    
300000000.0         0.0286128065625     0.00168663900589    0.971385394368      -0.00232757212199   0.971385394368      -0.00232757212199   0.0286128065625     0.00168663900589    
400000000.0         0.0287206055201     0.00224826655405    0.971277236855      -0.00310284491186   0.971277236855      -0.00310284491186   0.0287206055201     0.00224826655405    
500000000.0         0.0288130789529     0.00280971050311    0.971184358759      -0.00387793475283   0.971184358759      -0.00387793475283   0.0288130789529     0.00280971050311    
600000000.0         0.028895001147      0.00337099676532    0.971101985794      -0.00465286766554   0.971101985794      -0.00465286766554   0.028895001147      0.00337099676532    
700000000.0         0.0289692037377     0.0039321436557     0.97102728632       -0.0054276620657    0.97102728632       -0.0054276620657    0.0289692037377     0.0039321436557     
800000000.0         0.0290375287009     0.00449316477802    0.970958418359      -0.00620233165174   0.970958418359      -0.00620233165174   0.0290375287009     0.00449316477802    
900000000.0         0.0291012533554     0.00505407057642    0.970894104591      -0.00697688695773   0.970894104591      -0.00697688695773   0.0291012533554     0.00505407057642    
1000000000.0        0.0291613061288     0.00561486925503    0.970833416585      -0.00775133627372   0.970833416585      -0.00775133627372   0.0291613061288     0.00561486925503    
1100000000.0        0.0292183866865     0.00617556736246    0.970775654673      -0.00852568623088   0.970775654673      -0.00852568623088   0.0292183866865     0.00617556736246    
1200000000.0        0.0292730376265     0.00673617018348    0.970720276256      -0.00929994219367   0.970720276256      -0.00929994219367   0.0292730376265     0.00673617018348    
1300000000.0        0.0293256896556     0.00729668201275    0.970666850625      -0.0100741085338    0.970666850625      -0.0100741085338    0.0293256896556     0.00729668201275    
1400000000.0        0.0293766913302     0.00785710635252    0.97061502922       -0.0108481888285    0.97061502922       -0.0108481888285    0.0293766913302     0.00785710635252    
1500000000.0        0.0294263293542     0.00841744605955    0.970564525336      -0.0116221860072    0.970564525336      -0.0116221860072    0.0294263293542     0.00841744605955    
1600000000.0        0.0294748428566     0.00897770345685    0.970515099843      -0.0123961024641    0.970515099843      -0.0123961024641    0.0294748428566     0.00897770345685    
1700000000.0        0.0295224336974     0.00953788042028    0.970466550876      -0.0131699401443    0.970466550876      -0.0131699401443    0.0295224336974     0.00953788042029    
1800000000.0        0.0295692740721     0.010097978447      0.97041870624       -0.0139437006126    0.97041870624       -0.0139437006126    0.0295692740721     0.010097978447      
1900000000.0        0.0296155122336     0.01065799871       0.970371417679      -0.0147173851088    0.970371417679      -0.0147173851088    0.0296155122336     0.01065799871       
2000000000.0        0.0296612768706     0.0112179421029     0.970324556501      -0.0154909945913    0.970324556501      -0.0154909945913    0.0296612768706     0.0112179421029     
2100000000.0        0.0297066805094     0.0117778092762     0.970278010179      -0.0162645297747    0.970278010179      -0.0162645297747    0.0297066805094     0.0117778092762     
2200000000.0        0.0297518221915     0.0123376006676     0.970231679669      -0.0170379911593    0.970231679669      -0.0170379911593    0.0297518221915     0.0123376006676     
2300000000.0        0.0297967896081     0.0128973165274     0.970185477277      -0.0178113790571    0.970185477277      -0.0178113790571    0.0297967896081     0.0128973165274     
2400000000.0        0.0298416608198     0.0134569569396     0.97013932494       -0.018584693613     0.97013932494       -0.018584693613     0.0298416608198     0.0134569569396     
2500000000.0        0.0298865056554     0.0140165218407     0.970093152827      -0.0193579348231    0.970093152827      -0.0193579348231    0.0298865056554     0.0140165218407     
2600000000.0        0.0299313868608     0.014576011035      0.97004689819       -0.0201311025506    0.97004689819       -0.0201311025506    0.0299313868608     0.014576011035      
2700000000.0        0.0299763610497     0.0151354242077     0.970000504413      -0.0209041965389    0.970000504413      -0.0209041965389    0.0299763610497     0.0151354242077     
2800000000.0        0.0300214794968     0.0156947609373     0.969953920219      -0.0216772164236    0.969953920219      -0.0216772164236    0.0300214794968     0.0156947609373     
2900000000.0        0.0300667888043     0.0162540207052     0.969907099002      -0.0224501617427    0.969907099002      -0.0224501617427    0.0300667888043     0.0162540207052     
3000000000.0        0.030112331465      0.0168132029051     0.969859998268      -0.0232230319454    0.969859998268      -0.0232230319454    0.030112331465      0.0168132029051     
3100000000.0        0.0301581463417     0.0173723068503     0.969812579151      -0.0239958264004    0.969812579151      -0.0239958264004    0.0301581463417     0.0173723068503     
3200000000.0        0.0302042690764     0.0179313317814     0.969764806007      -0.0247685444024    0.969764806007      -0.0247685444024    0.0302042690764     0.0179313317814     
3300000000.0        0.0302507324433     0.0184902768716     0.969716646059      -0.0255411851786    0.969716646059      -0.0255411851786    0.0302507324433     0.0184902768716     
3400000000.0        0.0302975666528     0.0190491412331     0.969668069093      -0.0263137478942    0.969668069093      -0.0263137478942    0.0302975666528     0.0190491412331     
3500000000.0        0.0303447996159     0.0196079239214     0.969619047197      -0.0270862316573    0.969619047197      -0.0270862316573    0.0303447996159     0.0196079239214     
3600000000.0        0.0303924571742     0.02016662394       0.969569554525      -0.0278586355234    0.969569554525      -0.0278586355234    0.0303924571742     0.02016662394       
3700000000.0        0.0304405633019     0.0207252402442     0.969519567101      -0.0286309584993    0.969519567101      -0.0286309584993    0.0304405633019     0.0207252402442     
3800000000.0        0.0304891402824     0.0212837717451     0.969469062638      -0.0294031995469    0.969469062638      -0.0294031995469    0.0304891402824     0.0212837717451     
3900000000.0        0.0305382088648     0.0218422173122     0.969418020385      -0.0301753575863    0.969418020385      -0.0301753575863    0.0305382088648     0.0218422173122     
4000000000.0        0.0305877884018     0.0224005757771     0.969366420986      -0.0309474314989    0.969366420986      -0.0309474314989    0.0305877884018     0.0224005757771     
4100000000.0        0.0306378969721     0.0229588459356     0.969314246359      -0.03171942013      0.969314246359      -0.03171942013      0.0306378969721     0.0229588459356     
4200000000.0        0.03068855149       0.0235170265506     0.969261479587      -0.0324913222914    0.969261479587      -0.0324913222914    0.03068855149       0.0235170265506     
4300000000.0        0.0307397678024     0.0240751163539     0.96920810482       -0.0332631367636    0.96920810482       -0.0332631367636    0.0307397678024     0.0240751163539     
4400000000.0        0.0307915607762     0.0246331140488     0.969154107188      -0.0340348622978    0.969154107188      -0.0340348622978    0.0307915607762     0.0246331140488     
4500000000.0        0.0308439443766     0.0251910183114     0.969099472723      -0.0348064976179    0.969099472723      -0.0348064976179    0.0308439443766     0.0251910183114     
4600000000.0        0.0308969317372     0.0257488277928     0.969044188288      -0.0355780414224    0.969044188288      -0.0355780414224    0.0308969317372     0.0257488277928     
4700000000.0        0.0309505352242     0.0263065411205     0.968988241514      -0.0363494923856    0.968988241514      -0.0363494923856    0.0309505352242     0.0263065411205     
4800000000.0        0.0310047664933     0.0268641569001     0.968931620741      -0.0371208491594    0.968931620741      -0.0371208491594    0.0310047664933     0.0268641569001     
4900000000.0        0.031059636542      0.0274216737162     0.968874314969      -0.0378921103747    0.968874314969      -0.0378921103747    0.031059636542      0.0274216737162     
5000000000.0        0.0311151557566     0.0279790901342     0.968816313809      -0.0386632746427    0.968816313809      -0.0386632746427    0.0311151557566     0.0279790901342     
5100000000.0        0.0311713339557     0.0285364047011     0.968757607438      -0.0394343405557    0.968757607438      -0.0394343405557    0.0311713339557     0.0285364047011     
5200000000.0        0.0312281804287     0.0290936159469     0.968698186564      -0.0402053066887    0.968698186564      -0.0402053066887    0.0312281804287     0.0290936159469     
5300000000.0        0.0312857039723     0.0296507223854     0.968638042386      -0.0409761716002    0.968638042386      -0.0409761716002    0.0312857039723     0.0296507223854     
5400000000.0        0.0313439129226     0.0302077225151     0.968577166565      -0.0417469338332    0.968577166565      -0.0417469338332    0.0313439129226     0.0302077225151     
5500000000.0        0.0314028151855     0.0307646148205     0.968515551191      -0.042517591916     0.968515551191      -0.042517591916     0.0314028151855     0.0307646148205     
5600000000.0        0.0314624182642     0.0313213977723     0.968453188758      -0.0432881443633    0.968453188758      -0.0432881443633    0.0314624182642     0.0313213977723     
5700000000.0        0.0315227292841     0.0318780698287     0.968390072137      -0.0440585896765    0.968390072137      -0.0440585896765    0.0315227292841     0.0318780698287     
5800000000.0        0.0315837550168     0.0324346294358     0.968326194553      -0.0448289263449    0.968326194553      -0.0448289263449    0.0315837550168     0.0324346294358     
5900000000.0        0.0316455019009     0.0329910750287     0.968261549563      -0.0455991528463    0.968261549563      -0.0455991528463    0.0316455019009     0.0329910750287     
6000000000.0        0.0317079760622     0.0335474050316     0.968196131037      -0.0463692676475    0.968196131037      -0.0463692676475    0.0317079760622     0.0335474050316     
6100000000.0        0.0317711833322     0.0341036178587     0.968129933141      -0.0471392692049    0.968129933141      -0.0471392692049    0.0317711833322     0.0341036178587     
6200000000.0        0.0318351292644     0.0346597119148     0.968062950318      -0.0479091559653    0.968062950318      -0.0479091559653    0.0318351292644     0.0346597119148     
6300000000.0        0.031899819151      0.0352156855957     0.96799517727       -0.0486789263661    0.96799517727       -0.0486789263661    0.031899819151      0.0352156855957     
6400000000.0        0.0319652580365     0.0357715372888     0.96792660895       -0.049448578836     0.96792660895       -0.049448578836     0.0319652580365     0.0357715372888     
6500000000.0        0.0320314507321     0.0363272653735     0.967857240543      -0.0502181117957    0.967857240543      -0.0502181117957    0.0320314507321     0.0363272653735     
6600000000.0        0.032098401828      0.0368828682217     0.967787067455      -0.050987523658     0.967787067455      -0.050987523658     0.032098401828      0.0368828682217     
6700000000.0        0.0321661157049     0.0374383441983     0.967716085301      -0.0517568128282    0.967716085301      -0.0517568128282    0.0321661157049     0.0374383441983     
6800000000.0        0.0322345965453     0.0379936916614     0.967644289894      -0.0525259777049    0.967644289894      -0.0525259777049    0.0322345965453     0.0379936916614     
6900000000.0        0.0323038483439     0.0385489089628     0.967571677235      -0.05329501668      0.967571677235      -0.05329501668      0.0323038483439     0.0385489089628     
7000000000.0        0.0323738749165     0.0391039944483     0.967498243505      -0.0540639281392    0.967498243505      -0.0540639281392    0.0323738749165     0.0391039944483     
7100000000.0        0.0324446799097     0.0396589464582     0.967423985054      -0.0548327104624    0.967423985054      -0.0548327104624    0.0324446799097     0.0396589464582     
7200000000.0        0.0325162668087     0.0402137633275     0.967348898391      -0.055601362024     0.967348898391      -0.055601362024     0.0325162668087     0.0402137633275     
7300000000.0        0.0325886389454     0.0407684433862     0.96727298018       -0.0563698811931    0.96727298018       -0.0563698811931    0.0325886389454     0.0407684433862     
7400000000.0        0.0326617995058     0.0413229849595     0.967196227232      -0.057138266334     0.967196227232      -0.057138266334     0.0326617995058     0.0413229849595     
7500000000.0        0.0327357515366     0.0418773863684     0.967118636495      -0.0579065158063    0.967118636495      -0.0579065158063    0.0327357515366     0.0418773863684     
7600000000.0        0.0328104979521     0.0424316459296     0.96704020505       -0.0586746279652    0.96704020505       -0.0586746279652    0.0328104979521     0.0424316459296     
7700000000.0        0.03288604154       0.0429857619559     0.966960930107      -0.0594426011619    0.966960930107      -0.0594426011619    0.03288604154       0.0429857619559     
7800000000.0        0.0329623849672     0.0435397327566     0.966880808992      -0.0602104337437    0.966880808992      -0.0602104337437    0.0329623849672     0.0435397327566     
7900000000.0        0.0330395307853     0.0440935566374     0.966799839151      -0.0609781240541    0.966799839151      -0.0609781240541    0.0330395307853     0.0440935566374     
8000000000.0        0.0331174814355     0.0446472319009     0.966718018137      -0.0617456704335    0.966718018137      -0.0617456704335    0.0331174814355     0.0446472319009     
8100000000.0        0.0331962392536     0.0452007568467     0.966635343611      -0.0625130712188    0.966635343611      -0.0625130712188    0.0331962392536     0.0452007568467     
8200000000.0        0.0332758064744     0.0457541297716     0.966551813332      -0.0632803247441    0.966551813332      -0.0632803247441    0.0332758064744     0.0457541297716     
8300000000.0        0.0333561852361     0.0463073489698     0.966467425159      -0.0640474293406    0.966467425159      -0.0640474293406    0.0333561852361     0.0463073489698     
8400000000.0        0.0334373775842     0.046860412733      0.966382177041      -0.064814383337     0.966382177041      -0.064814383337     0.0334373775842     0.046860412733      
8500000000.0        0.0335193854753     0.0474133193508     0.966296067016      -0.0655811850594    0.966296067016      -0.0655811850594    0.0335193854753     0.0474133193508     
8600000000.0        0.033602210781      0.0479660671106     0.966209093209      -0.0663478328318    0.966209093209      -0.0663478328318    0.033602210781      0.0479660671106     
8700000000.0        0.0336858552911     0.0485186542979     0.966121253825      -0.067114324976     0.966121253825      -0.067114324976     0.0336858552911     0.0485186542979     
8800000000.0        0.0337703207167     0.0490710791966     0.966032547147      -0.0678806598118    0.966032547147      -0.0678806598118    0.0337703207167     0.0490710791966     
8900000000.0        0.0338556086939     0.0496233400887     0.965942971536      -0.0686468356573    0.965942971536      -0.0686468356573    0.0338556086939     0.0496233400887     
9000000000.0        0.0339417207857     0.050175435255      0.965852525424      -0.0694128508289    0.965852525424      -0.0694128508289    0.0339417207857     0.050175435255      
9100000000.0        0.034028658486      0.0507273629748     0.965761207311      -0.0701787036416    0.965761207311      -0.0701787036416    0.034028658486      0.0507273629748     
9200000000.0        0.0341164232211     0.0512791215262     0.965669015766      -0.0709443924088    0.965669015766      -0.0709443924088    0.0341164232211     0.0512791215262     
9300000000.0        0.034205016353      0.0518307091863     0.965575949422      -0.0717099154428    0.965575949422      -0.0717099154428    0.034205016353      0.0518307091863     
9400000000.0        0.0342944391814     0.0523821242312     0.965482006976      -0.0724752710548    0.965482006976      -0.0724752710548    0.0342944391814     0.0523821242312     
9500000000.0        0.0343846929461     0.0529333649362     0.965387187181      -0.0732404575549    0.965387187181      -0.0732404575549    0.0343846929461     0.0529333649362     
9600000000.0        0.034475778829      0.0534844295758     0.965291488851      -0.0740054732524    0.965291488851      -0.0740054732524    0.034475778829      0.0534844295758     
9700000000.0        0.0345676979565     0.0540353164239     0.965194910854      -0.0747703164556    0.965194910854      -0.0747703164556    0.0345676979565     0.0540353164239     
9800000000.0        0.034660451401      0.054586023754      0.965097452114      -0.0755349854724    0.965097452114      -0.0755349854724    0.034660451401      0.054586023754      
9900000000.0        0.0347540401831     0.0551365498389     0.964999111603      -0.0762994786099    0.964999111603      -0.0762994786099    0.0347540401831     0.0551365498389     
10000000000.0       0.0348484652734     0.0556868929515     0.964899888347      -0.0770637941749    0.964899888347      -0.0770637941749    0.0348484652734     0.0556868929515     
