# Hz S RI R 50.00 
100000000.0         0.000347287959122   -0.00363766569542   0.999592987965      -0.00627456051232   0.999592987965      -0.00627456051232   0.000347287959122   -0.00363766569542   
200000000.0         0.000276546694717   -0.00727496451019   0.999506733051      -0.0125488742477    0.999506733051      -0.0125488742477    0.000276546694717   -0.00727496451019   
300000000.0         0.000159497039665   -0.0109114132545    0.999368512948      -0.0188225474121    0.999368512948      -0.0188225474121    0.000159497039665   -0.0109114132545    
400000000.0         -3.53088643168e-06  -0.014546483276     0.999178006543      -0.0250951177245    0.999178006543      -0.0250951177245    -3.53088643201e-06  -0.014546483276     
500000000.0         -0.000212399631405  -0.0181796210716    0.998935098737      -0.0313660884491    0.998935098737      -0.0313660884491    -0.000212399631405  -0.0181796210716    
600000000.0         -0.000467025054567  -0.0218102562436    0.998639742841      -0.0376349400901    0.998639742841      -0.0376349400901    -0.000467025054567  -0.0218102562436    
700000000.0         -0.000767340553368  -0.0254378057826    0.998291926067      -0.0439011364421    0.998291926067      -0.0439011364421    -0.000767340553369  -0.0254378057826    
800000000.0         -0.00111328377364   -0.0290616767788    0.997891657211      -0.0501641283126    0.997891657211      -0.0501641283126    -0.00111328377364   -0.0290616767788    
900000000.0         -0.00150479052818   -0.032681268322     0.997438961361      -0.056423356069     0.997438961361      -0.056423356069     -0.00150479052818   -0.032681268322     
1000000000.0        -0.00194179159495   -0.0362959729342    0.996933877342      -0.0626782515152    0.996933877342      -0.0626782515152    -0.00194179159495   -0.0362959729342    
1100000000.0        -0.00242421084886   -0.0399051777081    0.996376456401      -0.0689282393512    0.996376456401      -0.0689282393512    -0.00242421084886   -0.0399051777081    
1200000000.0        -0.0029519640823    -0.043508265251     0.99576676149       -0.0751727383595    0.99576676149       -0.0751727383595    -0.0029519640823    -0.043508265251     
1300000000.0        -0.00352495821339   -0.0471046144943    0.995104866868      -0.0814111624017    0.995104866868      -0.0814111624017    -0.00352495821339   -0.0471046144943    
1400000000.0        -0.00414309072862   -0.0506936014044    0.994390857888      -0.0876429212786    0.994390857888      -0.0876429212786    -0.00414309072862   -0.0506936014044    
1500000000.0        -0.00480624927625   -0.0542745996217    0.993624830872      -0.09386742149      0.993624830872      -0.09386742149      -0.00480624927625   -0.0542745996217    
1600000000.0        -0.00551431136197   -0.0578469810441    0.992806893047      -0.100084066918     0.992806893047      -0.100084066918     -0.00551431136197   -0.0578469810441    
1700000000.0        -0.00626714411753   -0.0614101163669    0.991937162517      -0.106292259451     0.991937162517      -0.106292259451     -0.00626714411753   -0.0614101163669    
1800000000.0        -0.00706460412374   -0.0649633755885    0.991015768241      -0.112491399559     0.991015768241      -0.112491399559     -0.00706460412374   -0.0649633755885    
1900000000.0        -0.00790653727567   -0.0685061284874    0.990042850028      -0.11868088683      0.990042850028      -0.11868088683      -0.00790653727567   -0.0685061284874    
2000000000.0        -0.00879277868171   -0.0720377450761    0.989018558529      -0.12486012048      0.989018558529      -0.12486012048      -0.00879277868171   -0.0720377450761    
2100000000.0        -0.00972315259083   -0.075557596035     0.987943055224      -0.131028499826     0.987943055224      -0.131028499826     -0.00972315259083   -0.075557596035     
2200000000.0        -0.0106974723437    -0.079065053129     0.986816512404      -0.13718542475      0.986816512404      -0.13718542475      -0.0106974723437    -0.079065053129     
2300000000.0        -0.011715540345     -0.0825594896096    0.985639113151      -0.143330296127     0.985639113151      -0.143330296127     -0.011715540345     -0.0825594896096    
2400000000.0        -0.0127771480539    -0.0860402806031    0.984411051303      -0.149462516255     0.984411051303      -0.149462516255     -0.0127771480539    -0.0860402806031    
2500000000.0        -0.0138820759918    -0.0895068034874    0.983132531416      -0.15558148925      0.983132531416      -0.15558148925      -0.0138820759918    -0.0895068034874    
2600000000.0        -0.0150300937652    -0.0929584382573    0.981803768709      -0.16168662144      0.981803768709      -0.16168662144      -0.0150300937652    -0.0929584382573    
2700000000.0        -0.0162209601027    -0.0963945678799    0.980424989013      -0.167777321745     0.980424989013      -0.167777321745     -0.0162209601027    -0.0963945678799    
2800000000.0        -0.017454422906     -0.0998145786398    0.978996428693      -0.173853002037     0.978996428693      -0.173853002037     -0.017454422906     -0.0998145786398    
2900000000.0        -0.0187302193122    -0.103217860476     0.977518334578      -0.1799130775       0.977518334578      -0.1799130775       -0.0187302193122    -0.103217860476     
3000000000.0        -0.0200480757689    -0.10660380731      0.975990963867      -0.185956966971     0.975990963867      -0.185956966971     -0.0200480757689    -0.10660380731      
3100000000.0        -0.0214077081204    -0.109971817365     0.974414584039      -0.191984093277     0.974414584039      -0.191984093277     -0.0214077081204    -0.109971817365     
3200000000.0        -0.0228088217034    -0.113321293474     0.972789472739      -0.197993883555     0.972789472739      -0.197993883555     -0.0228088217034    -0.113321293474     
3300000000.0        -0.0242511114547    -0.116651643387     0.971115917673      -0.203985769572     0.971115917673      -0.203985769572     -0.0242511114547    -0.116651643387     
3400000000.0        -0.0257342620269    -0.119962280065     0.969394216476      -0.20995918803      0.969394216476      -0.20995918803      -0.0257342620269    -0.119962280065     
3500000000.0        -0.0272579479141    -0.123252621963     0.967624676586      -0.215913580862     0.967624676586      -0.215913580862     -0.0272579479141    -0.123252621963     
3600000000.0        -0.0288218335865    -0.126522093315     0.965807615104      -0.221848395522     0.965807615104      -0.221848395522     -0.0288218335865    -0.126522093315     
3700000000.0        -0.0304255736333    -0.1297701244       0.963943358643      -0.227763085263     0.963943358643      -0.227763085263     -0.0304255736333    -0.1297701244       
3800000000.0        -0.0320688129132    -0.132996151807     0.962032243178      -0.233657109412     0.962032243178      -0.233657109412     -0.0320688129132    -0.132996151807     
3900000000.0        -0.0337511867138    -0.136199618693     0.96007461388       -0.239529933629     0.96007461388       -0.239529933629     -0.0337511867138    -0.136199618693     
4000000000.0        -0.0354723209169    -0.139379975026     0.958070824948      -0.245381030163     0.958070824948      -0.245381030163     -0.0354723209169    -0.139379975026     
4100000000.0        -0.0372318321721    -0.142536677829     0.956021239434      -0.251209878101     0.956021239434      -0.251209878101     -0.0372318321721    -0.142536677829     
4200000000.0        -0.0390293280761    -0.145669191408     0.953926229057      -0.257015963598     0.953926229057      -0.257015963598     -0.0390293280761    -0.145669191408     
4300000000.0        -0.0408644073591    -0.14877698758      0.951786174018      -0.262798780114     0.951786174018      -0.262798780114     -0.0408644073591    -0.14877698758      
4400000000.0        -0.0427366600766    -0.151859545883     0.949601462806      -0.268557828629     0.949601462806      -0.268557828629     -0.0427366600766    -0.151859545883     
4500000000.0        -0.0446456678075    -0.154916353789     0.947372491995      -0.27429261786      0.947372491995      -0.27429261786      -0.0446456678075    -0.154916353789     
4600000000.0        -0.0465910038569    -0.1579469069       0.945099666038      -0.280002664458     0.945099666038      -0.280002664458     -0.0465910038569    -0.1579469069       
4700000000.0        -0.0485722334647    -0.160950709143     0.942783397063      -0.285687493211     0.942783397063      -0.285687493211     -0.0485722334647    -0.160950709143     
4800000000.0        -0.0505889140182    -0.16392727295      0.94042410465       -0.291346637224     0.94042410465       -0.291346637224     -0.0505889140182    -0.16392727295      
4900000000.0        -0.0526405952698    -0.166876119435     0.938022215618      -0.296979638102     0.938022215618      -0.296979638102     -0.0526405952698    -0.166876119435     
5000000000.0        -0.0547268195585    -0.16979677856      0.935578163798      -0.302586046118     0.935578163798      -0.302586046118     -0.0547268195585    -0.16979677856      
5100000000.0        -0.0568471220348    -0.172688789294     0.933092389808      -0.308165420372     0.933092389808      -0.308165420372     -0.0568471220348    -0.172688789294     
5200000000.0        -0.0590010308903    -0.175551699765     0.930565340821      -0.313717328949     0.930565340821      -0.313717328949     -0.0590010308903    -0.175551699765     
5300000000.0        -0.0611880675892    -0.178385067401     0.927997470332      -0.319241349061     0.927997470332      -0.319241349061     -0.0611880675892    -0.178385067401     
5400000000.0        -0.0634077471034    -0.181188459065     0.92538923792       -0.32473706718      0.92538923792       -0.32473706718      -0.0634077471034    -0.181188459065     
5500000000.0        -0.0656595781504    -0.183961451179     0.922741109012      -0.33020407917      0.922741109012      -0.33020407917      -0.0656595781504    -0.183961451179     
5600000000.0        -0.0679430634327    -0.186703629847     0.920053554638      -0.335641990405     0.920053554638      -0.335641990405     -0.0679430634327    -0.186703629847     
5700000000.0        -0.0702576998806    -0.189414590958     0.917327051186      -0.341050415879     0.917327051186      -0.341050415879     -0.0702576998806    -0.189414590958     
5800000000.0        -0.072602978895     -0.192093940292     0.914562080162      -0.34642898031      0.914562080162      -0.34642898031      -0.072602978895     -0.192093940292     
5900000000.0        -0.0749783865934    -0.194741293614     0.91175912794       -0.351777318232     0.91175912794       -0.351777318232     -0.0749783865934    -0.194741293614     
6000000000.0        -0.0773834040562    -0.197356276757     0.908918685511      -0.357095074085     0.908918685511      -0.357095074085     -0.0773834040562    -0.197356276757     
6100000000.0        -0.0798175075736    -0.199938525702     0.90604124824       -0.36238190229      0.90604124824       -0.36238190229      -0.0798175075736    -0.199938525702     
6200000000.0        -0.0822801688944    -0.202487686645     0.903127315611      -0.36763746732      0.903127315611      -0.36763746732      -0.0822801688944    -0.202487686645     
6300000000.0        -0.084770855474     -0.205003416063     0.90017739098       -0.372861443762     0.90017739098       -0.372861443762     -0.084770855474     -0.205003416063     
6400000000.0        -0.0872890307231    -0.207485380763     0.897191981322      -0.378053516373     0.897191981322      -0.378053516373     -0.0872890307231    -0.207485380763     
6500000000.0        -0.0898341542564    -0.209933257934     0.894171596984      -0.383213380123     0.894171596984      -0.383213380123     -0.0898341542564    -0.209933257934     
6600000000.0        -0.0924056821406    -0.212346735183     0.891116751431      -0.388340740237     0.891116751431      -0.388340740237     -0.0924056821406    -0.212346735183     
6700000000.0        -0.0950030671423    -0.214725510566     0.888027961         -0.393435312224     0.888027961         -0.393435312224     -0.0950030671423    -0.214725510566     
6800000000.0        -0.0976257589745    -0.217069292613     0.884905744651      -0.398496821901     0.884905744651      -0.398496821901     -0.0976257589745    -0.217069292613     
6900000000.0        -0.100273204543     -0.219377800348     0.881750623716      -0.40352500541      0.881750623716      -0.40352500541      -0.100273204543     -0.219377800348     
7000000000.0        -0.102944848189     -0.221650763291     0.878563121658      -0.408519609226     0.878563121658      -0.408519609226     -0.102944848189     -0.221650763291     
7100000000.0        -0.105640131935     -0.22388792147      0.87534376382       -0.413480390162     0.87534376382       -0.413480390162     -0.105640131935     -0.22388792147      
7200000000.0        -0.108358495726     -0.22608902541      0.87209307719       -0.418407115356     0.87209307719       -0.418407115356     -0.108358495726     -0.22608902541      
7300000000.0        -0.111099377664     -0.228253836124     0.868811590148      -0.42329956227      0.868811590148      -0.42329956227      -0.111099377664     -0.228253836124     
7400000000.0        -0.113862214253     -0.230382125097     0.86549983224       -0.428157518661     0.86549983224       -0.428157518661     -0.113862214253     -0.230382125097     
7500000000.0        -0.116646440627     -0.232473674261     0.862158333929      -0.432980782561     0.862158333929      -0.432980782561     -0.116646440627     -0.232473674261     
7600000000.0        -0.11945149079      -0.234528275964     0.858787626369      -0.437769162245     0.858787626369      -0.437769162245     -0.11945149079      -0.234528275964     
7700000000.0        -0.122276797838     -0.236545732934     0.855388241168      -0.442522476191     0.855388241168      -0.442522476191     -0.122276797838     -0.236545732934     
7800000000.0        -0.125121794192     -0.238525858235     0.851960710161      -0.447240553038     0.851960710161      -0.447240553038     -0.125121794192     -0.238525858235     
7900000000.0        -0.127985911822     -0.240468475221     0.848505565183      -0.451923231531     0.848505565183      -0.451923231531     -0.127985911822     -0.240468475221     
8000000000.0        -0.130868582465     -0.242373417479     0.845023337845      -0.456570360472     0.845023337845      -0.456570360472     -0.130868582465     -0.242373417479     
8100000000.0        -0.133769237847     -0.244240528773     0.841514559314      -0.461181798653     0.841514559314      -0.461181798653     -0.133769237847     -0.244240528773     
8200000000.0        -0.136687309892     -0.246069662974     0.837979760101      -0.465757414789     0.837979760101      -0.465757414789     -0.136687309892     -0.246069662974     
8300000000.0        -0.139622230942     -0.247860683992     0.834419469838      -0.470297087447     0.834419469838      -0.470297087447     -0.139622230942     -0.247860683992     
8400000000.0        -0.142573433954     -0.2496134657       0.830834217079      -0.474800704969     0.830834217079      -0.474800704969     -0.142573433954     -0.2496134657       
8500000000.0        -0.145540352712     -0.251327891855     0.827224529087      -0.479268165387     0.827224529087      -0.479268165387     -0.145540352712     -0.251327891855     
8600000000.0        -0.148522422023     -0.253003856011     0.823590931636      -0.483699376336     0.823590931636      -0.483699376336     -0.148522422023     -0.253003856011     
8700000000.0        -0.151519077913     -0.25464126143      0.81993394881       -0.488094254962     0.81993394881       -0.488094254962     -0.151519077913     -0.25464126143      
8800000000.0        -0.15452975782      -0.256240020986     0.816254102811      -0.492452727827     0.816254102811      -0.492452727827     -0.15452975782      -0.256240020986     
8900000000.0        -0.157553900782     -0.25780005707      0.812551913769      -0.496774730806     0.812551913769      -0.496774730806     -0.157553900782     -0.25780005707      
9000000000.0        -0.160590947617     -0.259321301485     0.808827899555      -0.50106020898      0.808827899555      -0.50106020898      -0.160590947617     -0.259321301485     
9100000000.0        -0.163640341108     -0.260803695342     0.805082575603      -0.505309116532     0.805082575603      -0.505309116532     -0.163640341108     -0.260803695342     
9200000000.0        -0.166701526172     -0.262247188949     0.801316454727      -0.509521416631     0.801316454727      -0.509521416631     -0.166701526172     -0.262247188949     
9300000000.0        -0.169773950035     -0.263651741694     0.797530046954      -0.513697081314     0.797530046954      -0.513697081314     -0.169773950035     -0.263651741694     
9400000000.0        -0.172857062393     -0.265017321935     0.793723859355      -0.517836091371     0.793723859355      -0.517836091371     -0.172857062393     -0.265017321935     
9500000000.0        -0.17595031558      -0.266343906877     0.789898395878      -0.521938436217     0.789898395878      -0.521938436217     -0.17595031558      -0.266343906877     
9600000000.0        -0.179053164717     -0.267631482446     0.786054157193      -0.526004113771     0.786054157193      -0.526004113771     -0.179053164717     -0.267631482446     
9700000000.0        -0.182165067871     -0.268880043168     0.782191640534      -0.530033130319     0.782191640534      -0.530033130319     -0.182165067871     -0.268880043168     
9800000000.0        -0.185285486198     -0.270089592038     0.778311339553      -0.534025500393     0.778311339553      -0.534025500393     -0.185285486198     -0.270089592038     
9900000000.0        -0.188413884087     -0.271260140392     0.774413744172      -0.537981246627     0.774413744172      -0.537981246627     -0.188413884087     -0.271260140392     
10000000000.0       -0.191549729301     -0.272391707769     0.770499340442      -0.541900399625     0.770499340442      -0.541900399625     -0.191549729301     -0.272391707769     
