# Hz S RI R 50.00 
100000000.0         0.0214026350302     0.000577840663083   0.978596136004      -0.000799312122941  0.978596136004      -0.000799312122941  0.0214026350302     0.000577840663083   
200000000.0         0.0215412866304     0.00115529279664    0.978457206024      -0.00159823598504   0.978457206024      -0.00159823598504   0.0215412866304     0.00115529279664    
300000000.0         0.021643142726      0.00173251417809    0.978355022132      -0.00239692955915   0.978355022132      -0.00239692955915   0.021643142726      0.00173251417809    
400000000.0         0.0217265477952     0.00230955913472    0.978271239846      -0.00319544732889   0.978271239846      -0.00319544732889   0.0217265477952     0.00230955913472    
500000000.0         0.0217985932314     0.00288645785973    0.978198767769      -0.00399381962433   0.978198767769      -0.00399381962433   0.0217985932314     0.00288645785973    
600000000.0         0.0218629087902     0.00346322983067    0.978133976143      -0.0047920660474    0.978133976143      -0.0047920660474    0.0218629087902     0.00346322983067    
700000000.0         0.0219216464369     0.00403988863428    0.978074713         -0.00559020030013   0.978074713         -0.00559020030013   0.0219216464369     0.00403988863428    
800000000.0         0.0219762054655     0.00461644420628    0.978019579044      -0.00638823242658   0.978019579044      -0.00638823242658   0.0219762054655     0.00461644420628    
900000000.0         0.0220275558242     0.00519290403533    0.977967604325      -0.00718617001816   0.977967604325      -0.00718617001816   0.0220275558242     0.00519290403533    
1000000000.0        0.0220764022356     0.00576927387629    0.977918084117      -0.00798401892785   0.977918084117      -0.00798401892785   0.0220764022356     0.00576927387629    
1100000000.0        0.0221232755577     0.00634555820346    0.97787048756       -0.00878178372412   0.97787048756       -0.00878178372412   0.0221232755577     0.00634555820346    
1200000000.0        0.0221685872995     0.00692176051418    0.977824403143      -0.0095794679951    0.977824403143      -0.0095794679951    0.0221685872995     0.00692176051418    
1300000000.0        0.0222126639682     0.00749788354094    0.977779504357      -0.0103770745611    0.977779504357      -0.0103770745611    0.0222126639682     0.00749788354094    
1400000000.0        0.0222557696765     0.00807392940453    0.977735527086      -0.011174605628     0.977735527086      -0.011174605628     0.0222557696765     0.00807392940453    
1500000000.0        0.0222981215696     0.00864989972784    0.977692254183      -0.0119720629015    0.977692254183      -0.0119720629015    0.0222981215696     0.00864989972784    
1600000000.0        0.0223399006751     0.00922579572234    0.977649504618      -0.0127694476738    0.977649504618      -0.0127694476738    0.0223399006751     0.00922579572234    
1700000000.0        0.0223812597331     0.00980161825511    0.977607125649      -0.0135667608906    0.977607125649      -0.0135667608906    0.0223812597331     0.00980161825511    
1800000000.0        0.0224223289732     0.0103773679017     0.977564987043      -0.0143640032043    0.977564987043      -0.0143640032043    0.0224223289732     0.0103773679017     
1900000000.0        0.0224632204606     0.0109530449887     0.977522976733      -0.0151611750168    0.977522976733      -0.0151611750168    0.0224632204606     0.0109530449887     
2000000000.0        0.0225040314211     0.0115286496278     0.977480997491      -0.0159582765135    0.977480997491      -0.0159582765135    0.0225040314211     0.0115286496278     
2100000000.0        0.0225448468239     0.012104181744      0.977438964345      -0.0167553076917    0.977438964345      -0.0167553076917    0.0225448468239     0.012104181744      
2200000000.0        0.0225857414143     0.0126796410995     0.977396802547      -0.0175522683845    0.977396802547      -0.0175522683845    0.0225857414143     0.0126796410995     
2300000000.0        0.0226267813346     0.0132550273125     0.977354445952      -0.0183491582799    0.977354445952      -0.0183491582799    0.0226267813346     0.0132550273125     
2400000000.0        0.0226680254282     0.0138303398743     0.977311835714      -0.0191459769379    0.977311835714      -0.0191459769379    0.0226680254282     0.0138303398743     
2500000000.0        0.0227095263017     0.0144055781633     0.977268919224      -0.019942723804     0.977268919224      -0.019942723804     0.0227095263017     0.0144055781633     
2600000000.0        0.0227513311961     0.0149807414567     0.977225649239      -0.0207393982221    0.977225649239      -0.0207393982221    0.0227513311961     0.0149807414567     
2700000000.0        0.0227934827084     0.0155558289414     0.977181983158      -0.0215359994443    0.977181983158      -0.0215359994443    0.0227934827084     0.0155558289414     
2800000000.0        0.0228360193928     0.0161308397226     0.977137882424      -0.0223325266404    0.977137882424      -0.0223325266404    0.0228360193928     0.0161308397226     
2900000000.0        0.0228789762663     0.0167057728317     0.977093312017      -0.0231289789053    0.977093312017      -0.0231289789053    0.0228789762663     0.0167057728317     
3000000000.0        0.0229223852354     0.0172806272335     0.977048240029      -0.0239253552664    0.977048240029      -0.0239253552664    0.0229223852354     0.0172806272335     
3100000000.0        0.0229662754596     0.0178554018318     0.977002637296      -0.0247216546896    0.977002637296      -0.0247216546896    0.0229662754596     0.0178554018318     
3200000000.0        0.0230106736619     0.0184300954751     0.976956477093      -0.0255178760844    0.976956477093      -0.0255178760844    0.0230106736619     0.0184300954751     
3300000000.0        0.0230556043955     0.0190047069614     0.976909734863      -0.0263140183091    0.976909734863      -0.0263140183091    0.0230556043955     0.0190047069614     
3400000000.0        0.0231010902749     0.019579235042      0.976862387989      -0.0271100801747    0.976862387989      -0.0271100801747    0.0231010902749     0.019579235042      
3500000000.0        0.0231471521757     0.0201536784258     0.976814415592      -0.0279060604491    0.976814415592      -0.0279060604491    0.0231471521757     0.0201536784258     
3600000000.0        0.0231938094091     0.0207280357825     0.976765798358      -0.0287019578601    0.976765798358      -0.0287019578601    0.0231938094091     0.0207280357825     
3700000000.0        0.0232410798744     0.0213023057455     0.976716518383      -0.0294977710988    0.976716518383      -0.0294977710988    0.0232410798744     0.0213023057455     
3800000000.0        0.0232889801935     0.021876486915      0.976666559043      -0.0302934988225    0.976666559043      -0.0302934988225    0.0232889801935     0.021876486915      
3900000000.0        0.0233375258284     0.0224505778603     0.976615904873      -0.0310891396567    0.976615904873      -0.0310891396567    0.0233375258284     0.0224505778603     
4000000000.0        0.0233867311862     0.023024577122      0.976564541461      -0.0318846921979    0.976564541461      -0.0318846921979    0.0233867311862     0.023024577122      
4100000000.0        0.0234366097119     0.0235984832143     0.97651245536       -0.0326801550155    0.97651245536       -0.0326801550155    0.0234366097119     0.0235984832143     
4200000000.0        0.0234871739706     0.0241722946266     0.976459634         -0.0334755266537    0.976459634         -0.0334755266537    0.0234871739706     0.0241722946266     
4300000000.0        0.0235384357213     0.0247460098256     0.97640606562       -0.0342708056333    0.97640606562       -0.0342708056333    0.0235384357213     0.0247460098256     
4400000000.0        0.0235904059832     0.0253196272565     0.976351739197      -0.0350659904531    0.976351739197      -0.0350659904531    0.0235904059832     0.0253196272565     
4500000000.0        0.0236430950943     0.0258931453448     0.976296644388      -0.0358610795918    0.976296644388      -0.0358610795918    0.0236430950943     0.0258931453448     
4600000000.0        0.0236965127653     0.0264665624972     0.97624077148       -0.0366560715089    0.97624077148       -0.0366560715089    0.0236965127653     0.0264665624972     
4700000000.0        0.0237506681271     0.0270398771033     0.976184111338      -0.0374509646461    0.976184111338      -0.0374509646461    0.0237506681271     0.0270398771033     
4800000000.0        0.0238055697745     0.0276130875365     0.976126655362      -0.0382457574284    0.976126655362      -0.0382457574284    0.0238055697745     0.0276130875365     
4900000000.0        0.0238612258054     0.028186192155      0.976068395453      -0.0390404482655    0.976068395453      -0.0390404482655    0.0238612258054     0.028186192155      
5000000000.0        0.0239176438568     0.028759189303      0.976009323968      -0.0398350355522    0.976009323968      -0.0398350355522    0.0239176438568     0.028759189303      
5100000000.0        0.0239748311368     0.0293320773112     0.975949433695      -0.0406295176699    0.975949433695      -0.0406295176699    0.0239748311368     0.0293320773112     
5200000000.0        0.0240327944544     0.0299048544981     0.975888717822      -0.041423892987     0.975888717822      -0.041423892987     0.0240327944544     0.0299048544981     
5300000000.0        0.0240915402467     0.0304775191706     0.975827169908      -0.0422181598599    0.975827169908      -0.0422181598599    0.0240915402467     0.0304775191706     
5400000000.0        0.0241510746034     0.0310500696246     0.975764783858      -0.0430123166338    0.975764783858      -0.0430123166338    0.0241510746034     0.0310500696246     
5500000000.0        0.0242114032895     0.0316225041458     0.975701553904      -0.0438063616431    0.975701553904      -0.0438063616431    0.0242114032895     0.0316225041458     
5600000000.0        0.0242725317661     0.0321948210103     0.97563747458       -0.0446002932126    0.97563747458       -0.0446002932126    0.0242725317661     0.0321948210103     
5700000000.0        0.0243344652094     0.0327670184854     0.975572540707      -0.0453941096573    0.975572540707      -0.0453941096573    0.0243344652094     0.0327670184854     
5800000000.0        0.0243972085284     0.0333390948296     0.975506747369      -0.0461878092838    0.975506747369      -0.0461878092838    0.0243972085284     0.0333390948296     
5900000000.0        0.024460766381      0.033911048294      0.975440089907      -0.0469813903901    0.975440089907      -0.0469813903901    0.024460766381      0.033911048294      
6000000000.0        0.0245251431889     0.0344828771217     0.975372563893      -0.0477748512667    0.975372563893      -0.0477748512667    0.0245251431889     0.0344828771217     
6100000000.0        0.0245903431518     0.0350545795494     0.975304165123      -0.0485681901967    0.975304165123      -0.0485681901967    0.0245903431518     0.0350545795494     
6200000000.0        0.0246563702597     0.0356261538069     0.975234889603      -0.0493614054563    0.975234889603      -0.0493614054563    0.0246563702597     0.0356261538069     
6300000000.0        0.0247232283051     0.0361975981181     0.975164733536      -0.0501544953153    0.975164733536      -0.0501544953153    0.0247232283051     0.0361975981181     
6400000000.0        0.0247909208937     0.0367689107009     0.975093693311      -0.0509474580374    0.975093693311      -0.0509474580374    0.0247909208937     0.0367689107009     
6500000000.0        0.0248594514552     0.0373400897682     0.975021765495      -0.0517402918808    0.975021765495      -0.0517402918808    0.0248594514552     0.0373400897682     
6600000000.0        0.0249288232519     0.0379111335276     0.974948946821      -0.0525329950981    0.974948946821      -0.0525329950981    0.0249288232519     0.0379111335276     
6700000000.0        0.0249990393886     0.0384820401821     0.974875234179      -0.053325565937     0.974875234179      -0.053325565937     0.0249990393886     0.0384820401821     
6800000000.0        0.02507010282       0.0390528079303     0.974800624609      -0.0541180026407    0.974800624609      -0.0541180026407    0.02507010282       0.0390528079303     
6900000000.0        0.0251420163588     0.0396234349667     0.974725115294      -0.0549103034477    0.974725115294      -0.0549103034477    0.0251420163588     0.0396234349667     
7000000000.0        0.025214782683      0.040193919482      0.974648703553      -0.0557024665924    0.974648703553      -0.0557024665924    0.025214782683      0.040193919482      
7100000000.0        0.0252884043422     0.0407642596632     0.974571386828      -0.0564944903057    0.974571386828      -0.0564944903057    0.0252884043422     0.0407642596632     
7200000000.0        0.0253628837644     0.0413344536942     0.97449316269       -0.0572863728146    0.97449316269       -0.0572863728146    0.0253628837644     0.0413344536942     
7300000000.0        0.0254382232615     0.0419044997556     0.974414028819      -0.0580781123427    0.974414028819      -0.0580781123427    0.0254382232615     0.0419044997556     
7400000000.0        0.025514425035      0.0424743960253     0.97433398301       -0.0588697071106    0.97433398301       -0.0588697071106    0.025514425035      0.0424743960253     
7500000000.0        0.0255914911812     0.0430441406784     0.974253023162      -0.059661155336     0.974253023162      -0.059661155336     0.0255914911812     0.0430441406784     
7600000000.0        0.0256694236961     0.0436137318878     0.974171147274      -0.0604524552339    0.974171147274      -0.0604524552339    0.0256694236961     0.0436137318878     
7700000000.0        0.0257482244798     0.044183167824      0.974088353439      -0.0612436050167    0.974088353439      -0.0612436050167    0.0257482244798     0.044183167824      
7800000000.0        0.0258278953411     0.0447524466553     0.974004639845      -0.0620346028945    0.974004639845      -0.0620346028945    0.0258278953411     0.0447524466553     
7900000000.0        0.0259084380012     0.0453215665483     0.973920004766      -0.0628254470754    0.973920004766      -0.0628254470754    0.0259084380012     0.0453215665483     
8000000000.0        0.025989854098      0.045890525668      0.973834446557      -0.0636161357654    0.973834446557      -0.0636161357654    0.025989854098      0.045890525668      
8100000000.0        0.026072145189      0.0464593221775     0.973747963656      -0.0644066671686    0.973747963656      -0.0644066671686    0.026072145189      0.0464593221775     
8200000000.0        0.0261553127556     0.0470279542387     0.973660554577      -0.0651970394877    0.973660554577      -0.0651970394877    0.0261553127556     0.0470279542387     
8300000000.0        0.0262393582055     0.0475964200123     0.973572217906      -0.0659872509238    0.973572217906      -0.0659872509238    0.0262393582055     0.0475964200123     
8400000000.0        0.0263242828763     0.0481647176577     0.9734829523        -0.0667772996766    0.9734829523        -0.0667772996766    0.0263242828763     0.0481647176577     
8500000000.0        0.026410088038      0.0487328453335     0.973392756485      -0.0675671839445    0.973392756485      -0.0675671839445    0.026410088038      0.0487328453335     
8600000000.0        0.026496774896      0.0493008011973     0.973301629249      -0.0683569019252    0.973301629249      -0.0683569019252    0.026496774896      0.0493008011973     
8700000000.0        0.0265843445933     0.049868583406      0.973209569443      -0.069146451815     0.973209569443      -0.069146451815     0.0265843445933     0.049868583406      
8800000000.0        0.0266727982134     0.0504361901161     0.973116575979      -0.0699358318096    0.973116575979      -0.0699358318096    0.0266727982134     0.0504361901161     
8900000000.0        0.0267621367825     0.0510036194833     0.973022647825      -0.0707250401039    0.973022647825      -0.0707250401039    0.0267621367825     0.0510036194833     
9000000000.0        0.0268523612711     0.051570869663      0.972927784005      -0.0715140748924    0.972927784005      -0.0715140748924    0.0268523612711     0.051570869663      
9100000000.0        0.0269434725971     0.0521379388105     0.972831983595      -0.0723029343687    0.972831983595      -0.0723029343687    0.0269434725971     0.0521379388105     
9200000000.0        0.027035471627      0.0527048250807     0.972735245723      -0.0730916167265    0.972735245723      -0.0730916167265    0.027035471627      0.0527048250807     
9300000000.0        0.0271283591778     0.0532715266286     0.972637569566      -0.0738801201588    0.972637569566      -0.0738801201588    0.0271283591778     0.0532715266286     
9400000000.0        0.0272221360194     0.0538380416089     0.972538954349      -0.0746684428586    0.972538954349      -0.0746684428586    0.0272221360194     0.0538380416089     
9500000000.0        0.0273168028757     0.0544043681769     0.972439399341      -0.0754565830189    0.972439399341      -0.0754565830189    0.0273168028757     0.0544043681769     
9600000000.0        0.0274123604264     0.0549705044875     0.972338903858      -0.0762445388323    0.972338903858      -0.0762445388323    0.0274123604264     0.0549705044875     
9700000000.0        0.0275088093085     0.0555364486965     0.972237467257      -0.077032308492     0.972237467257      -0.077032308492     0.0275088093085     0.0555364486965     
9800000000.0        0.027606150118      0.0561021989595     0.972135088935      -0.077819890191     0.972135088935      -0.077819890191     0.027606150118      0.0561021989595     
9900000000.0        0.0277043834109     0.0566677534329     0.97203176833       -0.0786072821226    0.97203176833       -0.0786072821226    0.0277043834109     0.0566677534329     
10000000000.0       0.027803509705      0.0572331102735     0.971927504919      -0.0793944824805    0.971927504919      -0.0793944824805    0.027803509705      0.0572331102735     
