# Hz S RI R 50.00 
100000000.0         1.68988694904e-05   -0.00393103011089   0.999941546976      -0.00414453333898   0.999941546976      -0.00414453333898   1.68988694906e-05   -0.00393103011089   
200000000.0         -3.56941151275e-05  -0.00786168268756   0.999888373799      -0.00828870139206   0.999888373799      -0.00828870139206   -3.56941151276e-05  -0.00786168268756   
300000000.0         -0.000120928088028  -0.0117916057725    0.99980264443       -0.0124321587602    0.99980264443       -0.0124321587602    -0.000120928088029  -0.0117916057725    
400000000.0         -0.000238757945996  -0.0157204380753    0.999684339058      -0.016574549204     0.999684339058      -0.016574549204     -0.000238757945996  -0.0157204380753    
500000000.0         -0.000389153157628  -0.019647813664     0.999533463302      -0.0207155110956    0.999533463302      -0.0207155110956    -0.000389153157628  -0.019647813664     
600000000.0         -0.000572083764695  -0.0235733636982    0.999350034457      -0.0248546794102    0.999350034457      -0.0248546794102    -0.000572083764695  -0.0235733636982    
700000000.0         -0.000787516779525  -0.027496717369     0.999134078049      -0.0289916867976    0.999134078049      -0.0289916867976    -0.000787516779525  -0.027496717369     
800000000.0         -0.00103541484402   -0.0314175025127    0.998885626609      -0.0331261642735    0.998885626609      -0.0331261642735    -0.00103541484402   -0.0314175025127    
900000000.0         -0.00131573561657   -0.0353353460579    0.99860471915       -0.0372577417181    0.99860471915       -0.0372577417181    -0.00131573561657   -0.0353353460579    
1000000000.0        -0.00162843145221   -0.0392498743741    0.998291400908      -0.0413860482603    0.998291400908      -0.0413860482603    -0.00162843145221   -0.0392498743741    
1100000000.0        -0.00197344922031   -0.0431607135619    0.997945723203      -0.0455107125955    0.997945723203      -0.0455107125955    -0.00197344922031   -0.0431607135619    
1200000000.0        -0.00235073019474   -0.0470674897041    0.997567743359      -0.0496313632557    0.997567743359      -0.0496313632557    -0.00235073019474   -0.0470674897041    
1300000000.0        -0.00276020998614   -0.0509698290882    0.997157524656      -0.0537476288491    0.997157524656      -0.0537476288491    -0.00276020998614   -0.0509698290882    
1400000000.0        -0.00320181850062   -0.0548673584099    0.996715136285      -0.057859138276     0.996715136285      -0.057859138276     -0.00320181850062   -0.0548673584099    
1500000000.0        -0.00367547991628   -0.0587597049611    0.996240653326      -0.0619655209274    0.996240653326      -0.0619655209274    -0.00367547991628   -0.0587597049611    
1600000000.0        -0.00418111267285   -0.0626464968072    0.995734156718      -0.0660664068716    0.995734156718      -0.0660664068716    -0.00418111267284   -0.0626464968072    
1700000000.0        -0.00471862947108   -0.0665273629547    0.99519573323       -0.070161427029     0.99519573323       -0.070161427029     -0.00471862947108   -0.0665273629547    
1800000000.0        -0.00528793728      -0.0704019335107    0.99462547544       -0.0742502133385    0.99462547544       -0.0742502133385    -0.00528793728      -0.0704019335107    
1900000000.0        -0.00588893735103   -0.0742698398386    0.9940234817        -0.0783323989182    0.9940234817        -0.0783323989182    -0.00588893735103   -0.0742698398386    
2000000000.0        -0.00652152523762   -0.0781307147059    0.99338985611       -0.0824076182187    0.99338985611       -0.0824076182187    -0.00652152523762   -0.0781307147059    
2100000000.0        -0.00718559082007   -0.0819841924287    0.992724708481      -0.0864755071723    0.992724708481      -0.0864755071723    -0.00718559082007   -0.0819841924287    
2200000000.0        -0.00788101833514   -0.0858299090132    0.9920281543        -0.0905357033373    0.9920281543        -0.0905357033373    -0.00788101833514   -0.0858299090132    
2300000000.0        -0.00860768640955   -0.0896675022909    0.991300314693      -0.094587846038     0.991300314693      -0.094587846038     -0.00860768640955   -0.0896675022909    
2400000000.0        -0.00936546809792   -0.093496612053     0.990541316377      -0.0986315765014    0.990541316377      -0.0986315765014    -0.00936546809792   -0.093496612053     
2500000000.0        -0.0101542309241    -0.0973168801805    0.989751291622      -0.102666537991     0.989751291622      -0.102666537991     -0.0101542309241    -0.0973168801805    
2600000000.0        -0.0109738369263    -0.101127950771     0.988930378199      -0.106692375935     0.988930378199      -0.106692375935     -0.0109738369263    -0.101127950771     
2700000000.0        -0.0118241427057    -0.104929470265     0.988078719329      -0.110708738055     0.988078719329      -0.110708738055     -0.0118241427057    -0.104929470265     
2800000000.0        -0.0127049994778    -0.108721087564     0.987196463633      -0.11471527449      0.987196463633      -0.11471527449      -0.0127049994778    -0.108721087564     
2900000000.0        -0.0136162531279    -0.112502454155     0.98628376507       -0.118711637918     0.98628376507       -0.118711637918     -0.0136162531279    -0.112502454155     
3000000000.0        -0.0145577442682    -0.11627322422      0.985340782883      -0.12269748367      0.985340782883      -0.12269748367      -0.0145577442682    -0.11627322422      
3100000000.0        -0.0155293082995    -0.120033054758     0.984367681532      -0.126672469853     0.984367681532      -0.126672469853     -0.0155293082995    -0.120033054758     
3200000000.0        -0.0165307754742    -0.123781605689     0.983364630634      -0.130636257457     0.983364630634      -0.130636257457     -0.0165307754742    -0.123781605689     
3300000000.0        -0.0175619709629    -0.127518539969     0.982331804893      -0.134588510469     0.982331804893      -0.134588510469     -0.0175619709629    -0.127518539969     
3400000000.0        -0.0186227149233    -0.13124352369      0.981269384033      -0.138528895978     0.981269384033      -0.138528895978     -0.0186227149233    -0.13124352369      
3500000000.0        -0.0197128225719    -0.13495622619      0.980177552721      -0.142457084283     0.980177552721      -0.142457084283     -0.0197128225719    -0.13495622619      
3600000000.0        -0.0208321042574    -0.138656320151     0.979056500497      -0.146372748994     0.979056500497      -0.146372748994     -0.0208321042574    -0.138656320151     
3700000000.0        -0.0219803655376    -0.142343481695     0.977906421696      -0.150275567131     0.977906421696      -0.150275567131     -0.0219803655376    -0.142343481695     
3800000000.0        -0.0231574072575    -0.146017390485     0.976727515369      -0.154165219222     0.976727515369      -0.154165219222     -0.0231574072575    -0.146017390485     
3900000000.0        -0.0243630256303    -0.149677729816     0.975519985201      -0.158041389398     0.975519985201      -0.158041389398     -0.0243630256303    -0.149677729816     
4000000000.0        -0.02559701232      -0.153324186707     0.97428403943       -0.161903765484     0.97428403943       -0.161903765484     -0.02559701232      -0.153324186707     
4100000000.0        -0.0268591545261    -0.156956451984     0.97301989076       -0.165752039089     0.97301989076       -0.165752039089     -0.0268591545261    -0.156956451984     
4200000000.0        -0.0281492350707    -0.160574220373     0.971727756274      -0.169585905691     0.971727756274      -0.169585905691     -0.0281492350707    -0.160574220373     
4300000000.0        -0.0294670324863    -0.164177190577     0.970407857348      -0.173405064722     0.970407857348      -0.173405064722     -0.0294670324863    -0.164177190577     
4400000000.0        -0.030812321107     -0.16776506536      0.969060419556      -0.177209219647     0.969060419556      -0.177209219647     -0.030812321107     -0.16776506536      
4500000000.0        -0.0321848711594    -0.171337551621     0.967685672582      -0.180998078045     0.967685672582      -0.180998078045     -0.0321848711594    -0.171337551621     
4600000000.0        -0.0335844488569    -0.174894360469     0.966283850125      -0.184771351681     0.966283850125      -0.184771351681     -0.0335844488569    -0.174894360469     
4700000000.0        -0.035010816494     -0.178435207296     0.964855189804      -0.188528756583     0.964855189804      -0.188528756583     -0.035010816494     -0.178435207296     
4800000000.0        -0.0364637325432    -0.181959811847     0.963399933061      -0.192270013107     0.963399933061      -0.192270013107     -0.0364637325432    -0.181959811847     
4900000000.0        -0.0379429517519    -0.185467898284     0.961918325064      -0.195994846005     0.961918325064      -0.195994846005     -0.0379429517519    -0.185467898284     
5000000000.0        -0.0394482252422    -0.188959195248     0.960410614607      -0.199702984492     0.960410614607      -0.199702984492     -0.0394482252422    -0.188959195248     
5100000000.0        -0.0409793006097    -0.192433435924     0.958877054011      -0.203394162305     0.958877054011      -0.203394162305     -0.0409793006097    -0.192433435924     
5200000000.0        -0.0425359220258    -0.195890358096     0.957317899024      -0.20706811776      0.957317899024      -0.20706811776      -0.0425359220258    -0.195890358096     
5300000000.0        -0.0441178303386    -0.199329704201     0.955733408714      -0.21072459381      0.955733408714      -0.21072459381      -0.0441178303386    -0.199329704201     
5400000000.0        -0.0457247631763    -0.202751221385     0.954123845375      -0.214363338098     0.954123845375      -0.214363338098     -0.0457247631763    -0.202751221385     
5500000000.0        -0.0473564550509    -0.206154661548     0.952489474412      -0.217984103005     0.952489474412      -0.217984103005     -0.0473564550509    -0.206154661548     
5600000000.0        -0.0490126374621    -0.209539781391     0.950830564248      -0.221586645696     0.950830564248      -0.221586645696     -0.0490126374621    -0.209539781391     
5700000000.0        -0.0506930390027    -0.212906342463     0.949147386209      -0.225170728169     0.949147386209      -0.225170728169     -0.0506930390027    -0.212906342463     
5800000000.0        -0.0523973854642    -0.216254111199     0.947440214426      -0.228736117291     0.947440214426      -0.228736117291     -0.0523973854642    -0.216254111199     
5900000000.0        -0.0541253999421    -0.219582858958     0.945709325725      -0.23228258484      0.945709325725      -0.23228258484      -0.0541253999421    -0.219582858958     
6000000000.0        -0.0558768029432    -0.22289236206      0.94395499952       -0.235809907538     0.94395499952       -0.235809907538     -0.0558768029432    -0.22289236206      
6100000000.0        -0.0576513124914    -0.226182401815     0.94217751771       -0.239317867087     0.94217751771       -0.239317867087     -0.0576513124914    -0.226182401815     
6200000000.0        -0.0594486442352    -0.229452764557     0.94037716457       -0.242806250196     0.94037716457       -0.242806250196     -0.0594486442352    -0.229452764557     
6300000000.0        -0.0612685115544    -0.232703241668     0.938554226642      -0.246274848611     0.938554226642      -0.246274848611     -0.0612685115544    -0.232703241668     
6400000000.0        -0.0631106256672    -0.235933629603     0.936708992631      -0.249723459138     0.936708992631      -0.249723459138     -0.0631106256672    -0.235933629603     
6500000000.0        -0.0649746957376    -0.239143729912     0.934841753297      -0.253151883664     0.934841753297      -0.253151883664     -0.0649746957376    -0.239143729912     
6600000000.0        -0.0668604289818    -0.242333349255     0.932952801347      -0.256559929179     0.932952801347      -0.256559929179     -0.0668604289818    -0.242333349255     
6700000000.0        -0.0687675307758    -0.245502299426     0.931042431329      -0.25994740779      0.931042431329      -0.25994740779      -0.0687675307758    -0.245502299426     
6800000000.0        -0.0706957047611    -0.248650397358     0.929110939525      -0.263314136736     0.929110939525      -0.263314136736     -0.0706957047611    -0.248650397358     
6900000000.0        -0.0726446529519    -0.251777465138     0.927158623844      -0.266659938397     0.927158623844      -0.266659938397     -0.0726446529519    -0.251777465138     
7000000000.0        -0.0746140758406    -0.254883330014     0.92518578372       -0.269984640306     0.92518578372       -0.269984640306     -0.0746140758406    -0.254883330014     
7100000000.0        -0.0766036725033    -0.257967824404     0.92319272          -0.273288075152     0.92319272          -0.273288075152     -0.0766036725033    -0.257967824404     
7200000000.0        -0.0786131407049    -0.261030785892     0.921179734844      -0.276570080786     0.921179734844      -0.276570080786     -0.0786131407049    -0.261030785892     
7300000000.0        -0.0806421770035    -0.264072057235     0.919147131618      -0.27983050022      0.919147131618      -0.27983050022      -0.0806421770035    -0.264072057235     
7400000000.0        -0.0826904768542    -0.26709148636      0.917095214792      -0.283069181625     0.917095214792      -0.283069181625     -0.0826904768542    -0.26709148636      
7500000000.0        -0.0847577347125    -0.270088926357     0.915024289835      -0.286285978329     0.915024289835      -0.286285978329     -0.0847577347125    -0.270088926357     
7600000000.0        -0.0868436441361    -0.273064235474     0.912934663115      -0.289480748811     0.912934663115      -0.289480748811     -0.0868436441361    -0.273064235474     
7700000000.0        -0.0889478978871    -0.27601727711      0.910826641794      -0.292653356689     0.910826641794      -0.292653356689     -0.0889478978871    -0.27601727711      
7800000000.0        -0.0910701880324    -0.2789479198       0.908700533731      -0.295803670711     0.908700533731      -0.295803670711     -0.0910701880324    -0.2789479198       
7900000000.0        -0.0932102060434    -0.281856037205     0.906556647379      -0.298931564743     0.906556647379      -0.298931564743     -0.0932102060434    -0.281856037205     
8000000000.0        -0.0953676428951    -0.284741508092     0.904395291688      -0.302036917753     0.904395291688      -0.302036917753     -0.0953676428951    -0.284741508092     
8100000000.0        -0.0975421891636    -0.287604216321     0.902216776008      -0.30511961379      0.902216776008      -0.30511961379      -0.0975421891636    -0.287604216321     
8200000000.0        -0.0997335351232    -0.290444050822     0.90002140999       -0.30817954197      0.90002140999       -0.30817954197      -0.0997335351232    -0.290444050822     
8300000000.0        -0.101941370842     -0.293260905572     0.89780950349       -0.311216596448     0.89780950349       -0.311216596448     -0.101941370842     -0.293260905572     
8400000000.0        -0.104165386275     -0.296054679576     0.89558136648       -0.314230676399     0.89558136648       -0.314230676399     -0.104165386275     -0.296054679576     
8500000000.0        -0.106405271361     -0.298825276833     0.893337308945      -0.317221685991     0.893337308945      -0.317221685991     -0.106405271361     -0.298825276833     
8600000000.0        -0.108660716109     -0.301572606315     0.891077640803      -0.320189534354     0.891077640803      -0.320189534354     -0.108660716109     -0.301572606315     
8700000000.0        -0.110931410695     -0.304296581933     0.888802671802      -0.323134135553     0.888802671802      -0.323134135553     -0.110931410695     -0.304296581933     
8800000000.0        -0.113217045547     -0.306997122509     0.88651271144       -0.32605540856      0.88651271144       -0.32605540856      -0.113217045547     -0.306997122509     
8900000000.0        -0.115517311435     -0.309674151736     0.884208068872      -0.328953277211     0.884208068872      -0.328953277211     -0.115517311435     -0.309674151736     
9000000000.0        -0.117831899557     -0.31232759815      0.881889052827      -0.331827670182     0.881889052827      -0.331827670182     -0.117831899557     -0.31232759815      
9100000000.0        -0.120160501626     -0.31495739509      0.879555971517      -0.334678520943     0.879555971517      -0.334678520943     -0.120160501626     -0.31495739509      
9200000000.0        -0.122502809949     -0.317563480656     0.877209132559      -0.337505767728     0.877209132559      -0.337505767728     -0.122502809949     -0.317563480656     
9300000000.0        -0.124858517516     -0.320145797678     0.874848842889      -0.340309353487     0.874848842889      -0.340309353487     -0.124858517516     -0.320145797678     
9400000000.0        -0.127227318076     -0.322704293663     0.872475408685      -0.34308922585      0.872475408685      -0.34308922585      -0.127227318076     -0.322704293663     
9500000000.0        -0.129608906217     -0.325238920762     0.870089135283      -0.345845337084     0.870089135283      -0.345845337084     -0.129608906217     -0.325238920762     
9600000000.0        -0.132002977447     -0.327749635718     0.867690327102      -0.348577644045     0.867690327102      -0.348577644045     -0.132002977447     -0.327749635718     
9700000000.0        -0.134409228264     -0.330236399826     0.865279287567      -0.351286108135     0.865279287567      -0.351286108135     -0.134409228264     -0.330236399826     
9800000000.0        -0.136827356237     -0.332699178881     0.862856319037      -0.353970695255     0.862856319037      -0.353970695255     -0.136827356237     -0.332699178881     
9900000000.0        -0.139257060075     -0.335137943133     0.860421722727      -0.356631375757     0.860421722727      -0.356631375757     -0.139257060075     -0.335137943133     
10000000000.0       -0.141698039699     -0.337552667237     0.857975798641      -0.359268124393     0.857975798641      -0.359268124393     -0.141698039699     -0.337552667237     
