# Hz S RI R 50.00 
100000000.0         -0.00061902763797   -0.0244818659228    0.999365739588      -0.0245627248618    0.999365739588      -0.0245627248618    -0.00061902763797   -0.0244818659228    
200000000.0         -0.00244367073158   -0.0488691902438    0.997540982657      -0.0490309445384    0.997540982657      -0.0490309445384    -0.00244367073158   -0.0488691902438    
300000000.0         -0.00545287033181   -0.073072967663     0.994531688859      -0.0733156718883    0.994531688859      -0.0733156718883    -0.00545287033181   -0.073072967663     
400000000.0         -0.00962402919956   -0.0970069818006    0.990360442324      -0.0973307038978    0.990360442324      -0.0973307038978    -0.00962402919956   -0.0970069818006    
500000000.0         -0.0149264527169    -0.120588579405     0.985057932635      -0.120993398049     0.985057932635      -0.120993398049     -0.0149264527169    -0.120588579405     
600000000.0         -0.0213219369609    -0.143739499804     0.978662361147      -0.144225502543     0.978662361147      -0.144225502543     -0.0213219369609    -0.143739499804     
700000000.0         -0.0287654636007    -0.166386634343     0.971218744671      -0.166953916146     0.971218744671      -0.166953916146     -0.0287654636007    -0.166386634343     
800000000.0         -0.0372059824093    -0.188462679222     0.962778132443      -0.189111341282     0.962778132443      -0.189111341282     -0.0372059824093    -0.188462679222     
900000000.0         -0.0465872594481    -0.209906664119     0.953396757713      -0.210636812839     0.953396757713      -0.210636812839     -0.0465872594481    -0.209906664119     
1000000000.0        -0.056848767627     -0.230664348088     0.943135147065      -0.231476094197     0.943135147065      -0.231476094197     -0.056848767627     -0.230664348088     
1100000000.0        -0.0679265963028    -0.250688480482     0.932057210755      -0.251581938263     0.932057210755      -0.251581938263     -0.0679265963028    -0.250688480482     
1200000000.0        -0.0797543576318    -0.269938929729     0.920229336325      -0.270914216333     0.920229336325      -0.270914216333     -0.0797543576318    -0.269938929729     
1300000000.0        -0.0922640692857    -0.288382686884     0.907719505858      -0.289439921726     0.907719505858      -0.289439921726     -0.0922640692857    -0.288382686884     
1400000000.0        -0.105386995689     -0.305993754234     0.894596454726      -0.307133058443     0.894596454726      -0.307133058443     -0.105386995689     -0.305993754234     
1500000000.0        -0.119054432897     -0.322752931656     0.880928886703      -0.323974427599     0.880928886703      -0.323974427599     -0.119054432897     -0.322752931656     
1600000000.0        -0.133198425436     -0.33864751519      0.866784757115      -0.339951326034     0.866784757115      -0.339951326034     -0.133198425436     -0.33864751519      
1700000000.0        -0.147752406682     -0.353670923157     0.852230632461      -0.355057172485     0.852230632461      -0.355057172485     -0.147752406682     -0.353670923157     
1800000000.0        -0.162651757467     -0.367822265422     0.837331131796      -0.369291076889     0.837331131796      -0.369291076889     -0.162651757467     -0.367822265422     
1900000000.0        -0.177834280548     -0.381105871057     0.822148452264      -0.382657368086     0.822148452264      -0.382657368086     -0.177834280548     -0.381105871057     
2000000000.0        -0.193240591105     -0.393530788794     0.806741978595      -0.395165094305     0.806741978595      -0.395165094305     -0.193240591105     -0.393530788794     
2100000000.0        -0.208814425677     -0.40511027349      0.791167974172      -0.40682750966      0.791167974172      -0.40682750966      -0.208814425677     -0.40511027349      
2200000000.0        -0.224502873683     -0.415861270324     0.775479349502      -0.417661558378     0.775479349502      -0.417661558378     -0.224502873683     -0.415861270324     
2300000000.0        -0.24025653709      -0.425803906854     0.759725502549      -0.42768736688      0.759725502549      -0.42768736688      -0.24025653709      -0.425803906854     
2400000000.0        -0.256029624718     -0.434961001357     0.743952224432      -0.436927752149     0.743952224432      -0.436927752149     -0.256029624718     -0.434961001357     
2500000000.0        -0.271779988301     -0.44335759423      0.728201663362      -0.445407753149     0.728201663362      -0.445407753149     -0.271779988301     -0.44335759423      
2600000000.0        -0.287469107705     -0.451020507618     0.712512339419      -0.453154190473     0.712512339419      -0.453154190473     -0.287469107705     -0.451020507618     
2700000000.0        -0.303062032712     -0.457977936979     0.696919202771      -0.460195257929     0.696919202771      -0.460195257929     -0.303062032712     -0.457977936979     
2800000000.0        -0.318527288592     -0.464259076968     0.681453728103      -0.466560148439     0.681453728103      -0.466560148439     -0.318527288592     -0.464259076968     
2900000000.0        -0.33383675229      -0.469893782887     0.666144038427      -0.472278715499     0.666144038427      -0.472278715499     -0.33383675229      -0.469893782887     
3000000000.0        -0.348965505579     -0.474912267944     0.651015051928      -0.477381170463     0.651015051928      -0.477381170463     -0.348965505579     -0.474912267944     
3100000000.0        -0.363891670945     -0.479344835807     0.636088646085      -0.481897815095     0.636088646085      -0.481897815095     -0.363891670945     -0.479344835807     
3200000000.0        -0.378596235347     -0.483221647255     0.6213838339        -0.485858808242     0.6213838339        -0.485858808242     -0.378596235347     -0.483221647255     
3300000000.0        -0.393062866379     -0.486572519276     0.606916947747      -0.489293964937     0.606916947747      -0.489293964937     -0.393062866379     -0.486572519276     
3400000000.0        -0.407277724692     -0.4894267546       0.592701826942      -0.492232585939     0.592701826942      -0.492232585939     -0.407277724692     -0.4894267546       
3500000000.0        -0.421229275972     -0.49181299941      0.578750005769      -0.494703315456     0.578750005769      -0.494703315456     -0.421229275972     -0.49181299941      
3600000000.0        -0.434908105179     -0.493759126862     0.565070899239      -0.496734024672     0.565070899239      -0.496734024672     -0.434908105179     -0.493759126862     
3700000000.0        -0.448306735249     -0.495292143969     0.551671984389      -0.498351718632     0.551671984389      -0.498351718632     -0.448306735249     -0.495292143969     
3800000000.0        -0.461419451966     -0.496438119443     0.538558975409      -0.499582464092     0.538558975409      -0.499582464092     -0.461419451966     -0.496438119443     
3900000000.0        -0.474242136341     -0.497222130116     0.525735991262      -0.50045133595      0.525735991262      -0.50045133595      -0.474242136341     -0.497222130116     
4000000000.0        -0.486772105434     -0.497668223724     0.513205714866      -0.500982380024     0.513205714866      -0.500982380024     -0.486772105434     -0.497668223724     
4100000000.0        -0.499007962264     -0.497799395892     0.500969543179      -0.501198590052     0.500969543179      -0.501198590052     -0.499007962264     -0.497799395892     
4200000000.0        -0.510949455188     -0.497637579392     0.489027727822      -0.501121896942     0.489027727822      -0.501121896942     -0.510949455188     -0.497637579392     
4300000000.0        -0.522597346917     -0.49720364382      0.477379506064      -0.500773168461     0.477379506064      -0.500773168461     -0.522597346917     -0.49720364382      
4400000000.0        -0.533953293141     -0.496517404079     0.466023222195      -0.500172217715     0.466023222195      -0.500172217715     -0.533953293141     -0.496517404079     
4500000000.0        -0.545019730631     -0.495597636158     0.454956439425      -0.499337818931     0.454956439425      -0.499337818931     -0.545019730631     -0.495597636158     
4600000000.0        -0.555799774523     -0.494462098893     0.4441760426        -0.498287729219     0.4441760426        -0.498287729219     -0.555799774523     -0.494462098893     
4700000000.0        -0.566297124453     -0.493127560527     0.433678332067      -0.497038715137     0.433678332067      -0.497038715137     -0.566297124453     -0.493127560527     
4800000000.0        -0.576515979131     -0.491609829038     0.423459109099      -0.495606583015     0.423459109099      -0.495606583015     -0.576515979131     -0.491609829038     
4900000000.0        -0.586460958887     -0.489923785339     0.413513753351      -0.494006212157     0.413513753351      -0.494006212157     -0.586460958887     -0.489923785339     
5000000000.0        -0.596137035725     -0.488083418556     0.403837292802      -0.492251590125     0.403837292802      -0.492251590125     -0.596137035725     -0.488083418556     
5100000000.0        -0.605549470389     -0.486101862736     0.394424466694      -0.490355849439     0.394424466694      -0.490355849439     -0.605549470389     -0.486101862736     
5200000000.0        -0.614703755939     -0.483991434395     0.385269781953      -0.488331305128     0.385269781953      -0.488331305128     -0.614703755939     -0.483991434395     
5300000000.0        -0.623605567366     -0.481763670438     0.376367563574      -0.486189492655     0.376367563574      -0.486189492655     -0.623605567366     -0.481763670438     
5400000000.0        -0.632260716754     -0.479429366055     0.36771199946       -0.483941205808     0.36771199946       -0.483941205808     -0.632260716754     -0.479429366055     
5500000000.0        -0.64067511354      -0.476998612249     0.35929718016       -0.481596534227     0.35929718016       -0.481596534227     -0.64067511354      -0.476998612249     
5600000000.0        -0.648854729438     -0.474480832737     0.351117133947      -0.479164900309     0.351117133947      -0.479164900309     -0.648854729438     -0.474480832737     
5700000000.0        -0.656805567605     -0.471884820011     0.343165857655      -0.476655095264     0.343165857655      -0.476655095264     -0.656805567605     -0.471884820011     
5800000000.0        -0.66453363566      -0.469218770376     0.335437343651      -0.474075314157     0.335437343651      -0.474075314157     -0.66453363566      -0.469218770376     
5900000000.0        -0.672044922199     -0.466490317858     0.327925603328      -0.471433189811     0.327925603328      -0.471433189811     -0.672044922199     -0.466490317858     
6000000000.0        -0.679345376459     -0.463706566861     0.320624687437      -0.468735825466     0.320624687437      -0.468735825466     -0.679345376459     -0.463706566861     
6100000000.0        -0.686440890824     -0.460874123529     0.313528703585      -0.465989826143     0.313528703585      -0.465989826143     -0.686440890824     -0.460874123529     
6200000000.0        -0.693337285875     -0.457999125759     0.30663183118       -0.463201328648     0.30663183118       -0.463201328648     -0.693337285875     -0.457999125759     
6300000000.0        -0.700040297725     -0.455087271842     0.299928334098      -0.460376030223     0.299928334098      -0.460376030223     -0.700040297725     -0.455087271842     
6400000000.0        -0.70655556739      -0.452143847736     0.293412571313      -0.457519215808     0.293412571313      -0.457519215808     -0.70655556739      -0.452143847736     
6500000000.0        -0.71288863198      -0.449173752968     0.287079005706      -0.454635783951     0.287079005706      -0.454635783951     -0.71288863198      -0.449173752968     
6600000000.0        -0.719044917499     -0.446181525199     0.280922211264      -0.451730271366     0.280922211264      -0.451730271366     -0.719044917499     -0.446181525199     
6700000000.0        -0.725029733075     -0.443171363461     0.274936878849      -0.448806876172     0.274936878849      -0.448806876172     -0.725029733075     -0.443171363461     
6800000000.0        -0.730848266457     -0.440147150125     0.269117820702      -0.445869479859     0.269117820702      -0.445869479859     -0.730848266457     -0.440147150125     
6900000000.0        -0.736505580616     -0.437112471618     0.263459973844      -0.442921668007     0.263459973844      -0.442921668007     -0.736505580616     -0.437112471618     
7000000000.0        -0.74200661133      -0.434070637951     0.257958402488      -0.43996674981      0.257958402488      -0.43996674981      -0.74200661133      -0.434070637951     
7100000000.0        -0.747356165617     -0.431024701098     0.252608299606      -0.437007776452     0.252608299606      -0.437007776452     -0.747356165617     -0.431024701098     
7200000000.0        -0.752558920917     -0.427977472269     0.247404987752      -0.434047558388     0.247404987752      -0.434047558388     -0.752558920917     -0.427977472269     
7300000000.0        -0.757619424915     -0.424931538145     0.24234391923       -0.43108868157      0.24234391923       -0.43108868157      -0.757619424915     -0.424931538145     
7400000000.0        -0.762542095927     -0.421889276105     0.237420675718      -0.428133522676     0.237420675718      -0.428133522676     -0.762542095927     -0.421889276105     
7500000000.0        -0.767331223761     -0.418852868511     0.232630967399      -0.425184263393     0.232630967399      -0.425184263393     -0.767331223761     -0.418852868511     
7600000000.0        -0.77199097099      -0.415824316086     0.22797063169       -0.422242903796     0.22797063169       -0.422242903796     -0.77199097099      -0.415824316086     
7700000000.0        -0.776525374573     -0.412805450449     0.223435631627      -0.419311274883     0.223435631627      -0.419311274883     -0.776525374573     -0.412805450449     
7800000000.0        -0.780938347765     -0.409797945843     0.219022053945      -0.416391050299     0.219022053945      -0.416391050299     -0.780938347765     -0.409797945843     
7900000000.0        -0.785233682272     -0.406803330104     0.21472610693       -0.413483757308     0.21472610693       -0.413483757308     -0.785233682272     -0.406803330104     
8000000000.0        -0.789415050607     -0.40382299492      0.210544118063      -0.410590787047     0.210544118063      -0.410590787047     -0.789415050607     -0.40382299492      
8100000000.0        -0.793486008605     -0.40085820541      0.206472531499      -0.407713404109     0.206472531499      -0.407713404109     -0.793486008605     -0.40085820541      
8200000000.0        -0.79744999807      -0.39791010908      0.202507905428      -0.404852755494     0.202507905428      -0.404852755494     -0.79744999807      -0.39791010908      
8300000000.0        -0.801310349515     -0.394979744181     0.198646909328      -0.40200987897      0.198646909328      -0.40200987897      -0.801310349515     -0.394979744181     
8400000000.0        -0.805070284984     -0.392068047512     0.194886321149      -0.399185710873     0.194886321149      -0.399185710873     -0.805070284984     -0.392068047512     
8500000000.0        -0.808732920914     -0.389175861699     0.191223024446      -0.396381093386     0.191223024446      -0.396381093386     -0.808732920914     -0.389175861699     
8600000000.0        -0.812301271036     -0.386303941991     0.187654005478      -0.393596781333     0.187654005478      -0.393596781333     -0.812301271036     -0.386303941991     
8700000000.0        -0.815778249289     -0.383452962589     0.184176350301      -0.390833448513     0.184176350301      -0.390833448513     -0.815778249289     -0.383452962589     
8800000000.0        -0.81916667273      -0.380623522556     0.180787241851      -0.3880916936       0.180787241851      -0.3880916936       -0.81916667273      -0.380623522556     
8900000000.0        -0.822469264433     -0.37781615132      0.177483957044      -0.385372045655     0.177483957044      -0.385372045655     -0.822469264433     -0.37781615132      
9000000000.0        -0.825688656366     -0.375031313807     0.174263863906      -0.382674969251     0.174263863906      -0.382674969251     -0.825688656366     -0.375031313807     
9100000000.0        -0.828827392235     -0.372269415218     0.171124418724      -0.380000869255     0.171124418724      -0.380000869255     -0.828827392235     -0.372269415218     
9200000000.0        -0.831887930281     -0.369530805487     0.168063163248      -0.377350095282     0.168063163248      -0.377350095282     -0.831887930281     -0.369530805487     
9300000000.0        -0.834872646043     -0.366815783427     0.165077721932      -0.374722945841     0.165077721932      -0.374722945841     -0.834872646043     -0.366815783427     
9400000000.0        -0.837783835056     -0.364124600596     0.162165799233      -0.372119672202     0.162165799233      -0.372119672202     -0.837783835056     -0.364124600596     
9500000000.0        -0.840623715503     -0.36145746489      0.159325176963      -0.369540481987     0.159325176963      -0.369540481987     -0.840623715503     -0.36145746489      
9600000000.0        -0.843394430796     -0.358814543898     0.156553711699      -0.366985542525     0.156553711699      -0.366985542525     -0.843394430796     -0.358814543898     
9700000000.0        -0.846098052108     -0.356195968015     0.153849332262      -0.364454983966     0.153849332262      -0.364454983966     -0.846098052108     -0.356195968015     
9800000000.0        -0.848736580832     -0.353601833347     0.151210037252      -0.361948902183     0.151210037252      -0.361948902183     -0.848736580832     -0.353601833347     
9900000000.0        -0.851311950974     -0.35103220441      0.148633892655      -0.359467361471     0.148633892655      -0.359467361471     -0.851311950974     -0.35103220441      
10000000000.0       -0.853826031482     -0.348487116643     0.146119029514      -0.357010397062     0.146119029514      -0.357010397062     -0.853826031482     -0.348487116643     
