# Hz S RI R 50.00 
100000000.0         0.0470157456479     0.00354326400588    0.95298037128       -0.00517505607268   0.95298037128       -0.00517505607268   0.0470157456479     0.00354326400588    
200000000.0         0.0473684917999     0.00708059917393    0.952622034853      -0.0103441983778    0.952622034853      -0.0103441983778    0.0473684917999     0.00708059917393    
300000000.0         0.047679623269      0.0106137008753     0.952302605177      -0.0155091355899    0.952302605177      -0.0155091355899    0.047679623269      0.0106137008753     
400000000.0         0.0479882284523     0.0141428267455     0.951982993195      -0.0206701369996    0.951982993195      -0.0206701369996    0.0479882284523     0.0141428267455     
500000000.0         0.0483093575383     0.0176679008153     0.951648148038      -0.0258271374646    0.951648148038      -0.0258271374646    0.0483093575383     0.0176679008153     
600000000.0         0.0486506694023     0.021188700061      0.95129041011       -0.0309799242474    0.95129041011       -0.0309799242474    0.0486506694023     0.021188700061      
700000000.0         0.0490166666548     0.0247049214745     0.950905276023      -0.0361282042319    0.950905276023      -0.0361282042319    0.0490166666548     0.0247049214745     
800000000.0         0.0494102423103     0.0282162132375     0.950489851926      -0.0412716351856    0.950489851926      -0.0412716351856    0.0494102423103     0.0282162132375     
900000000.0         0.0498333688549     0.031722191529      0.95004216443       -0.0464098426238    0.95004216443       -0.0464098426238    0.0498333688549     0.031722191529      
1000000000.0        0.0502874477202     0.0352224505342     0.949560811134      -0.0515424298606    0.949560811134      -0.0515424298606    0.0502874477202     0.0352224505342     
1100000000.0        0.0507735036615     0.0387165688564     0.949044766244      -0.0566689844491    0.949044766244      -0.0566689844491    0.0507735036615     0.0387165688564     
1200000000.0        0.0512923006526     0.0422041138598     0.948493264677      -0.061789082548     0.948493264677      -0.061789082548     0.0512923006526     0.0422041138598     
1300000000.0        0.0518444148504     0.0456846447494     0.947905729097      -0.0669022920191    0.947905729097      -0.0669022920191    0.0518444148504     0.0456846447494     
1400000000.0        0.0524302825915     0.0491577148376     0.947281721918      -0.0720081747083    0.947281721918      -0.0720081747083    0.0524302825915     0.0491577148376     
1500000000.0        0.0530502331305     0.0526228732667     0.946620912562      -0.0771062881798    0.946620912562      -0.0771062881798    0.0530502331305     0.0526228732667     
1600000000.0        0.0537045116617     0.0560796663554     0.945923054442      -0.0821961870728    0.945923054442      -0.0821961870728    0.0537045116617     0.0560796663554     
1700000000.0        0.0543932959348     0.0595276386772     0.945187968344      -0.0872774241877    0.945187968344      -0.0872774241877    0.0543932959348     0.0595276386772     
1800000000.0        0.0551167085227     0.0629663339425     0.944415530157      -0.0923495513758    0.944415530157      -0.0923495513758    0.0551167085227     0.0629663339425     
1900000000.0        0.0558748260611     0.0663952957348     0.943605661638      -0.0974121202811    0.943605661638      -0.0974121202811    0.0558748260611     0.0663952957348     
2000000000.0        0.0566676863297     0.0698140681354     0.942758323326      -0.102464682971     0.942758323326      -0.102464682971     0.0566676863297     0.0698140681354     
2100000000.0        0.057495293769      0.0732221962621     0.941873509029      -0.107506792479     0.941873509029      -0.107506792479     0.057495293769      0.0732221962621     
2200000000.0        0.0583576238386     0.0766192267397     0.940951241463      -0.112538003279     0.940951241463      -0.112538003279     0.0583576238386     0.0766192267397     
2300000000.0        0.0592546265077     0.0800047081164     0.939991568763      -0.117557871708     0.939991568763      -0.117557871708     0.0592546265077     0.0800047081164     
2400000000.0        0.0601862290844     0.083378191236      0.938994561654      -0.122565956337     0.938994561654      -0.122565956337     0.0601862290844     0.083378191236      
2500000000.0        0.061152338536      0.0867392295737     0.937960311131      -0.127561818315     0.937960311131      -0.127561818315     0.061152338536      0.0867392295737     
2600000000.0        0.0621528434125     0.0900873795428     0.936888926534      -0.132545021673     0.936888926534      -0.132545021673     0.0621528434125     0.0900873795428     
2700000000.0        0.0631876154582     0.0934222007744     0.935780533936      -0.137515133612     0.935780533936      -0.137515133612     0.0631876154582     0.0934222007744     
2800000000.0        0.0642565109744     0.096743256377      0.934635274785      -0.142471724759     0.934635274785      -0.142471724759     0.0642565109744     0.096743256377      
2900000000.0        0.0653593719835     0.100050113176      0.933453304734      -0.147414369414     0.933453304734      -0.147414369414     0.0653593719835     0.100050113176      
3000000000.0        0.0664960272325     0.103342341939      0.93223479264       -0.152342645771     0.93223479264       -0.152342645771     0.0664960272325     0.103342341939      
3100000000.0        0.0676662930654     0.106619517583      0.930979919695      -0.157256136134     0.930979919695      -0.157256136134     0.0676662930654     0.106619517583      
3200000000.0        0.0688699741886     0.109881219375      0.929688878654      -0.162154427112     0.929688878654      -0.162154427112     0.0688699741886     0.109881219375      
3300000000.0        0.0701068643479     0.113127031111      0.928361873165      -0.167037109807     0.928361873165      -0.167037109807     0.0701068643479     0.113127031111      
3400000000.0        0.0713767469326     0.116356541298      0.926999117158      -0.171903779991     0.926999117158      -0.171903779991     0.0713767469326     0.116356541298      
3500000000.0        0.0726793955179     0.119569343315      0.925600834309      -0.17675403827      0.925600834309      -0.17675403827      0.0726793955179     0.119569343315      
3600000000.0        0.074014574357      0.122765035569      0.924167257544      -0.181587490245     0.924167257544      -0.181587490245     0.074014574357      0.122765035569      
3700000000.0        0.0753820388293     0.125943221646      0.922698628593      -0.186403746657     0.922698628593      -0.186403746657     0.0753820388293     0.125943221646      
3800000000.0        0.0767815358529     0.129103510448      0.921195197575      -0.191202423533     0.921195197575      -0.191202423533     0.0767815358529     0.129103510448      
3900000000.0        0.0782128042658     0.132245516328      0.919657222619      -0.195983142316     0.919657222619      -0.195983142316     0.0782128042658     0.132245516328      
4000000000.0        0.0796755751808     0.135368859217      0.91808496951       -0.200745529995     0.91808496951       -0.200745529995     0.0796755751808     0.135368859217      
4100000000.0        0.081169572318      0.13847316474       0.916478711353      -0.205489219222     0.916478711353      -0.205489219222     0.081169572318      0.13847316474       
4200000000.0        0.0826945123178     0.141558064334      0.914838728263      -0.210213848431     0.914838728263      -0.210213848431     0.0826945123178     0.141558064334      
4300000000.0        0.0842501050371     0.144623195351      0.913165307067      -0.214919061942     0.913165307067      -0.214919061942     0.0842501050371     0.144623195351      
4400000000.0        0.0858360538307     0.147668201162      0.911458741025      -0.219604510063     0.911458741025      -0.219604510063     0.0858360538307     0.147668201162      
4500000000.0        0.0874520558211     0.150692731249      0.909719329557      -0.224269849188     0.909719329557      -0.224269849188     0.0874520558211     0.150692731249      
4600000000.0        0.0890978021558     0.153696441299      0.907947377987      -0.228914741887     0.907947377987      -0.228914741887     0.0890978021558     0.153696441299      
4700000000.0        0.0907729782561     0.156678993287      0.906143197297      -0.23353885699      0.906143197297      -0.23353885699      0.0907729782561     0.156678993287      
4800000000.0        0.092477264057      0.159640055553      0.904307103882      -0.238141869668     0.904307103882      -0.238141869668     0.092477264057      0.159640055553      
4900000000.0        0.094210334239      0.162579302881      0.902439419321      -0.242723461508     0.902439419321      -0.242723461508     0.094210334239      0.162579302881      
5000000000.0        0.0959718584541     0.165496416561      0.900540470153      -0.247283320581     0.900540470153      -0.247283320581     0.0959718584541     0.165496416561      
5100000000.0        0.0977615015453     0.168391084459      0.898610587652      -0.251821141508     0.898610587652      -0.251821141508     0.0977615015453     0.168391084459      
5200000000.0        0.0995789237602     0.171263001076      0.896650107619      -0.256336625517     0.896650107619      -0.256336625517     0.0995789237602     0.171263001076      
5300000000.0        0.101423780961      0.174111867597      0.894659370168      -0.260829480503     0.894659370168      -0.260829480503     0.101423780961      0.174111867597      
5400000000.0        0.103295724827      0.176937391946      0.892638719525      -0.265299421073     0.892638719525      -0.265299421073     0.103295724827      0.176937391946      
5500000000.0        0.105194403059      0.17973928883       0.890588503824      -0.269746168594     0.890588503824      -0.269746168594     0.105194403059      0.17973928883       
5600000000.0        0.107119459573      0.182517279777      0.888509074912      -0.274169451234     0.888509074912      -0.274169451234     0.107119459573      0.182517279777      
5700000000.0        0.109070534694      0.185271093176      0.886400788157      -0.278569003997     0.886400788157      -0.278569003997     0.109070534694      0.185271093176      
5800000000.0        0.111047265346      0.188000464305      0.884264002256      -0.282944568756     0.884264002256      -0.282944568756     0.111047265346      0.188000464305      
5900000000.0        0.113049285238      0.19070513536       0.882099079047      -0.287295894282     0.882099079047      -0.287295894282     0.113049285238      0.19070513536       
6000000000.0        0.115076225051      0.193384855479      0.87990638333       -0.291622736264     0.87990638333       -0.291622736264     0.115076225051      0.193384855479      
6100000000.0        0.117127712615      0.196039380759      0.87768628268       -0.295924857333     0.87768628268       -0.295924857333     0.117127712615      0.196039380759      
6200000000.0        0.11920337309       0.198668474274      0.875439147272      -0.300202027073     0.875439147272      -0.300202027073     0.11920337309       0.198668474274      
6300000000.0        0.121302829139      0.201271906081      0.873165349706      -0.304454022034     0.873165349706      -0.304454022034     0.121302829139      0.201271906081      
6400000000.0        0.123425701104      0.203849453231      0.870865264832      -0.308680625739     0.870865264832      -0.308680625739     0.123425701104      0.203849453231      
6500000000.0        0.125571607173      0.20640089977       0.86853926958       -0.312881628687     0.86853926958       -0.312881628687     0.125571607173      0.20640089977       
6600000000.0        0.127740163552      0.208926036741      0.86618774279       -0.317056828354     0.86618774279       -0.317056828354     0.127740163552      0.208926036741      
6700000000.0        0.129930984628      0.211424662174      0.863811065053      -0.321206029185     0.863811065053      -0.321206029185     0.129930984628      0.211424662174      
6800000000.0        0.132143683133      0.213896581083      0.861409618537      -0.325329042591     0.861409618537      -0.325329042591     0.132143683133      0.213896581083      
6900000000.0        0.134377870303      0.216341605452      0.858983786837      -0.329425686933     0.858983786837      -0.329425686933     0.134377870303      0.216341605452      
7000000000.0        0.136633156039      0.218759554222      0.856533954809      -0.33349578751      0.856533954809      -0.33349578751      0.136633156039      0.218759554222      
7100000000.0        0.138909149061      0.221150253266      0.854060508418      -0.337539176539     0.854060508418      -0.337539176539     0.138909149061      0.221150253266      
7200000000.0        0.141205457064      0.223513535376      0.85156383458       -0.341555693133     0.85156383458       -0.341555693133     0.141205457064      0.223513535376      
7300000000.0        0.143521686865      0.225849240231      0.849044321017      -0.34554518328      0.849044321017      -0.34554518328      0.143521686865      0.225849240231      
7400000000.0        0.145857444555      0.228157214371      0.846502356103      -0.349507499806     0.846502356103      -0.349507499806     0.145857444555      0.228157214371      
7500000000.0        0.148212335646      0.230437311166      0.843938328719      -0.353442502354     0.843938328719      -0.353442502354     0.148212335646      0.230437311166      
7600000000.0        0.15058596521       0.232689390778      0.84135262811       -0.357350057341     0.84135262811       -0.357350057341     0.15058596521       0.232689390778      
7700000000.0        0.152977938026      0.23491332013       0.838745643742      -0.361230037926     0.838745643742      -0.361230037926     0.152977938026      0.23491332013       
7800000000.0        0.155387858717      0.237108972859      0.836117765164      -0.365082323967     0.836117765164      -0.365082323967     0.155387858717      0.237108972859      
7900000000.0        0.157815331884      0.239276229278      0.833469381871      -0.368906801982     0.833469381871      -0.368906801982     0.157815331884      0.239276229278      
8000000000.0        0.160259962242      0.241414976325      0.83080088317       -0.372703365096     0.83080088317       -0.372703365096     0.160259962242      0.241414976325      
8100000000.0        0.162721354754      0.243525107519      0.828112658047      -0.376471913001     0.828112658047      -0.376471913001     0.162721354754      0.243525107519      
8200000000.0        0.165199114753      0.245606522909      0.82540509504       -0.380212351899     0.82540509504       -0.380212351899     0.165199114753      0.245606522909      
8300000000.0        0.167692848076      0.247659129018      0.822678582113      -0.383924594453     0.822678582113      -0.383924594453     0.167692848076      0.247659129018      
8400000000.0        0.170202161182      0.249682838787      0.81993350653       -0.387608559729     0.81993350653       -0.387608559729     0.170202161182      0.249682838787      
8500000000.0        0.172726661276      0.251677571522      0.817170254733      -0.391264173138     0.817170254733      -0.391264173138     0.172726661276      0.251677571522      
8600000000.0        0.175265956425      0.253643252828      0.814389212227      -0.394891366379     0.814389212227      -0.394891366379     0.175265956425      0.253643252828      
8700000000.0        0.177819655679      0.255579814551      0.811590763462      -0.398490077372     0.811590763462      -0.398490077372     0.177819655679      0.255579814551      
8800000000.0        0.180387369178      0.257487194711      0.808775291716      -0.402060250199     0.808775291716      -0.402060250199     0.180387369178      0.257487194711      
8900000000.0        0.182968708267      0.259365337439      0.805943178991      -0.405601835034     0.805943178991      -0.405601835034     0.182968708267      0.259365337439      
9000000000.0        0.1855632856        0.261214192904      0.803094805899      -0.409114788078     0.803094805899      -0.409114788078     0.1855632856        0.261214192904      
9100000000.0        0.188170715252      0.263033717249      0.80023055156       -0.412599071489     0.80023055156       -0.412599071489     0.188170715252      0.263033717249      
9200000000.0        0.190790612813      0.264823872516      0.797350793496      -0.416054653306     0.797350793496      -0.416054653306     0.190790612813      0.264823872516      
9300000000.0        0.193422595496      0.266584626575      0.794455907534      -0.419481507385     0.794455907534      -0.419481507385     0.193422595496      0.266584626575      
9400000000.0        0.196066282228      0.268315953047      0.791546267706      -0.422879613315     0.791546267706      -0.422879613315     0.196066282228      0.268315953047      
9500000000.0        0.198721293749      0.270017831231      0.788622246156      -0.42624895635      0.788622246156      -0.42624895635      0.198721293749      0.270017831231      
9600000000.0        0.201387252703      0.271690246027      0.785684213045      -0.429589527327     0.785684213045      -0.429589527327     0.201387252703      0.271690246027      
9700000000.0        0.204063783724      0.273333187852      0.782732536465      -0.432901322589     0.782732536465      -0.432901322589     0.204063783724      0.273333187852      
9800000000.0        0.206750513529      0.274946652567      0.779767582349      -0.436184343905     0.779767582349      -0.436184343905     0.206750513529      0.274946652567      
9900000000.0        0.209447070994      0.276530641394      0.776789714389      -0.439438598392     0.776789714389      -0.439438598392     0.209447070994      0.276530641394      
10000000000.0       0.212153087245      0.278085160833      0.773799293952      -0.442664098429     0.773799293952      -0.442664098429     0.212153087245      0.278085160833      
