# Hz S RI R 50.00 
100000000.0         0.0101074619911     0.0035758282847     0.989887794027      -0.00553909241288   0.989887794027      -0.00553909241288   0.0101074619911     0.0035758282847     
200000000.0         0.0102331391172     0.00714991041421    0.989754505022      -0.0110764682473    0.989754505022      -0.0110764682473    0.0102331391172     0.00714991041421    
300000000.0         0.0103811560262     0.01072220333       0.989595007746      -0.016612106351     0.989595007746      -0.016612106351     0.0103811560262     0.01072220333       
400000000.0         0.0105601690297     0.0142923425031     0.989400645161      -0.0221456604829    0.989400645161      -0.0221456604829    0.0105601690297     0.0142923425031     
500000000.0         0.0107734875271     0.0178598891239     0.98916810699       -0.027676708278     0.98916810699       -0.027676708278     0.0107734875271     0.0178598891239     
600000000.0         0.0110227738226     0.021424372035      0.988895729909      -0.0332047938064    0.988895729909      -0.0332047938064    0.0110227738226     0.021424372035      
700000000.0         0.011308983618      0.0249853029115     0.988582557052      -0.0387294430749    0.988582557052      -0.0387294430749    0.011308983618      0.0249853029115     
800000000.0         0.0116327092362     0.0285421833987     0.988227994789      -0.0442501713561    0.988227994789      -0.0442501713561    0.0116327092362     0.0285421833987     
900000000.0         0.0119943324322     0.0320945090271     0.987831659926      -0.049766487232     0.987831659926      -0.049766487232     0.0119943324322     0.0320945090271     
1000000000.0        0.0123941018503     0.0356417716024     0.98739330224       -0.0552778950737    0.98739330224       -0.0552778950737    0.0123941018503     0.0356417716024     
1100000000.0        0.0128321760899     0.0391834607867     0.986912761424      -0.0607838966895    0.986912761424      -0.0607838966895    0.0128321760899     0.0391834607867     
1200000000.0        0.0133086493789     0.0427190652151     0.98638994141       -0.0662839924924    0.98638994141       -0.0662839924924    0.0133086493789     0.0427190652151     
1300000000.0        0.0138235677409     0.0462480733262     0.985824794208      -0.0717776823716    0.985824794208      -0.0717776823716    0.0138235677409     0.0462480733262     
1400000000.0        0.0143769396392     0.0497699740101     0.985217309262      -0.0772644663728    0.985217309262      -0.0772644663728    0.0143769396392     0.0497699740101     
1500000000.0        0.0149687432473     0.0532842571317     0.98456750618       -0.0827438452487    0.98456750618       -0.0827438452487    0.0149687432473     0.0532842571317     
1600000000.0        0.0155989315745     0.0567904139688     0.983875429611      -0.0882153209197    0.983875429611      -0.0882153209197    0.0155989315745     0.0567904139688     
1700000000.0        0.01626743618       0.0602879375881     0.983141145535      -0.0936783968691    0.983141145535      -0.0936783968691    0.01626743618       0.0602879375881     
1800000000.0        0.0169741699288     0.0637763231759     0.982364738503      -0.0991325784901    0.982364738503      -0.0991325784901    0.0169741699288     0.0637763231759     
1900000000.0        0.0177190290835     0.0672550683336     0.98154630955       -0.104577373396     0.98154630955       -0.104577373396     0.0177190290835     0.0672550683336     
2000000000.0        0.0185018949224     0.0707236733475     0.980685974579      -0.110012291701     0.980685974579      -0.110012291701     0.0185018949224     0.0707236733475     
2100000000.0        0.0193226350165     0.0741816414361     0.979783863081      -0.115436846283     0.979783863081      -0.115436846283     0.0193226350165     0.0741816414361     
2200000000.0        0.0201811042541     0.0776284789817     0.978840117115      -0.120850553017     0.978840117115      -0.120850553017     0.0201811042541     0.0776284789817     
2300000000.0        0.0210771456769     0.0810636957462     0.977854890472      -0.126252931009     0.977854890472      -0.126252931009     0.0210771456769     0.0810636957462     
2400000000.0        0.0220105911742     0.0844868050762     0.97682834798       -0.131643502801     0.97682834798       -0.131643502801     0.0220105911742     0.0844868050762     
2500000000.0        0.0229812620674     0.0878973240975     0.975760664923      -0.13702179458      0.975760664923      -0.13702179458      0.0229812620674     0.0878973240975     
2600000000.0        0.023988969611      0.0912947738999     0.974652026538      -0.142387336361     0.974652026538      -0.142387336361     0.023988969611      0.0912947738999     
2700000000.0        0.0250335154266     0.0946786797153     0.973502627585      -0.147739662179     0.973502627585      -0.147739662179     0.0250335154266     0.0946786797153     
2800000000.0        0.026114691886      0.0980485710875     0.972312671961      -0.153078310258     0.972312671961      -0.153078310258     0.026114691886      0.0980485710875     
2900000000.0        0.0272322824522     0.101403982036      0.971082372361      -0.158402823185     0.971082372361      -0.158402823185     0.0272322824522     0.101403982036      
3000000000.0        0.0283860619891     0.104744451212      0.969811949971      -0.163712748066     0.969811949971      -0.163712748066     0.0283860619891     0.104744451212      
3100000000.0        0.0295757970432     0.108069522053      0.968501634182      -0.169007636689     0.968501634182      -0.169007636689     0.0295757970432     0.108069522053      
3200000000.0        0.0308012461057     0.111378742926      0.967151662336      -0.174287045666     0.967151662336      -0.174287045666     0.0308012461057     0.111378742926      
3300000000.0        0.0320621598563     0.114671667271      0.965762279473      -0.179550536584     0.965762279473      -0.179550536584     0.0320621598563     0.114671667271      
3400000000.0        0.0333582813939     0.117947853733      0.964333738109      -0.184797676143     0.964333738109      -0.184797676143     0.0333582813939     0.117947853733      
3500000000.0        0.0346893464556     0.121206866299      0.962866298015      -0.190028036288     0.962866298015      -0.190028036288     0.0346893464556     0.121206866299      
3600000000.0        0.0360550836267     0.124448274417      0.961360226004      -0.195241194339     0.961360226004      -0.195241194339     0.0360550836267     0.124448274417      
3700000000.0        0.037455214543      0.127671653123      0.959815795733      -0.200436733116     0.959815795733      -0.200436733116     0.037455214543      0.127671653123      
3800000000.0        0.038889454087      0.130876583157      0.958233287507      -0.205614241058     0.958233287507      -0.205614241058     0.038889454087      0.130876583157      
3900000000.0        0.040357510579      0.134062651072      0.956612988085      -0.210773312338     0.956612988085      -0.210773312338     0.040357510579      0.134062651072      
4000000000.0        0.0418590859643     0.137229449345      0.954955190498      -0.215913546973     0.954955190498      -0.215913546973     0.0418590859643     0.137229449345      
4100000000.0        0.0433938759965     0.14037657648       0.953260193861      -0.221034550929     0.953260193861      -0.221034550929     0.0433938759965     0.14037657648       
4200000000.0        0.0449615704184     0.143503637105      0.951528303196      -0.226135936223     0.951528303196      -0.226135936223     0.0449615704184     0.143503637105      
4300000000.0        0.0465618531402     0.146610242069      0.949759829251      -0.231217321017     0.949759829251      -0.231217321017     0.0465618531402     0.146610242069      
4400000000.0        0.0481944024163     0.14969600853       0.947955088327      -0.236278329715     0.947955088327      -0.236278329715     0.0481944024163     0.14969600853       
4500000000.0        0.0498588910199     0.152760560041      0.9461144021        -0.241318593043     0.9461144021        -0.241318593043     0.0498588910199     0.152760560041      
4600000000.0        0.0515549864163     0.155803526633      0.944238097451      -0.24633774814      0.944238097451      -0.24633774814      0.0515549864163     0.155803526633      
4700000000.0        0.0532823509355     0.158824544892      0.942326506292      -0.251335438631     0.942326506292      -0.251335438631     0.0532823509355     0.158824544892      
4800000000.0        0.0550406419433     0.161823258029      0.940379965393      -0.256311314703     0.940379965393      -0.256311314703     0.0550406419433     0.161823258029      
4900000000.0        0.0568295120116     0.164799315951      0.938398816216      -0.261265033178     0.938398816216      -0.261265033178     0.0568295120116     0.164799315951      
5000000000.0        0.0586486090882     0.167752375326      0.936383404743      -0.266196257571     0.936383404743      -0.266196257571     0.0586486090882     0.167752375326      
5100000000.0        0.0604975766653     0.170682099641      0.934334081309      -0.271104658162     0.934334081309      -0.271104658162     0.0604975766653     0.170682099641      
5200000000.0        0.0623760539476     0.173588159259      0.93225120043       -0.275989912043     0.93225120043       -0.275989912043     0.0623760539476     0.173588159259      
5300000000.0        0.06428367602       0.176470231469      0.93013512064       -0.280851703176     0.93013512064       -0.280851703176     0.06428367602       0.176470231469      
5400000000.0        0.0662200740139     0.179328000537      0.927986204324      -0.285689722443     0.927986204324      -0.285689722443     0.0662200740139     0.179328000537      
5500000000.0        0.0681848752737     0.182161157747      0.925804817549      -0.290503667687     0.925804817549      -0.290503667687     0.0681848752737     0.182161157747      
5600000000.0        0.0701777035216     0.184969401442      0.9235913299        -0.295293243753     0.9235913299        -0.295293243753     0.0701777035216     0.184969401442      
5700000000.0        0.0721981790225     0.187752437055      0.921346114319      -0.300058162526     0.921346114319      -0.300058162526     0.0721981790225     0.187752437055      
5800000000.0        0.0742459187474     0.190509977147      0.919069546936      -0.304798142963     0.919069546936      -0.304798142963     0.0742459187474     0.190509977147      
5900000000.0        0.0763205365368     0.193241741428      0.916762006908      -0.309512911119     0.916762006908      -0.309512911119     0.0763205365368     0.193241741428      
6000000000.0        0.0784216432626     0.195947456787      0.914423876258      -0.314202200175     0.914423876258      -0.314202200175     0.0784216432626     0.195947456787      
6100000000.0        0.080548846989      0.198626857303      0.912055539713      -0.318865750453     0.912055539713      -0.318865750453     0.080548846989      0.198626857303      
6200000000.0        0.082701753133      0.20127968427       0.909657384544      -0.323503309438     0.909657384544      -0.323503309438     0.082701753133      0.20127968427       
6300000000.0        0.0848799646234     0.203905686201      0.907229800406      -0.328114631788     0.907229800406      -0.328114631788     0.0848799646234     0.203905686201      
6400000000.0        0.0870830820589     0.206504618842      0.90477317918       -0.332699479342     0.90477317918       -0.332699479342     0.0870830820589     0.206504618842      
6500000000.0        0.0893107038645     0.209076245173      0.902287914819      -0.337257621126     0.902287914819      -0.337257621126     0.0893107038645     0.209076245173      
6600000000.0        0.091562426448      0.21162033541       0.899774403187      -0.341788833357     0.899774403187      -0.341788833357     0.091562426448      0.21162033541       
6700000000.0        0.0938378443533     0.214136667002      0.897233041908      -0.346292899437     0.897233041908      -0.346292899437     0.0938378443533     0.214136667002      
6800000000.0        0.0961365504143     0.216625024625      0.894664230215      -0.350769609947     0.894664230215      -0.350769609947     0.0961365504143     0.216625024625      
6900000000.0        0.0984581359058     0.219085200172      0.892068368791      -0.355218762642     0.892068368791      -0.355218762642     0.0984581359058     0.219085200172      
7000000000.0        0.100802190694      0.221516992741      0.889445859628      -0.359640162436     0.889445859628      -0.359640162436     0.100802190694      0.221516992741      
7100000000.0        0.103168303385      0.223920208616      0.88679710587       -0.364033621386     0.88679710587       -0.364033621386     0.103168303385      0.223920208616      
7200000000.0        0.10555606147       0.226294661251      0.884122511673      -0.368398958672     0.884122511673      -0.368398958672     0.10555606147       0.226294661251      
7300000000.0        0.107965051475      0.228640171242      0.881422482054      -0.372736000576     0.881422482054      -0.372736000576     0.107965051475      0.228640171242      
7400000000.0        0.110394859099      0.230956566307      0.878697422751      -0.377044580456     0.878697422751      -0.377044580456     0.110394859099      0.230956566307      
7500000000.0        0.112845069358      0.233243681252      0.875947740078      -0.381324538717     0.875947740078      -0.381324538717     0.112845069358      0.233243681252      
7600000000.0        0.115315266728      0.235501357942      0.873173840787      -0.38557572278      0.873173840787      -0.38557572278      0.115315266728      0.235501357942      
7700000000.0        0.117805035275      0.237729445264      0.870376131932      -0.389797987046     0.870376131932      -0.389797987046     0.117805035275      0.237729445264      
7800000000.0        0.120313958802      0.239927799091      0.867555020727      -0.39399119286      0.867555020727      -0.39399119286      0.120313958802      0.239927799091      
7900000000.0        0.122841620972      0.242096282238      0.864710914416      -0.398155208471     0.864710914416      -0.398155208471     0.122841620972      0.242096282238      
8000000000.0        0.125387605447      0.244234764424      0.861844220139      -0.402289908986     0.861844220139      -0.402289908986     0.125387605447      0.244234764424      
8100000000.0        0.127951496016      0.246343122221      0.858955344805      -0.406395176329     0.858955344805      -0.406395176329     0.127951496016      0.246343122221      
8200000000.0        0.130532876724      0.248421239009      0.856044694958      -0.410470899188     0.856044694958      -0.410470899188     0.130532876724      0.248421239009      
8300000000.0        0.133131331994      0.250469004924      0.853112676656      -0.41451697297      0.853112676656      -0.41451697297      0.133131331994      0.250469004924      
8400000000.0        0.135746446754      0.252486316805      0.850159695347      -0.418533299742     0.850159695347      -0.418533299742     0.135746446754      0.252486316805      
8500000000.0        0.138377806557      0.254473078135      0.847186155746      -0.422519788178     0.847186155746      -0.422519788178     0.138377806557      0.254473078135      
8600000000.0        0.1410249977        0.25642919899       0.844192461715      -0.426476353506     0.844192461715      -0.426476353506     0.1410249977        0.25642919899       
8700000000.0        0.143687607338      0.258354595974      0.841179016149      -0.43040291744      0.841179016149      -0.43040291744      0.143687607338      0.258354595974      
8800000000.0        0.146365223603      0.260249192158      0.83814622086       -0.434299408124     0.83814622086       -0.434299408124     0.146365223603      0.260249192158      
8900000000.0        0.149057435713      0.262112917016      0.835094476464      -0.438165760067     0.835094476464      -0.438165760067     0.149057435713      0.262112917016      
9000000000.0        0.15176383408       0.26394570636       0.832024182273      -0.442001914076     0.832024182273      -0.442001914076     0.15176383408       0.26394570636       
9100000000.0        0.154484010421      0.265747502272      0.828935736187      -0.44580781719      0.828935736187      -0.44580781719      0.154484010421      0.265747502272      
9200000000.0        0.157217557857      0.267518253035      0.825829534588      -0.449583422609     0.825829534588      -0.449583422609     0.157217557857      0.267518253035      
9300000000.0        0.159964071022      0.269257913058      0.82270597224       -0.453328689624     0.82270597224       -0.453328689624     0.159964071022      0.269257913058      
9400000000.0        0.162723146156      0.270966442811      0.819565442186      -0.457043583547     0.819565442186      -0.457043583547     0.162723146156      0.270966442811      
9500000000.0        0.165494381208      0.272643808742      0.816408335652      -0.460728075631     0.816408335652      -0.460728075631     0.165494381208      0.272643808742      
9600000000.0        0.168277375924      0.274289983209      0.813235041954      -0.464382143        0.813235041954      -0.464382143        0.168277375924      0.274289983209      
9700000000.0        0.171071731946      0.275904944397      0.810045948401      -0.468005768567     0.810045948401      -0.468005768567     0.171071731946      0.275904944397      
9800000000.0        0.173877052898      0.277488676243      0.806841440209      -0.471598940962     0.806841440209      -0.471598940962     0.173877052898      0.277488676243      
9900000000.0        0.176692944473      0.279041168358      0.803621900412      -0.475161654447     0.803621900412      -0.475161654447     0.176692944473      0.279041168358      
10000000000.0       0.179519014518      0.280562415942      0.800387709775      -0.478693908838     0.800387709775      -0.478693908838     0.179519014518      0.280562415942      
