# Hz S RI R 50.00 
100000000.0         0.0010004878225     0.000275754342422   0.998996882822      -0.00137307972404   0.998996882822      -0.00137307972404   0.0010004878225     0.000275754342422   
200000000.0         0.00100780363022    0.000551483846481   0.998986733087      -0.00274614373441   0.998986733087      -0.00274614373441   0.00100780363022    0.000551483846481   
300000000.0         0.00101411592518    0.000827194247979   0.998976382222      -0.00411920311671   0.998976382222      -0.00411920311671   0.00101411592518    0.000827194247979   
400000000.0         0.00102029241715    0.00110288577971    0.998964962431      -0.00549226199249   0.998964962431      -0.00549226199249   0.00102029241715    0.00110288577971    
500000000.0         0.00102666704494    0.00137855747166    0.998952139668      -0.00686532254317   0.998952139668      -0.00686532254317   0.00102666704494    0.00137855747166    
600000000.0         0.00103340998521    0.00165420785447    0.99893774364       -0.0082383859673    0.99893774364       -0.0082383859673    0.00103340998521    0.00165420785447    
700000000.0         0.00104062167866    0.00192983520468    0.998921673773      -0.00961145285615   0.998921673773      -0.00961145285615   0.00104062167866    0.00192983520468    
800000000.0         0.00104836713453    0.00220543765556    0.998903864917      -0.010984523382     0.998903864917      -0.010984523382     0.00104836713453    0.00220543765556    
900000000.0         0.00105669119941    0.00248101325464    0.99888427207       -0.0123575974069    0.99888427207       -0.0123575974069    0.00105669119941    0.00248101325464    
1000000000.0        0.00106562629398    0.00275655999656    0.99886286265       -0.0137306745522    0.99886286265       -0.0137306745522    0.00106562629398    0.00275655999656    
1100000000.0        0.00107519671233    0.00303207584326    0.998839612188      -0.015103754245     0.998839612188      -0.015103754245     0.00107519671233    0.00303207584326    
1200000000.0        0.00108542118276    0.00330755873699    0.998814501775      -0.0164768357514    0.998814501775      -0.0164768357514    0.00108542118276    0.00330755873699    
1300000000.0        0.00109631447849    0.00358300660889    0.998787516448      -0.0178499182018    0.998787516448      -0.0178499182018    0.00109631447849    0.00358300660889    
1400000000.0        0.0011078884759     0.00385841738495    0.998758644134      -0.0192230006094    0.998758644134      -0.0192230006094    0.0011078884759     0.00385841738495    
1500000000.0        0.00112015287544    0.0041337889902     0.998727874927      -0.0205960818851    0.998727874927      -0.0205960818851    0.00112015287544    0.0041337889902     
1600000000.0        0.00113311570768    0.00440911935167    0.998695200584      -0.0219691608495    0.998695200584      -0.0219691608495    0.00113311570768    0.00440911935167    
1700000000.0        0.00114678369799    0.0046844064006     0.998660614162      -0.0233422362424    0.998660614162      -0.0233422362424    0.00114678369799    0.0046844064006     
1800000000.0        0.00116116253502    0.00495964807398    0.998624109749      -0.024715306731     0.998624109749      -0.024715306731     0.00116116253502    0.00495964807398    
1900000000.0        0.00117625707237    0.00523484231572    0.998585682258      -0.0260883709167    0.998585682258      -0.0260883709167    0.00117625707237    0.00523484231572    
2000000000.0        0.00119207148264    0.00550998707749    0.998545327282      -0.0274614273406    0.998545327282      -0.0274614273406    0.00119207148264    0.00550998707749    
2100000000.0        0.0012086093768     0.00578508031938    0.998503040969      -0.0288344744887    0.998503040969      -0.0288344744887    0.0012086093768     0.00578508031938    
2200000000.0        0.00122587389809    0.0060601200103     0.998458819926      -0.0302075107958    0.998458819926      -0.0302075107958    0.00122587389809    0.0060601200103     
2300000000.0        0.00124386779662    0.00633510412829    0.998412661153      -0.0315805346497    0.998412661153      -0.0315805346497    0.00124386779662    0.00633510412829    
2400000000.0        0.00126259348942    0.0066100306608     0.998364561976      -0.0329535443941    0.998364561976      -0.0329535443941    0.00126259348942    0.0066100306608     
2500000000.0        0.0012820531092     0.00688489760476    0.998314520001      -0.0343265383315    0.998314520001      -0.0343265383315    0.0012820531092     0.00688489760476    
2600000000.0        0.00130224854427    0.00715970296669    0.998262533073      -0.0356995147261    0.998262533073      -0.0356995147261    0.00130224854427    0.00715970296669    
2700000000.0        0.00132318147157    0.00743444476272    0.998208599247      -0.0370724718057    0.998208599247      -0.0370724718057    0.00132318147157    0.00743444476272    
2800000000.0        0.00134485338414    0.00770912101858    0.998152716756      -0.0384454077644    0.998152716756      -0.0384454077644    0.00134485338414    0.00770912101858    
2900000000.0        0.00136726561418    0.00798372976959    0.99809488399       -0.0398183207636    0.99809488399       -0.0398183207636    0.00136726561418    0.00798372976959    
3000000000.0        0.00139041935246    0.00825826906054    0.998035099476      -0.0411912089344    0.998035099476      -0.0411912089344    0.00139041935246    0.00825826906054    
3100000000.0        0.00141431566488    0.00853273694569    0.997973361865      -0.0425640703792    0.997973361865      -0.0425640703792    0.00141431566488    0.00853273694569    
3200000000.0        0.00143895550654    0.00880713148863    0.997909669914      -0.0439369031725    0.997909669914      -0.0439369031725    0.00143895550654    0.00880713148863    
3300000000.0        0.00146433973382    0.00908145076218    0.997844022474      -0.0453097053629    0.997844022474      -0.0453097053629    0.00146433973382    0.00908145076218    
3400000000.0        0.00149046911485    0.00935569284832    0.997776418484      -0.0466824749738    0.997776418484      -0.0466824749738    0.00149046911485    0.00935569284832    
3500000000.0        0.00151734433854    0.00962985583802    0.997706856959      -0.048055210005     0.997706856959      -0.048055210005     0.00151734433854    0.00962985583802    
3600000000.0        0.00154496602243    0.00990393783115    0.997635336979      -0.0494279084332    0.997635336979      -0.0494279084332    0.00154496602243    0.00990393783115    
3700000000.0        0.00157333471959    0.0101779369364     0.99756185769       -0.0508005682133    0.99756185769       -0.0508005682133    0.00157333471959    0.0101779369364     
3800000000.0        0.00160245092462    0.010451851271      0.997486418293      -0.0521731872795    0.997486418293      -0.0521731872795    0.00160245092462    0.010451851271      
3900000000.0        0.00163231507898    0.0107256789608     0.997409018038      -0.0535457635454    0.997409018038      -0.0535457635454    0.00163231507898    0.0107256789608     
4000000000.0        0.00166292757568    0.01099941814       0.997329656223      -0.0549182949056    0.997329656223      -0.0549182949056    0.00166292757568    0.01099941814       
4100000000.0        0.00169428876342    0.0112730669511     0.997248332187      -0.0562907792359    0.997248332187      -0.0562907792359    0.00169428876342    0.0112730669511     
4200000000.0        0.00172639895028    0.0115466235448     0.997165045308      -0.0576632143943    0.997165045308      -0.0576632143943    0.00172639895028    0.0115466235448     
4300000000.0        0.00175925840704    0.0118200860795     0.997079794998      -0.0590355982214    0.997079794998      -0.0590355982214    0.00175925840704    0.0118200860795     
4400000000.0        0.0017928673701     0.0120934527219     0.996992580705      -0.0604079285411    0.996992580705      -0.0604079285411    0.0017928673701     0.0120934527219     
4500000000.0        0.0018272260441     0.0123667216463     0.996903401903      -0.0617802031614    0.996903401903      -0.0617802031614    0.0018272260441     0.0123667216463     
4600000000.0        0.00186233460434    0.0126398910344     0.996812258097      -0.0631524198743    0.996812258097      -0.0631524198743    0.00186233460434    0.0126398910344     
4700000000.0        0.00189819319889    0.0129129590758     0.996719148813      -0.0645245764573    0.996719148813      -0.0645245764573    0.00189819319889    0.0129129590758     
4800000000.0        0.00193480195051    0.0131859239673     0.996624073607      -0.0658966706729    0.996624073607      -0.0658966706729    0.00193480195051    0.0131859239673     
4900000000.0        0.00197216095841    0.0134587839129     0.996527032051      -0.0672687002698    0.996527032051      -0.0672687002698    0.00197216095841    0.0134587839129     
5000000000.0        0.00201027029984    0.0137315371239     0.996428023743      -0.0686406629827    0.996428023743      -0.0686406629827    0.00201027029984    0.0137315371239     
5100000000.0        0.00204913003149    0.0140041818187     0.996327048296      -0.0700125565333    0.996327048296      -0.0700125565333    0.00204913003149    0.0140041818187     
5200000000.0        0.00208874019086    0.0142767162225     0.996224105342      -0.0713843786305    0.996224105342      -0.0713843786305    0.00208874019086    0.0142767162225     
5300000000.0        0.00212910079741    0.0145491385673     0.996119194533      -0.0727561269706    0.996119194533      -0.0727561269706    0.00212910079741    0.0145491385673     
5400000000.0        0.00217021185366    0.014821447092      0.996012315533      -0.0741277992377    0.996012315533      -0.0741277992377    0.00217021185366    0.014821447092      
5500000000.0        0.00221207334621    0.0150936400419     0.995903468022      -0.0754993931043    0.995903468022      -0.0754993931043    0.00221207334621    0.0150936400419     
5600000000.0        0.00225468524664    0.0153657156689     0.995792651696      -0.0768709062313    0.995792651696      -0.0768709062313    0.00225468524664    0.0153657156689     
5700000000.0        0.00229804751234    0.0156376722314     0.995679866262      -0.0782423362688    0.995679866262      -0.0782423362688    0.00229804751234    0.0156376722314     
5800000000.0        0.00234216008734    0.0159095079938     0.99556511144       -0.0796136808557    0.99556511144       -0.0796136808557    0.00234216008734    0.0159095079938     
5900000000.0        0.00238702290295    0.0161812212271     0.995448386963      -0.0809849376206    0.995448386963      -0.0809849376206    0.00238702290295    0.0161812212271     
6000000000.0        0.00243263587849    0.0164528102082     0.995329692575      -0.0823561041817    0.995329692575      -0.0823561041817    0.00243263587849    0.0164528102082     
6100000000.0        0.00247899892183    0.0167242732199     0.995209028031      -0.0837271781474    0.995209028031      -0.0837271781474    0.00247899892183    0.0167242732199     
6200000000.0        0.00252611193002    0.0169956085511     0.995086393096      -0.0850981571162    0.995086393096      -0.0850981571162    0.00252611193002    0.0169956085511     
6300000000.0        0.00257397478978    0.0172668144965     0.994961787543      -0.0864690386772    0.994961787543      -0.0864690386772    0.00257397478978    0.0172668144965     
6400000000.0        0.00262258737797    0.0175378893564     0.994835211159      -0.0878398204103    0.994835211159      -0.0878398204103    0.00262258737797    0.0175378893564     
6500000000.0        0.00267194956208    0.017808831437      0.994706663735      -0.0892104998862    0.994706663735      -0.0892104998862    0.00267194956208    0.017808831437      
6600000000.0        0.00272206120062    0.0180796390498     0.994576145075      -0.090581074667     0.994576145075      -0.090581074667     0.00272206120063    0.0180796390498     
6700000000.0        0.00277292214353    0.0183503105119     0.994443654988      -0.0919515423062    0.994443654988      -0.0919515423062    0.00277292214353    0.0183503105119     
6800000000.0        0.0028245322325     0.0186208441457     0.994309193292      -0.0933219003487    0.994309193292      -0.0933219003487    0.0028245322325     0.0186208441457     
6900000000.0        0.00287689130139    0.0188912382791     0.994172759814      -0.0946921463315    0.994172759814      -0.0946921463315    0.00287689130139    0.0188912382791     
7000000000.0        0.00292999917646    0.0191614912451     0.994034354388      -0.0960622777834    0.994034354388      -0.0960622777834    0.00292999917646    0.0191614912451     
7100000000.0        0.00298385567673    0.0194316013819     0.993893976854      -0.0974322922254    0.993893976854      -0.0974322922254    0.00298385567673    0.0194316013819     
7200000000.0        0.00303846061422    0.0197015670326     0.993751627059      -0.0988021871712    0.993751627059      -0.0988021871712    0.00303846061422    0.0197015670326     
7300000000.0        0.00309381379425    0.0199713865456     0.993607304858      -0.100171960126     0.993607304858      -0.100171960126     0.00309381379425    0.0199713865456     
7400000000.0        0.00314991501564    0.0202410582739     0.993461010113      -0.10154160859      0.993461010113      -0.10154160859      0.00314991501564    0.0202410582739     
7500000000.0        0.00320676407097    0.0205105805757     0.993312742691      -0.102911130053     0.993312742691      -0.102911130053     0.00320676407097    0.0205105805757     
7600000000.0        0.00326436074678    0.0207799518137     0.993162502464      -0.104280522001     0.993162502464      -0.104280522001     0.00326436074678    0.0207799518137     
7700000000.0        0.00332270482378    0.0210491703555     0.993010289314      -0.105649781911     0.993010289314      -0.105649781911     0.00332270482378    0.0210491703555     
7800000000.0        0.00338179607706    0.0213182345731     0.992856103126      -0.107018907254     0.992856103126      -0.107018907254     0.00338179607706    0.0213182345731     
7900000000.0        0.00344163427621    0.0215871428434     0.992699943791      -0.108387895495     0.992699943791      -0.108387895495     0.00344163427621    0.0215871428434     
8000000000.0        0.00350221918558    0.0218558935475     0.992541811206      -0.109756744091     0.992541811206      -0.109756744091     0.00350221918558    0.0218558935475     
8100000000.0        0.00356355056436    0.0221244850711     0.992381705273      -0.111125450495     0.992381705273      -0.111125450495     0.00356355056436    0.0221244850711     
8200000000.0        0.00362562816677    0.0223929158043     0.992219625901      -0.112494012152     0.992219625901      -0.112494012152     0.00362562816677    0.0223929158043     
8300000000.0        0.0036884517422     0.0226611841415     0.992055573002      -0.113862426502     0.992055573002      -0.113862426502     0.0036884517422     0.0226611841415     
8400000000.0        0.00375202103535    0.0229292884811     0.991889546495      -0.115230690979     0.991889546495      -0.115230690979     0.00375202103535    0.0229292884811     
8500000000.0        0.00381633578633    0.0231972272262     0.991721546304      -0.116598803011     0.991721546304      -0.116598803011     0.00381633578633    0.0231972272262     
8600000000.0        0.00388139573082    0.0234649987835     0.991551572356      -0.11796676002      0.991551572356      -0.11796676002      0.00388139573082    0.0234649987835     
8700000000.0        0.00394720060016    0.0237326015642     0.991379624586      -0.119334559422     0.991379624586      -0.119334559422     0.00394720060016    0.0237326015642     
8800000000.0        0.00401375012148    0.0240000339831     0.991205702931      -0.12070219863      0.991205702931      -0.12070219863      0.00401375012148    0.0240000339831     
8900000000.0        0.00408104401778    0.0242672944595     0.991029807334      -0.122069675049     0.991029807334      -0.122069675049     0.00408104401778    0.0242672944595     
9000000000.0        0.00414908200805    0.024534381416      0.990851937744      -0.12343698608      0.990851937744      -0.12343698608      0.00414908200804    0.024534381416      
9100000000.0        0.00421786380733    0.0248012932795     0.990672094112      -0.124804129118     0.990672094112      -0.124804129118     0.00421786380733    0.0248012932795     
9200000000.0        0.00428738912685    0.0250680284805     0.990490276395      -0.126171101555     0.990490276395      -0.126171101555     0.00428738912685    0.0250680284805     
9300000000.0        0.00435765767408    0.0253345854532     0.990306484555      -0.127537900776     0.990306484555      -0.127537900776     0.00435765767408    0.0253345854532     
9400000000.0        0.00442866915282    0.0256009626357     0.990120718558      -0.128904524162     0.990120718558      -0.128904524162     0.00442866915282    0.0256009626357     
9500000000.0        0.00450042326327    0.0258671584695     0.989932978375      -0.130270969088     0.989932978375      -0.130270969088     0.00450042326327    0.0258671584695     
9600000000.0        0.00457291970213    0.0261331713997     0.989743263979      -0.131637232927     0.989743263979      -0.131637232927     0.00457291970213    0.0261331713997     
9700000000.0        0.00464615816263    0.0263989998752     0.98955157535       -0.133003313045     0.98955157535       -0.133003313045     0.00464615816263    0.0263989998752     
9800000000.0        0.00472013833462    0.0266646423482     0.989357912472      -0.134369206804     0.989357912472      -0.134369206804     0.00472013833462    0.0266646423482     
9900000000.0        0.00479485990464    0.0269300972743     0.989162275332      -0.135734911562     0.989162275332      -0.135734911562     0.00479485990464    0.0269300972743     
10000000000.0       0.00487032255596    0.0271953631125     0.988964663923      -0.137100424673     0.988964663923      -0.137100424673     0.00487032255596    0.0271953631125     
