# Hz S RI R 50.00 
100000000.0         -0.00119765638611   -0.0347767933433    0.998692446324      -0.0349612591721    0.998692446324      -0.0349612591721    -0.00119765638611   -0.0347767933433    
200000000.0         -0.00486586049195   -0.0692945238643    0.995023441003      -0.0696634684955    0.995023441003      -0.0696634684955    -0.00486586049195   -0.0692945238643    
300000000.0         -0.010897264092     -0.103305590393     0.988991391047      -0.103859034295     0.988991391047      -0.103859034295     -0.010897264092     -0.103305590393     
400000000.0         -0.0192055699078    -0.136574563034     0.980682499222      -0.137312532679     0.980682499222      -0.137312532679     -0.0192055699078    -0.136574563034     
500000000.0         -0.0296746775144    -0.168883346121     0.970212829724      -0.169805873257     0.970212829724      -0.169805873257     -0.0296746775144    -0.168883346121     
600000000.0         -0.0421626124619    -0.200035538618     0.957724338607      -0.201142659784     0.957724338607      -0.201142659784     -0.0421626124619    -0.200035538618     
700000000.0         -0.0565061403153    -0.229859809202     0.943380249478      -0.231151565383     0.943380249478      -0.231151565383     -0.0565061403153    -0.229859809202     
800000000.0         -0.072525787424     -0.258212193159     0.927360028999      -0.259688629506     0.927360028999      -0.259688629506     -0.072525787424     -0.258212193159     
900000000.0         -0.0900309981086    -0.284977295779     0.909854228035      -0.28663846139      0.909854228035      -0.28663846139      -0.0900309981086    -0.284977295779     
1000000000.0        -0.108825179275     -0.310068455708     0.891059436201      -0.311914403431     0.891059436201      -0.311914403431     -0.108825179275     -0.310068455708     
1100000000.0        -0.128710420205     -0.333426977313     0.871173561607      -0.335457763589     0.871173561607      -0.335457763589     -0.128710420205     -0.333426977313     
1200000000.0        -0.149491722494     -0.355020580744     0.850391600646      -0.357236265457     0.850391600646      -0.357236265457     -0.149491722494     -0.355020580744     
1300000000.0        -0.170980626899     -0.374841240845     0.828902010967      -0.377241887197     0.828902010967      -0.377241887197     -0.170980626899     -0.374841240845     
1400000000.0        -0.192998174975     -0.392902592752     0.806883749728      -0.395488267145     0.806883749728      -0.395488267145     -0.192998174975     -0.392902592752     
1500000000.0        -0.215377189397     -0.409237075131     0.784503993196      -0.412007847058     0.784503993196      -0.412007847058     -0.215377189397     -0.409237075131     
1600000000.0        -0.237963895182     -0.4238929651       0.76191651547       -0.426848907053     0.76191651547       -0.426848907053     -0.237963895182     -0.4238929651       
1700000000.0        -0.260618933038     -0.436931435408     0.739260675096      -0.440072622783     0.739260675096      -0.440072622783     -0.260618933038     -0.436931435408     
1800000000.0        -0.283217835728     -0.448423737725     0.716660938667      -0.451750248739     0.716660938667      -0.451750248739     -0.283217835728     -0.448423737725     
1900000000.0        -0.305651049337     -0.458448588822     0.694226859544      -0.461960504437     0.694226859544      -0.461960504437     -0.305651049337     -0.458448588822     
2000000000.0        -0.327823584953     -0.467089811004     0.672053426153      -0.47078721485      0.672053426153      -0.47078721485      -0.327823584953     -0.467089811004     
2100000000.0        -0.349654384215     -0.474434255774     0.650221696426      -0.478317234081     0.650221696426      -0.478317234081     -0.349654384215     -0.474434255774     
2200000000.0        -0.371075475984     -0.480570021192     0.628799641116      -0.484638662724     0.628799641116      -0.484638662724     -0.371075475984     -0.480570021192     
2300000000.0        -0.392030992647     -0.485584958851     0.607843127493      -0.489839354844     0.607843127493      -0.489839354844     -0.392030992647     -0.485584958851     
2400000000.0        -0.41247610444      -0.489565455738     0.58739698501       -0.49400569984      0.58739698501       -0.49400569984      -0.41247610444      -0.489565455738     
2500000000.0        -0.432375919802     -0.492595469034     0.567496104942      -0.497221657252     0.567496104942      -0.497221657252     -0.432375919802     -0.492595469034     
2600000000.0        -0.451704389723     -0.494755787646     0.548166536037      -0.499568018288     0.548166536037      -0.499568018288     -0.451704389723     -0.494755787646     
2700000000.0        -0.470443244875     -0.496123492273     0.529426547382      -0.5011218659       0.529426547382      -0.5011218659       -0.470443244875     -0.496123492273     
2800000000.0        -0.488580986313     -0.496771585678     0.511287637696      -0.501956205054     0.511287637696      -0.501956205054     -0.488580986313     -0.496771585678     
2900000000.0        -0.506111943686     -0.496768765909     0.493755477121      -0.502139735955     0.493755477121      -0.502139735955     -0.506111943686     -0.496768765909     
3000000000.0        -0.52303540936      -0.496179317171     0.476830773092      -0.501736744918     0.476830773092      -0.501736744918     -0.52303540936      -0.496179317171     
3100000000.0        -0.539354852427     -0.49506309548      0.460510056331      -0.500807090028     0.460510056331      -0.500807090028     -0.539354852427     -0.49506309548      
3200000000.0        -0.555077213181     -0.493475588935     0.444786386365      -0.499406261411     0.444786386365      -0.499406261411     -0.555077213181     -0.493475588935     
3300000000.0        -0.570212276156     -0.491468035134     0.42964997849       -0.497585498653     0.42964997849       -0.497585498653     -0.570212276156     -0.491468035134     
3400000000.0        -0.584772118053     -0.489087580903     0.415088755844      -0.495391950529     0.415088755844      -0.495391950529     -0.584772118053     -0.489087580903     
3500000000.0        -0.598770625731     -0.486377471948     0.401088831411      -0.492868864657     0.401088831411      -0.492868864657     -0.598770625731     -0.486377471948     
3600000000.0        -0.612223078746     -0.483377262222     0.387634925486      -0.490055796869     0.387634925486      -0.490055796869     -0.612223078746     -0.483377262222     
3700000000.0        -0.625145790616     -0.480123034805     0.374710724403      -0.486988832086     0.374710724403      -0.486988832086     -0.625145790616     -0.480123034805     
3800000000.0        -0.637555802933     -0.476647627718     0.362299186429      -0.483700810142     0.362299186429      -0.483700810142     -0.637555802933     -0.476647627718     
3900000000.0        -0.649470626574     -0.472980859607     0.350382800548      -0.48022155146      0.350382800548      -0.48022155146      -0.649470626574     -0.472980859607     
4000000000.0        -0.660908024571     -0.469149751398     0.338943803596      -0.476578078717     0.338943803596      -0.476578078717     -0.660908024571     -0.469149751398     
4100000000.0        -0.671885831518     -0.465178741064     0.327964360843      -0.472794831605     0.327964360843      -0.472794831605     -0.671885831518     -0.465178741064     
4200000000.0        -0.682421804854     -0.461089889444     0.317426714723      -0.468893872655     0.317426714723      -0.468893872655     -0.682421804854     -0.461089889444     
4300000000.0        -0.692533503728     -0.456903075745     0.307313305958      -0.464895082736     0.307313305958      -0.464895082736     -0.692533503728     -0.456903075745     
4400000000.0        -0.702238191647     -0.452636181861     0.297606870916      -0.460816345383     0.297606870916      -0.460816345383     -0.702238191647     -0.452636181861     
4500000000.0        -0.711552759458     -0.448305265095     0.288290518626      -0.45667371951      0.288290518626      -0.45667371951      -0.711552759458     -0.448305265095     
4600000000.0        -0.72049366567      -0.44392471914      0.279347790454      -0.452481600402     0.279347790454      -0.452481600402     -0.72049366567      -0.44392471914      
4700000000.0        -0.729076891445     -0.439507423477     0.270762705119      -0.448252869102     0.270762705119      -0.448252869102     -0.729076891445     -0.439507423477     
4800000000.0        -0.737317907941     -0.435064881469     0.262519791343      -0.443999030519     0.262519791343      -0.443999030519     -0.737317907941     -0.435064881469     
4900000000.0        -0.745231653984     -0.430607347608     0.254604110177      -0.439730340665     0.254604110177      -0.439730340665     -0.745231653984     -0.430607347608     
5000000000.0        -0.752832522349     -0.42614394442      0.247001268729      -0.435455923566     0.247001268729      -0.435455923566     -0.752832522349     -0.42614394442      
5100000000.0        -0.760134353114     -0.421682769607     0.239697426804      -0.431183878405     0.239697426804      -0.431183878405     -0.760134353114     -0.421682769607     
5200000000.0        -0.767150432828     -0.417230994035     0.232679297731      -0.42692137751      0.232679297731      -0.42692137751      -0.767150432828     -0.417230994035     
5300000000.0        -0.773893498386     -0.412794951183     0.2259341445        -0.422674755802     0.2259341445        -0.422674755802     -0.773893498386     -0.412794951183     
5400000000.0        -0.780375744675     -0.408380218656     0.219449772107      -0.418449592312     0.219449772107      -0.418449592312     -0.780375744675     -0.408380218656     
5500000000.0        -0.786608835198     -0.403991692371     0.213214516929      -0.414250784362     0.213214516929      -0.414250784362     -0.786608835198     -0.403991692371     
5600000000.0        -0.792603915024     -0.399633653978     0.207217233783      -0.410082614997     0.207217233783      -0.410082614997     -0.792603915024     -0.399633653978     
5700000000.0        -0.798371625482     -0.395309832082     0.201447281219      -0.405948814194     0.201447281219      -0.405948814194     -0.798371625482     -0.395309832082     
5800000000.0        -0.803922120159     -0.391023457761     0.195894505536      -0.401852614393     0.195894505536      -0.401852614393     -0.803922120159     -0.391023457761     
5900000000.0        -0.80926508178      -0.386777314891     0.19054922389       -0.397796800816     0.19054922389       -0.397796800816     -0.80926508178      -0.386777314891     
6000000000.0        -0.814409739685     -0.382573785712     0.185402206824      -0.393783757033     0.185402206824      -0.393783757033     -0.814409739685     -0.382573785712     
6100000000.0        -0.81936488761      -0.378414892064     0.180444660484      -0.389815506205     0.180444660484      -0.389815506205     -0.81936488761      -0.378414892064     
6200000000.0        -0.82413890157      -0.374302332684     0.175668208736      -0.385893748372     0.175668208736      -0.385893748372     -0.82413890157      -0.374302332684     
6300000000.0        -0.82873975767      -0.370237516919     0.171064875358      -0.382019894177     0.171064875358      -0.382019894177     -0.82873975767      -0.370237516919     
6400000000.0        -0.833175049702     -0.366221595184     0.166627066438      -0.378195095316     0.166627066438      -0.378195095316     -0.833175049702     -0.366221595184     
6500000000.0        -0.837452006416     -0.362255486472     0.162347553108      -0.374420272053     0.162347553108      -0.374420272053     -0.837452006416     -0.362255486472     
6600000000.0        -0.841577508388     -0.358339903183     0.15821945467       -0.370696138047     0.15821945467       -0.370696138047     -0.841577508388     -0.358339903183     
6700000000.0        -0.845558104409     -0.354475373532     0.154236222214      -0.367023222763     0.154236222214      -0.367023222763     -0.845558104409     -0.354475373532     
6800000000.0        -0.849400027357     -0.350662261761     0.150391622744      -0.363401891685     0.150391622744      -0.363401891685     -0.849400027357     -0.350662261761     
6900000000.0        -0.853109209508     -0.346900786365     0.146679723859      -0.359832364538     0.146679723859      -0.359832364538     -0.853109209508     -0.346900786365     
7000000000.0        -0.856691297279     -0.343191036519     0.143094879021      -0.356314731721     0.143094879021      -0.356314731721     -0.856691297279     -0.343191036519     
7100000000.0        -0.860151665374     -0.339532986884     0.139631713404      -0.352848969108     0.139631713404      -0.352848969108     -0.860151665374     -0.339532986884     
7200000000.0        -0.86349543034      -0.33592651094      0.13628511034       -0.349434951386     0.13628511034       -0.349434951386     -0.86349543034      -0.33592651094      
7300000000.0        -0.866727463527     -0.33237139299      0.133050198352      -0.346072464058     0.133050198352      -0.346072464058     -0.866727463527     -0.33237139299      
7400000000.0        -0.869852403464     -0.328867338975     0.129922338789      -0.342761214256     0.129922338789      -0.342761214256     -0.869852403464     -0.328867338975     
7500000000.0        -0.872874667661     -0.325413986187     0.126897114016      -0.33950084046      0.126897114016      -0.33950084046      -0.872874667661     -0.325413986187     
7600000000.0        -0.875798463842     -0.322010912023     0.123970316182      -0.336290921245     0.123970316182      -0.336290921245     -0.875798463842     -0.322010912023     
7700000000.0        -0.878627800642     -0.31865764184      0.121137936527      -0.333130983144     0.121137936527      -0.333130983144     -0.878627800642     -0.31865764184      
7800000000.0        -0.881366497765     -0.315353656018     0.118396155219      -0.330020507704     0.118396155219      -0.330020507704     -0.881366497765     -0.315353656018     
7900000000.0        -0.884018195636     -0.312098396302     0.115741331706      -0.326958937836     0.115741331706      -0.326958937836     -0.884018195636     -0.312098396302     
8000000000.0        -0.886586364567     -0.308891271493     0.113169995547      -0.323945683499     0.113169995547      -0.323945683499     -0.886586364567     -0.308891271493     
8100000000.0        -0.889074313441     -0.305731662548     0.110678837729      -0.320980126806     0.110678837729      -0.320980126806     -0.889074313441     -0.305731662548     
8200000000.0        -0.89148519796      -0.302618927156     0.10826470242       -0.318061626597     0.10826470242       -0.318061626597     -0.89148519796      -0.302618927156     
8300000000.0        -0.89382202845      -0.299552403828     0.105924579163      -0.315189522533     0.105924579163      -0.315189522533     -0.89382202845      -0.299552403828     
8400000000.0        -0.896087677265     -0.296531415565     0.103655595474      -0.312363138756     0.103655595474      -0.312363138756     -0.896087677265     -0.296531415565     
8500000000.0        -0.898284885791     -0.293555273119     0.10145500983       -0.309581787164     0.10145500983       -0.309581787164     -0.898284885791     -0.293555273119     
8600000000.0        -0.900416271091     -0.290623277926     0.099320205039      -0.306844770329     0.099320205039      -0.306844770329     -0.900416271091     -0.290623277926     
8700000000.0        -0.902484332183     -0.287734724697     0.0972486819458     -0.304151384101     0.0972486819458     -0.304151384101     -0.902484332183     -0.287734724697     
8800000000.0        -0.904491455994     -0.28488890374      0.0952380534894     -0.301500919924     0.0952380534894     -0.301500919924     -0.904491455994     -0.28488890374      
8900000000.0        -0.906439922989     -0.282085103019     0.0932860390681     -0.298892666894     0.0932860390681     -0.298892666894     -0.906439922989     -0.282085103019     
9000000000.0        -0.908331912502     -0.279322609975     0.0913904592097     -0.296325913585     0.0913904592097     -0.296325913585     -0.908331912502     -0.279322609975     
9100000000.0        -0.910169507785     -0.276600713143     0.089549230526      -0.293799949663     0.089549230526      -0.293799949663     -0.910169507785     -0.276600713143     
9200000000.0        -0.911954700778     -0.273918703576     0.0877603609375     -0.291314067313     0.0877603609375     -0.291314067313     -0.911954700778     -0.273918703576     
9300000000.0        -0.913689396631     -0.271275876105     0.0860219451529     -0.288867562495     0.0860219451529     -0.288867562495     -0.913689396631     -0.271275876105     
9400000000.0        -0.915375417985     -0.268671530434     0.0843321603915     -0.286459736042     0.0843321603915     -0.286459736042     -0.915375417985     -0.268671530434     
9500000000.0        -0.917014509018     -0.266104972107     0.0826892623322     -0.284089894631     0.0826892623322     -0.284089894631     -0.917014509018     -0.266104972107     
9600000000.0        -0.918608339284     -0.263575513348     0.0810915812801     -0.281757351613     0.0810915812801     -0.281757351613     -0.918608339284     -0.263575513348     
9700000000.0        -0.920158507337     -0.261082473782     0.0795375185356     -0.279461427745     0.0795375185356     -0.279461427745     -0.920158507337     -0.261082473782     
9800000000.0        -0.921666544174     -0.258625181067     0.0780255429576     -0.277201451817     0.0780255429576     -0.277201451817     -0.921666544174     -0.258625181067     
9900000000.0        -0.923133916488     -0.256202971426     0.0765541877072     -0.274976761182     0.0765541877072     -0.274976761182     -0.923133916488     -0.256202971426     
10000000000.0       -0.92456202975      -0.2538151901       0.075122047165      -0.272786702219     0.075122047165      -0.272786702219     -0.92456202975      -0.2538151901       
