# Hz S RI R 50.00 
100000000.0         -0.00958509658245   -0.096931375951     0.990371083447      -0.0971563934602    0.990371083447      -0.0971563934602    -0.00958509658245   -0.096931375951     
200000000.0         -0.0371388403277    -0.188431736494     0.962816963516      -0.188881871194     0.962816963516      -0.188881871194     -0.0371388403277    -0.188431736494     
300000000.0         -0.0797341161809    -0.27007860149      0.920221335365      -0.270754005049     0.920221335365      -0.270754005049     -0.0797341161809    -0.27007860149      
400000000.0         -0.133352596264     -0.339029543989     0.866602489091      -0.339930407429     0.866602489091      -0.339930407429     -0.133352596264     -0.339029543989     
500000000.0         -0.193703283661     -0.394153399184     0.80625140702       -0.395279945917     0.80625140702       -0.395279945917     -0.193703283661     -0.394153399184     
600000000.0         -0.256903230968     -0.435761735795     0.743051029045      -0.437114216686     0.743051029045      -0.437114216686     -0.256903230968     -0.435761735795     
700000000.0         -0.319863972316     -0.465142523728     0.680089816525      -0.466721213234     0.680089816525      -0.466721213234     -0.319863972316     -0.465142523728     
800000000.0         -0.380397945532     -0.484086735719     0.619555328632      -0.485891928714     0.619555328632      -0.485891928714     -0.380397945532     -0.484086735719     
900000000.0         -0.437137583653     -0.494518098154     0.562815130183      -0.496550107222     0.562815130183      -0.496550107222     -0.437137583653     -0.494518098154     
1000000000.0        -0.48936739073      -0.498255995387     0.510584715503      -0.500515148489     0.510584715503      -0.500515148489     -0.48936739073      -0.498255995387     
1100000000.0        -0.536840938281     -0.496893502405     0.463110511788      -0.499380140834     0.463110511788      -0.499380140834     -0.536840938281     -0.496893502405     
1200000000.0        -0.57962095849      -0.491755883967     0.420329785797      -0.494470360546     0.420329785797      -0.494470360546     -0.57962095849      -0.491755883967     
1300000000.0        -0.617955833568     -0.48390671593      0.381994154424      -0.486849393416     0.381994154424      -0.486849393416     -0.617955833568     -0.48390671593      
1400000000.0        -0.652191903811     -0.474177433619     0.347757276596      -0.477348683295     0.347757276596      -0.477348683295     -0.652191903811     -0.474177433619     
1500000000.0        -0.682715239857     -0.463205076911     0.317233080985      -0.466605277327     0.317233080985      -0.466605277327     -0.682715239857     -0.463205076911     
1600000000.0        -0.709915338492     -0.451469851853     0.290032070183      -0.45509938772      0.290032070183      -0.45509938772      -0.709915338492     -0.451469851853     
1700000000.0        -0.734164073345     -0.43932858973      0.26578236999       -0.443187850939     0.26578236999       -0.443187850939     -0.734164073345     -0.43932858973      
1800000000.0        -0.755804728794     -0.427042771163     0.2441406955        -0.431132151918     0.2441406955        -0.431132151918     -0.755804728794     -0.427042771163     
1900000000.0        -0.77514740172      -0.414801123819     0.224796949336      -0.419121021877     0.224796949336      -0.419121021877     -0.77514740172      -0.414801123819     
2000000000.0        -0.792468235996     -0.402737399956     0.207474987155      -0.407288215965     0.207474987155      -0.407288215965     -0.792468235996     -0.402737399956     
2100000000.0        -0.808010826244     -0.390944132049     0.191931213893      -0.39572626897      0.191931213893      -0.39572626897      -0.808010826244     -0.390944132049     
2200000000.0        -0.821988735575     -0.37948315638      0.17795206601       -0.384497018986     0.17795206601       -0.384497018986     -0.821988735575     -0.37948315638      
2300000000.0        -0.834588480277     -0.368393600743     0.165351026809      -0.373639595195     0.165351026809      -0.373639595195     -0.834588480277     -0.368393600743     
2400000000.0        -0.84597260035      -0.357697913518     0.153965555892      -0.363176446998     0.153965555892      -0.363176446998     -0.84597260035      -0.357697913518     
2500000000.0        -0.85628260382      -0.347406395605     0.143654144847      -0.353117876017     0.143654144847      -0.353117876017     -0.85628260382      -0.347406395605     
2600000000.0        -0.865641677453     -0.337520595913     0.134293606533      -0.34346543163      0.134293606533      -0.34346543163      -0.865641677453     -0.337520595913     
2700000000.0        -0.874157119614     -0.328035848096     0.125776642219      -0.334214447757     0.125776642219      -0.334214447757     -0.874157119614     -0.328035848096     
2800000000.0        -0.881922487615     -0.318943160263     0.118009694235      -0.325355932615     0.118009694235      -0.325355932615     -0.881922487615     -0.318943160263     
2900000000.0        -0.889019472066     -0.310230618139     0.110911071614      -0.316877971916     0.110911071614      -0.316877971916     -0.889019472066     -0.310230618139     
3000000000.0        -0.895519520752     -0.301884422751     0.104409326226      -0.308766766588     0.104409326226      -0.308766766588     -0.895519520752     -0.301884422751     
3100000000.0        -0.901485238568     -0.293889653844     0.0984418528337     -0.301007396224     0.0984418528337     -0.301007396224     -0.901485238568     -0.293889653844     
3200000000.0        -0.906971590648     -0.28623082761      0.092953685964      -0.293584376836     0.092953685964      -0.293584376836     -0.906971590648     -0.28623082761      
3300000000.0        -0.912026934467     -0.278892300304     0.0878964678056     -0.286482064499     0.0878964678056     -0.286482064499     -0.912026934467     -0.278892300304     
3400000000.0        -0.9166939045       -0.271858556507     0.083227563551      -0.279684943632     0.083227563551      -0.279684943632     -0.9166939045       -0.271858556507     
3500000000.0        -0.921010170409     -0.265114411206     0.0789093032084     -0.273177829104     0.0789093032084     -0.273177829104     -0.921010170409     -0.265114411206     
3600000000.0        -0.925009087123     -0.258645147643     0.0749083315183     -0.266946004092     0.0749083315183     -0.266946004092     -0.925009087123     -0.258645147643     
3700000000.0        -0.928720252713     -0.252436607434     0.0711950500837     -0.260975310221     0.0711950500837     -0.260975310221     -0.928720252713     -0.252436607434     
3800000000.0        -0.932169987682     -0.246475245423     0.0677431380737     -0.255252202429     0.0677431380737     -0.255252202429     -0.932169987682     -0.246475245423     
3900000000.0        -0.935381747339     -0.240748158624     0.0645291398531     -0.249763777923     0.0645291398531     -0.249763777923     -0.935381747339     -0.240748158624     
4000000000.0        -0.938376477146     -0.235243096319     0.0615321096315     -0.244497786278     0.0615321096315     -0.244497786278     -0.938376477146     -0.235243096319     
4100000000.0        -0.941172919468     -0.229948456603     0.0587333047179     -0.239442626004     0.0587333047179     -0.239442626004     -0.941172919468     -0.229948456603     
4200000000.0        -0.943787878835     -0.224853273379     0.0561159202546     -0.234587331537     0.0561159202546     -0.234587331537     -0.943787878835     -0.224853273379     
4300000000.0        -0.946236451773     -0.219947196774     0.053664859386      -0.229921553666     0.053664859386      -0.229921553666     -0.946236451773     -0.219947196774     
4400000000.0        -0.948532226316     -0.215220469216     0.051366533746      -0.225435535613     0.051366533746      -0.225435535613     -0.948532226316     -0.215220469216     
4500000000.0        -0.950687455542     -0.210663898821     0.0492086899255     -0.221120086427     0.0492086899255     -0.221120086427     -0.950687455542     -0.210663898821     
4600000000.0        -0.952713208802     -0.206268831327     0.0471802582382     -0.216966552916     0.0471802582382     -0.216966552916     -0.952713208802     -0.206268831327     
4700000000.0        -0.954619503784     -0.202027121449     0.04527122066       -0.212966791011     0.04527122066       -0.212966791011     -0.954619503784     -0.202027121449     
4800000000.0        -0.956415422053     -0.197931104321     0.0434724952849     -0.209113137205     0.0434724952849     -0.209113137205     -0.956415422053     -0.197931104321     
4900000000.0        -0.958109210346     -0.193973567473     0.0417758350335     -0.205398380532     0.0417758350335     -0.205398380532     -0.958109210346     -0.193973567473     
5000000000.0        -0.959708369538     -0.190147723665     0.0401737386848     -0.201815735405     0.0401737386848     -0.201815735405     -0.959708369538     -0.190147723665     
5100000000.0        -0.961219732937     -0.186447184788     0.0386593725826     -0.198358815514     0.0386593725826     -0.198358815514     -0.961219732937     -0.186447184788     
5200000000.0        -0.962649535309     -0.182865936962     0.0372265016075     -0.195021608923     0.0372265016075     -0.195021608923     -0.962649535309     -0.182865936962     
5300000000.0        -0.964003473853     -0.179398316913     0.0358694282028     -0.19179845445      0.0358694282028     -0.19179845445      -0.964003473853     -0.179398316913     
5400000000.0        -0.965286762158     -0.176038989646     0.0345829384193     -0.188684019341     0.0345829384193     -0.188684019341     -0.965286762158     -0.176038989646     
5500000000.0        -0.966504178031     -0.172782927431     0.0333622540842     -0.185673278248     0.0333622540842     -0.185673278248     -0.966504178031     -0.172782927431     
5600000000.0        -0.967660105975     -0.169625390062     0.0322029903249     -0.182761493492     0.0322029903249     -0.182761493492     -0.967660105975     -0.169625390062     
5700000000.0        -0.968758574973     -0.166561906357     0.0311011177848     -0.179944196562     0.0311011177848     -0.179944196562     -0.968758574973     -0.166561906357     
5800000000.0        -0.969803292153     -0.163588256858     0.0300529289537     -0.177217170812     0.0300529289537     -0.177217170812     -0.969803292153     -0.163588256858     
5900000000.0        -0.970797672845     -0.16070045766      0.0290550081188     -0.174576435288     0.0290550081188     -0.174576435288     -0.970797672845     -0.16070045766      
6000000000.0        -0.971744867438     -0.157894745321     0.0281042045006     -0.172018229639     0.0281042045006     -0.172018229639     -0.971744867438     -0.157894745321     
6100000000.0        -0.972647785435     -0.155167562789     0.0271976082003     -0.169539000038     0.0271976082003     -0.169539000038     -0.972647785435     -0.155167562789     
6200000000.0        -0.973509117021     -0.152515546282     0.0263325286309     -0.167135386065     0.0263325286309     -0.167135386065     -0.973509117021     -0.152515546282     
6300000000.0        -0.974331352437     -0.149935513065     0.0255064751457     -0.16480420848      0.0255064751457     -0.16480420848      -0.974331352437     -0.149935513065     
6400000000.0        -0.975116799397     -0.147424450064     0.0247171396158     -0.162542457833     0.0247171396158     -0.162542457833     -0.975116799397     -0.147424450064     
6500000000.0        -0.975867598786     -0.144979503261     0.023962380737      -0.160347283863     0.023962380737      -0.160347283863     -0.975867598786     -0.144979503261     
6600000000.0        -0.976585738812     -0.142597967816     0.0232402098751     -0.158215985611     0.0232402098751     -0.158215985611     -0.976585738812     -0.142597967816     
6700000000.0        -0.977273067791     -0.140277278867     0.0225487782816     -0.156146002223     0.0225487782816     -0.156146002223     -0.977273067791     -0.140277278867     
6800000000.0        -0.977931305711     -0.138015002957     0.02188636553       -0.154134904376     0.02188636553       -0.154134904376     -0.977931305711     -0.138015002957     
6900000000.0        -0.9785620547       -0.135808830052     0.021251369045      -0.152180386291     0.021251369045      -0.152180386291     -0.9785620547       -0.135808830052     
7000000000.0        -0.979166808525     -0.133656566095     0.0206422946064     -0.150280258285     0.0206422946064     -0.150280258285     -0.979166808525     -0.133656566095     
7100000000.0        -0.979746961212     -0.131556126069     0.0200577477286     -0.148432439837     0.0200577477286     -0.148432439837     -0.979746961212     -0.131556126069     
7200000000.0        -0.980303814881     -0.129505527527     0.0194964258232     -0.14663495311      0.0194964258232     -0.14663495311      -0.980303814881     -0.129505527527     
7300000000.0        -0.980838586879     -0.127502884553     0.0189571110667     -0.144885916917     0.0189571110667     -0.144885916917     -0.980838586879     -0.127502884553     
7400000000.0        -0.981352416282     -0.125546402131     0.0184386639017     -0.143183541081     0.0184386639017     -0.143183541081     -0.981352416282     -0.125546402131     
7500000000.0        -0.981846369818     -0.123634370881     0.0179400171077     -0.141526121179     0.0179400171077     -0.141526121179     -0.981846369818     -0.123634370881     
7600000000.0        -0.982321447286     -0.121765162149     0.0174601703873     -0.139912033622     0.0174601703873     -0.139912033622     -0.982321447286     -0.121765162149     
7700000000.0        -0.982778586504     -0.119937223415     0.0169981854155     -0.138339731065     0.0169981854155     -0.138339731065     -0.982778586504     -0.119937223415     
7800000000.0        -0.983218667839     -0.118149073998     0.0165531813097     -0.136807738111     0.0165531813097     -0.136807738111     -0.983218667839     -0.118149073998     
7900000000.0        -0.983642518358     -0.116399301043     0.0161243304782     -0.135314647297     0.0161243304782     -0.135314647297     -0.983642518358     -0.116399301043     
8000000000.0        -0.984050915638     -0.114686555758     0.0157108548136     -0.133859115331     0.0157108548136     -0.133859115331     -0.984050915638     -0.114686555758     
8100000000.0        -0.984444591253     -0.113009549903     0.0153120221978     -0.132439859575     0.0153120221978     -0.132439859575     -0.984444591253     -0.113009549903     
8200000000.0        -0.984824233995     -0.111367052489     0.01492714329       -0.131055654746     0.01492714329       -0.131055654746     -0.984824233995     -0.111367052489     
8300000000.0        -0.985190492823     -0.109757886688     0.0145555685724     -0.12970532983      0.0145555685724     -0.12970532983      -0.985190492823     -0.109757886688     
8400000000.0        -0.985543979583     -0.108180926939     0.01419668563       -0.128387765177     0.01419668563       -0.128387765177     -0.985543979583     -0.108180926939     
8500000000.0        -0.985885271515     -0.10663509623      0.013849916644      -0.12710188979      0.013849916644      -0.12710188979      -0.985885271515     -0.10663509623      
8600000000.0        -0.986214913567     -0.105119363544     0.0135147160791     -0.125846678769     0.0135147160791     -0.125846678769     -0.986214913567     -0.105119363544     
8700000000.0        -0.986533420528     -0.103632741466     0.0131905685493     -0.124621150913     0.0131905685493     -0.124621150913     -0.986533420528     -0.103632741466     
8800000000.0        -0.986841279001     -0.102174283932     0.0128769868451     -0.123424366473     0.0128769868451     -0.123424366473     -0.986841279001     -0.102174283932     
8900000000.0        -0.987138949225     -0.100743084111     0.0125735101091     -0.122255425032     0.0125735101091     -0.122255425032     -0.987138949225     -0.100743084111     
9000000000.0        -0.987426866767     -0.0993382724136    0.012279702148      -0.121113463513     0.012279702148      -0.121113463513     -0.987426866767     -0.0993382724136    
9100000000.0        -0.987705444082     -0.0979590146231    0.0119951498682     -0.119997654309     0.0119951498682     -0.119997654309     -0.987705444082     -0.0979590146231    
9200000000.0        -0.987975071966     -0.0966045101276    0.0117194618259     -0.118907203516     0.0117194618259     -0.118907203516     -0.987975071966     -0.0966045101276    
9300000000.0        -0.988236120898     -0.095273990261     0.0114522668822     -0.117841349273     0.0114522668822     -0.117841349273     -0.988236120898     -0.095273990261     
9400000000.0        -0.988488942294     -0.0939667167369    0.0111932129531     -0.116799360193     0.0111932129531     -0.116799360193     -0.988488942294     -0.0939667167369    
9500000000.0        -0.98873386966      -0.0926819801722    0.0109419658499     -0.115780533893     0.0109419658499     -0.115780533893     -0.98873386966      -0.0926819801722    
9600000000.0        -0.988971219678     -0.091419098695     0.010698208199      -0.114784195595     0.010698208199      -0.114784195595     -0.988971219678     -0.091419098695     
9700000000.0        -0.989201293208     -0.0901774166302    0.0104616384379     -0.113809696814     0.0104616384379     -0.113809696814     -0.989201293208     -0.0901774166302    
9800000000.0        -0.98942437622      -0.0889563032583    0.0102319698799     -0.11285641412      0.0102319698799     -0.11285641412      -0.98942437622      -0.0889563032583    
9900000000.0        -0.98964074067      -0.0877551516435    0.0100089298421     -0.111923747959     0.0100089298421     -0.111923747959     -0.98964074067      -0.0877551516435    
10000000000.0       -0.989850645311     -0.0865733775253    0.00979225883318    -0.111011121551     0.00979225883318    -0.111011121551     -0.989850645311     -0.0865733775253    
