# Hz S RI R 50.00 
100000000.0         -0.00150079296089   -0.0383268588391    0.998465746272      -0.0385237232323    0.998465746272      -0.0385237232323    -0.00150079296089   -0.0383268588391    
200000000.0         -0.00594754954983   -0.0763030614712    0.994018703038      -0.07669688676      0.994018703038      -0.07669688676      -0.00594754954983   -0.0763030614712    
300000000.0         -0.013244224805     -0.113597224864     0.986721759689      -0.114188156183     0.986721759689      -0.114188156183     -0.013244224805     -0.113597224864     
400000000.0         -0.0232628066051    -0.149898656193     0.976702899478      -0.150686874728     0.976702899478      -0.150686874728     -0.0232628066051    -0.149898656193     
500000000.0         -0.0358328747787    -0.184925185547     0.964132531421      -0.185910901644     0.964132531421      -0.185910901644     -0.0358328747787    -0.184925185547     
600000000.0         -0.0507486568638    -0.218429566637     0.949216422236      -0.219613014953     0.949216422236      -0.219613014953     -0.0507486568638    -0.218429566637     
700000000.0         -0.0677770495948    -0.250204029192     0.932187671735      -0.251585464913     0.932187671735      -0.251585464913     -0.0677770495948    -0.250204029192     
800000000.0         -0.0866660683499    -0.280082859045     0.913298262241      -0.28166255479      0.913298262241      -0.28166255479      -0.0866660683499    -0.280082859045     
900000000.0         -0.107153212058     -0.307943060676     0.892810693181      -0.309721303868     0.892810693181      -0.309721303868     -0.107153212058     -0.307943060676     
1000000000.0        -0.12897330139      -0.333703294115     0.870990142639      -0.335680384706     0.870990142639      -0.335680384706     -0.12897330139      -0.333703294115     
1100000000.0        -0.151865448392     -0.357321373864     0.848097497584      -0.359497622347     0.848097497584      -0.359497622347     -0.151865448392     -0.357321373864     
1200000000.0        -0.175578929474     -0.378790670765     0.824383480797      -0.381166396415     0.824383480797      -0.381166396415     -0.175578929474     -0.378790670765     
1300000000.0        -0.199877845944     -0.398135771525     0.800083990288      -0.400711300838     0.800083990288      -0.400711300838     -0.199877845944     -0.398135771525     
1400000000.0        -0.224544555753     -0.415407732247     0.775416667515      -0.41818339755      0.775416667515      -0.41818339755      -0.224544555753     -0.415407732247     
1500000000.0        -0.249381939695     -0.430679220841     0.750578631159      -0.433655359054     0.750578631159      -0.433655359054     -0.249381939695     -0.430679220841     
1600000000.0        -0.274214622083     -0.444039788269     0.725745256441      -0.447216739797     0.725745256441      -0.447216739797     -0.274214622083     -0.444039788269     
1700000000.0        -0.298889300282     -0.455591448693     0.701069845566      -0.458969556441     0.701069845566      -0.458969556441     -0.298889300282     -0.455591448693     
1800000000.0        -0.323274352378     -0.465444690557     0.676684020055      -0.469024299049     0.676684020055      -0.469024299049     -0.323274352378     -0.465444690557     
1900000000.0        -0.347258891534     -0.473714988784     0.65269866638       -0.477496443384     0.65269866638       -0.477496443384     -0.347258891534     -0.473714988784     
2000000000.0        -0.37075142385      -0.480519845428     0.629205278098      -0.484503491647     0.629205278098      -0.484503491647     -0.37075142385      -0.480519845428     
2100000000.0        -0.393678247851     -0.485976352919     0.606277556361      -0.490162535804     0.606277556361      -0.490162535804     -0.393678247851     -0.485976352919     
2200000000.0        -0.415981711601     -0.490199250361     0.5839731528        -0.494588313957     0.5839731528        -0.494588313957     -0.415981711601     -0.490199250361     
2300000000.0        -0.43761842055      -0.493299427969     0.562335461673      -0.497891714845     0.562335461673      -0.497891714845     -0.43761842055      -0.493299427969     
2400000000.0        -0.45855746746      -0.495382826299     0.541395389943      -0.500178677141     0.541395389943      -0.500178677141     -0.45855746746      -0.495382826299     
2500000000.0        -0.478778736283     -0.49654967385      0.521173053389      -0.501549427104     0.521173053389      -0.501549427104     -0.478778736283     -0.49654967385      
2600000000.0        -0.498271315219     -0.496894007394     0.501679363558      -0.502097998958     0.501679363558      -0.502097998958     -0.498271315219     -0.496894007394     
2700000000.0        -0.517032040552     -0.496503422805     0.48291748392       -0.501911985777     0.48291748392       -0.501911985777     -0.517032040552     -0.496503422805     
2800000000.0        -0.53506418219      -0.495459009171     0.464884144328      -0.501072473625     0.464884144328      -0.501072473625     -0.53506418219      -0.495459009171     
2900000000.0        -0.5523762737       -0.493835424677     0.447570810988      -0.499654117485     0.447570810988      -0.499654117485     -0.5523762737       -0.493835424677     
3000000000.0        -0.568981083775     -0.49170107878      0.430964714985      -0.497725323467     0.430964714985      -0.497725323467     -0.568981083775     -0.49170107878      
3100000000.0        -0.584894722071     -0.489118390934     0.415049746448      -0.495348507561     0.415049746448      -0.495348507561     -0.584894722071     -0.489118390934     
3200000000.0        -0.600135869801     -0.486144101475     0.399807223956      -0.492580406553     0.399807223956      -0.492580406553     -0.600135869801     -0.486144101475     
3300000000.0        -0.614725124055     -0.482829615073     0.385216550215      -0.489472421499     0.385216550215      -0.489472421499     -0.614725124055     -0.482829615073     
3400000000.0        -0.628684444266     -0.479221361296     0.371255765598      -0.48607097831      0.371255765598      -0.48607097831      -0.628684444266     -0.479221361296     
3500000000.0        -0.64203668925      -0.475361160365     0.357902011095      -0.482417893534     0.357902011095      -0.482417893534     -0.64203668925      -0.475361160365     
3600000000.0        -0.654805233722     -0.471286585165     0.345131911804      -0.478550736378     0.345131911804      -0.478550736378     -0.654805233722     -0.471286585165     
3700000000.0        -0.667013653864     -0.46703131295      0.332921891361      -0.47450318043      0.332921891361      -0.47450318043      -0.667013653864     -0.46703131295      
3800000000.0        -0.678685472412     -0.462625462155     0.321248426854      -0.470305340488     0.321248426854      -0.470305340488     -0.678685472412     -0.462625462155     
3900000000.0        -0.689843954615     -0.458095911296     0.310088252856      -0.465984091468     0.310088252856      -0.465984091468     -0.689843954615     -0.458095911296     
4000000000.0        -0.70051194741      -0.453466598098     0.29941852226       -0.461563367546     0.29941852226       -0.461563367546     -0.70051194741      -0.453466598098     
4100000000.0        -0.710711755014     -0.448758797976     0.289216930683      -0.457064440648     0.289216930683      -0.457064440648     -0.710711755014     -0.448758797976     
4200000000.0        -0.720465045018     -0.44399138164      0.279461810369      -0.452506178066     0.279461810369      -0.452506178066     -0.720465045018     -0.44399138164      
4300000000.0        -0.729792779869     -0.439181052157     0.270132198711      -0.447905279516     0.270132198711      -0.447905279516     -0.729792779869     -0.439181052157     
4400000000.0        -0.738715169303     -0.434342562106     0.261207885812      -0.443276494316     0.261207885812      -0.443276494316     -0.738715169303     -0.434342562106     
4500000000.0        -0.747251639981     -0.42948891178      0.252669444857      -0.438632819578     0.252669444857      -0.438632819578     -0.747251639981     -0.42948891178      
4600000000.0        -0.755420819095     -0.424631529479     0.244498248499      -0.433985680514     0.244498248499      -0.433985680514     -0.755420819095     -0.424631529479     
4700000000.0        -0.76324052925      -0.419780435085     0.236676473983      -0.429345094013     0.236676473983      -0.429345094013     -0.76324052925      -0.419780435085     
4800000000.0        -0.770727792323     -0.414944388099     0.229187099282      -0.424719816681     0.229187099282      -0.424719816681     -0.770727792323     -0.414944388099     
4900000000.0        -0.777898840401     -0.410131021367     0.222013892159      -0.420117478563     0.222013892159      -0.420117478563     -0.777898840401     -0.410131021367     
5000000000.0        -0.784769132198     -0.405346961643     0.215141393757      -0.415544703718     0.215141393757      -0.415544703718     -0.784769132198     -0.405346961643     
5100000000.0        -0.791353373622     -0.400597938139     0.208554898022      -0.411007218766     0.208554898022      -0.411007218766     -0.791353373622     -0.400597938139     
5200000000.0        -0.797665541422     -0.395888880133     0.202240428061      -0.406509950493     0.202240428061      -0.406509950493     -0.797665541422     -0.395888880133     
5300000000.0        -0.803718909007     -0.391224004622     0.196184710324      -0.402057113509     0.196184710324      -0.402057113509     -0.803718909007     -0.391224004622     
5400000000.0        -0.809526073708     -0.386606894979     0.190375147338      -0.397652288904     0.190375147338      -0.397652288904     -0.809526073708     -0.386606894979     
5500000000.0        -0.815098984905     -0.382040571458     0.184799789583      -0.393298494752     0.184799789583      -0.393298494752     -0.815098984905     -0.382040571458     
5600000000.0        -0.820448972532     -0.377527554367     0.179447306987      -0.388998249284     0.179447306987      -0.388998249284     -0.820448972532     -0.377527554367     
5700000000.0        -0.825586775591     -0.373069920608     0.174306960408      -0.384753627427     0.174306960408      -0.384753627427     -0.825586775591     -0.373069920608     
5800000000.0        -0.83052257038      -0.368669354272     0.169368573409      -0.380566311401     0.169368573409      -0.380566311401     -0.83052257038      -0.368669354272     
5900000000.0        -0.8352659982       -0.364327191887     0.164622504553      -0.376437635959     0.164622504553      -0.376437635959     -0.8352659982       -0.364327191887     
6000000000.0        -0.839826192365     -0.360044462849     0.160059620388      -0.372368628824     0.160059620388      -0.372368628824     -0.839826192365     -0.360044462849     
6100000000.0        -0.844211804392     -0.355821925557     0.155671269259      -0.368360046819     0.155671269259      -0.368360046819     -0.844211804392     -0.355821925557     
6200000000.0        -0.848431029278     -0.351660099677     0.151449256033      -0.36441240813      0.151449256033      -0.36441240813      -0.848431029278     -0.351660099677     
6300000000.0        -0.852491629787     -0.347559294947     0.147385817809      -0.360526021108     0.147385817809      -0.360526021108     -0.852491629787     -0.347559294947     
6400000000.0        -0.856400959726     -0.343519636877     0.143473600643      -0.356701009973     0.143473600643      -0.356701009973     -0.856400959726     -0.343519636877     
6500000000.0        -0.860165986182     -0.339541089686     0.13970563731       -0.352937337739     0.13970563731       -0.352937337739     -0.860165986182     -0.339541089686     
6600000000.0        -0.863793310713     -0.33562347674      0.136075326116      -0.349234826662     0.136075326116      -0.349234826662     -0.863793310713     -0.33562347674      
6700000000.0        -0.867289189505     -0.331766498777     0.132576410737      -0.345593176455     0.132576410737      -0.345593176455     -0.867289189505     -0.331766498777     
6800000000.0        -0.87065955251      -0.327969750143     0.129202961082      -0.342011980525     0.129202961082      -0.342011980525     -0.87065955251      -0.327969750143     
6900000000.0        -0.873910021597     -0.324232733252     0.125949355145      -0.33849074043      0.125949355145      -0.33849074043      -0.873910021597     -0.324232733252     
7000000000.0        -0.877045927728     -0.32055487145      0.122810261823      -0.335028878742     0.122810261823      -0.335028878742     -0.877045927728     -0.32055487145      
7100000000.0        -0.880072327214     -0.316935520463     0.119780624669      -0.331625750497     0.119780624669      -0.331625750497     -0.880072327214     -0.316935520463     
7200000000.0        -0.882994017069     -0.313373978579     0.116855646525      -0.328280653366     0.116855646525      -0.328280653366     -0.882994017069     -0.313373978579     
7300000000.0        -0.885815549514     -0.309869495682     0.114030775032      -0.324992836693     0.114030775032      -0.324992836693     -0.885815549514     -0.309869495682     
7400000000.0        -0.888541245659     -0.30642128128      0.111301688937      -0.321761509525     0.111301688937      -0.321761509525     -0.888541245659     -0.30642128128      
7500000000.0        -0.891175208406     -0.303028511625     0.108664285195      -0.318585847721     0.108664285195      -0.318585847721     -0.891175208406     -0.303028511625     
7600000000.0        -0.893721334616     -0.29969033602      0.106114666803      -0.315465000262     0.106114666803      -0.315465000262     -0.893721334616     -0.29969033602      
7700000000.0        -0.896183326572     -0.296405882397     0.103649131334      -0.312398094832     0.103649131334      -0.312398094832     -0.896183326572     -0.296405882397     
7800000000.0        -0.898564702772     -0.29317426226      0.101264160143      -0.309384242747     0.101264160143      -0.309384242747     -0.898564702772     -0.29317426226      
7900000000.0        -0.900868808104     -0.289994575034     0.0989564081972     -0.306422543318     0.0989564081972     -0.306422543318     -0.900868808104     -0.289994575034     
8000000000.0        -0.90309882342      -0.286865911912     0.0967226944962     -0.303512087679     0.0967226944962     -0.303512087679     -0.90309882342      -0.286865911912     
8100000000.0        -0.905257774554     -0.283787359224     0.0945599930596     -0.300651962171     0.0945599930596     -0.300651962171     -0.905257774554     -0.283787359224     
8200000000.0        -0.907348540804     -0.280758001414     0.0924654244375     -0.297841251304     0.0924654244375     -0.297841251304     -0.907348540804     -0.280758001414     
8300000000.0        -0.90937386293      -0.277776923626     0.0904362477196     -0.295079040351     0.0904362477196     -0.295079040351     -0.90937386293      -0.277776923626     
8400000000.0        -0.911336350674     -0.274843213982     0.0884698530121     -0.292364417619     0.0884698530121     -0.292364417619     -0.911336350674     -0.274843213982     
8500000000.0        -0.913238489843     -0.271955965554     0.0865637543554     -0.28969647642      0.0865637543554     -0.28969647642      -0.913238489843     -0.271955965554     
8600000000.0        -0.915082648975     -0.269114278079     0.0847155830554     -0.287074316789     0.0847155830554     -0.287074316789     -0.915082648975     -0.269114278079     
8700000000.0        -0.916871085622     -0.266317259441     0.082923081405      -0.284497046956     0.082923081405      -0.284497046956     -0.916871085622     -0.266317259441     
8800000000.0        -0.91860595226      -0.263564026942     0.0811840967702     -0.281963784626     0.0811840967702     -0.281963784626     -0.91860595226      -0.263564026942     
8900000000.0        -0.920289301861     -0.260853708394     0.0794965760209     -0.27947365806      0.0794965760209     -0.27947365806      -0.920289301861     -0.260853708394     
9000000000.0        -0.921923093136     -0.25818544304      0.0778585602844     -0.277025807002     0.0778585602844     -0.277025807002     -0.921923093136     -0.25818544304      
9100000000.0        -0.923509195482     -0.255558382328     0.0762681800021     -0.274619383448     0.0762681800021     -0.274619383448     -0.923509195482     -0.255558382328     
9200000000.0        -0.925049393639     -0.252971690565     0.0747236502716     -0.272253552299     0.0747236502716     -0.272253552299     -0.925049393639     -0.252971690565     
9300000000.0        -0.926545392079     -0.25042454544      0.0732232664551     -0.269927491884     0.0732232664551     -0.269927491884     -0.926545392079     -0.25042454544      
9400000000.0        -0.927998819148     -0.247916138454     0.0717654000406     -0.267640394389     0.0717654000406     -0.267640394389     -0.927998819148     -0.247916138454     
9500000000.0        -0.929411230966     -0.245445675263     0.0703484947379     -0.265391466195     0.0703484947379     -0.265391466195     -0.929411230966     -0.245445675263     
9600000000.0        -0.930784115116     -0.243012375923     0.0689710627971     -0.26317992813      0.0689710627971     -0.26317992813      -0.930784115116     -0.243012375923     
9700000000.0        -0.932118894107     -0.240615475086     0.0676316815344     -0.261005015654     0.0676316815344     -0.261005015654     -0.932118894107     -0.240615475086     
9800000000.0        -0.933416928664     -0.238254222117     0.0663289900541     -0.258865978982     0.0663289900541     -0.258865978982     -0.933416928664     -0.238254222117     
9900000000.0        -0.934679520813     -0.235927881161     0.0650616861545     -0.256762083149     0.0650616861545     -0.256762083149     -0.934679520813     -0.235927881161     
10000000000.0       -0.935907916806     -0.233635731165     0.0638285234052     -0.254692608029     0.0638285234052     -0.254692608029     -0.935907916806     -0.233635731165     
