# Hz S RI R 50.00 
100000000.0         -4.29421257797e-06  -0.00395690488566   0.999962631864      -0.00412778180335   0.999962631864      -0.00412778180335   -4.29421257797e-06  -0.00395690488566   
200000000.0         -5.71736904051e-05  -0.00791359900262   0.999909483819      -0.00825538415341   0.999909483819      -0.00825538415341   -5.71736904048e-05  -0.00791359900262   
300000000.0         -0.000142748798816  -0.0118698107632    0.999823668101      -0.0123825514332    0.999823668101      -0.0123825514332    -0.000142748798815  -0.0118698107632    
400000000.0         -0.000261001076553  -0.0158252361784    0.999705174663      -0.0165089917665    0.999705174663      -0.0165089917665    -0.000261001076553  -0.0158252361784    
500000000.0         -0.00041191684088   -0.01977955389      0.99955400623       -0.0206343939104    0.99955400623       -0.0206343939104    -0.00041191684088   -0.01977955389      
600000000.0         -0.000595480638555  -0.0237324306249    0.999370172666      -0.0247584333644    0.999370172666      -0.0247584333644    -0.000595480638555  -0.0237324306249    
700000000.0         -0.000811673362782  -0.0276835240956    0.999153689766      -0.0288807756068    0.999153689766      -0.0288807756068    -0.000811673362782  -0.0276835240956    
800000000.0         -0.00106047142328   -0.0316324848256    0.998904578964      -0.0330010781234    0.998904578964      -0.0330010781234    -0.00106047142328   -0.0316324848256    
900000000.0         -0.00134184627724   -0.0355789574369    0.998622867299      -0.0371189918305    0.998622867299      -0.0371189918305    -0.00134184627724   -0.0355789574369    
1000000000.0        -0.00165576411887   -0.0395225816181    0.998308587473      -0.0412341621404    0.998308587473      -0.0412341621404    -0.00165576411888   -0.0395225816181    
1100000000.0        -0.00200218565314   -0.043462992899     0.99796177794       -0.0453462298085    0.99796177794       -0.0453462298085    -0.00200218565314   -0.043462992899     
1200000000.0        -0.00238106592045   -0.0473998232959    0.997582482994      -0.0494548316356    0.997582482994      -0.0494548316356    -0.00238106592045   -0.0473998232959    
1300000000.0        -0.0027923541563    -0.0513327018642    0.99717075286       -0.0535596010664    0.99717075286       -0.0535596010664    -0.0027923541563    -0.0513327018642    
1400000000.0        -0.00323599367679   -0.055261255187     0.996726643775      -0.0576601687162    0.996726643775      -0.0576601687162    -0.00323599367679   -0.055261255187     
1500000000.0        -0.00371192178439   -0.0591851078128    0.996250218055      -0.0617561628401    0.996250218055      -0.0617561628401    -0.00371192178439   -0.0591851078128    
1600000000.0        -0.00422006969104   -0.0631038826565    0.995741544159      -0.0658472097614    0.995741544159      -0.0658472097614    -0.00422006969104   -0.0631038826565    
1700000000.0        -0.00476036245579   -0.0670172013684    0.995200696739      -0.0699329342642    0.995200696739      -0.0699329342642    -0.00476036245579   -0.0670172013684    
1800000000.0        -0.00533271893558   -0.0709246846797    0.994627756683      -0.0740129599606    0.994627756683      -0.0740129599606    -0.00533271893558   -0.0709246846797    
1900000000.0        -0.00593705174772   -0.0748259527268    0.994022811139      -0.0780869096325    0.994022811139      -0.0780869096325    -0.00593705174772   -0.0748259527268    
2000000000.0        -0.00657326724324   -0.0787206253585    0.993385953547      -0.0821544055561    0.993385953547      -0.0821544055561    -0.00657326724324   -0.0787206253585    
2100000000.0        -0.00724126549018   -0.0826083224275    0.992717283642      -0.0862150698088    0.992717283642      -0.0862150698088    -0.00724126549018   -0.0826083224275    
2200000000.0        -0.00794094026638   -0.0864886640704    0.992016907467      -0.0902685245618    0.992016907467      -0.0902685245618    -0.00794094026638   -0.0864886640704    
2300000000.0        -0.00867217906072   -0.0903612709727    0.991284937362      -0.0943143923589    0.991284937362      -0.0943143923589    -0.00867217906072   -0.0903612709727    
2400000000.0        -0.00943486308295   -0.0942257646265    0.990521491958      -0.0983522963849    0.990521491958      -0.0983522963849    -0.00943486308295   -0.0942257646265    
2500000000.0        -0.0102288672811    -0.0980817675761    0.989726696156      -0.102381860722     0.989726696156      -0.102381860722     -0.0102288672811    -0.0980817675761    
2600000000.0        -0.0110540603666    -0.101928903656     0.988900681099      -0.106402710598     0.988900681099      -0.106402710598     -0.0110540603666    -0.101928903656     
2700000000.0        -0.0119103048459    -0.105766798217     0.988043584142      -0.110414472622     0.988043584142      -0.110414472622     -0.0119103048459    -0.105766798217     
2800000000.0        -0.0127974570593    -0.109595078352     0.987155548812      -0.114416775015     0.987155548812      -0.114416775015     -0.0127974570593    -0.109595078352     
2900000000.0        -0.0137153672258    -0.113413373103     0.986236724761      -0.118409247832     0.986236724761      -0.118409247832     -0.0137153672258    -0.113413373103     
3000000000.0        -0.0146638794944    -0.117221313671     0.985287267716      -0.122391523172     0.985287267716      -0.122391523172     -0.0146638794944    -0.117221313671     
3100000000.0        -0.0156428320006    -0.121018533612     0.984307339419      -0.126363235386     0.984307339419      -0.126363235386     -0.0156428320006    -0.121018533612     
3200000000.0        -0.0166520569288    -0.124804669031     0.98329710757       -0.130324021276     0.98329710757       -0.130324021276     -0.0166520569288    -0.124804669031     
3300000000.0        -0.0176913805798    -0.128579358766     0.982256745752      -0.134273520281     0.982256745752      -0.134273520281     -0.0176913805798    -0.128579358766     
3400000000.0        -0.0187606234429    -0.132342244565     0.981186433363      -0.13821137467      0.981186433363      -0.13821137467      -0.0187606234429    -0.132342244565     
3500000000.0        -0.0198596002737    -0.136092971262     0.980086355538      -0.142137229713     0.980086355538      -0.142137229713     -0.0198596002737    -0.136092971262     
3600000000.0        -0.0209881201748    -0.139831186941     0.978956703066      -0.146050733853     0.978956703066      -0.146050733853     -0.0209881201748    -0.139831186941     
3700000000.0        -0.0221459866825    -0.143556543096     0.977797672306      -0.149951538874     0.977797672306      -0.149951538874     -0.0221459866825    -0.143556543096     
3800000000.0        -0.0233329978558    -0.147268694787     0.976609465094      -0.153839300061     0.976609465094      -0.153839300061     -0.0233329978558    -0.147268694787     
3900000000.0        -0.0245489463704    -0.150967300786     0.975392288652      -0.157713676345     0.975392288652      -0.157713676345     -0.0245489463704    -0.150967300786     
4000000000.0        -0.0257936196159    -0.154652023721     0.97414635549       -0.16157433046      0.97414635549       -0.16157433046      -0.0257936196159    -0.154652023721     
4100000000.0        -0.027066799796     -0.158322530215     0.972871883305      -0.165420929075     0.972871883305      -0.165420929075     -0.027066799796     -0.158322530215     
4200000000.0        -0.0283682640323    -0.161978491015     0.971569094877      -0.169253142937     0.971569094877      -0.169253142937     -0.0283682640323    -0.161978491015     
4300000000.0        -0.0296977844709    -0.165619581118     0.970238217963      -0.173070646992     0.970238217963      -0.173070646992     -0.0296977844709    -0.165619581118     
4400000000.0        -0.0310551283917    -0.169245479893     0.968879485188      -0.176873120517     0.968879485188      -0.176873120517     -0.0310551283917    -0.169245479893     
4500000000.0        -0.0324400583203    -0.172855871195     0.967493133932      -0.180660247233     0.967493133932      -0.180660247233     -0.0324400583203    -0.172855871195     
4600000000.0        -0.0338523321423    -0.176450443477     0.966079406216      -0.184431715421     0.966079406216      -0.184431715421     -0.0338523321423    -0.176450443477     
4700000000.0        -0.03529170322      -0.180028889893     0.964638548586      -0.188187218025     0.964638548586      -0.188187218025     -0.03529170322      -0.180028889893     
4800000000.0        -0.0367579205107    -0.183590908398     0.963170811993      -0.191926452762     0.963170811993      -0.191926452762     -0.0367579205107    -0.183590908398     
4900000000.0        -0.0382507286869    -0.187136201843     0.961676451673      -0.19564912221      0.961676451673      -0.19564912221      -0.0382507286869    -0.187136201843     
5000000000.0        -0.0397698682593    -0.190664478063     0.960155727028      -0.199354933908     0.960155727028      -0.199354933908     -0.0397698682593    -0.190664478063     
5100000000.0        -0.0413150756992    -0.194175449966     0.958608901497      -0.203043600436     0.958608901497      -0.203043600436     -0.0413150756992    -0.194175449966     
5200000000.0        -0.0428860835646    -0.197668835609     0.957036242434      -0.206714839503     0.957036242434      -0.206714839503     -0.0428860835646    -0.197668835609     
5300000000.0        -0.0444826206258    -0.201144358273     0.955438020983      -0.210368374019     0.955438020983      -0.210368374019     -0.0444826206258    -0.201144358273     
5400000000.0        -0.0461044119929    -0.204601746535     0.953814511946      -0.214003932171     0.953814511946      -0.214003932171     -0.0461044119929    -0.204601746535     
5500000000.0        -0.0477511792441    -0.208040734333     0.95216599366       -0.217621247487     0.95216599366       -0.217621247487     -0.0477511792441    -0.208040734333     
5600000000.0        -0.0494226405545    -0.211461061029     0.950492747866      -0.221220058901     0.950492747866      -0.221220058901     -0.0494226405545    -0.211461061029     
5700000000.0        -0.0511185108261    -0.214862471461     0.948795059578      -0.224800110811     0.948795059578      -0.224800110811     -0.0511185108261    -0.214862471461     
5800000000.0        -0.0528385018178    -0.218244716        0.947073216952      -0.228361153131     0.947073216952      -0.228361153131     -0.0528385018178    -0.218244716        
5900000000.0        -0.0545823222761    -0.221607550594     0.945327511161      -0.231902941343     0.945327511161      -0.231902941343     -0.0545823222761    -0.221607550594     
6000000000.0        -0.0563496780655    -0.224950736815     0.943558236257      -0.235425236538     0.943558236257      -0.235425236538     -0.0563496780655    -0.224950736815     
6100000000.0        -0.0581402723002    -0.228274041896     0.941765689044      -0.23892780546      0.941765689044      -0.23892780546      -0.0581402723002    -0.228274041896     
6200000000.0        -0.0599538054744    -0.231577238765     0.939950168948      -0.24241042054      0.939950168948      -0.24241042054      -0.0599538054744    -0.231577238765     
6300000000.0        -0.0617899755935    -0.23486010608      0.938111977883      -0.245872859927     0.938111977883      -0.245872859927     -0.0617899755935    -0.23486010608      
6400000000.0        -0.0636484783048    -0.238122428252     0.936251420123      -0.249314907522     0.936251420123      -0.249314907522     -0.0636484783048    -0.238122428252     
6500000000.0        -0.0655290070276    -0.241363995469     0.934368802167      -0.252736352993     0.934368802167      -0.252736352993     -0.0655290070276    -0.241363995469     
6600000000.0        -0.0674312530835    -0.244584603719     0.932464432616      -0.256136991804     0.932464432616      -0.256136991804     -0.0674312530835    -0.244584603719     
6700000000.0        -0.0693549058254    -0.247784054799     0.93053862204       -0.259516625225     0.93053862204       -0.259516625225     -0.0693549058254    -0.247784054799     
6800000000.0        -0.0712996527664    -0.250962156333     0.928591682846      -0.262875060346     0.928591682846      -0.262875060346     -0.0712996527664    -0.250962156333     
6900000000.0        -0.073265179708     -0.254118721776     0.926623929157      -0.266212110091     0.926623929157      -0.266212110091     -0.073265179708     -0.254118721776     
7000000000.0        -0.075251170867     -0.25725357042      0.924635676679      -0.269527593214     0.924635676679      -0.269527593214     -0.075251170867     -0.25725357042      
7100000000.0        -0.0772573090023    -0.260366527396     0.922627242577      -0.272821334309     0.922627242577      -0.272821334309     -0.0772573090023    -0.260366527396     
7200000000.0        -0.0792832755397    -0.263457423671     0.920598945348      -0.276093163806     0.920598945348      -0.276093163806     -0.0792832755397    -0.263457423671     
7300000000.0        -0.0813287506967    -0.266526096043     0.918551104701      -0.279342917962     0.918551104701      -0.279342917962     -0.0813287506967    -0.266526096043     
7400000000.0        -0.0833934136052    -0.269572387132     0.916484041428      -0.28257043886      0.916484041428      -0.28257043886      -0.0833934136052    -0.269572387132     
7500000000.0        -0.0854769424338    -0.272596145367     0.914398077286      -0.285775574393     0.914398077286      -0.285775574393     -0.0854769424338    -0.272596145367     
7600000000.0        -0.0875790145083    -0.275597224974     0.912293534874      -0.288958178249     0.912293534874      -0.288958178249     -0.0875790145083    -0.275597224974     
7700000000.0        -0.089699306431     -0.278575485956     0.910170737518      -0.292118109898     0.910170737518      -0.292118109898     -0.089699306431     -0.278575485956     
7800000000.0        -0.0918374941982    -0.281530794072     0.908030009147      -0.295255234566     0.908030009147      -0.295255234566     -0.0918374941982    -0.281530794072     
7900000000.0        -0.0939932533175    -0.284463020816     0.905871674179      -0.298369423218     0.905871674179      -0.298369423218     -0.0939932533175    -0.284463020816     
8000000000.0        -0.0961662589218    -0.287372043388     0.903696057411      -0.301460552526     0.903696057411      -0.301460552526     -0.0961662589218    -0.287372043388     
8100000000.0        -0.0983561858827    -0.290257744666     0.901503483897      -0.304528504845     0.901503483897      -0.304528504845     -0.0983561858827    -0.290257744666     
8200000000.0        -0.100562708923     -0.293120013177     0.899294278843      -0.30757316818      0.899294278843      -0.30757316818      -0.100562708923     -0.293120013177     
8300000000.0        -0.102785502724     -0.295958743059     0.897068767494      -0.310594436154     0.897068767494      -0.310594436154     -0.102785502724     -0.295958743059     
8400000000.0        -0.105024242038     -0.298773834028     0.894827275028      -0.313592207967     0.894827275028      -0.313592207967     -0.105024242038     -0.298773834028     
8500000000.0        -0.107278601792     -0.301565191336     0.892570126448      -0.316566388366     0.892570126448      -0.316566388366     -0.107278601792     -0.301565191336     
8600000000.0        -0.10954825719      -0.304332725734     0.890297646477      -0.319516887595     0.890297646477      -0.319516887595     -0.10954825719      -0.304332725734     
8700000000.0        -0.111832883821     -0.307076353428     0.888010159455      -0.322443621361     0.888010159455      -0.322443621361     -0.111832883821     -0.307076353428     
8800000000.0        -0.114132157755     -0.309795996033     0.885707989243      -0.325346510782     0.885707989243      -0.325346510782     -0.114132157755     -0.309795996033     
8900000000.0        -0.116445755646     -0.312491580525     0.883391459116      -0.328225482345     0.883391459116      -0.328225482345     -0.116445755646     -0.312491580525     
9000000000.0        -0.118773354825     -0.315163039194     0.881060891674      -0.331080467854     0.881060891674      -0.331080467854     -0.118773354825     -0.315163039194     
9100000000.0        -0.121114633399     -0.317810309593     0.87871660874       -0.333911404382     0.87871660874       -0.333911404382     -0.121114633399     -0.317810309593     
9200000000.0        -0.123469270338     -0.320433334484     0.876358931274      -0.336718234216     0.876358931274      -0.336718234216     -0.123469270338     -0.320433334484     
9300000000.0        -0.125836945574     -0.323032061788     0.873988179277      -0.339500904805     0.873988179277      -0.339500904805     -0.125836945574     -0.323032061788     
9400000000.0        -0.128217340082     -0.325606444521     0.871604671702      -0.342259368704     0.871604671702      -0.342259368704     -0.128217340082     -0.325606444521     
9500000000.0        -0.130610135971     -0.328156440746     0.869208726373      -0.344993583514     0.869208726373      -0.344993583514     -0.130610135971     -0.328156440746     
9600000000.0        -0.13301501657      -0.330682013508     0.866800659893      -0.347703511829     0.866800659893      -0.347703511829     -0.13301501657      -0.330682013508     
9700000000.0        -0.135431666505     -0.333183130776     0.864380787567      -0.350389121169     0.864380787567      -0.350389121169     -0.135431666505     -0.333183130776     
9800000000.0        -0.137859771785     -0.335659765381     0.861949423317      -0.353050383925     0.861949423317      -0.353050383925     -0.137859771785     -0.335659765381     
9900000000.0        -0.140299019879     -0.338111894956     0.859506879608      -0.35568727729      0.859506879608      -0.35568727729      -0.140299019879     -0.338111894956     
10000000000.0       -0.142749099788     -0.340539501866     0.857053467368      -0.358299783203     0.857053467368      -0.358299783203     -0.142749099788     -0.340539501866     
