# Hz S RI R 50.00 
100000000.0         0.0209924863582     0.00126991125346    0.979006032951      -0.00169052937675   0.979006032951      -0.00169052937675   0.0209924863582     0.00126991125346    
200000000.0         0.0211341723528     0.00253898874654    0.978863688057      -0.00338022860294   0.978863688057      -0.00338022860294   0.0211341723528     0.00253898874654    
300000000.0         0.021243376711      0.00380755032425    0.978753646566      -0.00506941763089   0.978753646566      -0.00506941763089   0.021243376711      0.00380755032425    
400000000.0         0.0213380648626     0.00507569575457    0.978657943024      -0.00675819789411   0.978657943024      -0.00675819789411   0.0213380648626     0.00507569575457    
500000000.0         0.021425174704      0.00634347393676    0.978569639514      -0.00844661973534   0.978569639514      -0.00844661973534   0.021425174704      0.00634347393677    
600000000.0         0.0215082537497     0.00761091119336    0.978485188496      -0.0101347107755    0.978485188496      -0.0101347107755    0.0215082537497     0.00761091119336    
700000000.0         0.0215894028901     0.00887802144398    0.978402489057      -0.0118224861271    0.978402489057      -0.0118224861271    0.0215894028901     0.00887802144398    
800000000.0         0.0216699865781     0.0101448109291     0.978320176718      -0.0135099531407    0.978320176718      -0.0135099531407    0.0216699865781     0.0101448109291     
900000000.0         0.0217509493754     0.011411280749      0.978237306891      -0.0151971139604    0.978237306891      -0.0151971139604    0.0217509493754     0.011411280749      
1000000000.0        0.0218329765688     0.0126774283691     0.978153194261      -0.0168839670389    0.978153194261      -0.0168839670389    0.0218329765688     0.0126774283691     
1100000000.0        0.0219165835468     0.0139432485754     0.978067323411      -0.0185705081016    0.978067323411      -0.0185705081016    0.0219165835468     0.0139432485754     
1200000000.0        0.0220021691101     0.0152087341156     0.977979295511      -0.0202567307939    0.977979295511      -0.0202567307939    0.0220021691101     0.0152087341156     
1300000000.0        0.0220900490459     0.0164738761466     0.977888794741      -0.021942627133     0.977888794741      -0.021942627133     0.0220900490459     0.0164738761466     
1400000000.0        0.0221804782183     0.0177386645584     0.977795566206      -0.0236281878359    0.977795566206      -0.0236281878359    0.0221804782183     0.0177386645584     
1500000000.0        0.0222736656358     0.0190030882138     0.977699400864      -0.0253134025624    0.977699400864      -0.0253134025624    0.0222736656358     0.0190030882138     
1600000000.0        0.0223697850453     0.0202671351315     0.977600124933      -0.0269982601005    0.977600124933      -0.0269982601005    0.0223697850453     0.0202671351315     
1700000000.0        0.0224689825729     0.021530792628      0.977497592253      -0.0286827485109    0.977497592253      -0.0286827485109    0.0224689825729     0.021530792628      
1800000000.0        0.0225713823601     0.0227940474293     0.977391678643      -0.0303668552403    0.977391678643      -0.0303668552403    0.0225713823601     0.0227940474293     
1900000000.0        0.0226770908014     0.0240568857609     0.977282277674      -0.032050567213     0.977282277674      -0.032050567213     0.0226770908014     0.0240568857609     
2000000000.0        0.0227861997859     0.0253192934203     0.977169297416      -0.0337338709053    0.977169297416      -0.0337338709053    0.0227861997859     0.0253192934203     
2100000000.0        0.022898789213      0.0265812558373     0.977052657932      -0.0354167524064    0.977052657932      -0.0354167524064    0.022898789213      0.0265812558373     
2200000000.0        0.0230149289729     0.0278427581234     0.976932289289      -0.0370991974695    0.976932289289      -0.0370991974695    0.0230149289729     0.0278427581234     
2300000000.0        0.0231346805238     0.0291037851138     0.976808129989      -0.038781191554     0.976808129989      -0.038781191554     0.0231346805238     0.0291037851138     
2400000000.0        0.0232580981616     0.0303643214023     0.976680125693      -0.0404627198625    0.976680125693      -0.0404627198625    0.0232580981616     0.0303643214023     
2500000000.0        0.0233852300526     0.0316243513717     0.976548228192      -0.0421437673707    0.976548228192      -0.0421437673707    0.0233852300526     0.0316243513717     
2600000000.0        0.023516119081      0.0328838592194     0.976412394557      -0.0438243188547    0.976412394557      -0.0438243188547    0.023516119081      0.0328838592194     
2700000000.0        0.0236508035495     0.03414282898       0.976272586441      -0.0455043589136    0.976272586441      -0.0455043589136    0.0236508035495     0.03414282898       
2800000000.0        0.0237893177644     0.0354012445444     0.97612876949       -0.0471838719896    0.97612876949       -0.0471838719896    0.0237893177644     0.0354012445444     
2900000000.0        0.0239316925258     0.0366590896771     0.975980912859      -0.0488628423856    0.975980912859      -0.0488628423856    0.0239316925258     0.0366590896771     
3000000000.0        0.0240779555421     0.0379163480308     0.975828988791      -0.0505412542807    0.975828988791      -0.0505412542807    0.0240779555421     0.0379163480308     
3100000000.0        0.0242281317833     0.0391730031601     0.975672972268      -0.0522190917436    0.975672972268      -0.0522190917436    0.0242281317833     0.0391730031601     
3200000000.0        0.0243822437811     0.0404290385326     0.975512840709      -0.0538963387449    0.975512840709      -0.0538963387449    0.0243822437811     0.0404290385326     
3300000000.0        0.0245403118888     0.0416844375398     0.975348573711      -0.0555729791684    0.975348573711      -0.0555729791684    0.0245403118888     0.0416844375398     
3400000000.0        0.0247023545044     0.0429391835067     0.975180152825      -0.0572489968201    0.975180152825      -0.0572489968201    0.0247023545044     0.0429391835067     
3500000000.0        0.0248683882647     0.0441932596995     0.975007561363      -0.0589243754374    0.975007561363      -0.0589243754374    0.0248683882647     0.0441932596995     
3600000000.0        0.0250384282143     0.045446649334      0.974830784227      -0.0605990986972    0.974830784227      -0.0605990986972    0.0250384282143     0.045446649334      
3700000000.0        0.0252124879535     0.0466993355818     0.974649807766      -0.0622731502227    0.974649807766      -0.0622731502227    0.0252124879535     0.0466993355818     
3800000000.0        0.0253905797682     0.0479513015772     0.974464619639      -0.0639465135901    0.974464619639      -0.0639465135901    0.0253905797682     0.0479513015772     
3900000000.0        0.0255727147438     0.0492025304225     0.974275208707      -0.065619172335     0.974275208707      -0.065619172335     0.0255727147438     0.0492025304225     
4000000000.0        0.0257589028674     0.0504530051933     0.974081564927      -0.067291109957     0.974081564927      -0.067291109957     0.0257589028674     0.0504530051933     
4100000000.0        0.0259491531165     0.0517027089436     0.973883679267      -0.0689623099257    0.973883679267      -0.0689623099257    0.0259491531165     0.0517027089436     
4200000000.0        0.0261434735397     0.0529516247098     0.973681543622      -0.0706327556846    0.973681543622      -0.0706327556846    0.0261434735397     0.0529516247098     
4300000000.0        0.0263418713278     0.054199735515      0.973475150743      -0.072302430656     0.973475150743      -0.072302430656     0.0263418713278     0.054199735515      
4400000000.0        0.0265443528776     0.0554470243727     0.973264494178      -0.0739713182445    0.973264494178      -0.0739713182445    0.0265443528776     0.0554470243727     
4500000000.0        0.0267509238489     0.0566934742905     0.973049568206      -0.0756394018407    0.973049568206      -0.0756394018407    0.0267509238489     0.0566934742905     
4600000000.0        0.026961589217      0.057939068273      0.972830367796      -0.0773066648252    0.972830367796      -0.0773066648252    0.026961589217      0.057939068273      
4700000000.0        0.0271763533181     0.0591837893251     0.972606888551      -0.078973090571     0.972606888551      -0.078973090571     0.0271763533181     0.0591837893251     
4800000000.0        0.0273952198921     0.0604276204548     0.972379126672      -0.0806386624472    0.972379126672      -0.0806386624472    0.0273952198921     0.0604276204548     
4900000000.0        0.0276181921207     0.0616705446756     0.972147078916      -0.0823033638213    0.972147078916      -0.0823033638213    0.0276181921207     0.0616705446756     
5000000000.0        0.0278452726614     0.0629125450095     0.971910742564      -0.0839671780622    0.971910742564      -0.0839671780622    0.0278452726614     0.0629125450095     
5100000000.0        0.0280764636796     0.0641536044887     0.97167011539       -0.0856300885424    0.97167011539       -0.0856300885424    0.0280764636796     0.0641536044887     
5200000000.0        0.0283117668773     0.0653937061584     0.971425195631      -0.0872920786406    0.971425195631      -0.0872920786406    0.0283117668773     0.0653937061584     
5300000000.0        0.028551183519      0.0666328330784     0.971175981957      -0.0889531317437    0.971175981957      -0.0889531317437    0.028551183519      0.0666328330784     
5400000000.0        0.0287947144559     0.0678709683253     0.970922473457      -0.0906132312489    0.970922473457      -0.0906132312489    0.0287947144559     0.0678709683253     
5500000000.0        0.0290423601481     0.0691080949945     0.970664669604      -0.0922723605659    0.970664669604      -0.0922723605659    0.0290423601481     0.0691080949945     
5600000000.0        0.0292941206844     0.0703441962014     0.970402570248      -0.0939305031184    0.970402570248      -0.0939305031184    0.0292941206844     0.0703441962014     
5700000000.0        0.0295499958013     0.0715792550838     0.970136175586      -0.0955876423464    0.970136175586      -0.0955876423464    0.0295499958013     0.0715792550838     
5800000000.0        0.0298099849003     0.0728132548031     0.969865486152      -0.0972437617073    0.969865486152      -0.0972437617073    0.0298099849003     0.0728132548031     
5900000000.0        0.0300740870631     0.0740461785456     0.969590502799      -0.0988988446781    0.969590502799      -0.0988988446781    0.0300740870631     0.0740461785456     
6000000000.0        0.0303423010668     0.0752780095245     0.969311226684      -0.100552874757     0.969311226684      -0.100552874757     0.0303423010668     0.0752780095245     
6100000000.0        0.0306146253974     0.0765087309809     0.969027659253      -0.102205835463     0.969027659253      -0.102205835463     0.0306146253974     0.0765087309809     
6200000000.0        0.0308910582622     0.0777383261853     0.968739802234      -0.103857710341     0.968739802234      -0.103857710341     0.0308910582622     0.0777383261853     
6300000000.0        0.0311715976014     0.0789667784386     0.968447657619      -0.10550848296      0.968447657619      -0.10550848296      0.0311715976014     0.0789667784386     
6400000000.0        0.0314562410994     0.0801940710737     0.968151227655      -0.107158136915     0.968151227655      -0.107158136915     0.0314562410994     0.0801940710737     
6500000000.0        0.0317449861945     0.0814201874564     0.967850514836      -0.10880665583      0.967850514836      -0.10880665583      0.0317449861945     0.0814201874564     
6600000000.0        0.0320378300885     0.0826451109866     0.967545521892      -0.110454023357     0.967545521892      -0.110454023357     0.0320378300885     0.0826451109866     
6700000000.0        0.0323347697555     0.0838688250995     0.967236251779      -0.112100223178     0.967236251779      -0.112100223178     0.0323347697555     0.0838688250995     
6800000000.0        0.0326358019499     0.0850913132664     0.966922707674      -0.113745239006     0.966922707674      -0.113745239006     0.0326358019499     0.0850913132664     
6900000000.0        0.0329409232147     0.086312558996      0.966604892964      -0.115389054588     0.966604892964      -0.115389054588     0.0329409232147     0.086312558996      
7000000000.0        0.033250129888      0.087532545835      0.966282811242      -0.117031653702     0.966282811242      -0.117031653702     0.033250129888      0.087532545835      
7100000000.0        0.0335634181105     0.0887512573695     0.965956466295      -0.118673020162     0.965956466295      -0.118673020162     0.0335634181105     0.0887512573695     
7200000000.0        0.0338807838311     0.0899686772256     0.965625862105      -0.120313137817     0.965625862105      -0.120313137817     0.0338807838311     0.0899686772256     
7300000000.0        0.0342022228135     0.0911847890703     0.965291002836      -0.121951990551     0.965291002836      -0.121951990551     0.0342022228135     0.0911847890703     
7400000000.0        0.0345277306417     0.0923995766125     0.964951892832      -0.123589562288     0.964951892832      -0.123589562288     0.0345277306417     0.0923995766125     
7500000000.0        0.0348573027252     0.0936130236037     0.964608536614      -0.125225836986     0.964608536614      -0.125225836986     0.0348573027252     0.0936130236037     
7600000000.0        0.035190934304      0.0948251138389     0.964260938868      -0.126860798647     0.964260938868      -0.126860798647     0.035190934304      0.0948251138389     
7700000000.0        0.0355286204534     0.0960358311572     0.963909104446      -0.128494431308     0.963909104446      -0.128494431308     0.0355286204534     0.0960358311572     
7800000000.0        0.0358703560888     0.0972451594429     0.963553038361      -0.13012671905      0.963553038361      -0.13012671905      0.0358703560888     0.0972451594429     
7900000000.0        0.0362161359693     0.0984530826259     0.96319274578       -0.131757645993     0.96319274578       -0.131757645993     0.0362161359693     0.0984530826259     
8000000000.0        0.0365659547023     0.0996595846827     0.962828232023      -0.133387196302     0.962828232023      -0.133387196302     0.0365659547023     0.0996595846827     
8100000000.0        0.0369198067471     0.100864649637      0.962459502557      -0.135015354182     0.962459502557      -0.135015354182     0.0369198067471     0.100864649637      
8200000000.0        0.0372776864185     0.10206826156       0.962086562992      -0.136642103883     0.962086562992      -0.136642103883     0.0372776864185     0.10206826156       
8300000000.0        0.0376395878903     0.103270404571      0.961709419082      -0.1382674297       0.961709419082      -0.1382674297       0.0376395878903     0.103270404571      
8400000000.0        0.0380055051987     0.104471062841      0.961328076714      -0.139891315972     0.961328076714      -0.139891315972     0.0380055051987     0.104471062841      
8500000000.0        0.0383754322453     0.105670220587      0.960942541913      -0.141513747085     0.960942541913      -0.141513747085     0.0383754322453     0.105670220587      
8600000000.0        0.0387493628        0.106867862079      0.960552820834      -0.14313470747      0.960552820834      -0.14313470747      0.0387493628        0.106867862079      
8700000000.0        0.0391272905042     0.108063971638      0.960158919761      -0.144754181607     0.960158919761      -0.144754181607     0.0391272905042     0.108063971638      
8800000000.0        0.0395092088731     0.109258533635      0.959760845102      -0.146372154021     0.959760845102      -0.146372154021     0.0395092088731     0.109258533635      
8900000000.0        0.0398951112985     0.110451532495      0.95935860339       -0.147988609288     0.95935860339       -0.147988609288     0.0398951112985     0.110451532495      
9000000000.0        0.0402849910517     0.111642952695      0.958952201278      -0.149603532032     0.958952201278      -0.149603532032     0.0402849910517     0.111642952695      
9100000000.0        0.0406788412849     0.112832778765      0.958541645537      -0.151216906927     0.958541645537      -0.151216906927     0.0406788412849     0.112832778765      
9200000000.0        0.0410766550348     0.114020995289      0.958126943055      -0.152828718696     0.958126943055      -0.152828718696     0.0410766550348     0.114020995289      
9300000000.0        0.0414784252235     0.115207586907      0.957708100832      -0.154438952113     0.957708100832      -0.154438952113     0.0414784252235     0.115207586907      
9400000000.0        0.0418841446616     0.116392538311      0.957285125981      -0.156047592006     0.957285125981      -0.156047592006     0.0418841446616     0.116392538311      
9500000000.0        0.04229380605       0.117575834251      0.956858025724      -0.15765462325      0.956858025724      -0.15765462325      0.04229380605       0.117575834251      
9600000000.0        0.0427074019813     0.118757459532      0.956426807392      -0.159260030776     0.956426807392      -0.159260030776     0.0427074019813     0.118757459532      
9700000000.0        0.0431249249426     0.119937399015      0.955991478419      -0.160863799568     0.955991478419      -0.160863799568     0.0431249249426     0.119937399015      
9800000000.0        0.0435463673167     0.121115637619      0.955552046347      -0.162465914662     0.955552046347      -0.162465914662     0.0435463673167     0.121115637619      
9900000000.0        0.0439717213841     0.122292160319      0.955108518815      -0.164066361147     0.955108518815      -0.164066361147     0.0439717213841     0.122292160319      
10000000000.0       0.0444009793245     0.123466952149      0.954660903567      -0.165665124169     0.954660903567      -0.165665124169     0.0444009793245     0.123466952149      
