# Hz S RI R 50.00 
100000000.0         0.00176676900787    -0.000216155466921  0.998213533042      -0.00501720462286   0.998213533042      -0.00501720462286   0.00176676900787    -0.000216155466921  
200000000.0         0.00177291142856    -0.000432419855601  0.998161286852      -0.0100342557458    0.998161286852      -0.0100342557458    0.00177291142856    -0.000432419855601  
300000000.0         0.00177380290619    -0.000648748058817  0.998086883574      -0.0150511290292    0.998086883574      -0.0150511290292    0.00177380290619    -0.000648748058817  
400000000.0         0.00177097446907    -0.000865119083631  0.997988789643      -0.0200677570605    0.997988789643      -0.0200677570605    0.00177097446907    -0.000865119083631  
500000000.0         0.0017650144024     -0.00108151590666   0.997866414124      -0.0250840587529    0.997866414124      -0.0250840587529    0.0017650144024     -0.00108151590666   
600000000.0         0.0017562218858     -0.00129792256722   0.997719455212      -0.0300999455169    0.997719455212      -0.0300999455169    0.0017562218858     -0.00129792256722   
700000000.0         0.00174477306913    -0.00151432327202   0.997547734249      -0.0351153238276    0.997547734249      -0.0351153238276    0.00174477306913    -0.00151432327202   
800000000.0         0.00173078166108    -0.00173070204994   0.997351135221      -0.0401300965769    0.997351135221      -0.0401300965769    0.00173078166108    -0.00173070204994   
900000000.0         0.00171432589959    -0.00194704260586   0.997129577846      -0.0451441638855    0.997129577846      -0.0451441638855    0.00171432589959    -0.00194704260586   
1000000000.0        0.00169546222149    -0.00216332825864   0.996883003959      -0.0501574236378    0.996883003959      -0.0501574236378    0.00169546222149    -0.00216332825864   
1100000000.0        0.00167423286249    -0.00237954191833   0.996611369958      -0.0551697718549    0.996611369958      -0.0551697718549    0.00167423286249    -0.00237954191833   
1200000000.0        0.00165067038768    -0.00259566608262   0.996314642314      -0.060181102968     0.996314642314      -0.060181102968     0.00165067038768    -0.00259566608262   
1300000000.0        0.00162480054393    -0.00281168284326   0.995992794758      -0.0651913100268    0.995992794758      -0.0651913100268    0.00162480054393    -0.00281168284326   
1400000000.0        0.00159664413695    -0.00302757389755   0.995645806428      -0.0702002848623    0.995645806428      -0.0702002848623    0.00159664413695    -0.00302757389755   
1500000000.0        0.00156621831229    -0.00324332056228   0.995273660629      -0.0752079182173    0.995273660629      -0.0752079182173    0.00156621831229    -0.00324332056228   
1600000000.0        0.00153353745685    -0.0034589037888    0.99487634395       -0.0802140998532    0.99487634395       -0.0802140998532    0.00153353745685    -0.0034589037888    
1700000000.0        0.00149861385024    -0.00367430417851   0.994453845639      -0.0852187186394    0.994453845639      -0.0852187186394    0.00149861385024    -0.00367430417851   
1800000000.0        0.00146145814626    -0.0038895019982    0.994006157149      -0.0902216626283    0.994006157149      -0.0902216626283    0.00146145814626    -0.0038895019982    
1900000000.0        0.00142207973593    -0.0041044771951    0.993533271792      -0.0952228191202    0.993533271792      -0.0952228191202    0.00142207973593    -0.0041044771951    
2000000000.0        0.00138048702611    -0.00431920941151   0.993035184482      -0.100222074718     0.993035184482      -0.100222074718     0.00138048702611    -0.00431920941151   
2100000000.0        0.00133668765679    -0.00453367799898   0.992511891539      -0.105219315379     0.992511891539      -0.105219315379     0.00133668765679    -0.00453367799898   
2200000000.0        0.00129068867286    -0.00474786203192   0.99196339053       -0.110214426453     0.99196339053       -0.110214426453     0.00129068867286    -0.00474786203192   
2300000000.0        0.00124249666181    -0.00496174032085   0.991389680151      -0.115207292727     0.991389680151      -0.115207292727     0.00124249666181    -0.00496174032085   
2400000000.0        0.00119211786528    -0.00517529142499   0.990790760133      -0.120197798454     0.990790760133      -0.120197798454     0.00119211786528    -0.00517529142499   
2500000000.0        0.00113955827046    -0.00538849366462   0.990166631161      -0.125185827388     0.990166631161      -0.125185827388     0.00113955827046    -0.00538849366462   
2600000000.0        0.00108482368571    -0.00560132513289   0.989517294818      -0.130171262812     0.989517294818      -0.130171262812     0.00108482368571    -0.00560132513289   
2700000000.0        0.00102791980373    -0.00581376370724   0.988842753528      -0.135153987561     0.988842753528      -0.135153987561     0.00102791980373    -0.00581376370724   
2800000000.0        0.000968852254664   -0.00602578706055   0.988143010523      -0.14013388405      0.988143010523      -0.14013388405      0.000968852254663   -0.00602578706055   
2900000000.0        0.000907626651265   -0.00623737267188   0.987418069807      -0.145110834293     0.987418069807      -0.145110834293     0.000907626651265   -0.00623737267188   
3000000000.0        0.000844248627398   -0.0064484978369    0.986667936126      -0.150084719924     0.986667936126      -0.150084719924     0.000844248627398   -0.0064484978369    
3100000000.0        0.000778723871219   -0.00665913967811   0.985892614952      -0.155055422217     0.985892614952      -0.155055422217     0.000778723871219   -0.00665913967811   
3200000000.0        0.000711058153862   -0.00686927515472   0.985092112458      -0.160022822104     0.985092112458      -0.160022822104     0.000711058153862   -0.00686927515472   
3300000000.0        0.000641257354441   -0.0070788810723    0.984266435509      -0.164986800191     0.984266435509      -0.164986800191     0.00064125735444    -0.0070788810723    
3400000000.0        0.000569327481903   -0.00728793409224   0.983415591645      -0.169947236771     0.983415591645      -0.169947236771     0.000569327481904   -0.00728793409224   
3500000000.0        0.000495274694273   -0.00749641074096   0.982539589074      -0.174904011847     0.982539589074      -0.174904011847     0.000495274694273   -0.00749641074096   
3600000000.0        0.000419105315624   -0.00770428741893   0.98163843666       -0.179857005135     0.98163843666       -0.179857005135     0.000419105315624   -0.00770428741893   
3700000000.0        0.000340825851153   -0.00791154040954   0.980712143921      -0.184806096089     0.980712143921      -0.184806096089     0.000340825851153   -0.00791154040954   
3800000000.0        0.000260443000591   -0.00811814588776   0.97976072102       -0.189751163904     0.97976072102       -0.189751163904     0.000260443000591   -0.00811814588776   
3900000000.0        0.00017796367018    -0.00832407992864   0.978784178761      -0.194692087535     0.978784178761      -0.194692087535     0.000177963670179   -0.00832407992864   
4000000000.0        9.33949834032e-05   -0.00852931851572   0.977782528585      -0.199628745704     0.977782528585      -0.199628745704     9.3394983403e-05    -0.00852931851572   
4100000000.0        6.74429062775e-06   -0.00873383754919   0.976755782569      -0.204561016916     0.976755782569      -0.204561016916     6.74429062775e-06   -0.00873383754919   
4200000000.0        -8.19808222126e-05  -0.00893761285405   0.975703953421      -0.209488779465     0.975703953421      -0.209488779465     -8.19808222124e-05  -0.00893761285405   
4300000000.0        -0.000172772525802  -0.00914062018803   0.974627054482      -0.214411911447     0.974627054482      -0.214411911447     -0.000172772525801  -0.00914062018803   
4400000000.0        -0.000265622740361  -0.00934283524945   0.97352509972       -0.219330290772     0.97352509972       -0.219330290772     -0.000265622740361  -0.00934283524945   
4500000000.0        -0.000360523129256  -0.00954423368497   0.972398103734      -0.224243795168     0.972398103734      -0.224243795168     -0.000360523129256  -0.00954423368497   
4600000000.0        -0.000457465093208  -0.0097447910972    0.971246081749      -0.229152302198     0.971246081749      -0.229152302198     -0.000457465093208  -0.0097447910972    
4700000000.0        -0.000556439765045  -0.00994448305225   0.970069049619      -0.23405568926      0.970069049619      -0.23405568926      -0.000556439765046  -0.00994448305225   
4800000000.0        -0.000657438004962  -0.0101432850872    0.968867023825      -0.238953833607     0.968867023825      -0.238953833607     -0.000657438004962  -0.0101432850872    
4900000000.0        -0.000760450396218  -0.0103411727172    0.967640021476      -0.243846612344     0.967640021476      -0.243846612344     -0.000760450396218  -0.0103411727172    
5000000000.0        -0.000865467241249  -0.0105381214432    0.966388060311      -0.248733902446     0.966388060311      -0.248733902446     -0.000865467241249  -0.0105381214432    
5100000000.0        -0.000972478558156  -0.0107341067585    0.965111158694      -0.253615580761     0.965111158694      -0.253615580761     -0.000972478558156  -0.0107341067585    
5200000000.0        -0.00108147407755   -0.0109291041566    0.96380933562       -0.258491524018     0.96380933562       -0.258491524018     -0.00108147407755   -0.0109291041566    
5300000000.0        -0.00119244323969   -0.0111230891373    0.962482610714      -0.263361608838     0.962482610714      -0.263361608838     -0.00119244323969   -0.0111230891373    
5400000000.0        -0.00130537519198   -0.0113160372144    0.96113100423       -0.268225711738     0.96113100423       -0.268225711738     -0.00130537519198   -0.0113160372144    
5500000000.0        -0.00142025878663   -0.0115079239221    0.959754537055      -0.273083709143     0.959754537055      -0.273083709143     -0.00142025878663   -0.0115079239221    
5600000000.0        -0.00153708257874   -0.0116987248221    0.958353230705      -0.277935477386     0.958353230705      -0.277935477386     -0.00153708257874   -0.0116987248221    
5700000000.0        -0.00165583482443   -0.0118884155099    0.956927107331      -0.282780892725     0.956927107331      -0.282780892725     -0.00165583482443   -0.0118884155099    
5800000000.0        -0.0017765034794    -0.0120769716219    0.955476189717      -0.28761983134      0.955476189717      -0.28761983134      -0.0017765034794    -0.0120769716219    
5900000000.0        -0.00189907619753   -0.0122643688416    0.954000501279      -0.292452169348     0.954000501279      -0.292452169348     -0.00189907619753   -0.0122643688416    
6000000000.0        -0.00202354032977   -0.0124505829066    0.952500066072      -0.297277782806     0.952500066072      -0.297277782806     -0.00202354032977   -0.0124505829066    
6100000000.0        -0.00214988292327   -0.0126355896144    0.950974908783      -0.302096547717     0.950974908783      -0.302096547717     -0.00214988292327   -0.0126355896144    
6200000000.0        -0.00227809072054   -0.0128193648292    0.949425054738      -0.306908340037     0.949425054738      -0.306908340037     -0.00227809072054   -0.0128193648292    
6300000000.0        -0.00240815015895   -0.0130018844883    0.9478505299        -0.311713035686     0.9478505299        -0.311713035686     -0.00240815015895   -0.0130018844883    
6400000000.0        -0.00254004737032   -0.0131831246081    0.946251360871      -0.316510510546     0.946251360871      -0.316510510546     -0.00254004737032   -0.0131831246081    
6500000000.0        -0.0026737681806    -0.0133630612904    0.944627574891      -0.321300640476     0.944627574891      -0.321300640476     -0.0026737681806    -0.0133630612904    
6600000000.0        -0.00280929810988   -0.0135416707286    0.94297919984       -0.326083301312     0.94297919984       -0.326083301312     -0.00280929810988   -0.0135416707286    
6700000000.0        -0.00294662237235   -0.0137189292138    0.941306264238      -0.330858368874     0.941306264238      -0.330858368874     -0.00294662237235   -0.0137189292138    
6800000000.0        -0.00308572587657   -0.0138948131409    0.93960879725       -0.335625718976     0.93960879725       -0.335625718976     -0.00308572587657   -0.0138948131409    
6900000000.0        -0.00322659322572   -0.0140692990142    0.937886828677      -0.340385227427     0.937886828677      -0.340385227427     -0.00322659322572   -0.0140692990142    
7000000000.0        -0.00336920871815   -0.0142423634538    0.936140388968      -0.345136770041     0.936140388968      -0.345136770041     -0.00336920871815   -0.0142423634538    
7100000000.0        -0.00351355634789   -0.0144139832013    0.934369509212      -0.349880222638     0.934369509212      -0.349880222638     -0.00351355634789   -0.0144139832013    
7200000000.0        -0.00365961980543   -0.0145841351254    0.932574221143      -0.354615461056     0.932574221143      -0.354615461056     -0.00365961980543   -0.0145841351254    
7300000000.0        -0.00380738247847   -0.014752796228     0.930754557139      -0.359342361149     0.930754557139      -0.359342361149     -0.00380738247847   -0.014752796228     
7400000000.0        -0.00395682745296   -0.0149199436495    0.928910550223      -0.364060798802     0.928910550223      -0.364060798802     -0.00395682745296   -0.0149199436495    
7500000000.0        -0.00410793751408   -0.0150855546749    0.927042234062      -0.368770649927     0.927042234062      -0.368770649927     -0.00410793751408   -0.0150855546749    
7600000000.0        -0.00426069514748   -0.0152496067391    0.925149642972      -0.373471790474     0.925149642972      -0.373471790474     -0.00426069514748   -0.0152496067391    
7700000000.0        -0.0044150825405    -0.0154120774323    0.923232811911      -0.378164096436     0.923232811911      -0.378164096436     -0.0044150825405    -0.0154120774323    
7800000000.0        -0.00457108158358   -0.015572944506     0.921291776486      -0.382847443853     0.921291776486      -0.382847443853     -0.00457108158358   -0.015572944506     
7900000000.0        -0.00472867387174   -0.0157321858779    0.91932657295       -0.387521708818     0.91932657295       -0.387521708818     -0.00472867387174   -0.0157321858779    
8000000000.0        -0.00488784070616   -0.0158897796373    0.917337238204      -0.392186767482     0.917337238204      -0.392186767482     -0.00488784070616   -0.0158897796373    
8100000000.0        -0.00504856309587   -0.016045704051     0.915323809793      -0.396842496059     0.915323809793      -0.396842496059     -0.00504856309587   -0.016045704051     
8200000000.0        -0.00521082175952   -0.0161999375678    0.913286325914      -0.401488770832     0.913286325914      -0.401488770832     -0.00521082175952   -0.0161999375678    
8300000000.0        -0.00537459712724   -0.0163524588242    0.911224825408      -0.406125468156     0.911224825408      -0.406125468156     -0.00537459712724   -0.0163524588242    
8400000000.0        -0.0055398693426    -0.0165032466493    0.909139347766      -0.410752464468     0.909139347766      -0.410752464468     -0.0055398693426    -0.0165032466493    
8500000000.0        -0.00570661826468   -0.0166522800702    0.907029933125      -0.415369636284     0.907029933125      -0.415369636284     -0.00570661826468   -0.0166522800702    
8600000000.0        -0.0058748234702    -0.0167995383166    0.904896622271      -0.419976860213     0.904896622271      -0.419976860213     -0.0058748234702    -0.0167995383166    
8700000000.0        -0.0060444642557    -0.0169450008261    0.902739456637      -0.424574012953     0.902739456637      -0.424574012953     -0.0060444642557    -0.0169450008261    
8800000000.0        -0.00621551963994   -0.0170886472493    0.900558478305      -0.429160971305     0.900558478305      -0.429160971305     -0.00621551963994   -0.0170886472493    
8900000000.0        -0.00638796836618   -0.0172304574541    0.898353730003      -0.433737612168     0.898353730003      -0.433737612168     -0.00638796836618   -0.0172304574541    
9000000000.0        -0.00656178890473   -0.0173704115309    0.896125255109      -0.438303812554     0.896125255109      -0.438303812554     -0.00656178890473   -0.0173704115309    
9100000000.0        -0.00673695945546   -0.0175084897976    0.893873097646      -0.442859449583     0.893873097646      -0.442859449583     -0.00673695945546   -0.0175084897976    
9200000000.0        -0.00691345795045   -0.0176446728036    0.891597302286      -0.447404400497     0.891597302286      -0.447404400497     -0.00691345795045   -0.0176446728036    
9300000000.0        -0.00709126205667   -0.0177789413352    0.889297914348      -0.451938542655     0.889297914348      -0.451938542655     -0.00709126205667   -0.0177789413352    
9400000000.0        -0.00727034917879   -0.0179112764198    0.886974979796      -0.456461753546     0.886974979796      -0.456461753546     -0.00727034917879   -0.0179112764198    
9500000000.0        -0.00745069646201   -0.0180416593303    0.884628545242      -0.46097391079      0.884628545242      -0.46097391079      -0.00745069646201   -0.0180416593303    
9600000000.0        -0.00763228079502   -0.0181700715899    0.882258657946      -0.465474892142     0.882258657946      -0.465474892142     -0.00763228079502   -0.0181700715899    
9700000000.0        -0.00781507881294   -0.0182964949765    0.87986536581       -0.469964575496     0.87986536581       -0.469964575496     -0.00781507881294   -0.0182964949765    
9800000000.0        -0.00799906690046   -0.0184209115268    0.877448717386      -0.474442838894     0.877448717386      -0.474442838894     -0.00799906690046   -0.0184209115268    
9900000000.0        -0.0081842211949    -0.0185433035407    0.875008761866      -0.478909560524     0.875008761866      -0.478909560524     -0.0081842211949    -0.0185433035407    
10000000000.0       -0.00837051758951   -0.0186636535857    0.872545549091      -0.483364618729     0.872545549091      -0.483364618729     -0.00837051758951   -0.0186636535857    
