# Hz S RI R 50.00 
100000000.0         0.00035261746185    -0.00253201423575   0.999622796021      -0.00343282504725   0.999622796021      -0.00343282504725   0.00035261746185    -0.00253201423575   
200000000.0         0.000326103606118   -0.00506388691543   0.999590140381      -0.00686550992182   0.999590140381      -0.00686550992182   0.000326103606119   -0.00506388691543   
300000000.0         0.000281570600247   -0.0075954852467    0.999539924393      -0.0102979312206    0.999539924393      -0.0102979312206    0.000281570600247   -0.0075954852467    
400000000.0         0.000219336549301   -0.0101266728566    0.999471836026      -0.0137299586599    0.999471836026      -0.0137299586599    0.000219336549301   -0.0101266728566    
500000000.0         0.00013952690029    -0.0126573112886    0.99938575864       -0.01716145884      0.99938575864       -0.01716145884      0.00013952690029    -0.0126573112886    
600000000.0         4.22090634871e-05   -0.0151872607013    0.999281636453      -0.0205922964181    0.999281636453      -0.0205922964181    4.22090634873e-05   -0.0151872607013    
700000000.0         -7.25733907828e-05  -0.0177163802559    0.999159440404      -0.0240223346932    0.999159440404      -0.0240223346932    -7.25733907829e-05  -0.0177163802559    
800000000.0         -0.000204788255129  -0.0202445283641    0.999019155716      -0.0274514359562    0.999019155716      -0.0274514359562    -0.000204788255129  -0.0202445283641    
900000000.0         -0.000354409129101  -0.0227715628601    0.998860776379      -0.0308794617249    0.998860776379      -0.0308794617249    -0.0003544091291    -0.0227715628601    
1000000000.0        -0.000521412601348  -0.0252973411307    0.998684302358      -0.0343062729131    0.998684302358      -0.0343062729131    -0.000521412601348  -0.0252973411307    
1100000000.0        -0.000705776681693  -0.0278217202156    0.998489738046      -0.0377317299606    0.998489738046      -0.0377317299606    -0.000705776681693  -0.0278217202156    
1200000000.0        -0.000907479865606  -0.0303445568916    0.998277091345      -0.0411556929364    0.998277091345      -0.0411556929364    -0.000907479865606  -0.0303445568916    
1300000000.0        -0.00112650054471   -0.0328657077418    0.998046373098      -0.0445780216242    0.998046373098      -0.0445780216242    -0.00112650054471   -0.0328657077418    
1400000000.0        -0.00136281661877   -0.0353850292168    0.997797596703      -0.0479985755953    0.997797596703      -0.0479985755953    -0.00136281661877   -0.0353850292168    
1500000000.0        -0.00161640523094   -0.0379023776881    0.997530777866      -0.0514172142718    0.997530777866      -0.0514172142718    -0.00161640523094   -0.0379023776881    
1600000000.0        -0.00188724258184   -0.0404176094971    0.997245934415      -0.0548337969831    0.997245934415      -0.0548337969831    -0.00188724258184   -0.0404176094971    
1700000000.0        -0.00217530379564   -0.0429305809988    0.996943086177      -0.0582481830164    0.996943086177      -0.0582481830164    -0.00217530379564   -0.0429305809988    
1800000000.0        -0.00248056282187   -0.0454411486037    0.99662225488       -0.0616602316631    0.99662225488       -0.0616602316631    -0.00248056282187   -0.0454411486037    
1900000000.0        -0.00280299236195   -0.0479491688152    0.996283464083      -0.0650698022621    0.996283464083      -0.0650698022621    -0.00280299236195   -0.0479491688152    
2000000000.0        -0.00314256381388   -0.0504544982669    0.995926739118      -0.0684767542395    0.995926739118      -0.0684767542395    -0.00314256381388   -0.0504544982669    
2100000000.0        -0.00349924722991   -0.0529569937564    0.995552107051      -0.0718809471469    0.995552107051      -0.0718809471469    -0.00349924722991   -0.0529569937564    
2200000000.0        -0.00387301128419   -0.0554565122785    0.995159596642      -0.0752822406967    0.995159596642      -0.0752822406967    -0.00387301128419   -0.0554565122785    
2300000000.0        -0.0042638232479    -0.0579529110566    0.994749238323      -0.0786804947971    0.994749238323      -0.0786804947971    -0.0042638232479    -0.0579529110566    
2400000000.0        -0.00467164897023   -0.0604460475736    0.994321064168      -0.0820755695841    0.994321064168      -0.0820755695841    -0.00467164897023   -0.0604460475736    
2500000000.0        -0.00509645286405   -0.0629357796014    0.993875107875      -0.0854673254537    0.993875107875      -0.0854673254537    -0.00509645286405   -0.0629357796014    
2600000000.0        -0.00553819789516   -0.0654219652293    0.993411404748      -0.0888556230922    0.993411404748      -0.0888556230922    -0.00553819789516   -0.0654219652293    
2700000000.0        -0.00599684557471   -0.0679044628924    0.992929991684      -0.0922403235057    0.992929991684      -0.0922403235057    -0.00599684557471   -0.0679044628924    
2800000000.0        -0.00647235595398   -0.0703831313987    0.992430907153      -0.0956212880492    0.992430907153      -0.0956212880492    -0.00647235595398   -0.0703831313987    
2900000000.0        -0.00696468762131   -0.0728578299557    0.991914191189      -0.0989983784542    0.991914191189      -0.0989983784542    -0.00696468762131   -0.0728578299557    
3000000000.0        -0.00747379770083   -0.0753284181967    0.991379885377      -0.102371456856     0.991379885377      -0.102371456856     -0.00747379770083   -0.0753284181967    
3100000000.0        -0.0079996418526    -0.0777947562062    0.99082803284       -0.105740385822     0.99082803284       -0.105740385822     -0.0079996418526    -0.0777947562062    
3200000000.0        -0.00854217427419   -0.0802567045452    0.990258678228      -0.109105028375     0.990258678228      -0.109105028375     -0.00854217427419   -0.0802567045452    
3300000000.0        -0.00910134770334   -0.0827141242757    0.989671867707      -0.11246524802      0.989671867707      -0.11246524802      -0.00910134770334   -0.0827141242757    
3400000000.0        -0.0096771134217    -0.085166876985     0.989067648948      -0.115820908771     0.989067648948      -0.115820908771     -0.0096771134217    -0.085166876985     
3500000000.0        -0.0102694212594    -0.0876148248097    0.988446071114      -0.119171875174     0.988446071114      -0.119171875174     -0.0102694212594    -0.0876148248097    
3600000000.0        -0.0108782196007    -0.0900578304589    0.987807184853      -0.12251801233      0.987807184853      -0.12251801233      -0.0108782196007    -0.0900578304589    
3700000000.0        -0.0115034553899    -0.0924957572372    0.987151042286      -0.125859185922     0.987151042286      -0.125859185922     -0.0115034553899    -0.0924957572372    
3800000000.0        -0.0121450741386    -0.0949284690677    0.986477696991      -0.129195262235     0.986477696991      -0.129195262235     -0.0121450741386    -0.0949284690677    
3900000000.0        -0.0128030199331    -0.0973558305142    0.985787203997      -0.132526108181     0.985787203997      -0.132526108181     -0.0128030199331    -0.0973558305142    
4000000000.0        -0.0134772354426    -0.0997777068032    0.985079619773      -0.135851591322     0.985079619773      -0.135851591322     -0.0134772354426    -0.0997777068032    
4100000000.0        -0.0141676619281    -0.102193963845     0.984355002213      -0.13917157989      0.984355002213      -0.13917157989      -0.0141676619281    -0.102193963845     
4200000000.0        -0.0148742392512    -0.104604468258     0.983613410623      -0.142485942809     0.983613410623      -0.142485942809     -0.0148742392512    -0.104604468258     
4300000000.0        -0.0155969058845    -0.107009087383     0.982854905716      -0.145794549721     0.982854905716      -0.145794549721     -0.0155969058845    -0.107009087383     
4400000000.0        -0.0163355989216    -0.109407689312     0.982079549593      -0.149097271        0.982079549593      -0.149097271        -0.0163355989216    -0.109407689312     
4500000000.0        -0.0170902540874    -0.111800142903     0.981287405732      -0.15239397778      0.981287405732      -0.15239397778      -0.0170902540874    -0.111800142903     
4600000000.0        -0.01786080575      -0.114186317803     0.980478538978      -0.155684541967     0.980478538978      -0.155684541967     -0.01786080575      -0.114186317803     
4700000000.0        -0.0186471869316    -0.116566084466     0.979653015527      -0.15896883627      0.979653015527      -0.15896883627      -0.0186471869316    -0.116566084466     
4800000000.0        -0.0194493293208    -0.118939314171     0.978810902913      -0.162246734209     0.978810902913      -0.162246734209     -0.0194493293208    -0.118939314171     
4900000000.0        -0.0202671632845    -0.121305879046     0.977952269997      -0.165518110144     0.977952269997      -0.165518110144     -0.0202671632845    -0.121305879046     
5000000000.0        -0.0211006178814    -0.123665652082     0.977077186951      -0.168782839289     0.977077186951      -0.168782839289     -0.0211006178814    -0.123665652082     
5100000000.0        -0.021949620874     -0.126018507154     0.976185725244      -0.172040797732     0.976185725244      -0.172040797732     -0.021949620874     -0.126018507154     
5200000000.0        -0.0228140987429    -0.128364319037     0.975277957628      -0.175291862452     0.975277957628      -0.175291862452     -0.0228140987428    -0.128364319037     
5300000000.0        -0.0236939766997    -0.130702963428     0.974353958126      -0.17853591134      0.974353958126      -0.17853591134      -0.0236939766997    -0.130702963428     
5400000000.0        -0.0245891787019    -0.133034316956     0.973413802012      -0.181772823216     0.973413802012      -0.181772823216     -0.0245891787019    -0.133034316956     
5500000000.0        -0.0254996274664    -0.135358257209     0.9724575658        -0.185002477843     0.9724575658        -0.185002477843     -0.0254996274664    -0.135358257209     
5600000000.0        -0.0264252444846    -0.137674662741     0.97148532723       -0.188224755948     0.97148532723       -0.188224755948     -0.0264252444846    -0.137674662741     
5700000000.0        -0.027365950037     -0.139983413095     0.970497165248      -0.191439539237     0.970497165248      -0.191439539237     -0.027365950037     -0.139983413095     
5800000000.0        -0.0283216632089    -0.142284388818     0.969493159994      -0.194646710413     0.969493159994      -0.194646710413     -0.0283216632089    -0.142284388818     
5900000000.0        -0.0292923019052    -0.144577471474     0.968473392783      -0.197846153189     0.968473392783      -0.197846153189     -0.0292923019052    -0.144577471474     
6000000000.0        -0.0302777828666    -0.146862543664     0.967437946093      -0.201037752306     0.967437946093      -0.201037752306     -0.0302777828666    -0.146862543664     
6100000000.0        -0.031278021685     -0.149139489036     0.966386903546      -0.204221393549     0.966386903546      -0.204221393549     -0.031278021685     -0.149139489036     
6200000000.0        -0.0322929328204    -0.151408192304     0.965320349889      -0.207396963758     0.965320349889      -0.207396963758     -0.0322929328204    -0.151408192304     
6300000000.0        -0.0333224296169    -0.153668539262     0.964238370983      -0.210564350848     0.964238370983      -0.210564350848     -0.0333224296169    -0.153668539262     
6400000000.0        -0.0343664243192    -0.155920416794     0.963141053782      -0.21372344382      0.963141053782      -0.21372344382      -0.0343664243192    -0.155920416794     
6500000000.0        -0.0354248280896    -0.158163712894     0.962028486318      -0.216874132776     0.962028486318      -0.216874132776     -0.0354248280896    -0.158163712894     
6600000000.0        -0.0364975510254    -0.160398316675     0.96090075768       -0.220016308932     0.96090075768       -0.220016308932     -0.0364975510254    -0.160398316675     
6700000000.0        -0.0375845021755    -0.162624118383     0.959757958003      -0.223149864631     0.959757958003      -0.223149864631     -0.0375845021755    -0.162624118383     
6800000000.0        -0.0386855895583    -0.164841009412     0.958600178443      -0.226274693359     0.958600178443      -0.226274693359     -0.0386855895583    -0.164841009412     
6900000000.0        -0.0398007201792    -0.167048882314     0.957427511164      -0.229390689752     0.957427511164      -0.229390689752     -0.0398007201792    -0.167048882314     
7000000000.0        -0.0409298000484    -0.16924763081      0.956240049319      -0.232497749614     0.956240049319      -0.232497749614     -0.0409298000484    -0.16924763081      
7100000000.0        -0.0420727341985    -0.171437149807     0.955037887031      -0.235595769925     0.955037887031      -0.235595769925     -0.0420727341985    -0.171437149807     
7200000000.0        -0.0432294267034    -0.173617335402     0.953821119375      -0.238684648854     0.953821119375      -0.238684648854     -0.0432294267034    -0.173617335402     
7300000000.0        -0.0443997806957    -0.175788084901     0.952589842361      -0.241764285769     0.952589842361      -0.241764285769     -0.0443997806957    -0.175788084901     
7400000000.0        -0.0455836983857    -0.177949296822     0.951344152913      -0.244834581251     0.951344152913      -0.244834581251     -0.0455836983857    -0.177949296822     
7500000000.0        -0.0467810810796    -0.18010087091      0.950084148853      -0.2478954371       0.950084148853      -0.2478954371       -0.0467810810796    -0.18010087091      
7600000000.0        -0.0479918291982    -0.182242708148     0.948809928879      -0.250946756347     0.948809928879      -0.250946756347     -0.0479918291982    -0.182242708148     
7700000000.0        -0.0492158422959    -0.184374710763     0.947521592549      -0.253988443267     0.947521592549      -0.253988443267     -0.0492158422959    -0.184374710763     
7800000000.0        -0.0504530190793    -0.186496782235     0.946219240261      -0.257020403382     0.946219240261      -0.257020403382     -0.0504530190793    -0.186496782235     
7900000000.0        -0.0517032574261    -0.18860882731      0.944902973234      -0.260042543474     0.944902973234      -0.260042543474     -0.0517032574261    -0.18860882731      
8000000000.0        -0.0529664544047    -0.190710752007     0.943572893487      -0.263054771596     0.943572893487      -0.263054771596     -0.0529664544047    -0.190710752007     
8100000000.0        -0.0542425062928    -0.192802463623     0.942229103825      -0.266056997072     0.942229103825      -0.266056997072     -0.0542425062928    -0.192802463623     
8200000000.0        -0.055531308597     -0.194883870745     0.940871707811      -0.269049130516     0.940871707811      -0.269049130516     -0.055531308597     -0.194883870745     
8300000000.0        -0.0568327560718    -0.196954883254     0.939500809757      -0.27203108383      0.939500809757      -0.27203108383      -0.0568327560718    -0.196954883254     
8400000000.0        -0.0581467427395    -0.199015412338     0.938116514694      -0.275002770216     0.938116514694      -0.275002770216     -0.0581467427395    -0.199015412338     
8500000000.0        -0.0594731619089    -0.20106537049      0.936718928363      -0.277964104183     0.936718928363      -0.277964104183     -0.0594731619089    -0.20106537049      
8600000000.0        -0.0608119061956    -0.203104671522     0.935308157185      -0.280915001551     0.935308157185      -0.280915001551     -0.0608119061956    -0.203104671522     
8700000000.0        -0.0621628675408    -0.205133230568     0.93388430825       -0.283855379461     0.93388430825       -0.283855379461     -0.0621628675408    -0.205133230568     
8800000000.0        -0.0635259372316    -0.20715096409      0.932447489292      -0.286785156375     0.932447489292      -0.286785156375     -0.0635259372316    -0.20715096409      
8900000000.0        -0.0649010059198    -0.209157789882     0.930997808673      -0.289704252088     0.930997808673      -0.289704252088     -0.0649010059198    -0.209157789882     
9000000000.0        -0.0662879636423    -0.211153627078     0.929535375358      -0.29261258773      0.929535375358      -0.29261258773      -0.0662879636423    -0.211153627078     
9100000000.0        -0.0676866998402    -0.213138396157     0.928060298904      -0.295510085769     0.928060298904      -0.295510085769     -0.0676866998402    -0.213138396157     
9200000000.0        -0.0690971033789    -0.215112018941     0.92657268943       -0.298396670019     0.92657268943       -0.298396670019     -0.0690971033789    -0.215112018941     
9300000000.0        -0.0705190625671    -0.217074418607     0.925072657604      -0.301272265642     0.925072657604      -0.301272265642     -0.0705190625671    -0.217074418607     
9400000000.0        -0.0719524651773    -0.219025519687     0.923560314624      -0.304136799152     0.923560314624      -0.304136799152     -0.0719524651773    -0.219025519687     
9500000000.0        -0.0733971984647    -0.220965248071     0.922035772193      -0.306990198418     0.922035772193      -0.306990198418     -0.0733971984647    -0.220965248071     
9600000000.0        -0.0748531491874    -0.22289353101      0.920499142504      -0.30983239267      0.920499142504      -0.30983239267      -0.0748531491874    -0.22289353101      
9700000000.0        -0.0763202036256    -0.224810297121     0.918950538216      -0.312663312496     0.918950538216      -0.312663312496     -0.0763202036256    -0.224810297121     
9800000000.0        -0.0777982476013    -0.226715476386     0.91739007244       -0.31548288985      0.91739007244       -0.31548288985      -0.0777982476013    -0.226715476386     
9900000000.0        -0.0792871664981    -0.228609000156     0.915817858716      -0.318291058051     0.915817858716      -0.318291058051     -0.0792871664981    -0.228609000156     
10000000000.0       -0.0807868452801    -0.230490801152     0.914234010992      -0.321087751787     0.914234010992      -0.321087751787     -0.0807868452801    -0.230490801152     
