# Hz S RI R 50.00 
100000000.0         -7.23661709463e-05  -0.0102580902109    0.999830574147      -0.0107210698659    0.999830574147      -0.0107210698659    -7.23661709462e-05  -0.0102580902109    
200000000.0         -0.000412232814133  -0.0205094199418    0.999489726424      -0.0214354527413    0.999489726424      -0.0214354527413    -0.000412232814133  -0.0205094199418    
300000000.0         -0.00097164305594   -0.0307473993873    0.998929287973      -0.0321365976807    0.998929287973      -0.0321365976807    -0.00097164305594   -0.0307473993873    
400000000.0         -0.00174989419619   -0.0409653942687    0.998149877768      -0.0428179003411    0.998149877768      -0.0428179003411    -0.00174989419619   -0.0409653942687    
500000000.0         -0.00274604027832   -0.0511567724719    0.997152409482      -0.0534727539797    0.997152409482      -0.0534727539797    -0.00274604027832   -0.0511567724719    
600000000.0         -0.00395887447108   -0.0613149295938    0.995938073385      -0.0640945765161    0.995938073385      -0.0640945765161    -0.00395887447108   -0.0613149295938    
700000000.0         -0.00538692630926   -0.071433308765     0.994508330043      -0.0746768311303    0.994508330043      -0.0746768311303    -0.00538692630926   -0.071433308765     
800000000.0         -0.00702846304176   -0.0815054179319    0.992864905673      -0.0852130440115    0.992864905673      -0.0852130440115    -0.00702846304176   -0.0815054179319    
900000000.0         -0.00888149297046   -0.0915248456772    0.991009787338      -0.0956968204895    0.991009787338      -0.0956968204895    -0.00888149297046   -0.0915248456772    
1000000000.0        -0.0109437701275    -0.101485276018     0.988945217533      -0.106121860054     0.988945217533      -0.106121860054     -0.0109437701275    -0.101485276018     
1100000000.0        -0.0132128000203    -0.111380502379     0.986673688025      -0.116481970491     0.986673688025      -0.116481970491     -0.0132128000203    -0.111380502379     
1200000000.0        -0.0156858462998    -0.121204440823     0.984197932947      -0.126771081246     0.984197932947      -0.126771081246     -0.0156858462998    -0.121204440823     
1300000000.0        -0.0183599382544    -0.130951142571     0.981520921146      -0.136983256045     0.981520921146      -0.136983256045     -0.0183599382544    -0.130951142571     
1400000000.0        -0.0212318790552    -0.140614805823     0.978645847845      -0.147112704799     0.978645847845      -0.147112704799     -0.0212318790552    -0.140614805823     
1500000000.0        -0.0242982546836    -0.150189786861     0.975576125643      -0.157153794781     0.975576125643      -0.157153794781     -0.0242982546836    -0.150189786861     
1600000000.0        -0.0275554434778    -0.159670610425     0.972315374921      -0.167101061058     0.972315374921      -0.167101061058     -0.0275554434778    -0.159670610425     
1700000000.0        -0.0309996262373    -0.169051979341     0.968867413709      -0.176949216177     0.968867413709      -0.176949216177     -0.0309996262373    -0.169051979341     
1800000000.0        -0.0346267968217    -0.178328783386     0.965236247057      -0.186693159072     0.965236247057      -0.186693159072     -0.0346267968217    -0.178328783386     
1900000000.0        -0.0384327731835    -0.187496107372     0.961426055989      -0.196327983191     0.961426055989      -0.196327983191     -0.0384327731835    -0.187496107372     
2000000000.0        -0.042413208772     -0.196549238437     0.957441186083      -0.205848983821     0.957441186083      -0.205848983821     -0.042413208772     -0.196549238437     
2100000000.0        -0.0465636042468    -0.20548367253      0.953286135745      -0.215251664611     0.953286135745      -0.215251664611     -0.0465636042468    -0.20548367253      
2200000000.0        -0.0508793194406    -0.214295120097     0.948965544243      -0.22453174328      0.948965544243      -0.22453174328      -0.0508793194406    -0.214295120097     
2300000000.0        -0.0553555855087    -0.222979510942     0.944484179546      -0.233685156511     0.944484179546      -0.233685156511     -0.0553555855087    -0.222979510942     
2400000000.0        -0.059987517207     -0.231532998294     0.939846926044      -0.242708064042     0.939846926044      -0.242708064042     -0.059987517207     -0.231532998294     
2500000000.0        -0.0647701252401    -0.239951962064     0.935058772198      -0.251596851947     0.935058772198      -0.251596851947     -0.0647701252401    -0.239951962064     
2600000000.0        -0.069698328622     -0.248233011322     0.930124798168      -0.260348135129     0.930124798168      -0.260348135129     -0.069698328622     -0.248233011322     
2700000000.0        -0.0747669669956    -0.256372985985     0.925050163502      -0.268958759033     0.925050163502      -0.268958759033     -0.0747669669956    -0.256372985985     
2800000000.0        -0.0799708128593    -0.264368957762     0.919840094898      -0.277425800608     0.919840094898      -0.277425800608     -0.0799708128593    -0.264368957762     
2900000000.0        -0.085304583649     -0.272218230353     0.914499874125      -0.285746568527     0.914499874125      -0.285746568527     -0.085304583649     -0.272218230353     
3000000000.0        -0.0907629536311    -0.27991833895      0.909034826126      -0.293918602691     0.909034826126      -0.293918602691     -0.0907629536311    -0.27991833895      
3100000000.0        -0.0963405655608    -0.287467049043     0.903450307363      -0.301939673067     0.903450307363      -0.301939673067     -0.0963405655608    -0.287467049043     
3200000000.0        -0.102032042066     -0.294862354582     0.897751694427      -0.309807777855     0.897751694427      -0.309807777855     -0.102032042066     -0.294862354582     
3300000000.0        -0.107831996719     -0.302102475524     0.891944372968      -0.317521141046     0.891944372968      -0.317521141046     -0.107831996719     -0.302102475524     
3400000000.0        -0.113735044763     -0.309185854784     0.886033726967      -0.325078209395     0.886033726967      -0.325078209395     -0.113735044763     -0.309185854784     
3500000000.0        -0.119735813459     -0.316111154653     0.88002512839       -0.332477648839     0.88002512839       -0.332477648839     -0.119735813459     -0.316111154653     
3600000000.0        -0.125828952034     -0.322877252695     0.873923927237      -0.339718340414     0.873923927237      -0.339718340414     -0.125828952034     -0.322877252695     
3700000000.0        -0.132009141199     -0.329483237175     0.867735442025      -0.346799375692     0.867735442025      -0.346799375692     -0.132009141199     -0.329483237175     
3800000000.0        -0.138271102223     -0.335928402058     0.861464950717      -0.353720051788     0.861464950717      -0.353720051788     -0.138271102223     -0.335928402058     
3900000000.0        -0.144609605536     -0.342212241611     0.85511768211       -0.36047986597      0.85511768211       -0.36047986597      -0.144609605536     -0.342212241611     
4000000000.0        -0.151019478867     -0.348334444653     0.848698807704      -0.367078509924     0.848698807704      -0.367078509924     -0.151019478867     -0.348334444653     
4100000000.0        -0.157495614884     -0.354294888491     0.842213434061      -0.373515863689     0.842213434061      -0.373515863689     -0.157495614884     -0.354294888491     
4200000000.0        -0.16403297835      -0.360093632575     0.835666595647      -0.379791989334     0.835666595647      -0.379791989334     -0.16403297835      -0.360093632575     
4300000000.0        -0.170626612771     -0.365730911927     0.829063248183      -0.385907124377     0.829063248183      -0.385907124377     -0.170626612771     -0.365730911927     
4400000000.0        -0.177271646554     -0.371207130354     0.822408262489      -0.391861675022     0.822408262489      -0.391861675022     -0.177271646554     -0.371207130354     
4500000000.0        -0.183963298664     -0.376522853513     0.815706418827      -0.397656209218     0.815706418827      -0.397656209218     -0.183963298664     -0.376522853513     
4600000000.0        -0.190696883785     -0.381678801831     0.808962401739      -0.403291449594     0.808962401739      -0.403291449594     -0.190696883785     -0.381678801831     
4700000000.0        -0.197467816999     -0.386675843337     0.802180795365      -0.408768266294     0.802180795365      -0.408768266294     -0.197467816999     -0.386675843337     
4800000000.0        -0.204271617978     -0.391514986433     0.795366079257      -0.414087669753     0.795366079257      -0.414087669753     -0.204271617978     -0.391514986433     
4900000000.0        -0.211103914718     -0.39619737262      0.788522624641      -0.419250803427     0.788522624641      -0.419250803427     -0.211103914718     -0.39619737262      
5000000000.0        -0.217960446801     -0.400724269227     0.781654691153      -0.424258936534     0.781654691153      -0.424258936534     -0.217960446801     -0.400724269227     
5100000000.0        -0.224837068229     -0.405097062158     0.774766424011      -0.429113456799     0.774766424011      -0.429113456799     -0.224837068229     -0.405097062158     
5200000000.0        -0.231729749812     -0.409317248684     0.767861851621      -0.433815863255     0.767861851621      -0.433815863255     -0.231729749812     -0.409317248684     
5300000000.0        -0.238634581157     -0.413386430309     0.760944883592      -0.438367759112     0.760944883592      -0.438367759112     -0.238634581157     -0.413386430309     
5400000000.0        -0.245547772248     -0.417306305723     0.754019309153      -0.44277084471      0.754019309153      -0.44277084471      -0.245547772248     -0.417306305723     
5500000000.0        -0.252465654653     -0.421078663861     0.747088795946      -0.447026910594     0.747088795946      -0.447026910594     -0.252465654653     -0.421078663861     
5600000000.0        -0.259384682367     -0.424705377101     0.740156889186      -0.451137830701     0.740156889186      -0.451137830701     -0.259384682367     -0.424705377101     
5700000000.0        -0.266301432314     -0.428188394593     0.733227011158      -0.455105555704     0.733227011158      -0.455105555704     -0.266301432314     -0.428188394593     
5800000000.0        -0.273212604515     -0.431529735758     0.726302461044      -0.458932106508     0.726302461044      -0.458932106508     -0.273212604515     -0.431529735758     
5900000000.0        -0.280115021966     -0.434731483947     0.719386415054      -0.462619567918     0.719386415054      -0.462619567918     -0.280115021966     -0.434731483947     
6000000000.0        -0.287005630214     -0.437795780289     0.712481926838      -0.466170082482     0.712481926838      -0.466170082482     -0.287005630214     -0.437795780289     
6100000000.0        -0.293881496677     -0.440724817724     0.70559192818       -0.469585844535     0.70559192818       -0.469585844535     -0.293881496677     -0.440724817724     
6200000000.0        -0.300739809709     -0.44352083524      0.69871922992       -0.472869094435     0.69871922992       -0.472869094435     -0.300739809709     -0.44352083524      
6300000000.0        -0.307577877435     -0.446186112308     0.691866523129      -0.476022113001     0.691866523129      -0.476022113001     -0.307577877435     -0.446186112308     
6400000000.0        -0.314393126376     -0.448722963536     0.685036380475      -0.479047216167     0.685036380475      -0.479047216167     -0.314393126376     -0.448722963536     
6500000000.0        -0.321183099882     -0.451133733526     0.678231257798      -0.481946749848     0.678231257798      -0.481946749848     -0.321183099882     -0.451133733526     
6600000000.0        -0.327945456379     -0.453420791954     0.671453495857      -0.484723085019     0.671453495857      -0.484723085019     -0.327945456379     -0.453420791954     
6700000000.0        -0.334677967473     -0.45558652887      0.66470532223       -0.487378613011     0.66470532223       -0.487378613011     -0.334677967473     -0.45558652887      
6800000000.0        -0.34137851589      -0.45763335021      0.657988853371      -0.489915741034     0.657988853371      -0.489915741034     -0.34137851589      -0.45763335021      
6900000000.0        -0.348045093302     -0.459563673526     0.651306096785      -0.492336887908     0.651306096785      -0.492336887908     -0.348045093302     -0.459563673526     
7000000000.0        -0.354675798039     -0.461379923941     0.644658953317      -0.494644480012     0.644658953317      -0.494644480012     -0.354675798039     -0.461379923941     
7100000000.0        -0.361268832695     -0.463084530308     0.638049219544      -0.496840947454     0.638049219544      -0.496840947454     -0.361268832695     -0.463084530308     
7200000000.0        -0.367822501656     -0.464679921588     0.63147859025       -0.498928720444     0.63147859025       -0.498928720444     -0.367822501656     -0.464679921588     
7300000000.0        -0.374335208553     -0.466168523433     0.624948660966      -0.500910225882     0.624948660966      -0.500910225882     -0.374335208553     -0.466168523433     
7400000000.0        -0.380805453657     -0.467552754973     0.618460930587      -0.502787884147     0.618460930587      -0.502787884147     -0.380805453657     -0.467552754973     
7500000000.0        -0.38723183122      -0.468835025806     0.612016804015      -0.504564106084     0.612016804015      -0.504564106084     -0.38723183122      -0.468835025806     
7600000000.0        -0.393613026792     -0.470017733181     0.605617594859      -0.506241290194     0.605617594859      -0.506241290194     -0.393613026792     -0.470017733181     
7700000000.0        -0.399947814494     -0.47110325937      0.599264528148      -0.507821820003     0.599264528148      -0.507821820003     -0.399947814494     -0.47110325937      
7800000000.0        -0.406235054284     -0.472093969224     0.592958743071      -0.509308061623     0.592958743071      -0.509308061623     -0.406235054284     -0.472093969224     
7900000000.0        -0.412473689213     -0.472992207916     0.586701295723      -0.510702361488     0.586701295723      -0.510702361488     -0.412473689213     -0.472992207916     
8000000000.0        -0.41866274268      -0.473800298839     0.580493161845      -0.512007044265     0.580493161845      -0.512007044265     -0.41866274268      -0.473800298839     
8100000000.0        -0.424801315689     -0.474520541689     0.574335239571      -0.513224410929     0.574335239571      -0.513224410929     -0.424801315689     -0.474520541689     
8200000000.0        -0.430888584123     -0.475155210698     0.568228352148      -0.514356736999     0.568228352148      -0.514356736999     -0.430888584123     -0.475155210698     
8300000000.0        -0.436923796046     -0.47570655302      0.562173250645      -0.515406270926     0.562173250645      -0.515406270926     -0.436923796046     -0.47570655302      
8400000000.0        -0.442906269012     -0.476176787272     0.55617061663       -0.516375232634     0.55617061663       -0.516375232634     -0.442906269012     -0.476176787272     
8500000000.0        -0.448835387427     -0.476568102204     0.55022106482       -0.517265812193     0.55022106482       -0.517265812193     -0.448835387427     -0.476568102204     
8600000000.0        -0.454710599929     -0.476882655519     0.544325145694      -0.518080168634     0.544325145694      -0.518080168634     -0.454710599929     -0.476882655519     
8700000000.0        -0.460531416816     -0.477122572806     0.538483348065      -0.518820428889     0.538483348065      -0.518820428889     -0.460531416816     -0.477122572806     
8800000000.0        -0.466297407519     -0.477289946606     0.53269610161       -0.519488686855     0.53269610161       -0.519488686855     -0.466297407519     -0.477289946606     
8900000000.0        -0.472008198116     -0.477386835587     0.526963779356      -0.520087002567     0.526963779356      -0.520087002567     -0.472008198116     -0.477386835587     
9000000000.0        -0.477663468903     -0.477415263831     0.521286700106      -0.520617401492     0.521286700106      -0.520617401492     -0.477663468903     -0.477415263831     
9100000000.0        -0.483262952011     -0.47737722023      0.515665130826      -0.521081873918     0.515665130826      -0.521081873918     -0.483262952011     -0.47737722023      
9200000000.0        -0.488806429077     -0.477274657967     0.510099288965      -0.521482374442     0.510099288965      -0.521482374442     -0.488806429077     -0.477274657967     
9300000000.0        -0.494293728979     -0.477109494104     0.504589344733      -0.521820821552     0.504589344733      -0.521820821552     -0.494293728979     -0.477109494104     
9400000000.0        -0.499724725623     -0.476883609247     0.499135423304      -0.5220990973       0.499135423304      -0.5220990973       -0.499724725623     -0.476883609247     
9500000000.0        -0.505099335786     -0.476598847295     0.493737606979      -0.522319047043     0.493737606979      -0.522319047043     -0.505099335786     -0.476598847295     
9600000000.0        -0.510417517021     -0.476257015267     0.488395937274      -0.522482479279     0.488395937274      -0.522482479279     -0.510417517021     -0.476257015267     
9700000000.0        -0.51567926563      -0.4758598832       0.483110416953      -0.522591165537     0.483110416953      -0.522591165537     -0.51567926563      -0.4758598832       
9800000000.0        -0.520884614682     -0.475409184109     0.477881012008      -0.522646840345     0.477881012008      -0.522646840345     -0.520884614682     -0.475409184109     
9900000000.0        -0.526033632109     -0.474906614017     0.472707653565      -0.522651201253     0.472707653565      -0.522651201253     -0.526033632109     -0.474906614017     
10000000000.0       -0.531126418845     -0.474353832035     0.467590239738      -0.522605908919     0.467590239738      -0.522605908919     -0.531126418845     -0.474353832035     
