# Hz S RI R 50.00 
100000000.0         -6.39702390275e-05  -0.00754511027169   0.999933898866      -0.00755532993164   0.999933898866      -0.00755532993164   -6.39702390275e-05  -0.00754511027169   
200000000.0         -0.000242433794825  -0.0150861336771    0.999755420587      -0.0151065774129    0.999755420587      -0.0151065774129    -0.000242433794825  -0.0150861336771    
300000000.0         -0.000534623081805  -0.0226198660295    0.999463220137      -0.0226505404366    0.999463220137      -0.0226505404366    -0.000534623081805  -0.0226198660295    
400000000.0         -0.000940221259825  -0.0301432879253    0.999057612523      -0.0301842011822    0.999057612523      -0.0301842011822    -0.000940221259825  -0.0301432879253    
500000000.0         -0.00145881536164   -0.0376534926613    0.998539010012      -0.0377046541968    0.998539010012      -0.0377046541968    -0.00145881536164   -0.0376534926613    
600000000.0         -0.00208990158171   -0.0451476623937    0.997907916053      -0.0452090826474    0.997907916053      -0.0452090826474    -0.00208990158171   -0.0451476623937    
700000000.0         -0.00283288988195   -0.0526230567711    0.997164920476      -0.0526947470052    0.997164920476      -0.0526947470052    -0.00283288988195   -0.0526230567711    
800000000.0         -0.00368710810669   -0.0600770065742    0.996310695301      -0.0601589787177    0.996310695301      -0.0601589787177    -0.00368710810669   -0.0600770065742    
900000000.0         -0.00465180574669   -0.0675069097907    0.995345990944      -0.067599176307     0.995345990944      -0.067599176307     -0.00465180574669   -0.0675069097907    
1000000000.0        -0.00572615743671   -0.0749102290042    0.994271632704      -0.0750128027757    0.994271632704      -0.0750128027757    -0.00572615743671   -0.0749102290042    
1100000000.0        -0.00690926624939   -0.0822844896388    0.993088517459      -0.0823973838671    0.993088517459      -0.0823973838671    -0.00690926624939   -0.0822844896388    
1200000000.0        -0.00820016681114   -0.0896272786606    0.991797610543      -0.0897505067782    0.991797610543      -0.0897505067782    -0.00820016681114   -0.0896272786606    
1300000000.0        -0.00959782826877   -0.0969362436162    0.990399942779      -0.0970698192092    0.990399942779      -0.0970698192092    -0.00959782826877   -0.0969362436162    
1400000000.0        -0.0111011571315    -0.104209091928     0.988896607634      -0.104353028668     0.988896607634      -0.104353028668     -0.0111011571315    -0.104209091928     
1500000000.0        -0.0127090000043    -0.111443590369     0.987288758483      -0.111597901952     0.987288758483      -0.111597901952     -0.0127090000043    -0.111443590369     
1600000000.0        -0.0144201462193    -0.118637564643     0.985577605978      -0.11880226474      0.985577605978      -0.11880226474      -0.0144201462193    -0.118637564643     
1700000000.0        -0.0162333303865    -0.125788899091     0.983764415494      -0.125964001297     0.983764415494      -0.125964001297     -0.0162333303865    -0.125788899091     
1800000000.0        -0.0181472348749    -0.132895536489     0.981850504651      -0.133081054289     0.981850504651      -0.133081054289     -0.0181472348749    -0.132895536489     
1900000000.0        -0.0201604922245    -0.139955477896     0.979837240899      -0.140151424624     0.979837240899      -0.140151424624     -0.0201604922245    -0.139955477896     
2000000000.0        -0.0222716875093    -0.146966782571     0.977726039156      -0.147173171387     0.977726039156      -0.147173171387     -0.0222716875093    -0.146966782571     
2100000000.0        -0.0244793606521    -0.153927567935     0.975518359491      -0.154144411793     0.975518359491      -0.154144411793     -0.0244793606521    -0.153927567935     
2200000000.0        -0.0267820086993    -0.160836009562     0.973215704851      -0.161063321194     0.973215704851      -0.161063321194     -0.0267820086993    -0.160836009562     
2300000000.0        -0.0291780880636    -0.167690341207     0.970819618818      -0.167928133104     0.970819618818      -0.167928133104     -0.0291780880636    -0.167690341207     
2400000000.0        -0.031666016734     -0.174488854841     0.968331683398      -0.174737139236     0.968331683398      -0.174737139236     -0.031666016734     -0.174488854841     
2500000000.0        -0.0342441764653    -0.181229900703     0.965753516832      -0.18148868956      0.965753516832      -0.18148868956      -0.0342441764653    -0.181229900703     
2600000000.0        -0.0369109149438    -0.18791188736      0.963086771429      -0.188181192368     0.963086771429      -0.188181192368     -0.0369109149438    -0.18791188736      
2700000000.0        -0.0396645479326    -0.194533281753     0.960333131423      -0.194813114314     0.960333131423      -0.194813114314     -0.0396645479326    -0.194533281753     
2800000000.0        -0.0425033614       -0.201092609236     0.957494310842      -0.201382980463     0.957494310842      -0.201382980463     -0.0425033614       -0.201092609236     
2900000000.0        -0.0454256136332    -0.207588453608     0.954572051396      -0.207889374322     0.954572051396      -0.207889374322     -0.0454256136332    -0.207588453608     
3000000000.0        -0.0484295373317    -0.214019457105     0.951568120383      -0.214330937833     0.951568120383      -0.214330937833     -0.0484295373317    -0.214019457105     
3100000000.0        -0.0515133416904    -0.22038432039      0.948484308606      -0.220706371363     0.948484308606      -0.220706371363     -0.0515133416904    -0.22038432039      
3200000000.0        -0.054675214462     -0.226681802489     0.94532242831       -0.227014433646     0.94532242831       -0.227014433646     -0.054675214462     -0.226681802489     
3300000000.0        -0.0579133240014    -0.232910720702     0.942084311138      -0.23325394169      0.942084311138      -0.23325394169      -0.0579133240014    -0.232910720702     
3400000000.0        -0.0612258212953    -0.239069950475     0.938771806101      -0.239423770652     0.938771806101      -0.239423770652     -0.0612258212953    -0.239069950475     
3500000000.0        -0.0646108419696    -0.245158425231     0.935386777573      -0.24552285367      0.935386777573      -0.24552285367      -0.0646108419696    -0.245158425231     
3600000000.0        -0.0680665082734    -0.251175136149     0.931931103303      -0.251550181642     0.931931103303      -0.251550181642     -0.0680665082734    -0.251175136149     
3700000000.0        -0.0715909310431    -0.257119131906     0.928406672452      -0.257504802969     0.928406672452      -0.257504802969     -0.0715909310431    -0.257119131906     
3800000000.0        -0.0751822116368    -0.262989518362     0.924815383662      -0.263385823242     0.924815383662      -0.263385823242     -0.0751822116368    -0.262989518362     
3900000000.0        -0.078838443842     -0.268785458204     0.921159143144      -0.269192404881     0.921159143144      -0.269192404881     -0.078838443842     -0.268785458204     
4000000000.0        -0.0825577157564    -0.27450617053      0.917439862799      -0.274923766726     0.917439862799      -0.274923766726     -0.0825577157564    -0.27450617053      
4100000000.0        -0.0863381116296    -0.280150930391     0.913659458377      -0.280579183575     0.913659458377      -0.280579183575     -0.0863381116296    -0.280150930391     
4200000000.0        -0.0901777136769    -0.285719068274     0.909819847661      -0.286157985669     0.909819847661      -0.286157985669     -0.0901777136769    -0.285719068274     
4300000000.0        -0.0940746038505    -0.291209969541     0.905922948699      -0.29165955813      0.905922948699      -0.29165955813      -0.0940746038505    -0.291209969541     
4400000000.0        -0.0980268655754    -0.296623073813     0.901970678064      -0.297083340346     0.901970678064      -0.297083340346     -0.0980268655754    -0.296623073813     
4500000000.0        -0.102032585444     -0.301957874311     0.897964949165      -0.302428825311     0.897964949165      -0.302428825311     -0.102032585444     -0.301957874311     
4600000000.0        -0.106089854863     -0.307213917139     0.893907670592      -0.307695558909     0.893907670592      -0.307695558909     -0.106089854863     -0.307213917139     
4700000000.0        -0.110196771661     -0.312390800532     0.889800744517      -0.312883139162     0.889800744517      -0.312883139162     -0.110196771661     -0.312390800532     
4800000000.0        -0.11435144165      -0.31748817405      0.885646065129      -0.317991215424     0.885646065129      -0.317991215424     -0.11435144165      -0.31748817405      
4900000000.0        -0.118551980126     -0.322505737734     0.88144551713       -0.323019487534     0.88144551713       -0.323019487534     -0.118551980126     -0.322505737734     
5000000000.0        -0.122796513338     -0.327443241217     0.87720097427       -0.327967704933     0.87720097427       -0.327967704933     -0.122796513338     -0.327443241217     
5100000000.0        -0.127083179893     -0.332300482801     0.872914297943      -0.332835665736     0.872914297943      -0.332835665736     -0.127083179893     -0.332300482801     
5200000000.0        -0.131410132112     -0.337077308495     0.868587335827      -0.337623215768     0.868587335827      -0.337623215768     -0.131410132112     -0.337077308495     
5300000000.0        -0.135775537332     -0.341773611011     0.864221920583      -0.342330247569     0.864221920583      -0.342330247569     -0.135775537332     -0.341773611011     
5400000000.0        -0.140177579157     -0.346389328745     0.85981986861       -0.346956699364     0.85981986861       -0.346956699364     -0.140177579157     -0.346389328745     
5500000000.0        -0.14461445865      -0.350924444709     0.855382978843      -0.351502554003     0.855382978843      -0.351502554003     -0.14461445865      -0.350924444709     
5600000000.0        -0.149084395468     -0.35537898545      0.850913031623      -0.355967837875     0.850913031623      -0.355967837875     -0.149084395468     -0.35537898545      
5700000000.0        -0.15358562895      -0.359753019942     0.846411787614      -0.360352619801     0.846411787614      -0.360352619801     -0.15358562895      -0.359753019942     
5800000000.0        -0.158116419137     -0.364046658447     0.841880986772      -0.364657009898     0.841880986772      -0.364657009898     -0.158116419137     -0.364046658447     
5900000000.0        -0.162675047744     -0.368260051369     0.837322347385      -0.368881158428     0.837322347385      -0.368881158428     -0.162675047744     -0.368260051369     
6000000000.0        -0.167259819072     -0.372393388086     0.832737565148      -0.373025254632     0.832737565148      -0.373025254632     -0.167259819072     -0.372393388086     
6100000000.0        -0.171869060867     -0.376446895763     0.828128312318      -0.377089525543     0.828128312318      -0.377089525543     -0.171869060867     -0.376446895763     
6200000000.0        -0.176501125119     -0.380420838161     0.823496236903      -0.381074234799     0.823496236903      -0.381074234799     -0.176501125119     -0.380420838161     
6300000000.0        -0.181154388809     -0.384315514436     0.818842961921      -0.384979681429     0.818842961921      -0.384979681429     -0.181154388809     -0.384315514436     
6400000000.0        -0.185827254605     -0.388131257923     0.814170084706      -0.388806198654     0.814170084706      -0.388806198654     -0.185827254605     -0.388131257923     
6500000000.0        -0.190518151491     -0.391868434925     0.809479176274      -0.392554152662     0.809479176274      -0.392554152662     -0.190518151491     -0.391868434925     
6600000000.0        -0.195225535357     -0.395527443493     0.804771780733      -0.396223941395     0.804771780733      -0.396223941395     -0.195225535357     -0.395527443493     
6700000000.0        -0.199947889533     -0.39910871221      0.800049414754      -0.399815993332     0.800049414754      -0.399815993332     -0.199947889533     -0.39910871221      
6800000000.0        -0.204683725265     -0.402612698976     0.795313567092      -0.403330766272     0.795313567092      -0.403330766272     -0.204683725265     -0.402612698976     
6900000000.0        -0.209431582146     -0.406039889796     0.790565698151      -0.406768746121     0.790565698151      -0.406768746121     -0.209431582146     -0.406039889796     
7000000000.0        -0.214190028502     -0.409390797572     0.785807239607      -0.410130445689     0.785807239607      -0.410130445689     -0.214190028502     -0.409390797572     
7100000000.0        -0.218957661723     -0.412665960909     0.781039594071      -0.413416403489     0.781039594071      -0.413416403489     -0.218957661723     -0.412665960909     
7200000000.0        -0.223733108547     -0.415865942923     0.776264134802      -0.41662718255      0.776264134802      -0.41662718255      -0.223733108547     -0.415865942923     
7300000000.0        -0.228515025307     -0.418991330065     0.771482205469      -0.419763369242     0.771482205469      -0.419763369242     -0.228515025307     -0.418991330065     
7400000000.0        -0.233302098124     -0.422042730956     0.76669511995       -0.422825572103     0.76669511995       -0.422825572103     -0.233302098124     -0.422042730956     
7500000000.0        -0.238093043068     -0.425020775239     0.761904162177      -0.425814420698     0.761904162177      -0.425814420698     -0.238093043068     -0.425020775239     
7600000000.0        -0.242886606264     -0.427926112437     0.757110586022      -0.428730564478     0.757110586022      -0.428730564478     -0.242886606264     -0.427926112437     
7700000000.0        -0.247681563975     -0.430759410845     0.752315615224      -0.431574671663     0.752315615224      -0.431574671663     -0.247681563975     -0.430759410845     
7800000000.0        -0.252476722632     -0.433521356418     0.747520443351      -0.434347428142     0.747520443351      -0.434347428142     -0.252476722632     -0.433521356418     
7900000000.0        -0.257270918838     -0.436212651702     0.7427262338        -0.437049536391     0.7427262338        -0.437049536391     -0.257270918838     -0.436212651702     
8000000000.0        -0.262063019331     -0.438834014759     0.737934119834      -0.439681714411     0.737934119834      -0.439681714411     -0.262063019331     -0.438834014759     
8100000000.0        -0.266851920915     -0.441386178141     0.733145204648      -0.44224469469      0.733145204648      -0.44224469469      -0.266851920915     -0.441386178141     
8200000000.0        -0.27163655036      -0.443869887858     0.728360561473      -0.44473922318      0.728360561473      -0.44473922318      -0.27163655036      -0.443869887858     
8300000000.0        -0.27641586427      -0.446285902392     0.723581233703      -0.447166058305     0.723581233703      -0.447166058305     -0.27641586427      -0.446285902392     
8400000000.0        -0.281188848925     -0.448634991717     0.718808235061      -0.449525969983     0.718808235061      -0.449525969983     -0.281188848925     -0.448634991717     
8500000000.0        -0.28595452009      -0.450917936352     0.71404254978       -0.451819738682     0.71404254978       -0.451819738682     -0.28595452009      -0.450917936352     
8600000000.0        -0.290711922801     -0.453135526436     0.709285132823      -0.454048154488     0.709285132823      -0.454048154488     -0.290711922801     -0.453135526436     
8700000000.0        -0.295460131135     -0.455288560826     0.704536910117      -0.456212016211     0.704536910117      -0.456212016211     -0.295460131135     -0.455288560826     
8800000000.0        -0.300198247935     -0.457377846222     0.699798778814      -0.458312130501     0.699798778814      -0.458312130501     -0.300198247935     -0.457377846222     
8900000000.0        -0.304925404541     -0.459404196312     0.695071607578      -0.460349311001     0.695071607578      -0.460349311001     -0.304925404541     -0.459404196312     
9000000000.0        -0.309640760477     -0.461368430952     0.690356236883      -0.462324377525     0.690356236883      -0.462324377525     -0.309640760477     -0.461368430952     
9100000000.0        -0.314343503134     -0.463271375362     0.685653479338      -0.464238155248     0.685653479338      -0.464238155248     -0.314343503134     -0.463271375362     
9200000000.0        -0.319032847431     -0.46511385935      0.680964120025      -0.46609147394      0.680964120025      -0.46609147394      -0.319032847431     -0.46511385935      
9300000000.0        -0.323708035456     -0.466896716568     0.676288916857      -0.467885167211     0.676288916857      -0.467885167211     -0.323708035456     -0.466896716568     
9400000000.0        -0.328368336097     -0.468620783782     0.671628600942      -0.469620071789     0.671628600942      -0.469620071789     -0.328368336097     -0.468620783782     
9500000000.0        -0.333013044662     -0.470286900176     0.666983876977      -0.471297026825     0.666983876977      -0.471297026825     -0.333013044662     -0.470286900176     
9600000000.0        -0.337641482474     -0.471895906681     0.662355423636      -0.472916873212     0.662355423636      -0.472916873212     -0.337641482474     -0.471895906681     
9700000000.0        -0.34225299647      -0.473448645324     0.657743893981      -0.474480452944     0.657743893981      -0.474480452944     -0.34225299647      -0.473448645324     
9800000000.0        -0.346846958782     -0.474945958607     0.653149915884      -0.475988608489     0.653149915884      -0.475988608489     -0.346846958782     -0.474945958607     
9900000000.0        -0.351422766304     -0.476388688905     0.648574092448      -0.477442182192     0.648574092448      -0.477442182192     -0.351422766304     -0.476388688905     
10000000000.0       -0.355979840264     -0.477777677895     0.644017002446      -0.4788420157       0.644017002446      -0.4788420157       -0.355979840264     -0.477777677895     
