# Hz S RI R 50.00 
100000000.0         0.00340768137817    0.00055057998314    0.996585789415      -0.00306074720309   0.996585789415      -0.00306074720309   0.00340768137817    0.00055057998314    
200000000.0         0.00343426242219    0.00110097727297    0.996547370835      -0.00612130739926   0.996547370835      -0.00612130739926   0.00343426242219    0.00110097727297    
300000000.0         0.00345824170304    0.00165123439345    0.996505245413      -0.00918172104921   0.996505245413      -0.00918172104921   0.00345824170304    0.00165123439345    
400000000.0         0.00348256806099    0.00220135145274    0.996456463989      -0.0122419838642    0.996456463989      -0.0122419838642    0.00348256806099    0.00220135145274    
500000000.0         0.00350837645749    0.00275131885868    0.996399891235      -0.0153020806822    0.996399891235      -0.0153020806822    0.00350837645749    0.00275131885868    
600000000.0         0.00353624512942    0.00330112279111    0.9963349485        -0.018361991348     0.9963349485        -0.018361991348     0.00353624512942    0.00330112279111    
700000000.0         0.00356651511689    0.00385074715202    0.996261294291      -0.0214216928697    0.996261294291      -0.0214216928697    0.00356651511689    0.00385074715202    
800000000.0         0.00359940686023    0.00440017446293    0.996178707678      -0.0244811604409    0.996178707678      -0.0244811604409    0.00359940686023    0.00440017446293    
900000000.0         0.0036350721055     0.00494938634313    0.996087036387      -0.0275403679996    0.996087036387      -0.0275403679996    0.0036350721055     0.00494938634313    
1000000000.0        0.00367362020936    0.00549836379069    0.995986170505      -0.030599288567     0.995986170505      -0.030599288567     0.00367362020936    0.00549836379069    
1100000000.0        0.00371513275875    0.00604708735948    0.995876027853      -0.033657894466     0.995876027853      -0.033657894466     0.00371513275875    0.00604708735948    
1200000000.0        0.00375967228064    0.00659553727692    0.995756545287      -0.0367161574715    0.995756545287      -0.0367161574715    0.00375967228064    0.00659553727692    
1300000000.0        0.00380728772063    0.00714369352543    0.995627673215      -0.0397740489164    0.995627673215      -0.0397740489164    0.00380728772063    0.00714369352543    
1400000000.0        0.00385801804329    0.00769153590106    0.995489372         -0.042831539771     0.995489372         -0.042831539771     0.00385801804329    0.00769153590106    
1500000000.0        0.00391189468499    0.00823904405653    0.99534160951       -0.0458886007022    0.99534160951       -0.0458886007022    0.00391189468499    0.00823904405653    
1600000000.0        0.00396894327627    0.00878619753398    0.995184359394      -0.0489452021199    0.995184359394      -0.0489452021199    0.00396894327627    0.00878619753398    
1700000000.0        0.0040291848828     0.00933297579001    0.995017599846      -0.0520013142136    0.995017599846      -0.0520013142136    0.0040291848828     0.00933297579001    
1800000000.0        0.00409263691956    0.00987935821558    0.994841312689      -0.0550569069823    0.994841312689      -0.0550569069823    0.00409263691956    0.00987935821558    
1900000000.0        0.00415931383743    0.0104253241517     0.994655482689      -0.0581119502585    0.994655482689      -0.0581119502585    0.00415931383743    0.0104253241517     
2000000000.0        0.00422922764766    0.0109708529023     0.994460097033      -0.0611664137285    0.994460097033      -0.0611664137285    0.00422922764766    0.0109708529023     
2100000000.0        0.0043023883287     0.0115159237448     0.994255144924      -0.0642202669491    0.994255144924      -0.0642202669491    0.0043023883287     0.0115159237448     
2200000000.0        0.00437880414584    0.0120605159384     0.994040617261      -0.0672734793623    0.994040617261      -0.0672734793623    0.00437880414584    0.0120605159384     
2300000000.0        0.00445848190566    0.0126046087322     0.993816506383      -0.0703260203072    0.993816506383      -0.0703260203072    0.00445848190566    0.0126046087322     
2400000000.0        0.00454142716059    0.0131481813706     0.99358280587       -0.0733778590315    0.99358280587       -0.0733778590315    0.00454142716059    0.0131481813706     
2500000000.0        0.00462764437513    0.0136912130992     0.993339510373      -0.0764289646999    0.993339510373      -0.0764289646999    0.00462764437513    0.0136912130992     
2600000000.0        0.00471713706214    0.0142336831691     0.993086615484      -0.079479306403     0.993086615484      -0.079479306403     0.00471713706214    0.0142336831691     
2700000000.0        0.00480990789542    0.014775570841      0.992824117616      -0.0825288531643    0.992824117616      -0.0825288531643    0.00480990789542    0.014775570841      
2800000000.0        0.00490595880356    0.015316855389      0.992552013917      -0.0855775739471    0.992552013917      -0.0855775739471    0.00490595880356    0.015316855389      
2900000000.0        0.00500529104862    0.0158575161033     0.992270302189      -0.0886254376598    0.992270302189      -0.0886254376598    0.00500529104862    0.0158575161033     
3000000000.0        0.00510790529262    0.0163975322931     0.991978980823      -0.0916724131616    0.991978980823      -0.0916724131616    0.00510790529262    0.0163975322931     
3100000000.0        0.00521380165398    0.0169368832895     0.991678048741      -0.094718469267     0.991678048741      -0.094718469267     0.00521380165398    0.0169368832895     
3200000000.0        0.00532297975575    0.0174755484474     0.99136750535       -0.0977635747508    0.99136750535       -0.0977635747508    0.00532297975575    0.0174755484474     
3300000000.0        0.00543543876705    0.0180135071475     0.991047350501      -0.100807698351     0.991047350501      -0.100807698351     0.00543543876705    0.0180135071475     
3400000000.0        0.00555117743886    0.0185507387986     0.990717584456      -0.103850808774     0.990717584456      -0.103850808774     0.00555117743886    0.0185507387986     
3500000000.0        0.00567019413504    0.0190872228392     0.990378207852      -0.106892874697     0.990378207852      -0.106892874697     0.00567019413504    0.0190872228392     
3600000000.0        0.00579248685939    0.019622938739      0.99002922168       -0.109933864771     0.99002922168       -0.109933864771     0.00579248685939    0.019622938739      
3700000000.0        0.00591805327926    0.0201578660004     0.989670627257      -0.112973747625     0.989670627257      -0.112973747625     0.00591805327926    0.0201578660004     
3800000000.0        0.00604689074637    0.0206919841603     0.989302426209      -0.116012491866     0.989302426209      -0.116012491866     0.00604689074637    0.0206919841603     
3900000000.0        0.00617899631514    0.0212252727909     0.988924620454      -0.119050066086     0.988924620454      -0.119050066086     0.00617899631514    0.0212252727909     
4000000000.0        0.00631436675888    0.0217577115015     0.988537212181      -0.122086438861     0.988537212181      -0.122086438861     0.00631436675888    0.0217577115015     
4100000000.0        0.00645299858423    0.0222892799392     0.988140203843      -0.125121578754     0.988140203843      -0.125121578754     0.00645299858423    0.0222892799392     
4200000000.0        0.00659488804399    0.0228199577907     0.987733598139      -0.128155454318     0.987733598139      -0.128155454318     0.00659488804399    0.0228199577907     
4300000000.0        0.00674003114858    0.0233497247826     0.987317398004      -0.131188034097     0.987317398004      -0.131188034097     0.00674003114858    0.0233497247826     
4400000000.0        0.00688842367635    0.0238785606832     0.986891606603      -0.13421928663      0.986891606603      -0.13421928663      0.00688842367635    0.0238785606832     
4500000000.0        0.00704006118285    0.0244064453029     0.986456227316      -0.137249180449     0.986456227316      -0.137249180449     0.00704006118285    0.0244064453029     
4600000000.0        0.00719493900916    0.0249333584958     0.986011263734      -0.140277684086     0.986011263734      -0.140277684086     0.00719493900916    0.0249333584958     
4700000000.0        0.00735305228946    0.0254592801601     0.985556719653      -0.14330476607      0.985556719653      -0.14330476607      0.00735305228946    0.0254592801601     
4800000000.0        0.00751439595788    0.0259841902393     0.985092599062      -0.146330394932     0.985092599062      -0.146330394932     0.00751439595789    0.0259841902393     
4900000000.0        0.00767896475476    0.026508068723      0.984618906144      -0.149354539204     0.984618906144      -0.149354539204     0.00767896475476    0.026508068723      
5000000000.0        0.00784675323227    0.027030895648      0.984135645265      -0.152377167422     0.984135645265      -0.152377167422     0.00784675323227    0.027030895648      
5100000000.0        0.0080177557597     0.0275526510989     0.983642820972      -0.155398248129     0.983642820972      -0.155398248129     0.0080177557597     0.0275526510989     
5200000000.0        0.00819196652813    0.0280733152088     0.983140437988      -0.158417749873     0.983140437988      -0.158417749873     0.00819196652813    0.0280733152088     
5300000000.0        0.0083693795549     0.0285928681607     0.982628501208      -0.16143564121      0.982628501208      -0.16143564121      0.0083693795549     0.0285928681607     
5400000000.0        0.00854998868755    0.0291112901877     0.982107015694      -0.164451890707     0.982107015694      -0.164451890707     0.00854998868755    0.0291112901877     
5500000000.0        0.00873378760761    0.0296285615741     0.981575986675      -0.167466466939     0.981575986675      -0.167466466939     0.00873378760761    0.0296285615741     
5600000000.0        0.00892076983404    0.0301446626561     0.981035419539      -0.170479338496     0.981035419539      -0.170479338496     0.00892076983404    0.0301446626561     
5700000000.0        0.00911092872637    0.0306595738226     0.980485319835      -0.173490473979     0.980485319835      -0.173490473979     0.00911092872637    0.0306595738226     
5800000000.0        0.00930425748773    0.0311732755158     0.979925693267      -0.176499842006     0.979925693267      -0.176499842006     0.00930425748773    0.0311732755158     
5900000000.0        0.00950074916759    0.0316857482324     0.979356545692      -0.179507411207     0.979356545692      -0.179507411207     0.00950074916759    0.0316857482324     
6000000000.0        0.00970039666433    0.0321969725235     0.978777883119      -0.182513150231     0.978777883119      -0.182513150231     0.00970039666433    0.0321969725235     
6100000000.0        0.00990319272769    0.0327069289962     0.978189711707      -0.185517027746     0.978189711707      -0.185517027746     0.00990319272769    0.0327069289962     
6200000000.0        0.010109129961      0.033215598314      0.97759203776       -0.188519012437     0.97759203776       -0.188519012437     0.010109129961      0.033215598314      
6300000000.0        0.0103182008234     0.033722961197      0.976984867729      -0.191519073009     0.976984867729      -0.191519073009     0.0103182008234     0.033722961197      
6400000000.0        0.0105303976317     0.0342289984236     0.976368208207      -0.194517178188     0.976368208207      -0.194517178188     0.0105303976317     0.0342289984236     
6500000000.0        0.0107457125624     0.0347336908302     0.975742065932      -0.197513296724     0.975742065932      -0.197513296724     0.0107457125624     0.0347336908302     
6600000000.0        0.0109641376534     0.0352370193127     0.975106447778      -0.200507397389     0.975106447778      -0.200507397389     0.0109641376534     0.0352370193127     
6700000000.0        0.0111856648057     0.0357389648266     0.974461360762      -0.203499448978     0.974461360762      -0.203499448978     0.0111856648057     0.0357389648266     
6800000000.0        0.0114102857852     0.0362395083878     0.973806812036      -0.206489420312     0.973806812036      -0.206489420312     0.0114102857852     0.0362395083878     
6900000000.0        0.0116379922239     0.0367386310737     0.973142808889      -0.209477280238     0.973142808889      -0.209477280238     0.0116379922239     0.0367386310737     
7000000000.0        0.0118687756217     0.0372363140232     0.972469358746      -0.21246299763      0.972469358746      -0.21246299763      0.0118687756217     0.0372363140232     
7100000000.0        0.0121026273475     0.0377325384379     0.971786469164      -0.215446541389     0.971786469164      -0.215446541389     0.0121026273475     0.0377325384379     
7200000000.0        0.0123395386408     0.0382272855824     0.971094147835      -0.218427880446     0.971094147835      -0.218427880446     0.0123395386408     0.0382272855824     
7300000000.0        0.0125795006128     0.0387205367852     0.970392402582      -0.221406983761     0.970392402582      -0.221406983761     0.0125795006128     0.0387205367852     
7400000000.0        0.0128225042477     0.0392122734393     0.969681241358      -0.224383820324     0.969681241358      -0.224383820324     0.0128225042477     0.0392122734393     
7500000000.0        0.0130685404039     0.0397024770025     0.968960672247      -0.227358359157     0.968960672247      -0.227358359157     0.0130685404039     0.0397024770025     
7600000000.0        0.0133175998151     0.0401911289985     0.968230703461      -0.230330569314     0.968230703461      -0.230330569314     0.0133175998151     0.0401911289985     
7700000000.0        0.0135696730914     0.0406782110175     0.967491343341      -0.233300419882     0.967491343341      -0.233300419882     0.0135696730914     0.0406782110175     
7800000000.0        0.0138247507204     0.0411637047163     0.966742600354      -0.236267879982     0.966742600354      -0.236267879982     0.0138247507204     0.0411637047163     
7900000000.0        0.0140828230684     0.0416475918197     0.965984483095      -0.239232918769     0.965984483095      -0.239232918769     0.0140828230684     0.0416475918197     
8000000000.0        0.0143438803811     0.0421298541205     0.965217000283      -0.242195505435     0.965217000283      -0.242195505435     0.0143438803811     0.0421298541205     
8100000000.0        0.0146079127845     0.0426104734804     0.964440160764      -0.245155609207     0.964440160764      -0.245155609207     0.0146079127845     0.0426104734804     
8200000000.0        0.0148749102865     0.0430894318304     0.963653973505      -0.248113199349     0.963653973505      -0.248113199349     0.0148749102865     0.0430894318304     
8300000000.0        0.015144862777      0.0435667111717     0.9628584476        -0.251068245163     0.9628584476        -0.251068245163     0.015144862777      0.0435667111717     
8400000000.0        0.0154177600294     0.0440422935762     0.962053592263      -0.25402071599      0.962053592263      -0.25402071599      0.0154177600294     0.0440422935762     
8500000000.0        0.0156935917012     0.044516161187      0.961239416832      -0.25697058121      0.961239416832      -0.25697058121      0.0156935917012     0.044516161187      
8600000000.0        0.0159723473349     0.044988296219      0.960415930764      -0.259917810242     0.960415930764      -0.259917810242     0.0159723473349     0.044988296219      
8700000000.0        0.016254016359      0.0454586809597     0.95958314364       -0.262862372548     0.95958314364       -0.262862372548     0.016254016359      0.0454586809597     
8800000000.0        0.0165385880886     0.0459272977695     0.958741065158      -0.265804237631     0.958741065158      -0.265804237631     0.0165385880886     0.0459272977695     
8900000000.0        0.0168260517264     0.0463941290825     0.957889705139      -0.268743375033     0.957889705139      -0.268743375033     0.0168260517264     0.0463941290825     
9000000000.0        0.0171163963634     0.046859157407      0.957029073519      -0.271679754344     0.957029073519      -0.271679754344     0.0171163963634     0.046859157407      
9100000000.0        0.0174096109796     0.0473223653261     0.956159180356      -0.274613345194     0.956159180356      -0.274613345194     0.0174096109796     0.0473223653261     
9200000000.0        0.0177056844451     0.0477837354981     0.955280035823      -0.277544117258     0.955280035823      -0.277544117258     0.0177056844451     0.0477837354981     
9300000000.0        0.0180046055205     0.0482432506576     0.954391650211      -0.280472040257     0.954391650211      -0.280472040257     0.0180046055205     0.0482432506576     
9400000000.0        0.018306362858      0.0487008936154     0.95349403393       -0.283397083957     0.95349403393       -0.283397083957     0.018306362858      0.0487008936154     
9500000000.0        0.0186109450017     0.0491566472595     0.952587197502      -0.286319218171     0.952587197502      -0.286319218171     0.0186109450017     0.0491566472595     
9600000000.0        0.0189183403889     0.0496104945555     0.951671151568      -0.289238412757     0.951671151568      -0.289238412757     0.0189183403889     0.0496104945555     
9700000000.0        0.0192285373504     0.0500624185472     0.950745906883      -0.292154637624     0.950745906883      -0.292154637624     0.0192285373504     0.0500624185472     
9800000000.0        0.0195415241112     0.050512402357      0.949811474315      -0.295067862726     0.949811474315      -0.295067862726     0.0195415241112     0.050512402357      
9900000000.0        0.0198572887916     0.0509604291869     0.948867864848      -0.297978058068     0.948867864848      -0.297978058068     0.0198572887916     0.0509604291869     
10000000000.0       0.0201758194077     0.0514064823186     0.947915089579      -0.300885193704     0.947915089579      -0.300885193704     0.0201758194077     0.0514064823186     
