# Hz S RI R 50.00 
100000000.0         0.0485176241248     0.00352682424366    0.951478839301      -0.00502413980663   0.951478839301      -0.00502413980663   0.0485176241248     0.00352682424366    
200000000.0         0.0488774282875     0.00704768022523    0.951114217931      -0.0100423236761    0.951114217931      -0.0100423236761    0.0488774282875     0.00704768022523    
300000000.0         0.0491918993112     0.0105643161316     0.950792648458      -0.0150563109424    0.950792648458      -0.0150563109424    0.0491918993112     0.0105643161316     
400000000.0         0.0495013215844     0.0140770249129     0.950473845951      -0.0200664043957    0.950473845951      -0.0200664043957    0.0495013215844     0.0140770249129     
500000000.0         0.0498212092379     0.0175857617982     0.950142295734      -0.0250725684491    0.950142295734      -0.0250725684491    0.0498212092379     0.0175857617982     
600000000.0         0.0501594601951     0.0210903330951     0.949790099308      -0.0300746181664    0.949790099308      -0.0300746181664    0.0501594601951     0.0210903330951     
700000000.0         0.0505207203804     0.0245904640596     0.949412610139      -0.0350722872483    0.949412610139      -0.0350722872483    0.0505207203804     0.0245904640596     
800000000.0         0.0509079776055     0.0280858304336     0.949006839755      -0.0400652596396    0.949006839755      -0.0400652596396    0.0509079776055     0.0280858304336     
900000000.0         0.0513232716952     0.0315760754426     0.948570747628      -0.045053186572     0.948570747628      -0.045053186572     0.0513232716952     0.0315760754426     
1000000000.0        0.05176805465       0.0350608199111     0.948102881002      -0.0500356967129    0.948102881002      -0.0500356967129    0.05176805465       0.0350608199111     
1100000000.0        0.052243390975      0.0385396687382     0.947602174564      -0.0550124026631    0.947602174564      -0.0550124026631    0.052243390975      0.0385396687382     
1200000000.0        0.0527500771246     0.042012215279      0.947067831001      -0.0599829053575    0.947067831001      -0.0599829053575    0.0527500771246     0.042012215279      
1300000000.0        0.0532887167016     0.0454780444471     0.946499245795      -0.0649467971816    0.946499245795      -0.0649467971816    0.0532887167016     0.0454780444471     
1400000000.0        0.0538597699244     0.0489367349949     0.94589595776       -0.0699036642627    0.94589595776       -0.0699036642627    0.0538597699244     0.0489367349949     
1500000000.0        0.0544635873664     0.0523878612429     0.945257615302      -0.074853088209     0.945257615302      -0.074853088209     0.0544635873664     0.0523878612429     
1600000000.0        0.05510043368       0.0558309944288     0.94458395269       -0.0797946474665    0.94458395269       -0.0797946474665    0.05510043368       0.0558309944288     
1700000000.0        0.0557705047184     0.0592657037854     0.943874772939      -0.0847279184032    0.943874772939      -0.0847279184032    0.0557705047184     0.0592657037854     
1800000000.0        0.0564739401744     0.0626915574194     0.94312993517       -0.0896524761938    0.94312993517       -0.0896524761938    0.0564739401744     0.0626915574194     
1900000000.0        0.0572108330971     0.0661081230438     0.942349345092      -0.0945678955567    0.942349345092      -0.0945678955567    0.0572108330971     0.0661081230438     
2000000000.0        0.0579812371842     0.0695149685967     0.941532947709      -0.0994737513777    0.941532947709      -0.0994737513777    0.0579812371842     0.0695149685967     
2100000000.0        0.0587851724602     0.0729116627741     0.940680721645      -0.104369619245     0.940680721645      -0.104369619245     0.0587851724602     0.0729116627741     
2200000000.0        0.059622629761      0.076297775493      0.939792674656      -0.109255075918     0.939792674656      -0.109255075918     0.059622629761      0.076297775493      
2300000000.0        0.0604935743215     0.0796728783008     0.938868840045      -0.114129699737     0.938868840045      -0.114129699737     0.0604935743215     0.0796728783008     
2400000000.0        0.0613979486838     0.0830365447402     0.937909273751      -0.118993070992     0.937909273751      -0.118993070992     0.0613979486838     0.0830365447402     
2500000000.0        0.0623356750779     0.0863883506768     0.936914051971      -0.123844772254     0.936914051971      -0.123844772254     0.0623356750779     0.0863883506768     
2600000000.0        0.0633066573943     0.0897278745984     0.935883269186      -0.128684388673     0.935883269186      -0.128684388673     0.0633066573943     0.0897278745984     
2700000000.0        0.0643107828337     0.0930546978866     0.934817036512      -0.133511508255     0.934817036512      -0.133511508255     0.0643107828337     0.0930546978866     
2800000000.0        0.0653479233006     0.0963684050691     0.933715480305      -0.138325722114     0.933715480305      -0.138325722114     0.0653479233006     0.0963684050691     
2900000000.0        0.0664179365911     0.0996685840515     0.932578740977      -0.143126624707     0.932578740977      -0.143126624707     0.0664179365911     0.0996685840515     
3000000000.0        0.0675206674152     0.102954826334      0.931406971968      -0.14791381405      0.931406971968      -0.14791381405      0.0675206674152     0.102954826334      
3100000000.0        0.0686559482831     0.106226727214      0.930200338864      -0.152686891923     0.930200338864      -0.152686891923     0.0686559482831     0.106226727214      
3200000000.0        0.0698236002815     0.109483885974      0.928959018619      -0.157445464063     0.928959018619      -0.157445464063     0.0698236002815     0.109483885974      
3300000000.0        0.0710234337581     0.112725906064      0.927683198874      -0.162189140338     0.927683198874      -0.162189140338     0.0710234337581     0.112725906064      
3400000000.0        0.0722552489301     0.115952395265      0.926373077341      -0.166917534922     0.926373077341      -0.166917534922     0.0722552489301     0.115952395265      
3500000000.0        0.0735188364303     0.119162965849      0.925028861264      -0.171630266452     0.925028861264      -0.171630266452     0.0735188364303     0.119162965849      
3600000000.0        0.0748139777993     0.122357234733      0.923650766925      -0.176326958178     0.923650766925      -0.176326958178     0.0748139777993     0.122357234733      
3700000000.0        0.0761404459335     0.125534823614      0.922239019193      -0.18100723811      0.922239019193      -0.18100723811      0.0761404459335     0.125534823614      
3800000000.0        0.0774980054958     0.12869535911       0.920793851119      -0.185670739148     0.920793851119      -0.185670739148     0.0774980054958     0.12869535911       
3900000000.0        0.0788864132933     0.131838472886      0.919315503551      -0.190317099216     0.919315503551      -0.190317099216     0.0788864132933     0.131838472886      
4000000000.0        0.0803054186281     0.134963801775      0.917804224789      -0.194945961382     0.917804224789      -0.194945961382     0.0803054186281     0.134963801775      
4100000000.0        0.081754763625      0.138070987889      0.916260270257      -0.19955697397      0.916260270257      -0.19955697397      0.081754763625      0.138070987889      
4200000000.0        0.0832341835387     0.141159678737      0.914683902193      -0.204149790675     0.914683902193      -0.204149790675     0.0832341835387     0.141159678737      
4300000000.0        0.0847434070431     0.144229527316      0.913075389359      -0.208724070664     0.913075389359      -0.208724070664     0.0847434070431     0.144229527316      
4400000000.0        0.0862821565068     0.147280192221      0.911435006771      -0.213279478675     0.911435006771      -0.213279478675     0.0862821565068     0.147280192221      
4500000000.0        0.0878501482541     0.150311337725      0.909763035431      -0.217815685105     0.909763035431      -0.217815685105     0.0878501482541     0.150311337725      
4600000000.0        0.0894470928154     0.153322633877      0.908059762083      -0.222332366106     0.908059762083      -0.222332366106     0.0894470928154     0.153322633877      
4700000000.0        0.0910726951671     0.156313756574      0.906325478968      -0.22682920366      0.906325478968      -0.22682920366      0.0910726951671     0.156313756574      
4800000000.0        0.0927266549634     0.159284387645      0.904560483596      -0.231305885658     0.904560483596      -0.231305885658     0.0927266549634     0.159284387645      
4900000000.0        0.0944086667587     0.162234214918      0.90276507852       -0.235762105975     0.90276507852       -0.235762105975     0.0944086667587     0.162234214918      
5000000000.0        0.0961184202251     0.16516293229       0.900939571122      -0.240197564534     0.900939571122      -0.240197564534     0.0961184202251     0.16516293229       
5100000000.0        0.0978556003618     0.168070239791      0.899084273401      -0.244611967371     0.899084273401      -0.244611967371     0.0978556003618     0.168070239791      
5200000000.0        0.0996198877002     0.170955843636      0.897199501768      -0.249005026694     0.897199501768      -0.249005026694     0.0996198877002     0.170955843636      
5300000000.0        0.101410958503      0.173819456285      0.89528557685       -0.253376460936     0.89528557685       -0.253376460936     0.101410958503      0.173819456285      
5400000000.0        0.10322848496       0.176660796489      0.893342823289      -0.257725994803     0.893342823289      -0.257725994803     0.10322848496       0.176660796489      
5500000000.0        0.105072135378      0.179479589334      0.891371569557      -0.262053359322     0.891371569557      -0.262053359322     0.105072135378      0.179479589334      
5600000000.0        0.106941574367      0.182275566286      0.889372147766      -0.266358291881     0.889372147766      -0.266358291881     0.106941574367      0.182275566286      
5700000000.0        0.108836463027      0.185048465222      0.887344893484      -0.270640536264     0.887344893484      -0.270640536264     0.108836463027      0.185048465222      
5800000000.0        0.110756459124      0.187798030465      0.885290145557      -0.274899842688     0.885290145557      -0.274899842688     0.110756459124      0.187798030465      
5900000000.0        0.112701217268      0.190524012814      0.883208245931      -0.279135967826     0.883208245931      -0.279135967826     0.112701217268      0.190524012814      
6000000000.0        0.114670389089      0.193226169565      0.881099539479      -0.283348674836     0.881099539479      -0.283348674836     0.114670389089      0.193226169565      
6100000000.0        0.116663623405      0.195904264535      0.878964373825      -0.287537733381     0.878964373825      -0.287537733381     0.116663623405      0.195904264535      
6200000000.0        0.118680566395      0.198558068074      0.876803099184      -0.291702919644     0.876803099184      -0.291702919644     0.118680566395      0.198558068074      
6300000000.0        0.120720861759      0.201187357084      0.874616068188      -0.295844016343     0.874616068188      -0.295844016343     0.120720861759      0.201187357084      
6400000000.0        0.122784150886      0.203791915024      0.872403635728      -0.299960812741     0.872403635728      -0.299960812741     0.122784150886      0.203791915024      
6500000000.0        0.124870073013      0.206371531916      0.870166158788      -0.30405310465      0.870166158788      -0.30405310465      0.124870073013      0.206371531916      
6600000000.0        0.126978265384      0.208926004348      0.867903996292      -0.308120694436     0.867903996292      -0.308120694436     0.126978265384      0.208926004348      
6700000000.0        0.129108363407      0.211455135475      0.865617508942      -0.312163391013     0.865617508942      -0.312163391013     0.129108363407      0.211455135475      
6800000000.0        0.131260000808      0.213958735009      0.863307059068      -0.316181009845     0.863307059068      -0.316181009845     0.131260000808      0.213958735009      
6900000000.0        0.13343280978       0.216436619214      0.860973010473      -0.320173372933     0.860973010473      -0.320173372933     0.13343280978       0.216436619214      
7000000000.0        0.135626421136      0.218888610897      0.858615728289      -0.324140308806     0.858615728289      -0.324140308806     0.135626421136      0.218888610897      
7100000000.0        0.137840464454      0.221314539386      0.85623557882       -0.328081652506     0.85623557882       -0.328081652506     0.137840464454      0.221314539386      
7200000000.0        0.140074568224      0.223714240521      0.853832929408      -0.33199724557      0.853832929408      -0.33199724557      0.140074568224      0.223714240521      
7300000000.0        0.142328359989      0.226087556628      0.851408148282      -0.335886936012     0.851408148282      -0.335886936012     0.142328359989      0.226087556628      
7400000000.0        0.144601466484      0.228434336496      0.848961604421      -0.339750578295     0.848961604421      -0.339750578295     0.144601466484      0.228434336496      
7500000000.0        0.14689351378       0.230754435349      0.846493667415      -0.343588033308     0.846493667415      -0.343588033308     0.14689351378       0.230754435349      
7600000000.0        0.149204127413      0.233047714823      0.844004707328      -0.347399168335     0.844004707328      -0.347399168335     0.149204127413      0.233047714823      
7700000000.0        0.151532932523      0.235314042924      0.841495094567      -0.351183857025     0.841495094567      -0.351183857025     0.151532932523      0.235314042924      
7800000000.0        0.153879553981      0.237553294001      0.838965199745      -0.354941979352     0.838965199745      -0.354941979352     0.153879553981      0.237553294001      
7900000000.0        0.156243616523      0.239765348704      0.836415393558      -0.358673421586     0.836415393558      -0.358673421586     0.156243616523      0.239765348704      
8000000000.0        0.158624744872      0.241950093945      0.833846046655      -0.362378076243     0.833846046655      -0.362378076243     0.158624744872      0.241950093945      
8100000000.0        0.161022563867      0.244107422857      0.831257529513      -0.366055842052     0.831257529513      -0.366055842052     0.161022563867      0.244107422857      
8200000000.0        0.163436698581      0.246237234748      0.828650212314      -0.369706623905     0.828650212314      -0.369706623905     0.163436698581      0.246237234748      
8300000000.0        0.165866774445      0.248339435051      0.826024464828      -0.373330332808     0.826024464828      -0.373330332808     0.165866774445      0.248339435051      
8400000000.0        0.168312417361      0.250413935281      0.823380656292      -0.376926885837     0.823380656292      -0.376926885837     0.168312417361      0.250413935281      
8500000000.0        0.17077325382       0.252460652975      0.820719155299      -0.380496206084     0.820719155299      -0.380496206084     0.17077325382       0.252460652975      
8600000000.0        0.173248911015      0.254479511647      0.81804032968       -0.384038222602     0.81804032968       -0.384038222602     0.173248911015      0.254479511647      
8700000000.0        0.175739016949      0.256470440724      0.815344546398      -0.387552870352     0.815344546398      -0.387552870352     0.175739016949      0.256470440724      
8800000000.0        0.178243200546      0.258433375495      0.812632171436      -0.391040090144     0.812632171436      -0.391040090144     0.178243200546      0.258433375495      
8900000000.0        0.180761091752      0.260368257049      0.809903569696      -0.394499828575     0.809903569696      -0.394499828575     0.180761091752      0.260368257049      
9000000000.0        0.183292321643      0.262275032213      0.807159104891      -0.397932037975     0.807159104891      -0.397932037975     0.183292321643      0.262275032213      
9100000000.0        0.185836522521      0.264153653488      0.804399139448      -0.401336676337     0.804399139448      -0.401336676337     0.185836522521      0.264153653488      
9200000000.0        0.188393328017      0.266004078989      0.801624034409      -0.404713707257     0.801624034409      -0.404713707257     0.188393328017      0.266004078989      
9300000000.0        0.190962373182      0.267826272376      0.798834149331      -0.408063099865     0.798834149331      -0.408063099865     0.190962373182      0.267826272376      
9400000000.0        0.193543294582      0.269620202784      0.7960298422        -0.411384828759     0.7960298422        -0.411384828759     0.193543294582      0.269620202784      
9500000000.0        0.196135730391      0.271385844759      0.793211469334      -0.414678873937     0.793211469334      -0.414678873937     0.196135730391      0.271385844759      
9600000000.0        0.198739320477      0.273123178186      0.790379385296      -0.417945220725     0.790379385296      -0.417945220725     0.198739320477      0.273123178186      
9700000000.0        0.201353706486      0.274832188214      0.78753394281       -0.421183859708     0.78753394281       -0.421183859708     0.201353706486      0.274832188214      
9800000000.0        0.203978531931      0.276512865189      0.784675492674      -0.424394786654     0.784675492674      -0.424394786654     0.203978531931      0.276512865189      
9900000000.0        0.206613442266      0.278165204576      0.781804383681      -0.427578002443     0.781804383681      -0.427578002443     0.206613442266      0.278165204576      
10000000000.0       0.209258084972      0.279789206886      0.778920962542      -0.430733512991     0.778920962542      -0.430733512991     0.209258084972      0.279789206886      
