# Hz S RI R 50.00 
100000000.0         0.0324559912529     0.00218606101833    0.967542238412      -0.00280746826601   0.967542238412      -0.00280746826601   0.0324559912529     0.00218606101833    
200000000.0         0.032681533351      0.00436990052795    0.967315535437      -0.00561272291901   0.967315535437      -0.00561272291901   0.032681533351      0.00436990052795    
300000000.0         0.0328634427344     0.00655230202033    0.967132074551      -0.00841655219773   0.967132074551      -0.00841655219773   0.0328634427344     0.00655230202033    
400000000.0         0.033029164496      0.00873348011381    0.966964410588      -0.0112191745302    0.966964410588      -0.0112191745302    0.033029164496      0.00873348011381    
500000000.0         0.0331892920029     0.0109135168566     0.966801950104      -0.0140206753006    0.966801950104      -0.0140206753006    0.0331892920029     0.0109135168566     
600000000.0         0.0333492378889     0.0130924355295     0.966639280389      -0.0168210808145    0.966639280389      -0.0168210808145    0.0333492378889     0.0130924355295     
700000000.0         0.0335122041997     0.0152702271816     0.966473199315      -0.0196203849177    0.966473199315      -0.0196203849177    0.0335122041997     0.0152702271816     
800000000.0         0.0336802674801     0.0174468629513     0.966301630251      -0.0224185613672    0.966301630251      -0.0224185613672    0.0336802674801     0.0174468629513     
900000000.0         0.0338548623701     0.0196223006901     0.966123138467      -0.0252155704875    0.966123138467      -0.0252155704875    0.0338548623701     0.0196223006901     
1000000000.0        0.0340370269542     0.0217964888903     0.965936685783      -0.0280113631214    0.965936685783      -0.0280113631214    0.0340370269542     0.0217964888903     
1100000000.0        0.0342275392715     0.0239693691821     0.965741494062      -0.0308058831444    0.965741494062      -0.0308058831444    0.0342275392715     0.0239693691821     
1200000000.0        0.0344269987297     0.02614087801       0.965536963793      -0.0335990691535    0.965536963793      -0.0335990691535    0.0344269987297     0.02614087801       
1300000000.0        0.0346358773724     0.0283109478047     0.965322622824      -0.03639085565      0.965322622824      -0.03639085565      0.0346358773724     0.0283109478047     
1400000000.0        0.0348545536056     0.0304795078329     0.965098092638      -0.0391811738974    0.965098092638      -0.0391811738974    0.0348545536056     0.0304795078329     
1500000000.0        0.0350833351997     0.0326464848299     0.964863065347      -0.0419699525604    0.964863065347      -0.0419699525604    0.0350833351997     0.0326464848299     
1600000000.0        0.0353224754589     0.0348118034827     0.964617287528      -0.0447571181939    0.964617287528      -0.0447571181939    0.0353224754589     0.0348118034827     
1700000000.0        0.0355721848838     0.0369753868062     0.964360548555      -0.0475425956239    0.964360548555      -0.0475425956239    0.0355721848838     0.0369753868062     
1800000000.0        0.0358326397721     0.039137156442      0.964092672001      -0.0503263082509    0.964092672001      -0.0503263082509    0.0358326397721     0.039137156442      
1900000000.0        0.0361039886852     0.0412970328991     0.963813509174      -0.0531081782934    0.963813509174      -0.0531081782934    0.0361039886852     0.0412970328991     
2000000000.0        0.0363863573937     0.0434549357513     0.963522934166      -0.0558881269886    0.963522934166      -0.0558881269886    0.0363863573937     0.0434549357513     
2100000000.0        0.036679852717      0.0456107838        0.963220840017      -0.0586660747583    0.963220840017      -0.0586660747583    0.036679852717      0.0456107838        
2200000000.0        0.0369845655452     0.0477644952112     0.962907135695      -0.0614419413479    0.962907135695      -0.0614419413479    0.0369845655452     0.0477644952112     
2300000000.0        0.0373005732454     0.0499159876314     0.962581743683      -0.0642156459447    0.962581743683      -0.0642156459447    0.0373005732454     0.0499159876314     
2400000000.0        0.0376279416006     0.0520651782869     0.962244598049      -0.0669871072789    0.962244598049      -0.0669871072789    0.0376279416006     0.0520651782869     
2500000000.0        0.0379667263856     0.0542119840693     0.961895642862      -0.0697562437112    0.961895642862      -0.0697562437112    0.0379667263856     0.0542119840693     
2600000000.0        0.0383169746616     0.0563563216103     0.961534830903      -0.0725229733086    0.961534830903      -0.0725229733086    0.0383169746616     0.0563563216103     
2700000000.0        0.0386787258473     0.0584981073469     0.961162122592      -0.0752872139117    0.961162122592      -0.0752872139117    0.0386787258473     0.0584981073469     
2800000000.0        0.0390520126124     0.0606372575795     0.960777485095      -0.0780488831937    0.960777485095      -0.0780488831937    0.0390520126124     0.0606372575795     
2900000000.0        0.0394368616282     0.0627736885231     0.960380891572      -0.0808078987132    0.960380891572      -0.0808078987132    0.0394368616282     0.0627736885231     
3000000000.0        0.039833294203      0.064907316354      0.959972320543      -0.0835641779613    0.959972320543      -0.0835641779613    0.039833294203      0.064907316354      
3100000000.0        0.0402413268221     0.0670380572509     0.959551755349      -0.0863176384046    0.959551755349      -0.0863176384046    0.0402413268221     0.0670380572509     
3200000000.0        0.0406609716103     0.0691658274327     0.959119183686      -0.0890681975234    0.959119183686      -0.0890681975234    0.0406609716103     0.0691658274327     
3300000000.0        0.0410922367304     0.0712905431932     0.958674597212      -0.0918157728473    0.958674597212      -0.0918157728473    0.0410922367304     0.0712905431932     
3400000000.0        0.0415351267274     0.0734121209321     0.958217991198      -0.0945602819874    0.958217991198      -0.0945602819874    0.0415351267274     0.0734121209321     
3500000000.0        0.041989642828      0.0755304771843     0.95774936423       -0.0973016426661    0.95774936423       -0.0973016426661    0.041989642828      0.0755304771843     
3600000000.0        0.042455783202      0.0776455286467     0.957268717948      -0.100039772744     0.957268717948      -0.100039772744     0.042455783202      0.0776455286467     
3700000000.0        0.0429335431921     0.0797571922026     0.956776056818      -0.102774590248     0.956776056818      -0.102774590248     0.0429335431921     0.0797571922026     
3800000000.0        0.043422915516      0.0818653849455     0.956271387926      -0.10550601339      0.956271387926      -0.10550601339      0.043422915516      0.0818653849455     
3900000000.0        0.0439238904448     0.0839700242002     0.955754720804      -0.108233960594     0.955754720804      -0.108233960594     0.0439238904448     0.0839700242002     
4000000000.0        0.0444364559627     0.0860710275434     0.955226067266      -0.110958350515     0.955226067266      -0.110958350515     0.0444364559627     0.0860710275434     
4100000000.0        0.0449605979075     0.0881683128227     0.95468544127       -0.113679102059     0.95468544127       -0.113679102059     0.0449605979075     0.0881683128227     
4200000000.0        0.0454963000982     0.0902617981745     0.954132858793      -0.116396134401     0.954132858793      -0.116396134401     0.0454963000982     0.0902617981745     
4300000000.0        0.0460435444482     0.0923514020415     0.953568337711      -0.119109367003     0.953568337711      -0.119109367003     0.0460435444482     0.0923514020415     
4400000000.0        0.046602311068      0.0944370431883     0.952991897702      -0.121818719631     0.952991897702      -0.121818719631     0.046602311068      0.0944370431883     
4500000000.0        0.0471725783574     0.0965186407174     0.952403560154      -0.12452411237      0.952403560154      -0.12452411237      0.0471725783574     0.0965186407174     
4600000000.0        0.0477543230901     0.0985961140832     0.951803348076      -0.127225465639     0.951803348076      -0.127225465639     0.0477543230901     0.0985961140832     
4700000000.0        0.0483475204894     0.100669383107      0.951191286026      -0.129922700207     0.951191286026      -0.129922700207     0.0483475204894     0.100669383107      
4800000000.0        0.0489521442987     0.102738367989      0.95056740004       -0.132615737206     0.95056740004       -0.132615737206     0.0489521442987     0.102738367989      
4900000000.0        0.0495681668443     0.104802989322      0.949931717567      -0.135304498142     0.949931717567      -0.135304498142     0.0495681668443     0.104802989322      
5000000000.0        0.050195559095      0.106863168104      0.949284267413      -0.13798890491      0.949284267413      -0.13798890491      0.050195559095      0.106863168104      
5100000000.0        0.0508342907154     0.10891882575       0.948625079686      -0.140668879809     0.948625079686      -0.140668879809     0.0508342907154     0.10891882575       
5200000000.0        0.0514843301158     0.110969884103      0.947954185745      -0.143344345545     0.947954185745      -0.143344345545     0.0514843301158     0.110969884103      
5300000000.0        0.0521456444985     0.113016265443      0.947271618154      -0.146015225252     0.947271618154      -0.146015225252     0.0521456444985     0.113016265443      
5400000000.0        0.0528181999006     0.115057892503      0.946577410643      -0.148681442497     0.946577410643      -0.148681442497     0.0528181999006     0.115057892503      
5500000000.0        0.0535019612337     0.117094688473      0.945871598063      -0.151342921293     0.945871598063      -0.151342921293     0.0535019612337     0.117094688473      
5600000000.0        0.0541968923212     0.119126577014      0.945154216351      -0.153999586106     0.945154216351      -0.153999586106     0.0541968923212     0.119126577014      
5700000000.0        0.0549029559334     0.121153482266      0.944425302495      -0.156651361869     0.944425302495      -0.156651361869     0.0549029559334     0.121153482266      
5800000000.0        0.05562011382       0.123175328857      0.943684894504      -0.15929817399      0.943684894504      -0.15929817399      0.05562011382       0.123175328857      
5900000000.0        0.0563483267409     0.125192041913      0.942933031372      -0.161939948358     0.942933031372      -0.161939948358     0.0563483267409     0.125192041913      
6000000000.0        0.0570875544951     0.127203547065      0.942169753053      -0.164576611357     0.942169753053      -0.164576611357     0.0570875544951     0.127203547065      
6100000000.0        0.0578377559488     0.129209770458      0.941395100432      -0.16720808987      0.941395100432      -0.16720808987      0.0578377559488     0.129209770458      
6200000000.0        0.0585988890607     0.131210638762      0.940609115299      -0.169834311293     0.940609115299      -0.169834311293     0.0585988890607     0.131210638762      
6300000000.0        0.059370910907      0.133206079175      0.939811840325      -0.172455203534     0.939811840325      -0.172455203534     0.059370910907      0.133206079175      
6400000000.0        0.0601537777052     0.135196019432      0.939003319038      -0.175070695032     0.939003319038      -0.175070695032     0.0601537777052     0.135196019432      
6500000000.0        0.0609474448361     0.137180387815      0.9381835958        -0.177680714754     0.9381835958        -0.177680714754     0.0609474448361     0.137180387815      
6600000000.0        0.061751866866      0.139159113159      0.937352715786      -0.18028519221      0.937352715786      -0.18028519221      0.061751866866      0.139159113159      
6700000000.0        0.0625669975666     0.141132124856      0.936510724966      -0.182884057457     0.936510724966      -0.182884057457     0.0625669975666     0.141132124856      
6800000000.0        0.0633927899352     0.143099352865      0.935657670079      -0.185477241105     0.935657670079      -0.185477241105     0.0633927899352     0.143099352865      
6900000000.0        0.0642291962136     0.145060727718      0.934793598621      -0.188064674327     0.934793598621      -0.188064674327     0.0642291962136     0.145060727718      
7000000000.0        0.0650761679067     0.147016180526      0.93391855882       -0.190646288861     0.93391855882       -0.190646288861     0.0650761679067     0.147016180526      
7100000000.0        0.0659336557997     0.148965642984      0.933032599626      -0.193222017019     0.933032599626      -0.193222017019     0.0659336557997     0.148965642984      
7200000000.0        0.0668016099759     0.150909047378      0.932135770685      -0.195791791695     0.932135770685      -0.195791791695     0.0668016099759     0.150909047378      
7300000000.0        0.0676799798329     0.152846326591      0.93122812233       -0.198355546366     0.93122812233       -0.198355546366     0.0676799798329     0.152846326591      
7400000000.0        0.0685687140989     0.154777414109      0.930309705561      -0.200913215102     0.930309705561      -0.200913215102     0.0685687140989     0.154777414109      
7500000000.0        0.0694677608482     0.156702244023      0.92938057203       -0.203464732568     0.92938057203       -0.203464732568     0.0694677608482     0.156702244023      
7600000000.0        0.0703770675168     0.15862075104       0.928440774027      -0.206010034034     0.928440774027      -0.206010034034     0.0703770675168     0.15862075104       
7700000000.0        0.0712965809167     0.160532870481      0.927490364462      -0.208549055374     0.927490364462      -0.208549055374     0.0712965809167     0.160532870481      
7800000000.0        0.0722262472512     0.162438538294      0.926529396855      -0.211081733078     0.926529396855      -0.211081733078     0.0722262472512     0.162438538294      
7900000000.0        0.0731660121283     0.16433769105       0.925557925317      -0.213608004249     0.925557925317      -0.213608004249     0.0731660121283     0.16433769105       
8000000000.0        0.074115820575      0.166230265955      0.924576004542      -0.216127806616     0.924576004542      -0.216127806616     0.074115820575      0.166230265955      
8100000000.0        0.0750756170511     0.16811620085       0.923583689787      -0.218641078532     0.923583689787      -0.218641078532     0.0750756170511     0.16811620085       
8200000000.0        0.0760453454617     0.169995434215      0.922581036863      -0.22114775898      0.922581036863      -0.22114775898      0.0760453454617     0.169995434215      
8300000000.0        0.0770249491712     0.171867905178      0.92156810212       -0.223647787579     0.92156810212       -0.223647787579     0.0770249491712     0.171867905178      
8400000000.0        0.0780143710156     0.17373355351       0.920544942437      -0.226141104588     0.920544942437      -0.226141104588     0.0780143710156     0.17373355351       
8500000000.0        0.0790135533153     0.17559231964       0.919511615204      -0.228627650905     0.919511615204      -0.228627650905     0.0790135533153     0.17559231964       
8600000000.0        0.0800224378871     0.177444144648      0.918468178316      -0.231107368077     0.918468178316      -0.231107368077     0.0800224378871     0.177444144648      
8700000000.0        0.0810409660573     0.179288970276      0.917414690157      -0.233580198301     0.917414690157      -0.233580198301     0.0810409660573     0.179288970276      
8800000000.0        0.0820690786729     0.181126738926      0.916351209587      -0.236046084427     0.916351209587      -0.236046084427     0.0820690786729     0.181126738926      
8900000000.0        0.0831067161136     0.182957393667      0.915277795934      -0.238504969959     0.915277795934      -0.238504969959     0.0831067161136     0.182957393667      
9000000000.0        0.0841538183041     0.184780878235      0.91419450898       -0.240956799065     0.91419450898       -0.240956799065     0.0841538183041     0.184780878235      
9100000000.0        0.0852103247247     0.186597137041      0.913101408947      -0.243401516571     0.913101408947      -0.243401516571     0.0852103247247     0.186597137041      
9200000000.0        0.0862761744237     0.188406115164      0.911998556492      -0.245839067971     0.911998556492      -0.245839067971     0.0862761744237     0.188406115164      
9300000000.0        0.0873513060279     0.190207758366      0.91088601269       -0.248269399427     0.91088601269       -0.248269399427     0.0873513060279     0.190207758366      
9400000000.0        0.0884356577541     0.192002013083      0.909763839025      -0.250692457771     0.909763839025      -0.250692457771     0.0884356577541     0.192002013083      
9500000000.0        0.0895291674199     0.193788826435      0.90863209738       -0.253108190507     0.90863209738       -0.253108190507     0.0895291674199     0.193788826435      
9600000000.0        0.0906317724549     0.195568146224      0.907490850024      -0.255516545814     0.907490850024      -0.255516545814     0.0906317724549     0.195568146224      
9700000000.0        0.0917434099111     0.197339920938      0.906340159603      -0.257917472551     0.906340159603      -0.257917472551     0.0917434099111     0.197339920938      
9800000000.0        0.092864016474      0.199104099754      0.905180089127      -0.260310920253     0.905180089127      -0.260310920253     0.092864016474      0.199104099754      
9900000000.0        0.0939935284727     0.200860632535      0.904010701964      -0.262696839136     0.904010701964      -0.262696839136     0.0939935284727     0.200860632535      
10000000000.0       0.0951318818907     0.202609469837      0.902832061825      -0.265075180102     0.902832061825      -0.265075180102     0.0951318818907     0.202609469837      
