# Hz S RI R 50.00 
100000000.0         -0.000260817709178  -0.0168844083218    0.99963924241       -0.0173646732685    0.99963924241       -0.0173646732685    -0.000260817709178  -0.0168844083218    
200000000.0         -0.00115623526077   -0.0337381015858    0.998742798839      -0.0346987290274    0.998742798839      -0.0346987290274    -0.00115623526077   -0.0337381015858    
300000000.0         -0.00263419197303   -0.0505314846522    0.997263757143      -0.051972623947     0.997263757143      -0.051972623947     -0.00263419197303   -0.0505314846522    
400000000.0         -0.00468958432333   -0.0672352497327    0.995207134596      -0.0691570902781    0.995207134596      -0.0691570902781    -0.00468958432333   -0.0672352497327    
500000000.0         -0.00731538665197   -0.0838205675277    0.992579923541      -0.0862233326843    0.992579923541      -0.0862233326843    -0.00731538665197   -0.0838205675277    
600000000.0         -0.0105026886858    -0.10025925645      0.989391017105      -0.103143199453     0.989391017105      -0.103143199453     -0.0105026886858    -0.10025925645      
700000000.0         -0.0142407631492    -0.116523939931     0.985651132261      -0.119889340821     0.985651132261      -0.119889340821     -0.0142407631492    -0.116523939931     
800000000.0         -0.0185171511908    -0.132588192575     0.98137272101       -0.136435355745     0.98137272101       -0.136435355745     -0.0185171511908    -0.132588192575     
900000000.0         -0.0233177620881    -0.148426674521     0.976569869167      -0.152755926675     0.976569869167      -0.152755926675     -0.0233177620881    -0.148426674521     
1000000000.0        -0.0286269850477    -0.164015253058     0.971258183805      -0.168826941465     0.971258183805      -0.168826941465     -0.0286269850477    -0.164015253058     
1100000000.0        -0.0344278111872    -0.179331110637     0.965454670847      -0.184625601599     0.965454670847      -0.184625601599     -0.0344278111872    -0.179331110637     
1200000000.0        -0.0407019638286    -0.194352838519     0.959177604528      -0.200130516027     0.959177604528      -0.200130516027     -0.0407019638286    -0.194352838519     
1300000000.0        -0.0474300352268    -0.209060515578     0.952446390507      -0.215321780093     0.952446390507      -0.215321780093     -0.0474300352268    -0.209060515578     
1400000000.0        -0.0545916278659    -0.223435771947     0.945281424469      -0.230181039305     0.945281424469      -0.230181039305     -0.0545916278659    -0.223435771947     
1500000000.0        -0.0621654984856    -0.237461837455     0.937703948033      -0.244691537867     0.937703948033      -0.244691537867     -0.0621654984856    -0.237461837455     
1600000000.0        -0.0701297030601    -0.251123575041     0.929735903721      -0.258838152176     0.929735903721      -0.258838152176     -0.0701297030601    -0.251123575041     
1700000000.0        -0.0784617410365    -0.264407499502     0.92139979069       -0.272607409649     0.92139979069       -0.272607409649     -0.0784617410365    -0.264407499502     
1800000000.0        -0.087138697256     -0.277301782178     0.912718522782      -0.285987493463     0.912718522782      -0.285987493463     -0.087138697256     -0.277301782178     
1900000000.0        -0.0961373801124    -0.289796242292     0.90371529035       -0.29896823396      0.90371529035       -0.29896823396      -0.0961373801124    -0.289796242292     
2000000000.0        -0.105434454654     -0.301882325855     0.89441342714       -0.311541087602     0.89441342714       -0.311541087602     -0.105434454654     -0.301882325855     
2100000000.0        -0.115006569499     -0.313553073133     0.884836283367      -0.323699104483     0.884836283367      -0.323699104483     -0.115006569499     -0.313553073133     
2200000000.0        -0.124830476607     -0.324803075769     0.875007105937      -0.335436885496     0.875007105937      -0.335436885496     -0.124830476607     -0.324803075769     
2300000000.0        -0.134883143114     -0.335628424729     0.8649489266        -0.346750530319     0.8649489266        -0.346750530319     -0.134883143114     -0.335628424729     
2400000000.0        -0.145141854629     -0.34602665026      0.854684458654      -0.357637577404     0.854684458654      -0.357637577404     -0.145141854629     -0.34602665026      
2500000000.0        -0.155584309541     -0.35599665507      0.844236002631      -0.368096937198     0.844236002631      -0.368096937198     -0.155584309541     -0.35599665507      
2600000000.0        -0.166188704055     -0.365538641927     0.83362536126       -0.378128819766     0.83362536126       -0.378128819766     -0.166188704055     -0.365538641927     
2700000000.0        -0.17693380782      -0.374654036847     0.822873763835      -0.387734658013     0.822873763835      -0.387734658013     -0.17693380782      -0.374654036847     
2800000000.0        -0.187799030157     -0.383345408989     0.812001799986      -0.396917027603     0.812001799986      -0.396917027603     -0.187799030157     -0.383345408989     
2900000000.0        -0.19876447701      -0.391616388319     0.801029362725      -0.40567956465      0.801029362725      -0.40567956465      -0.19876447701      -0.391616388319     
3000000000.0        -0.209810998858     -0.399471582032     0.789975600533      -0.414026882162     0.789975600533      -0.414026882162     -0.209810998858     -0.399471582032     
3100000000.0        -0.220920229904     -0.406916490634     0.778858878171      -0.421964486147     0.778858878171      -0.421964486147     -0.220920229904     -0.406916490634     
3200000000.0        -0.232074618967     -0.413957424517     0.767696745786      -0.429498692207     0.767696745786      -0.429498692207     -0.232074618967     -0.413957424517     
3300000000.0        -0.24325745251      -0.420601421748     0.756505915882      -0.436636543348     0.756505915882      -0.436636543348     -0.24325745251      -0.420601421748     
3400000000.0        -0.254452870357     -0.426856167711     0.745302247606      -0.443385729638     0.745302247606      -0.443385729638     -0.254452870357     -0.426856167711     
3500000000.0        -0.265645874607     -0.432729917167     0.734100737826      -0.44975451029      0.734100737826      -0.44975451029      -0.265645874607     -0.432729917167     
3600000000.0        -0.276822332344     -0.438231419177     0.722915518427      -0.455751638596     0.722915518427      -0.455751638596     -0.276822332344     -0.438231419177     
3700000000.0        -0.287968972707     -0.443369845286     0.711759859238      -0.461386290126     0.711759859238      -0.461386290126     -0.287968972707     -0.443369845286     
3800000000.0        -0.299073378907     -0.448154721243     0.700646176017      -0.466667994468     0.700646176017      -0.466667994468     -0.299073378907     -0.448154721243     
3900000000.0        -0.310123975754     -0.452595862508     0.68958604292       -0.471606570745     0.68958604292       -0.471606570745     -0.310123975754     -0.452595862508     
4000000000.0        -0.321110013262     -0.456703313686     0.678590208897      -0.47621206706      0.678590208897      -0.47621206706      -0.321110013262     -0.456703313686     
4100000000.0        -0.33202154686      -0.46048729199      0.667668617482      -0.480494703978     0.667668617482      -0.480494703978     -0.33202154686      -0.46048729199      
4200000000.0        -0.34284941473      -0.463958134781     0.656830429455      -0.484464822071     0.656830429455      -0.484464822071     -0.34284941473      -0.463958134781     
4300000000.0        -0.353585212727     -0.467126251163     0.64608404792       -0.488132833528     0.64608404792       -0.488132833528     -0.353585212727     -0.467126251163     
4400000000.0        -0.364221267369     -0.470002077604     0.635437145315      -0.491509177784     0.635437145315      -0.491509177784     -0.364221267369     -0.470002077604     
4500000000.0        -0.374750607273     -0.472596037485     0.624896691978      -0.49460428108      0.624896691978      -0.49460428108      -0.374750607273     -0.472596037485     
4600000000.0        -0.385166933447     -0.474918504466     0.614468985851      -0.49742851984      0.614468985851      -0.49742851984      -0.385166933447     -0.474918504466     
4700000000.0        -0.395464588764     -0.476979769542     0.60415968301       -0.499992187731     0.60415968301       -0.499992187731     -0.395464588764     -0.476979769542     
4800000000.0        -0.405638526944     -0.478790011615     0.593973828681      -0.502305466249     0.593973828681      -0.502305466249     -0.405638526944     -0.478790011615     
4900000000.0        -0.415684281311     -0.480359271425     0.583915888483      -0.504378398652     0.583915888483      -0.504378398652     -0.415684281311     -0.480359271425     
5000000000.0        -0.425597933574     -0.481697428651     0.573989779644      -0.506220867077     0.573989779644      -0.506220867077     -0.425597933574     -0.481697428651     
5100000000.0        -0.435376082857     -0.482814181999     0.564198901976      -0.507842572623     0.564198901976      -0.507842572623     -0.435376082857     -0.482814181999     
5200000000.0        -0.445015815143     -0.483719032072     0.554546168427      -0.509253018238     0.554546168427      -0.509253018238     -0.445015815143     -0.483719032072     
5300000000.0        -0.454514673315     -0.484421266843     0.545034035043      -0.510461494195     0.545034035043      -0.510461494195     -0.454514673315     -0.484421266843     
5400000000.0        -0.463870627902     -0.484929949534     0.535664530218      -0.511477065974     0.535664530218      -0.511477065974     -0.463870627902     -0.484929949534     
5500000000.0        -0.473082048668     -0.485253908706     0.526439283107      -0.51230856436      0.526439283107      -0.51230856436      -0.473082048668     -0.485253908706     
5600000000.0        -0.482147677112     -0.485401730384     0.517359551126      -0.512964577576     0.517359551126      -0.512964577576     -0.482147677112     -0.485401730384     
5700000000.0        -0.491066599957     -0.485381752036     0.508426246464      -0.513453445261     0.508426246464      -0.513453445261     -0.491066599957     -0.485381752036     
5800000000.0        -0.499838223684     -0.485202058234     0.499639961545      -0.51378325414      0.499639961545      -0.51378325414      -0.499838223684     -0.485202058234     
5900000000.0        -0.508462250146     -0.484870477839     0.491000993418      -0.513961835212     0.491000993418      -0.513961835212     -0.508462250146     -0.484870477839     
6000000000.0        -0.516938653288     -0.484394582553     0.482509367034      -0.513996762306     0.482509367034      -0.513996762306     -0.516938653288     -0.484394582553     
6100000000.0        -0.52526765698      -0.483781686689     0.474164857413      -0.513895351856     0.474164857413      -0.513895351856     -0.52526765698      -0.483781686689     
6200000000.0        -0.533449713983     -0.483038848033     0.465967010681      -0.513664663765     0.465967010681      -0.513664663765     -0.533449713983     -0.483038848033     
6300000000.0        -0.541485486015     -0.482172869662     0.457915164001      -0.513311503228     0.457915164001      -0.513311503228     -0.541485486015     -0.482172869662     
6400000000.0        -0.549375824924     -0.481190302605     0.450008464398      -0.512842423396     0.450008464398      -0.512842423396     -0.549375824924     -0.481190302605     
6500000000.0        -0.557121754948     -0.480097449233     0.442245886505      -0.512263728766     0.442245886505      -0.512263728766     -0.557121754948     -0.480097449233     
6600000000.0        -0.564724456017     -0.478900367282     0.434626249254      -0.511581479215     0.434626249254      -0.511581479215     -0.564724456017     -0.478900367282     
6700000000.0        -0.572185248092     -0.477604874422     0.427148231541      -0.510801494559     0.427148231541      -0.510801494559     -0.572185248092     -0.477604874422     
6800000000.0        -0.579505576492     -0.476216553267     0.419810386898      -0.509929359579     0.419810386898      -0.509929359579     -0.579505576492     -0.476216553267     
6900000000.0        -0.586686998179     -0.474740756776     0.412611157207      -0.508970429416     0.412611157207      -0.508970429416     -0.586686998179     -0.474740756776     
7000000000.0        -0.59373116896      -0.473182613961     0.405548885498      -0.507929835281     0.405548885498      -0.507929835281     -0.59373116896      -0.473182613961     
7100000000.0        -0.600639831577     -0.471547035834     0.398621827862      -0.506812490409     0.398621827862      -0.506812490409     -0.600639831577     -0.471547035834     
7200000000.0        -0.607414804626     -0.469838721549     0.391828164524      -0.505623096202     0.391828164524      -0.505623096202     -0.607414804626     -0.469838721549     
7300000000.0        -0.614057972292     -0.468062164685     0.385166010118      -0.50436614851      0.385166010118      -0.50436614851      -0.614057972292     -0.468062164685     
7400000000.0        -0.620571274831     -0.46622165962      0.378633423198      -0.503045944008     0.378633423198      -0.503045944008     -0.620571274831     -0.46622165962      
7500000000.0        -0.626956699781     -0.464321307956     0.372228415026      -0.501666586625     0.372228415026      -0.501666586625     -0.626956699781     -0.464321307956     
7600000000.0        -0.633216273852     -0.462365024969     0.365948957688      -0.500231993996     0.365948957688      -0.500231993996     -0.633216273852     -0.462365024969     
7700000000.0        -0.639352055461     -0.460356546045     0.359792991555      -0.498745903892     0.359792991555      -0.498745903892     -0.639352055461     -0.460356546045     
7800000000.0        -0.645366127868     -0.458299433067     0.353758432142      -0.497211880621     0.353758432142      -0.497211880621     -0.645366127868     -0.458299433067     
7900000000.0        -0.65126059289      -0.456197080757     0.347843176405      -0.495633321357     0.347843176405      -0.495633321357     -0.65126059289      -0.456197080757     
8000000000.0        -0.657037565143     -0.454052722916     0.342045108491      -0.494013462394     0.342045108491      -0.494013462394     -0.657037565143     -0.454052722916     
8100000000.0        -0.662699166783     -0.451869438576     0.336362104996      -0.49235538529      0.336362104996      -0.49235538529      -0.662699166783     -0.451869438576     
8200000000.0        -0.668247522725     -0.449650158032     0.330792039751      -0.490662022902     0.330792039751      -0.490662022902     -0.668247522725     -0.449650158032     
8300000000.0        -0.673684756288     -0.447397668744     0.325332788174      -0.488936165294     0.325332788174      -0.488936165294     -0.673684756288     -0.447397668744     
8400000000.0        -0.679012985254     -0.445114621107     0.319982231211      -0.487180465501     0.319982231211      -0.487180465501     -0.679012985254     -0.445114621107     
8500000000.0        -0.684234318307     -0.442803534072     0.314738258894      -0.485397445155     0.314738258894      -0.485397445155     -0.684234318307     -0.442803534072     
8600000000.0        -0.689350851823     -0.440466800615     0.309598773557      -0.483589499953     0.309598773557      -0.483589499953     -0.689350851823     -0.440466800615     
8700000000.0        -0.69436466699      -0.438106693054     0.304561692714      -0.481758904972     0.304561692714      -0.481758904972     -0.69436466699      -0.438106693054     
8800000000.0        -0.699277827227     -0.435725368194     0.299624951632      -0.479907819825     0.299624951632      -0.479907819825     -0.699277827227     -0.435725368194     
8900000000.0        -0.704092375891     -0.433324872325     0.294786505636      -0.478038293645     0.294786505636      -0.478038293645     -0.704092375891     -0.433324872325     
9000000000.0        -0.708810334243     -0.430907146047     0.290044332136      -0.476152269921     0.290044332136      -0.476152269921     -0.708810334243     -0.430907146047     
9100000000.0        -0.713433699649     -0.428474028929     0.285396432425      -0.474251591156     0.285396432425      -0.474251591156     -0.713433699649     -0.428474028929     
9200000000.0        -0.717964444008     -0.426027264016     0.280840833252      -0.472338003368     0.280840833252      -0.472338003368     -0.717964444008     -0.426027264016     
9300000000.0        -0.722404512384     -0.42356850216      0.276375588194      -0.47041316043      0.276375588194      -0.47041316043      -0.722404512384     -0.42356850216      
9400000000.0        -0.726755821825     -0.421099306201     0.271998778831      -0.468478628246     0.271998778831      -0.468478628246     -0.726755821825     -0.421099306201     
9500000000.0        -0.731020260351     -0.418621154987     0.267708515761      -0.466535888772     0.267708515761      -0.466535888772     -0.731020260351     -0.418621154987     
9600000000.0        -0.735199686106     -0.416135447237     0.263502939445      -0.464586343883     0.263502939445      -0.464586343883     -0.735199686106     -0.416135447237     
9700000000.0        -0.739295926652     -0.413643505255     0.259380220918      -0.462631319082     0.259380220918      -0.462631319082     -0.739295926652     -0.413643505255     
9800000000.0        -0.743310778393     -0.411146578495     0.255338562359      -0.460672067067     0.255338562359      -0.460672067067     -0.743310778393     -0.411146578495     
9900000000.0        -0.747246006126     -0.408645846977     0.251376197545      -0.458709771149     0.251376197545      -0.458709771149     -0.747246006126     -0.408645846977     
10000000000.0       -0.751103342695     -0.40614242457      0.247491392191      -0.456745548534     0.247491392191      -0.456745548534     -0.751103342695     -0.40614242457      
