# Hz S RI R 50.00 
100000000.0         0.00567425584187    -0.000807851133766  0.994296612817      -0.00579320181669   0.994296612817      -0.00579320181669   0.00567425584187    -0.000807851133766  
200000000.0         0.00569498536451    -0.00161594177981   0.994204094924      -0.0115857881641    0.994204094924      -0.0115857881641    0.00569498536451    -0.00161594177981   
300000000.0         0.00569648234695    -0.00242401839558   0.994087155857      -0.0173777051695    0.994087155857      -0.0173777051695    0.00569648234695    -0.00242401839558   
400000000.0         0.00568365244624    -0.00323192494856   0.993940896077      -0.023168797939     0.993940896077      -0.023168797939     0.00568365244624    -0.00323192494856   
500000000.0         0.00565838644444    -0.0040395276727    0.993763433613      -0.0289588876078    0.993763433613      -0.0289588876078    0.00565838644444    -0.0040395276727    
600000000.0         0.00562165105297    -0.0048467025281    0.993553813231      -0.0347477845303    0.993553813231      -0.0347477845303    0.00562165105297    -0.0048467025281    
700000000.0         0.00557402021992    -0.00565333075182   0.993311475128      -0.0405352930736    0.993311475128      -0.0405352930736    0.00557402021992    -0.00565333075182   
800000000.0         0.00551586896926    -0.00645929682293   0.993036061086      -0.0463212138684    0.993036061086      -0.0463212138684    0.00551586896927    -0.00645929682293   
900000000.0         0.00544745967592    -0.00726448738772   0.992727328206      -0.0521053450352    0.992727328206      -0.0521053450352    0.00544745967592    -0.00726448738772   
1000000000.0        0.00536898578008    -0.0080687906363    0.992385105192      -0.0578874829223    0.992385105192      -0.0578874829223    0.00536898578008    -0.0080687906363    
1100000000.0        0.00528059607787    -0.00887209591646   0.992009268062      -0.0636674225831    0.992009268062      -0.0636674225831    0.00528059607787    -0.00887209591646   
1200000000.0        0.0051824091895     -0.0096742934831    0.991599725684      -0.0694449581027    0.991599725684      -0.0694449581027    0.0051824091895     -0.0096742934831    
1300000000.0        0.00507452265778    -0.0104752743299    0.991156410678      -0.0752198828324    0.991156410678      -0.0752198828324    0.00507452265778    -0.0104752743299    
1400000000.0        0.00495701892571    -0.0112749300737    0.990679273439      -0.0809919895628    0.990679273439      -0.0809919895628    0.00495701892571    -0.0112749300737    
1500000000.0        0.00482996940748    -0.012073152873     0.990168278066      -0.0867610706579    0.990168278066      -0.0867610706579    0.00482996940748    -0.012073152873     
1600000000.0        0.00469343734593    -0.0128698353716    0.989623399502      -0.0925269181604    0.989623399502      -0.0925269181604    0.00469343734593    -0.0128698353716    
1700000000.0        0.00454747987024    -0.0136648706581    0.989044621481      -0.0982893238765    0.989044621481      -0.0982893238765    0.00454747987024    -0.0136648706581    
1800000000.0        0.00439214951086    -0.014458152238     0.988431935005      -0.104048079446     0.988431935005      -0.104048079446     0.00439214951086    -0.014458152238     
1900000000.0        0.00422749533617    -0.0152495740149    0.987785337211      -0.109802976404     0.987785337211      -0.109802976404     0.00422749533617    -0.0152495740149    
2000000000.0        0.00405356381997    -0.0160390302782    0.987104830496      -0.115553806227     0.987104830496      -0.115553806227     0.00405356381997    -0.0160390302782    
2100000000.0        0.00387039951329    -0.0168264156962    0.986390421845      -0.121300360383     0.986390421845      -0.121300360383     0.00387039951329    -0.0168264156962    
2200000000.0        0.00367804557151    -0.0176116253127    0.985642122301      -0.127042430364     0.985642122301      -0.127042430364     0.00367804557151    -0.0176116253127    
2300000000.0        0.00347654417288    -0.0183945545478    0.98485994654       -0.132779807726     0.98485994654       -0.132779807726     0.00347654417288    -0.0183945545478    
2400000000.0        0.00326593685412    -0.0191750991998    0.984043912533      -0.138512284121     0.984043912533      -0.138512284121     0.00326593685412    -0.0191750991997    
2500000000.0        0.00304626478227    -0.0199531554497    0.983194041269      -0.144239651322     0.983194041269      -0.144239651322     0.00304626478227    -0.0199531554497    
2600000000.0        0.00281756897656    -0.020728619868     0.982310356524      -0.14996170125      0.982310356524      -0.14996170125      0.00281756897656    -0.020728619868     
2700000000.0        0.00257989049086    -0.021501389421     0.981392884681      -0.155678226005     0.981392884681      -0.155678226005     0.00257989049086    -0.021501389421     
2800000000.0        0.00233327056475    -0.0222713614802    0.980441654564      -0.161389017879     0.980441654564      -0.161389017879     0.00233327056475    -0.0222713614802    
2900000000.0        0.00207775074938    -0.0230384338309    0.979456697311      -0.167093869388     0.979456697311      -0.167093869388     0.00207775074938    -0.0230384338309    
3000000000.0        0.0018133730127     -0.0238025046823    0.978438046258      -0.172792573286     0.978438046258      -0.172792573286     0.0018133730127     -0.0238025046823    
3100000000.0        0.001540179828      -0.0245634726782    0.977385736848      -0.178484922588     0.977385736848      -0.178484922588     0.001540179828      -0.0245634726782    
3200000000.0        0.00125821424858    -0.0253212369077    0.976299806544      -0.184170710588     0.976299806544      -0.184170710588     0.00125821424858    -0.0253212369077    
3300000000.0        0.000967519970987   -0.0260756969168    0.975180294758      -0.189849730876     0.975180294758      -0.189849730876     0.000967519970987   -0.0260756969168    
3400000000.0        0.000668141388628   -0.02682675272      0.974027242792      -0.195521777358     0.974027242792      -0.195521777358     0.000668141388628   -0.02682675272      
3500000000.0        0.000360123637323   -0.0275743048123    0.972840693779      -0.201186644271     0.972840693779      -0.201186644271     0.000360123637323   -0.0275743048123    
3600000000.0        4.35126340728e-05   -0.0283182541815    0.971620692639      -0.206844126199     0.971620692639      -0.206844126199     4.35126340725e-05   -0.0283182541815    
3700000000.0        -0.000281644890006  -0.0290585023201    0.970367286033      -0.212494018094     0.970367286033      -0.212494018094     -0.000281644890005  -0.0290585023201    
3800000000.0        -0.000615301361668  -0.0297949512383    0.969080522328      -0.218136115283     0.969080522328      -0.218136115283     -0.000615301361668  -0.0297949512383    
3900000000.0        -0.000957408341818  -0.0305275034761    0.967760451559      -0.223770213491     0.967760451559      -0.223770213491     -0.000957408341818  -0.0305275034761    
4000000000.0        -0.00130791650545   -0.0312560621166    0.966407125403      -0.229396108851     0.966407125403      -0.229396108851     -0.00130791650545   -0.0312560621166    
4100000000.0        -0.00166677562478   -0.031980530798     0.965020597146      -0.235013597921     0.965020597146      -0.235013597921     -0.00166677562478   -0.031980530798     
4200000000.0        -0.0020339345552    -0.0327008137267    0.963600921661      -0.240622477697     0.963600921661      -0.240622477697     -0.0020339345552    -0.0327008137267    
4300000000.0        -0.0024093412236    -0.0334168156902    0.962148155381      -0.246222545629     0.962148155381      -0.246222545629     -0.0024093412236    -0.0334168156902    
4400000000.0        -0.00279294261892   -0.0341284420696    0.960662356282      -0.251813599631     0.960662356282      -0.251813599631     -0.00279294261892   -0.0341284420696    
4500000000.0        -0.00318468478455   -0.0348355988525    0.959143583859      -0.257395438097     0.959143583859      -0.257395438097     -0.00318468478455   -0.0348355988525    
4600000000.0        -0.00358451281242   -0.0355381926459    0.957591899109      -0.262967859916     0.957591899109      -0.262967859916     -0.00358451281242   -0.0355381926459    
4700000000.0        -0.00399237083857   -0.0362361306885    0.956007364513      -0.26853066448      0.956007364513      -0.26853066448      -0.00399237083857   -0.0362361306885    
4800000000.0        -0.00440820204015   -0.0369293208637    0.95439004402       -0.274083651702     0.95439004402       -0.274083651702     -0.00440820204015   -0.0369293208637    
4900000000.0        -0.00483194863349   -0.0376176717123    0.952740003028      -0.279626622024     0.952740003028      -0.279626622024     -0.00483194863349   -0.0376176717123    
5000000000.0        -0.00526355187334   -0.0383010924445    0.951057308375      -0.285159376433     0.951057308375      -0.285159376433     -0.00526355187334   -0.0383010924445    
5100000000.0        -0.00570295205309   -0.0389794929533    0.949342028319      -0.290681716472     0.949342028319      -0.290681716472     -0.00570295205309   -0.0389794929533    
5200000000.0        -0.00615008850586   -0.0396527838259    0.94759423253       -0.296193444252     0.94759423253       -0.296193444252     -0.00615008850586   -0.0396527838259    
5300000000.0        -0.00660489960638   -0.0403208763569    0.945813992069      -0.301694362463     0.945813992069      -0.301694362463     -0.00660489960638   -0.0403208763569    
5400000000.0        -0.00706732277365   -0.0409836825601    0.944001379386      -0.307184274388     0.944001379386      -0.307184274388     -0.00706732277365   -0.0409836825601    
5500000000.0        -0.00753729447427   -0.0416411151806    0.942156468295      -0.312662983912     0.942156468295      -0.312662983912     -0.00753729447427   -0.0416411151806    
5600000000.0        -0.00801475022636   -0.0422930877073    0.940279333975      -0.318130295534     0.940279333975      -0.318130295534     -0.00801475022636   -0.0422930877073    
5700000000.0        -0.0084996246041    -0.0429395143845    0.938370052948      -0.32358601438      0.938370052948      -0.32358601438      -0.0084996246041    -0.0429395143845    
5800000000.0        -0.00899185124279   -0.0435803102238    0.936428703072      -0.329029946213     0.936428703072      -0.329029946213     -0.00899185124279   -0.0435803102238    
5900000000.0        -0.00949136284438   -0.0442153910161    0.934455363531      -0.334461897442     0.934455363531      -0.334461897442     -0.00949136284438   -0.0442153910161    
6000000000.0        -0.00999809118348   -0.0448446733428    0.932450114822      -0.339881675136     0.932450114822      -0.339881675136     -0.00999809118348   -0.0448446733428    
6100000000.0        -0.0105119671138    -0.0454680745881    0.930413038742      -0.345289087033     0.930413038742      -0.345289087033     -0.0105119671138    -0.0454680745881    
6200000000.0        -0.011032920575     -0.0460855129494    0.928344218383      -0.350683941548     0.928344218383      -0.350683941548     -0.011032920575     -0.0460855129494    
6300000000.0        -0.0115608805998    -0.0466969074496    0.926243738117      -0.35606604779      0.926243738117      -0.35606604779      -0.0115608805998    -0.0466969074496    
6400000000.0        -0.0120957753219    -0.0473021779475    0.924111683586      -0.361435215564     0.924111683586      -0.361435215564     -0.0120957753219    -0.0473021779475    
6500000000.0        -0.0126375319832    -0.0479012451492    0.921948141694      -0.366791255387     0.921948141694      -0.366791255387     -0.0126375319832    -0.0479012451492    
6600000000.0        -0.0131860769427    -0.0484940306193    0.919753200592      -0.372133978496     0.919753200592      -0.372133978496     -0.0131860769427    -0.0484940306193    
6700000000.0        -0.0137413356848    -0.0490804567908    0.917526949674      -0.377463196857     0.917526949674      -0.377463196857     -0.0137413356848    -0.0490804567908    
6800000000.0        -0.0143032328276    -0.0496604469768    0.91526947956       -0.382778723174     0.91526947956       -0.382778723174     -0.0143032328276    -0.0496604469768    
6900000000.0        -0.0148716921329    -0.0502339253801    0.912980882093      -0.388080370901     0.912980882093      -0.388080370901     -0.0148716921329    -0.0502339253801    
7000000000.0        -0.0154466365144    -0.0508008171044    0.910661250323      -0.393367954249     0.910661250323      -0.393367954249     -0.0154466365144    -0.0508008171044    
7100000000.0        -0.0160279880484    -0.0513610481638    0.908310678498      -0.398641288195     0.908310678498      -0.398641288195     -0.0160279880484    -0.0513610481638    
7200000000.0        -0.0166156679825    -0.0519145454932    0.905929262057      -0.403900188494     0.905929262057      -0.403900188494     -0.0166156679825    -0.0519145454932    
7300000000.0        -0.0172095967463    -0.0524612369585    0.903517097616      -0.409144471684     0.903517097616      -0.409144471684     -0.0172095967463    -0.0524612369585    
7400000000.0        -0.0178096939614    -0.0530010513658    0.90107428296       -0.414373955095     0.90107428296       -0.414373955095     -0.0178096939614    -0.0530010513658    
7500000000.0        -0.0184158784516    -0.0535339184717    0.898600917034      -0.419588456862     0.898600917034      -0.419588456862     -0.0184158784516    -0.0535339184717    
7600000000.0        -0.0190280682539    -0.0540597689923    0.896097099928      -0.424787795928     0.896097099928      -0.424787795928     -0.0190280682539    -0.0540597689923    
7700000000.0        -0.0196461806289    -0.0545785346126    0.893562932874      -0.429971792055     0.893562932874      -0.429971792055     -0.0196461806289    -0.0545785346126    
7800000000.0        -0.0202701320719    -0.0550901479961    0.89099851823       -0.435140265831     0.89099851823       -0.435140265831     -0.0202701320719    -0.0550901479961    
7900000000.0        -0.0208998383241    -0.0555945427933    0.888403959473      -0.440293038678     0.888403959473      -0.440293038678     -0.0208998383241    -0.0555945427933    
8000000000.0        -0.0215352143836    -0.0560916536509    0.885779361185      -0.445429932862     0.885779361185      -0.445429932862     -0.0215352143836    -0.0560916536509    
8100000000.0        -0.0221761745173    -0.0565814162204    0.88312482905       -0.450550771498     0.88312482905       -0.450550771498     -0.0221761745173    -0.0565814162204    
8200000000.0        -0.022822632272     -0.0570637671666    0.880440469837      -0.455655378556     0.880440469837      -0.455655378556     -0.022822632272     -0.0570637671666    
8300000000.0        -0.0234745004864    -0.0575386441762    0.877726391393      -0.460743578874     0.877726391393      -0.460743578874     -0.0234745004864    -0.0575386441762    
8400000000.0        -0.024131691303     -0.0580059859658    0.87498270263       -0.465815198161     0.87498270263       -0.465815198161     -0.024131691303     -0.0580059859658    
8500000000.0        -0.0247941161797    -0.0584657322901    0.87220951352       -0.470870063003     0.87220951352       -0.470870063003     -0.0247941161797    -0.0584657322901    
8600000000.0        -0.0254616859026    -0.0589178239499    0.869406935079      -0.475908000873     0.869406935079      -0.475908000873     -0.0254616859026    -0.0589178239499    
8700000000.0        -0.0261343105977    -0.0593622027994    0.866575079361      -0.480928840138     0.866575079361      -0.480928840138     -0.0261343105977    -0.0593622027994    
8800000000.0        -0.0268118997432    -0.0597988117545    0.863714059445      -0.485932410062     0.863714059445      -0.485932410062     -0.0268118997432    -0.0597988117545    
8900000000.0        -0.0274943621827    -0.0602275947995    0.860823989426      -0.490918540815     0.860823989426      -0.490918540815     -0.0274943621827    -0.0602275947995    
9000000000.0        -0.0281816061368    -0.0606484969945    0.857904984405      -0.495887063479     0.857904984405      -0.495887063479     -0.0281816061368    -0.0606484969945    
9100000000.0        -0.0288735392165    -0.061061464483     0.854957160476      -0.500837810054     0.854957160476      -0.500837810054     -0.0288735392165    -0.061061464483     
9200000000.0        -0.029570068436     -0.061466444498     0.85198063472       -0.505770613464     0.85198063472       -0.505770613464     -0.029570068436     -0.061466444498     
9300000000.0        -0.0302711002249    -0.0618633853694    0.848975525191      -0.510685307564     0.848975525191      -0.510685307564     -0.0302711002249    -0.0618633853694    
9400000000.0        -0.0309765404419    -0.0622522365299    0.845941950908      -0.515581727142     0.845941950908      -0.515581727142     -0.0309765404419    -0.0622522365299    
9500000000.0        -0.0316862943876    -0.0626329485221    0.842880031841      -0.52045970793      0.842880031841      -0.52045970793      -0.0316862943876    -0.0626329485221    
9600000000.0        -0.0324002668176    -0.063005473004     0.839789888907      -0.525319086603     0.839789888907      -0.525319086603     -0.0324002668176    -0.063005473004     
9700000000.0        -0.0331183619558    -0.0633697627558    0.836671643951      -0.530159700792     0.836671643951      -0.530159700792     -0.0331183619558    -0.0633697627558    
9800000000.0        -0.0338404835077    -0.0637257716848    0.833525419745      -0.534981389082     0.833525419745      -0.534981389082     -0.0338404835077    -0.0637257716848    
9900000000.0        -0.0345665346738    -0.0640734548321    0.83035133997       -0.539783991021     0.83035133997       -0.539783991021     -0.0345665346738    -0.0640734548321    
10000000000.0       -0.0352964181631    -0.0644127683773    0.827149529208      -0.544567347122     0.827149529208      -0.544567347122     -0.0352964181631    -0.0644127683773    
