# Hz S RI R 50.00 
100000000.0         0.00333406341822    -0.000339203818736  0.996643759421      -0.00528000433695   0.996643759421      -0.00528000433695   0.00333406341822    -0.000339203818736  
200000000.0         0.00334835725511    -0.000678580496108  0.996576676999      -0.010559655339     0.996576676999      -0.010559655339     0.00334835725511    -0.000678580496108  
300000000.0         0.00335325896929    -0.0010180153211    0.99648737553       -0.0158389145043    0.99648737553       -0.0158389145043    0.00335325896929    -0.0010180153211    
400000000.0         0.00335165529173    -0.0013574486061    0.996372969303      -0.0211176802936    0.996372969303      -0.0211176802936    0.00335165529173    -0.0013574486061    
500000000.0         0.00334465737077    -0.00169683273189   0.996232348989      -0.0263958350644    0.996232348989      -0.0263958350644    0.00334465737077    -0.00169683273189   
600000000.0         0.00333283188605    -0.00203612513425   0.996064950571      -0.0316732534845    0.996064950571      -0.0316732534845    0.00333283188605    -0.00203612513425   
700000000.0         0.00331651387705    -0.00237528585706   0.99587044255       -0.0369498056949    0.99587044255       -0.0369498056949    0.00331651387705    -0.00237528585706   
800000000.0         0.00329592087006    -0.0027142764511    0.995648611843      -0.0422253588417    0.995648611843      -0.0422253588417    0.00329592087006    -0.0027142764511    
900000000.0         0.00327120367407    -0.0030530594018    0.995399313016      -0.0474997779341    0.995399313016      -0.0474997779341    0.00327120367407    -0.0030530594018    
1000000000.0        0.00324247211913    -0.00339159780221   0.995122442558      -0.0527729263741    0.995122442558      -0.0527729263741    0.00324247211913    -0.00339159780221   
1100000000.0        0.00320980935942    -0.00372985515363   0.994817924604      -0.0580446663071    0.994817924604      -0.0580446663071    0.00320980935942    -0.00372985515363   
1200000000.0        0.00317328039361    -0.00406779523791   0.994485702423      -0.0633148588664    0.994485702423      -0.0633148588664    0.00317328039361    -0.00406779523791   
1300000000.0        0.00313293742424    -0.00440538203281   0.994125733075      -0.0685833643515    0.994125733075      -0.0685833643515    0.00313293742424    -0.00440538203281   
1400000000.0        0.00308882337976    -0.00474257965443   0.993737983903      -0.0738500423626    0.993737983903      -0.0738500423626    0.00308882337976    -0.00474257965443   
1500000000.0        0.00304097431427    -0.00507935231728   0.993322430142      -0.079114751904     0.993322430142      -0.079114751904     0.00304097431427    -0.00507935231728   
1600000000.0        0.00298942109283    -0.00541566430643   0.992879053242      -0.0843773514674    0.992879053242      -0.0843773514674    0.00298942109283    -0.00541566430643   
1700000000.0        0.00293419060605    -0.00575147995788   0.992407839669      -0.0896376990984    0.992407839669      -0.0896376990984    0.00293419060605    -0.00575147995788   
1800000000.0        0.00287530666509    -0.00608676364491   0.991908780011      -0.0948956524523    0.991908780011      -0.0948956524523    0.00287530666509    -0.00608676364491   
1900000000.0        0.00281279067407    -0.00642147976872   0.991381868321      -0.10015106884      0.991381868321      -0.10015106884      0.00281279067407    -0.00642147976872   
2000000000.0        0.00274666214401    -0.00675559275221   0.990827101603      -0.105403805268     0.990827101603      -0.105403805268     0.00274666214401    -0.00675559275221   
2100000000.0        0.00267693909157    -0.00708906703619   0.990244479426      -0.110653718472     0.990244479426      -0.110653718472     0.00267693909158    -0.00708906703619   
2200000000.0        0.00260363835273    -0.00742186707738   0.989634003612      -0.115900664947     0.989634003612      -0.115900664947     0.00260363835273    -0.00742186707738   
2300000000.0        0.00252677583234    -0.0077539573478    0.988995677996      -0.121144500975     0.988995677996      -0.121144500975     0.00252677583234    -0.0077539573478    
2400000000.0        0.00244636670519    -0.00808530233525   0.988329508228      -0.126385082645     0.988329508228      -0.126385082645     0.00244636670519    -0.00808530233525   
2500000000.0        0.00236242557928    -0.0084158665446    0.987635501617      -0.131622265876     0.987635501617      -0.131622265876     0.00236242557928    -0.0084158665446    
2600000000.0        0.00227496662983    -0.00874561449989   0.986913666999      -0.136855906438     0.986913666999      -0.136855906438     0.00227496662983    -0.00874561449989   
2700000000.0        0.00218400371012    -0.00907451074676   0.986164014633      -0.142085859965     0.986164014633      -0.142085859965     0.00218400371012    -0.00907451074676   
2800000000.0        0.00208955044383    -0.00940251985551   0.98538655611       -0.147311981974     0.98538655611       -0.147311981974     0.00208955044383    -0.00940251985551   
2900000000.0        0.00199162030256    -0.00972960642436   0.984581304282      -0.15253412788      0.984581304282      -0.15253412788      0.00199162030256    -0.00972960642436   
3000000000.0        0.0018902266713     -0.0100557350831    0.983748273201      -0.157752153007     0.983748273201      -0.157752153007     0.0018902266713     -0.0100557350831    
3100000000.0        0.00178538290402    -0.010380870497     0.982887478062      -0.162965912605     0.982887478062      -0.162965912605     0.00178538290402    -0.010380870497     
3200000000.0        0.00167710237116    -0.0107049773706    0.981998935163      -0.168175261857     0.981998935163      -0.168175261857     0.00167710237116    -0.0107049773706    
3300000000.0        0.00156539850045    -0.0110280204521    0.981082661864      -0.173380055895     0.981082661864      -0.173380055895     0.00156539850045    -0.0110280204521    
3400000000.0        0.00145028481201    -0.0113499645378    0.980138676559      -0.178580149809     0.980138676559      -0.178580149809     0.00145028481201    -0.0113499645378    
3500000000.0        0.00133177494883    -0.0116707744762    0.979166998643      -0.183775398655     0.979166998643      -0.183775398655     0.00133177494883    -0.0116707744762    
3600000000.0        0.00120988270324    -0.0119904151726    0.978167648488      -0.188965657469     0.978167648488      -0.188965657469     0.00120988270324    -0.0119904151726    
3700000000.0        0.00108462203995    -0.0123088515939    0.977140647426      -0.194150781275     0.977140647426      -0.194150781275     0.00108462203995    -0.0123088515939    
3800000000.0        0.000956007116276   -0.0126260487729    0.976086017728      -0.199330625091     0.976086017728      -0.199330625091     0.000956007116276   -0.0126260487729    
3900000000.0        0.000824052299831   -0.0129419718134    0.975003782587      -0.204505043943     0.975003782587      -0.204505043943     0.000824052299832   -0.0129419718134    
4000000000.0        0.000688772184132   -0.0132565858946    0.973893966106      -0.209673892869     0.973893966106      -0.209673892869     0.000688772184132   -0.0132565858946    
4100000000.0        0.000550181602305   -0.0135698562758    0.972756593283      -0.214837026929     0.972756593283      -0.214837026929     0.000550181602305   -0.0135698562758    
4200000000.0        0.00040829563922    -0.0138817483015    0.971591690003      -0.219994301214     0.971591690003      -0.219994301214     0.00040829563922    -0.0138817483015    
4300000000.0        0.000263129642199   -0.0141922274061    0.970399283026      -0.225145570851     0.970399283026      -0.225145570851     0.000263129642199   -0.0141922274061    
4400000000.0        0.000114699230502   -0.0145012591186    0.969179399979      -0.230290691014     0.969179399979      -0.230290691014     0.000114699230502   -0.0145012591186    
4500000000.0        -3.6979696282e-05   -0.0148088090675    0.967932069349      -0.235429516927     0.967932069349      -0.235429516927     -3.69796962818e-05  -0.0148088090675    
4600000000.0        -0.000191890950796  -0.0151148429856    0.966657320472      -0.240561903877     0.966657320472      -0.240561903877     -0.000191890950796  -0.0151148429856    
4700000000.0        -0.000350018051339  -0.0154193267151    0.965355183534      -0.245687707215     0.965355183534      -0.245687707215     -0.000350018051339  -0.0154193267151    
4800000000.0        -0.000511344216036  -0.0157222262121    0.964025689558      -0.250806782367     0.964025689558      -0.250806782367     -0.000511344216036  -0.0157222262121    
4900000000.0        -0.000675852357704  -0.0160235075514    0.962668870404      -0.255918984838     0.962668870404      -0.255918984838     -0.000675852357704  -0.0160235075514    
5000000000.0        -0.000843525079315  -0.0163231369319    0.961284758761      -0.261024170222     0.961284758761      -0.261024170222     -0.000843525079316  -0.0163231369319    
5100000000.0        -0.00101434467001   -0.0166210806808    0.959873388145      -0.266122194206     0.959873388145      -0.266122194206     -0.00101434467001   -0.0166210806808    
5200000000.0        -0.00118829310162   -0.0169173052589    0.958434792894      -0.271212912577     0.958434792894      -0.271212912577     -0.00118829310162   -0.0169173052589    
5300000000.0        -0.00136535202562   -0.0172117772649    0.956969008163      -0.276296181228     0.956969008163      -0.276296181228     -0.00136535202562   -0.0172117772649    
5400000000.0        -0.00154550277051   -0.0175044634408    0.955476069924      -0.281371856167     0.955476069924      -0.281371856167     -0.00154550277051   -0.0175044634408    
5500000000.0        -0.00172872633953   -0.0177953306765    0.953956014961      -0.286439793518     0.953956014961      -0.286439793518     -0.00172872633953   -0.0177953306765    
5600000000.0        -0.00191500340882   -0.0180843460143    0.952408880866      -0.291499849532     0.952408880866      -0.291499849532     -0.00191500340882   -0.0180843460143    
5700000000.0        -0.00210431432574   -0.0183714766539    0.950834706037      -0.296551880592     0.950834706037      -0.296551880592     -0.00210431432574   -0.0183714766539    
5800000000.0        -0.0022966391076    -0.0186566899573    0.949233529679      -0.301595743216     0.949233529679      -0.301595743216     -0.0022966391076    -0.0186566899573    
5900000000.0        -0.00249195744063   -0.0189399534535    0.947605391795      -0.306631294066     0.947605391795      -0.306631294066     -0.00249195744063   -0.0189399534535    
6000000000.0        -0.00269024867918   -0.0192212348427    0.945950333188      -0.311658389955     0.945950333188      -0.311658389955     -0.00269024867918   -0.0192212348427    
6100000000.0        -0.00289149184513   -0.019500502002     0.944268395459      -0.316676887848     0.944268395459      -0.316676887848     -0.00289149184513   -0.019500502002     
6200000000.0        -0.00309566562758   -0.019777722989     0.942559621005      -0.321686644871     0.942559621005      -0.321686644871     -0.00309566562758   -0.019777722989     
6300000000.0        -0.00330274838269   -0.0200528660473    0.940824053013      -0.326687518319     0.940824053013      -0.326687518319     -0.00330274838269   -0.0200528660473    
6400000000.0        -0.00351271813373   -0.0203258996109    0.939061735462      -0.331679365655     0.939061735462      -0.331679365655     -0.00351271813373   -0.0203258996109    
6500000000.0        -0.00372555257127   -0.0205967923086    0.937272713121      -0.336662044523     0.937272713121      -0.336662044523     -0.00372555257127   -0.0205967923086    
6600000000.0        -0.00394122905361   -0.0208655129689    0.935457031546      -0.341635412748     0.935457031546      -0.341635412748     -0.00394122905361   -0.0208655129689    
6700000000.0        -0.00415972460729   -0.0211320306244    0.933614737079      -0.346599328344     0.933614737079      -0.346599328344     -0.00415972460729   -0.0211320306244    
6800000000.0        -0.00438101592779   -0.0213963145164    0.931745876843      -0.35155364952      0.931745876843      -0.35155364952      -0.00438101592779   -0.0213963145164    
6900000000.0        -0.00460507938038   -0.0216583340997    0.929850498746      -0.356498234683     0.929850498746      -0.356498234683     -0.00460507938038   -0.0216583340997    
7000000000.0        -0.00483189100107   -0.0219180590466    0.927928651476      -0.361432942447     0.927928651476      -0.361432942447     -0.00483189100107   -0.0219180590466    
7100000000.0        -0.00506142649772   -0.0221754592518    0.925980384497      -0.366357631634     0.925980384497      -0.366357631634     -0.00506142649772   -0.0221754592518    
7200000000.0        -0.00529366125124   -0.0224305048366    0.924005748052      -0.371272161284     0.924005748052      -0.371272161284     -0.00529366125124   -0.0224305048366    
7300000000.0        -0.00552857031695   -0.0226831661538    0.92200479316       -0.376176390656     0.92200479316       -0.376176390656     -0.00552857031695   -0.0226831661538    
7400000000.0        -0.00576612842601   -0.0229334137914    0.919977571612      -0.381070179235     0.919977571612      -0.381070179235     -0.00576612842601   -0.0229334137914    
7500000000.0        -0.00600630998699   -0.0231812185774    0.91792413597       -0.385953386739     0.91792413597       -0.385953386739     -0.00600630998699   -0.0231812185774    
7600000000.0        -0.00624908908752   -0.0234265515842    0.915844539569      -0.390825873122     0.915844539569      -0.390825873122     -0.00624908908752   -0.0234265515842    
7700000000.0        -0.00649443949606   -0.0236693841328    0.913738836511      -0.395687498579     0.913738836511      -0.395687498579     -0.00649443949606   -0.0236693841328    
7800000000.0        -0.00674233466373   -0.023909687797     0.911607081664      -0.400538123551     0.911607081664      -0.400538123551     -0.00674233466373   -0.023909687797     
7900000000.0        -0.0069927477263    -0.0241474344077    0.909449330662      -0.405377608733     0.909449330662      -0.405377608733     -0.0069927477263    -0.0241474344077    
8000000000.0        -0.00724565150619   -0.0243825960573    0.907265639903      -0.410205815076     0.907265639903      -0.410205815076     -0.00724565150619   -0.0243825960573    
8100000000.0        -0.00750101851462   -0.0246151451037    0.905056066547      -0.415022603792     0.905056066547      -0.415022603792     -0.00750101851462   -0.0246151451037    
8200000000.0        -0.00775882095381   -0.0248450541745    0.902820668511      -0.419827836362     0.902820668511      -0.419827836362     -0.00775882095381   -0.0248450541745    
8300000000.0        -0.00801903071929   -0.0250722961712    0.900559504475      -0.424621374537     0.900559504475      -0.424621374537     -0.00801903071929   -0.0250722961712    
8400000000.0        -0.00828161940222   -0.025296844273     0.898272633872      -0.429403080344     0.898272633872      -0.429403080344     -0.00828161940222   -0.025296844273     
8500000000.0        -0.00854655829193   -0.0255186719414    0.89596011689       -0.434172816095     0.89596011689       -0.434172816095     -0.00854655829193   -0.0255186719414    
8600000000.0        -0.00881381837834   -0.0257377529237    0.893622014471      -0.438930444386     0.893622014471      -0.438930444386     -0.00881381837834   -0.0257377529237    
8700000000.0        -0.00908337035466   -0.0259540612572    0.891258388309      -0.443675828105     0.891258388309      -0.443675828105     -0.00908337035466   -0.0259540612572    
8800000000.0        -0.00935518461997   -0.0261675712732    0.888869300844      -0.448408830436     0.888869300844      -0.448408830436     -0.00935518461997   -0.0261675712732    
8900000000.0        -0.00962923128202   -0.0263782576008    0.886454815267      -0.453129314864     0.886454815267      -0.453129314864     -0.00962923128202   -0.0263782576008    
9000000000.0        -0.00990548016003   -0.0265860951708    0.884014995512      -0.457837145181     0.884014995512      -0.457837145181     -0.00990548016003   -0.0265860951708    
9100000000.0        -0.0101839007876    -0.0267910592195    0.881549906257      -0.462532185487     0.881549906257      -0.462532185487     -0.0101839007876    -0.0267910592195    
9200000000.0        -0.0104644624154    -0.0269931252928    0.879059612923      -0.467214300199     0.879059612923      -0.467214300199     -0.0104644624154    -0.0269931252928    
9300000000.0        -0.0107471340147    -0.0271922692492    0.876544181668      -0.471883354054     0.876544181668      -0.471883354054     -0.0107471340147    -0.0271922692492    
9400000000.0        -0.0110318842798    -0.0273884672645    0.874003679391      -0.476539212113     0.874003679391      -0.476539212113     -0.0110318842798    -0.0273884672645    
9500000000.0        -0.0113186816318    -0.0275816958348    0.871438173724      -0.481181739764     0.871438173724      -0.481181739764     -0.0113186816318    -0.0275816958348    
9600000000.0        -0.0116074942212    -0.0277719317801    0.868847733035      -0.485810802732     0.868847733035      -0.485810802732     -0.0116074942212    -0.0277719317801    
9700000000.0        -0.0118982899315    -0.0279591522485    0.86623242642       -0.490426267078     0.86623242642       -0.490426267078     -0.0118982899315    -0.0279591522485    
9800000000.0        -0.0121910363824    -0.028143334719     0.863592323709      -0.495027999206     0.863592323709      -0.495027999206     -0.0121910363824    -0.028143334719     
9900000000.0        -0.0124857009333    -0.0283244570055    0.860927495455      -0.499615865869     0.860927495455      -0.499615865869     -0.0124857009333    -0.0283244570055    
10000000000.0       -0.0127822506863    -0.0285024972603    0.85823801294       -0.504189734168     0.85823801294       -0.504189734168     -0.0127822506863    -0.0285024972603    
