# Hz S RI R 50.00 
100000000.0         -0.00021340832302   -0.0161841654423    0.999632767866      -0.0168859430323    0.999632767866      -0.0168859430323    -0.00021340832302   -0.0161841654423    
200000000.0         -0.00104844756794   -0.0323411656194    0.998795944064      -0.0337448327341    0.998795944064      -0.0337448327341    -0.00104844756794   -0.0323411656194    
300000000.0         -0.00242689130818   -0.0484446320787    0.997415487257      -0.0505503625602    0.997415487257      -0.0505503625602    -0.00242689130818   -0.0484446320787    
400000000.0         -0.00434438256753   -0.064468366378     0.995495621616      -0.0672763827613    0.995495621616      -0.0672763827613    -0.00434438256753   -0.064468366378     
500000000.0         -0.00679493067332   -0.0803865266646    0.993042286453      -0.0838970934736    0.993042286453      -0.0838970934736    -0.00679493067332   -0.0803865266646    
600000000.0         -0.00977092328958   -0.0961737782945    0.990063067607      -0.100387197583     0.990063067607      -0.100387197583     -0.00977092328958   -0.0961737782945    
700000000.0         -0.0132631736106    -0.111805430484     0.986567135908      -0.116722038517     0.986567135908      -0.116722038517     -0.0132631736106    -0.111805430484     
800000000.0         -0.0172609846763    -0.127257562541     0.982565177635      -0.13287772717      0.982565177635      -0.13287772717      -0.0172609846763    -0.127257562541     
900000000.0         -0.0217522264223    -0.142507140175     0.978069315148      -0.148831258662     0.978069315148      -0.148831258662     -0.0217522264223    -0.142507140175     
1000000000.0        -0.0267234233155    -0.157532121548     0.973093018086      -0.164560618721     0.973093018086      -0.164560618721     -0.0267234233155    -0.157532121548     
1100000000.0        -0.0321598509472    -0.17231155255      0.967651006118      -0.1800448792       0.967651006118      -0.1800448792       -0.0321598509472    -0.17231155255      
1200000000.0        -0.0380456400901    -0.186825650768     0.96175914451       -0.195264282233     0.96175914451       -0.195264282233     -0.0380456400901    -0.186825650768     
1300000000.0        -0.0443638867541    -0.201055877719     0.955434333823      -0.21020031262      0.955434333823      -0.21020031262      -0.0443638867541    -0.201055877719     
1400000000.0        -0.0510967667898    -0.214984999073     0.948694395154      -0.224835758173     0.948694395154      -0.224835758173     -0.0510967667898    -0.214984999073     
1500000000.0        -0.0582256536044    -0.22859713273      0.941557952318      -0.239154757902     0.941557952318      -0.239154757902     -0.0582256536044    -0.22859713273      
1600000000.0        -0.0657312375912    -0.241877784796     0.934044312337      -0.253142838071     0.934044312337      -0.253142838071     -0.0657312375912    -0.241877784796     
1700000000.0        -0.0735936459237    -0.254813873632     0.926173345602      -0.266786936333     0.926173345602      -0.266786936333     -0.0735936459237    -0.254813873632     
1800000000.0        -0.0817925614391    -0.267393742344     0.917965366946      -0.280075414278     0.917965366946      -0.280075414278     -0.0817925614391    -0.267393742344     
1900000000.0        -0.0903073394229    -0.27960716016      0.90944101883       -0.29299805888      0.90944101883       -0.29299805888      -0.0903073394229    -0.27960716016      
2000000000.0        -0.0991171212083    -0.291445313326     0.900621157729      -0.305546073434     0.900621157729      -0.305546073434     -0.0991171212083    -0.291445313326     
2100000000.0        -0.108200943617     -0.302900786181     0.891526744666      -0.317712058691     0.891526744666      -0.317712058691     -0.108200943617     -0.302900786181     
2200000000.0        -0.117537843391     -0.313967533231     0.882178740776      -0.329489984966     0.882178740776      -0.329489984966     -0.117537843391     -0.313967533231     
2300000000.0        -0.127106955888     -0.324640843032     0.872598008593      -0.340875156067     0.872598008593      -0.340875156067     -0.127106955888     -0.324640843032     
2400000000.0        -0.136887607452     -0.334917294806     0.862805219682      -0.351864165943     0.862805219682      -0.351864165943     -0.136887607452     -0.334917294806     
2500000000.0        -0.146859400971     -0.344794708673     0.852820769064      -0.362454848954     0.852820769064      -0.362454848954     -0.146859400971     -0.344794708673     
2600000000.0        -0.157002294299     -0.354272090457     0.842664696794      -0.372646224702     0.842664696794      -0.372646224702     -0.157002294299     -0.354272090457     
2700000000.0        -0.167296671306     -0.363349571956     0.832356616912      -0.382438438336     0.832356616912      -0.382438438336     -0.167296671306     -0.363349571956     
2800000000.0        -0.177723405431     -0.372028347596     0.821915653877      -0.391832697231     0.821915653877      -0.391832697231     -0.177723405431     -0.372028347596     
2900000000.0        -0.188263915741     -0.380310608328     0.811360386513      -0.400831204905     0.811360386513      -0.400831204905     -0.188263915741     -0.380310608328     
3000000000.0        -0.198900215572     -0.388199473578     0.800708799365      -0.409437093002     0.800708799365      -0.409437093002     -0.198900215572     -0.388199473578     
3100000000.0        -0.2096149539       -0.395698922047     0.78997824132       -0.417654352107     0.78997824132       -0.417654352107     -0.2096149539       -0.395698922047     
3200000000.0        -0.220391449701     -0.402813722047     0.779185391257      -0.425487762103     0.779185391257      -0.425487762103     -0.220391449701     -0.402813722047     
3300000000.0        -0.23121371956      -0.409549362037     0.768346230422      -0.432942822731     0.768346230422      -0.432942822731     -0.23121371956      -0.409549362037     
3400000000.0        -0.24206649891      -0.415911981945     0.757476021203      -0.440025684927     0.757476021203      -0.440025684927     -0.24206649891      -0.415911981945     
3500000000.0        -0.252935257245     -0.421908305787     0.746589291906      -0.446743083457     0.746589291906      -0.446743083457     -0.252935257245     -0.421908305787     
3600000000.0        -0.263806207741     -0.427545576038     0.735699827136      -0.453102271309     0.735699827136      -0.453102271309     -0.263806207741     -0.427545576038     
3700000000.0        -0.274666311713     -0.432831490139     0.72482066334       -0.459110956212     0.72482066334       -0.459110956212     -0.274666311713     -0.432831490139     
3800000000.0        -0.285503278341     -0.43777413946      0.713964089084      -0.464777239617     0.713964089084      -0.464777239617     -0.285503278341     -0.43777413946      
3900000000.0        -0.296305560113     -0.442381950987     0.7031416496        -0.470109558392     0.7031416496        -0.470109558392     -0.296305560113     -0.442381950987     
4000000000.0        -0.307062344437     -0.446663631928     0.692364155181      -0.475116629447     0.692364155181      -0.475116629447     -0.307062344437     -0.446663631928     
4100000000.0        -0.317763541853     -0.450628117396     0.68164169297       -0.479807397429     0.68164169297       -0.479807397429     -0.317763541853     -0.450628117396     
4200000000.0        -0.328399771253     -0.454284521268     0.670983641732      -0.484190985592     0.670983641732      -0.484190985592     -0.328399771253     -0.454284521268     
4300000000.0        -0.338962342547     -0.457642090287     0.660398689196      -0.488276649907     0.660398689196      -0.488276649907     -0.338962342547     -0.457642090287     
4400000000.0        -0.349443237124     -0.46071016142      0.649894851588      -0.492073736436     0.649894851588      -0.492073736436     -0.349443237124     -0.46071016142      
4500000000.0        -0.359835086498     -0.463498122459     0.639479494985      -0.495591641942     0.639479494985      -0.495591641942     -0.359835086498     -0.463498122459     
4600000000.0        -0.370131149468     -0.466015375827     0.62915935816       -0.498839777703     0.62915935816       -0.498839777703     -0.370131149468     -0.466015375827     
4700000000.0        -0.380325288103     -0.468271305518     0.618940576588      -0.501827536461     0.618940576588      -0.501827536461     -0.380325288103     -0.468271305518     
4800000000.0        -0.390411942855     -0.470275247073     0.608828707343      -0.50456426241      0.608828707343      -0.50456426241      -0.390411942855     -0.470275247073     
4900000000.0        -0.400386107042     -0.4720364605       0.598828754605      -0.507059224121     0.598828754605      -0.507059224121     -0.400386107042     -0.4720364605       
5000000000.0        -0.410243300962     -0.473564105997     0.588945195553      -0.509321590277     0.588945195553      -0.509321590277     -0.410243300962     -0.473564105997     
5100000000.0        -0.419979545827     -0.474867222367     0.579182006426      -0.511360408092     0.579182006426      -0.511360408092     -0.419979545827     -0.474867222367     
5200000000.0        -0.429591337733     -0.475954707968     0.569542688554      -0.513184584267     0.569542688554      -0.513184584267     -0.429591337733     -0.475954707968     
5300000000.0        -0.439075621807     -0.476835304054     0.560030294213      -0.514802868346     0.560030294213      -0.514802868346     -0.439075621807     -0.476835304054     
5400000000.0        -0.448429766692     -0.477517580373     0.550647452138      -0.51622383831      0.550647452138      -0.51622383831      -0.448429766692     -0.477517580373     
5500000000.0        -0.457651539486     -0.478009922859     0.54139639258       -0.517455888283     0.54139639258       -0.517455888283     -0.457651539486     -0.478009922859     
5600000000.0        -0.466739081252     -0.478320523269     0.532278971806      -0.518507218173     0.532278971806      -0.518507218173     -0.466739081252     -0.478320523269     
5700000000.0        -0.475690883165     -0.478457370633     0.523296695937      -0.519385825123     0.523296695937      -0.519385825123     -0.475690883165     -0.478457370633     
5800000000.0        -0.4845057634       -0.478428244355     0.514450744074      -0.520099496629     0.514450744074      -0.520099496629     -0.4845057634       -0.478428244355     
5900000000.0        -0.493182844788     -0.478240708847     0.505741990632      -0.520655805165     0.505741990632      -0.520655805165     -0.493182844788     -0.478240708847     
6000000000.0        -0.501721533305     -0.477902109544     0.497171026856      -0.521062104212     0.497171026856      -0.521062104212     -0.501721533305     -0.477902109544     
6100000000.0        -0.51012149742      -0.477419570183     0.488738181469      -0.521325525542     0.488738181469      -0.521325525542     -0.51012149742      -0.477419570183     
6200000000.0        -0.518382648326     -0.476799991226     0.480443540444      -0.521452977641     0.480443540444      -0.521452977641     -0.518382648326     -0.476799991226     
6300000000.0        -0.52650512106      -0.476050049307     0.47228696588       -0.521451145162     0.47228696588       -0.521451145162     -0.52650512106      -0.476050049307     
6400000000.0        -0.534489256534     -0.475176197595     0.464268113974      -0.521326489293     0.464268113974      -0.521326489293     -0.534489256534     -0.475176197595     
6500000000.0        -0.542335584458     -0.474184666975     0.456386452096      -0.521085248942     0.456386452096      -0.521085248942     -0.542335584458     -0.474184666975     
6600000000.0        -0.550044807155     -0.473081467954     0.448641274976      -0.520733442647     0.448641274976      -0.520733442647     -0.550044807155     -0.473081467954     
6700000000.0        -0.557617784256     -0.471872393196     0.441031720002      -0.520276871111     0.441031720002      -0.520276871111     -0.557617784256     -0.471872393196     
6800000000.0        -0.565055518256     -0.470563020612     0.433556781675      -0.519721120301     0.433556781675      -0.519721120301     -0.565055518256     -0.470563020612     
6900000000.0        -0.572359140904     -0.469158716927     0.426215325203      -0.519071565016     0.426215325203      -0.519071565016     -0.572359140904     -0.469158716927     
7000000000.0        -0.57952990042      -0.467664641659     0.419006099301      -0.518333372865     0.419006099301      -0.518333372865     -0.57952990042      -0.467664641659     
7100000000.0        -0.58656914949      -0.466085751434     0.411927748181      -0.517511508592     0.411927748181      -0.517511508592     -0.58656914949      -0.466085751434     
7200000000.0        -0.593478334033     -0.464426804597     0.404978822796      -0.516610738685     0.404978822796      -0.516610738685     -0.593478334033     -0.464426804597     
7300000000.0        -0.600258982687     -0.462692366056     0.398157791343      -0.515635636224     0.398157791343      -0.515635636224     -0.600258982687     -0.462692366056     
7400000000.0        -0.606912697016     -0.460886812309     0.391463049064      -0.514590585912     0.391463049064      -0.514590585912     -0.606912697016     -0.460886812309     
7500000000.0        -0.613441142369     -0.459014336621     0.384892927383      -0.513479789251     0.384892927383      -0.513479789251     -0.613441142369     -0.459014336621     
7600000000.0        -0.619846039391     -0.457078954303     0.378445702395      -0.512307269828     0.378445702395      -0.512307269828     -0.619846039391     -0.457078954303     
7700000000.0        -0.626129156141     -0.455084508064     0.372119602748      -0.511076878666     0.372119602748      -0.511076878666     -0.626129156141     -0.455084508064     
7800000000.0        -0.632292300784     -0.453034673406     0.365912816948      -0.509792299622     0.365912816948      -0.509792299622     -0.632292300784     -0.453034673406     
7900000000.0        -0.638337314837     -0.450932964027     0.35982350012       -0.508457054792     0.35982350012       -0.508457054792     -0.638337314837     -0.450932964027     
8000000000.0        -0.644266066926     -0.448782737218     0.353849780238      -0.50707450991      0.353849780238      -0.50707450991      -0.644266066926     -0.448782737218     
8100000000.0        -0.650080447043     -0.446587199228     0.347989763881      -0.505647879716     0.347989763881      -0.505647879716     -0.650080447043     -0.446587199228     
8200000000.0        -0.655782361248     -0.444349410577     0.342241541522      -0.504180233267     0.342241541522      -0.504180233267     -0.655782361248     -0.444349410577     
8300000000.0        -0.661373726822     -0.4420722913       0.336603192378      -0.502674499191     0.336603192378      -0.502674499191     -0.661373726822     -0.4420722913       
8400000000.0        -0.666856467814     -0.439758626124     0.331072788861      -0.501133470855     0.331072788861      -0.501133470855     -0.666856467814     -0.439758626124     
8500000000.0        -0.672232510974     -0.437411069534     0.325648400644      -0.499559811441     0.325648400644      -0.499559811441     -0.672232510974     -0.437411069534     
8600000000.0        -0.677503782048     -0.435032150757     0.320328098367      -0.497956058926     0.320328098367      -0.497956058926     -0.677503782048     -0.435032150757     
8700000000.0        -0.682672202401     -0.432624278623     0.315109957016      -0.49632463095      0.315109957016      -0.49632463095      -0.682672202401     -0.432624278623     
8800000000.0        -0.687739685957     -0.430189746316     0.309992058977      -0.494667829563     0.309992058977      -0.494667829563     -0.687739685957     -0.430189746316     
8900000000.0        -0.692708136426     -0.427730736002     0.30497249681       -0.492987845858     0.30497249681       -0.492987845858     -0.692708136426     -0.427730736002     
9000000000.0        -0.697579444808     -0.425249323335     0.300049375751      -0.491286764476     0.300049375751      -0.491286764476     -0.697579444808     -0.425249323335     
9100000000.0        -0.702355487143     -0.422747481825     0.295220815949      -0.489566567978     0.295220815949      -0.489566567978     -0.702355487143     -0.422747481825     
9200000000.0        -0.707038122501     -0.420227087089     0.290484954489      -0.487829141094     0.290484954489      -0.487829141094     -0.707038122501     -0.420227087089     
9300000000.0        -0.711629191187     -0.417689920956     0.285839947177      -0.486076274833     0.285839947177      -0.486076274833     -0.711629191187     -0.417689920956     
9400000000.0        -0.716130513146     -0.415137675451     0.281283970138      -0.484309670462     0.281283970138      -0.484309670462     -0.716130513146     -0.415137675451     
9500000000.0        -0.720543886561     -0.41257195664      0.276815221218      -0.48253094336      0.276815221218      -0.48253094336      -0.720543886561     -0.41257195664      
9600000000.0        -0.724871086613     -0.409994288342     0.272431921223      -0.480741626727     0.272431921223      -0.480741626727     -0.724871086613     -0.409994288342     
9700000000.0        -0.729113864412     -0.407406115722     0.268132314986      -0.478943175173     0.268132314986      -0.478943175173     -0.729113864412     -0.407406115722     
9800000000.0        -0.733273946065     -0.404808808736     0.2639146723        -0.477136968177     0.2639146723        -0.477136968177     -0.733273946065     -0.404808808736     
9900000000.0        -0.737353031886     -0.402203665468     0.259777288709      -0.475324313412     0.259777288709      -0.475324313412     -0.737353031886     -0.402203665468     
10000000000.0       -0.741352795725     -0.399591915331     0.255718486172      -0.473506449952     0.255718486172      -0.473506449952     -0.741352795725     -0.399591915331     
