# Hz S RI R 50.00 
100000000.0         0.000159340769937   -0.00666119917741   0.999712768166      -0.00832424538934   0.999712768166      -0.00832424538934   0.000159340769937   -0.00666119917741   
200000000.0         -1.27953305703e-05  -0.0133202709807    0.999533462513      -0.0166464622162    0.999533462513      -0.0166464622162    -1.27953305702e-05  -0.0133202709807    
300000000.0         -0.000296134705839  -0.0199750401789    0.999240955829      -0.0249645417083    0.999240955829      -0.0249645417083    -0.000296134705839  -0.0199750401789    
400000000.0         -0.00069035439856   -0.0266232705414    0.998835185726      -0.0332763004007    0.998835185726      -0.0332763004007    -0.000690354398561  -0.0266232705414    
500000000.0         -0.00119518997758   -0.033262697133     0.998316267624      -0.0415795199538    0.998316267624      -0.0415795199538    -0.00119518997758   -0.033262697133     
600000000.0         -0.00181035205091   -0.0398910393459    0.997684414095      -0.0498719624654    0.997684414095      -0.0498719624654    -0.00181035205091   -0.0398910393459    
700000000.0         -0.00253550457775   -0.0465060087131    0.996939914902      -0.0581513793967    0.996939914902      -0.0581513793967    -0.00253550457775   -0.0465060087131    
800000000.0         -0.00337025677234   -0.0531053145303    0.996083129922      -0.0664155178444    0.996083129922      -0.0664155178444    -0.00337025677234   -0.0531053145303    
900000000.0         -0.0043141594834    -0.0596866683577    0.995114486029      -0.0746621254639    0.995114486029      -0.0746621254639    -0.0043141594834    -0.0596866683577    
1000000000.0        -0.00536670344985   -0.0662477878708    0.994034475428      -0.0828889546146    0.994034475428      -0.0828889546146    -0.00536670344985   -0.0662477878708    
1100000000.0        -0.00652731849545   -0.0727864002987    0.992843654575      -0.091093766013     0.992843654575      -0.091093766013     -0.00652731849545   -0.0727864002987    
1200000000.0        -0.0077953732664    -0.0793002455777    0.991542643312      -0.0992743320496    0.991542643312      -0.0992743320496    -0.0077953732664    -0.0793002455777    
1300000000.0        -0.00917017532335   -0.0857870792967    0.990132124076      -0.107428439863     0.990132124076      -0.107428439863     -0.00917017532335   -0.0857870792967    
1400000000.0        -0.010650971489     -0.0922446754799    0.988612841085      -0.115553894227     0.988612841085      -0.115553894227     -0.010650971489     -0.0922446754799    
1500000000.0        -0.0122369483957    -0.098670829237     0.986985599488      -0.123648520281     0.986985599488      -0.123648520281     -0.0122369483957    -0.098670829237     
1600000000.0        -0.0139272331976    -0.105063359296     0.985251264424      -0.131710166142     0.985251264424      -0.131710166142     -0.0139272331976    -0.105063359296     
1700000000.0        -0.0157208944266    -0.111420110435     0.983410760015      -0.139736705384     0.983410760015      -0.139736705384     -0.0157208944266    -0.111420110435     
1800000000.0        -0.0176169429744    -0.117738955812     0.98146506827       -0.147726039431     0.98146506827       -0.147726039431     -0.0176169429744    -0.117738955812     
1900000000.0        -0.01961433319      -0.124017799209     0.9794152279        -0.155676099839     0.9794152279        -0.155676099839     -0.01961433319      -0.124017799209     
2000000000.0        -0.0217119640827    -0.130254577184     0.977262333049      -0.163584850486     0.977262333049      -0.163584850486     -0.0217119640827    -0.130254577184     
2100000000.0        -0.0239086806227    -0.136447261128     0.975007531949      -0.171450289666     0.975007531949      -0.171450289666     -0.0239086806227    -0.136447261128     
2200000000.0        -0.0262032751322    -0.142593859244     0.972652025483      -0.179270452098     0.972652025483      -0.179270452098     -0.0262032751322    -0.142593859244     
2300000000.0        -0.0285944887603    -0.148692418427     0.970197065683      -0.187043410833     0.970197065683      -0.187043410833     -0.0285944887603    -0.148692418427     
2400000000.0        -0.0310810130366    -0.154741026064     0.967643954154      -0.194767279076     0.967643954154      -0.194767279076     -0.0310810130366    -0.154741026064     
2500000000.0        -0.0336614914965    -0.160737811732     0.964994040425      -0.202440211911     0.964994040425      -0.202440211911     -0.0336614914965    -0.160737811732     
2600000000.0        -0.0363345213729    -0.166680948813     0.962248720243      -0.210060407932     0.962248720243      -0.210060407932     -0.0363345213729    -0.166680948813     
2700000000.0        -0.0390986553497    -0.172568656016     0.959409433805      -0.217626110784     0.959409433805      -0.217626110784     -0.0390986553497    -0.172568656016     
2800000000.0        -0.0419524033704    -0.178399198797     0.956477663944      -0.225135610603     0.956477663944      -0.225135610603     -0.0419524033704    -0.178399198797     
2900000000.0        -0.0448942344968    -0.184170890695     0.953454934251      -0.232587245362     0.953454934251      -0.232587245362     -0.0448942344968    -0.184170890695     
3000000000.0        -0.0479225788135    -0.189882094562     0.950342807176      -0.239979402122     0.950342807176      -0.239979402122     -0.0479225788135    -0.189882094562     
3100000000.0        -0.0510358293708    -0.195531223708     0.947142882066      -0.247310518186     0.947142882066      -0.247310518186     -0.0510358293708    -0.195531223708     
3200000000.0        -0.0542323441629    -0.20111674294      0.94385679319       -0.254579082149     0.94385679319       -0.254579082149     -0.0542323441629    -0.20111674294      
3300000000.0        -0.0575104481351    -0.206637169508     0.940486207725      -0.26178363486      0.940486207725      -0.26178363486      -0.0575104481351    -0.206637169508     
3400000000.0        -0.0608684352148    -0.212091073956     0.937032823719      -0.268922770282     0.937032823719      -0.268922770282     -0.0608684352148    -0.212091073956     
3500000000.0        -0.0643045703618    -0.217477080873     0.933498368038      -0.275995136252     0.933498368038      -0.275995136252     -0.0643045703618    -0.217477080873     
3600000000.0        -0.0678170916328    -0.222793869552     0.9298845943        -0.28299943515      0.9298845943        -0.28299943515      -0.0678170916328    -0.222793869552     
3700000000.0        -0.0714042122544    -0.228040174551     0.926193280798      -0.289934424469     0.926193280798      -0.289934424469     -0.0714042122544    -0.228040174551     
3800000000.0        -0.0750641227018    -0.233214786158     0.922426228419      -0.29679891729      0.922426228419      -0.29679891729      -0.0750641227018    -0.233214786158     
3900000000.0        -0.0787949927757    -0.238316550771     0.918585258566      -0.303591782664     0.918585258566      -0.303591782664     -0.0787949927757    -0.238316550771     
4000000000.0        -0.082594973676     -0.243344371171     0.91467221108       -0.310311945905     0.91467221108       -0.310311945905     -0.082594973676     -0.243344371171     
4100000000.0        -0.0864622000653    -0.248297206725     0.910688942177      -0.316958388783     0.910688942177      -0.316958388783     -0.0864622000653    -0.248297206725     
4200000000.0        -0.0903947921197    -0.253174073478     0.906637322395      -0.323530149639     0.906637322395      -0.323530149639     -0.0903947921197    -0.253174073478     
4300000000.0        -0.0943908575617    -0.257974044177     0.902519234558      -0.330026323404     0.902519234558      -0.330026323404     -0.0943908575617    -0.257974044177     
4400000000.0        -0.0984484936724    -0.262696248203     0.898336571764      -0.336446061541     0.898336571764      -0.336446061541     -0.0984484936724    -0.262696248203     
4500000000.0        -0.102565789278     -0.267339871414     0.894091235398      -0.342788571897     0.894091235398      -0.342788571897     -0.102565789278     -0.267339871414     
4600000000.0        -0.106740826709     -0.271904155921     0.889785133169      -0.349053118479     0.889785133169      -0.349053118479     -0.106740826709     -0.271904155921     
4700000000.0        -0.110971683724     -0.276388399778     0.885420177186      -0.355239021152     0.885420177186      -0.355239021152     -0.110971683724     -0.276388399778     
4800000000.0        -0.115256435403     -0.2807919566       0.880998282064      -0.361345655262     0.880998282064      -0.361345655262     -0.115256435403     -0.2807919566       
4900000000.0        -0.119593156002     -0.285114235106     0.876521363069      -0.367372451184     0.876521363069      -0.367372451184     -0.119593156002     -0.285114235106     
5000000000.0        -0.12397992076      -0.2893546986       0.871991334308      -0.373318893806     0.871991334308      -0.373318893806     -0.12397992076      -0.2893546986       
5100000000.0        -0.128414807672     -0.29351286438      0.867410106954      -0.379184521942     0.867410106954      -0.379184521942     -0.128414807672     -0.29351286438      
5200000000.0        -0.132895899212     -0.297588303082     0.862779587527      -0.384968927685     0.862779587527      -0.384968927685     -0.132895899212     -0.297588303082     
5300000000.0        -0.137421284004     -0.301580637974     0.858101676215      -0.390671755699     0.858101676215      -0.390671755699     -0.137421284004     -0.301580637974     
5400000000.0        -0.14198905845      -0.305489544184     0.853378265249      -0.396292702454     0.853378265249      -0.396292702454     -0.14198905845      -0.305489544184     
5500000000.0        -0.146597328305     -0.309314747877     0.848611237331      -0.401831515405     0.848611237331      -0.401831515405     -0.146597328305     -0.309314747877     
5600000000.0        -0.15124421019      -0.313056025385     0.843802464107      -0.407287992128     0.843802464107      -0.407287992128     -0.15124421019      -0.313056025385     
5700000000.0        -0.155927833065     -0.316713202287     0.838953804707      -0.412661979401     0.838953804707      -0.412661979401     -0.155927833065     -0.316713202287     
5800000000.0        -0.160646339632     -0.320286152447     0.834067104333      -0.417953372245     0.834067104333      -0.417953372245     -0.160646339632     -0.320286152447     
5900000000.0        -0.165397887692     -0.323774797008     0.829144192903      -0.423162112924     0.829144192903      -0.423162112924     -0.165397887692     -0.323774797008     
6000000000.0        -0.170180651435     -0.327179103355     0.824186883759      -0.428288189909     0.824186883759      -0.428288189909     -0.170180651435     -0.327179103355     
6100000000.0        -0.174992822681     -0.330499084041     0.819196972425      -0.433331636806     0.819196972425      -0.433331636806     -0.174992822681     -0.330499084041     
6200000000.0        -0.179832612057     -0.333734795678     0.814176235433      -0.438292531251     0.814176235433      -0.438292531251     -0.179832612057     -0.333734795678     
6300000000.0        -0.184698250111     -0.336886337812     0.809126429198      -0.443170993787     0.809126429198      -0.443170993787     -0.184698250111     -0.336886337812     
6400000000.0        -0.189587988377     -0.339953851757     0.804049288964      -0.447967186704     0.804049288964      -0.447967186704     -0.189587988377     -0.339953851757     
6500000000.0        -0.194500100371     -0.342937519426     0.798946527796      -0.452681312864     0.798946527796      -0.452681312864     -0.194500100371     -0.342937519426     
6600000000.0        -0.199432882537     -0.345837562125     0.79381983564       -0.457313614508     0.79381983564       -0.457313614508     -0.199432882537     -0.345837562125     
6700000000.0        -0.204384655126     -0.348654239349     0.788670878441      -0.461864372047     0.788670878441      -0.461864372047     -0.204384655126     -0.348654239349     
6800000000.0        -0.20935376302      -0.351387847551     0.783501297314      -0.466333902834     0.783501297314      -0.466333902834     -0.20935376302      -0.351387847551     
6900000000.0        -0.214338576501     -0.354038718908     0.778312707778      -0.470722559936     0.778312707778      -0.470722559936     -0.214338576501     -0.354038718908     
7000000000.0        -0.219337491962     -0.35660722008      0.773106699044      -0.475030730891     0.773106699044      -0.475030730891     -0.219337491962     -0.35660722008      
7100000000.0        -0.224348932557     -0.35909375096      0.767884833358      -0.479258836461     0.767884833358      -0.479258836461     -0.224348932557     -0.35909375096      
7200000000.0        -0.229371348803     -0.361498743424     0.762648645407      -0.483407329386     0.762648645407      -0.483407329386     -0.229371348803     -0.361498743424     
7300000000.0        -0.234403219122     -0.363822660082     0.757399641766      -0.487476693132     0.757399641766      -0.487476693132     -0.234403219122     -0.363822660082     
7400000000.0        -0.239443050333     -0.366065993028     0.752139300409      -0.491467440649     0.752139300409      -0.491467440649     -0.239443050333     -0.366065993028     
7500000000.0        -0.244489378091     -0.368229262595     0.74686907027       -0.495380113124     0.74686907027       -0.495380113124     -0.244489378091     -0.368229262595     
7600000000.0        -0.249540767278     -0.370313016121     0.74159037085       -0.499215278748     0.74159037085       -0.499215278748     -0.249540767278     -0.370313016121     
7700000000.0        -0.254595812336     -0.372317826715     0.736304591877      -0.502973531484     0.736304591877      -0.502973531484     -0.254595812336     -0.372317826715     
7800000000.0        -0.259653137566     -0.374244292039     0.731013093017      -0.506655489855     0.731013093017      -0.506655489855     -0.259653137566     -0.374244292039     
7900000000.0        -0.264711397362     -0.376093033099     0.725717203621      -0.510261795729     0.725717203621      -0.510261795729     -0.264711397362     -0.376093033099     
8000000000.0        -0.269769276422     -0.377864693054     0.720418222535      -0.513793113133     0.720418222535      -0.513793113133     -0.269769276422     -0.377864693054     
8100000000.0        -0.274825489892     -0.379559936029     0.715117417934      -0.517250127072     0.715117417934      -0.517250127072     -0.274825489892     -0.379559936029     
8200000000.0        -0.279878783486     -0.381179445959     0.709816027211      -0.520633542363     0.709816027211      -0.520633542363     -0.279878783486     -0.381179445959     
8300000000.0        -0.284927933554     -0.382723925436     0.704515256904      -0.523944082497     0.704515256904      -0.523944082497     -0.284927933554     -0.382723925436     
8400000000.0        -0.28997174712      -0.384194094587     0.69921628266       -0.527182488507     0.69921628266       -0.527182488507     -0.28997174712      -0.384194094587     
8500000000.0        -0.295009061873     -0.385590689964     0.693920249238      -0.530349517862     0.693920249238      -0.530349517862     -0.295009061873     -0.385590689964     
8600000000.0        -0.300038746128     -0.386914463454     0.688628270549      -0.533445943384     0.688628270549      -0.533445943384     -0.300038746128     -0.386914463454     
8700000000.0        -0.30505969875      -0.388166181221     0.683341429726      -0.536472552183     0.683341429726      -0.536472552183     -0.30505969875      -0.388166181221     
8800000000.0        -0.310070849049     -0.389346622655     0.678060779235      -0.539430144615     0.678060779235      -0.539430144615     -0.310070849049     -0.389346622655     
8900000000.0        -0.315071156641     -0.390456579362     0.672787341007      -0.54231953326      0.672787341007      -0.54231953326      -0.315071156641     -0.390456579362     
9000000000.0        -0.320059611274     -0.391496854157     0.667522106607      -0.545141541936     0.667522106607      -0.545141541936     -0.320059611274     -0.391496854157     
9100000000.0        -0.325035232638     -0.392468260105     0.662266037431      -0.54789700472      0.662266037431      -0.54789700472      -0.325035232638     -0.392468260105     
9200000000.0        -0.329997070138     -0.393371619567     0.657020064924      -0.550586765008     0.657020064924      -0.550586765008     -0.329997070138     -0.393371619567     
9300000000.0        -0.334944202645     -0.39420776328      0.651785090828      -0.553211674594     0.651785090828      -0.553211674594     -0.334944202645     -0.39420776328      
9400000000.0        -0.339875738228     -0.394977529465     0.646561987453      -0.555772592775     0.646561987453      -0.555772592775     -0.339875738228     -0.394977529465     
9500000000.0        -0.344790813855     -0.395681762957     0.641351597968      -0.558270385481     0.641351597968      -0.558270385481     -0.344790813855     -0.395681762957     
9600000000.0        -0.349688595081     -0.396321314359     0.636154736715      -0.560705924439     0.636154736715      -0.560705924439     -0.349688595081     -0.396321314359     
9700000000.0        -0.354568275712     -0.396897039229     0.630972189538      -0.563080086349     0.630972189538      -0.563080086349     -0.354568275712     -0.396897039229     
9800000000.0        -0.359429077456     -0.397409797288     0.625804714139      -0.565393752099     0.625804714139      -0.565393752099     -0.359429077456     -0.397409797288     
9900000000.0        -0.364270249551     -0.397860451654     0.620653040437      -0.567647806        0.620653040437      -0.567647806        -0.364270249551     -0.397860451654     
10000000000.0       -0.369091068385     -0.398249868107     0.615517870957      -0.569843135048     0.615517870957      -0.569843135048     -0.369091068385     -0.398249868107     
