# Hz S RI R 50.00 
100000000.0         -0.00719051413587   -0.0840079292169    0.992786284322      -0.0841099573627    0.992786284322      -0.0841099573627    -0.00719051413587   -0.0840079292169    
200000000.0         -0.0280200442879    -0.164461834022     0.971956579784      -0.16466593391      0.971956579784      -0.16466593391      -0.0280200442879    -0.164461834022     
300000000.0         -0.0607957299145    -0.238324218875     0.939180749078      -0.238630456153     0.939180749078      -0.238630456153     -0.0607957299145    -0.238324218875     
400000000.0         -0.103087576783     -0.303384869511     0.896888766479      -0.303793326144     0.896888766479      -0.303793326144     -0.103087576783     -0.303384869511     
500000000.0         -0.152128631652     -0.358401995067     0.847847577561      -0.358912766153     0.847847577561      -0.358912766153     -0.152128631652     -0.358401995067     
600000000.0         -0.205198381673     -0.403048851705     0.794777691266      -0.403662043189     0.794777691266      -0.403662043189     -0.205198381673     -0.403048851705     
700000000.0         -0.259900345541     -0.437728484009     0.740075586585      -0.438444210891     0.740075586585      -0.438444210891     -0.259900345541     -0.437728484009     
800000000.0         -0.314309567091     -0.463335857578     0.685666218174      -0.464154242429     0.685666218174      -0.464154242429     -0.314309567091     -0.463335857578     
900000000.0         -0.367007594754     -0.481031120442     0.63296803655       -0.481952292131     0.63296803655       -0.481952292131     -0.367007594754     -0.481031120442     
1000000000.0        -0.417041738283     -0.492059480165     0.582933731192      -0.493083572768     0.582933731192      -0.493083572768     -0.417041738283     -0.492059480165     
1100000000.0        -0.463845785145     -0.497627863959     0.536129514046      -0.498755015794     0.536129514046      -0.498755015794     -0.463845785145     -0.497627863959     
1200000000.0        -0.507150130133     -0.498832721371     0.492824989855      -0.50006307415      0.492824989855      -0.50006307415      -0.507150130133     -0.498832721371     
1300000000.0        -0.546898114278     -0.496626694489     0.453076817214      -0.497960392575     0.453076817214      -0.497960392575     -0.546898114278     -0.496626694489     
1400000000.0        -0.583176309367     -0.491811265199     0.416798424027      -0.493248454941     0.416798424027      -0.493248454941     -0.583176309367     -0.491811265199     
1500000000.0        -0.616160603457     -0.485044736233     0.383813921977      -0.486585565386     0.383813921977      -0.486585565386     -0.616160603457     -0.485044736233     
1600000000.0        -0.646076806509     -0.476857907371     0.353897500877      -0.478502524577     0.353897500877      -0.478502524577     -0.646076806509     -0.476857907371     
1700000000.0        -0.673173222466     -0.467672515241     0.326800856591      -0.469421069581     0.326800856591      -0.469421069581     -0.673173222466     -0.467672515241     
1800000000.0        -0.697702425314     -0.457819556854     0.302271414963      -0.459672197449     0.302271414963      -0.459672197449     -0.697702425314     -0.457819556854     
1900000000.0        -0.719909773681     -0.447556011764     0.280063817211      -0.449512887434     0.280063817211      -0.449512887434     -0.719909773681     -0.447556011764     
2000000000.0        -0.740026670477     -0.437079348797     0.25994666029       -0.439140607759     0.25994666029       -0.439140607759     -0.740026670477     -0.437079348797     
2100000000.0        -0.758267051324     -0.42653970452      0.241706008455      -0.428705494133     0.241706008455      -0.428705494133     -0.758267051324     -0.42653970452      
2200000000.0        -0.77482599651      -0.416049881593     0.225146781303      -0.418320348138     0.225146781303      -0.418320348138     -0.77482599651      -0.416049881593     
2300000000.0        -0.789879686244     -0.405693430138     0.210092798525      -0.408068718636     0.210092798525      -0.408068718636     -0.789879686244     -0.405693430138     
2400000000.0        -0.803586162968     -0.395531107398     0.196386017581      -0.398011361451     0.196386017581      -0.398011361451     -0.803586162968     -0.395531107398     
2500000000.0        -0.816086541176     -0.385605999803     0.18388532389       -0.388191361474     0.18388532389       -0.388191361474     -0.816086541176     -0.385605999803     
2600000000.0        -0.827506429632     -0.375947560665     0.172465108604      -0.378638170371     0.172465108604      -0.378638170371     -0.827506429632     -0.375947560665     
2700000000.0        -0.837957416885     -0.36657477925      0.162013783099      -0.369370775688     0.162013783099      -0.369370775688     -0.837957416885     -0.36657477925      
2800000000.0        -0.847538529079     -0.357498659883     0.152432321158      -0.360400179968     0.152432321158      -0.360400179968     -0.847538529079     -0.357498659883     
2900000000.0        -0.856337607796     -0.348724156215     0.143632881131      -0.35173133504      0.143632881131      -0.35173133504      -0.856337607796     -0.348724156215     
3000000000.0        -0.864432580866     -0.340251677034     0.135537535122      -0.343364647843     0.135537535122      -0.343364647843     -0.864432580866     -0.340251677034     
3100000000.0        -0.871892615141     -0.33207825609      0.12807711622       -0.335297150268     0.12807711622       -0.335297150268     -0.871892615141     -0.33207825609      
3200000000.0        -0.878779150146     -0.324198458958     0.121190184838      -0.327523406031     0.121190184838      -0.327523406031     -0.878779150146     -0.324198458958     
3300000000.0        -0.885146817356     -0.316605084365     0.11482210945       -0.320036212011     0.11482210945       -0.320036212011     -0.885146817356     -0.316605084365     
3400000000.0        -0.891044253007     -0.309289705003     0.108924253765      -0.312827139073     0.108924253765      -0.312827139073     -0.891044253007     -0.309289705003     
3500000000.0        -0.89651481387      -0.302243083071     0.10345326096       -0.305886947615     0.10345326096       -0.305886947615     -0.89651481387      -0.302243083071     
3600000000.0        -0.901597205814     -0.295455488094     0.0983704251181     -0.299205905402     0.0983704251181     -0.299205905402     -0.901597205814     -0.295455488094     
3700000000.0        -0.906326034777     -0.288916938576     0.0936411402539     -0.292774029215     0.0936411402539     -0.292774029215     -0.906326034777     -0.288916938576     
3800000000.0        -0.910732289225     -0.282617384291     0.0892344178551     -0.286581267154     0.0892344178551     -0.286581267154     -0.910732289225     -0.282617384291     
3900000000.0        -0.9148437624       -0.276546842386     0.0851224646372     -0.280617634742     0.0851224646372     -0.280617634742     -0.9148437624       -0.276546842386     
4000000000.0        -0.918685421854     -0.270695497579     0.081280313005      -0.274873315126     0.081280313005      -0.274873315126     -0.918685421854     -0.270695497579     
4100000000.0        -0.922279732959     -0.265053774484     0.0776854975436     -0.26933873141      0.0776854975436     -0.26933873141      -0.922279732959     -0.265053774484     
4200000000.0        -0.92564694229      -0.259612388382     0.0743177716383     -0.264004597419     0.0743177716383     -0.264004597419     -0.92564694229      -0.259612388382     
4300000000.0        -0.92880532605      -0.254362379334     0.0711588590464     -0.258861951825     0.0711588590464     -0.258861951825     -0.92880532605      -0.254362379334     
4400000000.0        -0.931771408074     -0.249295133527     0.0681922358954     -0.253902179484     0.0681922358954     -0.253902179484     -0.931771408074     -0.249295133527     
4500000000.0        -0.934560151337     -0.244402394835     0.0654029391704     -0.249117023004     0.0654029391704     -0.249117023004     -0.934560151337     -0.244402394835     
4600000000.0        -0.937185126409     -0.23967626899      0.062777398266      -0.244498586915     0.062777398266      -0.244498586915     -0.937185126409     -0.23967626899      
4700000000.0        -0.939658659803     -0.235109222182     0.0603032866326     -0.240039336268     0.0603032866326     -0.240039336268     -0.939658659803     -0.235109222182     
4800000000.0        -0.941991964809     -0.23069407555      0.057969390943      -0.235732091128     0.057969390943      -0.235732091128     -0.941991964809     -0.23069407555      
4900000000.0        -0.94419525704      -0.226423996672     0.0557654955491     -0.231570018064     0.0557654955491     -0.231570018064     -0.94419525704      -0.226423996672     
5000000000.0        -0.946277856619     -0.222292488943     0.0536822802931     -0.227546619521     0.0536822802931     -0.227546619521     -0.946277856619     -0.222292488943     
5100000000.0        -0.948248278686     -0.218293379505     0.0517112300005     -0.223655721757     0.0517112300005     -0.223655721757     -0.948248278686     -0.218293379505     
5200000000.0        -0.950114313678     -0.214420806253     0.0498445541999     -0.219891461844     0.0498445541999     -0.219891461844     -0.950114313678     -0.214420806253     
5300000000.0        -0.951883098642     -0.210669204338     0.0480751158097     -0.216248274169     0.0480751158097     -0.216248274169     -0.951883098642     -0.210669204338     
5400000000.0        -0.953561180677     -0.207033292439     0.0463963676973     -0.212720876711     0.0463963676973     -0.212720876711     -0.953561180677     -0.207033292439     
5500000000.0        -0.955154573455     -0.203508059067     0.044802296157      -0.209304257334     0.044802296157      -0.209304257334     -0.955154573455     -0.203508059067     
5600000000.0        -0.956668807649     -0.200088749051     0.0432873704812     -0.205993660281     0.0432873704812     -0.205993660281     -0.956668807649     -0.200088749051     
5700000000.0        -0.958108975996     -0.196770850342     0.0418464979001     -0.202784572971     0.0418464979001     -0.202784572971     -0.958108975996     -0.196770850342     
5800000000.0        -0.959479773615     -0.19355008122      0.0404749832623     -0.199672713208     0.0404749832623     -0.199672713208     -0.959479773615     -0.19355008122      
5900000000.0        -0.960785534131     -0.19042237797      0.0391684929066     -0.196654016857     0.0391684929066     -0.196654016857     -0.960785534131     -0.19042237797      
6000000000.0        -0.962030262103     -0.187383883065     0.0379230222427     -0.193724626017     0.0379230222427     -0.193724626017     -0.962030262103     -0.187383883065     
6100000000.0        -0.963217662145     -0.184430933872     0.0367348666214     -0.190880877737     0.0367348666214     -0.190880877737     -0.963217662145     -0.184430933872     
6200000000.0        -0.964351165144     -0.181560051906     0.0356005951238     -0.18811929326      0.0356005951238     -0.18811929326      -0.964351165144     -0.181560051906     
6300000000.0        -0.965433951867     -0.178767932614     0.0345170269468     -0.185436567812     0.0345170269468     -0.185436567812     -0.965433951867     -0.178767932614     
6400000000.0        -0.966468974274     -0.176051435705     0.0334812100983     -0.182829560925     0.0334812100983     -0.182829560925     -0.966468974274     -0.176051435705     
6500000000.0        -0.967458974756     -0.173407575989     0.0324904021526     -0.18029528728      0.0324904021526     -0.18029528728      -0.967458974756     -0.173407575989     
6600000000.0        -0.968406503544     -0.170833514729     0.0315420528443     -0.177830908051     0.0315420528443     -0.177830908051     -0.968406503544     -0.170833514729     
6700000000.0        -0.969313934472     -0.168326551476     0.0306337883053     -0.175433722748     0.0306337883053     -0.175433722748     -0.969313934472     -0.168326551476     
6800000000.0        -0.970183479268     -0.165884116373     0.0297633967726     -0.173101161508     0.0297633967726     -0.173101161508     -0.970183479268     -0.165884116373     
6900000000.0        -0.971017200529     -0.163503762899     0.0289288156135     -0.170830777851     0.0289288156135     -0.170830777851     -0.971017200529     -0.163503762899     
7000000000.0        -0.971817023513     -0.161183161047     0.0281281195347     -0.168620241843     0.0281281195347     -0.168620241843     -0.971817023513     -0.161183161047     
7100000000.0        -0.97258474687      -0.158920090889     0.0273595098522     -0.166467333674     0.0273595098522     -0.166467333674     -0.97258474687      -0.158920090889     
7200000000.0        -0.973322052411     -0.156712436535     0.0266213047178     -0.1643699376       0.0266213047178     -0.1643699376       -0.973322052411     -0.156712436535     
7300000000.0        -0.974030514026     -0.154558180438     0.0259119302057     -0.162326036263     0.0259119302057     -0.162326036263     -0.974030514026     -0.154558180438     
7400000000.0        -0.974711605818     -0.152455398048     0.0252299121761     -0.160333705333     0.0252299121761     -0.160333705333     -0.974711605818     -0.152455398048     
7500000000.0        -0.975366709542     -0.150402252778     0.0245738688375     -0.158391108475     0.0245738688375     -0.158391108475     -0.975366709542     -0.150402252778     
7600000000.0        -0.975997121407     -0.14839699127      0.0239425039442     -0.156496492617     0.0239425039442     -0.156496492617     -0.975997121407     -0.14839699127      
7700000000.0        -0.976604058305     -0.146437938947     0.023334600565      -0.154648183497     0.023334600565      -0.154648183497     -0.976604058305     -0.146437938947     
7800000000.0        -0.977188663528     -0.144523495821     0.0227490153716     -0.152844581476     0.0227490153716     -0.152844581476     -0.977188663528     -0.144523495821     
7900000000.0        -0.977752012003     -0.142652132559     0.0221846733969     -0.151084157596     0.0221846733969     -0.151084157596     -0.977752012003     -0.142652132559     
8000000000.0        -0.978295115112     -0.140822386775     0.0216405632213     -0.149365449874     0.0216405632213     -0.149365449874     -0.978295115112     -0.140822386775     
8100000000.0        -0.978818925115     -0.13903285954      0.0211157325458     -0.147687059813     0.0211157325458     -0.147687059813     -0.978818925115     -0.13903285954      
8200000000.0        -0.979324339222     -0.137282212104     0.0206092841194     -0.14604764912      0.0206092841194     -0.14604764912      -0.979324339222     -0.137282212104     
8300000000.0        -0.979812203349     -0.135569162798     0.020120371987      -0.14444593661      0.020120371987      -0.14444593661      -0.979812203349     -0.135569162798     
8400000000.0        -0.980283315573     -0.133892484128     0.0196481980309     -0.142880695297     0.0196481980309     -0.142880695297     -0.980283315573     -0.133892484128     
8500000000.0        -0.980738429324     -0.13225100003      0.0191920087793     -0.141350749649     0.0191920087793     -0.141350749649     -0.980738429324     -0.13225100003      
8600000000.0        -0.981178256335     -0.130643583283     0.0187510924588     -0.139854973003     0.0187510924588     -0.139854973003     -0.981178256335     -0.130643583283     
8700000000.0        -0.981603469361     -0.129069153078     0.0183247762708     -0.138392285125     0.0183247762708     -0.138392285125     -0.981603469361     -0.129069153078     
8800000000.0        -0.982014704706     -0.127526672713     0.0179124238709     -0.136961649916     0.0179124238709     -0.136961649916     -0.982014704706     -0.127526672713     
8900000000.0        -0.982412564548     -0.12601514743      0.0175134330364     -0.135562073239     0.0175134330364     -0.135562073239     -0.982412564548     -0.12601514743      
9000000000.0        -0.982797619107     -0.124533622369     0.0171272335046     -0.134192600876     0.0171272335046     -0.134192600876     -0.982797619107     -0.124533622369     
9100000000.0        -0.983170408645     -0.123081180635     0.0167532849684     -0.132852316595     0.0167532849684     -0.132852316595     -0.983170408645     -0.123081180635     
9200000000.0        -0.983531445331     -0.121656941477     0.0163910752162     -0.131540340326     0.0163910752162     -0.131540340326     -0.983531445331     -0.121656941477     
9300000000.0        -0.983881214961     -0.120260058562     0.0160401184051     -0.130255826439     0.0160401184051     -0.130255826439     -0.983881214961     -0.120260058562     
9400000000.0        -0.98422017857      -0.11888971835      0.0156999534551     -0.128997962112     0.0156999534551     -0.128997962112     -0.98422017857      -0.11888971835      
9500000000.0        -0.984548773922     -0.117545138555     0.0153701425563     -0.127765965796     0.0153701425563     -0.127765965796     -0.984548773922     -0.117545138555     
9600000000.0        -0.984867416898     -0.116225566686     0.0150502697797     -0.126559085756     0.0150502697797     -0.126559085756     -0.984867416898     -0.116225566686     
9700000000.0        -0.985176502795     -0.114930278674     0.0147399397829     -0.125376598694     0.0147399397829     -0.125376598694     -0.985176502795     -0.114930278674     
9800000000.0        -0.985476407526     -0.113658577566     0.014438776604      -0.124217808445     0.014438776604      -0.124217808445     -0.985476407526     -0.113658577566     
9900000000.0        -0.985767488748     -0.112409792292     0.014146422537      -0.123082044744     0.014146422537      -0.123082044744     -0.985767488748     -0.112409792292     
10000000000.0       -0.986050086913     -0.111183276494     0.0138625370823     -0.121968662053     0.0138625370823     -0.121968662053     -0.986050086913     -0.111183276494     
