# Hz S RI R 50.00 
100000000.0         -4.40131290155e-05  -0.0106331600132    0.999775152855      -0.011551084943     0.999775152855      -0.011551084943     -4.40131290155e-05  -0.0106331600132    
200000000.0         -0.000422651401843  -0.0212584854256    0.999394023236      -0.0230944469765    0.999394023236      -0.0230944469765    -0.000422651401843  -0.0212584854256    
300000000.0         -0.00104650228722   -0.0318682737136    0.998767148854      -0.0346224463498    0.998767148854      -0.0346224463498    -0.00104650228722   -0.0318682737136    
400000000.0         -0.00191468670801   -0.0424547626595    0.997895252652      -0.0461273702578    0.997895252652      -0.0461273702578    -0.00191468670801   -0.0424547626595    
500000000.0         -0.00302604441412   -0.0530101913765    0.996779434424      -0.0576015005422    0.996779434424      -0.0576015005422    -0.00302604441412   -0.0530101913765    
600000000.0         -0.00437910093611   -0.0635268335221    0.995421137385      -0.069037149178     0.995421137385      -0.069037149178     -0.00437910093611   -0.0635268335221    
700000000.0         -0.00597206144283   -0.073997022938     0.993822137456      -0.08042668507      0.993822137456      -0.08042668507      -0.00597206144283   -0.073997022938     
800000000.0         -0.00780281162938   -0.0844131759179    0.991984536242      -0.0917625570137    0.991984536242      -0.0917625570137    -0.00780281162938   -0.0844131759179    
900000000.0         -0.00986892176367   -0.0947678115209    0.98991075426       -0.103037314468     0.98991075426       -0.103037314468     -0.00986892176367   -0.0947678115209    
1000000000.0        -0.012167652721     -0.105053570507     0.987603523529      -0.114243626816     0.987603523529      -0.114243626816     -0.012167652721     -0.105053570507     
1100000000.0        -0.0146959635336    -0.115263233149     0.985065879259      -0.125374301421     0.985065879259      -0.125374301421     -0.0146959635336    -0.115263233149     
1200000000.0        -0.0174505202127    -0.125389736033     0.982301150578      -0.136422300615     0.982301150578      -0.136422300615     -0.0174505202127    -0.125389736033     
1300000000.0        -0.0204277056878    -0.135426187879     0.979312950308      -0.147380757668     0.979312950308      -0.147380757668     -0.0204277056878    -0.135426187879     
1400000000.0        -0.0236236307455    -0.145365884399     0.976105163847      -0.158242991767     0.976105163847      -0.158242991767     -0.0236236307455    -0.145365884399     
1500000000.0        -0.0270341458659    -0.155202322161     0.972681937203      -0.16900252199      0.972681937203      -0.16900252199      -0.0270341458659    -0.155202322161     
1600000000.0        -0.0306548538628    -0.164929211463     0.969047664268      -0.179653080255     0.969047664268      -0.179653080255     -0.0306548538628    -0.164929211463     
1700000000.0        -0.0344811232369    -0.174540488167     0.965206973408      -0.190188623236     0.965206973408      -0.190188623236     -0.0344811232369    -0.174540488167     
1800000000.0        -0.038508102152     -0.184030324491     0.961164713434      -0.200603343221     0.961164713434      -0.200603343221     -0.038508102152     -0.184030324491     
1900000000.0        -0.0427307329452    -0.193393138731     0.956925939066      -0.210891677885     0.956925939066      -0.210891677885     -0.0427307329452    -0.193393138731     
2000000000.0        -0.0471437670844    -0.202623603901     0.952495895945      -0.221048318987     0.952495895945      -0.221048318987     -0.0471437670844    -0.202623603901     
2100000000.0        -0.0517417804833    -0.211716655283     0.947880005302      -0.231068219961     0.947880005302      -0.231068219961     -0.0517417804833    -0.211716655283     
2200000000.0        -0.0565191890889    -0.220667496882     0.943083848355      -0.240946602414     0.943083848355      -0.240946602414     -0.0565191890889    -0.220667496882     
2300000000.0        -0.0614702646566    -0.229471606791     0.938113150522      -0.250678961527     0.938113150522      -0.250678961527     -0.0614702646566    -0.229471606791     
2400000000.0        -0.0665891506296    -0.238124741471     0.932973765533      -0.260261070374     0.932973765533      -0.260261070374     -0.0665891506296    -0.238124741471     
2500000000.0        -0.0718698780418    -0.246622938972     0.92767165952       -0.269688983162     0.92767165952       -0.269688983162     -0.0718698780418    -0.246622938972     
2600000000.0        -0.0773063813685    -0.254962521096     0.92221289516       -0.278959037439     0.92221289516       -0.278959037439     -0.0773063813685    -0.254962521096     
2700000000.0        -0.0828925142488    -0.263140094553     0.916603615949      -0.288067855261     0.916603615949      -0.288067855261     -0.0828925142488    -0.263140094553     
2800000000.0        -0.0886220650116    -0.271152551114     0.910850030672      -0.297012343381     0.910850030672      -0.297012343381     -0.0886220650116    -0.271152551114     
2900000000.0        -0.0944887719379    -0.278997066828     0.904958398135      -0.305789692481     0.904958398135      -0.305789692481     -0.0944887719379    -0.278997066828     
3000000000.0        -0.100486338199     -0.286671100307     0.89893501223       -0.314397375484     0.89893501223       -0.314397375484     -0.100486338199     -0.286671100307     
3100000000.0        -0.106608446413     -0.294172390159     0.892786187372      -0.322833145002     0.892786187372      -0.322833145002     -0.106608446413     -0.294172390159     
3200000000.0        -0.112848772769     -0.301498951585     0.886518244372      -0.331095029955     0.886518244372      -0.331095029955     -0.112848772769     -0.301498951585     
3300000000.0        -0.119201000672     -0.308649072214     0.880137496796      -0.339181331423     0.880137496796      -0.339181331423     -0.119201000672     -0.308649072214     
3400000000.0        -0.125658833866     -0.315621307212     0.873650237838      -0.347090617769     0.873650237838      -0.347090617769     -0.125658833866     -0.315621307212     
3500000000.0        -0.132216008999     -0.322414473722     0.867062727749      -0.354821719096     0.867062727749      -0.354821719096     -0.132216008999     -0.322414473722     
3600000000.0        -0.138866307602     -0.329027644697     0.860381181867      -0.362373721095     0.860381181867      -0.362373721095     -0.138866307602     -0.329027644697     
3700000000.0        -0.145603567454     -0.335460142172     0.853611759242      -0.369745958332     0.853611759242      -0.369745958332     -0.145603567454     -0.335460142172     
3800000000.0        -0.152421693306     -0.341711530034     0.846760551918      -0.376938007028     0.846760551918      -0.376938007028     -0.152421693306     -0.341711530034     
3900000000.0        -0.159314666961     -0.347781606354     0.83983357485       -0.383949677402     0.83983357485       -0.383949677402     -0.159314666961     -0.347781606354     
4000000000.0        -0.166276556685     -0.353670395316     0.832836756489      -0.390781005617     0.832836756489      -0.390781005617     -0.166276556685     -0.353670395316     
4100000000.0        -0.173301525949     -0.35937813882      0.825775930046      -0.397432245392     0.825775930046      -0.397432245392     -0.173301525949     -0.35937813882      
4200000000.0        -0.180383841502     -0.364905287798     0.818656825413      -0.403903859324     0.818656825413      -0.403903859324     -0.180383841502     -0.364905287798     
4300000000.0        -0.187517880767     -0.370252493294     0.811485061773      -0.410196509985     0.811485061773      -0.410196509985     -0.187517880767     -0.370252493294     
4400000000.0        -0.194698138568     -0.375420597368     0.804266140864      -0.416311050829     0.804266140864      -0.416311050829     -0.194698138568     -0.375420597368     
4500000000.0        -0.201919233208     -0.380410623863     0.797005440907      -0.42224851697      0.797005440907      -0.42224851697      -0.201919233208     -0.380410623863     
4600000000.0        -0.209175911886     -0.385223769075     0.789708211188      -0.428010115865     0.789708211188      -0.428010115865     -0.209175911886     -0.385223769075     
4700000000.0        -0.216463055491     -0.389861392385     0.782379567261      -0.433597217947     0.782379567261      -0.433597217947     -0.216463055491     -0.389861392385     
4800000000.0        -0.223775682772     -0.394325006883     0.77502448678       -0.43901134726      0.77502448678       -0.43901134726      -0.223775682772     -0.394325006883     
4900000000.0        -0.231108953914     -0.398616270017     0.767647805923      -0.444254172115     0.767647805923      -0.444254172115     -0.231108953914     -0.398616270017     
5000000000.0        -0.238458173534     -0.402736974315     0.760254216393      -0.449327495822     0.760254216393      -0.449327495822     -0.238458173534     -0.402736974315     
5100000000.0        -0.245818793122     -0.406689038202     0.75284826298       -0.454233247506     0.75284826298       -0.454233247506     -0.245818793122     -0.406689038202     
5200000000.0        -0.25318641295      -0.410474496948     0.745434341648      -0.458973473069     0.745434341648      -0.458973473069     -0.25318641295      -0.410474496948     
5300000000.0        -0.260556783476     -0.414095493768     0.738016698135      -0.463550326292     0.738016698135      -0.463550326292     -0.260556783476     -0.414095493768     
5400000000.0        -0.267925806266     -0.417554271106     0.730599427026      -0.467966060127     0.730599427026      -0.467966060127     -0.267925806266     -0.417554271106     
5500000000.0        -0.275289534463     -0.420853162118     0.72318647129       -0.472223018181     0.72318647129       -0.472223018181     -0.275289534463     -0.420853162118     
5600000000.0        -0.282644172822     -0.423994582374     0.715781622237      -0.476323626429     0.715781622237      -0.476323626429     -0.282644172822     -0.423994582374     
5700000000.0        -0.28998607735      -0.426981021802     0.708388519882      -0.480270385159     0.708388519882      -0.480270385159     -0.28998607735      -0.426981021802     
5800000000.0        -0.297311754572     -0.429815036881     0.70101065368       -0.48406586117      0.70101065368       -0.48406586117      -0.297311754572     -0.429815036881     
5900000000.0        -0.304617860446     -0.432499243096     0.693651363607      -0.487712680236     0.693651363607      -0.487712680236     -0.304617860446     -0.432499243096     
6000000000.0        -0.311901198957     -0.435036307671     0.68631384157       -0.491213519836     0.68631384157       -0.491213519836     -0.311901198957     -0.435036307671     
6100000000.0        -0.31915872042      -0.43742894258      0.679001133098      -0.494571102174     0.679001133098      -0.494571102174     -0.31915872042      -0.43742894258      
6200000000.0        -0.326387519508     -0.439679897849     0.671716139316      -0.497788187485     0.671716139316      -0.497788187485     -0.326387519508     -0.439679897849     
6300000000.0        -0.333584833044     -0.441791955145     0.664461619158      -0.500867567624     0.664461619158      -0.500867567624     -0.333584833044     -0.441791955145     
6400000000.0        -0.340748037561     -0.443767921663     0.6572401918        -0.503812059962     0.6572401918        -0.503812059962     -0.340748037561     -0.443767921663     
6500000000.0        -0.347874646672     -0.445610624308     0.650054339287      -0.506624501567     0.650054339287      -0.506624501567     -0.347874646672     -0.445610624308     
6600000000.0        -0.354962308266     -0.44732290417      0.642906409349      -0.509307743685     0.642906409349      -0.509307743685     -0.354962308266     -0.44732290417      
6700000000.0        -0.362008801543     -0.448907611295     0.635798618351      -0.511864646511     0.635798618351      -0.511864646511     -0.362008801543     -0.448907611295     
6800000000.0        -0.369012033923     -0.450367599741     0.628733054394      -0.51429807425      0.628733054394      -0.51429807425      -0.369012033923     -0.450367599741     
6900000000.0        -0.375970037838     -0.451705722927     0.621711680519      -0.516610890471     0.621711680519      -0.516610890471     -0.375970037838     -0.451705722927     
7000000000.0        -0.382880967425     -0.452924829256     0.614736338011      -0.518805953729     0.614736338011      -0.518805953729     -0.382880967425     -0.452924829256     
7100000000.0        -0.389743095146     -0.454027758023     0.607808749784      -0.520886113477     0.607808749784      -0.520886113477     -0.389743095146     -0.454027758023     
7200000000.0        -0.396554808344     -0.455017335583     0.600930523819      -0.522854206236     0.600930523819      -0.522854206236     -0.396554808344     -0.455017335583     
7300000000.0        -0.403314605749     -0.455896371786     0.594103156663      -0.524713052038     0.594103156663      -0.524713052038     -0.403314605749     -0.455896371786     
7400000000.0        -0.410021093955     -0.456667656671     0.587328036947      -0.526465451108     0.587328036947      -0.526465451108     -0.410021093955     -0.456667656671     
7500000000.0        -0.416672983874     -0.457333957396     0.580606448933      -0.528114180814     0.580606448933      -0.528114180814     -0.416672983874     -0.457333957396     
7600000000.0        -0.423269087186     -0.457898015417     0.573939576065      -0.529661992836     0.573939576065      -0.529661992836     -0.423269087186     -0.457898015417     
7700000000.0        -0.429808312789     -0.458362543891     0.567328504517      -0.531111610575     0.567328504517      -0.531111610575     -0.429808312789     -0.458362543891     
7800000000.0        -0.436289663265     -0.458730225306     0.560774226725      -0.532465726784     0.560774226725      -0.532465726784     -0.436289663265     -0.458730225306     
7900000000.0        -0.442712231371     -0.459003709312     0.554277644902      -0.533727001402     0.554277644902      -0.533727001402     -0.442712231371     -0.459003709312     
8000000000.0        -0.449075196555     -0.459185610771     0.547839574513      -0.534898059606     0.547839574513      -0.534898059606     -0.449075196555     -0.459185610771     
8100000000.0        -0.45537782152      -0.459278507986     0.541460747715      -0.53598149004      0.541460747715      -0.53598149004      -0.45537782152      -0.459278507986     
8200000000.0        -0.461619448832     -0.459284941126     0.535141816749      -0.536979843241     0.535141816749      -0.536979843241     -0.461619448832     -0.459284941126     
8300000000.0        -0.467799497573     -0.459207410819     0.528883357284      -0.537895630239     0.528883357284      -0.537895630239     -0.467799497573     -0.459207410819     
8400000000.0        -0.473917460066     -0.459048376919     0.522685871695      -0.538731321317     0.522685871695      -0.538731321317     -0.473917460066     -0.459048376919     
8500000000.0        -0.479972898652     -0.458810257424     0.516549792281      -0.53948934494      0.516549792281      -0.53948934494      -0.479972898652     -0.458810257424     
8600000000.0        -0.485965442537     -0.458495427552     0.510475484423      -0.540172086822     0.510475484423      -0.540172086822     -0.485965442537     -0.458495427552     
8700000000.0        -0.491894784709     -0.45810621895      0.504463249659      -0.540781889147     0.504463249659      -0.540781889147     -0.491894784709     -0.45810621895      
8800000000.0        -0.497760678933     -0.457644919042     0.498513328696      -0.541321049908     0.498513328696      -0.541321049908     -0.497760678933     -0.457644919042     
8900000000.0        -0.50356293682      -0.457113770496     0.492625904337      -0.541791822385     0.492625904337      -0.541791822385     -0.50356293682      -0.457113770496     
9000000000.0        -0.509301424966     -0.456514970816     0.48680110434       -0.542196414729     0.48680110434       -0.542196414729     -0.509301424966     -0.456514970816     
9100000000.0        -0.514976062187     -0.455850672034     0.481039004185      -0.542536989665     0.481039004185      -0.542536989665     -0.514976062187     -0.455850672034     
9200000000.0        -0.520586816822     -0.455122980512     0.475339629771      -0.542815664286     0.475339629771      -0.542815664286     -0.520586816822     -0.455122980512     
9300000000.0        -0.526133704119     -0.454333956838     0.469702960026      -0.543034509953     0.469702960026      -0.543034509953     -0.526133704119     -0.454333956838     
9400000000.0        -0.531616783714     -0.453485615802     0.464128929429      -0.543195552277     0.464128929429      -0.543195552277     -0.531616783714     -0.453485615802     
9500000000.0        -0.537036157179     -0.452579926468     0.458617430465      -0.543300771182     0.458617430465      -0.543300771182     -0.537036157179     -0.452579926468     
9600000000.0        -0.54239196566      -0.451618812308     0.45316831598       -0.543352101053     0.45316831598       -0.543352101053     -0.54239196566      -0.451618812308     
9700000000.0        -0.547684387596     -0.450604151417     0.447781401465      -0.543351430938     0.447781401465      -0.543351430938     -0.547684387596     -0.450604151417     
9800000000.0        -0.552913636518     -0.449537776784     0.442456467256      -0.543300604832     0.442456467256      -0.543300604832     -0.552913636518     -0.449537776784     
9900000000.0        -0.558079958933     -0.448421476627     0.437193260653      -0.543201422003     0.437193260653      -0.543201422003     -0.558079958933     -0.448421476627     
10000000000.0       -0.563183632278     -0.447256994775     0.431991497957      -0.543055637384     0.431991497957      -0.543055637384     -0.563183632278     -0.447256994775     
