# Hz S RI R 50.00 
100000000.0         0.043055537131      0.00231289494031    0.9569415391        -0.00354968130483   0.9569415391        -0.00354968130483   0.043055537131      0.00231289494031    
200000000.0         0.0433523528434     0.00462230070818    0.956641246716      -0.00709587523991   0.956641246716      -0.00709587523991   0.0433523528434     0.00462230070818    
300000000.0         0.0435925451654     0.00692942460175    0.956396024506      -0.0106397924773    0.956396024506      -0.0106397924773    0.0435925451654     0.00692942460175    
400000000.0         0.0438121144419     0.00923458811178    0.956169871877      -0.0141817575688    0.956169871877      -0.0141817575688    0.0438121144419     0.00923458811178    
500000000.0         0.0440249494562     0.0115379068269     0.955948899814      -0.0177218890081    0.955948899814      -0.0177218890081    0.0440249494562     0.0115379068269     
600000000.0         0.0442381420127     0.0138394052521     0.955726016285      -0.0212602141045    0.955726016285      -0.0212602141045    0.0442381420127     0.0138394052521     
700000000.0         0.0444558838623     0.0161390580424     0.955497029307      -0.0247967102441    0.955497029307      -0.0247967102441    0.0444558838623     0.0161390580424     
800000000.0         0.0446808902027     0.0184368091278     0.955259223441      -0.0283313240314    0.955259223441      -0.0283313240314    0.0446808902027     0.0184368091278     
900000000.0         0.0449150340183     0.0207325819872     0.955010725451      -0.0318639815749    0.955010725451      -0.0318639815749    0.0449150340183     0.0207325819872     
1000000000.0        0.0451596678699     0.0230262857355     0.954750182511      -0.035394594581     0.954750182511      -0.035394594581     0.0451596678699     0.0230262857355     
1100000000.0        0.0454158029124     0.0253178189937     0.954476583188      -0.03892306423      0.954476583188      -0.03892306423      0.0454158029124     0.0253178189937     
1200000000.0        0.0456842156473     0.0276070724847     0.954189150686      -0.0424492837763    0.954189150686      -0.0424492837763    0.0456842156473     0.0276070724847     
1300000000.0        0.0459655151368     0.029893930851      0.953887275635      -0.0459731403693    0.953887275635      -0.0459731403693    0.0459655151368     0.029893930851      
1400000000.0        0.0462601872163     0.0321782739715     0.953570471874      -0.0494945163732    0.953570471874      -0.0494945163732    0.0462601872163     0.0321782739715     
1500000000.0        0.0465686246445     0.0344599779441     0.9532383463        -0.0530132903513    0.9532383463        -0.0530132903513    0.0465686246445     0.0344599779441     
1600000000.0        0.0468911482952     0.0367389158368     0.952890577683      -0.0565293378194    0.952890577683      -0.0565293378194    0.0468911482952     0.0367389158368     
1700000000.0        0.0472280224411     0.0390149582744     0.952526901371      -0.0600425318336    0.952526901371      -0.0600425318336    0.0472280224411     0.0390149582744     
1800000000.0        0.0475794660243     0.0412879739051     0.952147098031      -0.0635527434585    0.952147098031      -0.0635527434585    0.0475794660243     0.0412879739051     
1900000000.0        0.0479456611301     0.0435578297782     0.951750985164      -0.0670598421461    0.951750985164      -0.0670598421461    0.0479456611301     0.0435578297782     
2000000000.0        0.0483267594671     0.0458243916543     0.951338410634      -0.0705636960465    0.951338410634      -0.0705636960465    0.0483267594671     0.0458243916543     
2100000000.0        0.0487228873985     0.0480875242634     0.950909247629      -0.0740641722672    0.950909247629      -0.0740641722672    0.0487228873985     0.0480875242634     
2200000000.0        0.0491341499028     0.0503470915224     0.950463390707      -0.0775611370913    0.950463390707      -0.0775611370913    0.0491341499028     0.0503470915224     
2300000000.0        0.0495606337273     0.0526029567202     0.950000752636      -0.0810544561634    0.950000752636      -0.0810544561634    0.0495606337273     0.0526029567202     
2400000000.0        0.0500024099303     0.0548549826776     0.949521261857      -0.0845439946496    0.949521261857      -0.0845439946496    0.0500024099303     0.0548549826776     
2500000000.0        0.0504595359479     0.0571030318857     0.949024860413      -0.0880296173772    0.949024860413      -0.0880296173772    0.0504595359479     0.0571030318857     
2600000000.0        0.0509320572922     0.0593469666282     0.948511502255      -0.0915111889565    0.948511502255      -0.0915111889565    0.0509320572922     0.0593469666282     
2700000000.0        0.0514200089577     0.0615866490881     0.947981151831      -0.0949885738888    0.947981151831      -0.0949885738888    0.0514200089577     0.0615866490881     
2800000000.0        0.0519234165947     0.0638219414446     0.947433782917      -0.0984616366631    0.947433782917      -0.0984616366631    0.0519234165947     0.0638219414446     
2900000000.0        0.052442297497      0.0660527059585     0.946869377624      -0.101930241842     0.946869377624      -0.101930241842     0.052442297497      0.0660527059585     
3000000000.0        0.052976661437      0.0682788050504     0.946287925569      -0.105394254141     0.946287925569      -0.105394254141     0.052976661437      0.0682788050504     
3100000000.0        0.0535265113781     0.0705001013714     0.945689423157      -0.108853538498     0.945689423157      -0.108853538498     0.0535265113781     0.0705001013714     
3200000000.0        0.0540918440852     0.0727164578678     0.945073872974      -0.11230796014      0.945073872974      -0.11230796014      0.0540918440852     0.0727164578678     
3300000000.0        0.0546726506511     0.0749277378405     0.94444128326       -0.11575738464      0.94444128326       -0.11575738464      0.0546726506511     0.0749277378405     
3400000000.0        0.0552689169528     0.0771338050001     0.943791667451      -0.119201677975     0.943791667451      -0.119201677975     0.0552689169528     0.0771338050001     
3500000000.0        0.0558806240488     0.0793345235179     0.943125043784      -0.122640706578     0.943125043784      -0.122640706578     0.0558806240488     0.0793345235179     
3600000000.0        0.0565077485281     0.0815297580735     0.942441434946      -0.126074337382     0.942441434946      -0.126074337382     0.0565077485281     0.0815297580735     
3700000000.0        0.057150262816      0.0837193738992     0.94174086777       -0.129502437868     0.94174086777       -0.129502437868     0.057150262816      0.0837193738992     
3800000000.0        0.0578081354452     0.085903236822      0.94102337296       -0.132924876104     0.94102337296       -0.132924876104     0.0578081354452     0.085903236822      
3900000000.0        0.0584813312969     0.0880812133026     0.940288984857      -0.136341520789     0.940288984857      -0.136341520789     0.0584813312969     0.0880812133026     
4000000000.0        0.0591698118146     0.090253170473      0.939537741218      -0.139752241285     0.939537741218      -0.139752241285     0.0591698118146     0.090253170473      
4100000000.0        0.059873535197      0.0924189761715     0.938769683028      -0.143156907656     0.938769683028      -0.143156907656     0.059873535197      0.0924189761715     
4200000000.0        0.0605924565704     0.094578498976      0.937984854322      -0.146555390702     0.937984854322      -0.146555390702     0.0605924565704     0.094578498976      
4300000000.0        0.0613265281452     0.0967316082363     0.937183302037      -0.149947561986     0.937183302037      -0.149947561986     0.0613265281452     0.0967316082363     
4400000000.0        0.0620756993571     0.098878174104      0.936365075863      -0.153333293872     0.936365075863      -0.153333293872     0.0620756993571     0.098878174104      
4500000000.0        0.062839916996      0.101018067562      0.935530228117      -0.156712459547     0.935530228117      -0.156712459547     0.062839916996      0.101018067562      
4600000000.0        0.0636191253239     0.103151160451      0.934678813626      -0.160084933053     0.934678813626      -0.160084933053     0.0636191253239     0.103151160451      
4700000000.0        0.0644132661824     0.105277325498      0.933810889618      -0.163450589312     0.933810889618      -0.163450589312     0.0644132661824     0.105277325498      
4800000000.0        0.0652222790923     0.10739643634       0.932926515623      -0.166809304154     0.932926515623      -0.166809304154     0.0652222790923     0.10739643634       
4900000000.0        0.0660461013451     0.10950836755       0.932025753381      -0.170160954338     0.932025753381      -0.170160954338     0.0660461013451     0.10950836755       
5000000000.0        0.0668846680883     0.11161299466       0.931108666759      -0.173505417577     0.931108666759      -0.173505417577     0.0668846680883     0.11161299466       
5100000000.0        0.067737912404      0.113710194182      0.930175321669      -0.176842572562     0.930175321669      -0.176842572562     0.067737912404      0.113710194182      
5200000000.0        0.0686057653831     0.115799843632      0.929225785994      -0.180172298983     0.929225785994      -0.180172298983     0.0686057653831     0.115799843632      
5300000000.0        0.0694881561943     0.11788182155       0.928260129523      -0.183494477548     0.928260129523      -0.183494477548     0.0694881561943     0.11788182155       
5400000000.0        0.0703850121486     0.119956007522      0.927278423883      -0.186808990008     0.927278423883      -0.186808990008     0.0703850121486     0.119956007522      
5500000000.0        0.0712962587608     0.122022282195      0.926280742476      -0.190115719172     0.926280742476      -0.190115719172     0.0712962587608     0.122022282195      
5600000000.0        0.0722218198074     0.124080527301      0.925267160427      -0.193414548927     0.925267160427      -0.193414548927     0.0722218198074     0.124080527301      
5700000000.0        0.0731616173806     0.126130625671      0.924237754523      -0.196705364257     0.924237754523      -0.196705364257     0.0731616173806     0.126130625671      
5800000000.0        0.0741155719414     0.128172461254      0.923192603166      -0.199988051262     0.923192603166      -0.199988051262     0.0741155719414     0.128172461254      
5900000000.0        0.0750836023681     0.130205919137      0.92213178632       -0.20326249717      0.92213178632       -0.20326249717      0.0750836023681     0.130205919137      
6000000000.0        0.0760656260044     0.132230885554      0.921055385464      -0.206528590359     0.921055385464      -0.206528590359     0.0760656260044     0.132230885554      
6100000000.0        0.0770615587047     0.134247247908      0.919963483549      -0.209786220367     0.919963483549      -0.209786220367     0.0770615587047     0.134247247908      
6200000000.0        0.0780713148774     0.136254894785      0.918856164953      -0.213035277913     0.918856164953      -0.213035277913     0.0780713148774     0.136254894785      
6300000000.0        0.0790948075269     0.138253715963      0.917733515437      -0.216275654905     0.917733515437      -0.216275654905     0.0790948075269     0.138253715963      
6400000000.0        0.0801319482944     0.140243602435      0.916595622108      -0.219507244461     0.916595622108      -0.219507244461     0.0801319482944     0.140243602435      
6500000000.0        0.0811826474966     0.142224446415      0.915442573377      -0.222729940916     0.915442573377      -0.222729940916     0.0811826474966     0.142224446415      
6600000000.0        0.0822468141638     0.144196141353      0.914274458925      -0.22594363984      0.914274458925      -0.22594363984      0.0822468141638     0.144196141353      
6700000000.0        0.0833243560764     0.14615858195       0.913091369659      -0.229148238045     0.913091369659      -0.229148238045     0.0833243560764     0.14615858195       
6800000000.0        0.0844151798008     0.148111664165      0.911893397686      -0.232343633604     0.911893397686      -0.232343633604     0.0844151798008     0.148111664165      
6900000000.0        0.0855191907244     0.150055285231      0.910680636269      -0.235529725855     0.910680636269      -0.235529725855     0.0855191907244     0.150055285231      
7000000000.0        0.0866362930886     0.151989343664      0.9094531798        -0.238706415417     0.9094531798        -0.238706415417     0.0866362930886     0.151989343664      
7100000000.0        0.087766390023      0.15391373927       0.908211123763      -0.241873604197     0.908211123763      -0.241873604197     0.087766390023      0.15391373927       
7200000000.0        0.0889093835767     0.155828373163      0.906954564704      -0.245031195404     0.906954564704      -0.245031195404     0.0889093835767     0.155828373163      
7300000000.0        0.0900651747509     0.157733147767      0.905683600196      -0.248179093555     0.905683600196      -0.248179093555     0.0900651747509     0.157733147767      
7400000000.0        0.0912336635289     0.159627966826      0.904398328811      -0.251317204485     0.904398328811      -0.251317204485     0.0912336635289     0.159627966826      
7500000000.0        0.0924147489076     0.161512735419      0.90309885009       -0.254445435354     0.90309885009       -0.254445435354     0.0924147489076     0.161512735419      
7600000000.0        0.0936083289263     0.163387359958      0.901785264511      -0.25756369466      0.901785264511      -0.25756369466      0.0936083289263     0.163387359958      
7700000000.0        0.0948143006969     0.165251748204      0.900457673459      -0.260671892242     0.900457673459      -0.260671892242     0.0948143006969     0.165251748204      
7800000000.0        0.0960325604324     0.167105809272      0.899116179201      -0.263769939288     0.899116179201      -0.263769939288     0.0960325604324     0.167105809272      
7900000000.0        0.0972630034751     0.168949453635      0.897760884854      -0.266857748344     0.897760884854      -0.266857748344     0.0972630034751     0.168949453635      
8000000000.0        0.0985055243251     0.170782593132      0.896391894356      -0.269935233318     0.896391894356      -0.269935233318     0.0985055243251     0.170782593132      
8100000000.0        0.0997600166676     0.172605140977      0.895009312445      -0.273002309486     0.895009312445      -0.273002309486     0.0997600166676     0.172605140977      
8200000000.0        0.1010263734        0.17441701176       0.893613244624      -0.276058893501     0.893613244624      -0.276058893501     0.1010263734        0.17441701176       
8300000000.0        0.102304486659      0.176218121455      0.892203797137      -0.279104903395     0.892203797137      -0.279104903395     0.102304486659      0.176218121455      
8400000000.0        0.103594247846      0.178008387422      0.890781076945      -0.282140258581     0.890781076945      -0.282140258581     0.103594247846      0.178008387422      
8500000000.0        0.104895547657      0.179787728417      0.889345191697      -0.285164879867     0.889345191697      -0.285164879867     0.104895547657      0.179787728417      
8600000000.0        0.106208276103      0.181556064588      0.887896249703      -0.288178689447     0.887896249703      -0.288178689447     0.106208276103      0.181556064588      
8700000000.0        0.107532322538      0.183313317485      0.886434359913      -0.291181610917     0.886434359913      -0.291181610917     0.107532322538      0.183313317485      
8800000000.0        0.108867575688      0.185059410061      0.884959631887      -0.294173569269     0.884959631887      -0.294173569269     0.108867575688      0.185059410061      
8900000000.0        0.110213923667      0.186794266673      0.883472175772      -0.297154490899     0.883472175772      -0.297154490899     0.110213923667      0.186794266673      
9000000000.0        0.111571254013      0.188517813089      0.881972102279      -0.300124303606     0.881972102279      -0.300124303606     0.111571254013      0.188517813089      
9100000000.0        0.112939453703      0.190229976484      0.880459522655      -0.303082936598     0.880459522655      -0.303082936598     0.112939453703      0.190229976484      
9200000000.0        0.114318409181      0.191930685448      0.87893454866       -0.306030320489     0.87893454866       -0.306030320489     0.114318409181      0.191930685448      
9300000000.0        0.115708006383      0.193619869981      0.877397292545      -0.308966387306     0.877397292545      -0.308966387306     0.115708006383      0.193619869981      
9400000000.0        0.117108130758      0.195297461499      0.875847867028      -0.311891070483     0.875847867028      -0.311891070483     0.117108130758      0.195297461499      
9500000000.0        0.118518667295      0.196963392833      0.874286385266      -0.314804304869     0.874286385266      -0.314804304869     0.118518667295      0.196963392833      
9600000000.0        0.119939500541      0.198617598229      0.872712960838      -0.317706026721     0.872712960838      -0.317706026721     0.119939500541      0.198617598229      
9700000000.0        0.12137051463       0.200260013348      0.871127707719      -0.320596173711     0.871127707719      -0.320596173711     0.12137051463       0.200260013348      
9800000000.0        0.122811593299      0.201890575264      0.869530740255      -0.323474684921     0.869530740255      -0.323474684921     0.122811593299      0.201890575264      
9900000000.0        0.124262619918      0.203509222467      0.867922173148      -0.326341500842     0.867922173148      -0.326341500842     0.124262619918      0.203509222467      
10000000000.0       0.125723477506      0.205115894858      0.866302121423      -0.329196563375     0.866302121423      -0.329196563375     0.125723477506      0.205115894858      
