# Hz S RI R 50.00 
100000000.0         0.000804797578811   7.01314232298e-05   0.999193892558      -0.000355477929519  0.999193892558      -0.000355477929519  0.000804797578811   7.01314232299e-05   
200000000.0         0.000810096452261   0.000140258218792   0.999188202374      -0.000710951804187  0.999188202374      -0.000710951804187  0.000810096452261   0.000140258218793   
300000000.0         0.000814019660417   0.000210382120084   0.999183806409      -0.0010664237247    0.999183806409      -0.0010664237247    0.000814019660417   0.000210382120084   
400000000.0         0.000817266925198   0.000280503680357   0.999180004937      -0.00142189452575   0.999180004937      -0.00142189452575   0.000817266925198   0.000280503680357   
500000000.0         0.000820107843855   0.000350623183172   0.99917652836       -0.00177736472912   0.99917652836       -0.00177736472912   0.000820107843855   0.000350623183172   
600000000.0         0.00082267996667    0.000420740793771   0.999173239126      -0.00213283471174   0.999173239126      -0.00213283471174   0.00082267996667    0.000420740793771   
700000000.0         0.000825064579656   0.000490856614329   0.999170055945      -0.00248830476651   0.999170055945      -0.00248830476651   0.000825064579656   0.000490856614329   
800000000.0         0.000827314366314   0.000560970708033   0.999166926132      -0.00284377513263   0.999166926132      -0.00284377513263   0.000827314366314   0.000560970708033   
900000000.0         0.000829465724923   0.000631083112923   0.999163813286      -0.00319924601131   0.999163813286      -0.00319924601131   0.000829465724923   0.000631083112923   
1000000000.0        0.000831545012563   0.000701193849527   0.999160691047      -0.00355471757582   0.999160691047      -0.00355471757582   0.000831545012563   0.000701193849527   
1100000000.0        0.000833572016466   0.000771302925427   0.999157539625      -0.00391018997826   0.999157539625      -0.00391018997826   0.000833572016466   0.000771302925427   
1200000000.0        0.000835562022563   0.000841410338825   0.999154343731      -0.00426566335367   0.999154343731      -0.00426566335367   0.000835562022562   0.000841410338825   
1300000000.0        0.000837527117032   0.000911516080966   0.999151091275      -0.00462113782304   0.999151091275      -0.00462113782304   0.000837527117032   0.000911516080966   
1400000000.0        0.000839477041826   0.000981620137281   0.999147772512      -0.00497661349607   0.999147772512      -0.00497661349607   0.000839477041826   0.000981620137281   
1500000000.0        0.000841419777843   0.00105172248883    0.999144379457      -0.00533209047272   0.999144379457      -0.00533209047272   0.000841419777843   0.00105172248883    
1600000000.0        0.000843361954372   0.0011218231133     0.999140905478      -0.00568756884451   0.999140905478      -0.00568756884451   0.000843361954372   0.0011218231133     
1700000000.0        0.000845309144232   0.00119192198534    0.999137344998      -0.00604304869591   0.999137344998      -0.00604304869591   0.000845309144232   0.00119192198534    
1800000000.0        0.000847266081216   0.00126201907749    0.999133693279      -0.00639853010484   0.999133693279      -0.00639853010484   0.000847266081217   0.00126201907749    
1900000000.0        0.000849236823564   0.00133211436015    0.999129946259      -0.00675401314387   0.999129946259      -0.00675401314387   0.000849236823564   0.00133211436015    
2000000000.0        0.000851224878649   0.00140220780239    0.999126100426      -0.00710949788036   0.999126100426      -0.00710949788036   0.000851224878649   0.00140220780239    
2100000000.0        0.000853233299951   0.0014722993719     0.999122152723      -0.00746498437723   0.999122152723      -0.00746498437723   0.000853233299951   0.0014722993719     
2200000000.0        0.00085526476302    0.00154238903524    0.99911810047       -0.00782047269341   0.99911810047       -0.00782047269341   0.00085526476302    0.00154238903524    
2300000000.0        0.000857321626171   0.00161247675822    0.999113941304      -0.008175962884     0.999113941304      -0.008175962884     0.000857321626171   0.00161247675822    
2400000000.0        0.000859405979135   0.0016825625058     0.99910967313       -0.00853145500082   0.99910967313       -0.00853145500082   0.000859405979135   0.0016825625058     
2500000000.0        0.000861519682655   0.00175264624241    0.999105294084      -0.00888694909253   0.999105294084      -0.00888694909253   0.000861519682655   0.00175264624241    
2600000000.0        0.000863664400945   0.0018227279319     0.999100802496      -0.00924244520497   0.999100802496      -0.00924244520497   0.000863664400945   0.0018227279319     
2700000000.0        0.000865841628488   0.00189280753783    0.999096196867      -0.00959794338122   0.999096196867      -0.00959794338122   0.000865841628488   0.00189280753783    
2800000000.0        0.000868052712372   0.00196288502332    0.999091475845      -0.009953443662     0.999091475845      -0.009953443662     0.000868052712372   0.00196288502332    
2900000000.0        0.000870298871027   0.0020329603513     0.999086638207      -0.0103089460857    0.999086638207      -0.0103089460857    0.000870298871027   0.0020329603513     
3000000000.0        0.000872581210032   0.00210303348446    0.999081682842      -0.0106644506885    0.999081682842      -0.0106644506885    0.000872581210032   0.00210303348446    
3100000000.0        0.000874900735536   0.00217310438532    0.999076608738      -0.0110199575046    0.999076608738      -0.0110199575046    0.000874900735536   0.00217310438532    
3200000000.0        0.000877258365727   0.00224317301628    0.999071414972      -0.0113754665664    0.999071414972      -0.0113754665664    0.000877258365727   0.00224317301628    
3300000000.0        0.000879654940657   0.00231323933973    0.999066100699      -0.0117309779042    0.999066100699      -0.0117309779042    0.000879654940658   0.00231323933973    
3400000000.0        0.000882091230765   0.00238330331797    0.999060665142      -0.0120864915471    0.999060665142      -0.0120864915471    0.000882091230765   0.00238330331797    
3500000000.0        0.00088456794419    0.00245336491324    0.999055107589      -0.0124420075221    0.999055107589      -0.0124420075221    0.000884567944189   0.00245336491324    
3600000000.0        0.000887085733194   0.00252342408788    0.99904942738       -0.012797525855     0.99904942738       -0.012797525855     0.000887085733194   0.00252342408788    
3700000000.0        0.000889645199749   0.00259348080414    0.99904362391       -0.01315304657      0.99904362391       -0.01315304657      0.000889645199749   0.00259348080414    
3800000000.0        0.000892246900444   0.00266353502445    0.999037696614      -0.0135085696901    0.999037696614      -0.0135085696901    0.000892246900444   0.00266353502445    
3900000000.0        0.00089489135079    0.00273358671123    0.999031644973      -0.0138640952367    0.999031644973      -0.0138640952367    0.00089489135079    0.00273358671123    
4000000000.0        0.000897579029047   0.00280363582695    0.999025468501      -0.0142196232303    0.999025468501      -0.0142196232303    0.000897579029047   0.00280363582695    
4100000000.0        0.000900310379591   0.00287368233423    0.999019166749      -0.0145751536899    0.999019166749      -0.0145751536899    0.000900310379591   0.00287368233423    
4200000000.0        0.00090308581592    0.00294372619577    0.999012739296      -0.0149306866336    0.999012739296      -0.0149306866336    0.00090308581592    0.00294372619577    
4300000000.0        0.000905905723325   0.00301376737442    0.999006185752      -0.0152862220781    0.999006185752      -0.0152862220781    0.000905905723325   0.00301376737442    
4400000000.0        0.000908770461282   0.00308380583307    0.998999505751      -0.0156417600395    0.998999505751      -0.0156417600395    0.000908770461282   0.00308380583307    
4500000000.0        0.000911680365599   0.00315384153481    0.998992698951      -0.0159973005325    0.998992698951      -0.0159973005325    0.000911680365599   0.00315384153481    
4600000000.0        0.000914635750331   0.00322387444286    0.998985765031      -0.0163528435709    0.998985765031      -0.0163528435709    0.000914635750331   0.00322387444286    
4700000000.0        0.000917636909518   0.00329390452055    0.998978703691      -0.0167083891678    0.998978703691      -0.0167083891678    0.000917636909518   0.00329390452055    
4800000000.0        0.000920684118748   0.0033639317314     0.99897151465       -0.017063937335     0.99897151465       -0.017063937335     0.000920684118748   0.0033639317314     
4900000000.0        0.000923777636572   0.00343395603905    0.998964197641      -0.0174194880838    0.998964197641      -0.0174194880838    0.000923777636572   0.00343395603905    
5000000000.0        0.000926917705777   0.00350397740731    0.998956752416      -0.0177750414244    0.998956752416      -0.0177750414244    0.000926917705777   0.00350397740731    
5100000000.0        0.000930104554562   0.00357399580015    0.99894917874       -0.0181305973664    0.99894917874       -0.0181305973664    0.000930104554562   0.00357399580015    
5200000000.0        0.000933338397585   0.00364401118171    0.998941476392      -0.0184861559184    0.998941476392      -0.0184861559184    0.000933338397584   0.00364401118171    
5300000000.0        0.000936619436934   0.0037140235163     0.998933645162      -0.0188417170884    0.998933645162      -0.0188417170884    0.000936619436935   0.0037140235163     
5400000000.0        0.00093994786301    0.00378403276837    0.998925684855      -0.0191972808837    0.998925684855      -0.0191972808837    0.00093994786301    0.00378403276837    
5500000000.0        0.000943323855322   0.0038540389026     0.998917595282      -0.0195528473107    0.998917595282      -0.0195528473107    0.000943323855322   0.0038540389026     
5600000000.0        0.000946747583238   0.00392404188376    0.998909376269      -0.0199084163752    0.998909376269      -0.0199084163752    0.000946747583238   0.00392404188376    
5700000000.0        0.000950219206653   0.00399404167689    0.998901027648      -0.0202639880824    0.998901027648      -0.0202639880824    0.000950219206654   0.00399404167689    
5800000000.0        0.000953738876617   0.00406403824709    0.998892549261      -0.0206195624367    0.998892549261      -0.0206195624367    0.000953738876617   0.00406403824709    
5900000000.0        0.000957306735899   0.00413403155979    0.998883940958      -0.020975139442     0.998883940958      -0.020975139442     0.000957306735899   0.00413403155979    
6000000000.0        0.000960922919525   0.00420402158043    0.998875202598      -0.0213307191016    0.998875202598      -0.0213307191016    0.000960922919525   0.00420402158043    
6100000000.0        0.000964587555257   0.00427400827476    0.998866334046      -0.021686301418     0.998866334046      -0.021686301418     0.000964587555257   0.00427400827476    
6200000000.0        0.000968300764046   0.00434399160863    0.998857335172      -0.0220418863934    0.998857335172      -0.0220418863934    0.000968300764046   0.00434399160863    
6300000000.0        0.000972062660448   0.00441397154811    0.998848205857      -0.0223974740291    0.998848205857      -0.0223974740291    0.000972062660448   0.00441397154811    
6400000000.0        0.000975873353009   0.00448394805942    0.998838945983      -0.0227530643262    0.998838945983      -0.0227530643262    0.000975873353009   0.00448394805942    
6500000000.0        0.000979732944622   0.00455392110899    0.998829555441      -0.023108657285     0.998829555441      -0.023108657285     0.000979732944622   0.00455392110899    
6600000000.0        0.000983641532854   0.00462389066342    0.998820034125      -0.0234642529053    0.998820034125      -0.0234642529053    0.000983641532854   0.00462389066342    
6700000000.0        0.000987599210266   0.00469385668943    0.998810381936      -0.0238198511866    0.998810381936      -0.0238198511866    0.000987599210266   0.00469385668943    
6800000000.0        0.000991606064688   0.00476381915403    0.998800598778      -0.0241754521276    0.998800598778      -0.0241754521276    0.000991606064688   0.00476381915403    
6900000000.0        0.000995662179492   0.00483377802431    0.998790684561      -0.0245310557268    0.998790684561      -0.0245310557268    0.000995662179492   0.00483377802431    
7000000000.0        0.000999767633838   0.00490373326757    0.998780639197      -0.024886661982     0.998780639197      -0.024886661982     0.000999767633838   0.00490373326757    
7100000000.0        0.00100392250291    0.00497368485132    0.998770462605      -0.0252422708905    0.998770462605      -0.0252422708905    0.00100392250291    0.00497368485132    
7200000000.0        0.00100812685813    0.00504363274319    0.998760154705      -0.0255978824495    0.998760154705      -0.0255978824495    0.00100812685813    0.00504363274319    
7300000000.0        0.00101238076736    0.00511357691103    0.998749715421      -0.0259534966553    0.998749715421      -0.0259534966553    0.00101238076736    0.00511357691103    
7400000000.0        0.0010166842951     0.00518351732284    0.998739144681      -0.026309113504     0.998739144681      -0.026309113504     0.0010166842951     0.00518351732284    
7500000000.0        0.00102103750264    0.00525345394679    0.998728442417      -0.0266647329913    0.998728442417      -0.0266647329913    0.00102103750264    0.00525345394679    
7600000000.0        0.00102544044828    0.00532338675126    0.998717608562      -0.0270203551124    0.998717608562      -0.0270203551124    0.00102544044828    0.00532338675126    
7700000000.0        0.00102989318741    0.00539331570475    0.998706643053      -0.0273759798622    0.998706643053      -0.0273759798622    0.00102989318741    0.00539331570475    
7800000000.0        0.00103439577274    0.00546324077599    0.998695545829      -0.0277316072349    0.998695545829      -0.0277316072349    0.00103439577274    0.00546324077599    
7900000000.0        0.00103894825437    0.00553316193382    0.998684316833      -0.0280872372247    0.998684316833      -0.0280872372247    0.00103894825437    0.00553316193382    
8000000000.0        0.00104355067994    0.0056030791473     0.998672956009      -0.0284428698252    0.998672956009      -0.0284428698252    0.00104355067994    0.0056030791473     
8100000000.0        0.00104820309479    0.00567299238563    0.998661463303      -0.0287985050295    0.998661463303      -0.0287985050295    0.00104820309479    0.00567299238563    
8200000000.0        0.00105290554202    0.0057429016182     0.998649838665      -0.0291541428306    0.998649838665      -0.0291541428306    0.00105290554202    0.0057429016182     
8300000000.0        0.00105765806261    0.00581280681456    0.998638082045      -0.0295097832211    0.998638082045      -0.0295097832211    0.00105765806261    0.00581280681456    
8400000000.0        0.00106246069556    0.0058827079444     0.998626193397      -0.029865426193     0.998626193397      -0.029865426193     0.00106246069556    0.0058827079444     
8500000000.0        0.00106731347794    0.0059526049776     0.998614172675      -0.0302210717382    0.998614172675      -0.0302210717382    0.00106731347794    0.0059526049776     
8600000000.0        0.001072216445      0.00602249788423    0.998602019836      -0.0305767198481    0.998602019836      -0.0305767198481    0.001072216445      0.00602249788423    
8700000000.0        0.00107716963028    0.00609238663446    0.998589734838      -0.0309323705138    0.998589734838      -0.0309323705138    0.00107716963028    0.00609238663446    
8800000000.0        0.00108217306563    0.00616227119868    0.998577317641      -0.0312880237262    0.998577317641      -0.0312880237262    0.00108217306563    0.00616227119868    
8900000000.0        0.00108722678135    0.00623215154741    0.998564768207      -0.0316436794757    0.998564768207      -0.0316436794757    0.00108722678135    0.00623215154741    
9000000000.0        0.00109233080623    0.00630202765135    0.998552086498      -0.0319993377524    0.998552086498      -0.0319993377524    0.00109233080623    0.00630202765135    
9100000000.0        0.00109748516761    0.00637189948133    0.99853927248       -0.0323549985462    0.99853927248       -0.0323549985462    0.00109748516761    0.00637189948133    
9200000000.0        0.00110268989148    0.00644176700837    0.998526326117      -0.0327106618466    0.998526326117      -0.0327106618466    0.00110268989148    0.00644176700837    
9300000000.0        0.00110794500251    0.00651163020364    0.998513247376      -0.0330663276428    0.998513247376      -0.0330663276428    0.00110794500251    0.00651163020364    
9400000000.0        0.00111325052412    0.00658148903843    0.998500036227      -0.0334219959237    0.998500036227      -0.0334219959237    0.00111325052412    0.00658148903843    
9500000000.0        0.00111860647854    0.00665134348425    0.998486692637      -0.0337776666779    0.998486692637      -0.0337776666779    0.00111860647854    0.00665134348425    
9600000000.0        0.00112401288686    0.00672119351271    0.998473216579      -0.0341333398938    0.998473216579      -0.0341333398938    0.00112401288686    0.00672119351271    
9700000000.0        0.00112946976906    0.00679103909561    0.998459608022      -0.0344890155594    0.998459608022      -0.0344890155594    0.00112946976906    0.00679103909561    
9800000000.0        0.0011349771441     0.00686088020487    0.998445866941      -0.0348446936624    0.998445866941      -0.0348446936624    0.0011349771441     0.00686088020487    
9900000000.0        0.00114053502993    0.00693071681258    0.998431993308      -0.0352003741904    0.998431993308      -0.0352003741904    0.00114053502993    0.00693071681258    
10000000000.0       0.00114614344354    0.00700054889097    0.998417987097      -0.0355560571305    0.998417987097      -0.0355560571305    0.00114614344354    0.00700054889097    
