# Hz S RI R 50.00 
100000000.0         0.00620681532371    0.000846007656381   0.993781972756      -0.00450960959075   0.993781972756      -0.00450960959075   0.00620681532371    0.000846007656381   
200000000.0         0.00625780018501    0.00169150869153    0.993707325466      -0.00901867687674   0.993707325466      -0.00901867687674   0.00625780018501    0.00169150869153    
300000000.0         0.00630561412885    0.00253660603       0.993622397928      -0.0135272813053    0.993622397928      -0.0135272813053    0.00630561412886    0.00253660603       
400000000.0         0.00635561315937    0.00338128740121    0.993521833436      -0.0180353839011    0.993521833436      -0.0180353839011    0.00635561315937    0.00338128740121    
500000000.0         0.0064098577718     0.00422551403788    0.993403570716      -0.0225429175682    0.993403570716      -0.0225429175682    0.0064098577718     0.00422551403788    
600000000.0         0.00646939657636    0.00506923556751    0.993266560304      -0.0270498025433    0.993266560304      -0.0270498025433    0.00646939657636    0.00506923556751    
700000000.0         0.0065348467743     0.00591239533697    0.993110184071      -0.0315559520058    0.993110184071      -0.0315559520058    0.0065348467743     0.00591239533697    
800000000.0         0.00660660599226    0.00675493287218    0.992934043393      -0.036061274707     0.992934043393      -0.036061274707     0.00660660599226    0.00675493287218    
900000000.0         0.00668494659097    0.00759678519499    0.992737864844      -0.0405656763988    0.992737864844      -0.0405656763988    0.00668494659097    0.00759678519499    
1000000000.0        0.00677006346233    0.00843788760087    0.992521452407      -0.0450690606892    0.992521452407      -0.0450690606892    0.00677006346233    0.00843788760087    
1100000000.0        0.00686210059561    0.00927817415237    0.992284660906      -0.0495713295923    0.992284660906      -0.0495713295923    0.00686210059561    0.00927817415237    
1200000000.0        0.00696116690532    0.0101175780094     0.992027380184      -0.0540723839022    0.992027380184      -0.0540723839022    0.00696116690532    0.0101175780094     
1300000000.0        0.00706734618797    0.0109560316607     0.991749525149      -0.058572123458     0.991749525149      -0.058572123458     0.00706734618797    0.0109560316607     
1400000000.0        0.00718070366572    0.0117934670912     0.991451029234      -0.0630704473377    0.991451029234      -0.0630704473377    0.00718070366572    0.0117934670912     
1500000000.0        0.0073012904449     0.0126298159075     0.991131839939      -0.0675672540058    0.991131839939      -0.0675672540058    0.0073012904449     0.0126298159075     
1600000000.0        0.0074291466471     0.013465009434      0.990791915703      -0.072062441427     0.990791915703      -0.072062441427     0.0074291466471     0.013465009434      
1700000000.0        0.00756430366548    0.0142989787883     0.990431223652      -0.0765559071566    0.990431223652      -0.0765559071566    0.00756430366548    0.0142989787883     
1800000000.0        0.00770678582725    0.0151316549417     0.990049737935      -0.0810475484135    0.990049737935      -0.0810475484135    0.00770678582725    0.0151316549417     
1900000000.0        0.00785661164257    0.0159629687685     0.989647438482      -0.0855372621405    0.989647438482      -0.0855372621405    0.00785661164257    0.0159629687685     
2000000000.0        0.00801379475894    0.0167928510868     0.989224310045      -0.0900249450539    0.989224310045      -0.0900249450539    0.00801379475894    0.0167928510868     
2100000000.0        0.0081783447017     0.0176212326934     0.988780341465      -0.0945104936862    0.988780341465      -0.0945104936862    0.0081783447017     0.0176212326934     
2200000000.0        0.00835026745632    0.0184480443928     0.988315525091      -0.0989938044225    0.988315525091      -0.0989938044225    0.00835026745632    0.0184480443928     
2300000000.0        0.00852956593209    0.0192732170231     0.987829856314      -0.103474773532     0.987829856314      -0.103474773532     0.00852956593209    0.0192732170231     
2400000000.0        0.00871624033532    0.0200966814782     0.9873233332        -0.107953297195     0.9873233332        -0.107953297195     0.00871624033532    0.0200966814782     
2500000000.0        0.00891028847284    0.020918368728      0.986795956185      -0.112429271529     0.986795956185      -0.112429271529     0.00891028847284    0.020918368728      
2600000000.0        0.00911170600118    0.0217382098355     0.986247727829      -0.116902592609     0.986247727829      -0.116902592609     0.00911170600118    0.0217382098355     
2700000000.0        0.00932048663274    0.0225561359737     0.98567865261       -0.121373156487     0.98567865261       -0.121373156487     0.00932048663274    0.0225561359737     
2800000000.0        0.00953662230797    0.0233720784397     0.985088736754      -0.125840859212     0.985088736754      -0.125840859212     0.00953662230797    0.0233720784397     
2900000000.0        0.00976010334001    0.0241859686686     0.984477988094      -0.130305596844     0.984477988094      -0.130305596844     0.00976010334001    0.0241859686686     
3000000000.0        0.00999091853723    0.0249977382458     0.983846415944      -0.134767265471     0.983846415944      -0.134767265471     0.00999091853723    0.0249977382458     
3100000000.0        0.0102290553076     0.0258073189188     0.983194030999      -0.139225761221     0.983194030999      -0.139225761221     0.0102290553076     0.0258073189188     
3200000000.0        0.0104744997482     0.026614642608      0.982520845248      -0.143680980275     0.982520845248      -0.143680980275     0.0104744997482     0.026614642608      
3300000000.0        0.0107272367224     0.0274196414173     0.981826871895      -0.148132818883     0.981826871895      -0.148132818883     0.0107272367224     0.0274196414173     
3400000000.0        0.0109872499268     0.028222247644      0.981112125295      -0.152581173371     0.981112125295      -0.152581173371     0.0109872499268     0.028222247644      
3500000000.0        0.0112545219496     0.0290223937877     0.980376620897      -0.157025940153     0.980376620897      -0.157025940153     0.0112545219496     0.0290223937877     
3600000000.0        0.0115290343222     0.0298200125601     0.979620375193      -0.161467015741     0.979620375193      -0.161467015741     0.0115290343222     0.0298200125601     
3700000000.0        0.0118107675635     0.0306150368926     0.978843405675      -0.165904296759     0.978843405675      -0.165904296759     0.0118107675635     0.0306150368926     
3800000000.0        0.0120997012205     0.0314073999455     0.978045730795      -0.170337679944     0.978045730795      -0.170337679944     0.0120997012205     0.0314073999455     
3900000000.0        0.0123958139038     0.0321970351156     0.977227369933      -0.174767062162     0.977227369933      -0.174767062162     0.0123958139038     0.0321970351156     
4000000000.0        0.0126990833189     0.0329838760441     0.976388343364      -0.179192340415     0.976388343364      -0.179192340415     0.0126990833189     0.0329838760441     
4100000000.0        0.0130094862951     0.0337678566242     0.97552867223       -0.183613411846     0.97552867223       -0.183613411846     0.0130094862951     0.0337678566242     
4200000000.0        0.0133269988111     0.0345489110083     0.974648378521      -0.188030173752     0.974648378521      -0.188030173752     0.0133269988111     0.0345489110083     
4300000000.0        0.0136515960185     0.0353269736153     0.973747485044      -0.192442523587     0.973747485044      -0.192442523587     0.0136515960185     0.0353269736153     
4400000000.0        0.0139832522624     0.036101979138      0.97282601541       -0.196850358972     0.97282601541       -0.196850358972     0.0139832522624     0.036101979138      
4500000000.0        0.0143219411015     0.036873862549      0.971883994012      -0.201253577704     0.971883994012      -0.201253577704     0.0143219411015     0.036873862549      
4600000000.0        0.0146676353254     0.0376425591086     0.970921446011      -0.205652077757     0.970921446011      -0.205652077757     0.0146676353254     0.0376425591086     
4700000000.0        0.0150203069712     0.0384080043704     0.969938397318      -0.210045757295     0.969938397318      -0.210045757295     0.0150203069712     0.0384080043704     
4800000000.0        0.0153799273385     0.0391701341884     0.968934874582      -0.214434514677     0.968934874582      -0.214434514677     0.0153799273385     0.0391701341884     
4900000000.0        0.0157464670034     0.0399288847232     0.967910905174      -0.218818248461     0.967910905174      -0.218818248461     0.0157464670034     0.0399288847232     
5000000000.0        0.0161198958319     0.0406841924482     0.966866517179      -0.223196857414     0.966866517179      -0.223196857414     0.0161198958319     0.0406841924482     
5100000000.0        0.0165001829921     0.0414359941557     0.965801739382      -0.227570240514     0.965801739382      -0.227570240514     0.0165001829921     0.0414359941557     
5200000000.0        0.0168872969654     0.0421842269631     0.964716601259      -0.231938296961     0.964716601259      -0.231938296961     0.0168872969654     0.0421842269631     
5300000000.0        0.0172812055578     0.0429288283188     0.963611132963      -0.236300926179     0.963611132963      -0.236300926179     0.0172812055578     0.0429288283188     
5400000000.0        0.0176818759103     0.0436697360081     0.962485365323      -0.240658027824     0.962485365323      -0.240658027824     0.0176818759103     0.0436697360081     
5500000000.0        0.018089274508      0.0444068881589     0.961339329826      -0.245009501788     0.961339329826      -0.245009501788     0.018089274508      0.0444068881589     
5600000000.0        0.0185033671901     0.0451402232478     0.960173058614      -0.249355248207     0.960173058614      -0.249355248207     0.0185033671901     0.0451402232478     
5700000000.0        0.0189241191588     0.045869680105      0.958986584476      -0.253695167464     0.958986584476      -0.253695167464     0.0189241191588     0.045869680105      
5800000000.0        0.0193514949872     0.0465951979209     0.957779940838      -0.258029160197     0.957779940838      -0.258029160197     0.0193514949872     0.0465951979209     
5900000000.0        0.0197854586283     0.0473167162504     0.956553161758      -0.2623571273       0.956553161758      -0.2623571273       0.0197854586283     0.0473167162504     
6000000000.0        0.0202259734226     0.0480341750195     0.955306281918      -0.266678969934     0.955306281918      -0.266678969934     0.0202259734226     0.0480341750195     
6100000000.0        0.0206730021057     0.0487475145298     0.954039336616      -0.270994589528     0.954039336616      -0.270994589528     0.0206730021057     0.0487475145298     
6200000000.0        0.0211265068159     0.0494566754642     0.952752361764      -0.275303887784     0.952752361764      -0.275303887784     0.0211265068159     0.0494566754642     
6300000000.0        0.0215864491013     0.0501615988918     0.951445393876      -0.279606766686     0.951445393876      -0.279606766686     0.0215864491013     0.0501615988918     
6400000000.0        0.022052789927      0.0508622262736     0.950118470065      -0.283903128499     0.950118470065      -0.283903128499     0.022052789927      0.0508622262736     
6500000000.0        0.0225254896821     0.051558499467      0.948771628039      -0.288192875778     0.948771628039      -0.288192875778     0.0225254896821     0.051558499467      
6600000000.0        0.023004508186      0.0522503607311     0.94740490609       -0.292475911373     0.94740490609       -0.292475911373     0.023004508186      0.0522503607311     
6700000000.0        0.0234898046955     0.0529377527319     0.946018343092      -0.296752138429     0.946018343092      -0.296752138429     0.0234898046955     0.0529377527319     
6800000000.0        0.0239813379111     0.0536206185466     0.944611978497      -0.301021460396     0.944611978497      -0.301021460396     0.0239813379111     0.0536206185466     
6900000000.0        0.0244790659832     0.0542989016689     0.943185852325      -0.30528378103      0.943185852325      -0.30528378103      0.0244790659832     0.0542989016689     
7000000000.0        0.0249829465188     0.0549725460138     0.941740005162      -0.3095390044       0.941740005162      -0.3095390044       0.0249829465188     0.0549725460138     
7100000000.0        0.0254929365874     0.055641495922      0.940274478153      -0.31378703489      0.940274478153      -0.31378703489      0.0254929365874     0.055641495922      
7200000000.0        0.0260089927272     0.0563056961647     0.938789313         -0.318027777202     0.938789313         -0.318027777202     0.0260089927272     0.0563056961647     
7300000000.0        0.0265310709513     0.0569650919485     0.937284551952      -0.322261136366     0.937284551952      -0.322261136366     0.0265310709513     0.0569650919485     
7400000000.0        0.0270591267536     0.0576196289192     0.935760237804      -0.326487017739     0.935760237804      -0.326487017739     0.0270591267536     0.0576196289192     
7500000000.0        0.0275931151148     0.0582692531672     0.93421641389       -0.33070532701      0.93421641389       -0.33070532701      0.0275931151148     0.0582692531672     
7600000000.0        0.0281329905083     0.0589139112312     0.932653124079      -0.334915970204     0.932653124079      -0.334915970204     0.0281329905083     0.0589139112312     
7700000000.0        0.0286787069063     0.0595535501027     0.93107041277       -0.339118853687     0.93107041277       -0.339118853687     0.0286787069063     0.0595535501027     
7800000000.0        0.0292302177851     0.0601881172306     0.929468324886      -0.34331388417      0.929468324886      -0.34331388417      0.0292302177851     0.0601881172306     
7900000000.0        0.0297874761316     0.0608175605251     0.927846905871      -0.347500968712     0.927846905871      -0.347500968712     0.0297874761316     0.0608175605251     
8000000000.0        0.0303504344486     0.0614418283621     0.926206201684      -0.351680014721     0.926206201684      -0.351680014721     0.0303504344486     0.0614418283621     
8100000000.0        0.0309190447609     0.062060869587      0.924546258795      -0.355850929965     0.924546258795      -0.355850929965     0.0309190447609     0.062060869587      
8200000000.0        0.0314932586206     0.0626746335193     0.92286712418       -0.360013622566     0.92286712418       -0.360013622566     0.0314932586206     0.0626746335193     
8300000000.0        0.0320730271135     0.0632830699559     0.921168845313      -0.364168001012     0.921168845313      -0.364168001012     0.0320730271135     0.0632830699559     
8400000000.0        0.0326583008642     0.0638861291756     0.919451470169      -0.368313974155     0.919451470169      -0.368313974155     0.0326583008642     0.0638861291756     
8500000000.0        0.033249030042      0.0644837619428     0.917715047212      -0.372451451218     0.917715047212      -0.372451451218     0.033249030042      0.0644837619428     
8600000000.0        0.033845164367      0.0650759195112     0.915959625394      -0.376580341796     0.915959625394      -0.376580341796     0.033845164367      0.0650759195112     
8700000000.0        0.0344466531152     0.0656625536277     0.914185254147      -0.380700555857     0.914185254147      -0.380700555857     0.0344466531152     0.0656625536277     
8800000000.0        0.0350534451245     0.0662436165361     0.912391983385      -0.384812003754     0.912391983385      -0.384812003754     0.0350534451245     0.0662436165361     
8900000000.0        0.0356654888004     0.0668190609805     0.910579863491      -0.388914596216     0.910579863491      -0.388914596216     0.0356654888004     0.0668190609805     
9000000000.0        0.0362827321216     0.0673888402092     0.908748945318      -0.393008244362     0.908748945318      -0.393008244362     0.0362827321216     0.0673888402092     
9100000000.0        0.0369051226456     0.0679529079782     0.906899280182      -0.397092859696     0.906899280182      -0.397092859696     0.0369051226456     0.0679529079782     
9200000000.0        0.0375326075148     0.0685112185542     0.905030919861      -0.401168354116     0.905030919861      -0.401168354116     0.0375326075148     0.0685112185542     
9300000000.0        0.0381651334617     0.0690637267186     0.903143916583      -0.405234639912     0.903143916583      -0.405234639912     0.0381651334617     0.0690637267186     
9400000000.0        0.0388026468147     0.0696103877706     0.901238323028      -0.409291629772     0.901238323028      -0.409291629772     0.0388026468147     0.0696103877706     
9500000000.0        0.039445093504      0.0701511575302     0.899314192322      -0.413339236784     0.899314192322      -0.413339236784     0.039445093504      0.0701511575302     
9600000000.0        0.0400924190671     0.070685992342      0.89737157803       -0.417377374437     0.89737157803       -0.417377374437     0.0400924190671     0.070685992342      
9700000000.0        0.0407445686547     0.0712148490777     0.895410534154      -0.421405956626     0.895410534154      -0.421405956626     0.0407445686547     0.0712148490777     
9800000000.0        0.0414014870362     0.0717376851398     0.893431115128      -0.425424897655     0.893431115128      -0.425424897655     0.0414014870362     0.0717376851398     
9900000000.0        0.0420631186054     0.0722544584643     0.891433375809      -0.429434112234     0.891433375809      -0.429434112234     0.0420631186054     0.0722544584643     
10000000000.0       0.0427294073863     0.0727651275236     0.88941737148       -0.433433515491     0.88941737148       -0.433433515491     0.0427294073863     0.0727651275236     
