# Hz S RI R 50.00 
100000000.0         0.00359304451806    0.000325792645372   0.996398831762      -0.00327550503405   0.996398831762      -0.00327550503405   0.00359304451806    0.000325792645372   
200000000.0         0.00361884260316    0.000651402988092   0.996357198488      -0.00655080266928   0.996357198488      -0.00655080266928   0.00361884260316    0.000651402988092   
300000000.0         0.00364048712755    0.000976883736323   0.996311007124      -0.00982593005366   0.996311007124      -0.00982593005366   0.00364048712755    0.000976883736323   
400000000.0         0.00366108578623    0.00130224296397    0.996257149807      -0.0131008780655    0.996257149807      -0.0131008780655    0.00366108578623    0.00130224296397    
500000000.0         0.00368183443053    0.00162747852576    0.996194430523      -0.0163756265448    0.996194430523      -0.0163756265448    0.00368183443053    0.00162747852576    
600000000.0         0.0037033422508     0.00195258381485    0.996122239923      -0.019650150337     0.996122239923      -0.019650150337     0.0037033422508     0.00195258381485    
700000000.0         0.00372596855132    0.00227754981492    0.996040218552      -0.0229244214905    0.996040218552      -0.0229244214905    0.00372596855132    0.00227754981492    
800000000.0         0.00374994562615    0.00260236604486    0.995948133973      -0.0261984102877    0.995948133973      -0.0261984102877    0.00374994562615    0.00260236604486    
900000000.0         0.00377543345341    0.00292702106225    0.995845826073      -0.0294720858058    0.995845826073      -0.0294720858058    0.00377543345341    0.00292702106225    
1000000000.0        0.00380254741027    0.00325150275925    0.995733179352      -0.0327454162524    0.995733179352      -0.0327454162524    0.00380254741027    0.00325150275925    
1100000000.0        0.00383137367459    0.00357579854911    0.995610107522      -0.0360183691816    0.995610107522      -0.0360183691816    0.00383137367459    0.00357579854911    
1200000000.0        0.00386197839945    0.00389989549019    0.995476544333      -0.0392909116399    0.995476544333      -0.0392909116399    0.00386197839945    0.00389989549019    
1300000000.0        0.00389441348351    0.00422378037189    0.995332437803      -0.0425630102699    0.995332437803      -0.0425630102699    0.00389441348351    0.00422378037189    
1400000000.0        0.00392872036255    0.00454743977627    0.995177746431      -0.0458346313858    0.995177746431      -0.0458346313858    0.00392872036255    0.00454743977627    
1500000000.0        0.00396493259237    0.00487086012358    0.995012436612      -0.0491057410303    0.995012436612      -0.0491057410303    0.00396493259237    0.00487086012358    
1600000000.0        0.00400307766218    0.00519402770662    0.994836480825      -0.0523763050185    0.994836480825      -0.0523763050185    0.00400307766218    0.00519402770662    
1700000000.0        0.00404317830103    0.0055169287172     0.994649856329      -0.0556462889724    0.994649856329      -0.0556462889724    0.00404317830103    0.0055169287172     
1800000000.0        0.00408525344013    0.005839549267      0.9944525442        -0.0589156583482    0.9944525442        -0.0589156583482    0.00408525344013    0.005839549267      
1900000000.0        0.00412931893539    0.00616187540417    0.994244528609      -0.0621843784592    0.994244528609      -0.0621843784592    0.00412931893539    0.00616187540417    
2000000000.0        0.00417538811942    0.00648389312673    0.994025796272      -0.0654524144936    0.994025796272      -0.0654524144936    0.00417538811942    0.00648389312673    
2100000000.0        0.00422347222954    0.0068055883936     0.993796336021      -0.0687197315308    0.993796336021      -0.0687197315308    0.00422347222954    0.0068055883936     
2200000000.0        0.00427358074407    0.00712694713374    0.993556138473      -0.0719862945534    0.993556138473      -0.0719862945534    0.00427358074407    0.00712694713374    
2300000000.0        0.00432572164996    0.0074479552538     0.993305195756      -0.0752520684591    0.993305195756      -0.0752520684591    0.00432572164996    0.0074479552538     
2400000000.0        0.00437990165796    0.00776859864456    0.993043501298      -0.07851701807      0.993043501298      -0.07851701807      0.00437990165796    0.00776859864456    
2500000000.0        0.00443612637735    0.00808886318649    0.992771049656      -0.0817811081405    0.992771049656      -0.0817811081405    0.00443612637735    0.00808886318649    
2600000000.0        0.00449440045924    0.00840873475453    0.992487836366      -0.085044303365     0.992487836366      -0.085044303365     0.00449440045924    0.00840873475453    
2700000000.0        0.00455472771489    0.00872819922218    0.992193857832      -0.0883065683841    0.992193857832      -0.0883065683841    0.00455472771489    0.00872819922218    
2800000000.0        0.00461711121436    0.00904724246518    0.991889111224      -0.0915678677902    0.991889111224      -0.0915678677902    0.00461711121436    0.00904724246518    
2900000000.0        0.00468155336913    0.00936585036467    0.991573594398      -0.0948281661325    0.991573594398      -0.0948281661325    0.00468155336913    0.00936585036467    
3000000000.0        0.00474805600196    0.00968400881006    0.991247305824      -0.0980874279217    0.991247305824      -0.0980874279217    0.00474805600196    0.00968400881006    
3100000000.0        0.00481662040607    0.0100017037015     0.990910244531      -0.101345617634     0.990910244531      -0.101345617634     0.00481662040607    0.0100017037015     
3200000000.0        0.00488724739589    0.0103189209524     0.990562410052      -0.104602699715     0.990562410052      -0.104602699715     0.00488724739589    0.0103189209524     
3300000000.0        0.00495993735043    0.010635646491      0.990203802387      -0.107858638581     0.990203802387      -0.107858638581     0.00495993735043    0.010635646491      
3400000000.0        0.00503469025087    0.0109518662627     0.98983442196       -0.111113398628     0.98983442196       -0.111113398628     0.00503469025087    0.0109518662627     
3500000000.0        0.00511150571305    0.0112675662319     0.989454269591      -0.114366944226     0.989454269591      -0.114366944226     0.00511150571305    0.0112675662319     
3600000000.0        0.0051903830158     0.011582732383      0.989063346464      -0.117619239729     0.989063346464      -0.117619239729     0.0051903830158     0.011582732383      
3700000000.0        0.00527132112575    0.0118973507223     0.988661654109      -0.120870249473     0.988661654109      -0.120870249473     0.00527132112575    0.0118973507223     
3800000000.0        0.00535431871901    0.0122114072794     0.988249194374      -0.124119937781     0.988249194374      -0.124119937781     0.00535431871902    0.0122114072794     
3900000000.0        0.00543937420043    0.0125248881082     0.987825969409      -0.127368268964     0.987825969409      -0.127368268964     0.00543937420043    0.0125248881082     
4000000000.0        0.00552648572046    0.0128377792883     0.987391981652      -0.130615207321     0.987391981652      -0.130615207321     0.00552648572046    0.0128377792883     
4100000000.0        0.00561565119025    0.013150066926      0.986947233809      -0.133860717145     0.986947233809      -0.133860717145     0.00561565119025    0.013150066926      
4200000000.0        0.00570686829502    0.0134617371556     0.986491728844      -0.137104762721     0.986491728844      -0.137104762721     0.00570686829502    0.0134617371556     
4300000000.0        0.00580013450605    0.0137727761402     0.98602546997       -0.14034730833      0.98602546997       -0.14034730833      0.00580013450605    0.0137727761402     
4400000000.0        0.00589544709137    0.0140831700726     0.985548460631      -0.143588318251     0.985548460631      -0.143588318251     0.00589544709137    0.0140831700726     
4500000000.0        0.0059928031254     0.0143929051764     0.985060704502      -0.146827756759     0.985060704502      -0.146827756759     0.0059928031254     0.0143929051764     
4600000000.0        0.00609219949764    0.0147019677069     0.984562205473      -0.150065588129     0.984562205473      -0.150065588129     0.00609219949764    0.0147019677069     
4700000000.0        0.00619363292049    0.0150103439518     0.984052967646      -0.15330177664      0.984052967646      -0.15330177664      0.00619363292049    0.0150103439518     
4800000000.0        0.00629709993634    0.015318020232      0.983532995327      -0.156536286569     0.983532995327      -0.156536286569     0.00629709993634    0.015318020232      
4900000000.0        0.00640259692406    0.0156249829025     0.983002293018      -0.159769082201     0.983002293018      -0.159769082201     0.00640259692406    0.0156249829025     
5000000000.0        0.00651012010483    0.0159312183534     0.982460865415      -0.163000127823     0.982460865415      -0.163000127823     0.00651012010483    0.0159312183534     
5100000000.0        0.00661966554751    0.01623671301       0.9819087174        -0.166229387729     0.9819087174        -0.166229387729     0.00661966554751    0.01623671301       
5200000000.0        0.00673122917356    0.0165414533341     0.981345854038      -0.169456826221     0.981345854038      -0.169456826221     0.00673122917356    0.0165414533341     
5300000000.0        0.00684480676148    0.0168454258246     0.980772280571      -0.172682407608     0.980772280571      -0.172682407608     0.00684480676148    0.0168454258246     
5400000000.0        0.006960393951      0.0171486170179     0.980188002418      -0.175906096209     0.980188002418      -0.175906096209     0.006960393951      0.0171486170179     
5500000000.0        0.00707798624686    0.0174510134888     0.979593025166      -0.179127856354     0.979593025166      -0.179127856354     0.00707798624686    0.0174510134888     
5600000000.0        0.00719757902228    0.0177526018512     0.978987354571      -0.182347652382     0.978987354571      -0.182347652382     0.00719757902228    0.0177526018512     
5700000000.0        0.00731916752227    0.0180533687586     0.978370996554      -0.185565448648     0.978370996554      -0.185565448648     0.00731916752227    0.0180533687586     
5800000000.0        0.0074427468666     0.0183533009049     0.977743957198      -0.188781209517     0.977743957198      -0.188781209517     0.0074427468666     0.0183533009049     
5900000000.0        0.00756831205261    0.0186523850248     0.977106242745      -0.19199489937      0.977106242745      -0.19199489937      0.00756831205261    0.0186523850248     
6000000000.0        0.0076958579578     0.0189506078944     0.976457859595      -0.195206482602     0.976457859595      -0.195206482602     0.0076958579578     0.0189506078944     
6100000000.0        0.00782537934227    0.0192479563323     0.975798814301      -0.198415923626     0.975798814301      -0.198415923626     0.00782537934227    0.0192479563323     
6200000000.0        0.00795687085097    0.0195444171995     0.97512911357       -0.201623186869     0.97512911357       -0.201623186869     0.00795687085097    0.0195444171995     
6300000000.0        0.00809032701585    0.0198399774003     0.974448764262      -0.204828236778     0.974448764262      -0.204828236778     0.00809032701585    0.0198399774003     
6400000000.0        0.00822574225783    0.020134623883      0.973757773384      -0.208031037817     0.973757773384      -0.208031037817     0.00822574225783    0.020134623883      
6500000000.0        0.00836311088868    0.0204283436403     0.973056148092      -0.21123155447      0.973056148092      -0.21123155447      0.00836311088868    0.0204283436403     
6600000000.0        0.00850242711278    0.0207211237099     0.972343895687      -0.214429751241     0.972343895687      -0.214429751241     0.00850242711278    0.0207211237099     
6700000000.0        0.00864368502882    0.021012951175      0.971621023617      -0.217625592655     0.971621023617      -0.217625592655     0.00864368502882    0.021012951175      
6800000000.0        0.0087868786313     0.021303813165      0.970887539471      -0.220819043259     0.970887539471      -0.220819043259     0.0087868786313     0.021303813165      
6900000000.0        0.00893200181211    0.0215936968557     0.970143450982      -0.224010067621     0.970143450982      -0.224010067621     0.00893200181211    0.0215936968557     
7000000000.0        0.00907904836188    0.0218825894704     0.969388766025      -0.227198630333     0.969388766025      -0.227198630333     0.00907904836188    0.0218825894704     
7100000000.0        0.00922801197136    0.0221704782799     0.968623492612      -0.230384696011     0.968623492612      -0.230384696011     0.00922801197136    0.0221704782799     
7200000000.0        0.00937888623269    0.0224573506033     0.967847638897      -0.233568229296     0.967847638897      -0.233568229296     0.00937888623269    0.0224573506033     
7300000000.0        0.00953166464063    0.0227431938084     0.967061213171      -0.236749194852     0.967061213171      -0.236749194852     0.00953166464063    0.0227431938084     
7400000000.0        0.00968634059372    0.0230279953122     0.966264223861      -0.239927557372     0.966264223861      -0.239927557372     0.00968634059372    0.0230279953122     
7500000000.0        0.00984290739541    0.0233117425818     0.965456679533      -0.243103281574     0.965456679533      -0.243103281574     0.00984290739541    0.0233117425818     
7600000000.0        0.0100013582551     0.0235944231341     0.964638588884      -0.246276332204     0.964638588884      -0.246276332204     0.0100013582551     0.0235944231341     
7700000000.0        0.0101616862893     0.0238760245373     0.96380996075       -0.249446674034     0.96380996075       -0.249446674034     0.0101616862893     0.0238760245373     
7800000000.0        0.0103238845225     0.0241565344105     0.962970804099      -0.252614271868     0.962970804099      -0.252614271868     0.0103238845225     0.0241565344105     
7900000000.0        0.0104879458879     0.0244359404248     0.962121128032      -0.255779090536     0.962121128032      -0.255779090536     0.0104879458879     0.0244359404248     
8000000000.0        0.010653863229      0.0247142303034     0.961260941783      -0.258941094901     0.961260941783      -0.258941094901     0.010653863229      0.0247142303034     
8100000000.0        0.0108216292999     0.0249913918225     0.960390254716      -0.262100249853     0.960390254716      -0.262100249853     0.0108216292999     0.0249913918225     
8200000000.0        0.0109912367662     0.0252674128113     0.959509076329      -0.265256520318     0.959509076329      -0.265256520318     0.0109912367662     0.0252674128113     
8300000000.0        0.0111626782062     0.0255422811529     0.958617416249      -0.268409871249     0.958617416249      -0.268409871249     0.0111626782062     0.0255422811529     
8400000000.0        0.0113359461115     0.0258159847845     0.957715284232      -0.271560267634     0.957715284232      -0.271560267634     0.0113359461115     0.0258159847845     
8500000000.0        0.0115110328876     0.0260885116981     0.956802690166      -0.274707674495     0.956802690166      -0.274707674495     0.0115110328876     0.0260885116981     
8600000000.0        0.0116879308551     0.0263598499407     0.955879644064      -0.277852056886     0.955879644064      -0.277852056886     0.0116879308551     0.0263598499407     
8700000000.0        0.0118666322501     0.026629987615      0.954946156072      -0.280993379894     0.954946156072      -0.280993379894     0.0118666322501     0.026629987615      
8800000000.0        0.0120471292251     0.0268989128798     0.954002236459      -0.284131608645     0.954002236459      -0.284131608645     0.0120471292251     0.0268989128798     
8900000000.0        0.0122294138496     0.0271666139503     0.953047895626      -0.287266708297     0.953047895626      -0.287266708297     0.0122294138496     0.0271666139503     
9000000000.0        0.012413478111      0.0274330790989     0.952083144096      -0.290398644045     0.952083144096      -0.290398644045     0.012413478111      0.0274330790989     
9100000000.0        0.0125993139151     0.0276982966554     0.951107992523      -0.293527381121     0.951107992523      -0.293527381121     0.0125993139151     0.0276982966554     
9200000000.0        0.012786913087      0.0279622550074     0.950122451684      -0.296652884794     0.950122451684      -0.296652884794     0.012786913087      0.0279622550074     
9300000000.0        0.0129762673714     0.0282249426008     0.949126532482      -0.29977512037      0.949126532482      -0.29977512037      0.0129762673714     0.0282249426008     
9400000000.0        0.0131673684335     0.0284863479406     0.948120245946      -0.302894053196     0.948120245946      -0.302894053196     0.0131673684335     0.0284863479406     
9500000000.0        0.0133602078597     0.0287464595907     0.947103603228      -0.306009648655     0.947103603228      -0.306009648655     0.0133602078597     0.0287464595907     
9600000000.0        0.0135547771583     0.0290052661748     0.946076615605      -0.309121872171     0.946076615605      -0.309121872171     0.0135547771583     0.0290052661748     
9700000000.0        0.0137510677595     0.0292627563769     0.945039294478      -0.312230689207     0.945039294478      -0.312230689207     0.0137510677595     0.0292627563769     
9800000000.0        0.0139490710171     0.0295189189412     0.943991651372      -0.315336065268     0.943991651372      -0.315336065268     0.0139490710171     0.0295189189412     
9900000000.0        0.0141487782079     0.0297737426731     0.942933697933      -0.318437965898     0.942933697933      -0.318437965898     0.0141487782079     0.0297737426731     
10000000000.0       0.0143501805333     0.0300272164394     0.941865445932      -0.321536356685     0.941865445932      -0.321536356685     0.0143501805333     0.0300272164394     
