# Hz S RI R 50.00 
100000000.0         0.00919406675406    0.00298572646217    0.990802790167      -0.00433183466355   0.990802790167      -0.00433183466355   0.00919406675406    0.00298572646217    
200000000.0         0.00929315684194    0.00597029259358    0.990699739221      -0.00866252869213   0.990699739221      -0.00866252869213   0.00929315684194    0.00597029259358    
300000000.0         0.00940222463428    0.0089537816061     0.99058489255       -0.0129921785496    0.99058489255       -0.0129921785496    0.00940222463428    0.0089537816061     
400000000.0         0.00952917203602    0.0119360413673     0.990450347959      -0.0173206429654    0.990450347959      -0.0173206429654    0.00952917203602    0.0119360413673     
500000000.0         0.00967703292187    0.0149168650817     0.990293071236      -0.0216477247884    0.990293071236      -0.0216477247884    0.00967703292187    0.0149168650817     
600000000.0         0.00984734427734    0.017896021915      0.990111525007      -0.0259732020244    0.990111525007      -0.0259732020244    0.00984734427734    0.017896021915      
700000000.0         0.0100410032585     0.0208732680443     0.98990481168       -0.0302968390982    0.98990481168       -0.0302968390982    0.0100410032585     0.0208732680443     
800000000.0         0.0102585800064     0.0238483518198     0.989672360635      -0.0346183921429    0.989672360635      -0.0346183921429    0.0102585800064     0.0238483518198     
900000000.0         0.0105004569312     0.0268210165668     0.989413788933      -0.0389376118855    0.989413788933      -0.0389376118855    0.0105004569312     0.0268210165668     
1000000000.0        0.010766899315      0.0297910022691     0.989128830724      -0.0432542453907    0.989128830724      -0.0432542453907    0.010766899315      0.0297910022691     
1100000000.0        0.0110580945608     0.0327580466605     0.98881729799       -0.0475680371956    0.98881729799       -0.0475680371956    0.0110580945608     0.0327580466605     
1200000000.0        0.0113741755833     0.0357218859751     0.988479057163      -0.0518787300948    0.988479057163      -0.0518787300948    0.0113741755833     0.0357218859751     
1300000000.0        0.0117152355288     0.0386822554888     0.988114014402      -0.0561860657081    0.988114014402      -0.0561860657081    0.0117152355288     0.0386822554888     
1400000000.0        0.0120813374549     0.0416388899268     0.987722105914      -0.0604897849098    0.987722105914      -0.0604897849098    0.0120813374549     0.0416388899268     
1500000000.0        0.012472520931      0.0445915237807     0.987303291355      -0.0647896281637    0.987303291355      -0.0647896281637    0.012472520931      0.0445915237807     
1600000000.0        0.0128888066793     0.0475398915632     0.986857549192      -0.0690853357932    0.986857549192      -0.0690853357932    0.0128888066793     0.0475398915632     
1700000000.0        0.0133301999243     0.0504837280187     0.98638487335       -0.0733766482036    0.98638487335       -0.0733766482036    0.0133301999243     0.0504837280187     
1800000000.0        0.0137966928666     0.0534227683006     0.985885270742      -0.0776633060717    0.985885270742      -0.0776633060717    0.0137966928666     0.0534227683006     
1900000000.0        0.0142882665467     0.0563567481247     0.985358759403      -0.0819450505076    0.985358759403      -0.0819450505076    0.0142882665467     0.0563567481247     
2000000000.0        0.0148048922744     0.0592854039042     0.984805367066      -0.0862216231984    0.984805367066      -0.0862216231984    0.0148048922744     0.0592854039042     
2100000000.0        0.0153465327437     0.0622084728691     0.984225130041      -0.0904927665352    0.984225130041      -0.0904927665352    0.0153465327437     0.0622084728691     
2200000000.0        0.0159131429152     0.0651256931755     0.983618092339      -0.0947582237288    0.983618092339      -0.0947582237288    0.0159131429152     0.0651256931755     
2300000000.0        0.0165046707241     0.0680368040052     0.982984304961      -0.0990177389149    0.982984304961      -0.0990177389149    0.0165046707241     0.0680368040052     
2400000000.0        0.017121057655      0.070941545657      0.982323825326      -0.103271057251     0.982323825326      -0.103271057251     0.017121057655      0.070941545657      
2500000000.0        0.0177622392161     0.0738396596334     0.981636716793      -0.107517925008     0.981636716793      -0.107517925008     0.0177622392161     0.0738396596334     
2600000000.0        0.0184281453326     0.0767308887207     0.980923048275      -0.111758089655     0.980923048275      -0.111758089655     0.0184281453326     0.0767308887207     
2700000000.0        0.019118700679      0.0796149770651     0.980182893899      -0.115991299936     0.980182893899      -0.115991299936     0.019118700679      0.0796149770651     
2800000000.0        0.0198338249608     0.0824916702454     0.979416332731      -0.120217305954     0.979416332731      -0.120217305954     0.0198338249608     0.0824916702454     
2900000000.0        0.0205734331573     0.085360715342      0.97862344853       -0.124435859234     0.97862344853       -0.124435859234     0.0205734331573     0.085360715342      
3000000000.0        0.0213374357324     0.0882218610029     0.977804329541      -0.128646712799     0.977804329541      -0.128646712799     0.0213374357324     0.0882218610029     
3100000000.0        0.0221257388198     0.0910748575074     0.976959068305      -0.132849621232     0.976959068305      -0.132849621232     0.0221257388198     0.0910748575074     
3200000000.0        0.022938244386      0.0939194568271     0.976087761501      -0.137044340745     0.976087761501      -0.137044340745     0.022938244386      0.0939194568271     
3300000000.0        0.0237748503776     0.0967554126848     0.975190509795      -0.141230629235     0.975190509795      -0.141230629235     0.0237748503776     0.0967554126848     
3400000000.0        0.0246354508528     0.099582480612      0.974267417714      -0.145408246346     0.974267417714      -0.145408246346     0.0246354508528     0.099582480612      
3500000000.0        0.0255199361021     0.102400418004      0.97331859352       -0.149576953526     0.97331859352       -0.149576953526     0.0255199361021     0.102400418004      
3600000000.0        0.0264281927584     0.105208984171      0.972344149103      -0.153736514084     0.972344149103      -0.153736514084     0.0264281927584     0.105208984171      
3700000000.0        0.0273601038994     0.108007940396      0.97134419988       -0.157886693239     0.97134419988       -0.157886693239     0.0273601038994     0.108007940396      
3800000000.0        0.0283155491425     0.110797049977      0.970318864696      -0.162027258179     0.970318864696      -0.162027258179     0.0283155491425     0.110797049977      
3900000000.0        0.0292944047349     0.113576078282      0.96926826574       -0.166157978106     0.96926826574       -0.166157978106     0.0292944047349     0.113576078282      
4000000000.0        0.0302965436373     0.116344792794      0.968192528456      -0.170278624286     0.968192528456      -0.170278624286     0.0302965436373     0.116344792794      
4100000000.0        0.0313218356048     0.119102963155      0.967091781465      -0.174388970097     0.967091781465      -0.174388970097     0.0313218356048     0.119102963155      
4200000000.0        0.0323701472639     0.121850361215      0.96596615649       -0.178488791077     0.96596615649       -0.178488791077     0.0323701472639     0.121850361215      
4300000000.0        0.0334413421858     0.12458676107       0.964815788278      -0.182577864964     0.964815788278      -0.182577864964     0.0334413421858     0.12458676107       
4400000000.0        0.0345352809585     0.127311939109      0.963640814532      -0.186655971743     0.963640814532      -0.186655971743     0.0345352809585     0.127311939109      
4500000000.0        0.0356518212554     0.13002567405       0.962441375842      -0.190722893685     0.962441375842      -0.190722893685     0.0356518212554     0.13002567405       
4600000000.0        0.0367908179032     0.132727746982      0.961217615617      -0.194778415393     0.961217615617      -0.194778415393     0.0367908179032     0.132727746982      
4700000000.0        0.0379521229472     0.135417941404      0.959969680017      -0.198822323832     0.959969680017      -0.198822323832     0.0379521229472     0.135417941404      
4800000000.0        0.0391355857162     0.138096043259      0.958697717895      -0.202854408375     0.958697717895      -0.202854408375     0.0391355857162     0.138096043259      
4900000000.0        0.0403410528855     0.140761840971      0.957401880725      -0.206874460838     0.957401880725      -0.206874460838     0.0403410528855     0.140761840971      
5000000000.0        0.0415683685396     0.143415125479      0.956082322549      -0.210882275511     0.956082322549      -0.210882275511     0.0415683685396     0.143415125479      
5100000000.0        0.0428173742334     0.146055690271      0.954739199907      -0.214877649198     0.954739199907      -0.214877649198     0.0428173742334     0.146055690271      
5200000000.0        0.0440879090528     0.148683331416      0.953372671786      -0.218860381246     0.953372671786      -0.218860381246     0.0440879090528     0.148683331416      
5300000000.0        0.0453798096755     0.151297847595      0.951982899549      -0.222830273579     0.951982899549      -0.222830273579     0.0453798096755     0.151297847595      
5400000000.0        0.0466929104299     0.153899040128      0.950570046885      -0.226787130725     0.950570046885      -0.226787130725     0.0466929104299     0.153899040128      
5500000000.0        0.0480270433545     0.156486713006      0.949134279745      -0.23073075985      0.949134279745      -0.23073075985      0.0480270433545     0.156486713006      
5600000000.0        0.0493820382566     0.159060672916      0.947675766283      -0.234660970783     0.947675766283      -0.234660970783     0.0493820382566     0.159060672916      
5700000000.0        0.0507577227707     0.16162072927       0.946194676802      -0.238577576044     0.946194676802      -0.238577576044     0.0507577227707     0.16162072927       
5800000000.0        0.0521539224162     0.164166694224      0.944691183692      -0.242480390867     0.944691183692      -0.242480390867     0.0521539224162     0.164166694224      
5900000000.0        0.0535704606555     0.166698382708      0.943165461373      -0.24636923323      0.943165461373      -0.24636923323      0.0535704606555     0.166698382708      
6000000000.0        0.0550071589512     0.169215612447      0.941617686241      -0.250243923872     0.941617686241      -0.250243923872     0.0550071589512     0.169215612447      
6100000000.0        0.0564638368233     0.171718203981      0.940048036606      -0.25410428632      0.940048036606      -0.25410428632      0.0564638368233     0.171718203981      
6200000000.0        0.0579403119062     0.174205980684      0.938456692638      -0.257950146906     0.938456692638      -0.257950146906     0.0579403119062     0.174205980684      
6300000000.0        0.0594364000055     0.176678768788      0.93684383631       -0.26178133479      0.93684383631       -0.26178133479      0.0594364000055     0.176678768788      
6400000000.0        0.0609519151545     0.179136397398      0.935209651343      -0.265597681979     0.935209651343      -0.265597681979     0.0609519151545     0.179136397398      
6500000000.0        0.0624866696704     0.181578698508      0.933554323145      -0.26939902334      0.933554323145      -0.26939902334      0.0624866696704     0.181578698508      
6600000000.0        0.0640404742105     0.18400550702       0.93187803876       -0.273185196621     0.93187803876       -0.273185196621     0.0640404742105     0.18400550702       
6700000000.0        0.0656131378283     0.186416660754      0.930180986812      -0.276956042463     0.930180986812      -0.276956042463     0.0656131378283     0.186416660754      
6800000000.0        0.0672044680287     0.188812000467      0.928463357443      -0.280711404419     0.928463357443      -0.280711404419     0.0672044680287     0.188812000467      
6900000000.0        0.0688142708243     0.191191369862      0.926725342266      -0.28445112896      0.926725342266      -0.28445112896      0.0688142708243     0.191191369862      
7000000000.0        0.0704423507898     0.193554615602      0.924967134305      -0.288175065493     0.924967134305      -0.288175065493     0.0704423507898     0.193554615602      
7100000000.0        0.0720885111175     0.195901587317      0.92318892794       -0.291883066368     0.92318892794       -0.291883066368     0.0720885111175     0.195901587317      
7200000000.0        0.0737525536722     0.198232137615      0.921390918854      -0.29557498689      0.921390918854      -0.29557498689      0.0737525536722     0.198232137615      
7300000000.0        0.0754342790456     0.200546122092      0.919573303978      -0.299250685325     0.919573303978      -0.299250685325     0.0754342790456     0.200546122092      
7400000000.0        0.0771334866105     0.202843399336      0.917736281435      -0.302910022912     0.917736281435      -0.302910022912     0.0771334866105     0.202843399336      
7500000000.0        0.0788499745753     0.205123830935      0.91588005049       -0.306552863866     0.91588005049       -0.306552863866     0.0788499745753     0.205123830935      
7600000000.0        0.080583540037      0.207387281484      0.914004811491      -0.310179075383     0.914004811491      -0.310179075383     0.080583540037      0.207387281484      
7700000000.0        0.0823339790357     0.209633618582      0.912110765819      -0.313788527647     0.912110765819      -0.313788527647     0.0823339790357     0.209633618582      
7800000000.0        0.0841010866068     0.211862712845      0.910198115834      -0.317381093833     0.910198115834      -0.317381093833     0.0841010866068     0.211862712845      
7900000000.0        0.0858846568345     0.2140744379        0.908267064823      -0.320956650108     0.908267064823      -0.320956650108     0.0858846568345     0.2140744379        
8000000000.0        0.0876844829042     0.216268670391      0.906317816947      -0.324515075631     0.906317816947      -0.324515075631     0.0876844829042     0.216268670391      
8100000000.0        0.0895003571545     0.218445289974      0.904350577186      -0.32805625256      0.904350577186      -0.32805625256      0.0895003571545     0.218445289974      
8200000000.0        0.0913320711293     0.220604179324      0.902365551293      -0.331580066044     0.902365551293      -0.331580066044     0.0913320711293     0.220604179324      
8300000000.0        0.093179415629      0.222745224124      0.900362945737      -0.335086404224     0.900362945737      -0.335086404224     0.093179415629      0.222745224124      
8400000000.0        0.095042180762      0.22486831307       0.898342967655      -0.338575158235     0.898342967655      -0.338575158235     0.095042180762      0.22486831307       
8500000000.0        0.0969201559949     0.226973337864      0.896305824801      -0.342046222194     0.896305824801      -0.342046222194     0.0969201559949     0.226973337864      
8600000000.0        0.0988131302032     0.229060193207      0.894251725494      -0.345499493204     0.894251725494      -0.345499493204     0.0988131302032     0.229060193207      
8700000000.0        0.100720891721      0.231128776799      0.89218087857       -0.348934871345     0.89218087857       -0.348934871345     0.100720891721      0.231128776799      
8800000000.0        0.10264322839       0.233178989329      0.890093493332      -0.352352259666     0.890093493332      -0.352352259666     0.10264322839       0.233178989329      
8900000000.0        0.10457992761       0.235210734468      0.887989779502      -0.355751564184     0.887989779502      -0.355751564184     0.10457992761       0.235210734468      
9000000000.0        0.106530776386      0.237223918862      0.885869947169      -0.359132693869     0.885869947169      -0.359132693869     0.106530776386      0.237223918862      
9100000000.0        0.108495561375      0.239218452123      0.883734206747      -0.362495560641     0.883734206747      -0.362495560641     0.108495561375      0.239218452123      
9200000000.0        0.110474068937      0.241194246818      0.88158276892       -0.365840079359     0.88158276892       -0.365840079359     0.110474068937      0.241194246818      
9300000000.0        0.112466085179      0.243151218462      0.879415844601      -0.369166167809     0.879415844601      -0.369166167809     0.112466085179      0.243151218462      
9400000000.0        0.114471396005      0.245089285501      0.877233644883      -0.372473746695     0.877233644883      -0.372473746695     0.114471396005      0.245089285501      
9500000000.0        0.116489787157      0.247008369305      0.875036380993      -0.375762739626     0.875036380993      -0.375762739626     0.116489787157      0.247008369305      
9600000000.0        0.118521044264      0.248908394153      0.872824264247      -0.379033073104     0.872824264247      -0.379033073104     0.118521044264      0.248908394153      
9700000000.0        0.120564952889      0.25078928722       0.870597506004      -0.382284676509     0.870597506004      -0.382284676509     0.120564952889      0.25078928722       
9800000000.0        0.122621298566      0.252650978562      0.868356317623      -0.38551748209      0.868356317623      -0.38551748209      0.122621298566      0.252650978562      
9900000000.0        0.124689866853      0.2544934011        0.866100910418      -0.388731424942     0.866100910418      -0.388731424942     0.124689866853      0.2544934011        
10000000000.0       0.126770443368      0.25631649061       0.863831495615      -0.391926442998     0.863831495615      -0.391926442998     0.126770443368      0.25631649061       
