# Hz S RI R 50.00 
100000000.0         6.8140770076e-05    -0.0028051013753    0.999905408203      -0.00341912256318   0.999905408203      -0.00341912256318   6.81407700758e-05   -0.0028051013753    
200000000.0         3.68749731785e-05   -0.00561024306778   0.999872475824      -0.00683832512748   0.999872475824      -0.00683832512748   3.68749731785e-05   -0.00561024306778   
300000000.0         -1.37210854677e-05  -0.00841537625295   0.999820118254      -0.0102575808542    0.999820118254      -0.0102575808542    -1.3721085468e-05   -0.00841537625295   
400000000.0         -8.35817793801e-05  -0.0112204205694    0.999748260719      -0.0136768263065    0.999748260719      -0.0136768263065    -8.35817793798e-05  -0.0112204205694    
500000000.0         -0.000172684564304  -0.014025279086     0.999656871746      -0.0170959790298    0.999656871746      -0.0170959790298    -0.000172684564304  -0.014025279086     
600000000.0         -0.000281019676612  -0.0168298436508    0.999545933516      -0.0205149437685    0.999545933516      -0.0205149437685    -0.000281019676612  -0.0168298436508    
700000000.0         -0.000408582288424  -0.0196339976615    0.999415434503      -0.0239336156722    0.999415434503      -0.0239336156722    -0.000408582288424  -0.0196339976615    
800000000.0         -0.000555369549367  -0.0224376177549    0.999265366883      -0.0273518822433    0.999265366883      -0.0273518822433    -0.000555369549368  -0.0224376177549    
900000000.0         -0.00072137920115   -0.0252405749431    0.999095725463      -0.0307696246427    0.999095725463      -0.0307696246427    -0.00072137920115   -0.0252405749431    
1000000000.0        -0.000906608824152  -0.0280427354328    0.99890650718       -0.0341867186277    0.99890650718       -0.0341867186277    -0.000906608824152  -0.0280427354328    
1100000000.0        -0.00111105537889   -0.030843961246     0.998697710877      -0.0376030352601    0.998697710877      -0.0376030352601    -0.00111105537888   -0.030843961246     
1200000000.0        -0.00133471490117   -0.0336441107094    0.998469337189      -0.0410184414616    0.998469337189      -0.0410184414616    -0.00133471490117   -0.0336441107094    
1300000000.0        -0.00157758228473   -0.0364430388525    0.998221388508      -0.0444328004652    0.998221388508      -0.0444328004652    -0.00157758228473   -0.0364430388525    
1400000000.0        -0.00183965111731   -0.0392405977402    0.997953868975      -0.0478459721893    0.997953868975      -0.0478459721893    -0.00183965111731   -0.0392405977402    
1500000000.0        -0.00212091355144   -0.0420366367563    0.997666784495      -0.0512578135559    0.997666784495      -0.0512578135559    -0.00212091355144   -0.0420366367563    
1600000000.0        -0.00242136019914   -0.04483100285      0.997360142761      -0.0546681787665    0.997360142761      -0.0546681787665    -0.00242136019914   -0.04483100285      
1700000000.0        -0.00274098004371   -0.047623540754     0.997033953289      -0.0580769195436    0.997033953289      -0.0580769195436    -0.00274098004371   -0.047623540754     
1800000000.0        -0.00307976036436   -0.0504140931782    0.996688227444      -0.061483885347     0.996688227444      -0.061483885347     -0.00307976036436   -0.0504140931782    
1900000000.0        -0.00343768667083   -0.0532025009866    0.996322978478      -0.0648889235675    0.996322978478      -0.0648889235675    -0.00343768667083   -0.0532025009866    
2000000000.0        -0.00381474264604   -0.0559886033586    0.995938221564      -0.0682918797045    0.995938221564      -0.0682918797045    -0.00381474264604   -0.0559886033586    
2100000000.0        -0.00421091009531   -0.0587722379367    0.995533973825      -0.0716925975282    0.995533973825      -0.0716925975282    -0.00421091009531   -0.0587722379367    
2200000000.0        -0.00462616890128   -0.0615532409653    0.995110254366      -0.0750909192305    0.995110254366      -0.0750909192305    -0.00462616890128   -0.0615532409653    
2300000000.0        -0.0050604969836    -0.0643314474194    0.994667084306      -0.0784866855649    0.994667084306      -0.0784866855649    -0.0050604969836    -0.0643314474194    
2400000000.0        -0.0055138702629    -0.0671066911264    0.994204486799      -0.0818797359784    0.994204486799      -0.0818797359784    -0.0055138702629    -0.0671066911264    
2500000000.0        -0.00598626262863   -0.0698788048807    0.993722487063      -0.0852699087353    0.993722487063      -0.0852699087353    -0.00598626262863   -0.0698788048807    
2600000000.0        -0.00647764591029   -0.072647620553     0.993221112402      -0.0886570410348    0.993221112402      -0.0886570410348    -0.00647764591029   -0.072647620553     
2700000000.0        -0.00698798985183   -0.0754129691942    0.992700392224      -0.0920409691223    0.992700392224      -0.0920409691223    -0.00698798985183   -0.0754129691942    
2800000000.0        -0.00751726208904   -0.078174681135     0.992160358065      -0.0954215283961    0.992160358065      -0.0954215283961    -0.00751726208904   -0.078174681135     
2900000000.0        -0.00806542812955   -0.0809325860814    0.9916010436        -0.0987985535095    0.9916010436        -0.0987985535095    -0.00806542812955   -0.0809325860814    
3000000000.0        -0.00863245133548   -0.0836865132066    0.991022484661      -0.102171878468     0.991022484661      -0.102171878468     -0.00863245133548   -0.0836865132066    
3100000000.0        -0.00921829290843   -0.0864362912393    0.990424719248      -0.105541336724     0.990424719248      -0.105541336724     -0.00921829290843   -0.0864362912393    
3200000000.0        -0.00982291187673   -0.0891817485496    0.989807787541      -0.108906761267     0.989807787541      -0.108906761267     -0.00982291187673   -0.0891817485496    
3300000000.0        -0.0104462650849    -0.0919227132315    0.989171731908      -0.112267984711     0.989171731908      -0.112267984711     -0.0104462650849    -0.0919227132315    
3400000000.0        -0.0110883071852    -0.0946590131835    0.988516596913      -0.115624839381     0.988516596913      -0.115624839381     -0.0110883071852    -0.0946590131835    
3500000000.0        -0.0117489906309    -0.0973904761858    0.987842429318      -0.118977157391     0.987842429318      -0.118977157391     -0.0117489906309    -0.0973904761858    
3600000000.0        -0.0124282656719    -0.100116929977     0.987149278093      -0.122324770727     0.987149278093      -0.122324770727     -0.0124282656719    -0.100116929977     
3700000000.0        -0.0131260803515    -0.102838202325     0.986437194412      -0.125667511325     0.986437194412      -0.125667511325     -0.0131260803515    -0.102838202325     
3800000000.0        -0.0138423805057    -0.105554121104     0.985706231655      -0.129005211142     0.985706231655      -0.129005211142     -0.0138423805057    -0.105554121104     
3900000000.0        -0.0145771097634    -0.108264514357     0.98495644541       -0.132337702233     0.98495644541       -0.132337702233     -0.0145771097634    -0.108264514357     
4000000000.0        -0.0153302095487    -0.11096921037      0.984187893464      -0.135664816819     0.984187893464      -0.135664816819     -0.0153302095487    -0.11096921037      
4100000000.0        -0.0161016190847    -0.113668037734     0.983400635806      -0.138986387357     0.983400635806      -0.138986387357     -0.0161016190847    -0.113668037734     
4200000000.0        -0.0168912753986    -0.116360825412     0.982594734615      -0.14230224661      0.982594734615      -0.14230224661      -0.0168912753986    -0.116360825412     
4300000000.0        -0.0176991133284    -0.119047402801     0.981770254257      -0.145612227708     0.981770254257      -0.145612227708     -0.0176991133284    -0.119047402801     
4400000000.0        -0.018525065531     -0.121727599793     0.980927261275      -0.148916164215     0.980927261275      -0.148916164215     -0.018525065531     -0.121727599793     
4500000000.0        -0.0193690624913    -0.124401246837     0.98006582438       -0.152213890191     0.98006582438       -0.152213890191     -0.0193690624913    -0.124401246837     
4600000000.0        -0.0202310325337    -0.127068174994     0.979186014438      -0.155505240253     0.979186014438      -0.155505240253     -0.0202310325337    -0.127068174994     
4700000000.0        -0.0211109018332    -0.129728215999     0.978287904463      -0.158790049633     0.978287904463      -0.158790049633     -0.0211109018332    -0.129728215999     
4800000000.0        -0.0220085944291    -0.132381202311     0.977371569595      -0.162068154236     0.977371569595      -0.162068154236     -0.0220085944291    -0.132381202311     
4900000000.0        -0.0229240322393    -0.135026967173     0.976437087095      -0.1653393907       0.976437087095      -0.1653393907       -0.0229240322393    -0.135026967173     
5000000000.0        -0.023857135076     -0.137665344662     0.975484536322      -0.168603596444     0.975484536322      -0.168603596444     -0.023857135076     -0.137665344662     
5100000000.0        -0.024807820662     -0.14029616974      0.97451399872       -0.171860609728     0.97451399872       -0.171860609728     -0.024807820662     -0.14029616974      
5200000000.0        -0.0257760046486    -0.142919278307     0.973525557799      -0.175110269705     0.973525557799      -0.175110269705     -0.0257760046486    -0.142919278307     
5300000000.0        -0.0267616006345    -0.145534507252     0.972519299116      -0.178352416465     0.972519299116      -0.178352416465     -0.0267616006345    -0.145534507252     
5400000000.0        -0.0277645201851    -0.148141694494     0.971495310255      -0.181586891095     0.971495310255      -0.181586891095     -0.0277645201851    -0.148141694494     
5500000000.0        -0.0287846728538    -0.150740679036     0.970453680808      -0.18481353572      0.970453680808      -0.18481353572      -0.0287846728538    -0.150740679036     
5600000000.0        -0.0298219662032    -0.153331301009     0.969394502351      -0.188032193551     0.969394502351      -0.188032193551     -0.0298219662032    -0.153331301009     
5700000000.0        -0.0308763058276    -0.155913401714     0.968317868423      -0.191242708934     0.968317868423      -0.191242708934     -0.0308763058276    -0.155913401714     
5800000000.0        -0.0319475953767    -0.158486823668     0.967223874501      -0.194444927393     0.967223874501      -0.194444927393     -0.0319475953767    -0.158486823668     
5900000000.0        -0.0330357365795    -0.161051410646     0.966112617978      -0.197638695672     0.966112617978      -0.197638695672     -0.0330357365795    -0.161051410646     
6000000000.0        -0.0341406292694    -0.163607007718     0.964984198135      -0.200823861781     0.964984198135      -0.200823861781     -0.0341406292694    -0.163607007718     
6100000000.0        -0.0352621714102    -0.166153461297     0.963838716118      -0.204000275033     0.963838716118      -0.204000275033     -0.0352621714102    -0.166153461297     
6200000000.0        -0.0364002591223    -0.16869061917      0.962676274911      -0.207167786087     0.962676274911      -0.207167786087     -0.0364002591223    -0.16869061917      
6300000000.0        -0.0375547867099    -0.171218330539     0.961496979306      -0.210326246985     0.961496979306      -0.210326246985     -0.0375547867099    -0.171218330539     
6400000000.0        -0.0387256466892    -0.173736446059     0.960300935878      -0.21347551119      0.960300935878      -0.21347551119      -0.0387256466892    -0.173736446059     
6500000000.0        -0.0399127298167    -0.17624481787      0.959088252956      -0.216615433622     0.959088252956      -0.216615433622     -0.0399127298167    -0.17624481787      
6600000000.0        -0.0411159251184    -0.178743299635     0.957859040594      -0.219745870696     0.957859040594      -0.219745870696     -0.0411159251184    -0.178743299635     
6700000000.0        -0.0423351199193    -0.181231746569     0.956613410539      -0.222866680353     0.956613410539      -0.222866680353     -0.0423351199193    -0.181231746569     
6800000000.0        -0.0435701998743    -0.183710015477     0.955351476202      -0.225977722094     0.955351476202      -0.225977722094     -0.0435701998743    -0.183710015477     
6900000000.0        -0.0448210489984    -0.186177964779     0.954073352631      -0.229078857014     0.954073352631      -0.229078857014     -0.0448210489984    -0.186177964779     
7000000000.0        -0.0460875496982    -0.188635454544     0.952779156471      -0.232169947829     0.952779156471      -0.232169947829     -0.0460875496982    -0.188635454544     
7100000000.0        -0.0473695828041    -0.191082346519     0.951469005942      -0.235250858909     0.951469005942      -0.235250858909     -0.0473695828041    -0.191082346519     
7200000000.0        -0.0486670276021    -0.193518504154     0.950143020799      -0.238321456308     0.950143020799      -0.238321456308     -0.0486670276021    -0.193518504154     
7300000000.0        -0.0499797618663    -0.195943792633     0.948801322305      -0.241381607786     0.948801322305      -0.241381607786     -0.0499797618663    -0.195943792633     
7400000000.0        -0.0513076618929    -0.198358078897     0.947444033191      -0.244431182843     0.947444033191      -0.244431182843     -0.0513076618929    -0.198358078897     
7500000000.0        -0.0526506025326    -0.200761231669     0.946071277632      -0.247470052737     0.946071277632      -0.247470052737     -0.0526506025326    -0.200761231669     
7600000000.0        -0.0540084572251    -0.203153121481     0.944683181204      -0.250498090515     0.944683181204      -0.250498090515     -0.0540084572251    -0.203153121481     
7700000000.0        -0.0553810980328    -0.205533620692     0.943279870856      -0.253515171034     0.943279870856      -0.253515171034     -0.0553810980328    -0.205533620692     
7800000000.0        -0.0567683956756    -0.207902603514     0.941861474872      -0.256521170982     0.941861474872      -0.256521170982     -0.0567683956756    -0.207902603514     
7900000000.0        -0.0581702195654    -0.210259946031     0.940428122839      -0.259515968902     0.940428122839      -0.259515968902     -0.0581702195654    -0.210259946031     
8000000000.0        -0.0595864378408    -0.212605526219     0.93897994561       -0.26249944521      0.93897994561       -0.26249944521      -0.0595864378408    -0.212605526219     
8100000000.0        -0.0610169174029    -0.214939223967     0.93751707527       -0.265471482218     0.93751707527       -0.265471482218     -0.0610169174029    -0.214939223967     
8200000000.0        -0.0624615239501    -0.21726092109      0.9360396451        -0.268431964149     0.9360396451        -0.268431964149     -0.0624615239501    -0.21726092109      
8300000000.0        -0.063920122014     -0.219570501352     0.934547789541      -0.271380777156     0.934547789541      -0.271380777156     -0.063920122014     -0.219570501352     
8400000000.0        -0.0653925749947    -0.221867850478     0.93304164416       -0.274317809337     0.93304164416       -0.274317809337     -0.0653925749947    -0.221867850478     
8500000000.0        -0.0668787451974    -0.224152856172     0.931521345612      -0.277242950757     0.931521345612      -0.277242950757     -0.0668787451974    -0.224152856172     
8600000000.0        -0.0683784938676    -0.226425408127     0.929987031606      -0.280156093451     0.929987031606      -0.280156093451     -0.0683784938676    -0.226425408127     
8700000000.0        -0.0698916812277    -0.228685398043     0.928438840867      -0.283057131451     0.928438840867      -0.283057131451     -0.0698916812277    -0.228685398043     
8800000000.0        -0.0714181665128    -0.230932719637     0.926876913101      -0.285945960787     0.926876913101      -0.285945960787     -0.0714181665128    -0.230932719637     
8900000000.0        -0.0729578080072    -0.233167268654     0.92530138896       -0.288822479507     0.92530138896       -0.288822479507     -0.0729578080072    -0.233167268654     
9000000000.0        -0.0745104630805    -0.23538894288      0.923712410003      -0.291686587684     0.923712410003      -0.291686587684     -0.0745104630805    -0.23538894288      
9100000000.0        -0.0760759882236    -0.237597642149     0.92211011866       -0.294538187429     0.92211011866       -0.294538187429     -0.0760759882236    -0.237597642149     
9200000000.0        -0.0776542390855    -0.239793268353     0.920494658199      -0.297377182896     0.920494658199      -0.297377182896     -0.0776542390855    -0.239793268353     
9300000000.0        -0.079245070509     -0.241975725449     0.918866172688      -0.300203480295     0.918866172688      -0.300203480295     -0.079245070509     -0.241975725449     
9400000000.0        -0.0808483365671    -0.24414491947      0.917224806955      -0.303016987895     0.917224806955      -0.303016987895     -0.0808483365671    -0.24414491947      
9500000000.0        -0.0824638905992    -0.246300758526     0.915570706559      -0.305817616034     0.915570706559      -0.305817616034     -0.0824638905992    -0.246300758526     
9600000000.0        -0.0840915852471    -0.248443152812     0.913904017748      -0.308605277125     0.913904017748      -0.308605277125     -0.0840915852471    -0.248443152812     
9700000000.0        -0.0857312724907    -0.250572014614     0.912224887427      -0.311379885657     0.912224887427      -0.311379885657     -0.0857312724907    -0.250572014614     
9800000000.0        -0.0873828036841    -0.252687258309     0.910533463119      -0.314141358204     0.910533463119      -0.314141358204     -0.0873828036841    -0.252687258309     
9900000000.0        -0.0890460295914    -0.254788800373     0.908829892932      -0.316889613424     0.908829892932      -0.316889613424     -0.0890460295914    -0.254788800373     
10000000000.0       -0.0907208004221    -0.256876559379     0.90711432552       -0.319624572066     0.90711432552       -0.319624572066     -0.0907208004221    -0.256876559379     
