# Hz S RI R 50.00 
100000000.0         -0.00166271052378   -0.0405546064573    0.998275675394      -0.0406782480861    0.998275675394      -0.0406782480861    -0.00166271052378   -0.0405546064573    
200000000.0         -0.00662690843675   -0.0807006816354    0.993311033704      -0.0809479784285    0.993311033704      -0.0809479784285    -0.00662690843675   -0.0807006816354    
300000000.0         -0.0147647456118    -0.120050418263     0.985172843333      -0.120421391086     0.985172843333      -0.120421391086     -0.0147647456118    -0.120050418263     
400000000.0         -0.0259194465671    -0.15824180236      0.97401782679       -0.158736477833     0.97401782679       -0.158736477833     -0.0259194465671    -0.15824180236      
500000000.0         -0.0398827121688    -0.194949007603     0.960054262904      -0.195567417299     0.960054262904      -0.195567417299     -0.0398827121688    -0.194949007603     
600000000.0         -0.056404089692     -0.229890549321     0.943532594092      -0.230632729234     0.943532594092      -0.230632729234     -0.056404089692     -0.229890549321     
700000000.0         -0.0752015853018    -0.262834806867     0.924734808121      -0.263700797018     0.924734808121      -0.263700797018     -0.0752015853018    -0.262834806867     
800000000.0         -0.0959727296444    -0.293602810694     0.903963370429      -0.294592654813     0.903963370429      -0.294592654813     -0.0959727296444    -0.293602810694     
900000000.0         -0.118405366764     -0.322068431041     0.881530434273      -0.323182176313     0.881530434273      -0.323182176313     -0.118405366764     -0.322068431041     
1000000000.0        -0.142187559147     -0.348156294268     0.857747935218      -0.349393991105     0.857747935218      -0.349393991105     -0.142187559147     -0.348156294268     
1100000000.0        -0.167016164338     -0.371837878095     0.832919014259      -0.373199579941     0.832919014259      -0.373199579941     -0.167016164338     -0.371837878095     
1200000000.0        -0.192603814387     -0.393126295843     0.807331038215      -0.394612059004     0.807331038215      -0.394612059004     -0.192603814387     -0.393126295843     
1300000000.0        -0.218684195319     -0.412070279294     0.781250320169      -0.413680162779     0.781250320169      -0.413680162779     -0.218684195319     -0.412070279294     
1400000000.0        -0.245015663285     -0.42874782354      0.754918503249      -0.430481888921     0.754918503249      -0.430481888921     -0.245015663285     -0.42874782354      
1500000000.0        -0.271383338517     -0.443259881331     0.728550466627      -0.445118192611     0.728550466627      -0.445118192611     -0.271383338517     -0.443259881331     
1600000000.0        -0.297599885623     -0.455724404417     0.702333545202      -0.45770702791      0.702333545202      -0.45770702791      -0.297599885623     -0.455724404417     
1700000000.0        -0.323505222296     -0.466270938198     0.67642782086       -0.468377942413     0.67642782086       -0.468377942413     -0.323505222296     -0.466270938198     
1800000000.0        -0.348965404583     -0.475035892711     0.650967237197      -0.477267348253     0.650967237197      -0.477267348253     -0.348965404583     -0.475035892711     
1900000000.0        -0.373870922687     -0.482158543145     0.626061303696      -0.484514522613     0.626061303696      -0.484514522613     -0.373870922687     -0.482158543145     
2000000000.0        -0.39813461439      -0.487777758837     0.601797182303      -0.490258336731     0.601797182303      -0.490258336731     -0.39813461439      -0.487777758837     
2100000000.0        -0.421689369632     -0.492029420978     0.578241982839      -0.494634673611     0.578241982839      -0.494634673611     -0.421689369632     -0.492029420978     
2200000000.0        -0.444485764518     -0.495044464437     0.555445128984      -0.497774469856     0.555445128984      -0.497774469856     -0.444485764518     -0.495044464437     
2300000000.0        -0.466489729375     -0.496947465616     0.533440690218      -0.49980230352      0.533440690218      -0.49980230352      -0.466489729375     -0.496947465616     
2400000000.0        -0.487680325455     -0.497855693598     0.512249605115      -0.500835445262     0.512249605115      -0.500835445262     -0.487680325455     -0.497855693598     
2500000000.0        -0.508047679523     -0.4978785434       0.491881746753      -0.500983291608     0.491881746753      -0.500983291608     -0.508047679523     -0.4978785434       
2600000000.0        -0.527591105123     -0.497117275795     0.472337801442      -0.500347104771     0.472337801442      -0.500347104771     -0.527591105123     -0.497117275795     
2700000000.0        -0.54631742353      -0.495664996185     0.453610947773      -0.49901999153      0.453610947773      -0.49901999153      -0.54631742353      -0.495664996185     
2800000000.0        -0.564239485746     -0.493606814046     0.435688334621      -0.497087062672     0.435688334621      -0.497087062672     -0.564239485746     -0.493606814046     
2900000000.0        -0.581374888749     -0.491020133688     0.418552364891      -0.494625723767     0.418552364891      -0.494625723767     -0.581374888749     -0.491020133688     
3000000000.0        -0.597744873854     -0.487975035831     0.402181797161      -0.491706056733     0.402181797161      -0.491706056733     -0.597744873854     -0.487975035831     
3100000000.0        -0.613373391894     -0.484534717404     0.386552680497      -0.488391259647     0.386552680497      -0.488391259647     -0.613373391894     -0.484534717404     
3200000000.0        -0.628286318404     -0.48075596398      0.371639139265      -0.484738119178     0.371639139265      -0.484738119178     -0.628286318404     -0.48075596398      
3300000000.0        -0.642510801665     -0.476689635174     0.357414025096      -0.48079749599      0.357414025096      -0.48079749599      -0.642510801665     -0.476689635174     
3400000000.0        -0.656074726881     -0.4723811483       0.343849452697      -0.476614808397     0.343849452697      -0.476614808397     -0.656074726881     -0.4723811483       
3500000000.0        -0.669006280796     -0.467870949607     0.330917235241      -0.472230503606     0.330917235241      -0.472230503606     -0.669006280796     -0.467870949607     
3600000000.0        -0.681333602297     -0.46319496567      0.318589233762      -0.467680509108     0.318589233762      -0.467680509108     -0.681333602297     -0.46319496567      
3700000000.0        -0.693084505986     -0.458385030072     0.306837633583      -0.462996659358     0.306837633583      -0.462996659358     -0.693084505986     -0.458385030072     
3800000000.0        -0.704286267182     -0.453469282441     0.295635159307      -0.458207094823     0.295635159307      -0.458207094823     -0.704286267182     -0.453469282441     
3900000000.0        -0.714965458233     -0.448472538457     0.284955238519      -0.453336631981     0.284955238519      -0.453336631981     -0.714965458233     -0.448472538457     
4000000000.0        -0.72514782734      -0.443416630503     0.274772122945      -0.44840710398      0.274772122945      -0.44840710398      -0.72514782734      -0.443416630503     
4100000000.0        -0.734858212378     -0.438320719457     0.265060974645      -0.443437672427     0.265060974645      -0.443437672427     -0.734858212378     -0.438320719457     
4200000000.0        -0.744120483247     -0.433201578667     0.255797923653      -0.438445111371     0.255797923653      -0.438445111371     -0.744120483247     -0.433201578667     
4300000000.0        -0.752957507331     -0.428073851533     0.246960102521      -0.433444064879     0.246960102521      -0.433444064879     -0.752957507331     -0.428073851533     
4400000000.0        -0.761391133468     -0.422950284317     0.238525662348      -0.428447279852     0.238525662348      -0.428447279852     -0.761391133468     -0.422950284317     
4500000000.0        -0.769442190596     -0.417841935959     0.230473774136      -0.423465815842     0.230473774136      -0.423465815842     -0.769442190596     -0.417841935959     
4600000000.0        -0.777130497889     -0.412758366675     0.222784618648      -0.418509233651     0.222784618648      -0.418509233651     -0.777130497889     -0.412758366675     
4700000000.0        -0.784474883748     -0.407707807131     0.215439367429      -0.413585764505     0.215439367429      -0.413585764505     -0.784474883748     -0.407707807131     
4800000000.0        -0.791493211465     -0.402697309906     0.208420157123      -0.408702461521     0.208420157123      -0.408702461521     -0.791493211465     -0.402697309906     
4900000000.0        -0.798202409808     -0.397732884887     0.20171005891       -0.403865335098     0.20171005891       -0.403865335098     -0.798202409808     -0.397732884887     
5000000000.0        -0.804618507057     -0.392819620126     0.19529304445       -0.399079473782     0.19529304445       -0.399079473782     -0.804618507057     -0.392819620126     
5100000000.0        -0.810756667351     -0.387961789611     0.18915394955       -0.394349152033     0.18915394955       -0.394349152033     -0.810756667351     -0.387961789611     
5200000000.0        -0.816631228403     -0.38316294925      0.183278436443      -0.389677926213     0.183278436443      -0.389677926213     -0.816631228403     -0.38316294925      
5300000000.0        -0.82225573983      -0.378426022294     0.177652955455      -0.385068720007     0.177652955455      -0.385068720007     -0.82225573983      -0.378426022294     
5400000000.0        -0.827643001547     -0.373753375299     0.172264706619      -0.380523900391     0.172264706619      -0.380523900391     -0.827643001547     -0.373753375299     
5500000000.0        -0.832805101734     -0.369146885623     0.167101601701      -0.376045345122     0.167101601701      -0.376045345122     -0.832805101734     -0.369146885623     
5600000000.0        -0.837753454061     -0.364608001365     0.162152226979      -0.371634502688     0.162152226979      -0.371634502688     -0.837753454061     -0.364608001365     
5700000000.0        -0.842498833895     -0.360137794577     0.157405807033      -0.367292445511     0.157405807033      -0.367292445511     -0.842498833895     -0.360137794577     
5800000000.0        -0.84705141331      -0.35573700845      0.152852169737      -0.363019917142     0.152852169737      -0.363019917142     -0.84705141331      -0.35573700845      
5900000000.0        -0.851420794759     -0.351406099166     0.148481712586      -0.358817374109     0.148481712586      -0.358817374109     -0.851420794759     -0.351406099166     
6000000000.0        -0.855616043336     -0.347145272982     0.144285370435      -0.354685023003     0.144285370435      -0.354685023003     -0.855616043336     -0.347145272982     
6100000000.0        -0.859645717567     -0.342954519083     0.140254584707      -0.350622853331     0.140254584707      -0.350622853331     -0.859645717567     -0.342954519083     
6200000000.0        -0.863517898713     -0.338833638663     0.136381274088      -0.346630666601     0.136381274088      -0.346630666601     -0.863517898713     -0.338833638663     
6300000000.0        -0.867240218593     -0.334782270668     0.13265780671       -0.342708102061     0.13265780671       -0.342708102061     -0.867240218593     -0.334782270668     
6400000000.0        -0.870819885937     -0.330799914563     0.129076973794      -0.338854659469     0.129076973794      -0.338854659469     -0.870819885937     -0.330799914563     
6500000000.0        -0.874263711303     -0.326885950453     0.125631964729      -0.335069719219     0.125631964729      -0.335069719219     -0.874263711303     -0.326885950453     
6600000000.0        -0.877578130611     -0.323039656869     0.122316343546      -0.331352560117     0.122316343546      -0.331352560117     -0.877578130611     -0.323039656869     
6700000000.0        -0.880769227326     -0.319260226456     0.11912402673       -0.327702375082     0.11912402673       -0.327702375082     -0.880769227326     -0.319260226456     
6800000000.0        -0.883842753358     -0.315546779832     0.116049262321      -0.324118284993     0.116049262321      -0.324118284993     -0.883842753358     -0.315546779832     
6900000000.0        -0.886804148725     -0.311898377783     0.11308661025       -0.320599350898     0.11308661025       -0.320599350898     -0.886804148725     -0.311898377783     
7000000000.0        -0.889658560049     -0.30831403202      0.110230923848      -0.317144584762     0.110230923848      -0.317144584762     -0.889658560049     -0.30831403202      
7100000000.0        -0.892410857928     -0.304792714634     0.107477332465      -0.313752958923     0.107477332465      -0.313752958923     -0.892410857928     -0.304792714634     
7200000000.0        -0.895065653264     -0.301333366404     0.10482122515       -0.310423414405     0.10482122515       -0.310423414405     -0.895065653264     -0.301333366404     
7300000000.0        -0.89762731258      -0.297934904087     0.10225823533       -0.307154868207     0.10225823533       -0.307154868207     -0.89762731258      -0.297934904087     
7400000000.0        -0.900099972407     -0.29459622681      0.0997842264254     -0.303946219692     0.0997842264254     -0.303946219692     -0.900099972407     -0.29459622681      
7500000000.0        -0.902487552775     -0.291316221651     0.0973952783566     -0.300796356174     0.0973952783566     -0.300796356174     -0.902487552775     -0.291316221651     
7600000000.0        -0.904793769869     -0.28809376852      0.0950876748872     -0.297704157796     0.0950876748872     -0.297704157796     -0.904793769869     -0.28809376852      
7700000000.0        -0.907022147909     -0.284927744406     0.0928578917493     -0.294668501775     0.0928578917493     -0.294668501775     -0.907022147909     -0.284927744406     
7800000000.0        -0.909176030282     -0.281817027059     0.0907025855063     -0.291688266093     0.0907025855063     -0.291688266093     -0.909176030282     -0.281817027059     
7900000000.0        -0.911258589987     -0.278760498192     0.0886185831089     -0.288762332688     0.0886185831089     -0.288762332688     -0.911258589987     -0.278760498192     
8000000000.0        -0.913272839434     -0.275757046229     0.0866028720974     -0.285889590213     0.0866028720974     -0.285889590213     -0.913272839434     -0.275757046229     
8100000000.0        -0.915221639632     -0.272805568676     0.0846525914134     -0.283068936399     0.0846525914134     -0.283068936399     -0.915221639632     -0.272805568676     
8200000000.0        -0.917107708809     -0.269904974144     0.0827650227795     -0.280299280085     0.0827650227795     -0.280299280085     -0.917107708809     -0.269904974144     
8300000000.0        -0.918933630496     -0.267054184069     0.0809375826126     -0.277579542932     0.0809375826126     -0.277579542932     -0.918933630496     -0.267054184069     
8400000000.0        -0.920701861123     -0.264252134164     0.0791678144354     -0.27490866088      0.0791678144354     -0.27490866088      -0.920701861123     -0.264252134164     
8500000000.0        -0.922414737131     -0.261497775631     0.0774533817553     -0.27228558536      0.0774533817553     -0.27228558536      -0.922414737131     -0.261497775631     
8600000000.0        -0.924074481662     -0.258790076169     0.0757920613797     -0.269709284299     0.0757920613797     -0.269709284299     -0.924074481662     -0.258790076169     
8700000000.0        -0.925683210835     -0.256128020793     0.0741817371405     -0.267178742944     0.0741817371405     -0.267178742944     -0.925683210835     -0.256128020793     
8800000000.0        -0.927242939636     -0.253510612493     0.0726203939998     -0.264692964515     0.0726203939998     -0.264692964515     -0.927242939636     -0.253510612493     
8900000000.0        -0.928755587458     -0.250936872748     0.0711061125148     -0.262250970727     0.0711061125148     -0.262250970727     -0.928755587458     -0.250936872748     
9000000000.0        -0.9302229833       -0.248405841917     0.0696370636361     -0.259851802173     0.0696370636361     -0.259851802173     -0.9302229833       -0.248405841917     
9100000000.0        -0.931646870655     -0.245916579516     0.0682115038194     -0.257494518609     0.0682115038194     -0.257494518609     -0.931646870655     -0.245916579516     
9200000000.0        -0.933028912105     -0.243468164405     0.0668277704306     -0.255178199135     0.0668277704306     -0.255178199135     -0.933028912105     -0.243468164405     
9300000000.0        -0.934370693646     -0.241059694883     0.0654842774241     -0.252901942294     0.0654842774241     -0.252901942294     -0.934370693646     -0.241059694883     
9400000000.0        -0.935673728747     -0.238690288716     0.0641795112783     -0.2506648661       0.0641795112783     -0.2506648661       -0.935673728747     -0.238690288716     
9500000000.0        -0.936939462179     -0.2363590831       0.0629120271712     -0.248466107998     0.0629120271712     -0.248466107998     -0.936939462179     -0.2363590831       
9600000000.0        -0.938169273612     -0.234065234567     0.0616804453806     -0.246304824774     0.0616804453806     -0.246304824774     -0.938169273612     -0.234065234567     
9700000000.0        -0.939364481006     -0.231807918842     0.0604834478946     -0.24418019241      0.0604834478946     -0.24418019241      -0.939364481006     -0.231807918842     
9800000000.0        -0.940526343803     -0.229586330668     0.0593197752201     -0.242091405908     0.0593197752201     -0.242091405908     -0.940526343803     -0.229586330668     
9900000000.0        -0.94165606593      -0.227399683585     0.0581882233752     -0.240037679074     0.0581882233752     -0.240037679074     -0.94165606593      -0.227399683585     
10000000000.0       -0.942754798641     -0.225247209684     0.0570876410548     -0.238018244268     0.0570876410548     -0.238018244268     -0.942754798641     -0.225247209684     
