# Hz S RI R 50.00 
100000000.0         0.00588967433117    0.00104171986109    0.994108787556      -0.00150534182877   0.994108787556      -0.00150534182877   0.00588967433117    0.00104171986109    
200000000.0         0.00593300655552    0.00208323331263    0.994064701832      -0.00301048212701   0.994064701832      -0.00301048212701   0.00593300655552    0.00208323331263    
300000000.0         0.00596907416279    0.00312461087687    0.994027665319      -0.00451549418698   0.994027665319      -0.00451549418698   0.00596907416279    0.00312461087687    
400000000.0         0.00600297721778    0.00416587034688    0.993992577929      -0.00602039796401   0.993992577929      -0.00602039796401   0.00600297721778    0.00416587034688    
500000000.0         0.0060366823703     0.00520701718146    0.993957472991      -0.00752520077196   0.993957472991      -0.00752520077196   0.0060366823703     0.00520701718146    
600000000.0         0.00607119376398    0.0062480513572     0.993921346333      -0.00902990424107   0.993921346333      -0.00902990424107   0.00607119376398    0.0062480513572     
700000000.0         0.00610710519544    0.00728896983724    0.993883604131      -0.0105345068406    0.993883604131      -0.0105345068406    0.00610710519544    0.00728896983724    
800000000.0         0.0061448017313     0.00832976771953    0.993843861287      -0.0120390050593    0.993843861287      -0.0120390050593    0.0061448017313     0.00832976771953    
900000000.0         0.00618454951935    0.00937043885511    0.99380185162       -0.0135433940453    0.99380185162       -0.0135433940453    0.00618454951935    0.00937043885511    
1000000000.0        0.00622654133212    0.0104109762151     0.993757382324      -0.0150476679876    0.993757382324      -0.0150476679876    0.00622654133212    0.0104109762151     
1100000000.0        0.00627092189493    0.011451372124      0.993710308636      -0.016551820361     0.993710308636      -0.016551820361     0.00627092189493    0.011451372124      
1200000000.0        0.00631780298472    0.0124916184167     0.993660518741      -0.0180558440912    0.993660518741      -0.0180558440912    0.00631780298472    0.0124916184167     
1300000000.0        0.00636727293332    0.013531706548      0.993607924267      -0.0195597316711    0.993607924267      -0.0195597316711    0.00636727293332    0.013531706548      
1400000000.0        0.00641940287663    0.0145716276716     0.993552454037      -0.0210634752452    0.993552454037      -0.0210634752452    0.00641940287663    0.0145716276716     
1500000000.0        0.00647425101465    0.0156113726995     0.993494049806      -0.0225670666736    0.993494049806      -0.0225670666736    0.00647425101465    0.0156113726995     
1600000000.0        0.00653186560463    0.0166509323467     0.993432663273      -0.0240704975797    0.993432663273      -0.0240704975797    0.00653186560463    0.0166509323467     
1700000000.0        0.00659228711901    0.0176902971658     0.993368253919      -0.0255737593891    0.993368253919      -0.0255737593891    0.00659228711901    0.0176902971658     
1800000000.0        0.006655549836      0.0187294575751     0.993300787418      -0.0270768433591    0.993300787418      -0.0270768433591    0.006655549836      0.0187294575751     
1900000000.0        0.00672168303488    0.01976840388       0.993230234441      -0.0285797406033    0.993230234441      -0.0285797406033    0.00672168303488    0.01976840388       
2000000000.0        0.00679071190963    0.0208071262917     0.993156569744      -0.0300824421119    0.993156569744      -0.0300824421119    0.00679071190963    0.0208071262917     
2100000000.0        0.00686265827787    0.0218456149411     0.993079771457      -0.0315849387677    0.993079771457      -0.0315849387677    0.00686265827787    0.0218456149411     
2200000000.0        0.00693754113838    0.0228838598918     0.992999820529      -0.0330872213602    0.992999820529      -0.0330872213602    0.00693754113838    0.0228838598918     
2300000000.0        0.00701537711492    0.0239218511497     0.992916700282      -0.0345892805972    0.992916700282      -0.0345892805972    0.00701537711492    0.0239218511497     
2400000000.0        0.00709618081331    0.0249595786725     0.992830396055      -0.0360911071149    0.992830396055      -0.0360911071149    0.00709618081331    0.0249595786725     
2500000000.0        0.00717996511173    0.0259970323761     0.992740894912      -0.0375926914862    0.992740894912      -0.0375926914862    0.00717996511173    0.0259970323761     
2600000000.0        0.00726674139867    0.0270342021418     0.992648185408      -0.0390940242282    0.992648185408      -0.0390940242282    0.00726674139867    0.0270342021418     
2700000000.0        0.00735651976982    0.0280710778215     0.992552257389      -0.0405950958088    0.992552257389      -0.0405950958088    0.00735651976982    0.0280710778215     
2800000000.0        0.007449309192      0.0291076492421     0.992453101827      -0.042095896652     0.992453101827      -0.042095896652     0.007449309192      0.0291076492421     
2900000000.0        0.00754511764074    0.0301439062103     0.992350710688      -0.0435964171432    0.992350710688      -0.0435964171432    0.00754511764074    0.0301439062103     
3000000000.0        0.00764395221656    0.031179838516      0.992245076808      -0.0450966476332    0.992245076808      -0.0450966476332    0.00764395221656    0.031179838516      
3100000000.0        0.0077458192436     0.0322154359352     0.992136193802      -0.0465965784426    0.992136193802      -0.0465965784426    0.0077458192436     0.0322154359352     
3200000000.0        0.00785072435401    0.0332506882335     0.992024055973      -0.0480961998649    0.992024055973      -0.0480961998649    0.00785072435401    0.0332506882335     
3300000000.0        0.00795867256039    0.0342855851682     0.991908658245      -0.0495955021699    0.991908658245      -0.0495955021699    0.00795867256039    0.0342855851682     
3400000000.0        0.0080696683183     0.0353201164908     0.991789996097      -0.0510944756063    0.991789996097      -0.0510944756063    0.0080696683183     0.0353201164908     
3500000000.0        0.0081837155805     0.0363542719488     0.991668065511      -0.0525931104043    0.991668065511      -0.0525931104043    0.0081837155805     0.0363542719488     
3600000000.0        0.00830081784413    0.0373880412878     0.991542862922      -0.0540913967783    0.991542862922      -0.0540913967783    0.00830081784413    0.0373880412878     
3700000000.0        0.008420978192      0.0384214142534     0.99141438518       -0.0555893249285    0.99141438518       -0.0555893249285    0.008420978192      0.0384214142534     
3800000000.0        0.00854419932883    0.0394543805919     0.991282629512      -0.057086885043     0.991282629512      -0.057086885043     0.00854419932883    0.0394543805919     
3900000000.0        0.00867048361315    0.0404869300527     0.991147593491      -0.0585840672998    0.991147593491      -0.0585840672998    0.00867048361315    0.0404869300527     
4000000000.0        0.0087998330855     0.0415190523887     0.991009275007      -0.0600808618682    0.991009275007      -0.0600808618682    0.0087998330855     0.0415190523887     
4100000000.0        0.00893224949349    0.0425507373581     0.990867672241      -0.0615772589105    0.990867672241      -0.0615772589105    0.00893224949349    0.0425507373581     
4200000000.0        0.00906773431402    0.0435819747251     0.990722783646      -0.063073248583     0.990722783646      -0.063073248583     0.00906773431402    0.0435819747251     
4300000000.0        0.00920628877316    0.0446127542608     0.990574607924      -0.0645688210378    0.990574607924      -0.0645688210378    0.00920628877316    0.0446127542608     
4400000000.0        0.0093479138639     0.0456430657446     0.990423144009      -0.0660639664237    0.990423144009      -0.0660639664237    0.0093479138639     0.0456430657446     
4500000000.0        0.00949261036211    0.0466728989644     0.990268391053      -0.0675586748874    0.990268391053      -0.0675586748874    0.00949261036211    0.0466728989644     
4600000000.0        0.00964037884085    0.0477022437178     0.99011034841       -0.0690529365745    0.99011034841       -0.0690529365745    0.00964037884085    0.0477022437178     
4700000000.0        0.00979121968334    0.0487310898128     0.989949015622      -0.0705467416306    0.989949015622      -0.0705467416306    0.00979121968334    0.0487310898128     
4800000000.0        0.0099451330946     0.0497594270682     0.989784392409      -0.0720400802019    0.989784392409      -0.0720400802019    0.0099451330946     0.0497594270682     
4900000000.0        0.0101021191121     0.0507872453145     0.989616478659      -0.0735329424367    0.989616478659      -0.0735329424367    0.0101021191121     0.0507872453145     
5000000000.0        0.0102621776152     0.0518145343943     0.989445274418      -0.0750253184853    0.989445274418      -0.0750253184853    0.0102621776152     0.0518145343943     
5100000000.0        0.0104253083341     0.052841284163      0.989270779877      -0.0765171985017    0.989270779877      -0.0765171985017    0.0104253083341     0.052841284163      
5200000000.0        0.0105915108579     0.0538674844892     0.989092995373      -0.0780085726437    0.989092995373      -0.0780085726437    0.0105915108579     0.0538674844892     
5300000000.0        0.0107607846413     0.0548931252553     0.988911921373      -0.0794994310736    0.988911921373      -0.0794994310736    0.0107607846413     0.0548931252553     
5400000000.0        0.010933129012      0.0559181963579     0.988727558472      -0.0809897639594    0.988727558472      -0.0809897639594    0.010933129012      0.0559181963579     
5500000000.0        0.0111085431764     0.0569426877081     0.988539907386      -0.0824795614747    0.988539907386      -0.0824795614747    0.0111085431764     0.0569426877081     
5600000000.0        0.0112870262251     0.0579665892322     0.988348968946      -0.0839688137999    0.988348968946      -0.0839688137999    0.0112870262251     0.0579665892322     
5700000000.0        0.0114685771385     0.0589898908717     0.988154744092      -0.0854575111222    0.988154744092      -0.0854575111222    0.0114685771385     0.0589898908717     
5800000000.0        0.0116531947911     0.0600125825842     0.987957233871      -0.0869456436366    0.987957233871      -0.0869456436366    0.0116531947911     0.0600125825842     
5900000000.0        0.0118408779561     0.0610346543431     0.98775643943       -0.0884332015461    0.98775643943       -0.0884332015461    0.0118408779561     0.0610346543431     
6000000000.0        0.0120316253095     0.0620560961386     0.987552362014      -0.0899201750624    0.987552362014      -0.0899201750624    0.0120316253095     0.0620560961386     
6100000000.0        0.0122254354337     0.0630768979775     0.98734500296       -0.0914065544062    0.98734500296       -0.0914065544062    0.0122254354337     0.0630768979775     
6200000000.0        0.0124223068212     0.0640970498837     0.987134363694      -0.0928923298078    0.987134363694      -0.0928923298078    0.0124223068212     0.0640970498837     
6300000000.0        0.0126222378776     0.0651165418986     0.98692044573       -0.0943774915073    0.98692044573       -0.0943774915073    0.0126222378776     0.0651165418986     
6400000000.0        0.0128252269247     0.0661353640812     0.986703250666      -0.0958620297551    0.986703250666      -0.0958620297551    0.0128252269247     0.0661353640812     
6500000000.0        0.0130312722033     0.0671535065084     0.986482780179      -0.0973459348127    0.986482780179      -0.0973459348127    0.0130312722033     0.0671535065084     
6600000000.0        0.013240371876      0.0681709592755     0.986259036025      -0.0988291969523    0.986259036025      -0.0988291969523    0.013240371876      0.0681709592755     
6700000000.0        0.0134525240292     0.0691877124959     0.986032020034      -0.100311806458     0.986032020034      -0.100311806458     0.0134525240292     0.0691877124959     
6800000000.0        0.0136677266758     0.0702037563021     0.985801734113      -0.101793753625     0.985801734113      -0.101793753625     0.0136677266758     0.0702037563021     
6900000000.0        0.0138859777572     0.0712190808452     0.985568180238      -0.103275028761     0.985568180238      -0.103275028761     0.0138859777572     0.0712190808452     
7000000000.0        0.014107275145      0.0722336762955     0.985331360453      -0.104755622188     0.985331360453      -0.104755622188     0.014107275145      0.0722336762955     
7100000000.0        0.0143316166435     0.0732475328428     0.985091276872      -0.106235524237     0.985091276872      -0.106235524237     0.0143316166435     0.0732475328428     
7200000000.0        0.014558999991      0.0742606406962     0.984847931673      -0.107714725256     0.984847931673      -0.107714725256     0.014558999991      0.0742606406962     
7300000000.0        0.0147894228613     0.0752729900849     0.984601327099      -0.109193215604     0.984601327099      -0.109193215604     0.0147894228613     0.0752729900849     
7400000000.0        0.015022882866      0.0762845712578     0.984351465455      -0.110670985655     0.984351465455      -0.110670985655     0.015022882866      0.0762845712578     
7500000000.0        0.0152593775551     0.0772953744839     0.984098349107      -0.112148025796     0.984098349107      -0.112148025796     0.0152593775551     0.0772953744839     
7600000000.0        0.0154989044191     0.0783053900529     0.983841980481      -0.11362432643      0.983841980481      -0.11362432643      0.0154989044191     0.0783053900529     
7700000000.0        0.0157414608896     0.0793146082745     0.983582362061      -0.115099877971     0.983582362061      -0.115099877971     0.0157414608896     0.0793146082745     
7800000000.0        0.0159870443415     0.0803230194795     0.983319496388      -0.116574670853     0.983319496388      -0.116574670853     0.0159870443415     0.0803230194795     
7900000000.0        0.0162356520932     0.0813306140194     0.98305338606       -0.11804869552      0.98305338606       -0.11804869552      0.0162356520932     0.0813306140194     
8000000000.0        0.0164872814083     0.0823373822666     0.982784033728      -0.119521942435     0.982784033728      -0.119521942435     0.0164872814083     0.0823373822666     
8100000000.0        0.0167419294966     0.083343314615      0.982511442097      -0.120994402074     0.982511442097      -0.120994402074     0.0167419294966     0.083343314615      
8200000000.0        0.0169995935148     0.0843484014793     0.982235613928      -0.12246606493      0.982235613928      -0.12246606493      0.0169995935148     0.0843484014793     
8300000000.0        0.0172602705678     0.0853526332964     0.98195655203       -0.123936921513     0.98195655203       -0.123936921513     0.0172602705678     0.0853526332964     
8400000000.0        0.0175239577095     0.0863560005241     0.981674259263      -0.125406962348     0.981674259263      -0.125406962348     0.0175239577095     0.0863560005241     
8500000000.0        0.0177906519436     0.0873584936426     0.981388738541      -0.126876177975     0.981388738541      -0.126876177975     0.0177906519436     0.0873584936426     
8600000000.0        0.0180603502246     0.0883601031537     0.981099992823      -0.128344558953     0.981099992823      -0.128344558953     0.0180603502246     0.0883601031537     
8700000000.0        0.0183330494583     0.0893608195813     0.980808025118      -0.129812095857     0.980808025118      -0.129812095857     0.0183330494583     0.0893608195813     
8800000000.0        0.0186087465029     0.0903606334716     0.980512838483      -0.13127877928      0.980512838483      -0.13127877928      0.0186087465029     0.0903606334716     
8900000000.0        0.0188874381694     0.0913595353931     0.980214436023      -0.13274459983      0.980214436023      -0.13274459983      0.0188874381694     0.0913595353931     
9000000000.0        0.0191691212225     0.0923575159367     0.979912820886      -0.134209548135     0.979912820886      -0.134209548135     0.0191691212225     0.0923575159367     
9100000000.0        0.0194537923814     0.0933545657161     0.97960799627       -0.135673614839     0.97960799627       -0.135673614839     0.0194537923814     0.0933545657161     
9200000000.0        0.0197414483201     0.0943506753676     0.979299965414      -0.137136790604     0.979299965414      -0.137136790604     0.0197414483201     0.0943506753676     
9300000000.0        0.020032085668      0.0953458355503     0.978988731605      -0.138599066111     0.978988731605      -0.138599066111     0.020032085668      0.0953458355503     
9400000000.0        0.0203257010111     0.0963400369464     0.978674298171      -0.140060432058     0.978674298171      -0.140060432058     0.0203257010111     0.0963400369464     
9500000000.0        0.0206222908917     0.0973332702611     0.978356668484      -0.141520879163     0.978356668484      -0.141520879163     0.0206222908917     0.0973332702611     
9600000000.0        0.0209218518097     0.098325526223      0.978035845961      -0.14298039816      0.978035845961      -0.14298039816      0.0209218518097     0.098325526223      
9700000000.0        0.0212243802225     0.0993167955839     0.977711834057      -0.144438979805     0.977711834057      -0.144438979805     0.0212243802225     0.0993167955839     
9800000000.0        0.0215298725461     0.100307069119      0.977384636273      -0.145896614869     0.977384636273      -0.145896614869     0.0215298725461     0.100307069119      
9900000000.0        0.0218383251552     0.101296337627      0.977054256148      -0.147353294146     0.977054256148      -0.147353294146     0.0218383251552     0.101296337627      
10000000000.0       0.0221497343837     0.102284591931      0.976720697264      -0.148809008446     0.976720697264      -0.148809008446     0.0221497343837     0.102284591931      
