# Hz S RI R 50.00 
100000000.0         -0.00106253811218   -0.0324327768922    0.998884043816      -0.0325353634251    0.998884043816      -0.0325353634251    -0.00106253811218   -0.0324327768922    
200000000.0         -0.00424995963273   -0.0646551642728    0.995696241733      -0.0648603473453    0.995696241733      -0.0648603473453    -0.00424995963273   -0.0646551642728    
300000000.0         -0.00949579490474   -0.096465953677     0.990450107229      -0.0967737486605    0.990450107229      -0.0967737486605    -0.00949579490474   -0.096465953677     
400000000.0         -0.0167344608962    -0.127672641123     0.983211177411      -0.128083067579     0.983211177411      -0.128083067579     -0.0167344608962    -0.127672641123     
500000000.0         -0.025877353203     -0.158095111164     0.974068039085      -0.158608192246     0.974068039085      -0.158608192246     -0.025877353203     -0.158095111164     
600000000.0         -0.0368154899222    -0.187568841346     0.96312966522       -0.188184603408     0.96312966522       -0.188184603408     -0.0368154899222    -0.187568841346     
700000000.0         -0.0494226446853    -0.215947487864     0.950522276929      -0.216665960165     0.950522276929      -0.216665960165     -0.0494226446853    -0.215947487864     
800000000.0         -0.0635588034328    -0.243104778417     0.936385884881      -0.243925992893     0.936385884881      -0.243925992893     -0.0635588034328    -0.243104778417     
900000000.0         -0.0790737784377    -0.268935685571     0.920870674471      -0.269859676637     0.920870674471      -0.269859676637     -0.0790737784377    -0.268935685571     
1000000000.0        -0.0958108205568    -0.293356896006     0.904133393156      -0.294383700397     0.904133393156      -0.294383700397     -0.0958108205568    -0.293356896006     
1100000000.0        -0.11361008769      -0.316306626793     0.886333881779      -0.317436283418     0.886333881779      -0.317436283418     -0.11361008769      -0.316306626793     
1200000000.0        -0.132311851642     -0.337743867501     0.86763186756       -0.338976417317     0.86763186756       -0.338976417317     -0.132311851642     -0.337743867501     
1300000000.0        -0.151759354053     -0.357647145594     0.848184108094      -0.35898263149      0.848184108094      -0.35898263149      -0.151759354053     -0.357647145594     
1400000000.0        -0.171801251864     -0.376012922272     0.82814194582       -0.377451388966     0.82814194582       -0.377451388966     -0.171801251864     -0.376012922272     
1500000000.0        -0.192293621418     -0.392853727372     0.807649303891      -0.394395221315     0.807649303891      -0.394395221315     -0.192293621418     -0.392853727372     
1600000000.0        -0.213101515804     -0.408196136681     0.786841128795      -0.409840705968     0.786841128795      -0.409840705968     -0.213101515804     -0.408196136681     
1700000000.0        -0.234100091243     -0.422078684657     0.765842263955      -0.423826378944     0.765842263955      -0.423826378944     -0.234100091243     -0.422078684657     
1800000000.0        -0.25517533447      -0.434549791926     0.744766722334      -0.436400662357     0.744766722334      -0.436400662357     -0.25517533447      -0.434549791926     
1900000000.0        -0.276224434297     -0.445665771667     0.723717314859      -0.447619870795     0.723717314859      -0.447619870795     -0.276224434297     -0.445665771667     
2000000000.0        -0.297155847057     -0.45548896345      0.70278558497       -0.457546345176     0.70278558497       -0.457546345176     -0.297155847057     -0.45548896345      
2100000000.0        -0.31788910824      -0.464086028427     0.682051996978      -0.46624674793      0.682051996978      -0.46624674793      -0.31788910824      -0.464086028427     
2200000000.0        -0.338354441943     -0.471526426585     0.661586326609      -0.473790540264     0.661586326609      -0.473790540264     -0.338354441943     -0.471526426585     
2300000000.0        -0.358492216802     -0.47788108559      0.641448205071      -0.480248651007     0.641448205071      -0.480248651007     -0.358492216802     -0.47788108559      
2400000000.0        -0.378252292424     -0.483221261707     0.621687772615      -0.485692337528     0.621687772615      -0.485692337528     -0.378252292424     -0.483221261707     
2500000000.0        -0.397593294816     -0.487617586321     0.602346403108      -0.49019223227      0.602346403108      -0.49019223227      -0.397593294816     -0.487617586321     
2600000000.0        -0.416481853375     -0.491139286615     0.583457467038      -0.493817563417     0.583457467038      -0.493817563417     -0.416481853375     -0.491139286615     
2700000000.0        -0.434891826119     -0.493853565625     0.56504710628       -0.496635534964     0.56504710628       -0.496635534964     -0.434891826119     -0.493853565625     
2800000000.0        -0.452803534288     -0.495825125071     0.547134999498      -0.498710849542     0.547134999498      -0.498710849542     -0.452803534288     -0.495825125071     
2900000000.0        -0.470203022406     -0.497115813584     0.529735102078      -0.500105356651     0.529735102078      -0.500105356651     -0.470203022406     -0.497115813584     
3000000000.0        -0.487081355503     -0.497784383078     0.512856348908      -0.50087780903      0.512856348908      -0.50087780903      -0.487081355503     -0.497784383078     
3100000000.0        -0.503433961438     -0.497886336771     0.496503312051      -0.501083710686     0.496503312051      -0.501083710686     -0.503433961438     -0.497886336771     
3200000000.0        -0.519260023186     -0.497473853502     0.480676808461      -0.500775241205     0.480676808461      -0.500775241205     -0.519260023186     -0.497473853502     
3300000000.0        -0.53456192346      -0.496595774395     0.465374455357      -0.500001242423     0.465374455357      -0.500001242423     -0.53456192346      -0.496595774395     
3400000000.0        -0.549344742114     -0.495297639464     0.45059117282       -0.498807255033     0.45059117282       -0.498807255033     -0.549344742114     -0.495297639464     
3500000000.0        -0.563615805303     -0.493621763298     0.436319634636      -0.497235594267     0.436319634636      -0.497235594267     -0.563615805303     -0.493621763298     
3600000000.0        -0.577384284319     -0.491607340464     0.422550669455      -0.495325455303     0.422550669455      -0.495325455303     -0.577384284319     -0.491607340464     
3700000000.0        -0.590660841307     -0.489290572698     0.409273615077      -0.493113040459     0.409273615077      -0.493113040459     -0.590660841307     -0.489290572698     
3800000000.0        -0.603457318592     -0.486704811251     0.396476629126      -0.490631701538     0.396476629126      -0.490631701538     -0.603457318592     -0.486704811251     
3900000000.0        -0.615786468105     -0.483880708899     0.384146959619      -0.487912091839     0.384146959619      -0.487912091839     -0.615786468105     -0.483880708899     
4000000000.0        -0.627661717326     -0.480846377191     0.372271179032      -0.484982323408     0.372271179032      -0.484982323408     -0.627661717326     -0.480846377191     
4100000000.0        -0.639096968157     -0.477627545361     0.360835385413      -0.48186812595      0.360835385413      -0.48186812595      -0.639096968157     -0.477627545361     
4200000000.0        -0.650106425313     -0.474247718125     0.349825374006      -0.478593004624     0.349825374006      -0.478593004624     -0.650106425313     -0.474247718125     
4300000000.0        -0.660704450935     -0.470728330205     0.339226782625      -0.475178394577     0.339226782625      -0.475178394577     -0.660704450935     -0.470728330205     
4400000000.0        -0.670905442404     -0.467088895989     0.329025213846      -0.471643810596     0.329025213846      -0.471643810596     -0.670905442404     -0.467088895989     
4500000000.0        -0.680723730532     -0.463347153153     0.31920633682       -0.468006990733     0.31920633682       -0.468006990733     -0.680723730532     -0.463347153153     
4600000000.0        -0.690173495554     -0.459519199457     0.309755971271      -0.464284033106     0.309755971271      -0.464284033106     -0.690173495554     -0.459519199457     
4700000000.0        -0.699268698625     -0.455619622215     0.300660156004      -0.460489525366     0.300660156004      -0.460489525366     -0.699268698625     -0.455619622215     
4800000000.0        -0.708023026714     -0.451661620172     0.291905204016      -0.456636666576     0.291905204016      -0.456636666576     -0.708023026714     -0.451661620172     
4900000000.0        -0.716449849036     -0.447657117706     0.283477746053      -0.452737381414     0.283477746053      -0.452737381414     -0.716449849036     -0.447657117706     
5000000000.0        -0.724562183386     -0.443616871413     0.275364764286      -0.448802426758     0.275364764286      -0.448802426758     -0.724562183386     -0.443616871413     
5100000000.0        -0.732372670905     -0.439550569248     0.267553617538      -0.444841490828     0.267553617538      -0.444841490828     -0.732372670905     -0.439550569248     
5200000000.0        -0.739893557997     -0.43546692246      0.26003205937       -0.440863285126     0.26003205937       -0.440863285126     -0.739893557997     -0.43546692246      
5300000000.0        -0.747136684297     -0.431373750635     0.252788250116      -0.436875629471     0.252788250116      -0.436875629471     -0.747136684297     -0.431373750635     
5400000000.0        -0.754113475684     -0.427278060174     0.24581076386       -0.432885530486     0.24581076386       -0.432885530486     -0.754113475684     -0.427278060174     
5500000000.0        -0.76083494153      -0.423186116574     0.239088591202      -0.428899253876     0.239088591202      -0.428899253876     -0.76083494153      -0.423186116574     
5600000000.0        -0.767311675418     -0.419103510889     0.232611138522      -0.424922390888     0.232611138522      -0.424922390888     -0.767311675418     -0.419103510889     
5700000000.0        -0.773553858736     -0.415035220736     0.226368224405      -0.420959919322     0.226368224405      -0.420959919322     -0.773553858736     -0.415035220736     
5800000000.0        -0.779571266566     -0.41098566623      0.220350073734      -0.417016259462     0.220350073734      -0.417016259462     -0.779571266566     -0.41098566623      
5900000000.0        -0.785373275446     -0.406958761192     0.214547309942      -0.413095325292     0.214547309942      -0.413095325292     -0.785373275446     -0.406958761192     
6000000000.0        -0.790968872578     -0.402957960004     0.208950945795      -0.409200571338     0.208950945795      -0.409200571338     -0.790968872578     -0.402957960004     
6100000000.0        -0.796366666173     -0.398986300408     0.203552373055      -0.405335035486     0.203552373055      -0.405335035486     -0.796366666173     -0.398986300408     
6200000000.0        -0.801574896624     -0.395046442605     0.198343351296      -0.401501378064     0.198343351296      -0.401501378064     -0.801574896624     -0.395046442605     
6300000000.0        -0.806601448299     -0.391140704912     0.193315996121      -0.39770191751      0.193315996121      -0.39770191751      -0.806601448299     -0.391140704912     
6400000000.0        -0.811453861726     -0.387271096282     0.188462766974      -0.39393866289      0.188462766974      -0.39393866289      -0.811453861726     -0.387271096282     
6500000000.0        -0.816139346025     -0.383439345941     0.183776454705      -0.390213343535     0.183776454705      -0.390213343535     -0.816139346025     -0.383439345941     
6600000000.0        -0.820664791433     -0.379646930372     0.179250169048      -0.386527436025     0.179250169048      -0.386527436025     -0.820664791433     -0.379646930372     
6700000000.0        -0.825036781828     -0.375895097888     0.174877326097      -0.382882188764     0.174877326097      -0.382882188764     -0.825036781828     -0.375895097888     
6800000000.0        -0.829261607135     -0.372184890986     0.170651635898      -0.379278644332     0.170651635898      -0.379278644332     -0.829261607135     -0.372184890986     
6900000000.0        -0.83334527556      -0.368517166682     0.166567090217      -0.375717659825     0.166567090217      -0.375717659825     -0.83334527556      -0.368517166682     
7000000000.0        -0.837293525589     -0.364892615003     0.16261795054       -0.372199925339     0.16261795054       -0.372199925339     -0.837293525589     -0.364892615003     
7100000000.0        -0.841111837696     -0.361311775787     0.158798736367      -0.368725980782     0.158798736367      -0.368725980782     -0.841111837696     -0.361311775787     
7200000000.0        -0.844805445729     -0.35777505396      0.155104213818      -0.365296231141     0.155104213818      -0.365296231141     -0.844805445729     -0.35777505396      
7300000000.0        -0.848379347962     -0.354282733399     0.151529384594      -0.361910960351     0.151529384594      -0.361910960351     -0.848379347962     -0.354282733399     
7400000000.0        -0.851838317765     -0.350834989531     0.148069475299      -0.358570343894     0.148069475299      -0.358570343894     -0.851838317765     -0.350834989531     
7500000000.0        -0.855186913904     -0.347431900769     0.144719927137      -0.355274460231     0.144719927137      -0.355274460231     -0.855186913904     -0.347431900769     
7600000000.0        -0.85842949046      -0.344073458884     0.141476386001      -0.35202330118      0.141476386001      -0.35202330118      -0.85842949046      -0.344073458884     
7700000000.0        -0.86157020635      -0.34075957842      0.138334692946      -0.348816781329     0.138334692946      -0.348816781329     -0.86157020635      -0.34075957842      
7800000000.0        -0.864613034467     -0.337490105236     0.135290875052      -0.345654746577     0.135290875052      -0.345654746577     -0.864613034467     -0.337490105236     
7900000000.0        -0.867561770437     -0.334264824242     0.132341136668      -0.342536981872     0.132341136668      -0.342536981872     -0.867561770437     -0.334264824242     
8000000000.0        -0.870420040992     -0.331083466419     0.129481851034      -0.339463218232     0.129481851034      -0.339463218232     -0.870420040992     -0.331083466419     
8100000000.0        -0.873191311978     -0.327945715176     0.126709552275      -0.336433139097     0.126709552275      -0.336433139097     -0.873191311978     -0.327945715176     
8200000000.0        -0.875878896004     -0.324851212102     0.124020927758      -0.333446386091     0.124020927758      -0.333446386091     -0.875878896004     -0.324851212102     
8300000000.0        -0.878485959734     -0.321799562185     0.121412810793      -0.330502564232     0.121412810793      -0.330502564232     -0.878485959734     -0.321799562185     
8400000000.0        -0.881015530842     -0.318790338523     0.118882173677      -0.327601246647     0.118882173677      -0.327601246647     -0.881015530842     -0.318790338523     
8500000000.0        -0.883470504644     -0.315823086591     0.116426121067      -0.324741978839     0.116426121067      -0.324741978839     -0.883470504644     -0.315823086591     
8600000000.0        -0.88585365041      -0.312897328095     0.114041883668      -0.321924282542     0.114041883668      -0.321924282542     -0.88585365041      -0.312897328095     
8700000000.0        -0.88816761737      -0.310012564454     0.111726812224      -0.319147659203     0.111726812224      -0.319147659203     -0.88816761737      -0.310012564454     
8800000000.0        -0.890414940433     -0.307168279945     0.109478371797      -0.316411593125     0.109478371797      -0.316411593125     -0.890414940433     -0.307168279945     
8900000000.0        -0.892598045628     -0.304363944537     0.107294136334      -0.313715554305     0.107294136334      -0.313715554305     -0.892598045628     -0.304363944537     
9000000000.0        -0.894719255274     -0.301599016448     0.105171783488      -0.311059000987     0.105171783488      -0.311059000987     -0.894719255274     -0.301599016448     
9100000000.0        -0.896780792898     -0.298872944446     0.103109089706      -0.308441381966     0.103109089706      -0.308441381966     -0.896780792898     -0.298872944446     
9200000000.0        -0.898784787908     -0.29618516992      0.101103925555      -0.305862138658     0.101103925555      -0.305862138658     -0.898784787908     -0.29618516992      
9300000000.0        -0.900733280034     -0.293535128739     0.0991542512755     -0.303320706962     0.0991542512755     -0.303320706962     -0.900733280034     -0.293535128739     
9400000000.0        -0.902628223553     -0.290922252924     0.0972581125671     -0.300816518925     0.0972581125671     -0.300816518925     -0.902628223553     -0.290922252924     
9500000000.0        -0.904471491292     -0.288345972139     0.0954136365735     -0.298349004244     0.0954136365735     -0.298349004244     -0.904471491292     -0.288345972139     
9600000000.0        -0.906264878447     -0.285805715038     0.093619028074      -0.295917591601     0.093619028074      -0.295917591601     -0.906264878447     -0.285805715038     
9700000000.0        -0.908010106197     -0.283300910453     0.0918725658628     -0.293521709862     0.0918725658628     -0.293521709862     -0.908010106197     -0.283300910453     
9800000000.0        -0.909708825144     -0.280830988466     0.0901725993105     -0.291160789142     0.0901725993105     -0.291160789142     -0.909708825144     -0.280830988466     
9900000000.0        -0.911362618584     -0.278395381354     0.088517545096      -0.288834261752     0.088517545096      -0.288834261752     -0.911362618584     -0.278395381354     
10000000000.0       -0.912973005606     -0.275993524432     0.0869058841023     -0.286541563044     0.0869058841023     -0.286541563044     -0.912973005606     -0.275993524432     
