# Hz S RI R 50.00 
100000000.0         0.00244209310864    0.000646799962719   0.997543296186      -0.00499666315236   0.997543296186      -0.00499666315236   0.00244209310864    0.000646799962719   
200000000.0         0.00246609388165    0.00129334462589    0.997486746569      -0.00999309372847   0.997486746569      -0.00999309372847   0.00246609388165    0.00129334462589    
300000000.0         0.00249231592052    0.00193962982392    0.997409035213      -0.0149892829667    0.997409035213      -0.0149892829667    0.00249231592052    0.00193962982392    
400000000.0         0.00252286926011    0.00258560667438    0.997308049096      -0.0199851617961    0.997308049096      -0.0199851617961    0.00252286926011    0.00258560667438    
500000000.0         0.00255856372299    0.00323121696369    0.997182974889      -0.0249806438217    0.997182974889      -0.0249806438217    0.00255856372299    0.00323121696369    
600000000.0         0.0025998098328     0.00387639882881    0.997033398133      -0.0299756336886    0.997033398133      -0.0299756336886    0.00259980983281    0.00387639882881    
700000000.0         0.00264684773431    0.00452108870928    0.996859074386      -0.034970030408     0.996859074386      -0.034970030408     0.00264684773431    0.00452108870928    
800000000.0         0.00269983070792    0.00516522221122    0.996659845758      -0.0399637290471    0.996659845758      -0.0399637290471    0.00269983070792    0.00516522221122    
900000000.0         0.00275886234103    0.00580873454861    0.996435603786      -0.0449566217168    0.996435603786      -0.0449566217168    0.00275886234103    0.00580873454861    
1000000000.0        0.00282401536368    0.00645156079088    0.996186270631      -0.0499485982062    0.996186270631      -0.0499485982062    0.00282401536368    0.00645156079088    
1100000000.0        0.00289534211654    0.0070936360111     0.995911788645      -0.0549395464163    0.995911788645      -0.0549395464163    0.00289534211654    0.0070936360111     
1200000000.0        0.0029728807879     0.00773489537935    0.995612114158      -0.0599293526734    0.995612114158      -0.0599293526734    0.0029728807879     0.00773489537935    
1300000000.0        0.0030566593376     0.00837527422354    0.995287213581      -0.0649179019633    0.995287213581      -0.0649179019633    0.0030566593376     0.00837527422354    
1400000000.0        0.0031466980768     0.00901470807038    0.994937060846      -0.0699050781129    0.994937060846      -0.0699050781129    0.0031466980768     0.00901470807038    
1500000000.0        0.00324301142656    0.00965313267348    0.994561635671      -0.0748907639341    0.994561635671      -0.0748907639341    0.00324301142656    0.00965313267348    
1600000000.0        0.00334560915377    0.0102904840331     0.994160922339      -0.0798748413402    0.994160922339      -0.0798748413402    0.00334560915377    0.0102904840331     
1700000000.0        0.00345449726264    0.0109266984104     0.993734908826      -0.0848571914428    0.993734908826      -0.0848571914428    0.00345449726264    0.0109266984104     
1800000000.0        0.00356967865244    0.0115617123371     0.993283586159      -0.0898376946327    0.993283586159      -0.0898376946327    0.00356967865244    0.0115617123371     
1900000000.0        0.00369115361245    0.0121954626235     0.992806947932      -0.0948162306485    0.992806947932      -0.0948162306485    0.00369115361245    0.0121954626235     
2000000000.0        0.00381892020087    0.0128278863635     0.992304989946      -0.0997926786367    0.992304989946      -0.0997926786367    0.00381892020087    0.0128278863635     
2100000000.0        0.00395297453959    0.0134589209389     0.991777709926      -0.104766917203     0.991777709926      -0.104766917203     0.00395297453959    0.0134589209389     
2200000000.0        0.00409331104661    0.0140885040227     0.991225107298      -0.109738824458     0.991225107298      -0.109738824458     0.00409331104661    0.0140885040227     
2300000000.0        0.00423992262173    0.0147165735812     0.990647183017      -0.114708278059     0.990647183017      -0.114708278059     0.00423992262173    0.0147165735812     
2400000000.0        0.00439280079662    0.015343067876      0.990043939427      -0.119675155244     0.990043939427      -0.119675155244     0.00439280079662    0.015343067876      
2500000000.0        0.00455193585736    0.0159679254658     0.989415380151      -0.124639332866     0.989415380151      -0.124639332866     0.00455193585736    0.0159679254658     
2600000000.0        0.00471731694556    0.0165910852073     0.988761509997      -0.129600687421     0.988761509997      -0.129600687421     0.00471731694556    0.0165910852073     
2700000000.0        0.00488893214253    0.0172124862566     0.988082334884      -0.134559095079     0.988082334884      -0.134559095079     0.00488893214253    0.0172124862566     
2800000000.0        0.00506676853994    0.01783206807       0.98737786178       -0.139514431704     0.98737786178       -0.139514431704     0.00506676853994    0.01783206807       
2900000000.0        0.00525081229969    0.0184497704053     0.986648098653      -0.144466572879     0.986648098653      -0.144466572879     0.00525081229969    0.0184497704053     
3000000000.0        0.00544104870493    0.0190655333221     0.985893054427      -0.14941539393      0.985893054427      -0.14941539393      0.00544104870493    0.0190655333221     
3100000000.0        0.00563746220392    0.0196792971833     0.985112738942      -0.154360769941     0.985112738942      -0.154360769941     0.00563746220392    0.0196792971833     
3200000000.0        0.00584003644798    0.0202910026555     0.984307162932      -0.159302575775     0.984307162932      -0.159302575775     0.00584003644798    0.0202910026555     
3300000000.0        0.00604875432451    0.0209005907102     0.98347633799       -0.164240686091     0.98347633799       -0.164240686091     0.00604875432451    0.0209005907102     
3400000000.0        0.00626359798601    0.0215080026244     0.982620276553      -0.169174975362     0.982620276553      -0.169174975362     0.00626359798601    0.0215080026244     
3500000000.0        0.00648454887554    0.022113179982      0.98173899188       -0.174105317889     0.98173899188       -0.174105317889     0.00648454887554    0.022113179982      
3600000000.0        0.00671158774944    0.0227160646744     0.980832498037      -0.179031587813     0.980832498037      -0.179031587813     0.00671158774944    0.0227160646744     
3700000000.0        0.00694469469748    0.0233165989017     0.979900809883      -0.183953659134     0.979900809883      -0.183953659134     0.00694469469748    0.0233165989017     
3800000000.0        0.00718384916102    0.0239147251739     0.978943943055      -0.188871405721     0.978943943055      -0.188871405721     0.00718384916102    0.0239147251739     
3900000000.0        0.0074290299493     0.0245103863116     0.977961913962      -0.193784701326     0.977961913962      -0.193784701326     0.0074290299493     0.0245103863116     
4000000000.0        0.0076802152543     0.0251035254477     0.976954739774      -0.198693419595     0.976954739774      -0.198693419595     0.0076802152543     0.0251035254477     
4100000000.0        0.00793738266416    0.0256940860283     0.975922438414      -0.20359743408      0.975922438414      -0.20359743408      0.00793738266416    0.0256940860283     
4200000000.0        0.00820050917552    0.026282011814      0.97486502855       -0.208496618251     0.97486502855       -0.208496618251     0.00820050917552    0.026282011814      
4300000000.0        0.00846957120491    0.0268672468813     0.97378252959       -0.213390845506     0.97378252959       -0.213390845506     0.00846957120491    0.0268672468813     
4400000000.0        0.00874454459913    0.0274497356237     0.972674961676      -0.218279989182     0.972674961676      -0.218279989182     0.00874454459913    0.0274497356237     
4500000000.0        0.00902540464503    0.0280294227536     0.971542345679      -0.223163922562     0.971542345679      -0.223163922562     0.00902540464503    0.0280294227536     
4600000000.0        0.0093121260785     0.0286062533031     0.970384703197      -0.228042518889     0.970384703197      -0.228042518889     0.0093121260785     0.0286062533031     
4700000000.0        0.00960468309293    0.0291801726258     0.969202056546      -0.232915651374     0.969202056546      -0.232915651374     0.00960468309293    0.0291801726258     
4800000000.0        0.0099030493471     0.0297511263983     0.967994428762      -0.237783193204     0.967994428762      -0.237783193204     0.0099030493471     0.0297511263983     
4900000000.0        0.0102071979727     0.0303190606217     0.966761843594      -0.24264501755      0.966761843594      -0.24264501755      0.0102071979727     0.0303190606217     
5000000000.0        0.0105171015814     0.0308839216232     0.965504325502      -0.247500997578     0.965504325502      -0.247500997578     0.0105171015814     0.0308839216232     
5100000000.0        0.0108327322715     0.0314456560575     0.964221899658      -0.252351006457     0.964221899658      -0.252351006457     0.0108327322715     0.0314456560575     
5200000000.0        0.0111540616341     0.0320042109089     0.962914591937      -0.257194917366     0.962914591937      -0.257194917366     0.0111540616341     0.0320042109089     
5300000000.0        0.0114810607595     0.0325595334924     0.96158242892       -0.262032603501     0.96158242892       -0.262032603501     0.0114810607595     0.0325595334924     
5400000000.0        0.011813700243      0.0331115714556     0.960225437889      -0.266863938086     0.960225437889      -0.266863938086     0.011813700243      0.0331115714556     
5500000000.0        0.0121519501902     0.0336602727808     0.958843646827      -0.271688794377     0.958843646827      -0.271688794377     0.0121519501902     0.0336602727808     
5600000000.0        0.0124957802224     0.0342055857861     0.957437084417      -0.276507045674     0.957437084417      -0.276507045674     0.0124957802224     0.0342055857861     
5700000000.0        0.0128451594821     0.0347474591274     0.956005780035      -0.281318565321     0.956005780035      -0.281318565321     0.0128451594821     0.0347474591274     
5800000000.0        0.0132000566377     0.0352858418006     0.954549763757      -0.28612322672      0.954549763757      -0.28612322672      0.0132000566377     0.0352858418006     
5900000000.0        0.0135604398884     0.0358206831428     0.953069066347      -0.290920903336     0.953069066347      -0.290920903336     0.0135604398884     0.0358206831428     
6000000000.0        0.0139262769689     0.0363519328344     0.951563719267      -0.295711468701     0.951563719267      -0.295711468701     0.0139262769689     0.0363519328344     
6100000000.0        0.0142975351542     0.0368795409009     0.950033754664      -0.300494796425     0.950033754664      -0.300494796425     0.0142975351542     0.0368795409009     
6200000000.0        0.0146741812636     0.0374034577148     0.948479205379      -0.305270760199     0.948479205379      -0.305270760199     0.0146741812636     0.0374034577148     
6300000000.0        0.0150561816657     0.0379236339975     0.946900104939      -0.310039233802     0.946900104939      -0.310039233802     0.0150561816657     0.0379236339975     
6400000000.0        0.0154435022819     0.0384400208211     0.945296487556      -0.314800091111     0.945296487556      -0.314800091111     0.0154435022819     0.0384400208211     
6500000000.0        0.0158361085912     0.0389525696103     0.94366838813       -0.319553206102     0.94366838813       -0.319553206102     0.0158361085912     0.0389525696103     
6600000000.0        0.016233965634      0.0394612321444     0.942015842244      -0.324298452859     0.942015842244      -0.324298452859     0.016233965634      0.0394612321444     
6700000000.0        0.0166370380162     0.0399659605591     0.940338886163      -0.329035705581     0.940338886163      -0.329035705581     0.0166370380162     0.0399659605591     
6800000000.0        0.0170452899131     0.0404667073486     0.938637556834      -0.333764838584     0.938637556834      -0.333764838584     0.0170452899131     0.0404667073486     
6900000000.0        0.0174586850733     0.0409634253674     0.936911891885      -0.338485726312     0.936911891885      -0.338485726312     0.0174586850733     0.0409634253674     
7000000000.0        0.0178771868226     0.0414560678324     0.935161929621      -0.343198243339     0.935161929621      -0.343198243339     0.0178771868226     0.0414560678324     
7100000000.0        0.0183007580678     0.0419445883246     0.933387709027      -0.347902264374     0.933387709027      -0.347902264374     0.0183007580678     0.0419445883246     
7200000000.0        0.0187293613002     0.0424289407916     0.931589269763      -0.352597664272     0.931589269763      -0.352597664272     0.0187293613002     0.0424289407916     
7300000000.0        0.0191629585996     0.0429090795487     0.929766652163      -0.357284318034     0.929766652163      -0.357284318034     0.0191629585996     0.0429090795487     
7400000000.0        0.0196015116378     0.043384959282      0.927919897238      -0.361962100814     0.927919897238      -0.361962100814     0.0196015116378     0.043384959282      
7500000000.0        0.0200449816822     0.0438565350494     0.926049046667      -0.366630887924     0.926049046667      -0.366630887924     0.0200449816822     0.0438565350494     
7600000000.0        0.0204933295995     0.0443237622831     0.924154142805      -0.371290554844     0.924154142805      -0.371290554844     0.0204933295995     0.0443237622831     
7700000000.0        0.0209465158591     0.0447865967916     0.922235228674      -0.375940977219     0.922235228674      -0.375940977219     0.0209465158591     0.0447865967916     
7800000000.0        0.0214045005368     0.0452449947614     0.920292347964      -0.380582030871     0.920292347964      -0.380582030871     0.0214045005368     0.0452449947614     
7900000000.0        0.0218672433182     0.0456989127593     0.918325545034      -0.385213591801     0.918325545034      -0.385213591801     0.0218672433182     0.0456989127593     
8000000000.0        0.0223347035021     0.0461483077344     0.916334864908      -0.389835536195     0.916334864908      -0.389835536195     0.0223347035021     0.0461483077344     
8100000000.0        0.0228068400042     0.04659313702       0.914320353273      -0.394447740427     0.914320353273      -0.394447740427     0.0228068400042     0.04659313702       
8200000000.0        0.0232836113602     0.0470333583353     0.912282056481      -0.399050081069     0.912282056481      -0.399050081069     0.0232836113602     0.0470333583353     
8300000000.0        0.0237649757296     0.0474689297883     0.910220021545      -0.403642434889     0.910220021545      -0.403642434889     0.0237649757296     0.0474689297883     
8400000000.0        0.0242508908988     0.0478998098767     0.908134296137      -0.408224678862     0.908134296137      -0.408224678862     0.0242508908988     0.0478998098767     
8500000000.0        0.0247413142847     0.0483259574907     0.906024928589      -0.412796690171     0.906024928589      -0.412796690171     0.0247413142847     0.0483259574907     
8600000000.0        0.0252362029379     0.0487473319148     0.903891967888      -0.417358346214     0.903891967888      -0.417358346214     0.0252362029379     0.0487473319148     
8700000000.0        0.0257355135462     0.0491638928298     0.901735463678      -0.421909524606     0.901735463678      -0.421909524606     0.0257355135462     0.0491638928298     
8800000000.0        0.0262392024378     0.0495756003145     0.899555466257      -0.426450103186     0.899555466257      -0.426450103186     0.0262392024378     0.0495756003145     
8900000000.0        0.0267472255848     0.0499824148483     0.897352026576      -0.430979960022     0.897352026576      -0.430979960022     0.0267472255848     0.0499824148483     
9000000000.0        0.0272595386067     0.0503842973127     0.895125196234      -0.435498973412     0.895125196234      -0.435498973412     0.0272595386067     0.0503842973127     
9100000000.0        0.0277760967733     0.0507812089935     0.892875027483      -0.440007021894     0.892875027483      -0.440007021894     0.0277760967733     0.0507812089935     
9200000000.0        0.0282968550081     0.051173111583      0.89060157322       -0.444503984244     0.89060157322       -0.444503984244     0.0282968550081     0.051173111583      
9300000000.0        0.0288217678921     0.0515599671813     0.88830488699       -0.448989739486     0.88830488699       -0.448989739486     0.0288217678921     0.0515599671813     
9400000000.0        0.0293507896666     0.0519417382992     0.885985022979      -0.453464166894     0.885985022979      -0.453464166894     0.0293507896666     0.0519417382992     
9500000000.0        0.0298838742366     0.0523183878596     0.883642036019      -0.457927145996     0.883642036019      -0.457927145996     0.0298838742366     0.0523183878596     
9600000000.0        0.0304209751744     0.0526898791996     0.881275981582      -0.462378556578     0.881275981582      -0.462378556578     0.0304209751744     0.0526898791996     
9700000000.0        0.0309620457225     0.0530561760725     0.878886915778      -0.466818278691     0.878886915778      -0.466818278691     0.0309620457225     0.0530561760725     
9800000000.0        0.0315070387971     0.0534172426497     0.876474895354      -0.471246192651     0.876474895354      -0.471246192651     0.0315070387971     0.0534172426497     
9900000000.0        0.0320559069915     0.0537730435231     0.874039977696      -0.475662179047     0.874039977696      -0.475662179047     0.0320559069915     0.0537730435231     
10000000000.0       0.0326086025792     0.0541235437061     0.87158222082       -0.480066118743     0.87158222082       -0.480066118743     0.0326086025792     0.0541235437061     
