# Hz S RI R 50.00 
100000000.0         -0.0169345086479    -0.12857387622      0.983005743618      -0.128701762699     0.983005743618      -0.128701762699     -0.0169345086479    -0.12857387622      
200000000.0         -0.0643019298699    -0.244715328672     0.935637888372      -0.244971118167     0.935637888372      -0.244971118167     -0.0643019298699    -0.244715328672     
300000000.0         -0.133777043483     -0.339752576515     0.866162426351      -0.34013629514      0.866162426351      -0.34013629514      -0.133777043483     -0.339752576515     
400000000.0         -0.215290849087     -0.410287875739     0.784648306618      -0.410799557395     0.784648306618      -0.410799557395     -0.215290849087     -0.410287875739     
500000000.0         -0.299947351889     -0.45742614677      0.69999150429       -0.458065832222     0.69999150429       -0.458065832222     -0.299947351889     -0.45742614677      
600000000.0         -0.381471072797     -0.484868801674     0.618467488469      -0.48563653793      0.618467488469      -0.48563653793      -0.381471072797     -0.484868801674     
700000000.0         -0.456275449027     -0.49713602772      0.543662816054      -0.498031867554     0.543662816054      -0.498031867554     -0.456275449027     -0.49713602772      
800000000.0         -0.522839255278     -0.498460745423     0.477098708546      -0.499484747001     0.477098708546      -0.499484747001     -0.522839255278     -0.498460745423     
900000000.0         -0.580961223712     -0.492315898838     0.418976431159      -0.493468125395     0.418976431159      -0.493468125395     -0.580961223712     -0.492315898838     
1000000000.0        -0.631160313926     -0.48133629925      0.368777022399      -0.482616818815     0.368777022399      -0.482616818815     -0.631160313926     -0.48133629925      
1100000000.0        -0.674276636939     -0.467422320363     0.32566036982       -0.468831205515     0.32566036982       -0.468831205515     -0.674276636939     -0.467422320363     
1200000000.0        -0.711237780466     -0.451897015852     0.2886988846        -0.453434343507     0.2886988846        -0.453434343507     -0.711237780466     -0.451897015852     
1300000000.0        -0.742936913308     -0.43565642041      0.256999397059      -0.43732227162      0.256999397059      -0.43732227162      -0.742936913308     -0.43565642041      
1400000000.0        -0.770178188034     -0.419292181106     0.229757753915      -0.421086640881     0.229757753915      -0.421086640881     -0.770178188034     -0.419292181106     
1500000000.0        -0.793659297112     -0.403184078649     0.206276262109      -0.40510723579      0.206276262109      -0.40510723579      -0.793659297112     -0.403184078649     
1600000000.0        -0.813972833031     -0.387566846989     0.185962328654      -0.389618793938     0.185962328654      -0.389618793938     -0.813972833031     -0.387566846989     
1700000000.0        -0.831616059391     -0.372577200241     0.168318689528      -0.374758032939     0.168318689528      -0.374758032939     -0.831616059391     -0.372577200241     
1800000000.0        -0.847003556313     -0.358286411285     0.152930764242      -0.360596229042     0.152930764242      -0.360596229042     -0.847003556313     -0.358286411285     
1900000000.0        -0.860479987854     -0.344722656348     0.139453888419      -0.347161561719     0.139453888419      -0.347161561719     -0.860479987854     -0.344722656348     
2000000000.0        -0.872331761011     -0.33188623603      0.127601654776      -0.3344543347       0.127601654776      -0.3344543347       -0.872331761011     -0.33188623603      
2100000000.0        -0.882797140168     -0.31975988764      0.117135798677      -0.322457288321     0.117135798677      -0.322457288321     -0.882797140168     -0.31975988764      
2200000000.0        -0.892074771697     -0.30831573436      0.10785767352       -0.311142548686     0.10785767352       -0.311142548686     -0.892074771697     -0.30831573436      
2300000000.0        -0.900330748358     -0.297519937424     0.0996011863335     -0.300476279864     0.0996011863335     -0.300476279864     -0.900330748358     -0.297519937424     
2400000000.0        -0.907704406563     -0.287335782478     0.0922270005169     -0.290421770245     0.0922270005169     -0.290421770245     -0.907704406563     -0.287335782478     
2500000000.0        -0.914313058418     -0.27772570006      0.0856178037838     -0.280941453028     0.0856178037838     -0.280941453028     -0.914313058418     -0.27772570006      
2600000000.0        -0.92025584491      -0.26865256181      0.0796744549835     -0.271998202444     0.0796744549835     -0.271998202444     -0.92025584491      -0.26865256181      
2700000000.0        -0.925616871946     -0.260080485884     0.0743128480533     -0.26355613916      0.0743128480533     -0.26355613916      -0.925616871946     -0.260080485884     
2800000000.0        -0.930467764937     -0.251975311213     0.0694613574341     -0.25558110456      0.0694613574341     -0.25558110456      -0.930467764937     -0.251975311213     
2900000000.0        -0.934869753448     -0.244304849921     0.0650587534224     -0.248040913152     0.0650587534224     -0.248040913152     -0.934869753448     -0.244304849921     
3000000000.0        -0.938875376479     -0.237038992677     0.0610524968853     -0.240905457939     0.0610524968853     -0.240905457939     -0.938875376479     -0.237038992677     
3100000000.0        -0.942529881412     -0.230149718201     0.0573973403143     -0.234146719913     0.0573973403143     -0.234146719913     -0.942529881412     -0.230149718201     
3200000000.0        -0.945872375262     -0.223611041853     0.0540541765695     -0.227738716663     0.0540541765695     -0.227738716663     -0.945872375262     -0.223611041853     
3300000000.0        -0.948936775265     -0.217398927138     0.0509890882973     -0.221657413874     0.0509890882973     -0.221657413874     -0.948936775265     -0.217398927138     
3400000000.0        -0.951752596467     -0.211491176193     0.0481725603353     -0.21588061582      0.0481725603353     -0.21588061582      -0.951752596467     -0.211491176193     
3500000000.0        -0.95434560657      -0.205867310086     0.0455788248704     -0.21038784567      0.0455788248704     -0.21038784567      -0.95434560657      -0.205867310086     
3600000000.0        -0.956738372307     -0.20050844604      0.0431853150592     -0.205160222707     0.0431853150592     -0.205160222707     -0.956738372307     -0.20050844604      
3700000000.0        -0.958950716921     -0.195397176209     0.0409722075493     -0.200180341119     0.0409722075493     -0.200180341119     -0.958950716921     -0.195397176209     
3800000000.0        -0.96100010454      -0.190517450906     0.0389220381084     -0.195432153215     0.0389220381084     -0.195432153215     -0.96100010454      -0.190517450906     
3900000000.0        -0.962901964218     -0.185854467961     0.037019377578      -0.1909008588       0.037019377578      -0.1909008588       -0.962901964218     -0.185854467961     
4000000000.0        -0.964669964039     -0.181394569152     0.0352505577694     -0.1865728016       0.0352505577694     -0.1865728016       -0.964669964039     -0.181394569152     
4100000000.0        -0.966316243737     -0.177125144045     0.0336034388477     -0.182435373109     0.0336034388477     -0.182435373109     -0.966316243737     -0.177125144045     
4200000000.0        -0.96785161273      -0.173034541293     0.0320672112924     -0.178476923884     0.0320672112924     -0.178476923884     -0.96785161273      -0.173034541293     
4300000000.0        -0.96928571925      -0.169111987164     0.0306322267718     -0.174686682084     0.0306322267718     -0.174686682084     -0.96928571925      -0.169111987164     
4400000000.0        -0.97062719521      -0.165347510971     0.0292898532727     -0.171054678897     0.0292898532727     -0.171054678897     -0.97062719521      -0.165347510971     
4500000000.0        -0.971883780663     -0.161731876978     0.028032350641      -0.167571680447     0.028032350641      -0.167571680447     -0.971883780663     -0.161731876978     
4600000000.0        -0.973062431035     -0.158256522322     0.0268527633526     -0.164229125722     0.0268527633526     -0.164229125722     -0.973062431035     -0.158256522322     
4700000000.0        -0.97416940976      -0.154913500492     0.0257448278728     -0.161019070052     0.0257448278728     -0.161019070052     -0.97416940976      -0.154913500492     
4800000000.0        -0.975210368535     -0.151695429897     0.0247028924043     -0.157934133681     0.0247028924043     -0.157934133681     -0.975210368535     -0.151695429897     
4900000000.0        -0.976190417025     -0.14859544709      0.0237218471843     -0.154967454989     0.0237218471843     -0.154967454989     -0.976190417025     -0.14859544709      
5000000000.0        -0.977114183549     -0.14560716422      0.022797063793      -0.152112647951     0.022797063793      -0.152112647951     -0.977114183549     -0.14560716422      
5100000000.0        -0.97798586806      -0.142724630347     0.0219243421762     -0.149363763449     0.0219243421762     -0.149363763449     -0.97798586806      -0.142724630347     
5200000000.0        -0.9788092885       -0.139942296232     0.0210998642933     -0.146715254064     0.0210998642933     -0.146715254064     -0.9788092885       -0.139942296232     
5300000000.0        -0.979587921444     -0.1372549823       0.0203201534664     -0.144161942044     0.0203201534664     -0.144161942044     -0.979587921444     -0.1372549823       
5400000000.0        -0.980324937834     -0.134657849466     0.0195820386523     -0.141698990128     0.0195820386523     -0.141698990128     -0.980324937834     -0.134657849466     
5500000000.0        -0.981023234449     -0.132146372545     0.0188826229693     -0.139321874959     0.0188826229693     -0.139321874959     -0.981023234449     -0.132146372545     
5600000000.0        -0.981685461688     -0.129716316017     0.0182192559169     -0.137026362847     0.0182192559169     -0.137026362847     -0.981685461688     -0.129716316017     
5700000000.0        -0.982314048139     -0.127363711903     0.0175895088027     -0.134808487651     0.0175895088027     -0.134808487651     -0.982314048139     -0.127363711903     
5800000000.0        -0.98291122236      -0.125084839571     0.0169911529642     -0.132664530583     0.0169911529642     -0.132664530583     -0.98291122236      -0.125084839571     
5900000000.0        -0.983479032218     -0.12287620727      0.01642214043       -0.130591001744     0.01642214043       -0.130591001744     -0.983479032218     -0.12287620727      
6000000000.0        -0.984019362091     -0.120734535247     0.0158805867146     -0.128584623242     0.0158805867146     -0.128584623242     -0.984019362091     -0.120734535247     
6100000000.0        -0.984533948207     -0.118656740288     0.0153647554846     -0.126642313732     0.0153647554846     -0.126642313732     -0.984533948207     -0.118656740288     
6200000000.0        -0.98502439233      -0.116639921547     0.0148730448671     -0.12476117425      0.0148730448671     -0.12476117425      -0.98502439233      -0.116639921547     
6300000000.0        -0.985492174008     -0.114681347556     0.0144039752051     -0.122938475221     0.0144039752051     -0.122938475221     -0.985492174008     -0.114681347556     
6400000000.0        -0.985938661542     -0.1127784443       0.0139561780871     -0.121171644535     0.0139561780871     -0.121171644535     -0.985938661542     -0.1127784443       
6500000000.0        -0.986365121832     -0.110928784258     0.0135283865035     -0.119458256587     0.0135283865035     -0.119458256587     -0.986365121832     -0.110928784258     
6600000000.0        -0.986772729219     -0.109130076321     0.0131194259995     -0.117796022203     0.0131194259995     -0.117796022203     -0.986772729219     -0.109130076321     
6700000000.0        -0.987162573454     -0.107380156523     0.0127282067117     -0.116182779362     0.0127282067117     -0.116182779362     -0.987162573454     -0.107380156523     
6800000000.0        -0.987535666873     -0.105676979492     0.0123537161889     -0.114616484654     0.0123537161889     -0.114616484654     -0.987535666873     -0.105676979492     
6900000000.0        -0.987892950879     -0.104018610572     0.0119950129115     -0.113095205401     0.0119950129115     -0.113095205401     -0.987892950879     -0.104018610572     
7000000000.0        -0.988235301804     -0.102403218548     0.0116512204318     -0.111617112383     0.0116512204318     -0.111617112383     -0.988235301804     -0.102403218548     
7100000000.0        -0.988563536208     -0.100829068934     0.01132152207       -0.110180473124     0.01132152207       -0.110180473124     -0.988563536208     -0.100829068934     
7200000000.0        -0.988878415693     -0.0992945177574    0.0110051561048     -0.108783645682     0.0110051561048     -0.108783645682     -0.988878415693     -0.0992945177574    
7300000000.0        -0.989180651265     -0.0977980058177    0.0107014114092     -0.107425072902     0.0107014114092     -0.107425072902     -0.989180651265     -0.0977980058177    
7400000000.0        -0.9894709073       -0.0963380533628    0.0104096234826     -0.106103277101     0.0104096234826     -0.106103277101     -0.9894709073       -0.0963380533628    
7500000000.0        -0.98974980516      -0.0949132551582    0.0101291708409     -0.104816855127     0.0101291708409     -0.104816855127     -0.98974980516      -0.0949132551582    
7600000000.0        -0.990017926476     -0.0935222759124    0.00985947172686    -0.103564473794     0.00985947172686    -0.103564473794     -0.990017926476     -0.0935222759124    
7700000000.0        -0.99027581615      -0.09216384603      0.00959998110991    -0.102344865633     0.00959998110991    -0.102344865633     -0.99027581615      -0.09216384603      
7800000000.0        -0.990523985099     -0.0908367576661    0.00935018794548    -0.101156824943     0.00935018794548    -0.101156824943     -0.990523985099     -0.0908367576661    
7900000000.0        -0.990762912756     -0.0895398610582    0.00910961266974    -0.099999204129     0.00910961266974    -0.099999204129     -0.990762912756     -0.0895398610582    
8000000000.0        -0.990993049365     -0.0882720611122    0.0088778049064     -0.098870910284     0.0088778049064     -0.098870910284     -0.990993049365     -0.0882720611122    
8100000000.0        -0.991214818083     -0.0870323142235    0.00865434136547    -0.0977709020134    0.00865434136547    -0.0977709020134    -0.991214818083     -0.0870323142235    
8200000000.0        -0.991428616904     -0.085819625315     0.00843882391598    -0.0966981864714    0.00843882391598    -0.0966981864714    -0.991428616904     -0.085819625315     
8300000000.0        -0.991634820435     -0.0846330450743    0.00823087781628    -0.0956518165995    0.00823087781628    -0.0956518165995    -0.991634820435     -0.0846330450743    
8400000000.0        -0.991833781513     -0.0834716673749    0.00803015008761    -0.094630888548     0.00803015008761    -0.094630888548     -0.991833781513     -0.0834716673749    
8500000000.0        -0.992025832711     -0.0823346268688    0.00783630801766    -0.0936345392685    0.00783630801766    -0.0936345392685    -0.992025832711     -0.0823346268688    
8600000000.0        -0.99221128771      -0.0812210967357    0.00764903778262    -0.0926619442637    0.00764903778262    -0.0926619442637    -0.99221128771      -0.0812210967357    
8700000000.0        -0.992390442572     -0.0801302865782    0.00746804317692    -0.091712315483     0.00746804317692    -0.091712315483     -0.992390442572     -0.0801302865782    
8800000000.0        -0.992563576908     -0.0790614404521    0.00729304444143    -0.0907848993531    0.00729304444143    -0.0907848993531    -0.992563576908     -0.0790614404521    
8900000000.0        -0.992730954966     -0.0780138350222    0.00712377718124    -0.0898789749336    0.00712377718124    -0.0898789749336    -0.992730954966     -0.0780138350222    
9000000000.0        -0.992892826626     -0.0769867778332    0.00695999136553    -0.0889938521886    0.00695999136553    -0.0889938521886    -0.992892826626     -0.0769867778332    
9100000000.0        -0.993049428328     -0.0759796056891    0.00680145040239    -0.0881288703665    0.00680145040239    -0.0881288703665    -0.993049428328     -0.0759796056891    
9200000000.0        -0.993200983927     -0.0749916831325    0.00664793028225    -0.0872833964792    0.00664793028225    -0.0872833964792    -0.993200983927     -0.0749916831325    
9300000000.0        -0.993347705488     -0.0740224010167    0.0064992187842     -0.0864568238747    0.0064992187842     -0.0864568238747    -0.993347705488     -0.0740224010167    
9400000000.0        -0.993489794021     -0.073071175164     0.00635511474004    -0.0856485708955    0.00635511474004    -0.0856485708955    -0.993489794021     -0.073071175164     
9500000000.0        -0.993627440163     -0.0721374451055    0.00621542735123    -0.0848580796188    0.00621542735123    -0.0848580796188    -0.993627440163     -0.0721374451055    
9600000000.0        -0.993760824816     -0.0712206728945    0.00607997555447    -0.0840848146701    0.00607997555447    -0.0840848146701    -0.993760824816     -0.0712206728945    
9700000000.0        -0.993890119732     -0.070320341991     0.00594858743211    -0.0833282621078    0.00594858743211    -0.0833282621078    -0.993890119732     -0.070320341991     
9800000000.0        -0.994015488065     -0.0694359562103    0.00582109966359    -0.0825879283724    0.00582109966359    -0.0825879283724    -0.994015488065     -0.0694359562103    
9900000000.0        -0.994137084878     -0.0685670387334    0.00569735701495    -0.0818633392966    0.00569735701495    -0.0818633392966    -0.994137084878     -0.0685670387334    
10000000000.0       -0.994255057625     -0.067713131173     0.0055772118632     -0.0811540391722    0.0055772118632     -0.0811540391722    -0.994255057625     -0.067713131173     
