# Hz S RI R 50.00 
100000000.0         0.000210419974304   -0.000349949983366  0.999786478218      -0.000957631524191  0.999786478218      -0.000957631524191  0.000210419974304   -0.000349949983366  
200000000.0         0.000210217303756   -0.000699907512821  0.999782869105      -0.00191527315948   0.999782869105      -0.00191527315948   0.000210217303756   -0.00069990751282   
300000000.0         0.000208973653959   -0.00104987503755   0.999778590856      -0.00287293178219   0.999778590856      -0.00287293178219   0.000208973653959   -0.00104987503755   
400000000.0         0.000206872219497   -0.00139985439711   0.999773460099      -0.00383061206456   0.999773460099      -0.00383061206456   0.000206872219496   -0.00139985439711   
500000000.0         0.00020398334551    -0.00174984699667   0.999767406279      -0.00478831769095   0.999767406279      -0.00478831769095   0.00020398334551    -0.00174984699667   
600000000.0         0.000200342778111   -0.00209985393192   0.999760393411      -0.00574605172205   0.999760393411      -0.00574605172205   0.000200342778111   -0.00209985393192   
700000000.0         0.000195971537608   -0.00244987606135   0.999752400217      -0.00670381677139   0.999752400217      -0.00670381677139   0.000195971537608   -0.00244987606135   
800000000.0         0.000190883165374   -0.00279991405283   0.999743412872      -0.00766161510848   0.999743412872      -0.00766161510848   0.000190883165374   -0.00279991405283   
900000000.0         0.000185086948073   -0.00314996841637   0.999733421792      -0.00861944872644   0.999733421792      -0.00861944872644   0.000185086948073   -0.00314996841637   
1000000000.0        0.000178589550673   -0.00350003952612   0.999722419995      -0.0095773193872    0.999722419995      -0.0095773193872    0.000178589550673   -0.00350003952612   
1100000000.0        0.000171395923688   -0.00385012763898   0.999710402199      -0.0105352286566    0.999710402199      -0.0105352286566    0.000171395923687   -0.00385012763898   
1200000000.0        0.00016350984346    -0.00420023290747   0.999697364283      -0.0114931779293    0.999697364283      -0.0114931779293    0.00016350984346    -0.00420023290747   
1300000000.0        0.000154934251906   -0.00455035539087   0.999683302948      -0.0124511684494    0.999683302948      -0.0124511684494    0.000154934251906   -0.00455035539087   
1400000000.0        0.000145671479778   -0.00490049506413   0.999668215495      -0.0134092013266    0.999668215495      -0.0134092013266    0.000145671479777   -0.00490049506413   
1500000000.0        0.000135723398754   -0.00525065182522   0.999652099671      -0.0143672775493    0.999652099671      -0.0143672775493    0.000135723398754   -0.00525065182522   
1600000000.0        0.000125091528241   -0.00560082550114   0.99963495357       -0.0153253979954    0.99963495357       -0.0153253979954    0.000125091528241   -0.00560082550114   
1700000000.0        0.000113777112363   -0.00595101585344   0.999616775549      -0.016283563442     0.999616775549      -0.016283563442     0.000113777112362   -0.00595101585344   
1800000000.0        0.000101781176695   -0.00630122258278   0.999597564179      -0.017241774573     0.999597564179      -0.017241774573     0.000101781176695   -0.00630122258278   
1900000000.0        8.91045709064e-05   -0.00665144533278   0.999577318196      -0.018200031986     0.999577318196      -0.018200031986     8.91045709062e-05   -0.00665144533278   
2000000000.0        7.57480013573e-05   -0.00700168369365   0.999556036476      -0.0191583361984    0.999556036476      -0.0191583361984    7.57480013576e-05   -0.00700168369365   
2100000000.0        6.17120564135e-05   -0.00735193720524   0.999533718005      -0.0201166876524    0.999533718005      -0.0201166876524    6.17120564135e-05   -0.00735193720524   
2200000000.0        4.69972263677e-05   -0.0077022053599    0.999510361864      -0.0210750867199    0.999510361864      -0.0210750867199    4.69972263675e-05   -0.0077022053599    
2300000000.0        3.16039193133e-05   -0.00805248760484   0.999485967209      -0.0220335337065    0.999485967209      -0.0220335337065    3.16039193136e-05   -0.00805248760484   
2400000000.0        1.55324739404e-05   -0.00840278334453   0.999460533262      -0.0229920288551    0.999460533262      -0.0229920288551    1.55324739404e-05   -0.00840278334453   
2500000000.0        -1.21683005527e-06  -0.0087530919427    0.999434059302      -0.0239505723493    0.999434059302      -0.0239505723493    -1.21683005561e-06  -0.0087530919427    
2600000000.0        -1.86437634102e-05  -0.00910341272414   0.999406544653      -0.0249091643168    0.999406544653      -0.0249091643168    -1.864376341e-05    -0.00910341272414   
2700000000.0        -3.67481402029e-05  -0.0094537449765    0.999377988681      -0.0258678048313    0.999377988681      -0.0258678048313    -3.67481402027e-05  -0.0094537449765    
2800000000.0        -5.55298119252e-05  -0.00980408795187   0.999348390785      -0.0268264939162    0.999348390785      -0.0268264939162    -5.55298119254e-05  -0.00980408795187   
2900000000.0        -7.49886624969e-05  -0.0101544408682    0.999317750398      -0.0277852315457    0.999317750398      -0.0277852315457    -7.49886624972e-05  -0.0101544408682    
3000000000.0        -9.51246040376e-05  -0.0105048029107    0.999286066976      -0.0287440176479    0.999286066976      -0.0287440176479    -9.51246040377e-05  -0.0105048029107    
3100000000.0        -0.000115937573261  -0.0108551732329    0.999253340001      -0.0297028521061    0.999253340001      -0.0297028521061    -0.00011593757326   -0.0108551732329    
3200000000.0        -0.000137427528379  -0.0112055509582    0.999219568974      -0.0306617347611    0.999219568974      -0.0306617347611    -0.000137427528379  -0.0112055509582    
3300000000.0        -0.000159594446439  -0.0115559351807    0.999184753416      -0.0316206654126    0.999184753416      -0.0316206654126    -0.000159594446439  -0.0115559351807    
3400000000.0        -0.000182438320999  -0.0119063249662    0.999148892864      -0.0325796438208    0.999148892864      -0.0325796438208    -0.000182438320999  -0.0119063249662    
3500000000.0        -0.000205959160115  -0.0122567193532    0.999111986867      -0.0335386697083    0.999111986867      -0.0335386697083    -0.000205959160114  -0.0122567193532    
3600000000.0        -0.000230156984563  -0.0126071173541    0.999074034991      -0.0344977427607    0.999074034991      -0.0344977427607    -0.000230156984563  -0.0126071173541    
3700000000.0        -0.000255031826292  -0.0129575179555    0.999035036813      -0.0354568626286    0.999035036813      -0.0354568626286    -0.000255031826291  -0.0129575179555    
3800000000.0        -0.000280583727039  -0.0133079201196    0.998994991919      -0.0364160289286    0.998994991919      -0.0364160289286    -0.000280583727039  -0.0133079201196    
3900000000.0        -0.000306812737111  -0.0136583227845    0.998953899906      -0.0373752412443    0.998953899906      -0.0373752412443    -0.000306812737112  -0.0136583227845    
4000000000.0        -0.000333718914298  -0.0140087248652    0.998911760382      -0.0383344991277    0.998911760382      -0.0383344991277    -0.000333718914298  -0.0140087248652    
4100000000.0        -0.000361302322894  -0.0143591252543    0.998868572961      -0.0392938020998    0.998868572961      -0.0392938020998    -0.000361302322894  -0.0143591252543    
4200000000.0        -0.000389563032828  -0.0147095228224    0.998824337265      -0.0402531496521    0.998824337265      -0.0402531496521    -0.000389563032828  -0.0147095228224    
4300000000.0        -0.000418501118877  -0.0150599164191    0.998779052924      -0.041212541247     0.998779052924      -0.041212541247     -0.000418501118877  -0.0150599164191    
4400000000.0        -0.000448116659952  -0.0154103048733    0.998732719575      -0.0421719763192    0.998732719575      -0.0421719763192    -0.000448116659952  -0.0154103048733    
4500000000.0        -0.000478409738457  -0.0157606869939    0.998685336861      -0.043131454276     0.998685336861      -0.043131454276     -0.000478409738457  -0.0157606869939    
4600000000.0        -0.000509380439702  -0.0161110615703    0.99863690443       -0.0440909744987    0.99863690443       -0.0440909744987    -0.000509380439702  -0.0161110615703    
4700000000.0        -0.000541028851368  -0.0164614273732    0.998587421937      -0.0450505363426    0.998587421937      -0.0450505363426    -0.000541028851369  -0.0164614273732    
4800000000.0        -0.000573355063023  -0.0168117831546    0.998536889043      -0.0460101391387    0.998536889043      -0.0460101391387    -0.000573355063023  -0.0168117831546    
4900000000.0        -0.000606359165668  -0.0171621276486    0.998485305411      -0.0469697821935    0.998485305411      -0.0469697821935    -0.000606359165668  -0.0171621276486    
5000000000.0        -0.000640041251332  -0.0175124595719    0.998432670712      -0.0479294647902    0.998432670712      -0.0479294647902    -0.000640041251332  -0.0175124595719    
5100000000.0        -0.000674401412693  -0.0178627776243    0.99837898462       -0.0488891861889    0.99837898462       -0.0488891861889    -0.000674401412692  -0.0178627776243    
5200000000.0        -0.000709439742722  -0.0182130804888    0.998324246816      -0.049848945628     0.998324246816      -0.049848945628     -0.000709439742722  -0.0182130804888    
5300000000.0        -0.000745156334368  -0.0185633668323    0.998268456981      -0.0508087423239    0.998268456981      -0.0508087423239    -0.000745156334368  -0.0185633668323    
5400000000.0        -0.000781551280253  -0.0189136353059    0.998211614806      -0.0517685754719    0.998211614806      -0.0517685754719    -0.000781551280253  -0.0189136353059    
5500000000.0        -0.000818624672395  -0.0192638845455    0.99815371998       -0.0527284442471    0.99815371998       -0.0527284442471    -0.000818624672395  -0.0192638845455    
5600000000.0        -0.000856376601948  -0.0196141131718    0.998094772202      -0.0536883478045    0.998094772202      -0.0536883478045    -0.000856376601948  -0.0196141131718    
5700000000.0        -0.000894807158959  -0.0199643197909    0.99803477117       -0.0546482852794    0.99803477117       -0.0546482852794    -0.000894807158959  -0.0199643197909    
5800000000.0        -0.000933916432144  -0.0203145029946    0.99797371659       -0.0556082557885    0.99797371659       -0.0556082557885    -0.000933916432144  -0.0203145029946    
5900000000.0        -0.000973704508673  -0.020664661361     0.997911608168      -0.0565682584297    0.997911608168      -0.0565682584297    -0.000973704508673  -0.020664661361     
6000000000.0        -0.00101417147397   -0.0210147934542    0.997848445617      -0.057528292283     0.997848445617      -0.057528292283     -0.00101417147397   -0.0210147934542    
6100000000.0        -0.00105531741155   -0.0213648978254    0.997784228653      -0.0584883564106    0.997784228653      -0.0584883564106    -0.00105531741155   -0.0213648978254    
6200000000.0        -0.00109714240278   -0.0217149730124    0.997718956994      -0.0594484498578    0.997718956994      -0.0594484498578    -0.00109714240278   -0.0217149730124    
6300000000.0        -0.0011396465268    -0.0220650175407    0.997652630365      -0.0604085716528    0.997652630365      -0.0604085716528    -0.0011396465268    -0.0220650175407    
6400000000.0        -0.0011828298603    -0.0224150299232    0.99758524849       -0.0613687208077    0.99758524849       -0.0613687208077    -0.0011828298603    -0.0224150299232    
6500000000.0        -0.0012266924774    -0.0227650086609    0.997516811102      -0.0623288963184    0.997516811102      -0.0623288963184    -0.0012266924774    -0.0227650086609    
6600000000.0        -0.00127123444951   -0.0231149522426    0.997447317933      -0.0632890971653    0.997447317933      -0.0632890971653    -0.00127123444951   -0.0231149522426    
6700000000.0        -0.00131645584519   -0.023464859146     0.997376768722      -0.0642493223136    0.997376768722      -0.0642493223136    -0.00131645584519   -0.023464859146     
6800000000.0        -0.00136235673003   -0.0238147278371    0.99730516321       -0.0652095707133    0.99730516321       -0.0652095707133    -0.00136235673003   -0.0238147278371    
6900000000.0        -0.00140893716654   -0.0241645567712    0.997232501142      -0.0661698413003    0.997232501142      -0.0661698413003    -0.00140893716654   -0.0241645567712    
7000000000.0        -0.00145619721399   -0.0245143443927    0.997158782265      -0.0671301329958    0.997158782265      -0.0671301329958    -0.00145619721399   -0.0245143443927    
7100000000.0        -0.00150413692838   -0.0248640891353    0.997084006334      -0.0680904447073    0.997084006334      -0.0680904447073    -0.00150413692838   -0.0248640891353    
7200000000.0        -0.00155275636228   -0.0252137894226    0.997008173102      -0.0690507753289    0.997008173102      -0.0690507753289    -0.00155275636228   -0.0252137894226    
7300000000.0        -0.00160205556475   -0.0255634436679    0.996931282331      -0.0700111237411    0.996931282331      -0.0700111237411    -0.00160205556475   -0.0255634436679    
7400000000.0        -0.00165203458124   -0.025913050275     0.996853333782      -0.0709714888116    0.996853333782      -0.0709714888116    -0.00165203458124   -0.025913050275     
7500000000.0        -0.00170269345351   -0.0262626076377    0.996774327222      -0.0719318693953    0.996774327222      -0.0719318693953    -0.00170269345351   -0.0262626076377    
7600000000.0        -0.00175403221955   -0.0266121141405    0.996694262422      -0.0728922643348    0.996694262422      -0.0728922643348    -0.00175403221955   -0.0266121141405    
7700000000.0        -0.00180605091346   -0.0269615681588    0.996613139157      -0.0738526724604    0.996613139157      -0.0738526724604    -0.00180605091346   -0.0269615681588    
7800000000.0        -0.00185874956543   -0.0273109680589    0.996530957203      -0.0748130925905    0.996530957203      -0.0748130925905    -0.00185874956543   -0.0273109680589    
7900000000.0        -0.00191212820164   -0.0276603121982    0.996447716342      -0.0757735235322    0.996447716342      -0.0757735235322    -0.00191212820164   -0.0276603121982    
8000000000.0        -0.00196618684415   -0.0280095989257    0.99636341636       -0.0767339640809    0.99636341636       -0.0767339640809    -0.00196618684415   -0.0280095989257    
8100000000.0        -0.00202092551091   -0.0283588265818    0.996278057045      -0.077694413021     0.996278057045      -0.077694413021     -0.00202092551091   -0.0283588265818    
8200000000.0        -0.00207634421562   -0.0287079934986    0.99619163819       -0.078654869126     0.99619163819       -0.078654869126     -0.00207634421562   -0.0287079934986    
8300000000.0        -0.0021324429677    -0.0290570980005    0.996104159592      -0.0796153311588    0.996104159592      -0.0796153311588    -0.0021324429677    -0.0290570980005    
8400000000.0        -0.00218922177224   -0.0294061384036    0.99601562105       -0.0805757978719    0.99601562105       -0.0805757978719    -0.00218922177225   -0.0294061384036    
8500000000.0        -0.00224668062993   -0.0297551130166    0.995926022369      -0.0815362680076    0.995926022369      -0.0815362680076    -0.00224668062993   -0.0297551130166    
8600000000.0        -0.00230481953697   -0.0301040201404    0.995835363356      -0.0824967402983    0.995835363356      -0.0824967402983    -0.00230481953697   -0.0301040201404    
8700000000.0        -0.00236363848509   -0.0304528580688    0.995743643824      -0.0834572134664    0.995743643824      -0.0834572134664    -0.00236363848509   -0.0304528580688    
8800000000.0        -0.00242313746142   -0.0308016250883    0.995650863587      -0.084417686225     0.995650863587      -0.084417686225     -0.00242313746142   -0.0308016250883    
8900000000.0        -0.00248331644849   -0.0311503194783    0.995557022466      -0.0853781572779    0.995557022466      -0.0853781572779    -0.00248331644849   -0.0311503194783    
9000000000.0        -0.00254417542417   -0.0314989395114    0.995462120283      -0.0863386253196    0.995462120283      -0.0863386253196    -0.00254417542417   -0.0314989395114    
9100000000.0        -0.00260571436161   -0.0318474834533    0.995366156866      -0.0872990890358    0.995366156866      -0.0872990890358    -0.00260571436162   -0.0318474834533    
9200000000.0        -0.00266793322923   -0.0321959495634    0.995269132046      -0.0882595471033    0.995269132046      -0.0882595471033    -0.00266793322923   -0.0321959495634    
9300000000.0        -0.0027308319906    -0.0325443360945    0.995171045658      -0.0892199981904    0.995171045658      -0.0892199981904    -0.0027308319906    -0.0325443360945    
9400000000.0        -0.00279441060451   -0.0328926412931    0.995071897541      -0.090180440957     0.995071897541      -0.090180440957     -0.00279441060451   -0.0328926412931    
9500000000.0        -0.00285866902483   -0.0332408633996    0.994971687538      -0.0911408740551    0.994971687538      -0.0911408740551    -0.00285866902483   -0.0332408633996    
9600000000.0        -0.00292360720053   -0.0335890006484    0.994870415496      -0.0921012961282    0.994870415496      -0.0921012961282    -0.00292360720053   -0.0335890006484    
9700000000.0        -0.0029892250756    -0.033937051268     0.994768081267      -0.0930617058123    0.994768081267      -0.0930617058123    -0.0029892250756    -0.033937051268     
9800000000.0        -0.00305552258907   -0.0342850134813    0.994664684705      -0.0940221017355    0.994664684705      -0.0940221017355    -0.00305552258907   -0.0342850134813    
9900000000.0        -0.00312249967492   -0.0346328855054    0.994560225669      -0.0949824825186    0.994560225669      -0.0949824825186    -0.00312249967492   -0.0346328855054    
10000000000.0       -0.00319015626206   -0.0349806655521    0.994454704023      -0.0959428467749    0.994454704023      -0.0959428467749    -0.00319015626206   -0.0349806655521    
