# Hz S RI R 50.00 
100000000.0         0.0513535027177     0.00399085616042    0.948643970826      -0.00504448962749   0.948643970826      -0.00504448962749   0.0513535027177     0.00399085616042    
200000000.0         0.0517378797753     0.00797500662233    0.948256936827      -0.0100822857959    0.948256936827      -0.0100822857959    0.0517378797753     0.00797500662233    
300000000.0         0.0520774095492     0.0119543663231     0.9479136193        -0.0151153126141    0.9479136193        -0.0151153126141    0.0520774095492     0.0119543663231     
400000000.0         0.0524146037271     0.0159292233119     0.947571506268      -0.0201438660614    0.947571506268      -0.0201438660614    0.0524146037271     0.0159292233119     
500000000.0         0.052765828458      0.0198994881186     0.947214231292      -0.025167863971     0.947214231292      -0.025167863971     0.052765828458      0.0198994881186     
600000000.0         0.0531394094406     0.0238649049209     0.946833468374      -0.0301870574134    0.946833468374      -0.0301870574134    0.0531394094406     0.0238649049209     
700000000.0         0.0535402381559     0.0278251274976     0.946424325716      -0.0352011067591    0.946424325716      -0.0352011067591    0.0535402381559     0.0278251274976     
800000000.0         0.0539714541617     0.031779754552      0.945983663425      -0.0402096170686    0.945983663425      -0.0402096170686    0.0539714541617     0.031779754552      
900000000.0         0.0544351946142     0.0357283487725     0.945509343987      -0.0452121571961    0.945509343987      -0.0452121571961    0.0544351946142     0.0357283487725     
1000000000.0        0.0549329744162     0.0396704481967     0.944999852119      -0.0502082711844    0.944999852119      -0.0502082711844    0.0549329744162     0.0396704481967     
1100000000.0        0.0554658976698     0.0436055735005     0.944454083318      -0.0551974855769    0.944454083318      -0.0551974855769    0.0554658976698     0.0436055735005     
1200000000.0        0.0560347837587     0.0475332329471     0.943871217773      -0.060179314383     0.943871217773      -0.060179314383     0.0560347837587     0.0475332329471     
1300000000.0        0.0566402467347     0.0514529259019     0.943250640984      -0.0651532626077    0.943250640984      -0.0651532626077    0.0566402467347     0.0514529259019     
1400000000.0        0.057282747546      0.0553641454281     0.942591891529      -0.0701188288575    0.942591891529      -0.0701188288575    0.057282747546      0.0553641454281     
1500000000.0        0.0579626296684     0.0592663802645     0.941894625436      -0.0750755073275    0.941894625436      -0.0750755073275    0.0579626296684     0.0592663802645     
1600000000.0        0.058680144168      0.0631591163773     0.941158591118      -0.0800227893605    0.941158591118      -0.0800227893605    0.058680144168      0.0631591163773     
1700000000.0        0.0594354677968     0.0670418382067     0.940383611277      -0.0849601647004    0.940383611277      -0.0849601647004    0.0594354677968     0.0670418382067     
1800000000.0        0.0602287163592     0.0709140296914     0.939569569543      -0.0898871225218    0.939569569543      -0.0898871225218    0.0602287163592     0.0709140296914     
1900000000.0        0.0610599547854     0.0747751751267     0.93871640039       -0.0948031522926    0.93871640039       -0.0948031522926    0.0610599547854     0.0747751751267     
2000000000.0        0.0619292048584     0.0786247598949     0.937824081421      -0.0997077445096    0.937824081421      -0.0997077445096    0.0619292048584     0.0786247598949     
2100000000.0        0.0628364512397     0.0824622710985     0.936892627335      -0.104600391334     0.936892627335      -0.104600391334     0.0628364512397     0.0824622710985     
2200000000.0        0.0637816462359     0.0862871981146     0.93592208516       -0.10948058715      0.93592208516       -0.10948058715      0.0637816462359     0.0862871981146     
2300000000.0        0.064764713622      0.090099033087      0.934912530434      -0.11434782906      0.934912530434      -0.11434782906      0.064764713622      0.090099033087      
2400000000.0        0.0657855517463     0.0938972713681     0.933864064099      -0.119201617327     0.933864064099      -0.119201617327     0.0657855517463     0.0938972713681     
2500000000.0        0.0668440360834     0.0976814119181     0.932776809946      -0.124041455779     0.932776809946      -0.124041455779     0.0668440360834     0.0976814119181     
2600000000.0        0.0679400213549     0.10145095767       0.931650912495      -0.128866852175     0.931650912495      -0.128866852175     0.0679400213549     0.10145095767       
2700000000.0        0.069073343312      0.105205415862      0.930486535215      -0.13367731854      0.930486535215      -0.13367731854      0.069073343312      0.105205415862      
2800000000.0        0.0702438202492     0.108944298352      0.929283859007      -0.138472371478     0.929283859007      -0.138472371478     0.0702438202492     0.108944298352      
2900000000.0        0.0714512543011     0.112667121899      0.928043080908      -0.143251532459     0.928043080908      -0.143251532459     0.0714512543011     0.112667121899      
3000000000.0        0.0726954325657     0.116373408432      0.926764412972      -0.148014328089     0.926764412972      -0.148014328089     0.0726954325657     0.116373408432      
3100000000.0        0.0739761280861     0.120062685303      0.92544808128       -0.152760290361     0.92544808128       -0.152760290361     0.0739761280861     0.120062685303      
3200000000.0        0.0752931007158     0.123734485518      0.924094325083      -0.157488956893     0.924094325083      -0.157488956893     0.0752931007158     0.123734485518      
3300000000.0        0.0766460978886     0.127388347961      0.922703396029      -0.162199871147     0.922703396029      -0.162199871147     0.0766460978886     0.127388347961      
3400000000.0        0.078034855309      0.131023817597      0.921275557471      -0.166892582637     0.921275557471      -0.166892582637     0.078034855309      0.131023817597      
3500000000.0        0.0794590975771     0.134640445671      0.919811083843      -0.171566647131     0.919811083843      -0.171566647131     0.0794590975771     0.134640445671      
3600000000.0        0.080918538758      0.138237789895      0.918310260093      -0.176221626829     0.918310260093      -0.176221626829     0.080918538758      0.138237789895      
3700000000.0        0.0824128829042     0.141815414613      0.916773381159      -0.180857090545     0.916773381159      -0.180857090545     0.0824128829042     0.141815414613      
3800000000.0        0.0839418245392     0.145372890976      0.915200751485      -0.185472613867     0.915200751485      -0.185472613867     0.0839418245392     0.145372890976      
3900000000.0        0.0855050491078     0.148909797089      0.91359268457       -0.190067779316     0.91359268457       -0.190067779316     0.0855050491078     0.148909797089      
4000000000.0        0.0871022333971     0.152425718161      0.91194950255       -0.194642176491     0.91194950255       -0.194642176491     0.0871022333971     0.152425718161      
4100000000.0        0.0887330459338     0.15592024664       0.910271535798      -0.199195402205     0.910271535798      -0.199195402205     0.0887330459338     0.15592024664       
4200000000.0        0.0903971473598     0.159392982344      0.908559122549      -0.203727060621     0.908559122549      -0.203727060621     0.0903971473598     0.159392982344      
4300000000.0        0.0920941907905     0.16284353258       0.906812608544      -0.208236763368     0.906812608544      -0.208236763368     0.0920941907905     0.16284353258       
4400000000.0        0.093823822156      0.166271512259      0.905032346685      -0.212724129657     0.905032346685      -0.212724129657     0.093823822156      0.166271512259      
4500000000.0        0.0955856805295     0.169676544003      0.90321869671       -0.217188786387     0.90321869671       -0.217188786387     0.0955856805295     0.169676544003      
4600000000.0        0.0973793984433     0.173058258238      0.901372024875      -0.221630368244     0.901372024875      -0.221630368244     0.0973793984433     0.173058258238      
4700000000.0        0.0992046021934     0.176416293292      0.899492703651      -0.226048517796     0.899492703651      -0.226048517796     0.0992046021934     0.176416293292      
4800000000.0        0.101060912136      0.179750295475      0.897581111425      -0.230442885572     0.897581111425      -0.230442885572     0.101060912136      0.179750295475      
4900000000.0        0.102947942973      0.183059919159      0.895637632218      -0.234813130144     0.895637632218      -0.234813130144     0.102947942973      0.183059919159      
5000000000.0        0.104865304034      0.186344826846      0.893662655401      -0.239158918197     0.893662655401      -0.239158918197     0.104865304034      0.186344826846      
5100000000.0        0.106812599546      0.189604689235      0.891656575423      -0.243479924597     0.891656575423      -0.243479924597     0.106812599546      0.189604689235      
5200000000.0        0.108789428903      0.192839185277      0.889619791549      -0.247775832442     0.889619791549      -0.247775832442     0.108789428903      0.192839185277      
5300000000.0        0.110795386922      0.196048002231      0.887552707593      -0.252046333122     0.887552707593      -0.252046333122     0.110795386922      0.196048002231      
5400000000.0        0.112830064103      0.199230835702      0.88545573167       -0.256291126357     0.88545573167       -0.256291126357     0.112830064103      0.199230835702      
5500000000.0        0.114893046875      0.202387389689      0.88332927594       -0.260509920244     0.88332927594       -0.260509920244     0.114893046875      0.202387389689      
5600000000.0        0.116983917844      0.205517376609      0.881173756364      -0.264702431284     0.881173756364      -0.264702431284     0.116983917844      0.205517376609      
5700000000.0        0.119102256034      0.208620517331      0.878989592468      -0.268868384416     0.878989592468      -0.268868384416     0.119102256034      0.208620517331      
5800000000.0        0.12124763712       0.211696541196      0.876777207097      -0.273007513032     0.876777207097      -0.273007513032     0.12124763712       0.211696541196      
5900000000.0        0.123419633668      0.214745186032      0.874537026192      -0.277119558999     0.874537026192      -0.277119558999     0.123419633668      0.214745186032      
6000000000.0        0.125617815356      0.217766198162      0.872269478552      -0.281204272667     0.872269478552      -0.281204272667     0.125617815356      0.217766198162      
6100000000.0        0.127841749204      0.220759332416      0.869974995618      -0.285261412876     0.869974995618      -0.285261412876     0.127841749204      0.220759332416      
6200000000.0        0.130090999795      0.223724352122      0.867654011244      -0.289290746952     0.867654011244      -0.289290746952     0.130090999795      0.223724352122      
6300000000.0        0.13236512949       0.226661029108      0.865306961483      -0.293292050709     0.865306961483      -0.293292050709     0.13236512949       0.226661029108      
6400000000.0        0.134663698647      0.229569143686      0.862934284372      -0.29726510843      0.862934284372      -0.29726510843      0.134663698647      0.229569143686      
6500000000.0        0.136986265825      0.232448484641      0.860536419723      -0.301209712859     0.860536419723      -0.301209712859     0.136986265825      0.232448484641      
6600000000.0        0.139332387998      0.235298849205      0.858113808913      -0.305125665178     0.858113808913      -0.305125665178     0.139332387998      0.235298849205      
6700000000.0        0.141701620753      0.238120043038      0.85566689468       -0.309012774982     0.85566689468       -0.309012774982     0.141701620753      0.238120043038      
6800000000.0        0.144093518496      0.240911880193      0.853196120927      -0.312870860248     0.853196120927      -0.312870860248     0.144093518496      0.240911880193      
6900000000.0        0.146507634643      0.243674183088      0.850701932521      -0.316699747306     0.850701932521      -0.316699747306     0.146507634643      0.243674183088      
7000000000.0        0.148943521817      0.246406782459      0.848184775102      -0.320499270796     0.848184775102      -0.320499270796     0.148943521817      0.246406782459      
7100000000.0        0.151400732036      0.249109517326      0.845645094892      -0.324269273627     0.845645094892      -0.324269273627     0.151400732036      0.249109517326      
7200000000.0        0.153878816901      0.251782234938      0.843083338509      -0.328009606931     0.843083338509      -0.328009606931     0.153878816901      0.251782234938      
7300000000.0        0.156377327778      0.25442479073       0.840499952785      -0.331720130012     0.840499952785      -0.331720130012     0.156377327778      0.25442479073       
7400000000.0        0.158895815974      0.257037048262      0.837895384586      -0.335400710291     0.837895384586      -0.335400710291     0.158895815974      0.257037048262      
7500000000.0        0.161433832921      0.259618879163      0.835270080635      -0.339051223248     0.835270080635      -0.339051223248     0.161433832921      0.259618879163      
7600000000.0        0.163990930338      0.262170163069      0.832624487343      -0.34267155236      0.832624487343      -0.34267155236      0.163990930338      0.262170163069      
7700000000.0        0.166566660407      0.264690787557      0.829959050638      -0.346261589036     0.829959050638      -0.346261589036     0.166566660407      0.264690787557      
7800000000.0        0.169160575935      0.267180648076      0.827274215799      -0.349821232547     0.827274215799      -0.349821232547     0.169160575935      0.267180648076      
7900000000.0        0.171772230515      0.269639647874      0.8245704273        -0.353350389956     0.8245704273        -0.353350389956     0.171772230515      0.269639647874      
8000000000.0        0.174401178687      0.272067697924      0.821848128644      -0.356848976041     0.821848128644      -0.356848976041     0.174401178687      0.272067697924      
8100000000.0        0.177046976086      0.274464716844      0.819107762218      -0.360316913217     0.819107762218      -0.360316913217     0.177046976086      0.274464716844      
8200000000.0        0.179709179598      0.27683063082       0.816349769133      -0.363754131458     0.816349769133      -0.363754131458     0.179709179598      0.27683063082       
8300000000.0        0.182387347505      0.279165373514      0.813574589088      -0.367160568208     0.813574589088      -0.367160568208     0.182387347505      0.279165373514      
8400000000.0        0.185081039625      0.281468885985      0.810782660217      -0.370536168298     0.810782660217      -0.370536168298     0.185081039625      0.281468885985      
8500000000.0        0.187789817456      0.283741116598      0.807974418956      -0.373880883858     0.807974418956      -0.373880883858     0.187789817456      0.283741116598      
8600000000.0        0.19051324431       0.285982020929      0.805150299905      -0.377194674222     0.805150299905      -0.377194674222     0.19051324431       0.285982020929      
8700000000.0        0.193250885442      0.288191561676      0.802310735696      -0.380477505837     0.802310735696      -0.380477505837     0.193250885442      0.288191561676      
8800000000.0        0.196002308183      0.29036970856       0.799456156867      -0.38372935217      0.799456156867      -0.38372935217      0.196002308183      0.29036970856       
8900000000.0        0.198767082059      0.292516438229      0.796586991734      -0.386950193603     0.796586991734      -0.386950193603     0.198767082059      0.292516438229      
9000000000.0        0.201544778917      0.294631734157      0.793703666273      -0.390140017341     0.793703666273      -0.390140017341     0.201544778917      0.294631734157      
9100000000.0        0.204334973039      0.296715586544      0.790806604003      -0.393298817306     0.790806604003      -0.393298817306     0.204334973039      0.296715586544      
9200000000.0        0.207137241255      0.298767992211      0.787896225869      -0.396426594036     0.787896225869      -0.396426594036     0.207137241255      0.298767992211      
9300000000.0        0.209951163054      0.300788954496      0.784972950138      -0.39952335458      0.784972950138      -0.39952335458      0.209951163054      0.300788954496      
9400000000.0        0.212776320691      0.302778483149      0.782037192288      -0.402589112393     0.782037192288      -0.402589112393     0.212776320691      0.302778483149      
9500000000.0        0.215612299286      0.304736594223      0.779089364909      -0.405623887226     0.779089364909      -0.405623887226     0.215612299286      0.304736594223      
9600000000.0        0.218458686925      0.306663309968      0.776129877602      -0.40862770502      0.776129877602      -0.40862770502      0.218458686925      0.306663309968      
9700000000.0        0.221315074755      0.308558658716      0.773159136886      -0.411600597796     0.773159136886      -0.411600597796     0.221315074755      0.308558658716      
9800000000.0        0.224181057073      0.310422674776      0.770177546105      -0.414542603545     0.770177546105      -0.414542603545     0.224181057073      0.310422674776      
9900000000.0        0.227056231419      0.312255398319      0.767185505339      -0.417453766114     0.767185505339      -0.417453766114     0.227056231419      0.312255398319      
10000000000.0       0.229940198655      0.314056875269      0.764183411324      -0.420334135096     0.764183411324      -0.420334135096     0.229940198655      0.314056875269      
