# Hz S RI R 50.00 
100000000.0         0.00254092920697    0.000886378448775   0.997451612903      -0.00366063536001   0.997451612903      -0.00366063536001   0.00254092920697    0.000886378448775   
200000000.0         0.00256634960609    0.00177255568629    0.997412031194      -0.007321084281     0.997412031194      -0.007321084281     0.00256634960609    0.00177255568629    
300000000.0         0.002593825062      0.00265854130235    0.997362690386      -0.010981364202     0.997362690386      -0.010981364202     0.002593825062      0.00265854130235    
400000000.0         0.00262555236025    0.00354430544127    0.997301392889      -0.0146414479041    0.997301392889      -0.0146414479041    0.00262555236025    0.00354430544127    
500000000.0         0.00266237593251    0.00442980935281    0.997227293314      -0.0183012966273    0.997227293314      -0.0183012966273    0.00266237593251    0.00442980935281    
600000000.0         0.00270472507113    0.00531501047577    0.997139961266      -0.0219608660571    0.997139961266      -0.0219608660571    0.00270472507113    0.00531501047577    
700000000.0         0.00275285209067    0.00619986424136    0.997039143202      -0.0256201085899    0.997039143202      -0.0256201085899    0.00275285209067    0.00619986424136    
800000000.0         0.00280691921739    0.00708432489956    0.996924675549      -0.0292789744356    0.996924675549      -0.0292789744356    0.00280691921739    0.00708432489956    
900000000.0         0.00286703726251    0.00796834595744    0.996796446038      -0.0329374122394    0.996796446038      -0.0329374122394    0.00286703726251    0.00796834595744    
1000000000.0        0.0029332852176     0.00885188043574    0.996654374116      -0.0365953694664    0.996654374116      -0.0365953694664    0.0029332852176     0.00885188043574    
1100000000.0        0.00300572114327    0.00973488102988    0.996498400064      -0.0402527926584    0.996498400064      -0.0402527926584    0.00300572114327    0.00973488102988    
1200000000.0        0.0030843886551     0.0106173002167     0.996328478517      -0.0439096276129    0.996328478517      -0.0439096276129    0.0030843886551     0.0106173002167     
1300000000.0        0.00316932100278    0.0114990903284     0.996144574389      -0.0475658195149    0.996144574389      -0.0475658195149    0.00316932100278    0.0114990903284     
1400000000.0        0.00326054375042    0.0123802036054     0.995946660196      -0.0512213130357    0.995946660196      -0.0512213130357    0.00326054375042    0.0123802036054     
1500000000.0        0.00335807660236    0.0132605922355     0.995734714235      -0.05487605241      0.995734714235      -0.05487605241      0.00335807660236    0.0132605922355     
1600000000.0        0.00346193468524    0.0141402083832     0.995508719306      -0.0585299814976    0.995508719306      -0.0585299814976    0.00346193468524    0.0141402083832     
1700000000.0        0.00357212947165    0.0150190042133     0.995268661792      -0.0621830438326    0.995268661792      -0.0621830438326    0.00357212947165    0.0150190042133     
1800000000.0        0.00368866946061    0.0158969319087     0.995014530979      -0.0658351826655    0.995014530979      -0.0658351826655    0.00368866946061    0.0158969319087     
1900000000.0        0.00381156068873    0.0167739436851     0.994746318551      -0.0694863409968    0.994746318551      -0.0694863409968    0.00381156068873    0.0167739436851     
2000000000.0        0.00394080712075    0.0176499918032     0.9944640182        -0.0731364616073    0.9944640182        -0.0731364616073    0.00394080712075    0.0176499918032     
2100000000.0        0.00407641095251    0.0185250285787     0.994167625324      -0.0767854870829    0.994167625324      -0.0767854870829    0.00407641095252    0.0185250285787     
2200000000.0        0.00421837284929    0.019399006391      0.993857136798      -0.0804333598369    0.993857136798      -0.0804333598369    0.00421837284929    0.019399006391      
2300000000.0        0.00436669213541    0.0202718776904     0.993532550776      -0.0840800221295    0.993532550776      -0.0840800221295    0.00436669213541    0.0202718776904     
2400000000.0        0.00452136694699    0.0211435950048     0.99319386655       -0.087725416085     0.99319386655       -0.087725416085     0.00452136694699    0.0211435950048     
2500000000.0        0.00468239435612    0.0220141109448     0.992841084423      -0.091369483707     0.992841084423      -0.091369483707     0.00468239435612    0.0220141109448     
2600000000.0        0.00484977047275    0.0228833782096     0.99247420561       -0.095012166893     0.99247420561       -0.095012166893     0.00484977047275    0.0228833782096     
2700000000.0        0.00502349052912    0.0237513495908     0.992093232153      -0.0986534074461    0.992093232153      -0.0986534074461    0.00502349052912    0.0237513495908     
2800000000.0        0.00520354895013    0.0246179779771     0.991698166858      -0.102293147088     0.991698166858      -0.102293147088     0.00520354895013    0.0246179779771     
2900000000.0        0.00538993941262    0.0254832163581     0.991289013232      -0.105931327467     0.991289013232      -0.105931327467     0.00538993941262    0.0254832163581     
3000000000.0        0.00558265489541    0.0263470178279     0.990865775437      -0.109567890171     0.990865775437      -0.109567890171     0.00558265489541    0.0263470178279     
3100000000.0        0.00578168772209    0.0272093355882     0.990428458248      -0.113202776735     0.990428458248      -0.113202776735     0.00578168772209    0.0272093355882     
3200000000.0        0.00598702959761    0.028070122952      0.989977067019      -0.116835928649     0.989977067019      -0.116835928649     0.00598702959761    0.028070122952      
3300000000.0        0.00619867163986    0.0289293333462     0.98951160765       -0.120467287367     0.98951160765       -0.120467287367     0.00619867163986    0.0289293333462     
3400000000.0        0.00641660440713    0.0297869203148     0.989032086566      -0.124096794315     0.989032086566      -0.124096794315     0.00641660440713    0.0297869203148     
3500000000.0        0.00664081792196    0.0306428375216     0.988538510688      -0.127724390895     0.988538510688      -0.127724390895     0.00664081792196    0.0306428375216     
3600000000.0        0.00687130169212    0.0314970387529     0.988030887418      -0.131350018497     0.988030887418      -0.131350018497     0.00687130169212    0.0314970387529     
3700000000.0        0.00710804472905    0.0323494779203     0.98750922462       -0.1349736185       0.98750922462       -0.1349736185       0.00710804472905    0.0323494779203     
3800000000.0        0.0073510355642     0.0332001090628     0.986973530606      -0.13859513228      0.986973530606      -0.13859513228      0.0073510355642     0.0332001090628     
3900000000.0        0.00760026226355    0.0340488863498     0.98642381412       -0.142214501219     0.98642381412       -0.142214501219     0.00760026226355    0.0340488863498     
4000000000.0        0.00785571244065    0.0348957640833     0.985860084329      -0.145831666704     0.985860084329      -0.145831666704     0.00785571244065    0.0348957640833     
4100000000.0        0.00811737326819    0.0357406967003     0.985282350812      -0.149446570138     0.985282350812      -0.149446570138     0.00811737326819    0.0357406967003     
4200000000.0        0.00838523148857    0.0365836387753     0.984690623548      -0.153059152943     0.984690623548      -0.153059152943     0.00838523148857    0.0365836387753     
4300000000.0        0.0086592734234     0.0374245450224     0.98408491291       -0.156669356564     0.98408491291       -0.156669356564     0.0086592734234     0.0374245450224     
4400000000.0        0.00893948498209    0.0382633702977     0.983465229655      -0.160277122476     0.983465229655      -0.160277122476     0.00893948498209    0.0382633702977     
4500000000.0        0.00922585166983    0.0391000696016     0.982831584922      -0.163882392185     0.982831584922      -0.163882392185     0.00922585166983    0.0391000696016     
4600000000.0        0.00951835859477    0.039934598081      0.98218399022       -0.167485107238     0.98218399022       -0.167485107238     0.00951835859477    0.039934598081      
4700000000.0        0.00981699047467    0.0407669110314     0.981522457423      -0.171085209222     0.981522457423      -0.171085209222     0.00981699047467    0.0407669110314     
4800000000.0        0.0101217316431     0.0415969638994     0.980846998769      -0.174682639768     0.980846998769      -0.174682639768     0.0101217316431     0.0415969638994     
4900000000.0        0.0104325660551     0.0424247122843     0.98015762685       -0.178277340563     0.98015762685       -0.178277340563     0.0104325660551     0.0424247122843     
5000000000.0        0.0107494772925     0.043250111941      0.979454354612      -0.181869253342     0.979454354612      -0.181869253342     0.0107494772925     0.043250111941      
5100000000.0        0.011072448569      0.0440731187814     0.978737195347      -0.185458319902     0.978737195347      -0.185458319902     0.011072448569      0.0440731187814     
5200000000.0        0.0114014627345     0.0448936888772     0.978006162691      -0.1890444821       0.978006162691      -0.1890444821       0.0114014627345     0.0448936888772     
5300000000.0        0.01173650228       0.0457117784613     0.977261270619      -0.192627681859     0.977261270619      -0.192627681859     0.01173650228       0.0457117784613     
5400000000.0        0.0120775493412     0.0465273439305     0.976502533446      -0.196207861172     0.976502533446      -0.196207861172     0.0120775493412     0.0465273439305     
5500000000.0        0.0124245857028     0.0473403418473     0.975729965816      -0.199784962102     0.975729965816      -0.199784962102     0.0124245857028     0.0473403418473     
5600000000.0        0.0127775928022     0.0481507289418     0.974943582707      -0.203358926791     0.974943582707      -0.203358926791     0.0127775928022     0.0481507289418     
5700000000.0        0.0131365517326     0.0489584621141     0.974143399422      -0.206929697457     0.974143399422      -0.206929697457     0.0131365517326     0.0489584621141     
5800000000.0        0.0135014432473     0.0497634984362     0.973329431592      -0.210497216404     0.973329431592      -0.210497216404     0.0135014432473     0.0497634984362     
5900000000.0        0.013872247762      0.0505657951539     0.972501695165      -0.214061426018     0.972501695165      -0.214061426018     0.013872247762      0.0505657951539     
6000000000.0        0.0142489453586     0.0513653096888     0.971660206415      -0.217622268778     0.971660206415      -0.217622268778     0.0142489453586     0.0513653096888     
6100000000.0        0.014631515788      0.0521619996407     0.970804981927      -0.221179687252     0.970804981927      -0.221179687252     0.014631515788      0.0521619996407     
6200000000.0        0.0150199384731     0.0529558227891     0.969936038605      -0.224733624104     0.969936038605      -0.224733624104     0.0150199384731     0.0529558227891     
6300000000.0        0.0154141925113     0.0537467370953     0.969053393665      -0.228284022096     0.969053393665      -0.228284022096     0.0154141925114     0.0537467370953     
6400000000.0        0.0158142566781     0.0545347007047     0.968157064632      -0.231830824092     0.968157064632      -0.231830824092     0.0158142566781     0.0545347007047     
6500000000.0        0.0162201094289     0.0553196719481     0.967247069341      -0.235373973057     0.967247069341      -0.235373973057     0.0162201094289     0.0553196719481     
6600000000.0        0.016631728902      0.0561016093445     0.966323425932      -0.238913412066     0.966323425932      -0.238913412066     0.016631728902      0.0561016093445     
6700000000.0        0.0170490929214     0.0568804716021     0.965386152849      -0.242449084301     0.965386152849      -0.242449084301     0.0170490929214     0.0568804716021     
6800000000.0        0.0174721789988     0.057656217621      0.964435268841      -0.245980933058     0.964435268841      -0.245980933058     0.0174721789988     0.057656217621      
6900000000.0        0.0179009643367     0.0584288064947     0.963470792953      -0.249508901746     0.963470792953      -0.249508901746     0.0179009643367     0.0584288064947     
7000000000.0        0.0183354258304     0.0591981975119     0.962492744531      -0.253032933894     0.962492744531      -0.253032933894     0.0183354258304     0.0591981975119     
7100000000.0        0.0187755400702     0.0599643501589     0.961501143218      -0.256552973148     0.961501143218      -0.256552973148     0.0187755400702     0.0599643501589     
7200000000.0        0.0192212833446     0.0607272241209     0.96049600895       -0.260068963279     0.96049600895       -0.260068963279     0.0192212833446     0.0607272241209     
7300000000.0        0.0196726316418     0.0614867792841     0.959477361957      -0.263580848183     0.959477361957      -0.263580848183     0.0196726316418     0.0614867792841     
7400000000.0        0.0201295606523     0.0622429757375     0.958445222758      -0.267088571883     0.958445222758      -0.267088571883     0.0201295606523     0.0622429757375     
7500000000.0        0.0205920457712     0.0629957737748     0.957399612163      -0.270592078532     0.957399612163      -0.270592078532     0.0205920457712     0.0629957737748     
7600000000.0        0.0210600621007     0.0637451338964     0.956340551269      -0.274091312416     0.956340551269      -0.274091312416     0.0210600621007     0.0637451338964     
7700000000.0        0.0215335844518     0.0644910168106     0.955268061458      -0.277586217956     0.955268061458      -0.277586217956     0.0215335844518     0.0644910168106     
7800000000.0        0.0220125873471     0.0652333834361     0.954182164396      -0.281076739711     0.954182164396      -0.281076739711     0.0220125873471     0.0652333834361     
7900000000.0        0.0224970450225     0.0659721949032     0.95308288203       -0.284562822377     0.95308288203       -0.284562822377     0.0224970450225     0.0659721949032     
8000000000.0        0.0229869314299     0.066707412556      0.951970236589      -0.288044410795     0.951970236589      -0.288044410795     0.0229869314299     0.066707412556      
8100000000.0        0.0234822202389     0.067438997954      0.950844250579      -0.291521449949     0.950844250579      -0.291521449949     0.0234822202389     0.067438997954      
8200000000.0        0.0239828848394     0.0681669128738     0.949704946783      -0.294993884968     0.949704946783      -0.294993884968     0.0239828848394     0.0681669128738     
8300000000.0        0.0244888983436     0.0688911193107     0.94855234826       -0.298461661131     0.94855234826       -0.298461661131     0.0244888983436     0.0688911193107     
8400000000.0        0.0250002335881     0.0696115794807     0.94738647834       -0.301924723868     0.94738647834       -0.301924723868     0.0250002335881     0.0696115794807     
8500000000.0        0.0255168631361     0.0703282558221     0.946207360626      -0.305383018759     0.946207360626      -0.305383018759     0.0255168631361     0.0703282558221     
8600000000.0        0.0260387592795     0.071041110997      0.94501501899       -0.308836491542     0.94501501899       -0.308836491542     0.0260387592795     0.071041110997      
8700000000.0        0.0265658940414     0.0717501078931     0.943809477571      -0.31228508811      0.943809477571      -0.31228508811      0.0265658940414     0.0717501078931     
8800000000.0        0.0270982391778     0.0724552096255     0.942590760777      -0.315728754517     0.942590760777      -0.315728754517     0.0270982391778     0.0724552096255     
8900000000.0        0.0276357661798     0.0731563795382     0.941358893278      -0.319167436974     0.941358893278      -0.319167436974     0.0276357661798     0.0731563795382     
9000000000.0        0.028178446276      0.0738535812055     0.940113900005      -0.322601081858     0.940113900005      -0.322601081858     0.028178446276      0.0738535812055     
9100000000.0        0.0287262504346     0.0745467784341     0.938855806154      -0.326029635711     0.938855806154      -0.326029635711     0.0287262504346     0.0745467784341     
9200000000.0        0.0292791493652     0.0752359352643     0.937584637176      -0.32945304524      0.937584637176      -0.32945304524      0.0292791493652     0.0752359352643     
9300000000.0        0.0298371135215     0.0759210159718     0.936300418782      -0.332871257321     0.936300418782      -0.332871257321     0.0298371135215     0.0759210159718     
9400000000.0        0.0304001131028     0.076601985069      0.935003176937      -0.336284219001     0.935003176937      -0.336284219001     0.0304001131028     0.076601985069      
9500000000.0        0.0309681180567     0.0772788073068     0.93369293786       -0.339691877497     0.93369293786       -0.339691877497     0.0309681180567     0.0772788073068     
9600000000.0        0.0315410980809     0.0779514476762     0.932369728022      -0.343094180204     0.932369728022      -0.343094180204     0.0315410980809     0.0779514476762     
9700000000.0        0.0321190226256     0.0786198714095     0.931033574143      -0.34649107469      0.931033574143      -0.34649107469      0.0321190226256     0.0786198714095     
9800000000.0        0.0327018608955     0.079284043982      0.929684503194      -0.349882508701     0.929684503194      -0.349882508701     0.0327018608955     0.079284043982      
9900000000.0        0.0332895818516     0.0799439311135     0.928322542388      -0.353268430162     0.928322542388      -0.353268430162     0.0332895818516     0.0799439311135     
10000000000.0       0.0338821542144     0.0805994987698     0.926947719188      -0.356648787179     0.926947719188      -0.356648787179     0.0338821542144     0.0805994987698     
