# Hz S RI R 50.00 
100000000.0         0.00147335851415    0.000466537566185   0.998519977169      -0.00301928411425   0.998519977169      -0.00301928411425   0.00147335851415    0.000466537566185   
200000000.0         0.00148625545053    0.000932985731011   0.998494895816      -0.00603850859819   0.998494895816      -0.00603850859819   0.00148625545053    0.000932985731011   
300000000.0         0.00149939087665    0.00139934971729    0.998463055226      -0.0090576934185    0.998463055226      -0.0090576934185    0.00149939087665    0.00139934971729    
400000000.0         0.00151404034987    0.00186561817999    0.998423178998      -0.0120768352884    0.998423178998      -0.0120768352884    0.00151404034987    0.00186561817999    
500000000.0         0.00153069429818    0.00233177634062    0.998374775709      -0.0150959240791    0.998374775709      -0.0150959240791    0.00153069429818    0.00233177634062    
600000000.0         0.00154960225113    0.0027978080852     0.998317594694      -0.0181149460729    0.998317594694      -0.0181149460729    0.00154960225113    0.0027978080852     
700000000.0         0.00157091112047    0.00326369668086    0.99825148779       -0.0211338852728    0.99825148779       -0.0211338852728    0.00157091112047    0.00326369668086    
800000000.0         0.00159471564439    0.00372942509097    0.998176358902      -0.0241527240726    0.998176358902      -0.0241527240726    0.00159471564439    0.00372942509097    
900000000.0         0.0016210808378     0.00419497613434    0.99809214156       -0.0271714436523    0.99809214156       -0.0271714436523    0.0016210808378     0.00419497613434    
1000000000.0        0.00165005336687    0.00466033257361    0.99799878756       -0.0301900242326    0.99799878756       -0.0301900242326    0.00165005336687    0.00466033257361    
1100000000.0        0.0016816678695     0.00512547716692    0.997896260644      -0.0332084452498    0.997896260644      -0.0332084452498    0.0016816678695     0.00512547716692    
1200000000.0        0.00171595071993    0.00559039269992    0.997784532747      -0.0362266854831    0.997784532747      -0.0362266854831    0.00171595071993    0.00559039269992    
1300000000.0        0.00175292239658    0.00605506200575    0.997663581633      -0.0392447231486    0.997663581633      -0.0392447231486    0.00175292239658    0.00605506200575    
1400000000.0        0.00179259903784    0.00651946797798    0.997533389346      -0.0422625359735    0.997533389346      -0.0422625359735    0.00179259903784    0.00651946797798    
1500000000.0        0.00183499350206    0.00698359357885    0.997393941152      -0.045280101254     0.997393941152      -0.045280101254     0.00183499350206    0.00698359357885    
1600000000.0        0.00188011611182    0.00744742184456    0.997245224803      -0.0482973959024    0.997245224803      -0.0482973959024    0.00188011611182    0.00744742184456    
1700000000.0        0.0019279751903     0.00791093588853    0.997087230001      -0.0513143964859    0.997087230001      -0.0513143964859    0.0019279751903     0.00791093588853    
1800000000.0        0.00197857745646    0.00837411890329    0.99691994801       -0.0543310792593    0.99691994801       -0.0543310792593    0.00197857745646    0.00837411890329    
1900000000.0        0.00203192832191    0.00883695416146    0.99674337136       -0.0573474201923    0.99674337136       -0.0573474201923    0.00203192832191    0.00883695416146    
2000000000.0        0.00208803211783    0.00929942501601    0.996557493625      -0.0603633949933    0.996557493625      -0.0603633949933    0.00208803211783    0.00929942501601    
2100000000.0        0.00214689227102    0.00976151490007    0.996362309249      -0.0633789791295    0.996362309249      -0.0633789791295    0.00214689227102    0.00976151490007    
2200000000.0        0.00220851144233    0.0102232073265     0.996157813409      -0.066394147845     0.996157813409      -0.066394147845     0.00220851144233    0.0102232073265     
2300000000.0        0.00227289163697    0.010684485887      0.995944001913      -0.0694088761765    0.995944001913      -0.0694088761765    0.00227289163697    0.010684485887      
2400000000.0        0.00234003429328    0.0111453342515     0.995720871106      -0.0724231389671    0.995720871106      -0.0724231389671    0.00234003429328    0.0111453342515     
2500000000.0        0.00240994035486    0.011605736167      0.995488417807      -0.0754369108788    0.995488417807      -0.0754369108788    0.00240994035486    0.011605736167      
2600000000.0        0.00248261032988    0.0120656754564     0.995246639248      -0.0784501664038    0.995246639248      -0.0784501664038    0.00248261032988    0.0120656754564     
2700000000.0        0.00255804434009    0.0125251360177     0.994995533029      -0.0814628798743    0.994995533029      -0.0814628798743    0.00255804434009    0.0125251360177     
2800000000.0        0.00263624216178    0.0129841018227     0.994735097079      -0.0844750254719    0.994735097079      -0.0844750254719    0.00263624216178    0.0129841018227     
2900000000.0        0.00271720326014    0.013442556916      0.994465329621      -0.087486577236     0.994465329621      -0.087486577236     0.00271720326014    0.013442556916      
3000000000.0        0.00280092681834    0.0139004854136     0.99418622915       -0.090497509071     0.99418622915       -0.090497509071     0.00280092681834    0.0139004854136     
3100000000.0        0.00288741176235    0.0143578715022     0.993897794404      -0.093507794754     0.993897794404      -0.093507794754     0.00288741176235    0.0143578715022     
3200000000.0        0.00297665678211    0.0148146994379     0.99360002435       -0.0965174079406    0.99360002435       -0.0965174079406    0.00297665678211    0.0148146994379     
3300000000.0        0.00306866034982    0.0152709535452     0.993292918163      -0.0995263221714    0.993292918163      -0.0995263221714    0.00306866034982    0.0152709535452     
3400000000.0        0.00316342073574    0.0157266182159     0.992976475216      -0.102534510877     0.992976475216      -0.102534510877     0.00316342073574    0.0157266182159     
3500000000.0        0.00326093602199    0.0161816779082     0.992650695062      -0.105541947384     0.992650695062      -0.105541947384     0.00326093602199    0.0161816779082     
3600000000.0        0.0033612041145     0.0166361171455     0.992315577431      -0.10854860492      0.992315577431      -0.10854860492      0.0033612041145     0.0166361171455     
3700000000.0        0.00346422275366    0.0170899205159     0.991971122213      -0.111554456615     0.991971122213      -0.111554456615     0.00346422275366    0.0170899205159     
3800000000.0        0.00356998952353    0.0175430726708     0.991617329456      -0.114559475511     0.991617329456      -0.114559475511     0.00356998952353    0.0175430726708     
3900000000.0        0.00367850186016    0.0179955583244     0.991254199356      -0.117563634562     0.991254199356      -0.117563634562     0.00367850186016    0.0179955583244     
4000000000.0        0.00378975705885    0.0184473622525     0.990881732254      -0.120566906637     0.990881732254      -0.120566906637     0.00378975705885    0.0184473622525     
4100000000.0        0.00390375228069    0.0188984692919     0.990499928624      -0.123569264529     0.990499928624      -0.123569264529     0.00390375228069    0.0188984692919     
4200000000.0        0.00402048455843    0.0193488643397     0.990108789077      -0.126570680953     0.990108789077      -0.126570680953     0.00402048455843    0.0193488643397     
4300000000.0        0.00413995080167    0.0197985323521     0.98970831435       -0.12957112855      0.98970831435       -0.12957112855      0.00413995080167    0.0197985323521     
4400000000.0        0.0042621478016     0.0202474583443     0.989298505308      -0.132570579893     0.989298505308      -0.132570579892     0.0042621478016     0.0202474583443     
4500000000.0        0.00438707223528    0.020695627389      0.988879362935      -0.135569007485     0.988879362935      -0.135569007485     0.00438707223528    0.020695627389      
4600000000.0        0.0045147206695     0.0211430246166     0.988450888336      -0.138566383767     0.988450888336      -0.138566383767     0.00451472066949    0.0211430246166     
4700000000.0        0.00464508956425    0.0215896352137     0.988013082732      -0.141562681119     0.988013082732      -0.141562681119     0.00464508956425    0.0215896352137     
4800000000.0        0.004778175276      0.0220354444229     0.987565947457      -0.144557871858     0.987565947457      -0.144557871858     0.004778175276      0.0220354444229     
4900000000.0        0.00491397406054    0.0224804375423     0.987109483958      -0.147551928247     0.987109483958      -0.147551928247     0.00491397406054    0.0224804375423     
5000000000.0        0.00505248207569    0.0229245999246     0.986643693795      -0.150544822494     0.986643693795      -0.150544822494     0.00505248207569    0.0229245999246     
5100000000.0        0.00519369538378    0.0233679169764     0.986168578633      -0.153536526753     0.986168578633      -0.153536526753     0.00519369538378    0.0233679169764     
5200000000.0        0.00533760995387    0.0238103741584     0.985684140247      -0.156527013129     0.985684140247      -0.156527013129     0.00533760995387    0.0238103741584     
5300000000.0        0.00548422166387    0.0242519569839     0.985190380517      -0.159516253679     0.985190380517      -0.159516253679     0.00548422166387    0.0242519569839     
5400000000.0        0.00563352630246    0.024692651019      0.984687301429      -0.162504220412     0.984687301429      -0.162504220412     0.00563352630246    0.024692651019      
5500000000.0        0.00578551957085    0.0251324418817     0.984174905072      -0.165490885292     0.984174905072      -0.165490885292     0.00578551957085    0.0251324418817     
5600000000.0        0.00594019708449    0.0255713152418     0.983653193639      -0.168476220243     0.983653193639      -0.168476220243     0.00594019708449    0.0255713152418     
5700000000.0        0.00609755437457    0.0260092568199     0.983122169426      -0.171460197145     0.983122169426      -0.171460197145     0.00609755437457    0.0260092568199     
5800000000.0        0.00625758688948    0.0264462523876     0.982581834829      -0.17444278784      0.982581834829      -0.17444278784      0.00625758688948    0.0264462523876     
5900000000.0        0.00642028999617    0.0268822877665     0.982032192345      -0.177423964132     0.982032192345      -0.177423964132     0.00642028999617    0.0268822877665     
6000000000.0        0.00658565898136    0.0273173488283     0.981473244572      -0.180403697788     0.981473244572      -0.180403697788     0.00658565898136    0.0273173488283     
6100000000.0        0.00675368905275    0.0277514214939     0.980904994208      -0.183381960542     0.980904994208      -0.183381960542     0.00675368905275    0.0277514214939     
6200000000.0        0.00692437534016    0.0281844917336     0.98032744405       -0.186358724094     0.98032744405       -0.186358724094     0.00692437534016    0.0281844917336     
6300000000.0        0.00709771289648    0.0286165455661     0.979740596994      -0.189333960109     0.979740596994      -0.189333960109     0.00709771289648    0.0286165455661     
6400000000.0        0.00727369669876    0.0290475690586     0.979144456034      -0.192307640227     0.979144456034      -0.192307640227     0.00727369669876    0.0290475690586     
6500000000.0        0.00745232164905    0.0294775483264     0.978539024261      -0.195279736055     0.978539024261      -0.195279736055     0.00745232164905    0.0294775483264     
6600000000.0        0.00763358257531    0.0299064695324     0.977924304867      -0.198250219172     0.977924304867      -0.198250219172     0.00763358257531    0.0299064695324     
6700000000.0        0.00781747423224    0.0303343188871     0.977300301139      -0.201219061133     0.977300301139      -0.201219061133     0.00781747423224    0.0303343188871     
6800000000.0        0.00800399130207    0.0307610826479     0.976667016462      -0.204186233466     0.976667016462      -0.204186233466     0.00800399130207    0.0307610826479     
6900000000.0        0.00819312839528    0.0311867471191     0.976024454317      -0.207151707673     0.976024454317      -0.207151707673     0.00819312839528    0.0311867471191     
7000000000.0        0.00838488005131    0.0316112986516     0.975372618284      -0.210115455237     0.975372618284      -0.210115455237     0.00838488005131    0.0316112986516     
7100000000.0        0.00857924073927    0.0320347236425     0.974711512037      -0.213077447615     0.974711512037      -0.213077447615     0.00857924073927    0.0320347236425     
7200000000.0        0.00877620485855    0.0324570085351     0.974041139348      -0.216037656246     0.974041139348      -0.216037656246     0.00877620485855    0.0324570085351     
7300000000.0        0.00897576673941    0.0328781398183     0.973361504085      -0.218996052547     0.973361504085      -0.218996052547     0.00897576673941    0.0328781398183     
7400000000.0        0.00917792064362    0.0332981040266     0.972672610212      -0.221952607918     0.972672610212      -0.221952607918     0.00917792064362    0.0332981040266     
7500000000.0        0.00938266076499    0.03371688774       0.971974461789      -0.224907293741     0.971974461789      -0.224907293741     0.00938266076499    0.03371688774       
7600000000.0        0.0095899812299     0.0341344775835     0.971267062973      -0.22786008138      0.971267062973      -0.22786008138      0.0095899812299     0.0341344775835     
7700000000.0        0.0097998760978     0.034550860227      0.970550418015      -0.230810942184     0.970550418015      -0.230810942184     0.0097998760978     0.034550860227      
7800000000.0        0.0100123393617     0.0349660223852     0.969824531262      -0.233759847488     0.969824531262      -0.233759847488     0.0100123393617     0.0349660223852     
7900000000.0        0.0102273649488     0.0353799508174     0.969089407157      -0.236706768612     0.969089407157      -0.236706768612     0.0102273649488     0.0353799508174     
8000000000.0        0.0104449467207     0.0357926323272     0.968345050241      -0.239651676862     0.968345050241      -0.239651676862     0.0104449467207     0.0357926323272     
8100000000.0        0.0106650784738     0.0362040537624     0.967591465145      -0.242594543535     0.967591465145      -0.242594543535     0.0106650784738     0.0362040537624     
8200000000.0        0.01088775394       0.0366142020148     0.966828656601      -0.245535339914     0.966828656601      -0.245535339914     0.01088775394       0.0366142020148     
8300000000.0        0.0111129667872     0.0370230640202     0.966056629433      -0.248474037272     0.966056629433      -0.248474037272     0.0111129667872     0.0370230640202     
8400000000.0        0.011340710619      0.0374306267581     0.965275388561      -0.251410606874     0.965275388561      -0.251410606874     0.011340710619      0.0374306267581     
8500000000.0        0.0115709789758     0.0378368772517     0.964484939001      -0.254345019974     0.964484939001      -0.254345019974     0.0115709789758     0.0378368772517     
8600000000.0        0.0118037653349     0.0382418025674     0.963685285864      -0.25727724782      0.963685285864      -0.25727724782      0.0118037653349     0.0382418025674     
8700000000.0        0.0120390631107     0.0386453898153     0.962876434357      -0.260207261652     0.962876434357      -0.260207261652     0.0120390631107     0.0386453898153     
8800000000.0        0.0122768656554     0.0390476261484     0.962058389779      -0.263135032703     0.962058389779      -0.263135032703     0.0122768656554     0.0390476261484     
8900000000.0        0.0125171662589     0.0394484987632     0.961231157528      -0.266060532201     0.961231157528      -0.266060532201     0.0125171662589     0.0394484987632     
9000000000.0        0.0127599581496     0.0398479948988     0.960394743095      -0.268983731369     0.960394743095      -0.268983731369     0.0127599581496     0.0398479948988     
9100000000.0        0.0130052344941     0.0402461018376     0.959549152067      -0.271904601427     0.959549152067      -0.271904601427     0.0130052344941     0.0402461018376     
9200000000.0        0.0132529883981     0.0406428069046     0.958694390126      -0.274823113588     0.958694390126      -0.274823113588     0.0132529883981     0.0406428069046     
9300000000.0        0.0135032129064     0.0410380974675     0.957830463048      -0.277739239067     0.957830463048      -0.277739239067     0.0135032129064     0.0410380974675     
9400000000.0        0.0137559010031     0.041431960937      0.956957376706      -0.280652949073     0.956957376706      -0.280652949073     0.0137559010031     0.041431960937      
9500000000.0        0.0140110456122     0.0418243847659     0.956075137066      -0.283564214816     0.956075137066      -0.283564214816     0.0140110456122     0.0418243847659     
9600000000.0        0.0142686395974     0.0422153564499     0.95518375019       -0.286473007503     0.95518375019       -0.286473007503     0.0142686395974     0.0422153564499     
9700000000.0        0.0145286757628     0.042604863527      0.954283222235      -0.289379298344     0.954283222235      -0.289379298344     0.0145286757628     0.042604863527      
9800000000.0        0.0147911468531     0.0429928935776     0.953373559453      -0.292283058546     0.953373559453      -0.292283058546     0.0147911468531     0.0429928935776     
9900000000.0        0.0150560455533     0.0433794342244     0.952454768192      -0.295184259321     0.952454768192      -0.295184259321     0.0150560455533     0.0433794342244     
10000000000.0       0.0153233644898     0.0437644731325     0.951526854892      -0.298082871879     0.951526854892      -0.298082871879     0.0153233644898     0.0437644731325     
