# Hz S RI R 50.00 
100000000.0         0.000503036729197   -0.000680472263492  0.999488072422      -0.00244542101139   0.999488072422      -0.00244542101139   0.000503036729196   -0.000680472263492  
200000000.0         0.000499948142691   -0.00136097292073   0.999473496504      -0.00489087926749   0.999473496504      -0.00489087926749   0.000499948142691   -0.00136097292073   
300000000.0         0.000492643856644   -0.00204150185084   0.999453361202      -0.00733639946749   0.999453361202      -0.00733639946749   0.000492643856644   -0.00204150185084   
400000000.0         0.000481561602155   -0.00272205674663   0.99942722697       -0.00978199378638   0.99942722697       -0.00978199378638   0.000481561602155   -0.00272205674663   
500000000.0         0.000466869132345   -0.00340263327038   0.999394923958      -0.012227668899     0.999394923958      -0.012227668899     0.000466869132345   -0.00340263327038   
600000000.0         0.00044865138972    -0.00408322555424   0.999356364911      -0.0146734280151    0.999356364911      -0.0146734280151    0.00044865138972    -0.00408322555424   
700000000.0         0.000426958058433   -0.00476382652093   0.999311497663      -0.0171192718585    0.999311497663      -0.0171192718585    0.000426958058432   -0.00476382652093   
800000000.0         0.000401820913628   -0.00544442809798   0.999260287826      -0.0195651992353    0.999260287826      -0.0195651992353    0.000401820913628   -0.00544442809798   
900000000.0         0.00037326154603    -0.00612502136931   0.999202711096      -0.0220112074013    0.999202711096      -0.0220112074013    0.00037326154603    -0.00612502136931   
1000000000.0        0.000341295278621   -0.00680559668715   0.999138749359      -0.024457292317     0.999138749359      -0.024457292317     0.000341295278621   -0.00680559668715   
1100000000.0        0.000305933345552   -0.00748614375815   0.999068388535      -0.0269034488344    0.999068388535      -0.0269034488344    0.000305933345552   -0.00748614375815   
1200000000.0        0.000267184192156   -0.00816665171129   0.998991617297      -0.0293496708387    0.998991617297      -0.0293496708387    0.000267184192156   -0.00816665171129   
1300000000.0        0.000225054294382   -0.00884710915303   0.998908426267      -0.0317959513597    0.998908426267      -0.0317959513597    0.000225054294382   -0.00884710915303   
1400000000.0        0.000179548698841   -0.00952750421277   0.998818807496      -0.0342422826612    0.998818807496      -0.0342422826612    0.000179548698841   -0.00952750421277   
1500000000.0        0.000130671392018   -0.0102078245812    0.998722754101      -0.0366886563146    0.998722754101      -0.0366886563146    0.000130671392018   -0.0102078245812    
1600000000.0        7.84255607189e-05   -0.0108880575431    0.998620260022      -0.0391350632598    0.998620260022      -0.0391350632598    7.84255607189e-05   -0.0108880575431    
1700000000.0        2.28137807416e-05   -0.0115681900054    0.998511319847      -0.0415814938573    0.998511319847      -0.0415814938573    2.28137807416e-05   -0.0115681900054    
1800000000.0        -3.6161843233e-05   -0.0122482085222    0.998395928675      -0.0440279379326    0.998395928675      -0.0440279379326    -3.61618432332e-05  -0.0122482085222    
1900000000.0        -9.84995717613e-05  -0.0129280993165    0.99827408203       -0.0464743848147    0.99827408203       -0.0464743848147    -9.84995717613e-05  -0.0129280993165    
2000000000.0        -0.000164197949036  -0.0136078482995    0.998145775779      -0.04892082337      0.998145775779      -0.04892082337      -0.000164197949036  -0.0136078482995    
2100000000.0        -0.00023325573896   -0.0142874410884    0.998011006085      -0.0513672420323    0.998011006085      -0.0513672420323    -0.00023325573896   -0.0142874410884    
2200000000.0        -0.000305671874319  -0.014966863022     0.997869769358      -0.0538136288288    0.997869769358      -0.0538136288288    -0.000305671874319  -0.014966863022     
2300000000.0        -0.000381445415814  -0.0156460991752    0.997722062227      -0.0562599714045    0.997722062227      -0.0562599714045    -0.000381445415814  -0.0156460991752    
2400000000.0        -0.000460575518648  -0.0163251343719    0.997567881511      -0.0587062570433    0.997567881511      -0.0587062570433    -0.000460575518647  -0.0163251343719    
2500000000.0        -0.000543061404947  -0.0170039531977    0.997407224196      -0.0611524726876    0.997407224196      -0.0611524726876    -0.000543061404947  -0.0170039531977    
2600000000.0        -0.00062890234077   -0.0176825400104    0.997240087425      -0.0635986049561    0.997240087425      -0.0635986049561    -0.00062890234077   -0.0176825400104    
2700000000.0        -0.000718097616739  -0.0183608789509    0.997066468479      -0.0660446401599    0.997066468479      -0.0660446401599    -0.000718097616739  -0.0183608789509    
2800000000.0        -0.000810646531599  -0.0190389539525    0.996886364768      -0.0684905643176    0.996886364768      -0.0684905643176    -0.000810646531598  -0.0190389539525    
2900000000.0        -0.000906548378117  -0.0197167487506    0.996699773825      -0.070936363169     0.996699773825      -0.070936363169     -0.000906548378117  -0.0197167487506    
3000000000.0        -0.00100580243091   -0.0203942468903    0.996506693295      -0.0733820221882    0.996506693295      -0.0733820221882    -0.00100580243091   -0.0203942468903    
3100000000.0        -0.00110840793588   -0.0210714317354    0.996307120934      -0.0758275265949    0.996307120934      -0.0758275265949    -0.00110840793588   -0.0210714317354    
3200000000.0        -0.00121436410091   -0.021748286475     0.9961010546        -0.0782728613664    0.9961010546        -0.0782728613664    -0.0012143641009    -0.021748286475     
3300000000.0        -0.0013236700877    -0.0224247941315    0.995888492252      -0.0807180112472    0.995888492252      -0.0807180112472    -0.0013236700877    -0.0224247941315    
3400000000.0        -0.00143632500455   -0.0231009375669    0.995669431949      -0.0831629607594    0.995669431949      -0.0831629607594    -0.00143632500455   -0.0231009375669    
3500000000.0        -0.00155232789987   -0.0237766994894    0.995443871844      -0.0856076942113    0.995443871844      -0.0856076942113    -0.00155232789987   -0.0237766994894    
3600000000.0        -0.0016716777564    -0.0244520624597    0.995211810183      -0.0880521957066    0.995211810183      -0.0880521957066    -0.0016716777564    -0.0244520624597    
3700000000.0        -0.00179437348602   -0.0251270088965    0.994973245307      -0.0904964491526    0.994973245307      -0.0904964491526    -0.00179437348602   -0.0251270088965    
3800000000.0        -0.00192041392498   -0.0258015210827    0.994728175646      -0.0929404382673    0.994728175646      -0.0929404382673    -0.00192041392498   -0.0258015210827    
3900000000.0        -0.00204979782968   -0.0264755811704    0.994476599723      -0.0953841465878    0.994476599723      -0.0953841465878    -0.00204979782968   -0.0264755811704    
4000000000.0        -0.00218252387273   -0.0271491711862    0.99421851615       -0.0978275574765    0.99421851615       -0.0978275574765    -0.00218252387273   -0.0271491711862    
4100000000.0        -0.0023185906394    -0.0278222730361    0.993953923629      -0.100270654128     0.993953923629      -0.100270654128     -0.0023185906394    -0.0278222730361    
4200000000.0        -0.00245799662433   -0.0284948685106    0.993682820954      -0.102713419576     0.993682820954      -0.102713419576     -0.00245799662433   -0.0284948685106    
4300000000.0        -0.0026007402285    -0.029166939289     0.993405207006      -0.105155836698     0.993405207006      -0.105155836698     -0.0026007402285    -0.029166939289     
4400000000.0        -0.00274681975646   -0.0298384669441    0.993121080757      -0.107597888224     0.993121080757      -0.107597888224     -0.00274681975646   -0.0298384669441    
4500000000.0        -0.00289623341377   -0.0305094329464    0.99283044127       -0.110039556738     0.99283044127       -0.110039556738     -0.00289623341377   -0.0305094329464    
4600000000.0        -0.00304897930457   -0.0311798186684    0.992533287697      -0.112480824688     0.992533287697      -0.112480824688     -0.00304897930457   -0.0311798186684    
4700000000.0        -0.00320505542937   -0.0318496053885    0.992229619281      -0.114921674385     0.992229619281      -0.114921674385     -0.00320505542937   -0.0318496053885    
4800000000.0        -0.003364459683     -0.032518774295     0.991919435357      -0.117362088017     0.991919435357      -0.117362088017     -0.003364459683     -0.032518774295     
4900000000.0        -0.00352718985265   -0.0331873064903    0.991602735351      -0.119802047643     0.991602735351      -0.119802047643     -0.00352718985265   -0.0331873064903    
5000000000.0        -0.00369324361608   -0.0338551829938    0.991279518779      -0.122241535208     0.991279518779      -0.122241535208     -0.00369324361608   -0.0338551829938    
5100000000.0        -0.00386261853993   -0.0345223847464    0.990949785251      -0.124680532539     0.990949785251      -0.124680532539     -0.00386261853993   -0.0345223847464    
5200000000.0        -0.00403531207815   -0.0351888926133    0.99061353447       -0.127119021356     0.99061353447       -0.127119021356     -0.00403531207815   -0.0351888926133    
5300000000.0        -0.00421132157049   -0.0358546873878    0.99027076623       -0.12955698327      0.99027076623       -0.12955698327      -0.00421132157049   -0.0358546873878    
5400000000.0        -0.00439064424114   -0.0365197497948    0.989921480421      -0.131994399791     0.989921480421      -0.131994399791     -0.00439064424114   -0.0365197497948    
5500000000.0        -0.00457327719741   -0.0371840604936    0.989565677025      -0.134431252334     0.989565677025      -0.134431252334     -0.0045732771974    -0.0371840604936    
5600000000.0        -0.00475921742848   -0.0378476000812    0.989203356119      -0.136867522216     0.989203356119      -0.136867522216     -0.00475921742848   -0.0378476000812    
5700000000.0        -0.00494846180431   -0.0385103490958    0.988834517877      -0.139303190665     0.988834517877      -0.139303190665     -0.00494846180431   -0.0385103490958    
5800000000.0        -0.00514100707449   -0.0391722880193    0.988459162565      -0.141738238822     0.988459162565      -0.141738238822     -0.00514100707449   -0.0391722880193    
5900000000.0        -0.00533684986727   -0.0398333972806    0.988077290548      -0.144172647746     0.988077290548      -0.144172647746     -0.00533684986727   -0.0398333972806    
6000000000.0        -0.00553598668857   -0.0404936572584    0.987688902283      -0.146606398412     0.987688902283      -0.146606398412     -0.00553598668857   -0.0404936572584    
6100000000.0        -0.00573841392111   -0.0411530482841    0.987293998329      -0.149039471723     0.987293998329      -0.149039471723     -0.00573841392111   -0.0411530482841    
6200000000.0        -0.00594412782352   -0.0418115506444    0.986892579339      -0.151471848505     0.986892579339      -0.151471848505     -0.00594412782352   -0.0418115506444    
6300000000.0        -0.0061531245296    -0.0424691445842    0.986484646062      -0.153903509515     0.986484646062      -0.153903509515     -0.0061531245296    -0.0424691445842    
6400000000.0        -0.00636540004755   -0.0431258103093    0.986070199348      -0.156334435442     0.986070199348      -0.156334435442     -0.00636540004755   -0.0431258103093    
6500000000.0        -0.00658095025926   -0.0437815279889    0.985649240144      -0.158764606911     0.985649240144      -0.158764606911     -0.00658095025926   -0.0437815279889    
6600000000.0        -0.00679977091967   -0.0444362777581    0.985221769495      -0.161194004484     0.985221769495      -0.161194004484     -0.00679977091967   -0.0444362777581    
6700000000.0        -0.00702185765617   -0.0450900397207    0.984787788544      -0.163622608667     0.984787788544      -0.163622608667     -0.00702185765617   -0.0450900397207    
6800000000.0        -0.00724720596802   -0.0457427939513    0.984347298536      -0.166050399907     0.984347298536      -0.166050399907     -0.00724720596802   -0.0457427939513    
6900000000.0        -0.00747581122578   -0.0463945204982    0.983900300814      -0.168477358599     0.983900300814      -0.168477358599     -0.00747581122578   -0.0463945204982    
7000000000.0        -0.0077076686709    -0.0470451993854    0.983446796818      -0.170903465087     0.983446796818      -0.170903465087     -0.0077076686709    -0.0470451993854    
7100000000.0        -0.00794277341518   -0.0476948106149    0.982986788093      -0.173328699667     0.982986788093      -0.173328699667     -0.00794277341518   -0.0476948106149    
7200000000.0        -0.00818112044037   -0.0483433341694    0.98252027628       -0.17575304259      0.98252027628       -0.17575304259      -0.00818112044037   -0.0483433341694    
7300000000.0        -0.00842270459781   -0.0489907500144    0.982047263123      -0.178176474062     0.982047263123      -0.178176474062     -0.00842270459781   -0.0489907500144    
7400000000.0        -0.00866752060803   -0.0496370381001    0.981567750465      -0.180598974249     0.981567750465      -0.180598974249     -0.00866752060803   -0.0496370381001    
7500000000.0        -0.00891556306042   -0.0502821783642    0.98108174025       -0.18302052328      0.98108174025       -0.18302052328      -0.00891556306042   -0.0502821783642    
7600000000.0        -0.00916682641296   -0.0509261507334    0.980589234525      -0.185441101246     0.980589234525      -0.185441101246     -0.00916682641296   -0.0509261507334    
7700000000.0        -0.00942130499193   -0.0515689351262    0.980090235435      -0.187860688205     0.980090235435      -0.187860688205     -0.00942130499193   -0.0515689351262    
7800000000.0        -0.00967899299166   -0.0522105114544    0.979584745228      -0.190279264182     0.979584745228      -0.190279264182     -0.00967899299166   -0.0522105114544    
7900000000.0        -0.00993988447431   -0.0528508596255    0.979072766254      -0.192696809174     0.979072766254      -0.192696809174     -0.00993988447431   -0.0528508596255    
8000000000.0        -0.0102039733697    -0.0534899595448    0.978554300963      -0.195113303151     0.978554300963      -0.195113303151     -0.0102039733697    -0.0534899595448    
8100000000.0        -0.0104712534752    -0.0541277911169    0.978029351907      -0.197528726056     0.978029351907      -0.197528726056     -0.0104712534752    -0.0541277911169    
8200000000.0        -0.0107417184553    -0.0547643342485    0.977497921741      -0.19994305781      0.977497921741      -0.19994305781      -0.0107417184553    -0.0547643342485    
8300000000.0        -0.011015361842     -0.0553995688495    0.976960013219      -0.202356278312     0.976960013219      -0.202356278312     -0.011015361842     -0.0553995688495    
8400000000.0        -0.0112921770343    -0.0560334748355    0.976415629198      -0.204768367443     0.976415629198      -0.204768367443     -0.0112921770343    -0.0560334748355    
8500000000.0        -0.0115721572981    -0.0566660321293    0.975864772637      -0.207179305064     0.975864772637      -0.207179305064     -0.0115721572981    -0.0566660321293    
8600000000.0        -0.0118552957666    -0.0572972206631    0.975307446597      -0.209589071023     0.975307446597      -0.209589071023     -0.0118552957666    -0.0572972206631    
8700000000.0        -0.0121415854397    -0.0579270203801    0.974743654239      -0.211997645154     0.974743654239      -0.211997645154     -0.0121415854397    -0.0579270203801    
8800000000.0        -0.0124310191845    -0.0585554112366    0.974173398828      -0.214405007278     0.974173398828      -0.214405007278     -0.0124310191845    -0.0585554112366    
8900000000.0        -0.0127235897349    -0.0591823732033    0.973596683729      -0.216811137208     0.973596683729      -0.216811137208     -0.0127235897349    -0.0591823732033    
9000000000.0        -0.0130192896919    -0.0598078862676    0.973013512408      -0.219216014748     0.973013512408      -0.219216014748     -0.0130192896919    -0.0598078862676    
9100000000.0        -0.0133181115235    -0.0604319304349    0.972423888434      -0.221619619695     0.972423888434      -0.221619619695     -0.0133181115235    -0.0604319304349    
9200000000.0        -0.0136200475649    -0.0610544857308    0.971827815475      -0.22402193184      0.971827815475      -0.22402193184      -0.0136200475649    -0.0610544857308    
9300000000.0        -0.0139250900185    -0.0616755322023    0.971225297304      -0.226422930975     0.971225297304      -0.226422930975     -0.0139250900185    -0.0616755322023    
9400000000.0        -0.0142332309538    -0.0622950499198    0.970616337791      -0.228822596887     0.970616337791      -0.228822596887     -0.0142332309538    -0.0622950499198    
9500000000.0        -0.0145444623081    -0.0629130189787    0.970000940909      -0.231220909365     0.970000940909      -0.231220909365     -0.0145444623081    -0.0629130189787    
9600000000.0        -0.0148587758861    -0.0635294195009    0.969379110733      -0.233617848198     0.969379110733      -0.233617848198     -0.0148587758861    -0.0635294195009    
9700000000.0        -0.0151761633603    -0.0641442316366    0.968750851436      -0.23601339318      0.968750851436      -0.23601339318      -0.0151761633603    -0.0641442316366    
9800000000.0        -0.015496616271     -0.0647574355659    0.968116167292      -0.23840752411      0.968116167292      -0.23840752411      -0.015496616271     -0.0647574355659    
9900000000.0        -0.0158201260267    -0.0653690115002    0.967475062677      -0.240800220792     0.967475062677      -0.240800220792     -0.0158201260267    -0.0653690115002    
10000000000.0       -0.0161466839041    -0.0659789396838    0.966827542065      -0.24319146304      0.966827542065      -0.24319146304      -0.0161466839041    -0.0659789396838    
