# Hz S RI R 50.00 
100000000.0         0.000334780421525   -0.00312390681957   0.999623462538      -0.00499024742292   0.999623462538      -0.00499024742292   0.000334780421525   -0.00312390681957   
200000000.0         0.000286489665225   -0.00624755136971   0.999565147812      -0.00998027276914   0.999565147812      -0.00998027276914   0.000286489665225   -0.00624755136971   
300000000.0         0.000206403105997   -0.00937064115533   0.999472784796      -0.0149698225447    0.999472784796      -0.0149698225447    0.000206403105997   -0.00937064115533   
400000000.0         9.48328419037e-05   -0.012492865836     0.999346072048      -0.0199586146176    0.999346072048      -0.0199586146176    9.48328419037e-05   -0.012492865836     
500000000.0         -4.80940289392e-05  -0.0156139052766    0.999184900357      -0.0249463529189    0.999184900357      -0.0249463529189    -4.80940289391e-05  -0.0156139052766    
600000000.0         -0.000222304239193  -0.0187334327671    0.998989222138      -0.0299327323484    0.998989222138      -0.0299327323484    -0.000222304239193  -0.0187334327671    
700000000.0         -0.00042774492858   -0.021851116761     0.998759018404      -0.0349174412804    0.998759018404      -0.0349174412804    -0.00042774492858   -0.021851116761     
800000000.0         -0.000664371383546  -0.0249666219694    0.998494286811      -0.0399001630884    0.998494286811      -0.0399001630884    -0.000664371383547  -0.0249666219694    
900000000.0         -0.00093214153292   -0.0280796101232    0.998195036394      -0.0448805771768    0.998195036394      -0.0448805771768    -0.00093214153292   -0.0280796101232    
1000000000.0        -0.00123101312429   -0.0311897405414    0.997861284944      -0.0498583597334    0.997861284944      -0.0498583597334    -0.00123101312429   -0.0311897405414    
1100000000.0        -0.00156094212936   -0.0342966705786    0.997493057579      -0.0548331843087    0.997493057579      -0.0548331843087    -0.00156094212936   -0.0342966705786    
1200000000.0        -0.00192188177488   -0.0374000559917    0.997090385911      -0.0598047222812    0.997090385911      -0.0598047222812    -0.00192188177488   -0.0374000559917    
1300000000.0        -0.00231378191894   -0.040499551251     0.996653307548      -0.0647726432442    0.996653307548      -0.0647726432442    -0.00231378191894   -0.040499551251     
1400000000.0        -0.00273658863053   -0.0435948098105    0.996181865768      -0.0697366153373    0.996181865768      -0.0697366153373    -0.00273658863053   -0.0435948098105    
1500000000.0        -0.00319024389548   -0.0466854843487    0.995676109311      -0.0746963055349    0.995676109311      -0.0746963055349    -0.00319024389548   -0.0466854843487    
1600000000.0        -0.00367468540473   -0.0497712269865    0.995136092239      -0.0796513799049    0.995136092239      -0.0796513799049    -0.00367468540473   -0.0497712269865    
1700000000.0        -0.00418984639834   -0.052851689487     0.994561873837      -0.0846015038419    0.994561873837      -0.0846015038419    -0.00418984639834   -0.052851689487     
1800000000.0        -0.00473565554889   -0.0559265234415    0.993953518548      -0.0895463422815    0.993953518548      -0.0895463422815    -0.00473565554889   -0.0559265234415    
1900000000.0        -0.00531203687337   -0.0589953804443    0.993311095915      -0.0944855598992    0.993311095915      -0.0944855598992    -0.00531203687338   -0.0589953804443    
2000000000.0        -0.00591890966665   -0.0620579122575    0.992634680546      -0.0994188212968    0.992634680546      -0.0994188212968    -0.00591890966665   -0.0620579122575    
2100000000.0        -0.00655618845142   -0.0651137709688    0.991924352082      -0.104345791178     0.991924352082      -0.104345791178     -0.00655618845142   -0.0651137709688    
2200000000.0        -0.00722378294147   -0.0681626091417    0.991180195166      -0.109266134514     0.991180195166      -0.109266134514     -0.00722378294148   -0.0681626091417    
2300000000.0        -0.00792159801561   -0.0712040799609    0.990402299422      -0.114179516704     0.990402299422      -0.114179516704     -0.00792159801561   -0.0712040799609    
2400000000.0        -0.00864953370055   -0.0742378373726    0.98959075943       -0.119085603729     0.98959075943       -0.119085603729     -0.00864953370055   -0.0742378373726    
2500000000.0        -0.00940748516147   -0.0772635362196    0.988745674703      -0.123984062296     0.988745674703      -0.123984062296     -0.00940748516147   -0.0772635362196    
2600000000.0        -0.0101953426991    -0.0802808323735    0.987867149662      -0.128874559982     0.987867149662      -0.128874559982     -0.0101953426991    -0.0802808323735    
2700000000.0        -0.0110129917528    -0.0832893828632    0.98695529361       -0.13375676537      0.98695529361       -0.13375676537      -0.0110129917528    -0.0832893828632    
2800000000.0        -0.0118603129087    -0.0862888459995    0.986010220711      -0.138630348183     0.986010220711      -0.138630348183     -0.0118603129087    -0.0862888459995    
2900000000.0        -0.0127371819126    -0.0892788814972    0.985032049953      -0.143494979416     0.985032049953      -0.143494979416     -0.0127371819126    -0.0892788814972    
3000000000.0        -0.0136434696872    -0.0922591505947    0.984020905125      -0.148350331456     0.984020905125      -0.148350331456     -0.0136434696872    -0.0922591505947    
3100000000.0        -0.0145790423537    -0.0952293161704    0.982976914783      -0.153196078213     0.982976914783      -0.153196078213     -0.0145790423537    -0.0952293161704    
3200000000.0        -0.0155437612564    -0.0981890428566    0.981900212214      -0.158031895231     0.981900212214      -0.158031895231     -0.0155437612564    -0.0981890428566    
3300000000.0        -0.0165374829919    -0.101137997152     0.980790935401      -0.162857459814     0.980790935401      -0.162857459814     -0.0165374829919    -0.101137997152     
3400000000.0        -0.0175600594404    -0.104075847529     0.979649226985      -0.167672451134     0.979649226985      -0.167672451134     -0.0175600594404    -0.104075847529     
3500000000.0        -0.018611337801     -0.107002264543     0.978475234223      -0.172476550343     0.978475234223      -0.172476550343     -0.018611337801     -0.107002264543     
3600000000.0        -0.01969116063      -0.109916920938     0.977269108945      -0.177269440685     0.977269108945      -0.177269440685     -0.01969116063      -0.109916920938     
3700000000.0        -0.0207993658816    -0.112819491745     0.976031007509      -0.182050807602     0.976031007509      -0.182050807602     -0.0207993658816    -0.112819491745     
3800000000.0        -0.0219357869515    -0.115709654386     0.974761090752      -0.186820338837     0.974761090752      -0.186820338837     -0.0219357869515    -0.115709654386     
3900000000.0        -0.0231002527235    -0.118587088772     0.973459523943      -0.191577724533     0.973459523943      -0.191577724533     -0.0231002527235    -0.118587088772     
4000000000.0        -0.0242925876182    -0.121451477398     0.972126476732      -0.19632265734      0.972126476732      -0.19632265734      -0.0242925876182    -0.121451477398     
4100000000.0        -0.0255126116443    -0.124302505439     0.970762123089      -0.201054832503     0.970762123089      -0.201054832503     -0.0255126116443    -0.124302505439     
4200000000.0        -0.0267601404524    -0.127139860838     0.969366641257      -0.205773947965     0.969366641257      -0.205773947965     -0.0267601404524    -0.127139860838     
4300000000.0        -0.0280349853903    -0.129963234402     0.967940213689      -0.210479704452     0.967940213689      -0.210479704452     -0.0280349853903    -0.129963234402     
4400000000.0        -0.0293369535619    -0.132772319884     0.966483026989      -0.215171805568     0.966483026989      -0.215171805568     -0.0293369535619    -0.132772319884     
4500000000.0        -0.0306658478865    -0.135566814069     0.96499527185       -0.219849957883     0.96499527185       -0.219849957883     -0.0306658478865    -0.135566814069     
4600000000.0        -0.0320214671612    -0.138346416863     0.963477142992      -0.224513871015     0.963477142992      -0.224513871015     -0.0320214671612    -0.138346416863     
4700000000.0        -0.0334036061253    -0.141110831368     0.961928839095      -0.229163257715     0.961928839095      -0.229163257715     -0.0334036061253    -0.141110831368     
4800000000.0        -0.0348120555255    -0.143859763963     0.960350562732      -0.233797833951     0.960350562732      -0.233797833951     -0.0348120555255    -0.143859763963     
4900000000.0        -0.0362466021839    -0.146592924381     0.958742520302      -0.23841731898      0.958742520302      -0.23841731898      -0.0362466021839    -0.146592924381     
5000000000.0        -0.0377070290673    -0.149310025786     0.957104921955      -0.243021435432     0.957104921955      -0.243021435432     -0.0377070290673    -0.149310025786     
5100000000.0        -0.0391931153582    -0.152010784842     0.955437981528      -0.247609909378     0.955437981528      -0.247609909378     -0.0391931153582    -0.152010784842     
5200000000.0        -0.0407046365271    -0.154694921785     0.953741916462      -0.252182470404     0.953741916462      -0.252182470404     -0.0407046365271    -0.154694921785     
5300000000.0        -0.0422413644064    -0.157362160489     0.952016947737      -0.256738851683     0.952016947737      -0.256738851683     -0.0422413644064    -0.157362160489     
5400000000.0        -0.0438030672663    -0.160012228536     0.950263299789      -0.261278790037     0.950263299789      -0.261278790037     -0.0438030672663    -0.160012228536     
5500000000.0        -0.0453895098908    -0.162644857276     0.948481200433      -0.265802026007     0.948481200433      -0.265802026007     -0.0453895098908    -0.162644857276     
5600000000.0        -0.047000453656     -0.165259781888     0.946670880788      -0.27030830391      0.946670880788      -0.27030830391      -0.047000453656     -0.165259781888     
5700000000.0        -0.0486356566093    -0.167856741444     0.944832575196      -0.274797371907     0.944832575196      -0.274797371907     -0.0486356566093    -0.167856741444     
5800000000.0        -0.0502948735496    -0.170435478958     0.942966521139      -0.279268982051     0.942966521139      -0.279268982051     -0.0502948735496    -0.170435478958     
5900000000.0        -0.0519778561084    -0.172995741447     0.941072959159      -0.28372289035      0.941072959159      -0.28372289035      -0.0519778561084    -0.172995741447     
6000000000.0        -0.0536843528327    -0.17553727998      0.939152132773      -0.288158856819     0.939152132773      -0.288158856819     -0.0536843528327    -0.17553727998      
6100000000.0        -0.0554141092673    -0.178059849729     0.937204288394      -0.292576645527     0.937204288394      -0.292576645527     -0.0554141092673    -0.178059849729     
6200000000.0        -0.0571668680399    -0.180563210016     0.935229675241      -0.29697602465      0.935229675241      -0.29697602465      -0.0571668680399    -0.180563210016     
6300000000.0        -0.058942368945     -0.18304712436      0.933228545257      -0.301356766514     0.933228545257      -0.301356766514     -0.058942368945     -0.18304712436      
6400000000.0        -0.0607403490303    -0.185511360516     0.931201153021      -0.305718647639     0.931201153021      -0.305718647639     -0.0607403490303    -0.185511360516     
6500000000.0        -0.0625605426823    -0.187955690522     0.929147755663      -0.310061448785     0.929147755663      -0.310061448785     -0.0625605426823    -0.187955690522     
6600000000.0        -0.0644026817134    -0.190379890731     0.927068612775      -0.314384954984     0.927068612775      -0.314384954984     -0.0644026817134    -0.190379890731     
6700000000.0        -0.0662664954492    -0.192783741852     0.924963986326      -0.318688955581     0.924963986326      -0.318688955581     -0.0662664954492    -0.192783741852     
6800000000.0        -0.0681517108162    -0.195167028981     0.922834140571      -0.32297324427      0.922834140571      -0.32297324427      -0.0681517108162    -0.195167028981     
6900000000.0        -0.07005805243      -0.197529541633     0.920679341961      -0.327237619122     0.920679341961      -0.327237619122     -0.07005805243      -0.197529541633     
7000000000.0        -0.0719852426839    -0.199871073775     0.918499859061      -0.331481882618     0.918499859061      -0.331481882618     -0.0719852426839    -0.199871073775     
7100000000.0        -0.0739330018375    -0.202191423848     0.916295962452      -0.335705841675     0.916295962452      -0.335705841675     -0.0739330018375    -0.202191423848     
7200000000.0        -0.0759010481057    -0.204490394793     0.914067924648      -0.339909307673     0.914067924648      -0.339909307673     -0.0759010481057    -0.204490394793     
7300000000.0        -0.077889097748     -0.206767794078     0.911816020003      -0.344092096475     0.911816020003      -0.344092096475     -0.077889097748     -0.206767794078     
7400000000.0        -0.0798968651575    -0.209023433714     0.909540524625      -0.348254028453     0.909540524625      -0.348254028453     -0.0798968651575    -0.209023433714     
7500000000.0        -0.0819240629502    -0.211257130274     0.907241716282      -0.352394928502     0.907241716282      -0.352394928502     -0.0819240629502    -0.211257130274     
7600000000.0        -0.0839704020545    -0.21346870491      0.904919874313      -0.356514626058     0.904919874313      -0.356514626058     -0.0839704020545    -0.21346870491      
7700000000.0        -0.0860355917996    -0.215657983367     0.902575279543      -0.360612955112     0.902575279543      -0.360612955112     -0.0860355917996    -0.215657983367     
7800000000.0        -0.0881193400053    -0.217824795995     0.900208214189      -0.364689754223     0.900208214189      -0.364689754223     -0.0881193400053    -0.217824795995     
7900000000.0        -0.0902213530703    -0.219968977757     0.897818961771      -0.368744866528     0.897818961771      -0.368744866528     -0.0902213530703    -0.219968977757     
8000000000.0        -0.0923413360609    -0.222090368239     0.895407807025      -0.372778139749     0.895407807025      -0.372778139749     -0.0923413360609    -0.222090368239     
8100000000.0        -0.0944789927992    -0.224188811654     0.892975035814      -0.376789426198     0.892975035814      -0.376789426198     -0.0944789927992    -0.224188811654     
8200000000.0        -0.0966340259508    -0.226264156846     0.89052093504       -0.380778582783     0.89052093504       -0.380778582783     -0.0966340259508    -0.226264156846     
8300000000.0        -0.0988061371128    -0.228316257291     0.888045792553      -0.384745471007     0.888045792553      -0.384745471007     -0.0988061371128    -0.228316257291     
8400000000.0        -0.1009950269       -0.230344971097     0.885549897067      -0.38868995697      0.885549897067      -0.38868995697      -0.1009950269       -0.230344971097     
8500000000.0        -0.103200395033     -0.232350161003     0.883033538073      -0.392611911366     0.883033538073      -0.392611911366     -0.103200395033     -0.232350161003     
8600000000.0        -0.105421940421     -0.23433169437      0.88049700575       -0.396511209476     0.88049700575       -0.396511209476     -0.105421940421     -0.23433169437      
8700000000.0        -0.107659361252     -0.236289443181     0.877940590881      -0.400387731168     0.877940590881      -0.400387731168     -0.107659361252     -0.236289443181     
8800000000.0        -0.109912355073     -0.238223284027     0.875364584767      -0.40424136088      0.875364584767      -0.40424136088      -0.109912355073     -0.238223284027     
8900000000.0        -0.112180618875     -0.2401330981       0.872769279145      -0.40807198762      0.872769279145      -0.40807198762      -0.112180618875     -0.2401330981       
9000000000.0        -0.114463849181     -0.242018771182     0.8701549661        -0.411879504945     0.8701549661        -0.411879504945     -0.114463849181     -0.242018771182     
9100000000.0        -0.116761742121     -0.243880193629     0.867521937985      -0.415663810954     0.867521937985      -0.415663810954     -0.116761742121     -0.243880193629     
9200000000.0        -0.119073993519     -0.245717260357     0.864870487336      -0.419424808269     0.864870487336      -0.419424808269     -0.119073993519     -0.245717260357     
9300000000.0        -0.121400298973     -0.247529870824     0.862200906796      -0.423162404021     0.862200906796      -0.423162404021     -0.121400298973     -0.247529870824     
9400000000.0        -0.123740353935     -0.249317929013     0.859513489027      -0.426876509825     0.859513489027      -0.426876509825     -0.123740353935     -0.249317929013     
9500000000.0        -0.126093853788     -0.251081343411     0.856808526638      -0.430567041769     0.856808526638      -0.430567041769     -0.126093853788     -0.251081343411     
9600000000.0        -0.128460493929     -0.252820026984     0.854086312099      -0.434233920384     0.854086312099      -0.434233920384     -0.128460493929     -0.252820026984     
9700000000.0        -0.130839969839     -0.25453389716      0.851347137669      -0.437877070623     0.851347137669      -0.437877070623     -0.130839969839     -0.25453389716      
9800000000.0        -0.133231977169     -0.256222875796     0.848591295317      -0.441496421836     0.848591295317      -0.441496421836     -0.133231977169     -0.256222875796     
9900000000.0        -0.135636211805     -0.257886889159     0.845819076644      -0.445091907746     0.845819076644      -0.445091907746     -0.135636211805     -0.257886889159     
10000000000.0       -0.13805236995      -0.259525867893     0.843030772815      -0.448663466416     0.843030772815      -0.448663466416     -0.13805236995      -0.259525867893     
