# Hz S RI R 50.00 
100000000.0         -0.000103245551256  -0.0130110081551    0.999722578245      -0.013572633327     0.999722578245      -0.013572633327     -0.000103245551256  -0.0130110081551    
200000000.0         -0.000645298825285  -0.0260077207136    0.999178868124      -0.0271310228566    0.999178868124      -0.0271310228566    -0.000645298825285  -0.0260077207136    
300000000.0         -0.0015392952639    -0.0389763933787    0.99828319957       -0.0406614538975    0.99828319957       -0.0406614538975    -0.0015392952639    -0.0389763933787    
400000000.0         -0.00278334819736   -0.0519033283027    0.997037309142      -0.054150252019     0.997037309142      -0.054150252019     -0.00278334819736   -0.0519033283027    
500000000.0         -0.00437490849381   -0.0647749434643    0.995443688235      -0.0675838555642    0.995443688235      -0.0675838555642    -0.00437490849381   -0.0647749434643    
600000000.0         -0.00631074315519   -0.0775778264505    0.993505540366      -0.0809488704864    0.993505540366      -0.0809488704864    -0.00631074315519   -0.0775778264505    
700000000.0         -0.00858694192001   -0.0902987831212    0.991226758301      -0.0942321195449    0.991226758301      -0.0942321195449    -0.00858694192001   -0.0902987831212    
800000000.0         -0.0111989327191    -0.10292488311      0.988611902679      -0.107420688122     0.988611902679      -0.107420688122     -0.0111989327191    -0.10292488311      
900000000.0         -0.0141415021679    -0.115443502664     0.985666178882      -0.120501967273     0.985666178882      -0.120501967273     -0.0141415021679    -0.115443502664     
1000000000.0        -0.0174088198339    -0.127842364897     0.982395411441      -0.133463694124     0.982395411441      -0.133463694124     -0.0174088198339    -0.127842364897     
1100000000.0        -0.0209944656577    -0.140109577395     0.978806015874      -0.146293989585     0.978806015874      -0.146293989585     -0.0209944656577    -0.140109577395     
1200000000.0        -0.0248914601076    -0.152233667034     0.974904968096      -0.158981393255     0.974904968096      -0.158981393255     -0.0248914601076    -0.152233667034     
1300000000.0        -0.0290922967133    -0.164203611897     0.970699771606      -0.171514895403     0.970699771606      -0.171514895403     -0.0290922967133    -0.164203611897     
1400000000.0        -0.03358897665      -0.176008870167     0.966198422725      -0.183883965911     0.966198422725      -0.183883965911     -0.03358897665      -0.176008870167     
1500000000.0        -0.038373045052     -0.187639405876     0.961409374161      -0.196078580073     0.961409374161      -0.196078580073     -0.038373045052     -0.187639405876     
1600000000.0        -0.0434356287369    -0.199085711463     0.956341497198      -0.208089241186     0.956341497198      -0.208089241186     -0.0434356287369    -0.199085711463     
1700000000.0        -0.0487674750284    -0.210338827058     0.95100404281       -0.219906999868     0.95100404281       -0.219906999868     -0.0487674750284    -0.210338827058     
1800000000.0        -0.0543589913635    -0.221390356503     0.945406602014      -0.231523470105     0.945406602014      -0.231523470105     -0.0543589913635    -0.221390356503     
1900000000.0        -0.0602002853838    -0.232232480095     0.939559065738      -0.242930842018     0.939559065738      -0.242930842018     -0.0602002853838    -0.232232480095     
2000000000.0        -0.0662812052137    -0.242857964097     0.933471584524      -0.2541218914       0.933471584524      -0.2541218914       -0.0662812052137    -0.242857964097     
2100000000.0        -0.0725913796439    -0.253260167081     0.927154528321      -0.26508998607      0.927154528321      -0.26508998607      -0.0725913796439    -0.253260167081     
2200000000.0        -0.0791202579505    -0.263433043186     0.920618446651      -0.275829089153     0.920618446651      -0.275829089153     -0.0791202579505    -0.263433043186     
2300000000.0        -0.0858571490984    -0.273371142401     0.913874029395      -0.286333759378     0.913874029395      -0.286333759378     -0.0858571490984    -0.273371142401     
2400000000.0        -0.0927912600931    -0.283069608011     0.906932068431      -0.296599148538     0.906932068431      -0.296599148538     -0.0927912600931    -0.283069608011     
2500000000.0        -0.0999117332686    -0.292524171347     0.899803420336      -0.306620996252     0.899803420336      -0.306620996252     -0.0999117332686    -0.292524171347     
2600000000.0        -0.107207682316     -0.30173114401      0.892498970354      -0.316395622201     0.892498970354      -0.316395622201     -0.107207682316     -0.30173114401      
2700000000.0        -0.11466822688      -0.310687407742     0.885029597794      -0.325919916009     0.885029597794      -0.325919916009     -0.11466822688      -0.310687407742     
2800000000.0        -0.12228252558      -0.319390402131     0.877406143002      -0.335191324962     0.877406143002      -0.335191324962     -0.12228252558      -0.319390402131     
2900000000.0        -0.130039807321     -0.327838110345     0.869639376053      -0.344207839746     0.869639376053      -0.344207839746     -0.130039807321     -0.327838110345     
3000000000.0        -0.13792940079      -0.336029043098     0.861739967243      -0.352967978425     0.861739967243      -0.352967978425     -0.13792940079      -0.336029043098     
3100000000.0        -0.145940762064     -0.343962221036     0.853718459483      -0.361470768835     0.853718459483      -0.361470768835     -0.145940762064     -0.343962221036     
3200000000.0        -0.154063500258     -0.351637155757     0.845585242653      -0.369715729612     0.845585242653      -0.369715729612     -0.154063500258     -0.351637155757     
3300000000.0        -0.162287401172     -0.359053829657     0.837350529944      -0.377702850044     0.837350529944      -0.377702850044     -0.162287401172     -0.359053829657     
3400000000.0        -0.170602448921     -0.366212674797     0.829024336235      -0.385432568945     0.829024336235      -0.385432568945     -0.170602448921     -0.366212674797     
3500000000.0        -0.17899884554      -0.373114550976     0.820616458482      -0.392905752738     0.820616458482      -0.392905752738     -0.17899884554      -0.373114550976     
3600000000.0        -0.187467028569     -0.379760723205     0.812136458133      -0.400123672929     0.812136458133      -0.400123672929     -0.187467028569     -0.379760723205     
3700000000.0        -0.195997686657     -0.386152838733     0.803593645524      -0.407087983142     0.803593645524      -0.407087983142     -0.195997686657     -0.386152838733     
3800000000.0        -0.204581773217     -0.392292903807     0.794997066224      -0.413800695888     0.794997066224      -0.413800695888     -0.204581773217     -0.392292903807     
3900000000.0        -0.213210518186     -0.398183260312     0.786355489269      -0.420264159205     0.786355489269      -0.420264159205     -0.213210518186     -0.398183260312     
4000000000.0        -0.221875437953     -0.403826562432     0.77767739724       -0.426481033325     0.77767739724       -0.426481033325     -0.221875437953     -0.403826562432     
4100000000.0        -0.23056834353      -0.409225753463     0.768970978089      -0.432454267496     0.768970978089      -0.432454267496     -0.23056834353      -0.409225753463     
4200000000.0        -0.239281347035     -0.414384042902     0.760244118654      -0.43818707707      0.760244118654      -0.43818707707      -0.239281347035     -0.414384042902     
4300000000.0        -0.248006866587     -0.419304883907     0.751504399767      -0.443682920972     0.751504399767      -0.443682920972     -0.248006866587     -0.419304883907     
4400000000.0        -0.256737629688     -0.423991951246     0.742759092867      -0.44894547965      0.742759092867      -0.44894547965      -0.256737629688     -0.423991951246     
4500000000.0        -0.265466675195     -0.42844911979      0.73401515803       -0.453978633573     0.73401515803       -0.453978633573     -0.265466675195     -0.42844911979      
4600000000.0        -0.274187353974     -0.43268044365      0.725279243317      -0.458786442373     0.725279243317      -0.458786442373     -0.274187353974     -0.43268044365      
4700000000.0        -0.282893328334     -0.436690136005     0.716557685338      -0.463373124676     0.716557685338      -0.463373124676     -0.282893328334     -0.436690136005     
4800000000.0        -0.291578570327     -0.440482549674     0.707856510948      -0.467743038679     0.707856510948      -0.467743038679     -0.291578570327     -0.440482549674     
4900000000.0        -0.300237359033     -0.444062158488     0.699181439969      -0.471900663522     0.699181439969      -0.471900663522     -0.300237359033     -0.444062158488     
5000000000.0        -0.308864276902     -0.447433539473     0.690537888844      -0.475850581476     0.690537888844      -0.475850581476     -0.308864276902     -0.447433539473     
5100000000.0        -0.317454205249     -0.450601355889     0.681930975137      -0.479597460987     0.681930975137      -0.479597460987     -0.317454205249     -0.450601355889     
5200000000.0        -0.326002319011     -0.45357034113      0.673365522788      -0.483146040578     0.673365522788      -0.483146040578     -0.326002319011     -0.45357034113      
5300000000.0        -0.334504080822     -0.456345283501     0.664846068025      -0.486501113627     0.664846068025      -0.486501113627     -0.334504080822     -0.456345283501     
5400000000.0        -0.342955234515     -0.458931011874     0.65637686587       -0.489667514028     0.65637686587       -0.489667514028     -0.342955234515     -0.458931011874     
5500000000.0        -0.351351798114     -0.461332382211     0.647961897143      -0.492650102718     0.647961897143      -0.492650102718     -0.351351798114     -0.461332382211     
5600000000.0        -0.359690056398     -0.463554264965     0.639604875901      -0.495453755078     0.639604875901      -0.495453755078     -0.359690056398     -0.463554264965     
5700000000.0        -0.367966553103     -0.46560153333      0.631309257233      -0.498083349183     0.631309257233      -0.498083349183     -0.367966553103     -0.46560153333      
5800000000.0        -0.376178082835     -0.467479052324     0.623078245348      -0.500543754897     0.623078245348      -0.500543754897     -0.376178082835     -0.467479052324     
5900000000.0        -0.384321682746     -0.469191668699     0.614914801899      -0.502839823774     0.614914801899      -0.502839823774     -0.384321682746     -0.469191668699     
6000000000.0        -0.392394624036     -0.470744201636     0.606821654482      -0.504976379764     0.606821654482      -0.504976379764     -0.392394624036     -0.470744201636     
6100000000.0        -0.400394403336     -0.472141434215     0.598801305249      -0.50695821068      0.598801305249      -0.50695821068      -0.400394403336     -0.472141434215     
6200000000.0        -0.408318734013     -0.473388105618     0.590856039608      -0.508790060406     0.590856039608      -0.508790060406     -0.408318734013     -0.473388105618     
6300000000.0        -0.416165537445     -0.474488904052     0.582987934947      -0.510476621822     0.582987934947      -0.510476621822     -0.416165537445     -0.474488904052     
6400000000.0        -0.423932934306     -0.475448460346     0.575198869342      -0.5120225304       0.575198869342      -0.5120225304       -0.423932934306     -0.475448460346     
6500000000.0        -0.431619235902     -0.476271342198     0.567490530231      -0.513432358456     0.567490530231      -0.513432358456     -0.431619235902     -0.476271342198     
6600000000.0        -0.439222935577     -0.476962049041     0.559864423004      -0.514710610016     0.559864423004      -0.514710610016     -0.439222935577     -0.476962049041     
6700000000.0        -0.446742700228     -0.477525007492     0.552321879482      -0.515861716271     0.552321879482      -0.515861716271     -0.446742700228     -0.477525007492     
6800000000.0        -0.454177361958     -0.477964567358     0.544864066274      -0.516890031575     0.544864066274      -0.516890031575     -0.454177361958     -0.477964567358     
6900000000.0        -0.461525909872     -0.478284998151     0.537491992974      -0.517799829976     0.537491992974      -0.517799829976     -0.461525909872     -0.478284998151     
7000000000.0        -0.468787482056     -0.47849048611      0.530206520184      -0.518595302225     0.530206520184      -0.518595302225     -0.468787482056     -0.47849048611      
7100000000.0        -0.475961357742     -0.478585131662     0.523008367349      -0.519280553251     0.523008367349      -0.519280553251     -0.475961357742     -0.478585131662     
7200000000.0        -0.48304694967      -0.478572947326     0.515898120395      -0.519859600057     0.515898120395      -0.519859600057     -0.48304694967      -0.478572947326     
7300000000.0        -0.490043796674     -0.478457856006     0.508876239142      -0.52033637002      0.508876239142      -0.52033637002      -0.490043796674     -0.478457856006     
7400000000.0        -0.496951556486     -0.478243689657     0.501943064502      -0.520714699556     0.501943064502      -0.520714699556     -0.496951556486     -0.478243689657     
7500000000.0        -0.503769998767     -0.477934188293     0.495098825443      -0.520998333133     0.495098825443      -0.520998333133     -0.503769998767     -0.477934188293     
7600000000.0        -0.510498998385     -0.477532999312     0.488343645721      -0.521190922589     0.488343645721      -0.521190922589     -0.510498998385     -0.477532999312     
7700000000.0        -0.517138528915     -0.477043677106     0.481677550364      -0.521296026756     0.481677550364      -0.521296026756     -0.517138528915     -0.477043677106     
7800000000.0        -0.523688656399     -0.476469682948     0.475100471929      -0.521317111334     0.475100471929      -0.521317111334     -0.523688656399     -0.476469682948     
7900000000.0        -0.530149533335     -0.475814385107     0.468612256502      -0.521257549021     0.468612256502      -0.521257549021     -0.530149533335     -0.475814385107     
8000000000.0        -0.536521392911     -0.475081059201     0.462212669467      -0.521120619856     0.462212669467      -0.521120619856     -0.536521392911     -0.475081059201     
8100000000.0        -0.542804543484     -0.474272888739     0.455901401027      -0.520909511768     0.455901401027      -0.520909511768     -0.542804543484     -0.474272888739     
8200000000.0        -0.548999363287     -0.473392965848     0.449678071497      -0.520627321303     0.449678071497      -0.520627321303     -0.548999363287     -0.473392965848     
8300000000.0        -0.555106295381     -0.472444292163     0.443542236351      -0.520277054516     0.443542236351      -0.520277054516     -0.555106295381     -0.472444292163     
8400000000.0        -0.56112584283      -0.471429779864     0.437493391048      -0.519861628006     0.437493391048      -0.519861628006     -0.56112584283      -0.471429779864     
8500000000.0        -0.567058564106     -0.47035225284      0.431530975627      -0.519383870084     0.431530975627      -0.519383870084     -0.567058564106     -0.47035225284      
8600000000.0        -0.572905068713     -0.469214447967     0.425654379082      -0.518846522053     0.425654379082      -0.518846522053     -0.572905068713     -0.469214447967     
8700000000.0        -0.578666013025     -0.468019016492     0.419862943523      -0.518252239586     0.419862943523      -0.518252239586     -0.578666013025     -0.468019016492     
8800000000.0        -0.584342096338     -0.466768525495     0.414155968127      -0.517603594197     0.414155968127      -0.517603594197     -0.584342096338     -0.466768525495     
8900000000.0        -0.589934057121     -0.465465459435     0.408532712883      -0.516903074786     0.408532712883      -0.516903074786     -0.589934057121     -0.465465459435     
9000000000.0        -0.595442669468     -0.464112221751     0.402992402144      -0.516153089237     0.402992402144      -0.516153089237     -0.595442669468     -0.464112221751     
9100000000.0        -0.600868739733     -0.462711136526     0.397534227988      -0.515355966087     0.397534227988      -0.515355966087     -0.600868739733     -0.462711136526     
9200000000.0        -0.606213103363     -0.461264450187     0.39215735339       -0.514513956225     0.39215735339       -0.514513956225     -0.606213103363     -0.461264450187     
9300000000.0        -0.611476621888     -0.459774333245     0.386860915222      -0.513629234631     0.386860915222      -0.513629234631     -0.611476621888     -0.459774333245     
9400000000.0        -0.616660180103     -0.458242882056     0.381644027083      -0.512703902145     0.381644027083      -0.512703902145     -0.616660180103     -0.458242882056     
9500000000.0        -0.6217646834       -0.45667212061      0.376505781961      -0.511739987245     0.376505781961      -0.511739987245     -0.6217646834       -0.45667212061      
9600000000.0        -0.626791055257     -0.455064002325     0.37144525474       -0.510739447854     0.37144525474       -0.510739447854     -0.626791055257     -0.455064002325     
9700000000.0        -0.63174023489      -0.453420411851     0.366461504558      -0.509704173135     0.366461504558      -0.509704173135     -0.63174023489      -0.453420411851     
9800000000.0        -0.63661317503      -0.451743166877     0.361553577017      -0.508635985306     0.361553577017      -0.508635985306     -0.63661317503      -0.451743166877     
9900000000.0        -0.641410839859     -0.450034019931     0.356720506261      -0.507536641435     0.356720506261      -0.507536641435     -0.641410839859     -0.450034019931     
10000000000.0       -0.646134203058     -0.448294660173     0.351961316916      -0.506407835236     0.351961316916      -0.506407835236     -0.646134203058     -0.448294660173     
