# Hz S RI R 50.00 
100000000.0         0.0580390080775     0.00387848868537    0.941957531384      -0.00534509305353   0.941957531384      -0.00534509305353   0.0580390080775     0.00387848868537    
200000000.0         0.0584648414025     0.00774928051323    0.941527041759      -0.0106825035173    0.941527041759      -0.0106825035173    0.0584648414025     0.00774928051323    
300000000.0         0.0588367783545     0.0116146366354     0.941148252055      -0.0160145050209    0.941148252055      -0.0160145050209    0.0588367783545     0.0116146366354     
400000000.0         0.059202541888      0.0154749389744     0.940773438709      -0.0213414905504    0.940773438709      -0.0213414905504    0.059202541888      0.0154749389744     
500000000.0         0.059580505035      0.0193301334666     0.940384228085      -0.0266634163952    0.940384228085      -0.0266634163952    0.059580505035      0.0193301334666     
600000000.0         0.0599800151346     0.023179973937      0.939971272212      -0.0319800462692    0.939971272212      -0.0319800462692    0.0599800151346     0.023179973937      
700000000.0         0.060406564705      0.0270241097936     0.939529077903      -0.0372910391319    0.939529077903      -0.0372910391319    0.060406564705      0.0270241097936     
800000000.0         0.0608636799684     0.0308621267997     0.939054118218      -0.0425959900346    0.939054118218      -0.0425959900346    0.0608636799684     0.0308621267997     
900000000.0         0.0613537622583     0.0346935690644     0.93854399106       -0.0478944521616    0.93854399106       -0.0478944521616    0.0613537622583     0.0346935690644     
1000000000.0        0.0618785147723     0.0385179521468     0.937996992412      -0.0531859499686    0.937996992412      -0.0531859499686    0.0618785147723     0.0385179521468     
1100000000.0        0.0624391799459     0.0423347714568     0.937411878966      -0.0584699876094    0.937411878966      -0.0584699876094    0.0624391799459     0.0423347714568     
1200000000.0        0.0630366809921     0.0461435079521     0.936787726582      -0.0637460546527    0.936787726582      -0.0637460546527    0.0630366809921     0.0461435079521     
1300000000.0        0.0636717110175     0.0499436321826     0.936123841168      -0.0690136301415    0.936123841168      -0.0690136301415    0.0636717110175     0.0499436321826     
1400000000.0        0.0643447916531     0.053734607272      0.93541970005       -0.0742721855876    0.93541970005       -0.0742721855876    0.0643447916531     0.053734607272      
1500000000.0        0.0650563130515     0.0575158911875     0.934674911977      -0.079521187251     0.934674911977      -0.079521187251     0.0650563130515     0.0575158911875     
1600000000.0        0.0658065620205     0.0612869385176     0.933889188981      -0.0847600979265    0.933889188981      -0.0847600979265    0.0658065620205     0.0612869385176     
1700000000.0        0.0665957423354     0.0650472018978     0.933062326072      -0.0899883783767    0.933062326072      -0.0899883783767    0.0665957423354     0.0650472018978     
1800000000.0        0.0674239897425     0.0687961331806     0.932194186228      -0.0952054885078    0.932194186228      -0.0952054885078    0.0674239897425     0.0687961331806     
1900000000.0        0.0682913832654     0.072533184413      0.931284689092      -0.100410888353     0.931284689092      -0.100410888353     0.0682913832654     0.072533184413      
2000000000.0        0.0691979538782     0.0762578086676     0.930333802298      -0.105604038906     0.930333802298      -0.105604038906     0.0691979538782     0.0762578086676     
2100000000.0        0.0701436912677     0.0799694607608     0.929341534707      -0.110784402848     0.929341534707      -0.110784402848     0.0701436912677     0.0799694607608     
2200000000.0        0.0711285491825     0.0836675978809     0.928307931061      -0.115951445174     0.928307931061      -0.115951445174     0.0711285491825     0.0836675978809     
2300000000.0        0.0721524497237     0.0873516801441     0.92723306769       -0.121104633757     0.92723306769       -0.121104633757     0.0721524497237     0.0873516801441     
2400000000.0        0.0732152868291     0.0910211710931     0.926117049028      -0.126243439843     0.926117049028      -0.126243439843     0.0732152868291     0.0910211710931     
2500000000.0        0.074316929136      0.0946755381458     0.924960004751      -0.131367338511     0.924960004751      -0.131367338511     0.074316929136      0.0946755381458     
2600000000.0        0.0754572223617     0.0983142530055     0.923762087396      -0.136475809078     0.923762087396      -0.136475809078     0.0754572223617     0.0983142530055     
2700000000.0        0.0766359913025     0.101936792035      0.922523470362      -0.141568335478     0.922523470362      -0.141568335478     0.0766359913025     0.101936792035      
2800000000.0        0.0778530415302     0.105542636603      0.921244346214      -0.146644406612     0.921244346214      -0.146644406612     0.0778530415302     0.105542636603      
2900000000.0        0.0791081608471     0.109131273406      0.919924925227      -0.151703516668     0.919924925227      -0.151703516668     0.0791081608471     0.109131273406      
3000000000.0        0.0804011205449     0.112702194761      0.918565434129      -0.156745165421     0.918565434129      -0.156745165421     0.0804011205449     0.112702194761      
3100000000.0        0.0817316765045     0.11625489889       0.917166114999      -0.161768858514     0.917166114999      -0.161768858514     0.0817316765045     0.11625489889       
3200000000.0        0.0830995701654     0.119788890178      0.915727224299      -0.166774107715     0.915727224299      -0.166774107715     0.0830995701654     0.119788890178      
3300000000.0        0.0845045293885     0.123303679414      0.91424903201       -0.171760431171     0.91424903201       -0.171760431171     0.0845045293885     0.123303679414      
3400000000.0        0.0859462692282     0.126798784026      0.912731820861      -0.176727353629     0.912731820861      -0.176727353629     0.0859462692282     0.126798784026      
3500000000.0        0.0874244926325     0.130273728291      0.91117588563       -0.181674406661     0.91117588563       -0.181674406661     0.0874244926325     0.130273728291      
3600000000.0        0.0889388910792     0.133728043543      0.909581532505      -0.186601128863     0.909581532505      -0.186601128863     0.0889388910792     0.133728043543      
3700000000.0        0.0904891451605     0.137161268361      0.907949078501      -0.191507066049     0.907949078501      -0.191507066049     0.0904891451605     0.137161268361      
3800000000.0        0.0920749251234     0.140572948752      0.90627885092       -0.196391771432     0.90627885092       -0.196391771432     0.0920749251234     0.140572948752      
3900000000.0        0.0936958913725     0.143962638315      0.904571186847      -0.201254805795     0.904571186847      -0.201254805795     0.0936958913725     0.143962638315      
4000000000.0        0.09535169494       0.147329898407      0.902826432681      -0.20609573765      0.902826432681      -0.20609573765      0.09535169494       0.147329898407      
4100000000.0        0.097041977929      0.150674298287      0.901044943692      -0.210914143386     0.901044943692      -0.210914143386     0.097041977929      0.150674298287      
4200000000.0        0.0987663739328     0.153995415259      0.899227083599      -0.215709607416     0.899227083599      -0.215709607416     0.0987663739328     0.153995415259      
4300000000.0        0.100524508433      0.157292834802      0.897373224175      -0.220481722302     0.897373224175      -0.220481722302     0.100524508433      0.157292834802      
4400000000.0        0.102315999181      0.160566150694      0.895483744866      -0.225230088884     0.895483744866      -0.225230088884     0.102315999181      0.160566150694      
4500000000.0        0.104140456563      0.163814965122      0.893559032422      -0.229954316388     0.893559032422      -0.229954316388     0.104140456563      0.163814965122      
4600000000.0        0.10599748395       0.167038888793      0.89159948055       -0.23465402254      0.89159948055       -0.23465402254      0.10599748395       0.167038888793      
4700000000.0        0.107886678039      0.170237541025      0.889605489572      -0.239328833657     0.889605489572      -0.239328833657     0.107886678039      0.170237541025      
4800000000.0        0.109807629179      0.173410549844      0.887577466099      -0.243978384742     0.887577466099      -0.243978384742     0.109807629179      0.173410549844      
4900000000.0        0.111759921693      0.176557552058      0.88551582271       -0.248602319562     0.88551582271       -0.248602319562     0.111759921693      0.176557552058      
5000000000.0        0.113743134185      0.17967819334       0.883420977643      -0.253200290728     0.883420977643      -0.253200290728     0.113743134185      0.17967819334       
5100000000.0        0.115756839843      0.182772128287      0.881293354492      -0.257771959758     0.881293354492      -0.257771959758     0.115756839843      0.182772128287      
5200000000.0        0.117800606735      0.185839020484      0.879133381914      -0.262316997142     0.879133381914      -0.262316997142     0.117800606735      0.185839020484      
5300000000.0        0.119873998094      0.188878542557      0.876941493338      -0.266835082389     0.876941493338      -0.266835082389     0.119873998094      0.188878542557      
5400000000.0        0.121976572606      0.191890376217      0.874718126687      -0.271325904079     0.874718126687      -0.271325904079     0.121976572606      0.191890376217      
5500000000.0        0.12410788468       0.1948742123        0.872463724096      -0.2757891599       0.872463724096      -0.2757891599       0.12410788468       0.1948742123        
5600000000.0        0.126267484722      0.197829750799      0.870178731644      -0.28022455668      0.870178731644      -0.28022455668      0.126267484722      0.197829750799      
5700000000.0        0.128454919402      0.20075670089       0.867863599089      -0.284631810413     0.867863599089      -0.284631810413     0.128454919402      0.20075670089       
5800000000.0        0.130669731914      0.20365478095       0.865518779605      -0.289010646281     0.865518779605      -0.289010646281     0.130669731914      0.20365478095       
5900000000.0        0.13291146223       0.206523718572      0.863144729526      -0.293360798666     0.863144729526      -0.293360798666     0.13291146223       0.206523718572      
6000000000.0        0.135179647357      0.209363250572      0.860741908094      -0.297682011156     0.860741908094      -0.297682011156     0.135179647357      0.209363250572      
6100000000.0        0.137473821579      0.212173122987      0.858310777212      -0.30197403655      0.858310777212      -0.30197403655      0.137473821579      0.212173122987      
6200000000.0        0.139793516704      0.214953091074      0.8558518012        -0.306236636848     0.8558518012        -0.306236636848     0.139793516704      0.214953091074      
6300000000.0        0.142138262303      0.217702919296      0.853365446556      -0.310469583245     0.853365446556      -0.310469583245     0.142138262303      0.217702919296      
6400000000.0        0.144507585942      0.220422381308      0.85085218172       -0.314672656114     0.85085218172       -0.314672656114     0.144507585942      0.220422381308      
6500000000.0        0.146901013414      0.223111259934      0.848312476846      -0.318845644984     0.848312476846      -0.318845644984     0.146901013414      0.223111259934      
6600000000.0        0.14931806897       0.225769347139      0.845746803571      -0.322988348511     0.845746803571      -0.322988348511     0.14931806897       0.225769347139      
6700000000.0        0.151758275536      0.228396444         0.843155634796      -0.327100574451     0.843155634796      -0.327100574451     0.151758275536      0.228396444         
6800000000.0        0.154221154933      0.230992360666      0.840539444463      -0.33118213962      0.840539444463      -0.33118213962      0.154221154933      0.230992360666      
6900000000.0        0.156706228095      0.233556916314      0.837898707345      -0.335232869849     0.837898707345      -0.335232869849     0.156706228095      0.233556916314      
7000000000.0        0.159213015275      0.236089939105      0.835233898831      -0.339252599944     0.835233898831      -0.339252599944     0.159213015275      0.236089939105      
7100000000.0        0.161741036258      0.238591266135      0.832545494721      -0.343241173628     0.832545494721      -0.343241173628     0.161741036258      0.238591266135      
7200000000.0        0.164289810557      0.241060743369      0.829833971023      -0.347198443489     0.829833971023      -0.347198443489     0.164289810557      0.241060743369      
7300000000.0        0.166858857616      0.243498225591      0.827099803753      -0.351124270918     0.827099803753      -0.351124270918     0.166858857616      0.243498225591      
7400000000.0        0.169447697002      0.245903576332      0.824343468742      -0.355018526044     0.824343468742      -0.355018526044     0.169447697002      0.245903576332      
7500000000.0        0.172055848597      0.248276667808      0.821565441445      -0.358881087669     0.821565441445      -0.358881087669     0.172055848597      0.248276667808      
7600000000.0        0.174682832787      0.250617380838      0.818766196752      -0.362711843189     0.818766196752      -0.362711843189     0.174682832787      0.250617380838      
7700000000.0        0.177328170639      0.252925604775      0.815946208811      -0.366510688523     0.815946208811      -0.366510688523     0.177328170639      0.252925604775      
7800000000.0        0.179991384082      0.255201237425      0.813105950842      -0.370277528032     0.813105950842      -0.370277528032     0.179991384082      0.255201237425      
7900000000.0        0.182671996081      0.257444184959      0.810245894969      -0.374012274433     0.810245894969      -0.374012274433     0.182671996081      0.257444184959      
8000000000.0        0.185369530808      0.259654361829      0.807366512047      -0.377714848716     0.807366512047      -0.377714848716     0.185369530808      0.259654361829      
8100000000.0        0.188083513806      0.261831690679      0.804468271497      -0.38138518005      0.804468271497      -0.38138518005      0.188083513806      0.261831690679      
8200000000.0        0.190813472151      0.263976102249      0.801551641143      -0.385023205693     0.801551641143      -0.385023205693     0.190813472151      0.263976102249      
8300000000.0        0.19355893461       0.266087535281      0.798617087058      -0.388628870894     0.798617087058      -0.388628870894     0.19355893461       0.266087535281      
8400000000.0        0.196319431793      0.268165936416      0.795665073405      -0.392202128794     0.795665073405      -0.392202128794     0.196319431793      0.268165936416      
8500000000.0        0.199094496304      0.2702112601        0.792696062291      -0.395742940329     0.792696062291      -0.395742940329     0.199094496304      0.2702112601        
8600000000.0        0.201883662883      0.272223468471      0.789710513625      -0.399251274118     0.789710513625      -0.399251274118     0.201883662883      0.272223468471      
8700000000.0        0.20468646855       0.274202531259      0.78670888497       -0.402727106364     0.78670888497       -0.402727106364     0.20468646855       0.274202531259      
8800000000.0        0.207502452739      0.276148425674      0.783691631412      -0.406170420742     0.783691631412      -0.406170420742     0.207502452739      0.276148425674      
8900000000.0        0.21033115743       0.278061136298      0.780659205427      -0.409581208288     0.780659205427      -0.409581208288     0.21033115743       0.278061136298      
9000000000.0        0.213172127279      0.279940654967      0.77761205675       -0.41295946729      0.77761205675       -0.41295946729      0.213172127279      0.279940654967      
9100000000.0        0.216024909741      0.281786980665      0.774550632255      -0.416305203168     0.774550632255      -0.416305203168     0.216024909741      0.281786980665      
9200000000.0        0.218889055186      0.283600119398      0.771475375829      -0.419618428362     0.771475375829      -0.419618428362     0.218889055186      0.283600119398      
9300000000.0        0.221764117023      0.285380084084      0.768386728264      -0.422899162215     0.768386728264      -0.422899162215     0.221764117023      0.285380084084      
9400000000.0        0.224649651803      0.28712689443       0.76528512714       -0.426147430849     0.76528512714       -0.426147430849     0.224649651803      0.28712689443       
9500000000.0        0.22754521933       0.288840576813      0.762171006716      -0.42936326705      0.762171006716      -0.42936326705      0.22754521933       0.288840576813      
9600000000.0        0.230450382764      0.290521164155      0.759044797834      -0.432546710144     0.759044797834      -0.432546710144     0.230450382764      0.290521164155      
9700000000.0        0.233364708721      0.292168695806      0.755906927811      -0.435697805875     0.755906927811      -0.435697805875     0.233364708721      0.292168695806      
9800000000.0        0.236287767368      0.293783217416      0.75275782035       -0.438816606278     0.75275782035       -0.438816606278     0.236287767368      0.293783217416      
9900000000.0        0.239219132511      0.295364780811      0.749597895444      -0.441903169561     0.749597895444      -0.441903169561     0.239219132511      0.295364780811      
10000000000.0       0.242158381686      0.296913443869      0.746427569291      -0.444957559976     0.746427569291      -0.444957559976     0.242158381686      0.296913443869      
