# Hz S RI R 50.00 
100000000.0         0.0186848660402     0.00159050652378    0.981312952241      -0.0024536843263    0.981312952241      -0.0024536843263    0.0186848660402     0.00159050652378    
200000000.0         0.0188175502086     0.00317996820655    0.981178336472      -0.00490632690337   0.981178336472      -0.00490632690337   0.0188175502086     0.00317996820655    
300000000.0         0.0189254389048     0.00476874373194    0.981067766215      -0.00735828901878   0.981067766215      -0.00735828901878   0.0189254389048     0.00476874373194    
400000000.0         0.0190245304981     0.006356927337      0.980965243031      -0.00980966706086   0.980965243031      -0.00980966706086   0.0190245304981     0.006356927337      
500000000.0         0.0191209970692     0.00794455175945    0.980864594768      -0.0122604956924    0.980864594768      -0.0122604956924    0.0191209970692     0.00794455175945    
600000000.0         0.0192179909808     0.0095316225121     0.980762668991      -0.0147107822043    0.980762668991      -0.0147107822043    0.0192179909808     0.0095316225121     
700000000.0         0.0193173766052     0.0111181301911     0.980657601251      -0.0171605188644    0.980657601251      -0.0171605188644    0.0193173766052     0.0111181301911     
800000000.0         0.0194203628225     0.0127040561837     0.980548182588      -0.0196096886489    0.980548182588      -0.0196096886489    0.0194203628225     0.0127040561837     
900000000.0         0.0195277848419     0.014289375733      0.980433577707      -0.0220582683237    0.980433577707      -0.0220582683237    0.0195277848419     0.014289375733      
1000000000.0        0.0196402471506     0.015874059753      0.980313182029      -0.0245062302696    0.980313182029      -0.0245062302696    0.0196402471506     0.015874059753      
1100000000.0        0.0197582030308     0.017458075981      0.980186542177      -0.0269535436434    0.980186542177      -0.0269535436434    0.0197582030308     0.017458075981      
1200000000.0        0.0198820019734     0.0190413897496     0.98005330856       -0.0294001751563    0.98005330856       -0.0294001751563    0.0198820019734     0.0190413897496     
1300000000.0        0.0200119195279     0.0206239645263     0.979913205521      -0.0318460896179    0.979913205521      -0.0318460896179    0.0200119195279     0.0206239645263     
1400000000.0        0.0201481769357     0.0222057623034     0.979766011707      -0.0342912503304    0.979766011707      -0.0342912503304    0.0201481769357     0.0222057623034     
1500000000.0        0.020290954517      0.0237867438878     0.979611546682      -0.0367356193815    0.979611546682      -0.0367356193815    0.020290954517      0.0237867438878     
1600000000.0        0.0204404010792     0.0253668691223     0.979449661517      -0.0391791578683    0.979449661517      -0.0391791578683    0.0204404010792     0.0253668691223     
1700000000.0        0.0205966407014     0.026946097057      0.979280232004      -0.0416218260707    0.979280232004      -0.0416218260707    0.0205966407014     0.026946097057      
1800000000.0        0.020759777736      0.0285243860851     0.97910315366       -0.0440635835899    0.97910315366       -0.0440635835899    0.020759777736      0.0285243860851     
1900000000.0        0.0209299005693     0.0301016940525     0.978918337959      -0.046504389459     0.978918337959      -0.046504389459     0.0209299005693     0.0301016940525     
2000000000.0        0.0211070844957     0.0316779783469     0.978725709465      -0.0489442022332    0.978725709465      -0.0489442022332    0.0211070844957     0.0316779783469     
2100000000.0        0.0212913939487     0.0332531959708     0.978525203597      -0.0513829800653    0.978525203597      -0.0513829800653    0.0212913939487     0.0332531959708     
2200000000.0        0.0214828842568     0.034827303604      0.978316764871      -0.053820680768     0.978316764871      -0.053820680768     0.0214828842568     0.034827303604      
2300000000.0        0.0216816030404     0.0364002576544     0.97810034551       -0.0562572618665    0.97810034551       -0.0562572618665    0.0216816030404     0.0364002576544     
2400000000.0        0.0218875913372     0.037972014303      0.977875904313      -0.0586926806441    0.977875904313      -0.0586926806441    0.0218875913372     0.037972014303      
2500000000.0        0.0221008845168     0.0395425295415     0.97764340574       -0.0611268941804    0.97764340574       -0.0611268941804    0.0221008845168     0.0395425295415     
2600000000.0        0.0223215130309     0.0411117592055     0.977402819166      -0.0635598593858    0.977402819166      -0.0635598593858    0.0223215130309     0.0411117592055     
2700000000.0        0.0225495030344     0.042679659003      0.977154118258      -0.06599153303      0.977154118258      -0.06599153303      0.0225495030344     0.042679659003      
2800000000.0        0.0227848769025     0.04424618454       0.976897280457      -0.0684218717687    0.976897280457      -0.0684218717687    0.0227848769025     0.04424618454       
2900000000.0        0.0230276536654     0.045811291343      0.976632286543      -0.0708508321661    0.976632286543      -0.0708508321661    0.0230276536654     0.045811291343      
3000000000.0        0.0232778493751     0.0473749348786     0.976359120271      -0.0732783707156    0.976359120271      -0.0732783707156    0.0232778493751     0.0473749348786     
3100000000.0        0.0235354774178     0.0489370705719     0.976077768056      -0.0757044438583    0.976077768056      -0.0757044438583    0.0235354774178     0.0489370705719     
3200000000.0        0.0238005487807     0.0504976538223     0.975788218707      -0.0781290079992    0.975788218707      -0.0781290079992    0.0238005487807     0.0504976538223     
3300000000.0        0.024073072281      0.0520566400186     0.975490463197      -0.0805520195228    0.975490463197      -0.0805520195228    0.024073072281      0.0520566400186     
3400000000.0        0.0243530547646     0.053613984552      0.975184494469      -0.0829734348066    0.975184494469      -0.0829734348066    0.0243530547646     0.053613984552      
3500000000.0        0.0246405012777     0.0551696428284     0.974870307257      -0.0853932102335    0.974870307257      -0.0853932102335    0.0246405012777     0.0551696428284     
3600000000.0        0.0249354152172     0.05672357028       0.97454789794       -0.0878113022037    0.97454789794       -0.0878113022037    0.0249354152172     0.05672357028       
3700000000.0        0.0252377984616     0.0582757223755     0.974217264413      -0.0902276671453    0.974217264413      -0.0902276671453    0.0252377984616     0.0582757223755     
3800000000.0        0.0255476514864     0.0598260546295     0.973878405967      -0.0926422615243    0.973878405967      -0.0926422615243    0.0255476514864     0.0598260546295     
3900000000.0        0.0258649734665     0.061374522612      0.97353132319       -0.0950550418535    0.97353132319       -0.0950550418535    0.0258649734665     0.061374522612      
4000000000.0        0.0261897623658     0.0629210819565     0.973176017875      -0.0974659647018    0.973176017875      -0.0974659647018    0.0261897623658     0.0629210819565     
4100000000.0        0.0265220150176     0.0644656883681     0.972812492942      -0.0998749867018    0.972812492942      -0.0998749867018    0.0265220150176     0.0644656883681     
4200000000.0        0.0268617271961     0.0660082976307     0.972440752364      -0.102282064558     0.972440752364      -0.102282064558     0.0268617271961     0.0660082976307     
4300000000.0        0.0272088936803     0.0675488656141     0.972060801106      -0.104687155052     0.972060801106      -0.104687155052     0.0272088936803     0.0675488656141     
4400000000.0        0.0275635083116     0.0690873482807     0.971672645066      -0.107090215054     0.971672645066      -0.107090215054     0.0275635083116     0.0690873482807     
4500000000.0        0.0279255640449     0.0706237016918     0.971276291022      -0.109491201524     0.971276291022      -0.109491201524     0.0279255640449     0.0706237016918     
4600000000.0        0.0282950529956     0.0721578820137     0.970871746589      -0.11189007152      0.970871746589      -0.11189007152      0.0282950529956     0.0721578820137     
4700000000.0        0.028671966482      0.0736898455231     0.970459020172      -0.114286782206     0.970459020172      -0.114286782206     0.028671966482      0.0736898455231     
4800000000.0        0.029056295063      0.0752195486129     0.970038120934      -0.116681290854     0.970038120934      -0.116681290854     0.029056295063      0.0752195486129     
4900000000.0        0.0294480285734     0.0767469477971     0.969609058754      -0.119073554853     0.969609058754      -0.119073554853     0.0294480285734     0.0767469477971     
5000000000.0        0.0298471561555     0.0782719997165     0.969171844201      -0.12146353171      0.969171844201      -0.12146353171      0.0298471561555     0.0782719997165     
5100000000.0        0.030253666288      0.0797946611426     0.968726488503      -0.123851179058     0.968726488503      -0.123851179058     0.030253666288      0.0797946611426     
5200000000.0        0.0306675468133     0.081314888983      0.968273003519      -0.126236454662     0.968273003519      -0.126236454662     0.0306675468133     0.081314888983      
5300000000.0        0.0310887849612     0.0828326402856     0.967811401717      -0.12861931642      0.967811401717      -0.12861931642      0.0310887849612     0.0828326402856     
5400000000.0        0.0315173673719     0.0843478722431     0.967341696148      -0.130999722369     0.967341696148      -0.130999722369     0.0315173673719     0.0843478722431     
5500000000.0        0.031953280117      0.0858605421969     0.96686390043       -0.13337763069      0.96686390043       -0.13337763069      0.031953280117      0.0858605421969     
5600000000.0        0.0323965087185     0.0873706076414     0.966378028724      -0.135752999713     0.966378028724      -0.135752999713     0.0323965087185     0.0873706076414     
5700000000.0        0.0328470381666     0.0888780262282     0.965884095718      -0.138125787916     0.965884095718      -0.138125787916     0.0328470381666     0.0888780262282     
5800000000.0        0.0333048529369     0.0903827557694     0.965382116612      -0.140495953937     0.965382116612      -0.140495953937     0.0333048529369     0.0903827557694     
5900000000.0        0.0337699370053     0.0918847542415     0.9648721071        -0.142863456571     0.9648721071        -0.142863456571     0.0337699370053     0.0918847542415     
6000000000.0        0.034242273863      0.0933839797892     0.964354083356      -0.145228254777     0.964354083356      -0.145228254777     0.034242273863      0.0933839797892     
6100000000.0        0.0347218465298     0.0948803907291     0.963828062022      -0.14759030768      0.963828062022      -0.14759030768      0.0347218465298     0.0948803907291     
6200000000.0        0.0352086375667     0.0963739455524     0.963294060193      -0.149949574576     0.963294060193      -0.149949574576     0.0352086375667     0.0963739455524     
6300000000.0        0.0357026290883     0.097864602929      0.962752095407      -0.152306014935     0.962752095407      -0.152306014935     0.0357026290883     0.097864602929      
6400000000.0        0.0362038027736     0.0993523217105     0.962202185633      -0.154659588405     0.962202185633      -0.154659588405     0.0362038027736     0.0993523217105     
6500000000.0        0.0367121398768     0.100837060933      0.96164434926       -0.157010254811     0.96164434926       -0.157010254811     0.0367121398768     0.100837060933      
6600000000.0        0.0372276212377     0.102318779821      0.961078605087      -0.159357974166     0.961078605087      -0.159357974166     0.0372276212377     0.102318779821      
6700000000.0        0.0377502272906     0.103797437791      0.960504972315      -0.161702706666     0.960504972315      -0.161702706666     0.0377502272906     0.103797437791      
6800000000.0        0.0382799380739     0.10527299445       0.959923470536      -0.164044412698     0.959923470536      -0.164044412698     0.0382799380739     0.10527299445       
6900000000.0        0.0388167332384     0.106745409607      0.959334119724      -0.166383052844     0.959334119724      -0.166383052844     0.0388167332384     0.106745409607      
7000000000.0        0.0393605920556     0.108214643266      0.95873694023       -0.168718587877     0.95873694023       -0.168718587877     0.0393605920556     0.108214643266      
7100000000.0        0.0399114934257     0.109680655636      0.95813195277       -0.171050978773     0.95813195277       -0.171050978773     0.0399114934257     0.109680655636      
7200000000.0        0.0404694158847     0.111143407131      0.957519178422      -0.173380186706     0.957519178422      -0.173380186706     0.0404694158847     0.111143407131      
7300000000.0        0.0410343376121     0.112602858373      0.956898638614      -0.175706173056     0.956898638614      -0.175706173056     0.0410343376121     0.112602858373      
7400000000.0        0.0416062364374     0.114058970193      0.956270355122      -0.178028899408     0.956270355122      -0.178028899408     0.0416062364374     0.114058970193      
7500000000.0        0.0421850898468     0.115511703638      0.955634350058      -0.180348327558     0.955634350058      -0.180348327558     0.0421850898468     0.115511703638      
7600000000.0        0.0427708749898     0.116961019968      0.954990645869      -0.182664419512     0.954990645869      -0.182664419512     0.0427708749898     0.116961019968      
7700000000.0        0.0433635686852     0.118406880662      0.954339265327      -0.184977137492     0.954339265327      -0.184977137492     0.0433635686852     0.118406880662      
7800000000.0        0.0439631474272     0.119849247418      0.953680231526      -0.187286443935     0.953680231526      -0.187286443935     0.0439631474272     0.119849247418      
7900000000.0        0.0445695873909     0.121288082159      0.953013567871      -0.189592301497     0.953013567871      -0.189592301497     0.0445695873909     0.121288082159      
8000000000.0        0.0451828644383     0.122723347032      0.952339298081      -0.191894673058     0.952339298081      -0.191894673058     0.0451828644383     0.122723347032      
8100000000.0        0.0458029541232     0.12415500441       0.951657446174      -0.194193521719     0.951657446174      -0.194193521719     0.0458029541232     0.12415500441       
8200000000.0        0.046429831697      0.125583016899      0.95096803647       -0.196488810809     0.95096803647       -0.196488810809     0.046429831697      0.125583016899      
8300000000.0        0.0470634721137     0.127007347332      0.95027109358       -0.198780503883     0.95027109358       -0.198780503883     0.0470634721137     0.127007347332      
8400000000.0        0.0477038500346     0.128427958779      0.949566642405      -0.201068564728     0.949566642405      -0.201068564728     0.0477038500346     0.128427958779      
8500000000.0        0.0483509398335     0.129844814544      0.948854708126      -0.203352957363     0.948854708126      -0.203352957363     0.0483509398335     0.129844814544      
8600000000.0        0.0490047156015     0.131257878171      0.948135316207      -0.205633646042     0.948135316207      -0.205633646042     0.0490047156015     0.131257878171      
8700000000.0        0.0496651511514     0.132667113442      0.947408492382      -0.207910595254     0.947408492382      -0.207910595254     0.0496651511514     0.132667113442      
8800000000.0        0.0503322200226     0.13407248438       0.946674262657      -0.210183769728     0.946674262657      -0.210183769728     0.0503322200226     0.13407248438       
8900000000.0        0.0510058954852     0.135473955254      0.945932653302      -0.212453134432     0.945932653302      -0.212453134432     0.0510058954852     0.135473955254      
9000000000.0        0.0516861505448     0.136871490576      0.945183690846      -0.214718654579     0.945183690846      -0.214718654579     0.0516861505448     0.136871490576      
9100000000.0        0.0523729579466     0.138265055108      0.944427402078      -0.216980295622     0.944427402078      -0.216980295622     0.0523729579466     0.138265055108      
9200000000.0        0.0530662901796     0.139654613858      0.943663814034      -0.219238023264     0.943663814034      -0.219238023264     0.0530662901796     0.139654613858      
9300000000.0        0.0537661194808     0.141040132087      0.942892954001      -0.221491803453     0.942892954001      -0.221491803453     0.0537661194808     0.141040132087      
9400000000.0        0.0544724178396     0.142421575307      0.94211484951       -0.223741602387     0.94211484951       -0.223741602387     0.0544724178396     0.142421575307      
9500000000.0        0.0551851570013     0.143798909285      0.941329528328      -0.225987386515     0.941329528328      -0.225987386515     0.0551851570013     0.143798909285      
9600000000.0        0.0559043084717     0.145172100043      0.940537018462      -0.22822912254      0.940537018462      -0.22822912254      0.0559043084717     0.145172100043      
9700000000.0        0.0566298435204     0.146541113862      0.939737348149      -0.230466777418     0.939737348149      -0.230466777418     0.0566298435204     0.146541113862      
9800000000.0        0.0573617331854     0.147905917278      0.938930545851      -0.232700318361     0.938930545851      -0.232700318361     0.0573617331854     0.147905917278      
9900000000.0        0.0580999482763     0.149266477092      0.938116640259      -0.234929712839     0.938116640259      -0.234929712839     0.0580999482763     0.149266477092      
10000000000.0       0.0588444593785     0.150622760363      0.937295660281      -0.237154928579     0.937295660281      -0.237154928579     0.0588444593785     0.150622760363      
