# Hz S RI R 50.00 
100000000.0         0.0229250446621     0.00210560101061    0.977071832491      -0.00342646700831   0.977071832491      -0.00342646700831   0.0229250446621     0.00210560101061    
200000000.0         0.0230947013235     0.00420940444543    0.976898294431      -0.00685114249758   0.976898294431      -0.00685114249758   0.0230947013235     0.00420940444543    
300000000.0         0.023239168657      0.00631196945302    0.976748186908      -0.010274591195     0.976748186908      -0.010274591195     0.023239168657      0.00631196945302    
400000000.0         0.0233779801548     0.00841341130093    0.976601976209      -0.013696933037     0.976601976209      -0.013696933037     0.0233779801548     0.00841341130093    
500000000.0         0.0235186670642     0.0105137421169     0.976452130858      -0.0171181843652    0.976452130858      -0.0171181843652    0.0235186670642     0.0105137421169     
600000000.0         0.0236650722288     0.0126129284258     0.976294807768      -0.0205383156216    0.976294807768      -0.0205383156216    0.0236650722288     0.0126129284258     
700000000.0         0.0238194650835     0.0147109118125     0.976127737241      -0.0239572720934    0.976127737241      -0.0239572720934    0.0238194650835     0.0147109118125     
800000000.0         0.0239833140573     0.0168076185067     0.975949450567      -0.0273749835452    0.975949450567      -0.0273749835452    0.0239833140573     0.0168076185067     
900000000.0         0.0241576306943     0.0189029645333     0.975758935897      -0.0307913694019    0.975758935897      -0.0307913694019    0.0241576306943     0.0189029645333     
1000000000.0        0.0243431441832     0.0209968587646     0.975555463718      -0.0342063418231    0.975555463718      -0.0342063418231    0.0243431441832     0.0209968587646     
1100000000.0        0.0245403984298     0.0230892048625     0.975338489777      -0.0376198076614    0.975338489777      -0.0376198076614    0.0245403984298     0.0230892048625     
1200000000.0        0.0247498099322     0.025179902582      0.975107597205      -0.0410316697785    0.975107597205      -0.0410316697785    0.0247498099322     0.025179902582      
1300000000.0        0.0249717042127     0.0272688486846     0.974862460091      -0.044441827969     0.974862460091      -0.044441827969     0.0249717042127     0.0272688486846     
1400000000.0        0.025206339777      0.0293559376016     0.974602819512      -0.0478501796306    0.974602819512      -0.0478501796306    0.025206339777      0.0293559376016     
1500000000.0        0.02545392445       0.0314410619294     0.974328467208      -0.0512566202666    0.974328467208      -0.0512566202666    0.02545392445       0.0314410619294     
1600000000.0        0.0257146268554     0.0335241128089     0.974039234096      -0.0546610438706    0.974039234096      -0.0546610438706    0.0257146268554     0.0335241128089     
1700000000.0        0.0259885846933     0.0356049802231     0.973734981995      -0.0580633432278    0.973734981995      -0.0580633432278    0.0259885846933     0.0356049802231     
1800000000.0        0.0262759108433     0.0376835532335     0.973415597521      -0.0614634101566    0.973415597521      -0.0614634101566    0.0262759108433     0.0376835532335     
1900000000.0        0.0265766979517     0.0397597201733     0.973080987503      -0.0648611357041    0.973080987503      -0.0648611357041    0.0265766979517     0.0397597201733     
2000000000.0        0.0268910219397     0.0418333688057     0.972731075472      -0.0682564103075    0.972731075472      -0.0682564103075    0.0268910219397     0.0418333688057     
2100000000.0        0.0272189447263     0.0439043864567     0.972365798938      -0.0716491239297    0.972365798938      -0.0716491239297    0.0272189447263     0.0439043864567     
2200000000.0        0.0275605163711     0.0459726601274     0.971985107251      -0.0750391661735    0.971985107251      -0.0750391661735    0.0275605163711     0.0459726601274     
2300000000.0        0.0279157767812     0.04803807659       0.971588959889      -0.07842642638      0.971588959889      -0.07842642638      0.0279157767812     0.04803807659       
2400000000.0        0.0282847570858     0.0501005224717     0.971177325087      -0.0818107937135    0.971177325087      -0.0818107937135    0.0282847570858     0.0501005224717     
2500000000.0        0.0286674807545     0.0521598843267     0.970750178719      -0.0851921572362    0.970750178719      -0.0851921572362    0.0286674807545     0.0521598843267     
2600000000.0        0.0290639645162     0.0542160487014     0.970307503377      -0.0885704059738    0.970307503377      -0.0885704059738    0.0290639645162     0.0542160487014     
2700000000.0        0.0294742191187     0.0562689021911     0.969849287611      -0.0919454289741    0.969849287611      -0.0919454289741    0.0294742191187     0.0562689021911     
2800000000.0        0.0298982499645     0.0583183314917     0.969375525299      -0.0953171153598    0.969375525299      -0.0953171153598    0.0298982499645     0.0583183314917     
2900000000.0        0.0303360576439     0.0603642234463     0.968886215105      -0.0986853543758    0.968886215105      -0.0986853543758    0.0303360576439     0.0603642234463     
3000000000.0        0.0307876383876     0.0624064650874     0.968381360034      -0.102050035433     0.968381360034      -0.102050035433     0.0307876383876     0.0624064650874     
3100000000.0        0.0312529844513     0.0644449436757     0.967860967044      -0.105411048147     0.967860967044      -0.105411048147     0.0312529844513     0.0644449436757     
3200000000.0        0.0317320844464     0.0664795467361     0.967325046716      -0.108768282378     0.967325046716      -0.108768282378     0.0317320844464     0.0664795467361     
3300000000.0        0.0322249236245     0.0685101620907     0.96677361297       -0.112121628258     0.96677361297       -0.112121628258     0.0322249236245     0.0685101620907     
3400000000.0        0.0327314841245     0.0705366778899     0.966206682817      -0.115470976232     0.966206682817      -0.115470976232     0.0327314841245     0.0705366778899     
3500000000.0        0.0332517451878     0.072558982641      0.965624276145      -0.118816217077     0.965624276145      -0.118816217077     0.0332517451878     0.072558982641      
3600000000.0        0.0337856833471     0.0745769652359     0.965026415529      -0.122157241938     0.965026415529      -0.122157241938     0.0337856833471     0.0745769652359     
3700000000.0        0.0343332725922     0.0765905149761     0.964413126067      -0.125493942353     0.964413126067      -0.125493942353     0.0343332725922     0.0765905149761     
3800000000.0        0.034894484517      0.0785995215976     0.96378443523       -0.128826210272     0.96378443523       -0.128826210272     0.034894484517      0.0785995215976     
3900000000.0        0.0354692884501     0.0806038752936     0.963140372736      -0.132153938089     0.963140372736      -0.132153938089     0.0354692884501     0.0806038752936     
4000000000.0        0.0360576515713     0.0826034667364     0.96248097043       -0.135477018656     0.96248097043       -0.135477018656     0.0360576515713     0.0826034667364     
4100000000.0        0.0366595390159     0.0845981870988     0.96180626218       -0.138795345313     0.96180626218       -0.138795345313     0.0366595390159     0.0845981870988     
4200000000.0        0.0372749139688     0.0865879280735     0.961116283784      -0.1421088119       0.961116283784      -0.1421088119       0.0372749139688     0.0865879280735     
4300000000.0        0.0379037377499     0.0885725818932     0.960411072886      -0.145417312784     0.960411072886      -0.145417312784     0.0379037377499     0.0885725818932     
4400000000.0        0.0385459698905     0.0905520413482     0.959690668896      -0.148720742872     0.959690668896      -0.148720742872     0.0385459698905     0.0905520413482     
4500000000.0        0.0392015682045     0.0925261998048     0.958955112921      -0.152018997634     0.958955112921      -0.152018997634     0.0392015682045     0.0925261998048     
4600000000.0        0.0398704888519     0.0944949512224     0.958204447703      -0.155311973117     0.958204447703      -0.155311973117     0.0398704888519     0.0944949512224     
4700000000.0        0.0405526863986     0.0964581901699     0.957438717556      -0.158599565964     0.957438717556      -0.158599565964     0.0405526863986     0.0964581901699     
4800000000.0        0.0412481138707     0.0984158118416     0.956657968314      -0.161881673428     0.956657968314      -0.161881673428     0.0412481138707     0.0984158118416     
4900000000.0        0.0419567228047     0.100367712073      0.95586224728       -0.165158193392     0.95586224728       -0.165158193392     0.0419567228047     0.100367712073      
5000000000.0        0.0426784632945     0.102313787356      0.955051603179      -0.168429024378     0.955051603179      -0.168429024378     0.0426784632945     0.102313787356      
5100000000.0        0.0434132840352     0.104253934853      0.954226086116      -0.171694065568     0.954226086116      -0.171694065568     0.0434132840352     0.104253934853      
5200000000.0        0.044161132364      0.10618805241       0.953385747532      -0.174953216816     0.953385747532      -0.174953216816     0.044161132364      0.10618805241       
5300000000.0        0.0449219542981     0.108116038573      0.952530640168      -0.178206378658     0.952530640168      -0.178206378658     0.0449219542981     0.108116038573      
5400000000.0        0.0456956945713     0.110037792599      0.951660818028      -0.181453452334     0.951660818028      -0.181453452334     0.0456956945713     0.110037792599      
5500000000.0        0.0464822966678     0.111953214469      0.950776336347      -0.184694339792     0.950776336347      -0.184694339792     0.0464822966678     0.111953214469      
5600000000.0        0.047281702855      0.113862204902      0.949877251555      -0.187928943709     0.949877251555      -0.187928943709     0.047281702855      0.113862204902      
5700000000.0        0.0480938542135     0.115764665366      0.948963621248      -0.191157167494     0.948963621248      -0.191157167494     0.0480938542135     0.115764665366      
5800000000.0        0.0489186906672     0.117660498089      0.94803550416       -0.194378915311     0.94803550416       -0.194378915311     0.0489186906672     0.117660498089      
5900000000.0        0.0497561510108     0.119549606074      0.947092960135      -0.19759409208      0.947092960135      -0.19759409208      0.0497561510108     0.119549606074      
6000000000.0        0.050606172937      0.121431893104      0.946136050097      -0.200802603498     0.946136050097      -0.200802603498     0.050606172937      0.121431893104      
6100000000.0        0.0514686930621     0.123307263761      0.945164836026      -0.204004356041     0.945164836026      -0.204004356041     0.0514686930621     0.123307263761      
6200000000.0        0.052343646951      0.125175623427      0.944179380936      -0.207199256982     0.944179380936      -0.207199256982     0.052343646951      0.125175623427      
6300000000.0        0.0532309691415     0.127036878304      0.943179748845      -0.210387214396     0.943179748845      -0.210387214396     0.0532309691415     0.127036878304      
6400000000.0        0.0541305931668     0.128890935417      0.942166004758      -0.213568137175     0.942166004758      -0.213568137175     0.0541305931668     0.128890935417      
6500000000.0        0.0550424515791     0.130737702625      0.94113821464       -0.216741935033     0.94113821464       -0.216741935033     0.0550424515791     0.130737702625      
6600000000.0        0.0559664759708     0.132577088633      0.940096445396      -0.219908518519     0.940096445396      -0.219908518519     0.0559664759708     0.132577088633      
6700000000.0        0.0569025969962     0.134409002999      0.939040764848      -0.223067799025     0.939040764848      -0.223067799025     0.0569025969962     0.134409002999      
6800000000.0        0.0578507443921     0.136233356143      0.937971241718      -0.226219688793     0.937971241718      -0.226219688793     0.0578507443921     0.136233356143      
6900000000.0        0.0588108469986     0.138050059354      0.936887945603      -0.229364100928     0.936887945603      -0.229364100928     0.0588108469986     0.138050059354      
7000000000.0        0.0597828327784     0.139859024802      0.935790946957      -0.232500949402     0.935790946957      -0.232500949402     0.0597828327784     0.139859024802      
7100000000.0        0.060766628837      0.141660165544      0.934680317074      -0.235630149066     0.934680317074      -0.235630149066     0.060766628837      0.141660165544      
7200000000.0        0.0617621614413     0.143453395529      0.933556128063      -0.238751615653     0.933556128063      -0.238751615653     0.0617621614413     0.143453395529      
7300000000.0        0.0627693560389     0.145238629611      0.932418452835      -0.24186526579      0.932418452835      -0.24186526579      0.0627693560389     0.145238629611      
7400000000.0        0.0637881372761     0.147015783552      0.931267365083      -0.244971017005     0.931267365083      -0.244971017005     0.0637881372761     0.147015783552      
7500000000.0        0.0648184290167     0.14878477403       0.930102939259      -0.248068787729     0.930102939259      -0.248068787729     0.0648184290167     0.14878477403       
7600000000.0        0.0658601543595     0.150545518647      0.928925250565      -0.251158497311     0.928925250565      -0.251158497311     0.0658601543595     0.150545518647      
7700000000.0        0.0669132356562     0.152297935933      0.927734374926      -0.254240066017     0.927734374926      -0.254240066017     0.0669132356562     0.152297935933      
7800000000.0        0.067977594529      0.154041945356      0.926530388979      -0.257313415039     0.926530388979      -0.257313415039     0.067977594529      0.154041945356      
7900000000.0        0.0690531518876     0.155777467322      0.925313370053      -0.260378466505     0.925313370053      -0.260378466505     0.0690531518876     0.155777467322      
8000000000.0        0.0701398279466     0.157504423187      0.924083396153      -0.263435143477     0.924083396153      -0.263435143477     0.0701398279466     0.157504423187      
8100000000.0        0.0712375422422     0.15922273526       0.92284054594       -0.266483369963     0.92284054594       -0.266483369963     0.0712375422422     0.15922273526       
8200000000.0        0.0723462136491     0.160932326806      0.921584898721      -0.269523070921     0.921584898721      -0.269523070921     0.0723462136491     0.160932326806      
8300000000.0        0.0734657603968     0.162633122055      0.920316534424      -0.27255417226      0.920316534424      -0.27255417226      0.0734657603968     0.162633122055      
8400000000.0        0.0745961000862     0.164325046204      0.919035533589      -0.275576600851     0.919035533589      -0.275576600851     0.0745961000862     0.164325046204      
8500000000.0        0.075737149706      0.166008025421      0.917741977346      -0.278590284526     0.917741977346      -0.278590284526     0.075737149706      0.166008025421      
8600000000.0        0.0768888256483     0.167681986854      0.916435947402      -0.281595152088     0.916435947402      -0.281595152088     0.0768888256483     0.167681986854      
8700000000.0        0.0780510437254     0.169346858629      0.915117526027      -0.28459113331      0.915117526027      -0.28459113331      0.0780510437254     0.169346858629      
8800000000.0        0.0792237191847     0.171002569856      0.913786796033      -0.287578158941     0.913786796033      -0.287578158941     0.0792237191847     0.171002569856      
8900000000.0        0.0804067667255     0.172649050636      0.91244384076       -0.290556160709     0.91244384076       -0.290556160709     0.0804067667255     0.172649050636      
9000000000.0        0.0816001005135     0.174286232059      0.911088744063      -0.293525071328     0.911088744063      -0.293525071328     0.0816001005135     0.174286232059      
9100000000.0        0.0828036341975     0.175914046211      0.909721590294      -0.296484824495     0.909721590294      -0.296484824495     0.0828036341975     0.175914046211      
9200000000.0        0.0840172809238     0.177532426176      0.908342464288      -0.299435354898     0.908342464288      -0.299435354898     0.0840172809238     0.177532426176      
9300000000.0        0.0852409533519     0.179141306037      0.906951451345      -0.302376598216     0.906951451345      -0.302376598216     0.0852409533519     0.179141306037      
9400000000.0        0.0864745636699     0.18074062088       0.905548637219      -0.305308491125     0.905548637219      -0.305308491125     0.0864745636699     0.18074062088       
9500000000.0        0.0877180236092     0.182330306798      0.904134108099      -0.308230971294     0.904134108099      -0.308230971294     0.0877180236092     0.182330306798      
9600000000.0        0.0889712444597     0.183910300889      0.902707950596      -0.311143977395     0.902707950596      -0.311143977395     0.0889712444597     0.183910300889      
9700000000.0        0.0902341370847     0.185480541262      0.901270251728      -0.314047449097     0.901270251728      -0.314047449097     0.0902341370847     0.185480541262      
9800000000.0        0.0915066119355     0.187040967035      0.899821098906      -0.316941327077     0.899821098906      -0.316941327077     0.0915066119355     0.187040967035      
9900000000.0        0.0927885790663     0.188591518341      0.898360579915      -0.31982555301      0.898360579915      -0.31982555301      0.0927885790663     0.188591518341      
10000000000.0       0.0940799481488     0.190132136322      0.896888782907      -0.32270006958      0.896888782907      -0.32270006958      0.0940799481488     0.190132136322      
