# Hz S RI R 50.00 
100000000.0         0.00267402756926    0.000715910578735   0.997316748711      -0.00393278077797   0.997316748711      -0.00393278077797   0.00267402756926    0.000715910578735   
200000000.0         0.00269883491646    0.00143161111846    0.997273359618      -0.0078653610528    0.997273359618      -0.0078653610528    0.00269883491646    0.00143161111846    
300000000.0         0.00272460757615    0.00214711795454    0.997218646352      -0.0117977594156    0.997218646352      -0.0117977594156    0.00272460757615    0.00214711795454    
400000000.0         0.00275365781692    0.00286240533323    0.997150295583      -0.0157299458192    0.997150295583      -0.0157299458192    0.00275365781692    0.00286240533323    
500000000.0         0.00278687449342    0.00357743811373    0.997067417201      -0.0196618775046    0.997067417201      -0.0196618775046    0.00278687449342    0.00357743811373    
600000000.0         0.00282470951741    0.00429217717621    0.996969557866      -0.0235935055431    0.996969557866      -0.0235935055431    0.00282470951741    0.00429217717621    
700000000.0         0.00286742853953    0.00500658133019    0.996856450351      -0.0275247773235    0.996856450351      -0.0275247773235    0.00286742853953    0.00500658133019    
800000000.0         0.0029152024081     0.00572060818417    0.996727922088      -0.0314556377699    0.996727922088      -0.0314556377699    0.0029152024081     0.00572060818417    
900000000.0         0.00296814787704    0.00643421460431    0.996583854483      -0.0353860300285    0.996583854483      -0.0353860300285    0.00296814787704    0.00643421460431    
1000000000.0        0.00302634823269    0.00714735698111    0.996424162292      -0.0393158958967    0.996424162292      -0.0393158958967    0.00302634823269    0.00714735698111    
1100000000.0        0.0030898647561     0.00785999139583    0.996248782169      -0.0432451761077    0.996248782169      -0.0432451761077    0.0030898647561     0.00785999139583    
1200000000.0        0.00315874355088    0.00857207372987    0.996057665849      -0.0471738105317    0.996057665849      -0.0471738105317    0.00315874355088    0.00857207372987    
1300000000.0        0.00323301983767    0.00928355973987    0.995850775857      -0.0511017383224    0.995850775857      -0.0511017383224    0.00323301983767    0.00928355973987    
1400000000.0        0.00331272077607    0.00999440511111    0.995628082694      -0.055028898028     0.995628082694      -0.055028898028     0.00331272077607    0.00999440511111    
1500000000.0        0.00339786738711    0.0107045654966     0.995389562922      -0.0589552276784    0.995389562922      -0.0589552276784    0.00339786738711    0.0107045654966     
1600000000.0        0.00348847590333    0.0114139965461     0.995135197814      -0.0628806648532    0.995135197814      -0.0628806648532    0.00348847590333    0.0114139965461     
1700000000.0        0.00358455874147    0.0121226539292     0.994864972394      -0.0668051467383    0.994864972394      -0.0668051467383    0.00358455874147    0.0121226539292     
1800000000.0        0.00368612521928    0.0128304933523     0.994578874715      -0.070728610172     0.994578874715      -0.070728610172     0.00368612521928    0.0128304933523     
1900000000.0        0.0037931820939     0.0135374705731     0.994276895335      -0.0746509916837    0.994276895335      -0.0746509916837    0.0037931820939     0.0135374705731     
2000000000.0        0.00390573397341    0.0142435414117     0.993959026901      -0.078572227527     0.993959026901      -0.078572227527     0.00390573397341    0.0142435414117     
2100000000.0        0.00402378363605    0.0149486617601     0.993625263838      -0.082492253708     0.993625263838      -0.082492253708     0.00402378363605    0.0149486617601     
2200000000.0        0.00414733228143    0.0156527875903     0.993275602101      -0.0864110060103    0.993275602101      -0.0864110060103    0.00414733228143    0.0156527875903     
2300000000.0        0.00427637973043    0.0163558749607     0.992910038976      -0.0903284200164    0.992910038976      -0.0903284200164    0.00427637973043    0.0163558749607     
2400000000.0        0.00441092458625    0.0170578800217     0.992528572925      -0.0942444311269    0.992528572925      -0.0942444311269    0.00441092458625    0.0170578800217     
2500000000.0        0.00455096436536    0.0177587590213     0.992131203457      -0.098158974578     0.992131203457      -0.098158974578     0.00455096436536    0.0177587590213     
2600000000.0        0.00469649560502    0.0184584683092     0.991717931021      -0.102071985456     0.991717931021      -0.102071985456     0.00469649560502    0.0184584683092     
2700000000.0        0.00484751395236    0.0191569643405     0.991288756925      -0.105983398714     0.991288756925      -0.105983398714     0.00484751395236    0.0191569643405     
2800000000.0        0.00500401423863    0.01985420368       0.990843683256      -0.10989314918      0.990843683256      -0.10989314918      0.00500401423863    0.01985420368       
2900000000.0        0.00516599054179    0.0205501430049     0.99038271283       -0.113801171572     0.99038271283       -0.113801171572     0.00516599054179    0.0205501430049     
3000000000.0        0.00533343623935    0.0212447391081     0.989905849133      -0.11770740051      0.989905849133      -0.11770740051      0.00533343623935    0.0212447391081     
3100000000.0        0.00550634405359    0.0219379489009     0.989413096284      -0.121611770521     0.989413096284      -0.121611770521     0.00550634405359    0.0219379489009     
3200000000.0        0.00568470609014    0.0226297294159     0.988904458993      -0.125514216053     0.988904458993      -0.125514216053     0.00568470609014    0.0226297294159     
3300000000.0        0.00586851387147    0.0233200378095     0.988379942535      -0.12941467148      0.988379942535      -0.12941467148      0.00586851387147    0.0233200378095     
3400000000.0        0.00605775836576    0.0240088313638     0.987839552721      -0.133313071114     0.987839552721      -0.133313071114     0.00605775836576    0.0240088313638     
3500000000.0        0.00625243001219    0.0246960674899     0.987283295873      -0.137209349209     0.987283295873      -0.137209349209     0.00625243001219    0.0246960674899     
3600000000.0        0.00645251874311    0.025381703729      0.986711178806      -0.14110343997      0.986711178806      -0.14110343997      0.00645251874311    0.025381703729      
3700000000.0        0.00665801400347    0.0260656977554     0.98612320881       -0.14499527756      0.98612320881       -0.14499527756      0.00665801400347    0.0260656977554     
3800000000.0        0.00686890476814    0.0267480073783     0.985519393634      -0.148884796105     0.985519393634      -0.148884796105     0.00686890476814    0.0267480073783     
3900000000.0        0.00708517955725    0.0274285905438     0.984899741472      -0.152771929701     0.984899741472      -0.152771929701     0.00708517955725    0.0274285905438     
4000000000.0        0.00730682644988    0.0281074053371     0.984264260952      -0.156656612421     0.984264260952      -0.156656612421     0.00730682644988    0.0281074053371     
4100000000.0        0.00753383309637    0.0287844099841     0.983612961125      -0.160538778318     0.983612961125      -0.160538778318     0.00753383309637    0.0287844099841     
4200000000.0        0.00776618672939    0.0294595628538     0.982945851455      -0.164418361433     0.982945851455      -0.164418361433     0.00776618672939    0.0294595628538     
4300000000.0        0.008003874174      0.0301328224599     0.982262941811      -0.168295295797     0.982262941811      -0.168295295797     0.008003874174      0.0301328224599     
4400000000.0        0.00824688185668    0.0308041474629     0.981564242459      -0.172169515442     0.981564242459      -0.172169515442     0.00824688185668    0.0308041474629     
4500000000.0        0.00849519581372    0.0314734966717     0.980849764055      -0.176040954397     0.980849764055      -0.176040954397     0.00849519581372    0.0314734966717     
4600000000.0        0.00874880169877    0.0321408290458     0.98011951764       -0.1799095467       0.98011951764       -0.1799095467       0.00874880169877    0.0321408290458     
4700000000.0        0.00900768478981    0.0328061036966     0.979373514634      -0.1837752264       0.979373514634      -0.1837752264       0.00900768478981    0.0328061036966     
4800000000.0        0.00927182999565    0.03346927989       0.978611766828      -0.18763792756      0.978611766828      -0.18763792756      0.00927182999565    0.03346927989       
4900000000.0        0.00954122186187    0.0341303170475     0.977834286385      -0.191497584262     0.977834286385      -0.191497584262     0.00954122186187    0.0341303170475     
5000000000.0        0.00981584457634    0.0347891747484     0.97704108583       -0.195354130614     0.97704108583       -0.195354130614     0.00981584457634    0.0347891747484     
5100000000.0        0.0100956819744     0.0354458127314     0.97623217805       -0.199207500748     0.97623217805       -0.199207500748     0.0100956819744     0.0354458127314     
5200000000.0        0.0103807175439     0.0361001908965     0.975407576289      -0.20305762883      0.975407576289      -0.20305762883      0.0103807175439     0.0361001908965     
5300000000.0        0.0106709344292     0.0367522693066     0.974567294143      -0.206904449058     0.974567294143      -0.206904449058     0.0106709344292     0.0367522693066     
5400000000.0        0.0109663154361     0.0374020081895     0.973711345561      -0.210747895673     0.973711345561      -0.210747895673     0.0109663154361     0.0374020081895     
5500000000.0        0.0112668430356     0.0380493679396     0.972839744837      -0.214587902953     0.972839744837      -0.214587902953     0.0112668430356     0.0380493679396     
5600000000.0        0.0115724993676     0.0386943091193     0.971952506612      -0.218424405226     0.971952506612      -0.218424405226     0.0115724993676     0.0386943091193     
5700000000.0        0.0118832662447     0.0393367924613     0.971049645868      -0.222257336867     0.971049645868      -0.222257336867     0.0118832662447     0.0393367924613     
5800000000.0        0.0121991251558     0.0399767788699     0.970131177928      -0.226086632303     0.970131177928      -0.226086632303     0.0121991251558     0.0399767788699     
5900000000.0        0.0125200572693     0.0406142294229     0.969197118451      -0.229912226019     0.969197118451      -0.229912226019     0.0125200572693     0.0406142294229     
6000000000.0        0.0128460434361     0.0412491053735     0.968247483432      -0.233734052557     0.968247483432      -0.233734052557     0.0128460434361     0.0412491053735     
6100000000.0        0.013177064193      0.0418813681515     0.967282289201      -0.23755204652      0.967282289201      -0.23755204652      0.013177064193      0.0418813681515     
6200000000.0        0.0135130997655     0.0425109793655     0.966301552417      -0.24136614258      0.966301552417      -0.24136614258      0.0135130997655     0.0425109793655     
6300000000.0        0.0138541300709     0.0431379008044     0.96530529007       -0.245176275474     0.96530529007       -0.245176275474     0.0138541300709     0.0431379008044     
6400000000.0        0.0142001347204     0.0437620944391     0.964293519478      -0.24898238001      0.964293519478      -0.24898238001      0.0142001347204     0.0437620944391     
6500000000.0        0.0145510930227     0.0443835224243     0.963266258282      -0.252784391072     0.963266258282      -0.252784391072     0.0145510930227     0.0443835224243     
6600000000.0        0.014906983986      0.0450021471        0.962223524451      -0.25658224362      0.962223524451      -0.25658224362      0.014906983986      0.0450021471        
6700000000.0        0.0152677863207     0.0456179309932     0.961165336274      -0.260375872692     0.961165336274      -0.260375872692     0.0152677863207     0.0456179309932     
6800000000.0        0.015633478442      0.0462308368199     0.960091712363      -0.264165213411     0.960091712363      -0.264165213411     0.015633478442      0.0462308368199     
6900000000.0        0.0160040384722     0.0468408274861     0.959002671646      -0.267950200985     0.959002671646      -0.267950200985     0.0160040384722     0.0468408274861     
7000000000.0        0.0163794442431     0.0474478660903     0.957898233372      -0.271730770707     0.957898233372      -0.271730770707     0.0163794442431     0.0474478660903     
7100000000.0        0.0167596732986     0.0480519159242     0.956778417105      -0.275506857963     0.956778417105      -0.275506857963     0.0167596732986     0.0480519159242     
7200000000.0        0.0171447028967     0.0486529404753     0.955643242725      -0.279278398232     0.955643242725      -0.279278398232     0.0171447028967     0.0486529404753     
7300000000.0        0.0175345100117     0.0492509034279     0.954492730422      -0.283045327089     0.954492730422      -0.283045327089     0.0175345100117     0.0492509034279     
7400000000.0        0.0179290713369     0.0498457686647     0.953326900703      -0.286807580204     0.953326900703      -0.286807580204     0.0179290713369     0.0498457686647     
7500000000.0        0.0183283632864     0.0504375002688     0.952145774381      -0.290565093352     0.952145774381      -0.290565093352     0.0183283632864     0.0504375002688     
7600000000.0        0.0187323619974     0.0510260625252     0.95094937258       -0.294317802407     0.95094937258       -0.294317802407     0.0187323619974     0.0510260625252     
7700000000.0        0.0191410433324     0.0516114199222     0.949737716733      -0.298065643352     0.949737716733      -0.298065643352     0.0191410433324     0.0516114199222     
7800000000.0        0.0195543828812     0.0521935371531     0.948510828576      -0.301808552275     0.948510828576      -0.301808552275     0.0195543828812     0.0521935371531     
7900000000.0        0.0199723559633     0.0527723791177     0.947268730153      -0.305546465377     0.947268730153      -0.305546465377     0.0199723559633     0.0527723791177     
8000000000.0        0.0203949376296     0.0533479109243     0.94601144381       -0.309279318968     0.94601144381       -0.309279318968     0.0203949376296     0.0533479109243     
8100000000.0        0.020822102665      0.0539200978906     0.944738992196      -0.313007049475     0.944738992196      -0.313007049475     0.020822102665      0.0539200978906     
8200000000.0        0.0212538255899     0.0544889055457     0.943451398261      -0.316729593442     0.943451398261      -0.316729593442     0.0212538255899     0.0544889055457     
8300000000.0        0.0216900806627     0.0550542996317     0.942148685253      -0.320446887532     0.942148685253      -0.320446887532     0.0216900806627     0.0550542996317     
8400000000.0        0.0221308418816     0.0556162461048     0.940830876719      -0.324158868528     0.940830876719      -0.324158868528     0.0221308418816     0.0556162461048     
8500000000.0        0.0225760829868     0.0561747111373     0.939497996504      -0.327865473339     0.939497996504      -0.327865473339     0.0225760829868     0.0561747111373     
8600000000.0        0.0230257774625     0.0567296611189     0.938150068747      -0.331566638997     0.938150068747      -0.331566638997     0.0230257774625     0.0567296611189     
8700000000.0        0.0234798985386     0.0572810626583     0.936787117881      -0.335262302665     0.936787117881      -0.335262302665     0.0234798985386     0.0572810626583     
8800000000.0        0.0239384191933     0.0578288825844     0.935409168634      -0.338952401631     0.935409168634      -0.338952401631     0.0239384191933     0.0578288825844     
8900000000.0        0.0244013121547     0.0583730879484     0.934016246022      -0.342636873321     0.934016246022      -0.342636873321     0.0244013121547     0.0583730879484     
9000000000.0        0.0248685499029     0.0589136460246     0.932608375353      -0.346315655289     0.932608375353      -0.346315655289     0.0248685499029     0.0589136460246     
9100000000.0        0.0253401046721     0.0594505243123     0.931185582224      -0.349988685228     0.931185582224      -0.349988685228     0.0253401046721     0.0594505243123     
9200000000.0        0.0258159484523     0.0599836905372     0.929747892519      -0.353655900969     0.929747892519      -0.353655900969     0.0258159484523     0.0599836905372     
9300000000.0        0.0262960529917     0.0605131126526     0.928295332407      -0.357317240481     0.928295332407      -0.357317240481     0.0262960529917     0.0605131126526     
9400000000.0        0.0267803897985     0.0610387588413     0.926827928342      -0.360972641877     0.926827928342      -0.360972641877     0.0267803897985     0.0610387588413     
9500000000.0        0.0272689301428     0.0615605975165     0.925345707062      -0.364622043412     0.925345707062      -0.364622043412     0.0272689301428     0.0615605975165     
9600000000.0        0.0277616450587     0.0620785973237     0.923848695587      -0.368265383486     0.923848695587      -0.368265383486     0.0277616450587     0.0620785973237     
9700000000.0        0.0282585053464     0.0625927271416     0.922336921216      -0.371902600646     0.922336921216      -0.371902600646     0.0282585053464     0.0625927271416     
9800000000.0        0.028759481574      0.0631029560841     0.920810411528      -0.375533633591     0.920810411528      -0.375533633591     0.028759481574      0.0631029560841     
9900000000.0        0.0292645440795     0.063609253501      0.919269194379      -0.379158421168     0.919269194379      -0.379158421168     0.0292645440795     0.063609253501      
10000000000.0       0.0297736629729     0.06411158898       0.917713297903      -0.382776902376     0.917713297903      -0.382776902376     0.0297736629729     0.06411158898       
