# Hz S RI R 50.00 
100000000.0         0.0503275423303     0.00262205138423    0.94966898513       -0.00409146522442   0.94966898513       -0.00409146522442   0.0503275423303     0.00262205138423    
200000000.0         0.0506758108701     0.00523940288723    0.949316046194      -0.00817823408896   0.949316046194      -0.00817823408896   0.0506758108701     0.00523940288723    
300000000.0         0.0509610756514     0.00785364419293    0.949023912628      -0.0122619017209    0.949023912628      -0.0122619017209    0.0509610756514     0.00785364419293    
400000000.0         0.0512251025266     0.0104651781002     0.948750818149      -0.0163428758392    0.948750818149      -0.0163428758392    0.0512251025266     0.0104651781002     
500000000.0         0.0514840002224     0.0130741315843     0.948480653622      -0.0204212880779    0.948480653622      -0.0204212880779    0.0514840002224     0.0130741315843     
600000000.0         0.0517459900799     0.0156805096666     0.948205197297      -0.0244971479481    0.948205197297      -0.0244971479481    0.0517459900799     0.0156805096666     
700000000.0         0.0520159276901     0.0182842506822     0.947919593162      -0.0285703981515    0.947919593162      -0.0285703981515    0.0520159276901     0.0182842506822     
800000000.0         0.0522969545711     0.020885251921      0.947620699256      -0.0326409402502    0.947620699256      -0.0326409402502    0.0522969545711     0.020885251921      
900000000.0         0.0525912341738     0.0234833834103     0.947306351663      -0.0367086484666    0.947306351663      -0.0367086484666    0.0525912341738     0.0234833834103     
1000000000.0        0.0529003252371     0.026078496085      0.946974991153      -0.0407733778673    0.946974991153      -0.0407733778673    0.0529003252371     0.026078496085      
1100000000.0        0.0532253894864     0.0286704269887     0.946625455478      -0.0448349695731    0.946625455478      -0.0448349695731    0.0532253894864     0.0286704269887     
1200000000.0        0.0535673154876     0.031259002767      0.946256855522      -0.0488932542594    0.946256855522      -0.0488932542594    0.0535673154876     0.031259002767      
1300000000.0        0.053926796626      0.0338440421176     0.945868497316      -0.0529480546124    0.945868497316      -0.0529480546124    0.053926796626      0.0338440421176     
1400000000.0        0.0543043824001     0.03642535757       0.945459830747      -0.0569991871129    0.945459830747      -0.0569991871129    0.0543043824001     0.03642535757       
1500000000.0        0.0547005134011     0.039002756817      0.945030414574      -0.0610464633714    0.945030414574      -0.0610464633714    0.0547005134011     0.039002756817      
1600000000.0        0.0551155458992     0.0415760437358     0.944579891846      -0.0650896911524    0.944579891846      -0.0650896911524    0.0551155458992     0.0415760437358     
1700000000.0        0.0555497695776     0.0441450191889     0.944107972163      -0.0691286751779    0.944107972163      -0.0691286751779    0.0555497695776     0.0441450191889     
1800000000.0        0.0560034206105     0.0467094816638     0.943614418601      -0.0731632177693    0.943614418601      -0.0731632177693    0.0560034206105     0.0467094816638     
1900000000.0        0.0564766914976     0.0492692277942     0.943099037876      -0.0771931193701    0.943099037876      -0.0771931193701    0.0564766914976     0.0492692277942     
2000000000.0        0.0569697385866     0.0518240527896     0.94256167282       -0.0812181789776    0.94256167282       -0.0812181789776    0.0569697385866     0.0518240527896     
2100000000.0        0.0574826879164     0.0543737507952     0.94200219654       -0.085238194504     0.94200219654       -0.085238194504     0.0574826879164     0.0543737507952     
2200000000.0        0.0580156398167     0.0569181151978     0.941420507815      -0.0892529630831    0.941420507815      -0.0892529630831    0.0580156398167     0.0569181151978     
2300000000.0        0.0585686725751     0.0594569388878     0.940816527431      -0.0932622813345    0.940816527431      -0.0932622813345    0.0585686725751     0.0594569388878     
2400000000.0        0.0591418453928     0.0619900144869     0.940190195228      -0.0972659455908    0.940190195228      -0.0972659455908    0.0591418453928     0.0619900144869     
2500000000.0        0.0597352007914     0.0645171345473     0.939541467687      -0.101263752099     0.939541467687      -0.101263752099     0.0597352007914     0.0645171345473     
2600000000.0        0.0603487665917     0.0670380917284     0.938870315953      -0.105255497198     0.938870315953      -0.105255497198     0.0603487665917     0.0670380917284     
2700000000.0        0.0609825575543     0.0695526789539     0.938176724199      -0.109240977474     0.938176724199      -0.109240977474     0.0609825575543     0.0695526789539     
2800000000.0        0.061636576752      0.0720606895532     0.937460688247      -0.113219989906     0.937460688247      -0.113219989906     0.061636576752      0.0720606895532     
2900000000.0        0.0623108167251     0.0745619173893     0.936722214417      -0.117192331991     0.936722214417      -0.117192331991     0.0623108167251     0.0745619173893     
3000000000.0        0.0630052604619     0.0770561569757     0.935961318544      -0.121157801867     0.935961318544      -0.121157801867     0.0630052604619     0.0770561569757     
3100000000.0        0.0637198822369     0.0795432035832     0.935178025141      -0.125116198411     0.935178025141      -0.125116198411     0.0637198822369     0.0795432035832     
3200000000.0        0.0644546483304     0.0820228533382     0.934372366679      -0.129067321346     0.934372366679      -0.129067321346     0.0644546483304     0.0820228533382     
3300000000.0        0.0652095176521     0.0844949033142     0.933544382963      -0.133010971331     0.933544382963      -0.133010971331     0.0652095176521     0.0844949033142     
3400000000.0        0.0659844422831     0.0869591516168     0.932694120593      -0.136946950042     0.932694120593      -0.136946950042     0.0659844422831     0.0869591516168     
3500000000.0        0.0667793679504     0.0894153974626     0.931821632483      -0.140875060259     0.931821632483      -0.140875060259     0.0667793679504     0.0894153974626     
3600000000.0        0.0675942344448     0.0918634412541     0.93092697745       -0.144795105933     0.93092697745       -0.144795105933     0.0675942344448     0.0918634412541     
3700000000.0        0.0684289759902     0.0943030846493     0.930010219838      -0.14870689226      0.930010219838      -0.14870689226      0.0684289759902     0.0943030846493     
3800000000.0        0.0692835215724     0.0967341306277     0.929071429197      -0.152610225751     0.929071429197      -0.152610225751     0.0692835215724     0.0967341306277     
3900000000.0        0.0701577952327     0.0991563835529     0.928110679982      -0.156504914286     0.928110679982      -0.156504914286     0.0701577952327     0.0991563835529     
4000000000.0        0.0710517163322     0.101569649232      0.927128051294      -0.16039076718      0.927128051294      -0.16039076718      0.0710517163322     0.101569649232      
4100000000.0        0.0719651997895     0.103973734971      0.926123626637      -0.164267595239     0.926123626637      -0.164267595239     0.0719651997895     0.103973734971      
4200000000.0        0.0728981562974     0.106368449629      0.925097493707      -0.168135210811     0.925097493707      -0.168135210811     0.0728981562974     0.106368449629      
4300000000.0        0.0738504925195     0.108753603669      0.924049744192      -0.171993427838     0.924049744192      -0.171993427838     0.0738504925195     0.108753603669      
4400000000.0        0.0748221112702     0.111129009208      0.922980473592      -0.175842061906     0.922980473592      -0.175842061906     0.0748221112702     0.111129009208      
4500000000.0        0.0758129116811     0.113494480061      0.921889781053      -0.179680930292     0.921889781053      -0.179680930292     0.0758129116811     0.113494480061      
4600000000.0        0.0768227893535     0.115849831785      0.920777769217      -0.183509852006     0.920777769217      -0.183509852006     0.0768227893535     0.115849831785      
4700000000.0        0.0778516365003     0.118194881726      0.919644544074      -0.187328647837     0.919644544074      -0.187328647837     0.0778516365003     0.118194881726      
4800000000.0        0.0788993420786     0.120529449056      0.918490214836      -0.191137140391     0.918490214836      -0.191137140391     0.0788993420786     0.120529449056      
4900000000.0        0.0799657919127     0.122853354812      0.91731489381       -0.194935154131     0.91731489381       -0.194935154131     0.0799657919127     0.122853354812      
5000000000.0        0.0810508688105     0.125166421936      0.916118696284      -0.198722515418     0.916118696284      -0.198722515418     0.0810508688105     0.125166421936      
5100000000.0        0.0821544526722     0.127468475307      0.914901740414      -0.202499052539     0.914901740414      -0.202499052539     0.0821544526722     0.127468475307      
5200000000.0        0.0832764205939     0.129759341779      0.913664147126      -0.20626459575      0.913664147126      -0.20626459575      0.0832764205939     0.129759341779      
5300000000.0        0.084416646965      0.132038850212      0.912406040014      -0.210018977304     0.912406040014      -0.210018977304     0.084416646965      0.132038850212      
5400000000.0        0.0855750035618     0.134306831504      0.91112754525       -0.213762031484     0.91112754525       -0.213762031484     0.0855750035618     0.134306831504      
5500000000.0        0.0867513596362     0.13656311862       0.909828791491      -0.217493594631     0.909828791491      -0.217493594631     0.0867513596362     0.13656311862       
5600000000.0        0.0879455820007     0.138807546623      0.9085099098        -0.221213505178     0.9085099098        -0.221213505178     0.0879455820007     0.138807546623      
5700000000.0        0.08915753511       0.141039952698      0.907171033558      -0.224921603671     0.907171033558      -0.224921603671     0.08915753511       0.141039952698      
5800000000.0        0.0903870811398     0.143260176183      0.905812298388      -0.228617732801     0.905812298388      -0.228617732801     0.0903870811398     0.143260176183      
5900000000.0        0.0916340800624     0.14546805859       0.90443384208       -0.232301737427     0.90443384208       -0.232301737427     0.0916340800624     0.14546805859       
6000000000.0        0.0928983897201     0.14766344363       0.903035804518      -0.235973464598     0.903035804518      -0.235973464598     0.0928983897201     0.14766344363       
6100000000.0        0.0941798658962     0.149846177239      0.901618327605      -0.23963276358      0.901618327605      -0.23963276358      0.0941798658962     0.149846177239      
6200000000.0        0.0954783623839     0.152016107593      0.900181555201      -0.243279485871     0.900181555201      -0.243279485871     0.0954783623839     0.152016107593      
6300000000.0        0.0967937310533     0.154173085135      0.898725633047      -0.246913485231     0.898725633047      -0.246913485231     0.0967937310533     0.154173085135      
6400000000.0        0.098125821917      0.15631696259       0.897250708708      -0.250534617693     0.897250708708      -0.250534617693     0.098125821917      0.15631696259       
6500000000.0        0.0994744831935     0.158447594986      0.895756931504      -0.254142741584     0.895756931504      -0.254142741584     0.0994744831935     0.158447594986      
6600000000.0        0.10083956137       0.160564839669      0.894244452449      -0.257737717545     0.894244452449      -0.257737717545     0.10083956137       0.160564839669      
6700000000.0        0.102220901262      0.162668556321      0.892713424192      -0.261319408544     0.892713424192      -0.261319408544     0.102220901262      0.162668556321      
6800000000.0        0.103618346076      0.164758606975      0.891164000954      -0.264887679891     0.891164000954      -0.264887679891     0.103618346076      0.164758606975      
6900000000.0        0.105031737464      0.166834856029      0.88959633847       -0.268442399255     0.88959633847       -0.268442399255     0.105031737464      0.166834856029      
7000000000.0        0.106460915583      0.168897170257      0.888010593934      -0.271983436676     0.888010593934      -0.271983436676     0.106460915583      0.168897170257      
7100000000.0        0.107905719155      0.170945418826      0.886406925941      -0.275510664575     0.886406925941      -0.275510664575     0.107905719155      0.170945418826      
7200000000.0        0.109365985514      0.172979473302      0.884785494431      -0.279023957768     0.884785494431      -0.279023957768     0.109365985514      0.172979473302      
7300000000.0        0.11084155067       0.174999207663      0.883146460632      -0.282523193477     0.883146460632      -0.282523193477     0.11084155067       0.174999207663      
7400000000.0        0.112332249356      0.17700449831       0.881489987013      -0.286008251336     0.881489987013      -0.286008251336     0.112332249356      0.17700449831       
7500000000.0        0.113837915084      0.178995224072      0.879816237222      -0.289479013401     0.879816237222      -0.289479013401     0.113837915084      0.178995224072      
7600000000.0        0.115358380197      0.180971266215      0.878125376043      -0.292935364159     0.878125376043      -0.292935364159     0.115358380197      0.180971266215      
7700000000.0        0.116893475921      0.182932508449      0.876417569336      -0.296377190533     0.876417569336      -0.296377190533     0.116893475921      0.182932508449      
7800000000.0        0.118443032414      0.184878836933      0.874692983992      -0.299804381888     0.874692983992      -0.299804381888     0.118443032414      0.184878836933      
7900000000.0        0.120006878818      0.186810140281      0.872951787879      -0.303216830036     0.872951787879      -0.303216830036     0.120006878818      0.186810140281      
8000000000.0        0.121584843307      0.188726309564      0.871194149795      -0.306614429241     0.871194149795      -0.306614429241     0.121584843307      0.188726309564      
8100000000.0        0.123176753138      0.190627238317      0.869420239419      -0.30999707622      0.869420239419      -0.30999707622      0.123176753138      0.190627238317      
8200000000.0        0.124782434695      0.192512822535      0.86763022726       -0.313364670146     0.86763022726       -0.313364670146     0.124782434695      0.192512822535      
8300000000.0        0.126401713544      0.194382960682      0.865824284612      -0.316717112652     0.865824284612      -0.316717112652     0.126401713544      0.194382960682      
8400000000.0        0.128034414471      0.196237553685      0.864002583506      -0.320054307828     0.864002583506      -0.320054307828     0.128034414471      0.196237553685      
8500000000.0        0.129680361536      0.198076504939      0.862165296664      -0.323376162223     0.862165296664      -0.323376162223     0.129680361536      0.198076504939      
8600000000.0        0.131339378115      0.199899720302      0.86031259745       -0.326682584844     0.86031259745       -0.326682584844     0.131339378115      0.199899720302      
8700000000.0        0.133011286948      0.201707108097      0.85844465983       -0.329973487153     0.85844465983       -0.329973487153     0.133011286948      0.201707108097      
8800000000.0        0.134695910179      0.203498579106      0.856561658323      -0.333248783066     0.856561658323      -0.333248783066     0.134695910179      0.203498579106      
8900000000.0        0.136393069407      0.20527404657       0.854663767955      -0.33650838895      0.854663767955      -0.33650838895      0.136393069407      0.20527404657       
9000000000.0        0.138102585724      0.207033426184      0.852751164223      -0.339752223617     0.852751164223      -0.339752223617     0.138102585724      0.207033426184      
9100000000.0        0.13982427976       0.208776636091      0.850824023041      -0.342980208321     0.850824023041      -0.342980208321     0.13982427976       0.208776636091      
9200000000.0        0.141557971729      0.210503596877      0.848882520708      -0.346192266754     0.848882520708      -0.346192266754     0.141557971729      0.210503596877      
9300000000.0        0.143303481466      0.212214231569      0.846926833858      -0.349388325035     0.846926833858      -0.349388325035     0.143303481466      0.212214231569      
9400000000.0        0.145060628469      0.213908465621      0.844957139421      -0.352568311709     0.844957139421      -0.352568311709     0.145060628469      0.213908465621      
9500000000.0        0.146829231947      0.215586226912      0.842973614582      -0.355732157737     0.842973614582      -0.355732157737     0.146829231947      0.215586226912      
9600000000.0        0.148609110849      0.217247445739      0.840976436741      -0.358879796486     0.840976436741      -0.358879796486     0.148609110849      0.217247445739      
9700000000.0        0.150400083916      0.218892054801      0.838965783472      -0.362011163724     0.838965783472      -0.362011163724     0.150400083916      0.218892054801      
9800000000.0        0.152201969712      0.220519989199      0.836941832484      -0.36512619761      0.836941832484      -0.36512619761      0.152201969712      0.220519989199      
9900000000.0        0.154014586664      0.222131186418      0.834904761582      -0.368224838679     0.834904761582      -0.368224838679     0.154014586664      0.222131186418      
10000000000.0       0.155837753106      0.223725586323      0.832854748626      -0.371307029838     0.832854748626      -0.371307029838     0.155837753106      0.223725586323      
