# Hz S RI R 50.00 
100000000.0         0.0020897983492     0.000599595841938   0.997908718137      -0.00102314298449   0.997908718137      -0.00102314298449   0.0020897983492     0.000599595841938   
200000000.0         0.0021053206867     0.00119914567074    0.997892532757      -0.00204624426237   0.997892532757      -0.00204624426237   0.0021053206867     0.00119914567074    
300000000.0         0.0021183748099     0.00179866559846    0.997878636049      -0.00306932233943   0.997878636049      -0.00306932233943   0.0021183748099     0.00179866559846    
400000000.0         0.00213077476507    0.00239815974096    0.997865213952      -0.00409238318035   0.997865213952      -0.00409238318035   0.00213077476507    0.00239815974096    
500000000.0         0.00214321961021    0.00299762939176    0.997851567389      -0.00511542965206   0.997851567389      -0.00511542965206   0.00214321961021    0.00299762939176    
600000000.0         0.00215606606597    0.00359707458587    0.997837339622      -0.00613846318222   0.997837339622      -0.00613846318222   0.00215606606597    0.00359707458587    
700000000.0         0.0021695249707     0.00419649466514    0.997822319789      -0.00716148437323   0.997822319789      -0.00716148437323   0.0021695249707     0.00419649466514    
800000000.0         0.00218373299301    0.00479588854227    0.9978063712        -0.00818449329482   0.9978063712        -0.00818449329482   0.00218373299301    0.00479588854227    
900000000.0         0.00219878456691    0.00539525484309    0.997789399396      -0.00920748964598   0.997789399396      -0.00920748964598   0.00219878456691    0.00539525484309    
1000000000.0        0.00221474808163    0.00599459199155    0.997771335961      -0.0102304728529    0.997771335961      -0.0102304728529    0.00221474808163    0.00599459199155    
1100000000.0        0.00223167488263    0.00659389826365    0.997752129522      -0.0112534421335    0.997752129522      -0.0112534421335    0.00223167488263    0.00659389826365    
1200000000.0        0.00224960463586    0.00719317182393    0.997731740384      -0.0122763965406    0.997731740384      -0.0122763965406    0.00224960463586    0.00719317182393    
1300000000.0        0.00226856870308    0.00779241075077    0.997710137156      -0.0132993349945    0.997710137156      -0.0132993349945    0.00226856870308    0.00779241075077    
1400000000.0        0.00228859236078    0.00839161305494    0.997687294529      -0.0143222563052    0.997687294529      -0.0143222563052    0.00228859236078    0.00839161305494    
1500000000.0        0.00230969631236    0.00899077669335    0.997663191767      -0.0153451591907    0.997663191767      -0.0153451591907    0.00230969631236    0.00899077669335    
1600000000.0        0.00233189775033    0.00958989957941    0.997637811645      -0.016368042291     0.997637811645      -0.016368042291     0.00233189775033    0.00958989957941    
1700000000.0        0.00235521112186    0.0101889795912     0.99761113968       -0.0173909041781    0.99761113968       -0.0173909041781    0.00235521112186    0.0101889795912     
1800000000.0        0.00237964869293    0.0107880145778     0.997583163571      -0.018413743366     0.997583163571      -0.018413743366     0.00237964869293    0.0107880145778     
1900000000.0        0.00240522097209    0.0113870023646     0.997553872772      -0.019436558317     0.997553872772      -0.019436558317     0.00240522097209    0.0113870023646     
2000000000.0        0.00243193703434    0.0119859407572     0.99752325817       -0.020459347448     0.99752325817       -0.020459347448     0.00243193703434    0.0119859407572     
2100000000.0        0.00245980477235    0.0125848275449     0.997491311836      -0.0214821091357    0.997491311836      -0.0214821091357    0.00245980477235    0.0125848275449     
2200000000.0        0.00248883109389    0.0131836605036     0.99745802682       -0.0225048417206    0.99745802682       -0.0225048417206    0.00248883109389    0.0131836605036     
2300000000.0        0.00251902207908    0.0137824373982     0.997423397003      -0.0235275435106    0.997423397003      -0.0235275435106    0.00251902207908    0.0137824373982     
2400000000.0        0.00255038310674    0.0143811559843     0.997387416966      -0.0245502127844    0.997387416966      -0.0245502127844    0.00255038310674    0.0143811559843     
2500000000.0        0.00258291895714    0.0149798140102     0.997350081886      -0.025572847794     0.997350081886      -0.025572847794     0.00258291895714    0.0149798140102     
2600000000.0        0.00261663389623    0.0155784092181     0.997311387454      -0.0265954467669    0.997311387454      -0.0265954467669    0.00261663389623    0.0155784092181     
2700000000.0        0.00265153174518    0.0161769393455     0.997271329807      -0.0276180079088    0.997271329807      -0.0276180079088    0.00265153174518    0.0161769393455     
2800000000.0        0.0026876159384     0.0167754021259     0.997229905466      -0.0286405294048    0.997229905466      -0.0286405294048    0.0026876159384     0.0167754021259     
2900000000.0        0.00272488957219    0.0173737952904     0.99718711129       -0.0296630094212    0.99718711129       -0.0296630094212    0.00272488957219    0.0173737952904     
3000000000.0        0.00276335544569    0.0179721165677     0.997142944435      -0.0306854461072    0.997142944435      -0.0306854461072    0.00276335544569    0.0179721165677     
3100000000.0        0.00280301609584    0.0185703636854     0.997097402319      -0.031707837596     0.997097402319      -0.031707837596     0.00280301609584    0.0185703636854     
3200000000.0        0.00284387382712    0.0191685343702     0.997050482589      -0.032730182006     0.997050482589      -0.032730182006     0.00284387382712    0.0191685343702     
3300000000.0        0.00288593073707    0.0197666263487     0.997002183103      -0.0337524774418    0.997002183103      -0.0337524774418    0.00288593073707    0.0197666263487     
3400000000.0        0.00292918873839    0.0203646373478     0.9969525019        -0.0347747219955    0.9969525019        -0.0347747219955    0.00292918873839    0.0203646373478     
3500000000.0        0.00297364957804    0.0209625650951     0.996901437184      -0.035796913747     0.996901437184      -0.035796913747     0.00297364957804    0.0209625650951     
3600000000.0        0.00301931485384    0.021560407319      0.99684898731       -0.0368190507653    0.99684898731       -0.0368190507653    0.00301931485384    0.021560407319      
3700000000.0        0.00306618602904    0.0221581617497     0.996795150766      -0.037841131109     0.996795150766      -0.037841131109     0.00306618602904    0.0221581617497     
3800000000.0        0.00311426444505    0.0227558261187     0.99673992616       -0.0388631528271    0.99673992616       -0.0388631528271    0.00311426444505    0.0227558261187     
3900000000.0        0.00316355133267    0.0233533981596     0.996683312212      -0.0398851139595    0.996683312212      -0.0398851139595    0.00316355133267    0.0233533981596     
4000000000.0        0.00321404782202    0.0239508756081     0.996625307741      -0.0409070125375    0.996625307741      -0.0409070125375    0.00321404782202    0.0239508756081     
4100000000.0        0.00326575495129    0.0245482562022     0.996565911659      -0.0419288465845    0.996565911659      -0.0419288465845    0.00326575495129    0.0245482562022     
4200000000.0        0.0033186736746     0.0251455376826     0.99650512296       -0.0429506141166    0.99650512296       -0.0429506141166    0.0033186736746     0.0251455376826     
4300000000.0        0.00337280486893    0.0257427177926     0.996442940717      -0.0439723131425    0.996442940717      -0.0439723131425    0.00337280486893    0.0257427177926     
4400000000.0        0.00342814934036    0.0263397942782     0.99637936407       -0.0449939416646    0.99637936407       -0.0449939416646    0.00342814934036    0.0263397942782     
4500000000.0        0.00348470782965    0.0269367648885     0.996314392227      -0.0460154976789    0.996314392227      -0.0460154976789    0.00348470782965    0.0269367648885     
4600000000.0        0.00354248101724    0.0275336273758     0.996248024455      -0.0470369791755    0.996248024455      -0.0470369791755    0.00354248101724    0.0275336273758     
4700000000.0        0.00360146952782    0.0281303794954     0.996180260076      -0.0480583841392    0.996180260076      -0.0480583841392    0.00360146952782    0.0281303794954     
4800000000.0        0.00366167393433    0.0287270190058     0.996111098464      -0.0490797105493    0.996111098464      -0.0490797105493    0.00366167393433    0.0287270190058     
4900000000.0        0.00372309476173    0.0293235436691     0.996040539041      -0.0501009563803    0.996040539041      -0.0501009563803    0.00372309476173    0.0293235436691     
5000000000.0        0.00378573249029    0.0299199512506     0.995968581273      -0.0511221196022    0.995968581273      -0.0511221196022    0.00378573249029    0.0299199512506     
5100000000.0        0.00384958755866    0.0305162395194     0.995895224667      -0.0521431981803    0.995895224667      -0.0521431981803    0.00384958755866    0.0305162395194     
5200000000.0        0.00391466036662    0.0311124062477     0.995820468769      -0.0531641900761    0.995820468769      -0.0531641900761    0.00391466036662    0.0311124062477     
5300000000.0        0.00398095127763    0.0317084492116     0.99574431316       -0.054185093247     0.99574431316       -0.054185093247     0.00398095127763    0.0317084492116     
5400000000.0        0.00404846062113    0.0323043661908     0.995666757457      -0.0552059056467    0.995666757457      -0.0552059056467    0.00404846062113    0.0323043661908     
5500000000.0        0.00411718869461    0.0329001549686     0.995587801307      -0.0562266252255    0.995587801307      -0.0562266252255    0.00411718869461    0.0329001549686     
5600000000.0        0.00418713576562    0.0334958133321     0.995507444387      -0.0572472499304    0.995507444387      -0.0572472499304    0.00418713576562    0.0334958133321     
5700000000.0        0.00425830207349    0.034091339072      0.995425686403      -0.0582677777053    0.995425686403      -0.0582677777053    0.00425830207349    0.034091339072      
5800000000.0        0.00433068783099    0.0346867299829     0.995342527085      -0.059288206491     0.995342527085      -0.059288206491     0.00433068783099    0.0346867299829     
5900000000.0        0.00440429322583    0.035281983863      0.995257966191      -0.0603085342256    0.995257966191      -0.0603085342256    0.00440429322583    0.035281983863      
6000000000.0        0.00447911842205    0.0358770985146     0.9951720035        -0.0613287588448    0.9951720035        -0.0613287588448    0.00447911842205    0.0358770985146     
6100000000.0        0.00455516356131    0.0364720717435     0.995084638815      -0.0623488782815    0.995084638815      -0.0623488782815    0.00455516356131    0.0364720717435     
6200000000.0        0.00463242876405    0.0370669013595     0.994995871959      -0.0633688904665    0.994995871959      -0.0633688904665    0.00463242876405    0.0370669013595     
6300000000.0        0.00471091413065    0.0376615851761     0.994905702774      -0.0643887933282    0.994905702774      -0.0643887933282    0.00471091413065    0.0376615851761     
6400000000.0        0.00479061974237    0.0382561210108     0.994814131123      -0.065408584793     0.994814131123      -0.065408584793     0.00479061974237    0.0382561210108     
6500000000.0        0.00487154566235    0.0388505066847     0.994721156886      -0.0664282627854    0.994721156886      -0.0664282627854    0.00487154566235    0.0388505066847     
6600000000.0        0.0049536919365     0.039444740023      0.994626779961      -0.0674478252279    0.994626779961      -0.0674478252279    0.0049536919365     0.039444740023      
6700000000.0        0.00503705859427    0.0400388188545     0.994531000261      -0.0684672700414    0.994531000261      -0.0684672700414    0.00503705859427    0.0400388188545     
6800000000.0        0.00512164564944    0.040632741012      0.994433817714      -0.0694865951451    0.994433817714      -0.0694865951451    0.00512164564944    0.040632741012      
6900000000.0        0.00520745310085    0.0412265043322     0.994335232265      -0.0705057984565    0.994335232265      -0.0705057984565    0.00520745310085    0.0412265043322     
7000000000.0        0.00529448093303    0.0418201066553     0.994235243873      -0.071524877892     0.994235243873      -0.071524877892     0.00529448093303    0.0418201066553     
7100000000.0        0.00538272911685    0.0424135458255     0.994133852509      -0.0725438313663    0.994133852509      -0.0725438313663    0.00538272911685    0.0424135458255     
7200000000.0        0.00547219761008    0.0430068196911     0.994031058157      -0.0735626567929    0.994031058157      -0.0735626567929    0.00547219761008    0.0430068196911     
7300000000.0        0.00556288635796    0.0435999261036     0.993926860816      -0.0745813520842    0.993926860816      -0.0745813520842    0.00556288635796    0.0435999261036     
7400000000.0        0.00565479529368    0.0441928629188     0.993821260494      -0.0755999151513    0.993821260494      -0.0755999151513    0.00565479529368    0.0441928629188     
7500000000.0        0.00574792433888    0.0447856279961     0.993714257212      -0.0766183439045    0.993714257212      -0.0766183439045    0.00574792433888    0.0447856279961     
7600000000.0        0.00584227340409    0.0453782191986     0.993605851002      -0.0776366362528    0.993605851002      -0.0776366362528    0.00584227340409    0.0453782191986     
7700000000.0        0.00593784238917    0.0459706343932     0.993496041907      -0.0786547901045    0.993496041907      -0.0786547901045    0.00593784238917    0.0459706343932     
7800000000.0        0.00603463118368    0.0465628714507     0.993384829979      -0.0796728033669    0.993384829979      -0.0796728033669    0.00603463118368    0.0465628714507     
7900000000.0        0.00613263966729    0.0471549282453     0.993272215282      -0.0806906739466    0.993272215282      -0.0806906739466    0.00613263966729    0.0471549282453     
8000000000.0        0.0062318677101     0.0477468026552     0.993158197887      -0.0817083997495    0.993158197887      -0.0817083997495    0.0062318677101     0.0477468026552     
8100000000.0        0.00633231517298    0.0483384925622     0.993042777875      -0.0827259786807    0.993042777875      -0.0827259786807    0.00633231517298    0.0483384925622     
8200000000.0        0.00643398190792    0.0489299958517     0.992925955337      -0.0837434086447    0.992925955337      -0.0837434086447    0.00643398190792    0.0489299958517     
8300000000.0        0.00653686775827    0.0495213104128     0.992807730373      -0.0847606875454    0.992807730373      -0.0847606875454    0.00653686775827    0.0495213104128     
8400000000.0        0.00664097255908    0.0501124341385     0.992688103089      -0.0857778132862    0.992688103089      -0.0857778132862    0.00664097255908    0.0501124341385     
8500000000.0        0.0067462961373     0.050703364925      0.992567073601      -0.0867947837701    0.992567073601      -0.0867947837701    0.00674629613729    0.050703364925      
8600000000.0        0.00685283831209    0.0512941006724     0.992444642032      -0.0878115968995    0.992444642032      -0.0878115968995    0.00685283831209    0.0512941006724     
8700000000.0        0.00696059889505    0.0518846392843     0.992320808513      -0.0888282505764    0.992320808513      -0.0888282505764    0.00696059889505    0.0518846392843     
8800000000.0        0.00706957769041    0.0524749786679     0.992195573182      -0.0898447427026    0.992195573182      -0.0898447427026    0.00706957769041    0.0524749786679     
8900000000.0        0.00717977449528    0.0530651167339     0.992068936185      -0.0908610711794    0.992068936185      -0.0908610711794    0.00717977449528    0.0530651167339     
9000000000.0        0.00729118909983    0.0536550513967     0.991940897673      -0.0918772339079    0.991940897673      -0.0918772339079    0.00729118909983    0.0536550513967     
9100000000.0        0.0074038212875     0.054244780574      0.991811457808      -0.0928932287889    0.991811457808      -0.0928932287889    0.0074038212875     0.054244780574      
9200000000.0        0.0075176708352     0.0548343021872     0.991680616753      -0.0939090537231    0.991680616753      -0.0939090537231    0.0075176708352     0.0548343021872     
9300000000.0        0.00763273751343    0.0554236141609     0.991548374682      -0.0949247066107    0.991548374682      -0.0949247066107    0.00763273751343    0.0554236141609     
9400000000.0        0.0077490210865     0.0560127144235     0.991414731772      -0.0959401853522    0.991414731772      -0.0959401853522    0.0077490210865     0.0560127144235     
9500000000.0        0.00786652131267    0.0566016009067     0.99127968821       -0.0969554878476    0.99127968821       -0.0969554878476    0.00786652131267    0.0566016009067     
9600000000.0        0.00798523794429    0.0571902715455     0.991143244185      -0.097970611997     0.991143244185      -0.097970611997     0.00798523794429    0.0571902715455     
9700000000.0        0.00810517072797    0.0577787242784     0.991005399894      -0.0989855557002    0.991005399894      -0.0989855557002    0.00810517072797    0.0577787242784     
9800000000.0        0.00822631940469    0.0583669570474     0.990866155539      -0.100000316857     0.990866155539      -0.100000316857     0.00822631940469    0.0583669570474     
9900000000.0        0.00834868370995    0.0589549677976     0.990725511328      -0.101014893368     0.990725511328      -0.101014893368     0.00834868370995    0.0589549677976     
10000000000.0       0.00847226337388    0.0595427544777     0.990583467475      -0.102029283133     0.990583467475      -0.102029283133     0.00847226337388    0.0595427544777     
