# Hz S RI R 50.00 
100000000.0         0.00371053928619    0.00144372153863    0.996285192484      -0.00323094503476   0.996285192484      -0.00323094503476   0.00371053928619    0.00144372153863    
200000000.0         0.00374840739358    0.00288715089638    0.996240857833      -0.00646161534514   0.996240857833      -0.00646161534514   0.00374840739358    0.00288715089638    
300000000.0         0.00378911985358    0.00433031485053    0.99619048023       -0.00969204916613   0.99619048023       -0.00969204916613   0.00378911985358    0.00433031485053    
400000000.0         0.00383588371318    0.0057731796761     0.996130852269      -0.0129222213166    0.996130852269      -0.0129222213166    0.00383588371318    0.0057731796761     
500000000.0         0.00388993257811    0.00721569762588    0.996060739913      -0.0161520911158    0.996060739913      -0.0161520911158    0.00388993257811    0.00721569762588    
600000000.0         0.00395189407802    0.00865781478275    0.995979515036      -0.0193816107407    0.995979515036      -0.0193816107407    0.00395189407802    0.00865781478275    
700000000.0         0.00402213744766    0.0100994738807     0.995886807845      -0.0226107283063    0.995886807845      -0.0226107283063    0.00402213744766    0.0100994738807     
800000000.0         0.00410090036483    0.0115406156144     0.995782380045      -0.0258393893293    0.995782380045      -0.0258393893293    0.00410090036483    0.0115406156144     
900000000.0         0.00418834541615    0.0129811793432     0.995666068376      -0.0290675375358    0.995666068376      -0.0290675375358    0.00418834541615    0.0129811793432     
1000000000.0        0.00428458871338    0.0144211035093     0.995537755999      -0.0322951153507    0.995537755999      -0.0322951153507    0.00428458871338    0.0144211035093     
1100000000.0        0.00438971579793    0.0158603259043     0.995397356593      -0.0355220642179    0.995397356593      -0.0355220642179    0.00438971579793    0.0158603259043     
1200000000.0        0.00450379111617    0.017298783848      0.995244804883      -0.0387483248207    0.995244804883      -0.0387483248207    0.00450379111617    0.017298783848      
1300000000.0        0.00462686397959    0.0187364143155     0.995080050682      -0.0419738372403    0.995080050682      -0.0419738372403    0.00462686397959    0.0187364143155     
1400000000.0        0.00475897248172    0.0201731540281     0.99490305497       -0.0451985410735    0.99490305497       -0.0451985410735    0.00475897248172    0.0201731540281     
1500000000.0        0.00490014616673    0.0216089395237     0.994713787236      -0.0484223755238    0.994713787236      -0.0484223755238    0.00490014616673    0.0216089395237     
1600000000.0        0.00505040790344    0.023043707209      0.994512223597      -0.0516452794724    0.994512223597      -0.0516452794724    0.00505040790344    0.023043707209      
1700000000.0        0.00520977523564    0.0244773934029     0.994298345452      -0.0548671915358    0.994298345452      -0.0548671915358    0.00520977523564    0.0244773934029     
1800000000.0        0.00537826137704    0.0259099343694     0.994072138489      -0.0580880501128    0.994072138489      -0.0580880501128    0.00537826137704    0.0259099343694     
1900000000.0        0.00555587595866    0.0273412663468     0.993833591938      -0.061307793424     0.993833591938      -0.061307793424     0.00555587595866    0.0273412663468     
2000000000.0        0.00574262559996    0.0287713255701     0.993582698         -0.0645263595446    0.993582698         -0.0645263595446    0.00574262559996    0.0287713255701     
2100000000.0        0.00593851435193    0.0302000482915     0.993319451404      -0.0677436864337    0.993319451404      -0.0677436864337    0.00593851435193    0.0302000482915     
2200000000.0        0.00614354404566    0.0316273707973     0.993043849062      -0.0709597119583    0.993043849062      -0.0709597119583    0.00614354404566    0.0316273707973     
2300000000.0        0.00635771456975    0.033053229423      0.99275588979       -0.0741743739161    0.99275588979       -0.0741743739161    0.00635771456975    0.033053229423      
2400000000.0        0.0065810240937     0.0344775605665     0.992455574088      -0.0773876100544    0.992455574088      -0.0773876100544    0.0065810240937     0.0344775605665     
2500000000.0        0.00681346924969    0.0359003007001     0.992142903953      -0.0805993580873    0.992142903953      -0.0805993580873    0.00681346924969    0.0359003007001     
2600000000.0        0.00705504528163    0.0373213863807     0.991817882739      -0.0838095557123    0.991817882739      -0.0838095557123    0.00705504528163    0.0373213863807     
2700000000.0        0.00730574616878    0.0387407542604     0.991480515027      -0.087018140624     0.991480515027      -0.087018140624     0.00730574616878    0.0387407542604     
2800000000.0        0.00756556472882    0.0401583410945     0.991130806526      -0.0902250505273    0.991130806526      -0.0902250505273    0.00756556472882    0.0401583410945     
2900000000.0        0.00783449270459    0.0415740837506     0.990768763985      -0.0934302231501    0.990768763985      -0.0934302231501    0.00783449270459    0.0415740837506     
3000000000.0        0.00811252083757    0.042987919216      0.990394395123      -0.0966335962543    0.990394395123      -0.0966335962543    0.00811252083757    0.042987919216      
3100000000.0        0.00839963893048    0.0443997846051     0.990007708563      -0.0998351076464    0.990007708563      -0.0998351076464    0.00839963893048    0.0443997846051     
3200000000.0        0.00869583590111    0.0458096171661     0.989608713781      -0.103034695188     0.989608713781      -0.103034695188     0.00869583590111    0.0458096171661     
3300000000.0        0.00900109982866    0.0472173542881     0.989197421061      -0.106232296803     0.989197421061      -0.106232296803     0.00900109982866    0.0472173542881     
3400000000.0        0.00931541799407    0.0486229335066     0.988773841452      -0.109427850491     0.988773841452      -0.109427850491     0.00931541799407    0.0486229335066     
3500000000.0        0.00963877691522    0.05002629251       0.988337986735      -0.112621294331     0.988337986735      -0.112621294331     0.00963877691522    0.05002629251       
3600000000.0        0.00997116237779    0.0514273691453     0.987889869394      -0.115812566492     0.987889869394      -0.115812566492     0.00997116237779    0.0514273691453     
3700000000.0        0.0103125594626     0.0528261014234     0.987429502588      -0.119001605241     0.987429502588      -0.119001605241     0.0103125594626     0.0528261014234     
3800000000.0        0.0106629525696     0.0542224275249     0.986956900124      -0.122188348948     0.986956900124      -0.122188348948     0.0106629525696     0.0542224275249     
3900000000.0        0.0110223254397     0.055616285805      0.986472076442      -0.125372736097     0.986472076442      -0.125372736097     0.0110223254397     0.055616285805      
4000000000.0        0.011390661174      0.0570076147985     0.985975046591      -0.128554705288     0.985975046591      -0.128554705288     0.011390661174      0.0570076147985     
4100000000.0        0.0117679422509     0.0583963532252     0.985465826213      -0.13173419525      0.985465826213      -0.13173419525      0.0117679422509     0.0583963532252     
4200000000.0        0.0121541505422     0.0597824399942     0.984944431531      -0.134911144839     0.984944431531      -0.134911144839     0.0121541505422     0.0597824399942     
4300000000.0        0.0125492673273     0.061165814209      0.98441087933       -0.138085493054     0.98441087933       -0.138085493054     0.0125492673273     0.061165814209      
4400000000.0        0.012953273306      0.0625464151719     0.983865186947      -0.141257179035     0.983865186947      -0.141257179035     0.012953273306      0.0625464151719     
4500000000.0        0.0133661486108     0.0639241823887     0.983307372259      -0.144426142073     0.983307372259      -0.144426142073     0.0133661486108     0.0639241823887     
4600000000.0        0.0137878728177     0.0652990555729     0.982737453673      -0.147592321614     0.982737453673      -0.147592321614     0.0137878728177     0.0652990555729     
4700000000.0        0.0142184249562     0.0666709746503     0.982155450115      -0.150755657267     0.982155450115      -0.150755657267     0.0142184249562     0.0666709746503     
4800000000.0        0.0146577835192     0.0680398797632     0.981561381019      -0.153916088807     0.981561381019      -0.153916088807     0.0146577835192     0.0680398797632     
4900000000.0        0.0151059264717     0.0694057112746     0.980955266324      -0.15707355618      0.980955266324      -0.15707355618      0.0151059264717     0.0694057112746     
5000000000.0        0.0155628312587     0.0707684097725     0.98033712646       -0.160227999511     0.98033712646       -0.160227999511     0.0155628312587     0.0707684097725     
5100000000.0        0.0160284748135     0.0721279160736     0.979706982344      -0.163379359108     0.979706982344      -0.163379359108     0.0160284748135     0.0721279160736     
5200000000.0        0.0165028335645     0.0734841712279     0.979064855372      -0.166527575464     0.979064855372      -0.166527575464     0.0165028335645     0.0734841712279     
5300000000.0        0.0169858834426     0.074837116522      0.978410767411      -0.169672589267     0.978410767411      -0.169672589267     0.0169858834426     0.074837116522      
5400000000.0        0.0174775998877     0.0761866934836     0.977744740796      -0.172814341402     0.977744740796      -0.172814341402     0.0174775998877     0.0761866934836     
5500000000.0        0.0179779578548     0.0775328438851     0.97706679832       -0.175952772954     0.97706679832       -0.175952772954     0.0179779578548     0.0775328438851     
5600000000.0        0.0184869318202     0.0788755097474     0.976376963229      -0.179087825217     0.976376963229      -0.179087825217     0.0184869318202     0.0788755097474     
5700000000.0        0.0190044957875     0.0802146333437     0.975675259219      -0.182219439695     0.975675259219      -0.182219439695     0.0190044957875     0.0802146333437     
5800000000.0        0.0195306232927     0.0815501572031     0.974961710429      -0.185347558107     0.974961710429      -0.185347558107     0.0195306232927     0.0815501572031     
5900000000.0        0.0200652874101     0.0828820241144     0.974236341434      -0.188472122393     0.974236341434      -0.188472122393     0.0200652874101     0.0828820241144     
6000000000.0        0.0206084607572     0.0842101771296     0.973499177243      -0.191593074717     0.973499177243      -0.191593074717     0.0206084607572     0.0842101771296     
6100000000.0        0.0211601154999     0.0855345595677     0.972750243292      -0.194710357472     0.972750243292      -0.194710357472     0.0211601154999     0.0855345595677     
6200000000.0        0.0217202233576     0.0868551150176     0.971989565439      -0.197823913282     0.971989565439      -0.197823913282     0.0217202233576     0.0868551150176     
6300000000.0        0.0222887556077     0.0881717873423     0.971217169962      -0.200933685011     0.971217169962      -0.200933685011     0.0222887556077     0.0881717873423     
6400000000.0        0.0228656830907     0.089484520682      0.970433083552      -0.204039615759     0.970433083552      -0.204039615759     0.0228656830907     0.089484520682      
6500000000.0        0.0234509762146     0.0907932594572     0.969637333308      -0.207141648876     0.969637333308      -0.207141648876     0.0234509762146     0.0907932594572     
6600000000.0        0.0240446049595     0.0920979483726     0.968829946736      -0.210239727956     0.968829946736      -0.210239727956     0.0240446049595     0.0920979483726     
6700000000.0        0.0246465388821     0.0933985324197     0.96801095174       -0.213333796848     0.96801095174       -0.213333796848     0.0246465388821     0.0933985324197     
6800000000.0        0.0252567471201     0.0946949568808     0.967180376622      -0.216423799657     0.967180376622      -0.216423799657     0.0252567471201     0.0946949568808     
6900000000.0        0.0258751983965     0.0959871673316     0.966338250075      -0.219509680747     0.966338250075      -0.219509680747     0.0258751983965     0.0959871673316     
7000000000.0        0.0265018610242     0.0972751096446     0.96548460118       -0.222591384745     0.96548460118       -0.222591384745     0.0265018610242     0.0972751096446     
7100000000.0        0.0271367029097     0.0985587299921     0.964619459402      -0.225668856547     0.964619459402      -0.225668856547     0.0271367029097     0.0985587299921     
7200000000.0        0.0277796915578     0.0998379748493     0.963742854584      -0.228742041317     0.963742854584      -0.228742041317     0.0277796915578     0.0998379748493     
7300000000.0        0.0284307940756     0.101112790997      0.962854816947      -0.231810884496     0.962854816947      -0.231810884496     0.0284307940756     0.101112790997      
7400000000.0        0.0290899771767     0.102383125527      0.961955377082      -0.234875331799     0.961955377082      -0.234875331799     0.0290899771767     0.102383125527      
7500000000.0        0.0297572071851     0.103648925839      0.961044565947      -0.237935329225     0.961044565947      -0.237935329225     0.0297572071851     0.103648925839      
7600000000.0        0.0304324500397     0.104910139651      0.960122414865      -0.240990823053     0.960122414865      -0.240990823053     0.0304324500397     0.104910139651      
7700000000.0        0.0311156712979     0.106166714996      0.959188955518      -0.244041759853     0.959188955518      -0.244041759853     0.0311156712979     0.106166714996      
7800000000.0        0.0318068361401     0.107418600231      0.958244219942      -0.247088086483     0.958244219942      -0.247088086483     0.0318068361401     0.107418600231      
7900000000.0        0.0325059093736     0.108665744031      0.957288240526      -0.250129750095     0.957288240526      -0.250129750095     0.0325059093736     0.108665744031      
8000000000.0        0.0332128554363     0.109908095401      0.956321050008      -0.253166698137     0.956321050008      -0.253166698137     0.0332128554363     0.109908095401      
8100000000.0        0.0339276384011     0.111145603673      0.955342681467      -0.256198878358     0.955342681467      -0.256198878358     0.0339276384011     0.111145603673      
8200000000.0        0.03465022198       0.11237821851       0.954353168324      -0.259226238807     0.954353168324      -0.259226238807     0.03465022198       0.11237821851       
8300000000.0        0.0353805695276     0.113605889908      0.953352544336      -0.262248727841     0.953352544336      -0.262248727841     0.0353805695276     0.113605889908      
8400000000.0        0.0361186440456     0.114828568202      0.95234084359       -0.265266294122     0.95234084359       -0.265266294122     0.0361186440456     0.114828568202      
8500000000.0        0.0368644081863     0.116046204062      0.951318100504      -0.268278886624     0.951318100504      -0.268278886624     0.0368644081863     0.116046204062      
8600000000.0        0.037617824257      0.117258748502      0.950284349817      -0.271286454636     0.950284349817      -0.271286454636     0.037617824257      0.117258748502      
8700000000.0        0.038378854224      0.118466152878      0.949239626593      -0.274288947761     0.949239626593      -0.274288947761     0.038378854224      0.118466152878      
8800000000.0        0.0391474597161     0.119668368892      0.948183966207      -0.277286315923     0.948183966207      -0.277286315923     0.0391474597161     0.119668368892      
8900000000.0        0.0399236020289     0.120865348596      0.947117404351      -0.280278509365     0.947117404351      -0.280278509365     0.0399236020289     0.120865348596      
9000000000.0        0.040707242129      0.12205704439       0.946039977023      -0.283265478654     0.946039977023      -0.283265478654     0.040707242129      0.12205704439       
9100000000.0        0.0414983406573     0.123243409029      0.944951720528      -0.286247174687     0.944951720528      -0.286247174687     0.0414983406573     0.123243409029      
9200000000.0        0.0422968579339     0.124424395621      0.943852671471      -0.289223548685     0.943852671471      -0.289223548685     0.0422968579339     0.124424395621      
9300000000.0        0.043102753961      0.125599957633      0.942742866752      -0.292194552202     0.942742866752      -0.292194552202     0.043102753961      0.125599957633      
9400000000.0        0.0439159884279     0.126770048888      0.941622343567      -0.295160137125     0.941622343567      -0.295160137125     0.0439159884279     0.126770048888      
9500000000.0        0.0447365207141     0.127934623574      0.940491139401      -0.298120255678     0.940491139401      -0.298120255678     0.0447365207141     0.127934623574      
9600000000.0        0.045564309894      0.129093636239      0.939349292022      -0.301074860421     0.939349292022      -0.301074860421     0.045564309894      0.129093636239      
9700000000.0        0.0463993147404     0.130247041799      0.938196839481      -0.304023904254     0.938196839481      -0.304023904254     0.0463993147404     0.130247041799      
9800000000.0        0.0472414937286     0.131394795535      0.937033820106      -0.30696734042      0.937033820106      -0.30696734042      0.0472414937286     0.131394795535      
9900000000.0        0.0480908050403     0.132536853097      0.9358602725        -0.309905122506     0.9358602725        -0.309905122506     0.0480908050403     0.132536853097      
10000000000.0       0.048947206568      0.133673170507      0.934676235532      -0.312837204444     0.934676235532      -0.312837204444     0.048947206568      0.133673170507      
