# Hz S RI R 50.00 
100000000.0         0.00374781079746    0.00144154246752    0.996245490685      -0.00401110360769   0.996245490685      -0.00401110360769   0.00374781079746    0.00144154246752    
200000000.0         0.00378897403538    0.00288271846272    0.996192017682      -0.0080218511595    0.996192017682      -0.0080218511595    0.00378897403538    0.00288271846272    
300000000.0         0.00383518085136    0.00432353652512    0.996126889338      -0.0120322592246    0.996126889338      -0.0120322592246    0.00383518085136    0.00432353652512    
400000000.0         0.00388966649775    0.00576393435703    0.996046869743      -0.0160422699635    0.996046869743      -0.0160422699635    0.00388966649775    0.00576393435703    
500000000.0         0.00395367389154    0.00720383335793    0.995950715183      -0.0200518074247    0.995950715183      -0.0200518074247    0.00395367389154    0.00720383335793    
600000000.0         0.00402783402482    0.00864314780097    0.995837793738      -0.0240607873412    0.995837793738      -0.0240607873412    0.00402783402482    0.00864314780097    
700000000.0         0.00411251678404    0.0100817881212     0.995707734469      -0.0280691207355    0.995707734469      -0.0280691207355    0.00411251678404    0.0100817881212     
800000000.0         0.00420795895149    0.0115196624394     0.995560299423      -0.0320767156323    0.995560299423      -0.0320767156323    0.00420795895149    0.0115196624394     
900000000.0         0.0043143211811     0.0129566773804     0.995395326661      -0.0360834780022    0.995395326661      -0.0360834780022    0.0043143211811     0.0129566773804     
1000000000.0        0.00443171686942    0.0143927385595     0.995212701389      -0.040089312336     0.995212701389      -0.040089312336     0.00443171686942    0.0143927385595     
1100000000.0        0.00456022819961    0.0158277508927     0.995012339922      -0.0440941220199    0.995012339922      -0.0440941220199    0.00456022819961    0.0158277508927     
1200000000.0        0.00469991569872    0.0172616188065     0.994794180126      -0.0480978095945    0.994794180126      -0.0480978095945    0.00469991569872    0.0172616188065     
1300000000.0        0.00485082424886    0.0186942463862     0.994558175413      -0.0521002769423    0.994558175413      -0.0521002769423    0.00485082424886    0.0186942463862     
1400000000.0        0.00501298703737    0.0201255374848     0.99430429079       -0.0561014254283    0.99430429079       -0.0561014254283    0.00501298703737    0.0201255374848     
1500000000.0        0.00518642824798    0.0215553958059     0.994032500171      -0.0601011560077    0.994032500171      -0.0601011560077    0.00518642824798    0.0215553958059     
1600000000.0        0.00537116495066    0.0229837249685     0.993742784492      -0.0640993693128    0.993742784492      -0.0640993693128    0.00537116495066    0.0229837249685     
1700000000.0        0.00556720846357    0.0244104285583     0.993435130347      -0.0680959657223    0.993435130347      -0.0680959657223    0.00556720846357    0.0244104285583     
1800000000.0        0.00577456535666    0.0258354101711     0.993109528989      -0.0720908454198    0.993109528989      -0.0720908454198    0.00577456535666    0.0258354101711     
1900000000.0        0.00599323820581    0.0272585734476     0.992765975577      -0.0760839084422    0.992765975577      -0.0760839084422    0.00599323820581    0.0272585734476     
2000000000.0        0.00622322616934    0.0286798221044     0.992404468601      -0.0800750547219    0.992404468601      -0.0800750547219    0.00622322616934    0.0286798221044     
2100000000.0        0.00646452543564    0.0300990599602     0.992025009436      -0.0840641841237    0.992025009436      -0.0840641841237    0.00646452543564    0.0300990599602     
2200000000.0        0.00671712957537    0.0315161909591     0.991627601988      -0.0880511964765    0.991627601988      -0.0880511964765    0.00671712957537    0.0315161909591     
2300000000.0        0.00698102982234    0.0329311191913     0.991212252422      -0.0920359916022    0.991212252422      -0.0920359916022    0.00698102982234    0.0329311191913     
2400000000.0        0.00725621529979    0.0343437489123     0.990778968929      -0.0960184693421    0.990778968929      -0.0960184693421    0.00725621529979    0.0343437489123     
2500000000.0        0.00754267320482    0.0357539845598     0.990327761546      -0.0999985295799    0.990327761546      -0.0999985295799    0.00754267320482    0.0357539845598     
2600000000.0        0.00784038896012    0.0371617307696     0.989858642009      -0.103976072264     0.989858642009      -0.103976072264     0.00784038896012    0.0371617307696     
2700000000.0        0.00814934633992    0.0385668923911     0.98937162362       -0.107950997427     0.98937162362       -0.107950997427     0.00814934633992    0.0385668923911     
2800000000.0        0.0084695275754     0.0399693745005     0.988866721151      -0.111923205204     0.988866721151      -0.111923205204     0.0084695275754     0.0399693745005     
2900000000.0        0.00880091344379    0.0413690824143     0.988343950749      -0.115892595853     0.988343950749      -0.115892595853     0.00880091344379    0.0413690824143     
3000000000.0        0.00914348334402    0.0427659217022     0.987803329868      -0.119859069767     0.987803329868      -0.119859069767     0.00914348334402    0.0427659217022     
3100000000.0        0.00949721536167    0.0441597981986     0.987244877197      -0.123822527493     0.987244877197      -0.123822527493     0.00949721536167    0.0441597981986     
3200000000.0        0.00986208632495    0.0455506180148     0.986668612614      -0.127782869746     0.986668612614      -0.127782869746     0.00986208632495    0.0455506180148     
3300000000.0        0.0102380718534     0.0469382875493     0.986074557129      -0.131739997422     0.986074557129      -0.131739997422     0.0102380718534     0.0469382875493     
3400000000.0        0.0106251464004     0.0483227134996     0.98546273285       -0.135693811613     0.98546273285       -0.135693811613     0.0106251464004     0.0483227134996     
3500000000.0        0.0110232832908     0.0497038028718     0.98483316294       -0.13964421362      0.98483316294       -0.13964421362      0.0110232832908     0.0497038028718     
3600000000.0        0.011432454754      0.0510814629914     0.984185871591      -0.143591104967     0.984185871591      -0.143591104967     0.011432454754      0.0510814629914     
3700000000.0        0.0118526319539     0.0524556015128     0.983520883987      -0.147534387408     0.983520883987      -0.147534387408     0.0118526319539     0.0524556015128     
3800000000.0        0.0122837850149     0.0538261264293     0.982838226286      -0.151473962946     0.982838226286      -0.151473962946     0.0122837850149     0.0538261264293     
3900000000.0        0.0127258830467     0.0551929460827     0.982137925592      -0.155409733838     0.982137925592      -0.155409733838     0.0127258830467     0.0551929460827     
4000000000.0        0.0131788941654     0.0565559691723     0.981420009934      -0.159341602611     0.981420009934      -0.159341602611     0.0131788941654     0.0565559691723     
4100000000.0        0.0136427855139     0.0579151047639     0.98068450825       -0.163269472069     0.98068450825       -0.163269472069     0.0136427855139     0.0579151047639     
4200000000.0        0.0141175232802     0.0592702622996     0.979931450364      -0.167193245308     0.979931450364      -0.167193245308     0.0141175232802     0.0592702622996     
4300000000.0        0.0146030727138     0.0606213516054     0.979160866976      -0.171112825722     0.979160866976      -0.171112825722     0.0146030727138     0.0606213516054     
4400000000.0        0.0150993981422     0.0619682829011     0.97837278964       -0.175028117013     0.97837278964       -0.175028117013     0.0150993981422     0.0619682829011     
4500000000.0        0.0156064629849     0.0633109668079     0.977567250755      -0.178939023206     0.977567250755      -0.178939023206     0.0156064629849     0.0633109668079     
4600000000.0        0.0161242297676     0.0646493143572     0.976744283551      -0.182845448654     0.976744283551      -0.182845448654     0.0161242297676     0.0646493143572     
4700000000.0        0.0166526601352     0.0659832369989     0.975903922074      -0.186747298047     0.975903922074      -0.186747298047     0.0166526601352     0.0659832369989     
4800000000.0        0.0171917148637     0.0673126466092     0.975046201175      -0.190644476424     0.975046201175      -0.190644476424     0.0171917148637     0.0673126466092     
4900000000.0        0.0177413538724     0.0686374554993     0.974171156503      -0.194536889181     0.974171156503      -0.194536889181     0.0177413538724     0.0686374554993     
5000000000.0        0.0183015362351     0.0699575764225     0.973278824487      -0.198424442081     0.973278824487      -0.198424442081     0.0183015362351     0.0699575764225     
5100000000.0        0.0188722201905     0.0712729225826     0.972369242332      -0.202307041258     0.972369242332      -0.202307041258     0.0188722201905     0.0712729225826     
5200000000.0        0.0194533631529     0.0725834076414     0.971442448003      -0.206184593232     0.971442448003      -0.206184593232     0.0194533631529     0.0725834076414     
5300000000.0        0.0200449217221     0.0738889457262     0.970498480224      -0.210057004912     0.970498480224      -0.210057004912     0.0200449217221     0.0738889457262     
5400000000.0        0.0206468516934     0.0751894514374     0.969537378459      -0.21392418361      0.969537378459      -0.21392418361      0.0206468516934     0.0751894514374     
5500000000.0        0.0212591080668     0.0764848398559     0.968559182909      -0.217786037041     0.968559182909      -0.217786037041     0.0212591080668     0.0764848398559     
5600000000.0        0.021881645056      0.07777502655       0.967563934503      -0.221642473339     0.967563934503      -0.221642473339     0.021881645056      0.07777502655       
5700000000.0        0.0225144160984     0.0790599275833     0.966551674886      -0.22549340106      0.966551674886      -0.22549340106      0.0225144160984     0.0790599275833     
5800000000.0        0.0231573738629     0.0803394595211     0.965522446413      -0.22933872919      0.965522446413      -0.22933872919      0.0231573738629     0.0803394595211     
5900000000.0        0.0238104702593     0.0816135394376     0.96447629214       -0.233178367154     0.96447629214       -0.233178367154     0.0238104702593     0.0816135394376     
6000000000.0        0.0244736564469     0.0828820849227     0.963413255816      -0.237012224824     0.963413255816      -0.237012224824     0.0244736564469     0.0828820849227     
6100000000.0        0.0251468828425     0.084145014089      0.962333381874      -0.240840212524     0.962333381874      -0.240840212524     0.0251468828425     0.084145014089      
6200000000.0        0.0258300991294     0.0854022455782     0.961236715426      -0.244662241037     0.961236715426      -0.244662241037     0.0258300991294     0.0854022455782     
6300000000.0        0.0265232542653     0.0866536985678     0.960123302249      -0.248478221614     0.960123302249      -0.248478221614     0.0265232542653     0.0866536985678     
6400000000.0        0.0272262964909     0.0878992927774     0.958993188783      -0.25228806598      0.958993188783      -0.25228806598      0.0272262964909     0.0878992927774     
6500000000.0        0.0279391733377     0.0891389484752     0.957846422121      -0.256091686341     0.957846422121      -0.256091686341     0.0279391733377     0.0891389484752     
6600000000.0        0.0286618316364     0.0903725864845     0.956683049999      -0.259888995388     0.956683049999      -0.259888995388     0.0286618316364     0.0903725864845     
6700000000.0        0.0293942175249     0.0916001281891     0.955503120792      -0.263679906307     0.955503120792      -0.263679906307     0.0293942175249     0.0916001281891     
6800000000.0        0.0301362764565     0.0928214955404     0.954306683504      -0.267464332785     0.954306683504      -0.267464332785     0.0301362764565     0.0928214955404     
6900000000.0        0.0308879532077     0.0940366110624     0.953093787761      -0.271242189013     0.953093787761      -0.271242189013     0.0308879532077     0.0940366110624     
7000000000.0        0.0316491918865     0.0952453978584     0.951864483802      -0.275013389696     0.951864483802      -0.275013389696     0.0316491918865     0.0952453978584     
7100000000.0        0.03241993594       0.0964477796158     0.950618822472      -0.278777850056     0.950618822472      -0.278777850056     0.03241993594       0.0964477796158     
7200000000.0        0.0332001281627     0.0976436806129     0.949356855218      -0.282535485838     0.949356855218      -0.282535485838     0.0332001281627     0.0976436806129     
7300000000.0        0.0339897107044     0.0988330257235     0.948078634072      -0.286286213319     0.948078634072      -0.286286213319     0.0339897107044     0.0988330257235     
7400000000.0        0.0347886250783     0.100015740423      0.946784211655      -0.290029949311     0.946784211655      -0.290029949311     0.0347886250783     0.100015740423      
7500000000.0        0.0355968121684     0.101191750793      0.94547364116       -0.293766611165     0.94547364116       -0.293766611165     0.0355968121684     0.101191750793      
7600000000.0        0.0364142122383     0.102360983527      0.944146976348      -0.297496116779     0.944146976348      -0.297496116779     0.0364142122383     0.102360983527      
7700000000.0        0.0372407649385     0.103523365936      0.942804271542      -0.301218384604     0.942804271542      -0.301218384604     0.0372407649385     0.103523365936      
7800000000.0        0.0380764093146     0.104678825954      0.941445581615      -0.304933333645     0.941445581615      -0.304933333645     0.0380764093146     0.104678825954      
7900000000.0        0.0389210838152     0.105827292141      0.940070961986      -0.308640883471     0.940070961986      -0.308640883471     0.0389210838152     0.105827292141      
8000000000.0        0.0397747263001     0.106968693688      0.938680468611      -0.312340954214     0.938680468611      -0.312340954214     0.0397747263001     0.106968693688      
8100000000.0        0.040637274048      0.108102960424      0.937274157974      -0.316033466581     0.937274157974      -0.316033466581     0.040637274048      0.108102960424      
8200000000.0        0.0415086637646     0.109230022819      0.935852087081      -0.319718341853     0.935852087081      -0.319718341853     0.0415086637646     0.109230022819      
8300000000.0        0.0423888315907     0.110349811989      0.934414313453      -0.323395501891     0.934414313453      -0.323395501891     0.0423888315907     0.110349811989      
8400000000.0        0.04327771311       0.1114622597        0.932960895113      -0.327064869142     0.932960895113      -0.327064869142     0.04327771311       0.1114622597        
8500000000.0        0.0441752433572     0.112567298373      0.931491890586      -0.330726366641     0.931491890586      -0.330726366641     0.0441752433572     0.112567298373      
8600000000.0        0.0450813568263     0.113664861088      0.930007358885      -0.334379918017     0.930007358885      -0.334379918017     0.0450813568263     0.113664861088      
8700000000.0        0.0459959874781     0.114754881586      0.928507359507      -0.338025447497     0.928507359507      -0.338025447497     0.0459959874781     0.114754881586      
8800000000.0        0.0469190687486     0.115837294277      0.926991952422      -0.341662879907     0.926991952422      -0.341662879907     0.0469190687486     0.115837294277      
8900000000.0        0.0478505335571     0.116912034242      0.925461198066      -0.34529214068      0.925461198066      -0.34529214068      0.0478505335571     0.116912034242      
9000000000.0        0.0487903143141     0.117979037236      0.923915157337      -0.348913155859     0.923915157337      -0.348913155859     0.0487903143141     0.117979037236      
9100000000.0        0.0497383429293     0.119038239691      0.922353891582      -0.352525852098     0.922353891582      -0.352525852098     0.0497383429293     0.119038239691      
9200000000.0        0.0506945508199     0.120089578724      0.920777462589      -0.356130156666     0.920777462589      -0.356130156666     0.0506945508199     0.120089578724      
9300000000.0        0.0516588689186     0.121132992134      0.919185932586      -0.359725997453     0.919185932586      -0.359725997453     0.0516588689186     0.121132992134      
9400000000.0        0.0526312276816     0.122168418413      0.917579364224      -0.363313302972     0.917579364224      -0.363313302972     0.0526312276816     0.122168418413      
9500000000.0        0.0536115570968     0.123195796741      0.915957820576      -0.36689200236      0.915957820576      -0.36689200236      0.0536115570968     0.123195796741      
9600000000.0        0.0545997866917     0.124215066996      0.914321365125      -0.370462025386     0.914321365125      -0.370462025386     0.0545997866917     0.124215066996      
9700000000.0        0.055595845542      0.125226169754      0.912670061758      -0.374023302448     0.912670061758      -0.374023302448     0.055595845542      0.125226169754      
9800000000.0        0.0565996622791     0.126229046293      0.91100397476       -0.377575764579     0.91100397476       -0.377575764579     0.0565996622791     0.126229046293      
9900000000.0        0.0576111650985     0.127223638593      0.909323168799      -0.381119343451     0.909323168799      -0.381119343451     0.0576111650985     0.127223638593      
10000000000.0       0.0586302817681     0.128209889343      0.907627708926      -0.384653971374     0.907627708926      -0.384653971374     0.0586302817681     0.128209889343      
