# Hz S RI R 50.00 
100000000.0         -0.00129211888942   -0.0357027183844    0.998649953651      -0.0359426677755    0.998649953651      -0.0359426677755    -0.00129211888942   -0.0357027183844    
200000000.0         -0.00516183528271   -0.0711232115862    0.994779755301      -0.0716031636756    0.994779755301      -0.0716031636756    -0.00516183528271   -0.0711232115862    
300000000.0         -0.0115210922218    -0.105992787902     0.988420058152      -0.106712824114     0.988420058152      -0.106712824114     -0.0115210922218    -0.105992787902     
400000000.0         -0.0202734426887    -0.140056975158     0.979667259356      -0.1410171986       0.979667259356      -0.1410171986       -0.0202734426887    -0.140056975158     
500000000.0         -0.0312895170871    -0.17308129124      0.968650709336      -0.174281823335     0.968650709336      -0.174281823335     -0.0312895170871    -0.17308129124      
600000000.0         -0.044411674187     -0.204856094375     0.955528039529      -0.206297072566     0.955528039529      -0.206297072566     -0.044411674187     -0.204856094375     
700000000.0         -0.0594594029539    -0.235200262135     0.940479755157      -0.236881838139     0.940479755157      -0.236881838139     -0.0594594029539    -0.235200262135     
800000000.0         -0.0762351454896    -0.263963592984     0.923703410315      -0.265885931388     0.923703410315      -0.265885931388     -0.0762351454896    -0.263963592984     
900000000.0         -0.0945302179373    -0.291027925475     0.905407686194      -0.293191202549     0.905407686194      -0.293191202549     -0.0945302179373    -0.291027925475     
1000000000.0        -0.114130535951     -0.316307054856     0.885806665171      -0.318711457534     0.885806665171      -0.318711457534     -0.114130535951     -0.316307054856     
1100000000.0        -0.134821900491     -0.339745592596     0.865114544771      -0.342391317573     0.865114544771      -0.342391317573     -0.134821900491     -0.339745592596     
1200000000.0        -0.156394660649     -0.361316958442     0.84354097469       -0.364204211376     0.84354097469       -0.364204211376     -0.156394660649     -0.361316958442     
1300000000.0        -0.178647635209     -0.381020716995     0.821287135151      -0.384149711781     0.821287135151      -0.384149711781     -0.178647635209     -0.381020716995     
1400000000.0        -0.201391236816     -0.398879473364     0.798542612671      -0.402250431477     0.798542612671      -0.402250431477     -0.201391236816     -0.398879473364     
1500000000.0        -0.224449797092     -0.414935529171     0.775483074907      -0.418548679064     0.775483074907      -0.418548679064     -0.224449797092     -0.414935529171     
1600000000.0        -0.247663134554     -0.429247475501     0.752268702708      -0.433103052054     0.752268702708      -0.433103052054     -0.247663134554     -0.429247475501     
1700000000.0        -0.270887438728     -0.441886868063     0.729043305983      -0.445985112076     0.729043305983      -0.445985112076     -0.270887438728     -0.441886868063     
1800000000.0        -0.293995563517     -0.452935095934     0.705934030318      -0.457276253654     0.705934030318      -0.457276253654     -0.293995563517     -0.452935095934     
1900000000.0        -0.316876832207     -0.462480522164     0.683051551959      -0.467064844849     0.683051551959      -0.467064844849     -0.316876832207     -0.462480522164     
2000000000.0        -0.339436457306     -0.470615944506     0.66049065796       -0.475443688025     0.66049065796       -0.475443688025     -0.339436457306     -0.470615944506     
2100000000.0        -0.361594672963     -0.477436399034     0.638331113767      -0.48250782349      0.638331113767      -0.48250782349      -0.361594672963     -0.477436399034     
2200000000.0        -0.383285668033     -0.483037308999     0.61663873014       -0.488352678381     0.61663873014       -0.488352678381     -0.383285668033     -0.483037308999     
2300000000.0        -0.404456395836     -0.48751296594      0.595466553396      -0.493072547798     0.595466553396      -0.493072547798     -0.404456395836     -0.48751296594      
2400000000.0        -0.425065323704     -0.490955319441     0.57485611585       -0.496759384588     0.57485611585       -0.496759384588     -0.425065323704     -0.490955319441     
2500000000.0        -0.445081172666     -0.493453045294     0.554838696139      -0.499501867526     0.554838696139      -0.499501867526     -0.445081172666     -0.493453045294     
2600000000.0        -0.464481685747     -0.495090858446     0.535436550914      -0.501384714281     0.535436550914      -0.501384714281     -0.464481685747     -0.495090858446     
2700000000.0        -0.483252452911     -0.495949036278     0.516664089896      -0.502488204717     0.516664089896      -0.502488204717     -0.483252452911     -0.495949036278     
2800000000.0        -0.501385811711     -0.496103118732     0.498528975227      -0.502887881033     0.498528975227      -0.502887881033     -0.501385811711     -0.496103118732     
2900000000.0        -0.518879835395     -0.49562375395      0.481033133358      -0.502654393423     0.481033133358      -0.502654393423     -0.518879835395     -0.49562375395      
3000000000.0        -0.535737414382     -0.494576661067     0.464173673579      -0.501853462883     0.464173673579      -0.501853462883     -0.535737414382     -0.494576661067     
3100000000.0        -0.551965432535     -0.493022685076     0.447943711741      -0.500545936088     0.447943711741      -0.500545936088     -0.551965432535     -0.493022685076     
3200000000.0        -0.56757403638      -0.491017922056     0.432333101035      -0.498787910634     0.432333101035      -0.498787910634     -0.56757403638      -0.491017922056     
3300000000.0        -0.582575993094     -0.488613896376     0.417329074009      -0.49663091226      0.417329074009      -0.49663091226      -0.582575993094     -0.488613896376     
3400000000.0        -0.596986131543     -0.485857774544     0.402916801522      -0.494122108703     0.402916801522      -0.494122108703     -0.596986131543     -0.485857774544     
3500000000.0        -0.610820859773     -0.482792603149     0.389079875258      -0.491304547654     0.389079875258      -0.491304547654     -0.610820859773     -0.482792603149     
3600000000.0        -0.624097751915     -0.47945756079      0.37580072082       -0.488217408695     0.37580072082       -0.488217408695     -0.624097751915     -0.47945756079      
3700000000.0        -0.636835197388     -0.475888216024     0.363060948525      -0.484896261263     0.363060948525      -0.484896261263     -0.636835197388     -0.475888216024     
3800000000.0        -0.649052105468     -0.472116785155     0.350841648837      -0.481373322443     0.350841648837      -0.481373322443     -0.649052105468     -0.472116785155     
3900000000.0        -0.660767658635     -0.468172385198     0.339123639015      -0.477677709943     0.339123639015      -0.477677709943     -0.660767658635     -0.468172385198     
4000000000.0        -0.672001108554     -0.4640812786       0.327887667139      -0.473835686823     0.327887667139      -0.473835686823     -0.672001108554     -0.4640812786       
4100000000.0        -0.68277160906      -0.459867107302     0.317114579119      -0.469870895566     0.317114579119      -0.469870895566     -0.68277160906      -0.459867107302     
4200000000.0        -0.693098081055     -0.455551114552     0.3067854538        -0.465804579897     0.3067854538        -0.465804579897     -0.693098081055     -0.455551114552     
4300000000.0        -0.702999104749     -0.451152353503     0.296881710719      -0.461655793389     0.296881710719      -0.461655793389     -0.702999104749     -0.451152353503     
4400000000.0        -0.712492835198     -0.446687882141     0.28738519457       -0.457441594396     0.28738519457       -0.457441594396     -0.712492835198     -0.446687882141     
4500000000.0        -0.721596937569     -0.44217294446      0.278278239938      -0.453177227238     0.278278239938      -0.453177227238     -0.721596937569     -0.44217294446      
4600000000.0        -0.730328539014     -0.437621138087     0.269543719421      -0.448876289827     0.269543719421      -0.448876289827     -0.730328539014     -0.437621138087     
4700000000.0        -0.738704194444     -0.433044568776     0.261165077864      -0.44455088817      0.261165077864      -0.44455088817      -0.738704194444     -0.433044568776     
4800000000.0        -0.746739863854     -0.428453992314     0.253126355023      -0.440211778277     0.253126355023      -0.440211778277     -0.746739863854     -0.428453992314     
4900000000.0        -0.754450899187     -0.423858944497     0.245412198712      -0.435868496148     0.245412198712      -0.435868496148     -0.754450899187     -0.423858944497     
5000000000.0        -0.761852039011     -0.419267859886     0.238007870116      -0.431529476524     0.238007870116      -0.431529476524     -0.761852039011     -0.419267859886     
5100000000.0        -0.768957409534     -0.414688180069     0.230899242783      -0.427202161162     0.230899242783      -0.427202161162     -0.768957409534     -0.414688180069     
5200000000.0        -0.775780530713     -0.410126452181     0.224072796514      -0.422893097354     0.224072796514      -0.422893097354     -0.775780530713     -0.410126452181     
5300000000.0        -0.782334326395     -0.405588418411     0.217515607217      -0.418608027438     0.217515607217      -0.418608027438     -0.782334326395     -0.405588418411     
5400000000.0        -0.788631137618     -0.401079097197     0.211215333611      -0.414351970001     0.211215333611      -0.414351970001     -0.788631137618     -0.401079097197     
5500000000.0        -0.794682738303     -0.396602856806     0.205160201531      -0.410129293457     0.205160201531      -0.410129293457     -0.794682738303     -0.396602856806     
5600000000.0        -0.800500352749     -0.392163481927     0.199338986438      -0.405943782641     0.199338986438      -0.405943782641     -0.800500352749     -0.392163481927     
5700000000.0        -0.806094674382     -0.387764233884     0.193740994659      -0.401798699034     0.193740994659      -0.401798699034     -0.806094674382     -0.387764233884     
5800000000.0        -0.81147588537      -0.383407905045     0.188356043784      -0.397696835167     0.188356043784      -0.397696835167     -0.81147588537      -0.383407905045     
5900000000.0        -0.816653676725     -0.379096867941     0.183174442559      -0.393640563743     0.183174442559      -0.393640563743     -0.816653676725     -0.379096867941     
6000000000.0        -0.821637268626     -0.374833119581     0.17818697056       -0.389631881959     0.17818697056       -0.389631881959     -0.821637268626     -0.374833119581     
6100000000.0        -0.826435430737     -0.370618321415     0.173384857879      -0.385672451466     0.173384857879      -0.385672451466     -0.826435430737     -0.370618321415     
6200000000.0        -0.831056502326     -0.366453835346     0.168759765004      -0.381763634384     0.168759765004      -0.381763634384     -0.831056502326     -0.366453835346     
6300000000.0        -0.835508412045     -0.362340756177     0.164303763038      -0.377906525753     0.164303763038      -0.377906525753     -0.835508412045     -0.362340756177     
6400000000.0        -0.83979869727      -0.358279940817     0.160009314358      -0.374101982737     0.160009314358      -0.374101982737     -0.83979869727      -0.358279940817     
6500000000.0        -0.843934522904     -0.354272034574     0.155869253817      -0.370350650924     0.155869253817      -0.370350650924     -0.843934522904     -0.354272034574     
6600000000.0        -0.847922699577     -0.350317494813     0.151876770537      -0.366652987981     0.151876770537      -0.366652987981     -0.847922699577     -0.350317494813     
6700000000.0        -0.85176970122      -0.346416612228     0.148025390339      -0.363009284926     0.148025390339      -0.363009284926     -0.85176970122      -0.346416612228     
6800000000.0        -0.855481681954     -0.342569529972     0.144308958854      -0.359419685264     0.144308958854      -0.359419685264     -0.855481681954     -0.342569529972     
6900000000.0        -0.859064492306     -0.338776260843     0.140721625305      -0.355884202171     0.140721625305      -0.355884202171     -0.859064492306     -0.338776260843     
7000000000.0        -0.862523694723     -0.335036702734     0.137257826995      -0.352402733946     0.137257826995      -0.352402733946     -0.862523694723     -0.335036702734     
7100000000.0        -0.865864578392     -0.331350652499     0.133912274484      -0.348975077874     0.133912274484      -0.348975077874     -0.865864578392     -0.331350652499     
7200000000.0        -0.869092173385     -0.327717818405     0.130679937449      -0.34560094269      0.130679937449      -0.34560094269      -0.869092173385     -0.327717818405     
7300000000.0        -0.872211264116     -0.32413783131      0.127556031222      -0.34227995974      0.127556031222      -0.34227995974      -0.872211264116     -0.32413783131      
7400000000.0        -0.875226402151     -0.320610254679     0.124536003981      -0.339011693017     0.124536003981      -0.339011693017     -0.875226402151     -0.320610254679     
7500000000.0        -0.878141918375     -0.317134593574     0.121615524585      -0.335795648136     0.121615524585      -0.335795648136     -0.878141918375     -0.317134593574     
7600000000.0        -0.880961934543     -0.313710302706     0.118790471021      -0.332631280395     0.118790471021      -0.332631280395     -0.880961934543     -0.313710302706     
7700000000.0        -0.883690374235     -0.310336793641     0.116056919449      -0.329518001978     0.116056919449      -0.329518001978     -0.883690374235     -0.310336793641     
7800000000.0        -0.88633097324      -0.307013441258     0.11341113382       -0.326455188417     0.11341113382       -0.326455188417     -0.88633097324      -0.307013441258     
7900000000.0        -0.888887289391     -0.303739589517     0.110849556038      -0.323442184355     0.110849556038      -0.323442184355     -0.888887289391     -0.303739589517     
8000000000.0        -0.891362711881     -0.300514556619     0.108368796648      -0.320478308712     0.108368796648      -0.320478308712     -0.891362711881     -0.300514556619     
8100000000.0        -0.89376047007      -0.29733763961      0.105965626022      -0.317562859284     0.105965626022      -0.317562859284     -0.89376047007      -0.29733763961      
8200000000.0        -0.896083641831     -0.294208118488     0.103636966019      -0.314695116855     0.103636966019      -0.314695116855     -0.896083641831     -0.294208118488     
8300000000.0        -0.898335161433     -0.291125259865     0.101379882104      -0.311874348854     0.101379882104      -0.311874348854     -0.898335161433     -0.291125259865     
8400000000.0        -0.900517826994     -0.28808832022      0.0991915758848     -0.309099812614     0.0991915758848     -0.309099812614     -0.900517826994     -0.28808832022      
8500000000.0        -0.90263430754      -0.285096548799     0.0970693780647     -0.306370758268     0.0970693780647     -0.306370758268     -0.90263430754      -0.285096548799     
8600000000.0        -0.904687149659     -0.282149190179     0.0950107417787     -0.303686431313     0.0950107417787     -0.303686431313     -0.904687149659     -0.282149190179     
8700000000.0        -0.906678783809     -0.279245486544     0.0930132362935     -0.30104607489      0.0930132362935     -0.30104607489      -0.906678783809     -0.279245486544     
8800000000.0        -0.908611530265     -0.276384679698     0.0910745410542     -0.298448931792     0.0910745410542     -0.298448931792     -0.908611530265     -0.276384679698     
8900000000.0        -0.910487604749     -0.273566012838     0.0891924400577     -0.295894246239     0.0891924400577     -0.295894246239     -0.910487604749     -0.273566012838     
9000000000.0        -0.912309123748     -0.270788732111     0.0873648165344     -0.293381265438     0.0873648165344     -0.293381265438     -0.912309123748     -0.270788732111     
9100000000.0        -0.914078109538     -0.268052087989     0.0855896479218     -0.290909240953     0.0855896479218     -0.290909240953     -0.914078109538     -0.268052087989     
9200000000.0        -0.915796494938     -0.265355336461     0.0838650011138     -0.288477429898     0.0838650011138     -0.288477429898     -0.915796494938     -0.265355336461     
9300000000.0        -0.917466127799     -0.262697740077     0.0821890279688     -0.286085095986     0.0821890279688     -0.286085095986     -0.917466127799     -0.262697740077     
9400000000.0        -0.91908877525      -0.260078568851     0.0805599610642     -0.283731510424     0.0805599610642     -0.283731510424     -0.91908877525      -0.260078568851     
9500000000.0        -0.920666127717     -0.257497101038     0.0789761096819     -0.281415952697     0.0789761096819     -0.281415952697     -0.920666127717     -0.257497101038     
9600000000.0        -0.92219980271      -0.254952623806     0.0774358560117     -0.279137711233     0.0774358560117     -0.279137711233     -0.92219980271      -0.254952623806     
9700000000.0        -0.923691348423     -0.252444433794     0.075937651561      -0.27689608397      0.075937651561      -0.27689608397      -0.923691348423     -0.252444433794     
9800000000.0        -0.925142247124     -0.2499718376       0.0744800137583     -0.274690378834     0.0744800137583     -0.274690378834     -0.925142247124     -0.2499718376       
9900000000.0        -0.926553918373     -0.24753415217      0.07306152274       -0.272519914133     0.07306152274       -0.272519914133     -0.926553918373     -0.24753415217      
10000000000.0       -0.927927722056     -0.245130705126     0.0716808183098     -0.270384018887     0.0716808183098     -0.270384018887     -0.927927722056     -0.245130705126     
