# Hz S RI R 50.00 
100000000.0         -1.89811462605e-05  -0.00977657520117   0.999802991297      -0.00999263835515   0.999802991297      -0.00999263835515   -1.89811462605e-05  -0.00977657520117   
200000000.0         -0.000321147839198  -0.0195469819657    0.999499543528      -0.0199791131731    0.999499543528      -0.0199791131731    -0.000321147839198  -0.0195469819657    
300000000.0         -0.000818398784066  -0.029305454567     0.999001272351      -0.0299536619447    0.999001272351      -0.0299536619447    -0.000818398784066  -0.029305454567     
400000000.0         -0.0015100725994    -0.0390462516588    0.998308685871      -0.0399105458316    0.998308685871      -0.0399105458316    -0.0015100725994    -0.0390462516588    
500000000.0         -0.00239533063885   -0.0487636667579    0.997422563959      -0.0498440605408    0.997422563959      -0.0498440605408    -0.00239533063885   -0.0487636667579    
600000000.0         -0.00347312657515   -0.0584520389677    0.996343923094      -0.0597485471654    0.996343923094      -0.0597485471654    -0.00347312657515   -0.0584520389677    
700000000.0         -0.00474220107823   -0.068105763619     0.995074005044      -0.0696184028831    0.995074005044      -0.0696184028831    -0.00474220107823   -0.068105763619     
800000000.0         -0.0062010823944    -0.0777193027195    0.993614270234      -0.0794480914392    0.993614270234      -0.0794480914392    -0.0062010823944    -0.0777193027195    
900000000.0         -0.00784808920275   -0.0872871951604    0.991966392189      -0.0892321533742    0.991966392189      -0.0892321533742    -0.00784808920275   -0.0872871951604    
1000000000.0        -0.0096813347104    -0.0968040666245    0.99013225208       -0.0989652159479    0.99013225208       -0.0989652159479    -0.0096813347104    -0.0968040666245    
1100000000.0        -0.0116987315999    -0.106264639163     0.988113933023      -0.108642002726     0.988113933023      -0.108642002726     -0.0116987315999    -0.106264639163     
1200000000.0        -0.0138979976506    -0.115663740396     0.985913714002      -0.11825734279      0.985913714002      -0.11825734279      -0.0138979976506    -0.115663740396     
1300000000.0        -0.0162766619353    -0.124996312311     0.983534063396      -0.12780617954      0.983534063396      -0.12780617954      -0.0162766619353    -0.124996312311     
1400000000.0        -0.0188320715249    -0.134257419618     0.980977632087      -0.13728357906      0.980977632087      -0.13728357906      -0.0188320715249    -0.134257419618     
1500000000.0        -0.0215613986464    -0.143442257652     0.978247246172      -0.146684738015     0.978247246172      -0.146684738015     -0.0215613986464    -0.143442257652     
1600000000.0        -0.0244616482512    -0.152546159776     0.975345899315      -0.15600499107      0.975345899315      -0.15600499107      -0.0244616482512    -0.152546159776     
1700000000.0        -0.0275296659457    -0.161564604285     0.972276744745      -0.165239817787     0.972276744745      -0.165239817787     -0.0275296659457    -0.161564604285     
1800000000.0        -0.0307621462461    -0.170493220779     0.969043086959      -0.174384849005     0.969043086959      -0.174384849005     -0.0307621462461    -0.170493220779     
1900000000.0        -0.0341556411126    -0.179327795998     0.96564837315       -0.183435872673     0.96564837315       -0.183435872673     -0.0341556411126    -0.179327795998     
2000000000.0        -0.0377065687244    -0.1880642791       0.96209618441       -0.192388839138     0.96209618441       -0.192388839138     -0.0377065687244    -0.1880642791       
2100000000.0        -0.0414112224527    -0.196698786388     0.958390226728      -0.201239865865     0.958390226728      -0.201239865865     -0.0414112224527    -0.196698786388     
2200000000.0        -0.0452657799924    -0.205227605465     0.954534321852      -0.209985241599     0.954534321852      -0.209985241599     -0.0452657799924    -0.205227605465     
2300000000.0        -0.0492663126118    -0.213647198826     0.95053239802       -0.218621429953     0.95053239802       -0.218621429953     -0.0492663126118    -0.213647198826     
2400000000.0        -0.0534087944819    -0.221954206878     0.946388480621      -0.227145072438     0.946388480621      -0.227145072438     -0.0534087944819    -0.221954206878     
2500000000.0        -0.0576891120465    -0.230145450414     0.94210668282       -0.235552990926     0.94210668282       -0.235552990926     -0.0576891120465    -0.230145450414     
2600000000.0        -0.0621030733953    -0.238217932511     0.937691196173      -0.24384218956      0.937691196173      -0.24384218956      -0.0621030733953    -0.238217932511     
2700000000.0        -0.066646417606     -0.246168839901     0.933146281283      -0.252009856121     0.933146281283      -0.252009856121     -0.066646417606     -0.246168839901     
2800000000.0        -0.0713148240185    -0.253995543799     0.928476258522      -0.260053362852     0.928476258522      -0.260053362852     -0.0713148240185    -0.253995543799     
2900000000.0        -0.07610392141      -0.26169560021      0.923685498847      -0.267970266779     0.923685498847      -0.267970266779     -0.07610392141      -0.26169560021      
3000000000.0        -0.0810092970392    -0.269266749741     0.918778414757      -0.275758309508     0.918778414757      -0.275758309508     -0.0810092970392    -0.269266749741     
3100000000.0        -0.0860265055308    -0.276706916919     0.913759451405      -0.283415416554     0.913759451405      -0.283415416554     -0.0860265055308    -0.276706916919     
3200000000.0        -0.0911510775724    -0.284014209048     0.908633077897      -0.290939696195     0.908633077897      -0.290939696195     -0.0911510775724    -0.284014209048     
3300000000.0        -0.0963785283984    -0.291186914616     0.903403778807      -0.298329437882     0.903403778807      -0.298329437882     -0.0963785283984    -0.291186914616     
3400000000.0        -0.101704366039     -0.29822350129      0.898076045928      -0.305583110228     0.898076045928      -0.305583110228     -0.101704366039     -0.29822350129      
3500000000.0        -0.107124099313     -0.305122613498     0.892654370273      -0.3126993586       0.892654370273      -0.3126993586       -0.107124099313     -0.305122613498     
3600000000.0        -0.112633245542     -0.31188306965      0.887143234366      -0.319677002332     0.887143234366      -0.319677002332     -0.112633245542     -0.31188306965      
3700000000.0        -0.118227337975     -0.318503859002     0.881547104809      -0.326515031594     0.881547104809      -0.326515031594     -0.118227337975     -0.318503859002     
3800000000.0        -0.123901932907     -0.324984138196     0.875870425169      -0.333212603931     0.875870425169      -0.333212603931     -0.123901932907     -0.324984138196     
3900000000.0        -0.129652616477     -0.33132322751      0.870117609177      -0.339769040513     0.870117609177      -0.339769040513     -0.129652616477     -0.33132322751      
4000000000.0        -0.135475011134     -0.337520606826     0.864293034257      -0.346183822104     0.864293034257      -0.346183822104     -0.135475011134     -0.337520606826     
4100000000.0        -0.141364781773     -0.343575911357     0.858401035396      -0.35245658479      0.858401035396      -0.35245658479      -0.141364781773     -0.343575911357     
4200000000.0        -0.147317641518     -0.34948892716      0.852445899355      -0.35858711549      0.852445899355      -0.35858711549      -0.147317641518     -0.34948892716      
4300000000.0        -0.153329357164     -0.355259586443     0.846431859231      -0.364575347266     0.846431859231      -0.364575347266     -0.153329357164     -0.355259586443     
4400000000.0        -0.159395754267     -0.360887962711     0.840363089362      -0.370421354468     0.840363089362      -0.370421354468     -0.159395754267     -0.360887962711     
4500000000.0        -0.165512721878     -0.366374265768     0.834243700597      -0.376125347734     0.834243700597      -0.376125347734     -0.165512721878     -0.366374265768     
4600000000.0        -0.171676216934     -0.371718836591     0.828077735901      -0.381687668868     0.828077735901      -0.381687668868     -0.171676216934     -0.371718836591     
4700000000.0        -0.177882268294     -0.376922142113     0.82186916632       -0.387108785624     0.82186916632       -0.387108785624     -0.177882268294     -0.376922142113     
4800000000.0        -0.184126980435     -0.381984769929     0.815621887285      -0.392389286406     0.815621887285      -0.392389286406     -0.184126980435     -0.381984769929     
4900000000.0        -0.190406536808     -0.386907422946     0.809339715257      -0.397529874923     0.809339715257      -0.397529874923     -0.190406536808     -0.386907422946     
5000000000.0        -0.196717202859     -0.391690914        0.803026384701      -0.402531364808     0.803026384701      -0.402531364808     -0.196717202859     -0.391690914        
5100000000.0        -0.203055328728     -0.396336160459     0.796685545393      -0.407394674215     0.796685545393      -0.407394674215     -0.203055328728     -0.396336160459     
5200000000.0        -0.209417351626     -0.400844178826     0.79032076004       -0.412120820428     0.79032076004       -0.412120820428     -0.209417351626     -0.400844178826     
5300000000.0        -0.215799797909     -0.40521607937      0.783935502203      -0.41671091449      0.783935502203      -0.41671091449      -0.215799797909     -0.40521607937      
5400000000.0        -0.222199284849     -0.409453060785     0.777533154531      -0.421166155861     0.777533154531      -0.421166155861     -0.222199284849     -0.409453060785     
5500000000.0        -0.228612522121     -0.413556404908     0.771117007269      -0.425487827136     0.771117007269      -0.425487827136     -0.228612522121     -0.413556404908     
5600000000.0        -0.235036313013     -0.417527471493     0.764690257052      -0.429677288824     0.764690257052      -0.429677288824     -0.235036313013     -0.417527471493     
5700000000.0        -0.24146755537      -0.421367693074     0.758256005961      -0.433735974204     0.758256005961      -0.433735974204     -0.24146755537      -0.421367693074     
5800000000.0        -0.247903242281     -0.425078569905     0.751817260828      -0.437665384272     0.751817260828      -0.437665384272     -0.247903242281     -0.425078569905     
5900000000.0        -0.254340462537     -0.428661665011     0.745376932789      -0.441467082785     0.745376932789      -0.441467082785     -0.254340462537     -0.428661665011     
6000000000.0        -0.260776400846     -0.432118599339     0.738937837062      -0.445142691419     0.738937837062      -0.445142691419     -0.260776400846     -0.432118599339     
6100000000.0        -0.267208337845     -0.435451047028     0.732502692937      -0.448693885036     0.732502692937      -0.448693885036     -0.267208337845     -0.435451047028     
6200000000.0        -0.273633649894     -0.438660730807     0.726074123981      -0.452122387081     0.726074123981      -0.452122387081     -0.273633649894     -0.438660730807     
6300000000.0        -0.280049808698     -0.44174941752      0.719654658418      -0.455429965108     0.719654658418      -0.455429965108     -0.280049808698     -0.44174941752      
6400000000.0        -0.286454380729     -0.444718913786     0.713246729702      -0.458618426443     0.713246729702      -0.458618426443     -0.286454380729     -0.444718913786     
6500000000.0        -0.292845026501     -0.447571061805     0.706852677251      -0.461689613985     0.706852677251      -0.461689613985     -0.292845026501     -0.447571061805     
6600000000.0        -0.299219499674     -0.450307735297     0.700474747331      -0.464645402149     0.700474747331      -0.464645402149     -0.299219499674     -0.450307735297     
6700000000.0        -0.305575646029     -0.452930835603     0.694115094091      -0.467487692966     0.694115094091      -0.467487692966     -0.305575646029     -0.452930835603     
6800000000.0        -0.311911402305     -0.45544228792      0.687775780723      -0.470218412318     0.687775780723      -0.470218412318     -0.311911402305     -0.45544228792      
6900000000.0        -0.318224794913     -0.457844037697     0.681458780743      -0.472839506332     0.681458780743      -0.472839506332     -0.318224794913     -0.457844037697     
7000000000.0        -0.324513938553     -0.460138047174     0.675165979384      -0.475352937926     0.675165979384      -0.475352937926     -0.324513938553     -0.460138047174     
7100000000.0        -0.330777034718     -0.46232629208      0.668899175081      -0.477760683498     0.668899175081      -0.477760683498     -0.330777034718     -0.46232629208      
7200000000.0        -0.337012370118     -0.464410758478     0.662660081053      -0.480064729776     0.662660081053      -0.480064729776     -0.337012370118     -0.464410758478     
7300000000.0        -0.343218315028     -0.466393439754     0.656450326956      -0.482267070809     0.656450326956      -0.482267070809     -0.343218315028     -0.466393439754     
7400000000.0        -0.349393321558     -0.468276333769     0.65027146061       -0.484369705113     0.65027146061       -0.484369705113     -0.349393321558     -0.468276333769     
7500000000.0        -0.35553592187      -0.470061440139     0.644124949783      -0.486374632959     0.644124949783      -0.486374632959     -0.35553592187      -0.470061440139     
7600000000.0        -0.361644726339     -0.47175075768      0.638012184029      -0.488283853809     0.638012184029      -0.488283853809     -0.361644726339     -0.47175075768      
7700000000.0        -0.367718421675     -0.473346281973     0.631934476568      -0.490099363892     0.631934476568      -0.490099363892     -0.367718421675     -0.473346281973     
7800000000.0        -0.373755768999     -0.47485000309      0.625893066207      -0.491823153916     0.625893066207      -0.491823153916     -0.373755768999     -0.47485000309      
7900000000.0        -0.379755601905     -0.476263903437     0.619889119284      -0.493457206926     0.619889119284      -0.493457206926     -0.379755601905     -0.476263903437     
8000000000.0        -0.385716824484     -0.477589955742     0.613923731636      -0.495003496283     0.613923731636      -0.495003496283     -0.385716824484     -0.477589955742     
8100000000.0        -0.391638409343     -0.478830121168     0.607997930585      -0.496463983778     0.607997930585      -0.496463983778     -0.391638409343     -0.478830121168     
8200000000.0        -0.397519395607     -0.479986347552     0.602112676933      -0.497840617872     0.602112676933      -0.497840617872     -0.397519395607     -0.479986347552     
8300000000.0        -0.403358886924     -0.481060567762     0.596268866963      -0.499135332057     0.596268866963      -0.499135332057     -0.403358886924     -0.481060567762     
8400000000.0        -0.409156049462     -0.48205469818      0.590467334434      -0.500350043331     0.590467334434      -0.500350043331     -0.409156049462     -0.48205469818      
8500000000.0        -0.41491010992      -0.482970637287     0.584708852576      -0.501486650792     0.584708852576      -0.501486650792     -0.41491010992      -0.482970637287     
8600000000.0        -0.420620353538     -0.483810264372     0.578994136075      -0.502547034338     0.578994136075      -0.502547034338     -0.420620353538     -0.483810264372     
8700000000.0        -0.426286122134     -0.484575438333     0.573323843043      -0.503533053476     0.573323843043      -0.503533053476     -0.426286122134     -0.484575438333     
8800000000.0        -0.431906812145     -0.485267996587     0.567698576967      -0.504446546227     0.567698576967      -0.504446546227     -0.431906812145     -0.485267996587     
8900000000.0        -0.437481872703     -0.485889754074     0.562118888645      -0.505289328134     0.562118888645      -0.505289328134     -0.437481872703     -0.485889754074     
9000000000.0        -0.443010803717     -0.486442502358     0.556585278092      -0.506063191359     0.556585278092      -0.506063191359     -0.443010803717     -0.486442502358     
9100000000.0        -0.448493154002     -0.48692800881      0.551098196422      -0.506769903868     0.551098196422      -0.506769903868     -0.448493154002     -0.48692800881      
9200000000.0        -0.453928519418     -0.487348015884     0.545658047697      -0.507411208708     0.545658047697      -0.507411208708     -0.453928519418     -0.487348015884     
9300000000.0        -0.459316541055     -0.487704240468     0.540265190756      -0.507988823357     0.540265190756      -0.507988823357     -0.459316541055     -0.487704240468     
9400000000.0        -0.464656903441     -0.487998373314     0.534919940994      -0.508504439154     0.534919940994      -0.508504439154     -0.464656903441     -0.487998373314     
9500000000.0        -0.469949332791     -0.488232078543     0.529622572122      -0.508959720803     0.529622572122      -0.508959720803     -0.469949332791     -0.488232078543     
9600000000.0        -0.475193595289     -0.488406993214     0.52437331788       -0.509356305946     0.52437331788       -0.509356305946     -0.475193595289     -0.488406993214     
9700000000.0        -0.480389495408     -0.488524726964     0.519172373719      -0.509695804797     0.519172373719      -0.509695804797     -0.480389495408     -0.488524726964     
9800000000.0        -0.48553687427      -0.488586861708     0.51401989844       -0.50997979985      0.51401989844       -0.50997979985      -0.48553687427      -0.488586861708     
9900000000.0        -0.490635608044     -0.488594951397     0.508916015799      -0.510209845627     0.508916015799      -0.510209845627     -0.490635608044     -0.488594951397     
10000000000.0       -0.495685606384     -0.488550521831     0.503860816063      -0.510387468502     0.503860816063      -0.510387468502     -0.495685606384     -0.488550521831     
