# Hz S RI R 50.00 
100000000.0         -0.0026267792095    -0.0509814461149    0.997276616005      -0.0513241063047    0.997276616005      -0.0513241063047    -0.0026267792095    -0.0509814461149    
200000000.0         -0.0104643823568    -0.10115194526      0.989438176255      -0.101837328822     0.989438176255      -0.101837328822     -0.0104643823568    -0.10115194526      
300000000.0         -0.0232230528122    -0.149754109367     0.976678716805      -0.150782314903     0.976678716805      -0.150782314903     -0.0232230528122    -0.149754109367     
400000000.0         -0.0405212122781    -0.196109359189     0.959379732784      -0.19748051356      0.959379732784      -0.19748051356      -0.0405212122781    -0.196109359189     
500000000.0         -0.0618657498046    -0.239646336724     0.938034303149      -0.241360591354     0.938034303149      -0.241360591354     -0.0618657498046    -0.239646336724     
600000000.0         -0.0866851800494    -0.279919193174     0.913213896891      -0.281976721568     0.913213896891      -0.281976721568     -0.0866851800494    -0.279919193174     
700000000.0         -0.114364535905     -0.316615069959     0.885533471392      -0.319016065829     0.885533471392      -0.319016065829     -0.114364535905     -0.316615069959     
800000000.0         -0.144278448069     -0.349551598483     0.85561838958       -0.352296274249     0.85561838958       -0.352296274249     -0.144278448069     -0.349551598483     
900000000.0         -0.175819707721     -0.378666318265     0.824075855791      -0.381754903805     0.824075855791      -0.381754903805     -0.175819707721     -0.378666318265     
1000000000.0        -0.208421677955     -0.404000474654     0.791472503604      -0.407433216228     0.791472503604      -0.407433216228     -0.208421677955     -0.404000474654     
1100000000.0        -0.24157397245      -0.425679732934     0.758318716758      -0.429456892241     0.758318716758      -0.429456892241     -0.24157397245      -0.425679732934     
1200000000.0        -0.274831680337     -0.443894053378     0.725059404046      -0.44801590672      0.725059404046      -0.44801590672      -0.274831680337     -0.443894053378     
1300000000.0        -0.307818999818     -0.458878467308     0.692070365547      -0.463345304837     0.692070365547      -0.463345304837     -0.307818999818     -0.458878467308     
1400000000.0        -0.340228445477     -0.47089592261      0.65965908521       -0.475708047641     0.65965908521       -0.475708047641     -0.340228445477     -0.47089592261      
1500000000.0        -0.371816863703     -0.480222835652     0.628068715367      -0.485380564038     0.628068715367      -0.485380564038     -0.371816863703     -0.480222835652     
1600000000.0        -0.402399397988     -0.48713755627      0.597484111387      -0.492641215828     0.597484111387      -0.492641215828     -0.402399397988     -0.48713755627      
1700000000.0        -0.431842361824     -0.491911644848     0.568038958748      -0.497761574829     0.568038958748      -0.497761574829     -0.431842361824     -0.491911644848     
1800000000.0        -0.460055758681     -0.494803669461     0.539823253028      -0.501000220058     0.539823253028      -0.501000220058     -0.460055758681     -0.494803669461     
1900000000.0        -0.486985975565     -0.496055135639     0.512890606338      -0.502598667528     0.512890606338      -0.502598667528     -0.486985975565     -0.496055135639     
2000000000.0        -0.512608991326     -0.495888135708     0.487265038992      -0.50277901963      0.487265038992      -0.50277901963      -0.512608991326     -0.495888135708     
2100000000.0        -0.536924292834     -0.494504324507     0.462947063324      -0.501742940868     0.462947063324      -0.501742940868     -0.536924292834     -0.494504324507     
2200000000.0        -0.559949581946     -0.492084873552     0.439918976712      -0.499671612055     0.439918976712      -0.499671612055     -0.559949581946     -0.492084873552     
2300000000.0        -0.581716279851     -0.488791111921     0.418149357227      -0.496726371224     0.418149357227      -0.496726371224     -0.581716279851     -0.488791111921     
2400000000.0        -0.602265786566     -0.484765619639     0.397596804131      -0.493049807032     0.397596804131      -0.493049807032     -0.602265786566     -0.484765619639     
2500000000.0        -0.621646425458     -0.480133592461     0.378212993352      -0.488767123569     0.378212993352      -0.488767123569     -0.621646425458     -0.480133592461     
2600000000.0        -0.639910989806     -0.475004342947     0.359945130917      -0.483987641445     0.359945130917      -0.483987641445     -0.639910989806     -0.475004342947     
2700000000.0        -0.657114805583     -0.469472840666     0.342737890168      -0.478806338021     0.342737890168      -0.478806338021     -0.657114805583     -0.469472840666     
2800000000.0        -0.673314228171     -0.463621224544     0.326534915045      -0.47330535977      0.326534915045      -0.47330535977      -0.673314228171     -0.463621224544     
2900000000.0        -0.688565497787     -0.457520243573     0.311279964658      -0.467555463003     0.311279964658      -0.467555463003     -0.688565497787     -0.457520243573     
3000000000.0        -0.702923887193     -0.451230599441     0.296917765577      -0.461617356517     0.296917765577      -0.461617356517     -0.702923887193     -0.451230599441     
3100000000.0        -0.716443084442     -0.444804177278     0.283394629078      -0.455542932351     0.283394629078      -0.455542932351     -0.716443084442     -0.444804177278     
3200000000.0        -0.72917476235      -0.438285159523     0.270658881682      -0.449376379669     0.270658881682      -0.449376379669     -0.72917476235      -0.438285159523     
3300000000.0        -0.741168294487     -0.431711023984     0.25866114915       -0.443155182838     0.25866114915       -0.443155182838     -0.741168294487     -0.431711023984     
3400000000.0        -0.752470584748     -0.425113431025     0.247354526919      -0.436911008618     0.247354526919      -0.436911008618     -0.752470584748     -0.425113431025     
3500000000.0        -0.763125983756     -0.418519007138     0.236694663698      -0.430670489756     0.236694663698      -0.430670489756     -0.763125983756     -0.418519007138     
3600000000.0        -0.773176270622     -0.411950033438     0.226639779704      -0.424455913484     0.226639779704      -0.424455913484     -0.773176270622     -0.411950033438     
3700000000.0        -0.782660682999     -0.405425048027     0.217150636609      -0.418285823896     0.217150636609      -0.418285823896     -0.782660682999     -0.405425048027     
3800000000.0        -0.791615981942     -0.398959371198     0.208190472681      -0.41217554717      0.208190472681      -0.41217554717      -0.791615981942     -0.398959371198     
3900000000.0        -0.800076541057     -0.392565562052     0.199724913633      -0.40613764818      0.199724913633      -0.40613764818      -0.800076541057     -0.392565562052     
4000000000.0        -0.808074451785     -0.386253814536     0.191721867339      -0.400182326555     0.191721867339      -0.400182326555     -0.808074451785     -0.386253814536     
4100000000.0        -0.815639638568     -0.380032300282     0.184151408666      -0.394317759524     0.184151408666      -0.394317759524     -0.815639638568     -0.380032300282     
4200000000.0        -0.82279997917      -0.373907464903     0.176985659155      -0.388550398217     0.176985659155      -0.388550398217     -0.82279997917      -0.373907464903     
4300000000.0        -0.829581426595     -0.367884283711     0.170198665103      -0.382885223395     0.170198665103      -0.382885223395     -0.829581426595     -0.367884283711     
4400000000.0        -0.836008130027     -0.361966482154     0.163766276621      -0.377325965892     0.163766276621      -0.377325965892     -0.836008130027     -0.361966482154     
4500000000.0        -0.842102552892     -0.356156725651     0.157666029573      -0.371875296459     0.157666029573      -0.371875296459     -0.842102552892     -0.356156725651     
4600000000.0        -0.84788558677      -0.350456782926     0.151877031661      -0.366534989104     0.151877031661      -0.366534989104     -0.84788558677      -0.350456782926     
4700000000.0        -0.853376660267     -0.344867666417     0.146379853557      -0.361306061508     0.146379853557      -0.361306061508     -0.853376660267     -0.344867666417     
4800000000.0        -0.858593842331     -0.339389752901     0.141156425584      -0.356188895655     0.141156425584      -0.356188895655     -0.858593842331     -0.339389752901     
4900000000.0        -0.863553939709     -0.334022887023     0.136189940258      -0.351183341368     0.136189940258      -0.351183341368     -0.863553939709     -0.334022887023     
5000000000.0        -0.86827258847      -0.328766470106     0.131464760769      -0.346288805125     0.131464760769      -0.346288805125     -0.86827258847      -0.328766470106     
5100000000.0        -0.872764339609     -0.323619536258     0.126966335373      -0.34150432617      0.126966335373      -0.34150432617      -0.872764339609     -0.323619536258     
5200000000.0        -0.877042738883     -0.318580817543     0.122681117556      -0.336828641692     0.122681117556      -0.336828641692     -0.877042738883     -0.318580817543     
5300000000.0        -0.881120401075     -0.313648799731     0.118596491769      -0.332260242577     0.118596491769      -0.332260242577     -0.881120401075     -0.313648799731     
5400000000.0        -0.885009078945     -0.308821769948     0.114700704483      -0.327797421063     0.114700704483      -0.327797421063     -0.885009078945     -0.308821769948     
5500000000.0        -0.88871972713      -0.304097857331     0.110982800279      -0.323438311401     0.110982800279      -0.323438311401     -0.88871972713      -0.304097857331     
5600000000.0        -0.892262561296     -0.29947506769      0.107432562707      -0.319180924521     0.107432562707      -0.319180924521     -0.892262561296     -0.29947506769      
5700000000.0        -0.895647112829     -0.294951312994     0.104040459581      -0.31502317752      0.104040459581      -0.31502317752      -0.895647112829     -0.294951312994     
5800000000.0        -0.898882279377     -0.290524436416     0.100797592454      -0.310962918712     0.100797592454      -0.310962918712     -0.898882279377     -0.290524436416     
5900000000.0        -0.901976371502     -0.286192233549     0.0976956499467     -0.30699794885      0.0976956499467     -0.30699794885      -0.901976371502     -0.286192233549     
6000000000.0        -0.904937155755     -0.281952470339     0.0947268646893     -0.303126039059     0.0947268646893     -0.303126039059     -0.904937155755     -0.281952470339     
6100000000.0        -0.907771894405     -0.27780289819      0.0918839735816     -0.299344945946     0.0918839735816     -0.299344945946     -0.907771894405     -0.27780289819      
6200000000.0        -0.910487382098     -0.273741266643     0.0891601811385     -0.295652424283     0.0891601811385     -0.295652424283     -0.910487382098     -0.273741266643     
6300000000.0        -0.913089979667     -0.269765333963     0.0865491256776     -0.292046237593     0.0865491256776     -0.292046237593     -0.913089979667     -0.269765333963     
6400000000.0        -0.915585645322     -0.265872875943     0.08404484813       -0.288524166964     0.08404484813       -0.288524166964     -0.915585645322     -0.265872875943     
6500000000.0        -0.917979963425     -0.262061693167     0.0816417632673     -0.285084018307     0.0816417632673     -0.285084018307     -0.917979963425     -0.262061693167     
6600000000.0        -0.92027817103      -0.258329616958     0.0793346331551     -0.281723628313     0.0793346331551     -0.281723628313     -0.92027817103      -0.258329616958     
6700000000.0        -0.922485182391     -0.254674514199     0.0771185426529     -0.278440869272     0.0771185426529     -0.278440869272     -0.922485182391     -0.254674514199     
6800000000.0        -0.924605611569     -0.251094291189     0.0749888767993     -0.275233652932     0.0749888767993     -0.275233652932     -0.924605611569     -0.251094291189     
6900000000.0        -0.92664379332      -0.247586896671     0.0729412999294     -0.272099933535     0.0729412999294     -0.272099933535     -0.92664379332      -0.247586896671     
7000000000.0        -0.928603802384     -0.244150324165     0.0709717363849     -0.269037710143     0.0709717363849     -0.269037710143     -0.928603802384     -0.244150324165     
7100000000.0        -0.930489471303     -0.240782613696     0.0690763526901     -0.266045028374     0.0690763526901     -0.266045028374     -0.930489471303     -0.240782613696     
7200000000.0        -0.932304406907     -0.237481853015     0.0672515410742     -0.263119981624     0.0672515410742     -0.263119981624     -0.932304406907     -0.237481853015     
7300000000.0        -0.934052005548     -0.234246178389     0.0654939042318     -0.26026071186      0.0654939042318     -0.26026071186      -0.934052005548     -0.234246178389     
7400000000.0        -0.935735467199     -0.231073775033     0.0638002412236     -0.257465410049     0.0638002412236     -0.257465410049     -0.935735467199     -0.231073775033     
7500000000.0        -0.93735780851      -0.227962877223     0.062167534424      -0.25473231628      0.062167534424      -0.25473231628      -0.93735780851      -0.227962877223     
7600000000.0        -0.93892187489      -0.224911768169     0.060592937433      -0.25205971963      0.060592937433      -0.25205971963      -0.93892187489      -0.224911768169     
7700000000.0        -0.940430351714     -0.221918779659     0.0590737638754     -0.249445957818     0.0590737638754     -0.249445957818     -0.940430351714     -0.221918779659     
7800000000.0        -0.941885774702     -0.218982291533     0.0576074770172     -0.246889416677     0.0576074770172     -0.246889416677     -0.941885774702     -0.218982291533     
7900000000.0        -0.943290539552     -0.216100731014     0.056191680134      -0.244388529486     0.056191680134      -0.244388529486     -0.943290539552     -0.216100731014     
8000000000.0        -0.944646910877     -0.213272571918     0.0548241075725     -0.241941776179     0.0548241075725     -0.241941776179     -0.944646910877     -0.213272571918     
8100000000.0        -0.945957030506     -0.210496333764     0.0535026164513     -0.239547682463     0.0535026164513     -0.239547682463     -0.945957030506     -0.210496333764     
8200000000.0        -0.947222925194     -0.207770580818     0.0522251789501     -0.237204818857     0.0522251789501     -0.237204818857     -0.947222925194     -0.207770580818     
8300000000.0        -0.948446513787     -0.205093921073     0.0509898751434     -0.234911799677     0.0509898751434     -0.234911799677     -0.948446513787     -0.205093921073     
8400000000.0        -0.949629613887     -0.202465005185     0.0497948863347     -0.232667281972     0.0497948863347     -0.232667281972     -0.949629613887     -0.202465005185     
8500000000.0        -0.950773948057     -0.199882525383     0.0486384888542     -0.230469964436     0.0486384888542     -0.230469964436     -0.950773948057     -0.199882525383     
8600000000.0        -0.951881149591     -0.197345214356     0.0475190482848     -0.228318586291     0.0475190482848     -0.228318586291     -0.951881149591     -0.197345214356     
8700000000.0        -0.952952767899     -0.194851844121     0.0464350140827     -0.226211926167     0.0464350140827     -0.226211926167     -0.952952767899     -0.194851844121     
8800000000.0        -0.95399027351      -0.192401224902     0.0453849145642     -0.22414880097      0.0453849145642     -0.22414880097      -0.95399027351      -0.192401224902     
8900000000.0        -0.95499506276      -0.189992203997     0.0443673522307     -0.222128064757     0.0443673522307     -0.222128064757     -0.95499506276      -0.189992203997     
9000000000.0        -0.955968462141     -0.187623664658     0.0433809994063     -0.220148607619     0.0433809994063     -0.220148607619     -0.955968462141     -0.187623664658     
9100000000.0        -0.95691173238      -0.185294524987     0.0424245941663     -0.21820935457      0.0424245941663     -0.21820935457      -0.95691173238      -0.185294524987     
9200000000.0        -0.957826072244     -0.183003736838     0.0414969365338     -0.216309264456     0.0414969365338     -0.216309264456     -0.957826072244     -0.183003736838     
9300000000.0        -0.958712622085     -0.180750284747     0.0405968849252     -0.214447328886     0.0405968849252     -0.214447328886     -0.958712622085     -0.180750284747     
9400000000.0        -0.959572467172     -0.178533184873     0.0397233528272     -0.212622571172     0.0397233528272     -0.212622571172     -0.959572467172     -0.178533184873     
9500000000.0        -0.960406640796     -0.176351483973     0.0388753056881     -0.210834045304     0.0388753056881     -0.210834045304     -0.960406640796     -0.176351483973     
9600000000.0        -0.961216127176     -0.174204258392     0.0380517580082     -0.209080834943     0.0380517580082     -0.209080834943     -0.961216127176     -0.174204258392     
9700000000.0        -0.962001864191     -0.17209061308      0.0372517706149     -0.207362052439     0.0372517706149     -0.207362052439     -0.962001864191     -0.17209061308      
9800000000.0        -0.962764745924     -0.170009680637     0.0364744481098     -0.205676837875     0.0364744481098     -0.205676837875     -0.962764745924     -0.170009680637     
9900000000.0        -0.963505625063     -0.167960620385     0.035718936476      -0.204024358142     0.035718936476      -0.204024358142     -0.963505625063     -0.167960620385     
10000000000.0       -0.964225315139     -0.165942617464     0.0349844208335     -0.202403806032     0.0349844208335     -0.202403806032     -0.964225315139     -0.165942617464     
