# Hz S RI R 50.00 
100000000.0         0.0165242510143     0.00266373482754    0.98347017854       -0.0048893562034    0.98347017854       -0.0048893562034    0.0165242510143     0.00266373482754    
200000000.0         0.0166708957313     0.00532551510528    0.983313981764      -0.00977676318138   0.983313981764      -0.00977676318138   0.0166708957313     0.00532551510528    
300000000.0         0.0168152292769     0.00798570513342    0.983155113951      -0.0146625940404    0.983155113951      -0.0146625940404    0.0168152292769     0.00798570513342    
400000000.0         0.0169713763133     0.0106442337873     0.982979449803      -0.0195467850605    0.982979449803      -0.0195467850605    0.0169713763133     0.0106442337873     
500000000.0         0.0171447675754     0.013300929144      0.982781557866      -0.0244291710196    0.982781557866      -0.0244291710196    0.0171447675754     0.013300929144      
600000000.0         0.0173381615657     0.0159555749552     0.982558678817      -0.0293095419118    0.982558678817      -0.0293095419118    0.0173381615657     0.0159555749552     
700000000.0         0.0175531757426     0.0186079309405     0.982309194268      -0.0341876633644    0.982309194268      -0.0341876633644    0.0175531757426     0.0186079309405     
800000000.0         0.0177908454721     0.0212577422194     0.982032067819      -0.0390632861442    0.982032067819      -0.0390632861442    0.0177908454721     0.0212577422194     
900000000.0         0.0180518729449     0.0239047443987     0.981726596129      -0.0439361512941    0.981726596129      -0.0439361512941    0.0180518729449     0.0239047443987     
1000000000.0        0.0183367533687     0.0265486666063     0.981392282732      -0.0488059932003    0.981392282732      -0.0488059932003    0.0183367533687     0.0265486666063     
1100000000.0        0.0186458451287     0.0291892334383     0.98102876787       -0.0536725415648    0.98102876787       -0.0536725415648    0.0186458451287     0.0291892334383     
1200000000.0        0.0189794116023     0.0318261662816     0.98063578668       -0.058535522747     0.98063578668       -0.058535522747     0.0189794116023     0.0318261662816     
1300000000.0        0.0193376474748     0.0344591842566     0.980213142882      -0.063394660721     0.980213142882      -0.063394660721     0.0193376474748     0.0344591842566     
1400000000.0        0.0197206960424     0.0370880049132     0.979760691468      -0.0682496777839    0.979760691468      -0.0682496777839    0.0197206960424     0.0370880049132     
1500000000.0        0.0201286610099     0.0397123447648     0.979278326914      -0.0731002950987    0.979278326914      -0.0731002950987    0.0201286610099     0.0397123447648     
1600000000.0        0.0205616147819     0.0423319197078     0.978765974881      -0.0779462331224    0.978765974881      -0.0779462331224    0.0205616147819     0.0423319197078     
1700000000.0        0.0210196044453     0.0449464453609     0.978223586237      -0.0827872119521    0.978223586237      -0.0827872119521    0.0210196044453     0.0449464453609     
1800000000.0        0.0215026561829     0.0475556373461     0.977651132642      -0.0876229516107    0.977651132642      -0.0876229516107    0.0215026561829     0.0475556373461     
1900000000.0        0.0220107785951     0.050159211525      0.977048603227      -0.0924531722888    0.977048603227      -0.0924531722888    0.0220107785951     0.050159211525      
2000000000.0        0.0225439652453     0.0527568842022     0.976416002051      -0.0972775945522    0.976416002051      -0.0972775945522    0.0225439652453     0.0527568842022     
2100000000.0        0.0231021966398     0.0553483723031     0.975753346116      -0.102095939523     0.975753346116      -0.102095939523     0.0231021966398     0.0553483723031     
2200000000.0        0.0236854417911     0.0579333935313     0.975060663808      -0.10690792904      0.975060663808      -0.10690792904      0.0236854417911     0.0579333935313     
2300000000.0        0.0242936594689     0.0605116665093     0.974337993648      -0.111713285803     0.974337993648      -0.111713285803     0.0242936594689     0.0605116665093     
2400000000.0        0.0249267992124     0.0630829109072     0.973585383273      -0.116511733503     0.973585383273      -0.116511733503     0.0249267992124     0.0630829109072     
2500000000.0        0.02558480216       0.0656468475598     0.972802888614      -0.12130299694      0.972802888614      -0.12130299694      0.02558480216       0.0656468475598     
2600000000.0        0.0262676017352     0.0682031985751     0.971990573204      -0.126086802139     0.971990573204      -0.126086802139     0.0262676017352     0.0682031985751     
2700000000.0        0.0269751242212     0.0707516874356     0.97114850761       -0.130862876446     0.97114850761       -0.130862876446     0.0269751242212     0.0707516874356     
2800000000.0        0.0277072892457     0.0732920390924     0.97027676894       -0.135630948626     0.97027676894       -0.135630948626     0.0277072892457     0.0732920390924     
2900000000.0        0.0284640101936     0.0758239800553     0.969375440441      -0.140390748959     0.969375440441      -0.140390748959     0.0284640101936     0.0758239800553     
3000000000.0        0.029245194563      0.0783472384764     0.968444611133      -0.145142009316     0.968444611133      -0.145142009316     0.029245194563      0.0783472384764     
3100000000.0        0.0300507442736     0.0808615442313     0.967484375506      -0.149884463251     0.967484375506      -0.149884463251     0.0300507442736     0.0808615442313     
3200000000.0        0.0308805559363     0.0833666289951     0.966494833252      -0.15461784607      0.966494833252      -0.15461784607      0.0308805559363     0.0833666289951     
3300000000.0        0.031734521092      0.0858622263162     0.96547608902       -0.15934189491      0.96547608902       -0.15934189491      0.031734521092      0.0858622263162     
3400000000.0        0.0326125264233     0.0883480716861     0.964428252213      -0.164056348807     0.964428252213      -0.164056348807     0.0326125264233     0.0883480716861     
3500000000.0        0.033514453945      0.0908239026078     0.963351436789      -0.168760948769     0.963351436789      -0.168760948769     0.033514453945      0.0908239026078     
3600000000.0        0.0344401811759     0.0932894586601     0.962245761095      -0.173455437837     0.962245761095      -0.173455437837     0.0344401811759     0.0932894586601     
3700000000.0        0.0353895812955     0.0957444815608     0.961111347709      -0.17813956115      0.961111347709      -0.17813956115      0.0353895812955     0.0957444815608     
3800000000.0        0.0363625232879     0.0981887152272     0.959948323294      -0.182813066006     0.959948323294      -0.182813066006     0.0363625232879     0.0981887152272     
3900000000.0        0.0373588720743     0.100621905834      0.958756818469      -0.187475701922     0.958756818469      -0.187475701922     0.0373588720743     0.100621905834      
4000000000.0        0.0383784886366     0.103043801872      0.957536967683      -0.192127220689     0.957536967683      -0.192127220689     0.0383784886366     0.103043801872      
4100000000.0        0.0394212301332     0.105454154198      0.9562889091        -0.196767376428     0.9562889091        -0.196767376428     0.0394212301332     0.105454154198      
4200000000.0        0.0404869500075     0.107852716093      0.955012784491      -0.201395925644     0.955012784491      -0.201395925644     0.0404869500075     0.107852716093      
4300000000.0        0.0415754980912     0.110239243311      0.95370873913       -0.206012627275     0.95370873913       -0.206012627275     0.0415754980912     0.110239243311      
4400000000.0        0.0426867207021     0.112613494127      0.952376921697      -0.210617242744     0.952376921697      -0.210617242744     0.0426867207021     0.112613494127      
4500000000.0        0.0438204607384     0.114975229387      0.951017484181      -0.215209536006     0.951017484181      -0.215209536006     0.0438204607384     0.114975229387      
4600000000.0        0.044976557768      0.117324212554      0.949630581797      -0.219789273593     0.949630581797      -0.219789273593     0.044976557768      0.117324212554      
4700000000.0        0.0461548481163     0.11966020975       0.948216372889      -0.224356224661     0.948216372889      -0.224356224661     0.0461548481163     0.11966020975       
4800000000.0        0.0473551649497     0.121982989801      0.946775018856      -0.228910161032     0.946775018856      -0.228910161032     0.0473551649497     0.121982989801      
4900000000.0        0.0485773383577     0.124292324282      0.945306684064      -0.233450857237     0.945306684064      -0.233450857237     0.0485773383577     0.124292324282      
5000000000.0        0.0498211954321     0.126587987548      0.943811535766      -0.237978090554     0.943811535766      -0.237978090554     0.0498211954321     0.126587987548      
5100000000.0        0.0510865603455     0.128869756784      0.94228974403       -0.242491641046     0.94228974403       -0.242491641046     0.0510865603455     0.128869756784      
5200000000.0        0.0523732544271     0.131137412031      0.940741481656      -0.246991291601     0.940741481656      -0.246991291601     0.0523732544271     0.131137412031      
5300000000.0        0.0536810962373     0.13339073623       0.939166924105      -0.251476827968     0.939166924105      -0.251476827968     0.0536810962373     0.13339073623       
5400000000.0        0.0550099016418     0.135629515254      0.937566249424      -0.255948038788     0.937566249424      -0.255948038788     0.0550099016418     0.135629515254      
5500000000.0        0.0563594838837     0.137853537937      0.935939638174      -0.260404715627     0.935939638174      -0.260404715627     0.0563594838837     0.137853537937      
5600000000.0        0.0577296536554     0.14006259611       0.934287273358      -0.264846653013     0.934287273358      -0.264846653013     0.0577296536554     0.14006259611       
5700000000.0        0.0591202191686     0.142256484632      0.932609340351      -0.269273648457     0.932609340351      -0.269273648457     0.0591202191686     0.142256484632      
5800000000.0        0.060530986225      0.144435001413      0.93090602683       -0.27368550249      0.93090602683       -0.27368550249      0.060530986225      0.144435001413      
5900000000.0        0.0619617582847     0.146597947447      0.929177522703      -0.278082018686     0.929177522703      -0.278082018686     0.0619617582847     0.146597947447      
6000000000.0        0.0634123365352     0.148745126834      0.927424020043      -0.282463003687     0.927424020043      -0.282463003687     0.0634123365352     0.148745126834      
6100000000.0        0.0648825199594     0.150876346807      0.925645713019      -0.286828267231     0.925645713019      -0.286828267231     0.0648825199594     0.150876346807      
6200000000.0        0.0663721054027     0.152991417755      0.923842797827      -0.291177622173     0.923842797827      -0.291177622173     0.0663721054027     0.152991417755      
6300000000.0        0.0678808876401     0.155090153244      0.922015472625      -0.295510884504     0.922015472625      -0.295510884504     0.0678808876401     0.155090153244      
6400000000.0        0.0694086594425     0.157172370038      0.920163937465      -0.299827873379     0.920163937465      -0.299827873379     0.0694086594425     0.157172370038      
6500000000.0        0.0709552116429     0.15923788812       0.918288394229      -0.304128411128     0.918288394229      -0.304128411128     0.0709552116429     0.15923788812       
6600000000.0        0.0725203332021     0.161286530707      0.91638904656       -0.30841232328      0.91638904656       -0.30841232328      0.0725203332021     0.161286530707      
6700000000.0        0.0741038112733     0.163318124268      0.9144660998        -0.312679438573     0.9144660998        -0.312679438573     0.0741038112733     0.163318124268      
6800000000.0        0.0757054312675     0.165332498541      0.912519760924      -0.316929588978     0.912519760924      -0.316929588978     0.0757054312675     0.165332498541      
6900000000.0        0.0773249769173     0.167329486545      0.910550238475      -0.321162609705     0.910550238475      -0.321162609705     0.0773249769173     0.167329486545      
7000000000.0        0.0789622303416     0.169308924594      0.908557742498      -0.325378339218     0.908557742498      -0.325378339218     0.0789622303416     0.169308924594      
7100000000.0        0.0806169721083     0.171270652309      0.906542484481      -0.32957661925      0.906542484481      -0.32957661925      0.0806169721083     0.171270652309      
7200000000.0        0.0822889812984     0.173214512626      0.904504677289      -0.333757294809     0.904504677289      -0.333757294809     0.0822889812984     0.173214512626      
7300000000.0        0.0839780355682     0.175140351809      0.902444535099      -0.337920214186     0.902444535099      -0.337920214186     0.0839780355682     0.175140351809      
7400000000.0        0.0856839112119     0.177048019456      0.900362273341      -0.342065228969     0.900362273341      -0.342065228969     0.0856839112119     0.177048019456      
7500000000.0        0.0874063832239     0.178937368504      0.898258108635      -0.346192194041     0.898258108635      -0.346192194041     0.0874063832239     0.178937368504      
7600000000.0        0.08914522536       0.180808255238      0.896132258728      -0.350300967594     0.896132258728      -0.350300967594     0.08914522536       0.180808255238      
7700000000.0        0.0909002101991     0.182660539293      0.893984942432      -0.354391411125     0.893984942432      -0.354391411125     0.0909002101991     0.182660539293      
7800000000.0        0.0926711092033     0.184494083659      0.891816379565      -0.358463389445     0.891816379565      -0.358463389445     0.0926711092033     0.184494083659      
7900000000.0        0.094457692779      0.186308754681      0.889626790891      -0.362516770677     0.889626790891      -0.362516770677     0.094457692779      0.186308754681      
8000000000.0        0.0962597303363     0.188104422061      0.887416398057      -0.36655142626      0.887416398057      -0.36655142626      0.0962597303363     0.188104422061      
8100000000.0        0.0980769903487     0.18988095886       0.885185423535      -0.370567230945     0.885185423535      -0.370567230945     0.0980769903487     0.18988095886       
8200000000.0        0.0999092404121     0.191638241492      0.882934090565      -0.374564062796     0.882934090565      -0.374564062796     0.0999092404121     0.191638241492      
8300000000.0        0.101756247303      0.193376149726      0.880662623091      -0.378541803185     0.880662623091      -0.378541803185     0.101756247303      0.193376149726      
8400000000.0        0.103617777037      0.195094566681      0.878371245708      -0.382500336791     0.878371245708      -0.382500336791     0.103617777037      0.195094566681      
8500000000.0        0.105493594925      0.196793378821      0.876060183602      -0.386439551592     0.876060183602      -0.386439551592     0.105493594925      0.196793378821      
8600000000.0        0.107383465633      0.198472475948      0.873729662493      -0.390359338863     0.873729662493      -0.390359338863     0.107383465633      0.198472475948      
8700000000.0        0.109287153236      0.200131751202      0.871379908578      -0.394259593164     0.871379908578      -0.394259593164     0.109287153236      0.200131751202      
8800000000.0        0.111204421274      0.201771101045      0.869011148477      -0.398140212339     0.869011148477      -0.398140212339     0.111204421274      0.201771101045      
8900000000.0        0.113135032809      0.203390425257      0.866623609173      -0.402001097498     0.866623609173      -0.402001097498     0.113135032809      0.203390425257      
9000000000.0        0.115078750478      0.204989626927      0.864217517963      -0.405842153016     0.864217517963      -0.405842153016     0.115078750478      0.204989626927      
9100000000.0        0.117035336549      0.206568612441      0.861793102397      -0.409663286517     0.861793102397      -0.409663286517     0.117035336549      0.206568612441      
9200000000.0        0.119004552972      0.20812729147       0.859350590229      -0.413464408863     0.859350590229      -0.413464408863     0.119004552972      0.20812729147       
9300000000.0        0.120986161437      0.20966557696       0.856890209363      -0.417245434141     0.856890209363      -0.417245434141     0.120986161437      0.20966557696       
9400000000.0        0.122979923419      0.211183385116      0.8544121878        -0.421006279652     0.8544121878        -0.421006279652     0.122979923419      0.211183385116      
9500000000.0        0.124985600236      0.212680635391      0.851916753583      -0.424746865893     0.851916753583      -0.424746865893     0.124985600236      0.212680635391      
9600000000.0        0.127002953099      0.214157250469      0.849404134752      -0.428467116544     0.849404134752      -0.428467116544     0.127002953099      0.214157250469      
9700000000.0        0.12903174316       0.215613156249      0.846874559285      -0.43216695845      0.846874559285      -0.43216695845      0.12903174316       0.215613156249      
9800000000.0        0.131071731562      0.21704828183       0.844328255058      -0.435846321605     0.844328255058      -0.435846321605     0.131071731562      0.21704828183       
9900000000.0        0.133122679492      0.218462559491      0.841765449785      -0.439505139134     0.841765449785      -0.439505139134     0.133122679492      0.218462559491      
10000000000.0       0.135184348226      0.219855924678      0.839186370977      -0.443143347275     0.839186370977      -0.443143347275     0.135184348226      0.219855924678      
