# Hz S RI R 50.00 
100000000.0         0.00159902081079    0.000271999239517   0.998391111048      -0.00363805875525   0.998391111048      -0.00363805875525   0.00159902081079    0.000271999239517   
200000000.0         0.00161111497965    0.000543891480641   0.998358811593      -0.00727604490865   0.998358811593      -0.00727604490865   0.00161111497965    0.000543891480641   
300000000.0         0.00162239195704    0.000815685626321   0.99831599092       -0.0109139785991    0.99831599092       -0.0109139785991    0.00162239195704    0.000815685626321   
400000000.0         0.00163423628729    0.00108737138998    0.998261262868      -0.0145518498068    0.998261262868      -0.0145518498068    0.00163423628729    0.00108737138998    
500000000.0         0.00164718010276    0.00135893482266    0.998194093404      -0.018189639245     0.998194093404      -0.018189639245     0.00164718010276    0.00135893482266    
600000000.0         0.0016614939814     0.00163036070093    0.998114209824      -0.0218273226395    0.998114209824      -0.0218273226395    0.0016614939814     0.00163036070093    
700000000.0         0.00167733707628    0.00190163331333    0.998021450652      -0.0254648724857    0.998021450652      -0.0254648724857    0.00167733707628    0.00190163331333    
800000000.0         0.00169481188385    0.00217273679159    0.997915710906      -0.0291022589619    0.997915710906      -0.0291022589619    0.00169481188385    0.00217273679159    
900000000.0         0.00171398862019    0.0024436552697     0.997796917744      -0.0327394504748    0.997796917744      -0.0327394504748    0.00171398862019    0.0024436552697     
1000000000.0        0.00173491757251    0.00271437296637    0.997665018126      -0.0363764140147    0.997665018126      -0.0363764140147    0.00173491757251    0.00271437296637    
1100000000.0        0.00175763596344    0.00298487422947    0.997519971975      -0.0400131154019    0.997519971975      -0.0400131154019    0.00175763596344    0.00298487422947    
1200000000.0        0.00178217204046    0.00325514356033    0.997361748099      -0.0436495194667    0.997361748099      -0.0436495194667    0.00178217204046    0.00325514356033    
1300000000.0        0.00180854764866    0.0035251656266     0.997190321627      -0.0472855901848    0.997190321627      -0.0472855901848    0.00180854764866    0.0035251656266     
1400000000.0        0.00183677992181    0.00379492526829    0.997005672339      -0.0509212907829    0.997005672339      -0.0509212907829    0.00183677992181    0.00379492526829    
1500000000.0        0.00186688243497    0.00406440750002    0.996807783516      -0.0545565838232    0.996807783516      -0.0545565838232    0.00186688243497    0.00406440750002    
1600000000.0        0.00189886601436    0.00433359751058    0.996596641141      -0.0581914312714    0.996596641141      -0.0581914312714    0.00189886601436    0.00433359751058    
1700000000.0        0.00193273932122    0.00460248066113    0.996372233331      -0.0618257945537    0.996372233331      -0.0618257945537    0.00193273932122    0.00460248066113    
1800000000.0        0.00196850928246    0.00487104248236    0.996134549906      -0.0654596346045    0.996134549906      -0.0654596346045    0.00196850928246    0.00487104248236    
1900000000.0        0.00200618141442    0.00513926867117    0.995883582078      -0.0690929119064    0.995883582078      -0.0690929119064    0.00200618141442    0.00513926867117    
2000000000.0        0.00204576007062    0.00540714508695    0.995619322209      -0.0727255865255    0.995619322209      -0.0727255865255    0.00204576007062    0.00540714508695    
2100000000.0        0.0020872486342     0.00567465774779    0.995341763627      -0.0763576181413    0.995341763627      -0.0763576181413    0.0020872486342     0.00567465774779    
2200000000.0        0.00213064966952    0.00594179282659    0.995050900479      -0.0799889660735    0.995050900479      -0.0799889660735    0.00213064966952    0.00594179282659    
2300000000.0        0.00217596504306    0.00620853664714    0.994746727615      -0.083619589305     0.994746727615      -0.083619589305     0.00217596504306    0.00620853664714    
2400000000.0        0.00222319602093    0.00647487568032    0.994429240502      -0.087249446503     0.994429240502      -0.087249446503     0.00222319602093    0.00647487568032    
2500000000.0        0.00227234334832    0.00674079654033    0.994098435141      -0.0908784960375    0.994098435141      -0.0908784960375    0.00227234334832    0.00674079654033    
2600000000.0        0.00232340731489    0.00700628598107    0.993754308017      -0.0945066959981    0.993754308017      -0.0945066959981    0.00232340731489    0.00700628598107    
2700000000.0        0.00237638780901    0.00727133089257    0.993396856039      -0.0981340042089    0.993396856039      -0.0981340042089    0.00237638780901    0.00727133089257    
2800000000.0        0.00243128436311    0.00753591829757    0.99302607651       -0.101760378243     0.99302607651       -0.101760378243     0.00243128436311    0.00753591829757    
2900000000.0        0.00248809619194    0.0078000353482     0.992641967083      -0.105385775433     0.992641967083      -0.105385775433     0.00248809619194    0.0078000353482     
3000000000.0        0.00254682222503    0.00806366932279    0.992244525742      -0.109010152887     0.992244525742      -0.109010152887     0.00254682222503    0.00806366932279    
3100000000.0        0.00260746113441    0.00832680762276    0.991833750771      -0.112633467493     0.991833750771      -0.112633467493     0.00260746113441    0.00832680762276    
3200000000.0        0.00267001135846    0.00858943776967    0.991409640739      -0.116255675934     0.991409640739      -0.116255675934     0.00267001135845    0.00858943776967    
3300000000.0        0.00273447112244    0.00885154740229    0.99097219448       -0.119876734696     0.99097219448       -0.119876734696     0.00273447112244    0.00885154740229    
3400000000.0        0.00280083845648    0.00911312427389    0.99052141108       -0.123496600072     0.99052141108       -0.123496600072     0.00280083845648    0.00911312427389    
3500000000.0        0.00286911121118    0.00937415624949    0.990057289867      -0.127115228178     0.990057289867      -0.127115228178     0.00286911121118    0.00937415624949    
3600000000.0        0.00293928707132    0.00963463130333    0.989579830394      -0.130732574952     0.989579830394      -0.130732574952     0.00293928707132    0.00963463130333    
3700000000.0        0.00301136356799    0.00989453751634    0.98908903244       -0.134348596167     0.98908903244       -0.134348596167     0.00301136356799    0.00989453751634    
3800000000.0        0.00308533808932    0.0101538630737     0.988584895991      -0.137963247434     0.988584895991      -0.137963247434     0.00308533808932    0.0101538630737     
3900000000.0        0.00316120788998    0.0104125962627     0.988067421243      -0.14157648421      0.988067421243      -0.14157648421      0.00316120788998    0.0104125962627     
4000000000.0        0.00323897009973    0.01067072547       0.987536608592      -0.145188261803     0.987536608592      -0.145188261803     0.00323897009973    0.01067072547       
4100000000.0        0.00331862173101    0.0109282391799     0.986992458628      -0.148798535378     0.986992458628      -0.148798535378     0.00331862173101    0.0109282391799     
4200000000.0        0.00340015968583    0.0111851259723     0.986434972134      -0.15240725996      0.986434972134      -0.15240725996      0.00340015968583    0.0111851259723     
4300000000.0        0.00348358076194    0.0114413745201     0.98586415008       -0.156014390441     0.98586415008       -0.156014390441     0.00348358076194    0.0114413745201     
4400000000.0        0.00356888165846    0.0116969735876     0.985279993621      -0.159619881587     0.985279993621      -0.159619881587     0.00356888165846    0.0116969735876     
4500000000.0        0.00365605898093    0.0119519120286     0.984682504094      -0.163223688035     0.984682504094      -0.163223688035     0.00365605898093    0.0119519120286     
4600000000.0        0.00374510924594    0.0122061787844     0.984071683014      -0.166825764306     0.984071683014      -0.166825764306     0.00374510924594    0.0122061787844     
4700000000.0        0.0038360288854     0.0124597628819     0.983447532077      -0.170426064803     0.983447532077      -0.170426064803     0.0038360288854     0.0124597628819     
4800000000.0        0.00392881425037    0.0127126534321     0.98281005315       -0.174024543816     0.98281005315       -0.174024543816     0.00392881425037    0.0127126534321     
4900000000.0        0.00402346161465    0.0129648396279     0.98215924828       -0.177621155528     0.98215924828       -0.177621155528     0.00402346161465    0.0129648396279     
5000000000.0        0.00411996717801    0.0132163107431     0.981495119682      -0.181215854016     0.981495119682      -0.181215854016     0.00411996717801    0.0132163107431     
5100000000.0        0.00421832706921    0.0134670561303     0.980817669746      -0.184808593256     0.980817669746      -0.184808593256     0.00421832706921    0.0134670561303     
5200000000.0        0.00431853734881    0.0137170652192     0.980126901033      -0.188399327125     0.980126901033      -0.188399327125     0.00431853734881    0.0137170652192     
5300000000.0        0.00442059401171    0.0139663275157     0.979422816274      -0.191988009405     0.979422816274      -0.191988009405     0.00442059401171    0.0139663275157     
5400000000.0        0.00452449298957    0.0142148325997     0.978705418369      -0.195574593786     0.978705418369      -0.195574593786     0.00452449298957    0.0142148325997     
5500000000.0        0.00463023015302    0.0144625701239     0.977974710388      -0.199159033868     0.977974710388      -0.199159033868     0.00463023015302    0.0144625701239     
5600000000.0        0.00473780131369    0.0147095298126     0.97723069557       -0.202741283166     0.97723069557       -0.202741283166     0.00473780131369    0.0147095298126     
5700000000.0        0.00484720222622    0.0149557014599     0.976473377323      -0.206321295108     0.976473377323      -0.206321295108     0.00484720222622    0.0149557014599     
5800000000.0        0.00495842858995    0.0152010749288     0.975702759222      -0.209899023044     0.975702759222      -0.209899023044     0.00495842858995    0.0152010749288     
5900000000.0        0.00507147605069    0.0154456401493     0.974918845011      -0.213474420245     0.974918845011      -0.213474420245     0.00507147605069    0.0154456401493     
6000000000.0        0.00518634020223    0.0156893871178     0.974121638603      -0.217047439904     0.974121638603      -0.217047439904     0.00518634020223    0.0156893871178     
6100000000.0        0.00530301658786    0.0159323058951     0.973311144076      -0.220618035142     0.973311144076      -0.220618035142     0.00530301658786    0.0159323058951     
6200000000.0        0.00542150070172    0.0161743866058     0.972487365678      -0.224186159007     0.972487365678      -0.224186159007     0.00542150070172    0.0161743866058     
6300000000.0        0.00554178799009    0.0164156194368     0.971650307826      -0.227751764479     0.971650307826      -0.227751764479     0.00554178799009    0.0164156194368     
6400000000.0        0.00566387385265    0.0166559946361     0.970799975104      -0.23131480447      0.970799975104      -0.23131480447      0.00566387385265    0.0166559946361     
6500000000.0        0.00578775364358    0.0168955025118     0.969936372263      -0.234875231828     0.969936372263      -0.234875231828     0.00578775364358    0.0168955025118     
6600000000.0        0.00591342267266    0.0171341334306     0.969059504224      -0.238432999336     0.969059504224      -0.238432999336     0.00591342267266    0.0171341334306     
6700000000.0        0.00604087620629    0.0173718778173     0.968169376076      -0.24198805972      0.968169376076      -0.24198805972      0.00604087620629    0.0173718778173     
6800000000.0        0.00617010946844    0.0176087261533     0.967265993077      -0.245540365642     0.967265993077      -0.245540365642     0.00617010946843    0.0176087261533     
6900000000.0        0.00630111764153    0.0178446689756     0.966349360652      -0.24908986971      0.966349360652      -0.24908986971      0.00630111764153    0.0178446689756     
7000000000.0        0.00643389586734    0.0180796968759     0.965419484397      -0.252636524478     0.965419484397      -0.252636524478     0.00643389586734    0.0180796968759     
7100000000.0        0.00656843924773    0.0183138004995     0.964476370078      -0.256180282443     0.964476370078      -0.256180282443     0.00656843924773    0.0183138004995     
7200000000.0        0.00670474284546    0.0185469705442     0.963520023628      -0.259721096053     0.963520023628      -0.259721096053     0.00670474284546    0.0185469705442     
7300000000.0        0.00684280168489    0.0187791977596     0.962550451152      -0.263258917706     0.962550451152      -0.263258917706     0.00684280168489    0.0187791977596     
7400000000.0        0.00698261075263    0.0190104729461     0.961567658925      -0.26679369975      0.961567658925      -0.26679369975      0.00698261075263    0.0190104729461     
7500000000.0        0.00712416499818    0.0192407869535     0.960571653389      -0.270325394488     0.960571653389      -0.270325394488     0.00712416499818    0.0192407869535     
7600000000.0        0.00726745933457    0.0194701306809     0.959562441163      -0.273853954178     0.959562441163      -0.273853954178     0.00726745933457    0.0194701306809     
7700000000.0        0.00741248863886    0.0196984950751     0.95854002903       -0.277379331034     0.95854002903       -0.277379331034     0.00741248863886    0.0196984950751     
7800000000.0        0.00755924775271    0.0199258711302     0.95750442395       -0.280901477228     0.95750442395       -0.280901477228     0.00755924775271    0.0199258711302     
7900000000.0        0.0077077314829     0.0201522498864     0.956455633051      -0.284420344893     0.956455633051      -0.284420344893     0.0077077314829     0.0201522498864     
8000000000.0        0.00785793460173    0.0203776224294     0.955393663635      -0.287935886122     0.955393663635      -0.287935886122     0.00785793460173    0.0203776224294     
8100000000.0        0.00800985184754    0.0206019798895     0.954318523174      -0.29144805297      0.954318523174      -0.29144805297      0.00800985184754    0.0206019798895     
8200000000.0        0.00816347792508    0.0208253134408     0.953230219315      -0.294956797459     0.953230219315      -0.294956797459     0.00816347792508    0.0208253134408     
8300000000.0        0.00831880750592    0.0210476143003     0.952128759876      -0.298462071573     0.952128759876      -0.298462071573     0.00831880750592    0.0210476143003     
8400000000.0        0.0084758352288     0.0212688737274     0.95101415285       -0.301963827265     0.95101415285       -0.301963827265     0.0084758352288     0.0212688737274     
8500000000.0        0.00863455569998    0.0214890830228     0.9498864064        -0.305462016455     0.9498864064        -0.305462016455     0.00863455569998    0.0214890830228     
8600000000.0        0.00879496349358    0.0217082335281     0.948745528867      -0.308956591034     0.948745528867      -0.308956591034     0.00879496349358    0.0217082335281     
8700000000.0        0.00895705315182    0.0219263166247     0.947591528763      -0.312447502864     0.947591528763      -0.312447502864     0.00895705315182    0.0219263166247     
8800000000.0        0.00912081918537    0.0221433237334     0.946424414775      -0.315934703777     0.946424414775      -0.315934703777     0.00912081918537    0.0221433237334     
8900000000.0        0.00928625607355    0.0223592463137     0.945244195768      -0.31941814558      0.945244195768      -0.31941814558      0.00928625607355    0.0223592463137     
9000000000.0        0.00945335826459    0.0225740758628     0.944050880777      -0.322897780055     0.944050880777      -0.322897780055     0.00945335826459    0.0225740758628     
9100000000.0        0.00962212017584    0.0227878039151     0.942844479015      -0.32637355896      0.942844479015      -0.32637355896      0.00962212017584    0.0227878039151     
9200000000.0        0.00979253619399    0.0230004220418     0.941624999871      -0.329845434028     0.941624999871      -0.329845434028     0.00979253619399    0.0230004220418     
9300000000.0        0.00996460067522    0.0232119218499     0.940392452909      -0.333313356974     0.940392452909      -0.333313356974     0.00996460067522    0.0232119218499     
9400000000.0        0.0101383079454     0.0234222949815     0.939146847871      -0.33677727949      0.939146847871      -0.33677727949      0.0101383079454     0.0234222949815     
9500000000.0        0.0103136523002     0.0236315331137     0.937888194673      -0.340237153249     0.937888194673      -0.340237153249     0.0103136523002     0.0236315331137     
9600000000.0        0.0104906280052     0.0238396279575     0.93661650341       -0.343692929907     0.93661650341       -0.343692929907     0.0104906280052     0.0238396279575     
9700000000.0        0.0106692292963     0.0240465712572     0.935331784353      -0.347144561101     0.935331784353      -0.347144561101     0.0106692292963     0.0240465712572     
9800000000.0        0.0108494503792     0.0242523547902     0.934034047952      -0.350591998456     0.934034047952      -0.350591998456     0.0108494503792     0.0242523547902     
9900000000.0        0.0110312854301     0.0244569703661     0.932723304834      -0.354035193578     0.932723304834      -0.354035193578     0.0110312854301     0.0244569703661     
10000000000.0       0.0112147285956     0.0246604098262     0.931399565804      -0.357474098061     0.931399565804      -0.357474098061     0.0112147285956     0.0246604098262     
