# Hz S RI R 50.00 
100000000.0         1.82309582586e-05   -0.000489057124878  0.999979112194      -0.000600514520801  0.999979112194      -0.000600514520801  1.82309582586e-05   -0.000489057124878  
200000000.0         1.69505303869e-05   -0.00097813952373   0.999977548403      -0.00120105878165   0.999977548403      -0.00120105878165   1.69505303866e-05   -0.00097813952373   
300000000.0         1.50484643573e-05   -0.00146726009059   0.999975418567      -0.00180164803071   0.999975418567      -0.00180164803071   1.50484643573e-05   -0.00146726009059   
400000000.0         1.25414378358e-05   -0.00195642839464   0.999972705607      -0.00240229364981   0.999972705607      -0.00240229364981   1.25414378358e-05   -0.00195642839464   
500000000.0         9.43569423861e-06   -0.00244565228999   0.999969402803      -0.00300300503884   0.999969402803      -0.00300300503884   9.43569423861e-06   -0.00244565228999   
600000000.0         5.73426159889e-06   -0.00293493848323   0.999965506594      -0.00360379027751   0.999965506594      -0.00360379027751   5.73426159889e-06   -0.00293493848323   
700000000.0         1.43878771941e-06   -0.00342429283234   0.999961014745      -0.00420465647183   0.999961014745      -0.00420465647183   1.43878771941e-06   -0.00342429283234   
800000000.0         -3.44978973998e-06  -0.00391372051768   0.999955925684      -0.0048056099535    0.999955925684      -0.0048056099535    -3.4497897401e-06   -0.00391372051768   
900000000.0         -8.9309438952e-06   -0.00440322616627   0.999950238209      -0.00540665642272   0.999950238209      -0.00540665642272   -8.9309438952e-06   -0.00440322616627   
1000000000.0        -1.50044064816e-05  -0.00489281393019   0.999943951341      -0.0060078010397    0.999943951341      -0.0060078010397    -1.50044064814e-05  -0.00489281393019   
1100000000.0        -2.16700825296e-05  -0.00538248755002   0.999937064237      -0.00660904849761   0.999937064237      -0.00660904849761   -2.16700825298e-05  -0.00538248755002   
1200000000.0        -2.892799915e-05    -0.00587225040558   0.999929576149      -0.00721040308068   0.999929576149      -0.00721040308068   -2.89279991502e-05  -0.00587225040558   
1300000000.0        -3.67782729557e-05  -0.00636210555057   0.99992148639       -0.00781186870456   0.99992148639       -0.00781186870456   -3.67782729553e-05  -0.00636210555057   
1400000000.0        -4.52210882691e-05  -0.00685205574554   0.999912794317      -0.00841344895389   0.999912794317      -0.00841344895389   -4.52210882692e-05  -0.00685205574554   
1500000000.0        -5.42566820116e-05  -0.00734210348345   0.999903499316      -0.00901514711161   0.999903499316      -0.00901514711161   -5.42566820114e-05  -0.00734210348345   
1600000000.0        -6.38853328322e-05  -0.00783225101113   0.999893600796      -0.00961696618361   0.999893600796      -0.00961696618361   -6.38853328321e-05  -0.00783225101113   
1700000000.0        -7.41073530836e-05  -0.00832250034886   0.999883098182      -0.0102189089209    0.999883098182      -0.0102189089209    -7.41073530834e-05  -0.00832250034886   
1800000000.0        -8.49230827132e-05  -0.0088128533052    0.999871990908      -0.0108209778368    0.999871990908      -0.0108209778368    -8.49230827131e-05  -0.0088128533052    
1900000000.0        -9.63328845056e-05  -0.00930331149247   0.99986027842       -0.0114231752243    0.99986027842       -0.0114231752243    -9.63328845055e-05  -0.00930331149247   
2000000000.0        -0.000108337140317  -0.00979387633852   0.999847960169      -0.0120255031695    0.999847960169      -0.0120255031695    -0.000108337140317  -0.00979387633852   
2100000000.0        -0.000120936248022  -0.0102845490982    0.999835035609      -0.0126279635646    0.999835035609      -0.0126279635646    -0.000120936248022  -0.0102845490982    
2200000000.0        -0.000134130618986  -0.0107753308633    0.999821504201      -0.0132305581194    0.999821504201      -0.0132305581194    -0.000134130618986  -0.0107753308633    
2300000000.0        -0.000147920675972  -0.0112662225717    0.999807365407      -0.0138332883712    0.999807365407      -0.0138332883712    -0.000147920675972  -0.0112662225717    
2400000000.0        -0.000162306851346  -0.0117572250155    0.999792618692      -0.0144361556944    0.999792618692      -0.0144361556944    -0.000162306851346  -0.0117572250155    
2500000000.0        -0.000177289585564  -0.012248338849     0.999777263524      -0.0150391613091    0.999777263524      -0.0150391613091    -0.000177289585564  -0.012248338849     
2600000000.0        -0.000192869325805  -0.0127395645946    0.999761299373      -0.0156423062882    0.999761299373      -0.0156423062882    -0.000192869325805  -0.0127395645946    
2700000000.0        -0.000209046524844  -0.0132309026507    0.999744725709      -0.0162455915658    0.999744725709      -0.0162455915658    -0.000209046524844  -0.0132309026507    
2800000000.0        -0.000225821639979  -0.0137223532961    0.999727542008      -0.0168490179427    0.999727542008      -0.0168490179427    -0.00022582163998   -0.0137223532961    
2900000000.0        -0.000243195132135  -0.0142139166967    0.999709747743      -0.0174525860931    0.999709747743      -0.0174525860931    -0.000243195132135  -0.0142139166967    
3000000000.0        -0.000261167465013  -0.0147055929097    0.999691342394      -0.0180562965702    0.999691342394      -0.0180562965702    -0.000261167465013  -0.0147055929097    
3100000000.0        -0.00027973910435   -0.0151973818893    0.99967232544       -0.0186601498118    0.99967232544       -0.0186601498118    -0.00027973910435   -0.0151973818893    
3200000000.0        -0.000298910517225  -0.0156892834903    0.999652696364      -0.019264146145     0.999652696364      -0.019264146145     -0.000298910517225  -0.0156892834903    
3300000000.0        -0.000318682171438  -0.016181297473     0.999632454651      -0.0198682857911    0.999632454651      -0.0198682857911    -0.000318682171438  -0.016181297473     
3400000000.0        -0.000339054534929  -0.0166734235068    0.999611599789      -0.0204725688699    0.999611599789      -0.0204725688699    -0.000339054534929  -0.0166734235068    
3500000000.0        -0.000360028075242  -0.017165661174     0.999590131269      -0.0210769954039    0.999590131269      -0.0210769954039    -0.000360028075242  -0.017165661174     
3600000000.0        -0.000381603259043  -0.0176580099736    0.999568048585      -0.0216815653227    0.999568048585      -0.0216815653227    -0.000381603259043  -0.0176580099736    
3700000000.0        -0.000403780551648  -0.0181504693246    0.999545351236      -0.0222862784659    0.999545351236      -0.0222862784659    -0.000403780551649  -0.0181504693246    
3800000000.0        -0.000426560416606  -0.0186430385688    0.999522038722      -0.0228911345875    0.999522038722      -0.0228911345875    -0.000426560416606  -0.0186430385688    
3900000000.0        -0.000449943315291  -0.0191357169744    0.999498110549      -0.0234961333586    0.999498110549      -0.0234961333586    -0.00044994331529   -0.0191357169744    
4000000000.0        -0.000473929706532  -0.0196285037385    0.999473566225      -0.0241012743711    0.999473566225      -0.0241012743711    -0.000473929706532  -0.0196285037385    
4100000000.0        -0.000498520046261  -0.02012139799      0.999448405265      -0.0247065571404    0.999448405265      -0.0247065571404    -0.000498520046261  -0.02012139799      
4200000000.0        -0.000523714787186  -0.0206143987924    0.999422627186      -0.0253119811087    0.999422627186      -0.0253119811087    -0.000523714787186  -0.0206143987924    
4300000000.0        -0.000549514378472  -0.021107505146     0.999396231511      -0.0259175456474    0.999396231511      -0.0259175456474    -0.000549514378473  -0.021107505146     
4400000000.0        -0.000575919265459  -0.0216007159905    0.999369217767      -0.0265232500597    0.999369217767      -0.0265232500597    -0.000575919265459  -0.0216007159905    
4500000000.0        -0.00060292988938   -0.0220940302072    0.999341585486      -0.0271290935838    0.999341585486      -0.0271290935838    -0.00060292988938   -0.0220940302072    
4600000000.0        -0.000630546687094  -0.0225874466214    0.999313334206      -0.0277350753946    0.999313334206      -0.0277350753946    -0.000630546687094  -0.0225874466214    
4700000000.0        -0.000658770090856  -0.0230809640042    0.99928446347       -0.0283411946065    0.99928446347       -0.0283411946065    -0.000658770090856  -0.0230809640042    
4800000000.0        -0.000687600528062  -0.0235745810748    0.999254972826      -0.0289474502751    0.999254972826      -0.0289474502751    -0.000687600528062  -0.0235745810748    
4900000000.0        -0.000717038421054  -0.0240682965026    0.999224861828      -0.0295538414004    0.999224861828      -0.0295538414004    -0.000717038421054  -0.0240682965026    
5000000000.0        -0.000747084186885  -0.0245621089083    0.999194130036      -0.0301603669274    0.999194130036      -0.0301603669274    -0.000747084186886  -0.0245621089083    
5100000000.0        -0.000777738237141  -0.0250560168668    0.999162777016      -0.0307670257496    0.999162777016      -0.0307670257496    -0.000777738237141  -0.0250560168668    
5200000000.0        -0.000809000977738  -0.0255500189081    0.999130802341      -0.0313738167097    0.999130802341      -0.0313738167097    -0.000809000977738  -0.0255500189081    
5300000000.0        -0.00084087280876   -0.0260441135192    0.999098205587      -0.031980738602     0.999098205587      -0.031980738602     -0.00084087280876   -0.0260441135192    
5400000000.0        -0.000873354124279  -0.0265382991459    0.99906498634       -0.0325877901744    0.99906498634       -0.0325877901744    -0.000873354124279  -0.0265382991459    
5500000000.0        -0.000906445312198  -0.0270325741943    0.999031144191      -0.0331949701294    0.999031144191      -0.0331949701294    -0.000906445312198  -0.0270325741943    
5600000000.0        -0.000940146754104  -0.0275269370319    0.998996678737      -0.0338022771265    0.998996678737      -0.0338022771265    -0.000940146754103  -0.0275269370319    
5700000000.0        -0.000974458825116  -0.0280213859897    0.998961589584      -0.0344097097833    0.998961589584      -0.0344097097833    -0.000974458825116  -0.0280213859897    
5800000000.0        -0.00100938189376   -0.028515919363     0.998925876342      -0.0350172666771    0.998925876342      -0.0350172666771    -0.00100938189376   -0.028515919363     
5900000000.0        -0.00104491632184   -0.0290105354131    0.99888953863       -0.0356249463466    0.99888953863       -0.0356249463466    -0.00104491632184   -0.0290105354131    
6000000000.0        -0.0010810624643    -0.0295052323685    0.998852576073      -0.0362327472929    0.998852576073      -0.0362327472929    -0.0010810624643    -0.0295052323685    
6100000000.0        -0.00111782066912   -0.0300000084262    0.998814988303      -0.0368406679817    0.998814988303      -0.0368406679817    -0.00111782066912   -0.0300000084262    
6200000000.0        -0.00115519127723   -0.0304948617526    0.998776774962      -0.0374487068435    0.998776774962      -0.0374487068435    -0.00115519127723   -0.0304948617526    
6300000000.0        -0.00119317462236   -0.0309897904853    0.998737935694      -0.0380568622759    0.998737935694      -0.0380568622759    -0.00119317462236   -0.0309897904853    
6400000000.0        -0.00123177103098   -0.0314847927335    0.998698470157      -0.0386651326441    0.998698470157      -0.0386651326441    -0.00123177103098   -0.0314847927335    
6500000000.0        -0.00127098082218   -0.0319798665797    0.99865837801       -0.0392735162827    0.99865837801       -0.0392735162827    -0.00127098082218   -0.0319798665797    
6600000000.0        -0.00131080430762   -0.0324750100806    0.998617658924      -0.0398820114964    0.998617658924      -0.0398820114964    -0.00131080430762   -0.0324750100806    
6700000000.0        -0.00135124179143   -0.0329702212678    0.998576312576      -0.0404906165616    0.998576312576      -0.0404906165616    -0.00135124179143   -0.0329702212678    
6800000000.0        -0.00139229357011   -0.0334654981492    0.998534338652      -0.0410993297267    0.998534338652      -0.0410993297267    -0.00139229357011   -0.0334654981492    
6900000000.0        -0.00143395993249   -0.0339608387096    0.998491736843      -0.0417081492141    0.998491736843      -0.0417081492141    -0.00143395993249   -0.0339608387096    
7000000000.0        -0.00147624115965   -0.0344562409122    0.99844850685       -0.0423170732207    0.99844850685       -0.0423170732207    -0.00147624115965   -0.0344562409122    
7100000000.0        -0.00151913752487   -0.0349517026988    0.998404648382      -0.0429260999189    0.998404648382      -0.0429260999189    -0.00151913752487   -0.0349517026988    
7200000000.0        -0.00156264929353   -0.0354472219913    0.998360161155      -0.0435352274578    0.998360161155      -0.0435352274578    -0.00156264929353   -0.0354472219913    
7300000000.0        -0.0016067767231    -0.0359427966918    0.998315044893      -0.0441444539635    0.998315044893      -0.0441444539635    -0.0016067767231    -0.0359427966918    
7400000000.0        -0.00165152006307   -0.0364384246844    0.998269299329      -0.0447537775411    0.998269299329      -0.0447537775411    -0.00165152006307   -0.0364384246844    
7500000000.0        -0.00169687955491   -0.036934103835     0.998222924204      -0.0453631962744    0.998222924204      -0.0453631962744    -0.00169687955491   -0.036934103835     
7600000000.0        -0.00174285543201   -0.037429831993     0.998175919265      -0.0459727082277    0.998175919265      -0.0459727082277    -0.00174285543201   -0.037429831993     
7700000000.0        -0.00178944791963   -0.0379256069911    0.998128284269      -0.0465823114458    0.998128284269      -0.0465823114458    -0.00178944791963   -0.0379256069911    
7800000000.0        -0.00183665723491   -0.038421426647     0.998080018981      -0.0471920039554    0.998080018981      -0.0471920039554    -0.00183665723491   -0.038421426647     
7900000000.0        -0.00188448358678   -0.0389172887631    0.998031123175      -0.0478017837658    0.998031123175      -0.0478017837658    -0.00188448358678   -0.0389172887631    
8000000000.0        -0.00193292717595   -0.039413191128     0.997981596631      -0.0484116488692    0.997981596631      -0.0484116488692    -0.00193292717595   -0.039413191128     
8100000000.0        -0.00198198819488   -0.0399091315168    0.997931439139      -0.0490215972417    0.997931439139      -0.0490215972417    -0.00198198819488   -0.0399091315168    
8200000000.0        -0.00203166682777   -0.0404051076917    0.997880650497      -0.0496316268445    0.997880650497      -0.0496316268445    -0.00203166682777   -0.0404051076917    
8300000000.0        -0.00208196325051   -0.0409011174027    0.997829230511      -0.0502417356236    0.997829230511      -0.0502417356236    -0.00208196325051   -0.0409011174027    
8400000000.0        -0.00213287763067   -0.0413971583884    0.997777178995      -0.0508519215112    0.997777178995      -0.0508519215112    -0.00213287763067   -0.0413971583884    
8500000000.0        -0.00218441012746   -0.041893228376     0.997724495773      -0.051462182426     0.997724495773      -0.051462182426     -0.00218441012746   -0.041893228376     
8600000000.0        -0.00223656089175   -0.0423893250825    0.997671180674      -0.052072516274     0.997671180674      -0.052072516274     -0.00223656089175   -0.0423893250825    
8700000000.0        -0.00228933006605   -0.0428854462151    0.99761723354       -0.0526829209492    0.99761723354       -0.0526829209492    -0.00228933006605   -0.0428854462151    
8800000000.0        -0.00234271778445   -0.0433815894713    0.997562654216      -0.0532933943335    0.997562654216      -0.0532933943335    -0.00234271778445   -0.0433815894713    
8900000000.0        -0.00239672417267   -0.0438777525399    0.997507442561      -0.0539039342982    0.997507442561      -0.0539039342982    -0.00239672417267   -0.0438777525399    
9000000000.0        -0.00245134934801   -0.0443739331014    0.997451598438      -0.0545145387041    0.997451598438      -0.0545145387041    -0.00245134934801   -0.0443739331014    
9100000000.0        -0.00250659341937   -0.0448701288284    0.99739512172       -0.0551252054019    0.99739512172       -0.0551252054019    -0.00250659341937   -0.0448701288284    
9200000000.0        -0.00256245648724   -0.045366337386     0.99733801229       -0.0557359322329    0.99733801229       -0.0557359322329    -0.00256245648724   -0.045366337386     
9300000000.0        -0.00261893864367   -0.0458625564324    0.997280270035      -0.0563467170296    0.997280270035      -0.0563467170296    -0.00261893864367   -0.0458625564324    
9400000000.0        -0.00267603997229   -0.0463587836192    0.997221894856      -0.0569575576159    0.997221894856      -0.0569575576159    -0.00267603997229   -0.0463587836192    
9500000000.0        -0.00273376054834   -0.0468550165922    0.997162886657      -0.0575684518079    0.997162886657      -0.0575684518079    -0.00273376054834   -0.0468550165922    
9600000000.0        -0.00279210043861   -0.0473512529912    0.997103245355      -0.0581793974141    0.997103245355      -0.0581793974141    -0.00279210043861   -0.0473512529912    
9700000000.0        -0.00285105970148   -0.047847490451     0.997042970873      -0.0587903922359    0.997042970873      -0.0587903922359    -0.00285105970148   -0.047847490451     
9800000000.0        -0.00291063838694   -0.0483437266014    0.996982063141      -0.0594014340681    0.996982063141      -0.0594014340681    -0.00291063838694   -0.0483437266014    
9900000000.0        -0.00297083653656   -0.0488399590676    0.996920522102      -0.0600125206994    0.996920522102      -0.0600125206994    -0.00297083653656   -0.0488399590676    
10000000000.0       -0.00303165418351   -0.049336185471     0.996858347702      -0.0606236499126    0.996858347702      -0.0606236499126    -0.00303165418351   -0.049336185471     
