# Hz S RI R 50.00 
100000000.0         -0.00104208599643   -0.0317823172483    0.998953571886      -0.0318086583886    0.998953571886      -0.0318086583886    -0.00104208599643   -0.0317823172483    
200000000.0         -0.00409611668377   -0.0633596328401    0.995899510459      -0.063412332873     0.995899510459      -0.063412332873     -0.00409611668377   -0.0633596328401    
300000000.0         -0.00912114056419   -0.0945398564847    0.990874462601      -0.094618941648     0.990874462601      -0.094618941648     -0.00912114056419   -0.0945398564847    
400000000.0         -0.0160543110867    -0.125140404237     0.98394127113       -0.125245906621     0.98394127113       -0.125245906621     -0.0160543110867    -0.125140404237     
500000000.0         -0.0248113700932    -0.15499109761      0.975184192774      -0.155123053612     0.975184192774      -0.155123053612     -0.0248113700932    -0.15499109761      
600000000.0         -0.03528925761      -0.183936868988     0.964706286777      -0.184095318181     0.964706286777      -0.184095318181     -0.03528925761      -0.183936868988     
700000000.0         -0.0473691002991    -0.211839952274     0.952626426051      -0.212024936509     0.952626426051      -0.212024936509     -0.0473691002991    -0.211839952274     
800000000.0         -0.060919442785     -0.238581463671     0.939076065692      -0.238793026351     0.939076065692      -0.238793026351     -0.060919442785     -0.238581463671     
900000000.0         -0.0757995798482    -0.264062346478     0.924195910728      -0.264300531953     0.924195910728      -0.264300531953     -0.0757995798482    -0.264062346478     
1000000000.0        -0.0918628544362    -0.288203697066     0.908132618073      -0.28846855013      0.908132618073      -0.28846855013      -0.0918628544362    -0.288203697066     
1100000000.0        -0.108959802361     -0.31094652129      0.891035651811      -0.311238086764     0.891035651811      -0.311238086764     -0.108959802361     -0.31094652129      
1200000000.0        -0.126941046286     -0.332250993649     0.873054389195      -0.332569316044     0.873054389195      -0.332569316044     -0.126941046286     -0.332250993649     
1300000000.0        -0.145659866423     -0.35209530624      0.854335549953      -0.352440429468     0.854335549953      -0.352440429468     -0.145659866423     -0.35209530624      
1400000000.0        -0.164974400686     -0.370474201357     0.835020996117      -0.370846168512     0.835020996117      -0.370846168512     -0.164974400686     -0.370474201357     
1500000000.0        -0.18474945113      -0.38739728187      0.815245925589      -0.387796135046     0.815245925589      -0.387796135046     -0.18474945113      -0.38739728187      
1600000000.0        -0.204857894589     -0.402887188135     0.795137461502      -0.403312968287     0.795137461502      -0.403312968287     -0.204857894589     -0.402887188135     
1700000000.0        -0.225181712836     -0.416977720975     0.774813622049      -0.417430467813     0.774813622049      -0.417430467813     -0.225181712836     -0.416977720975     
1800000000.0        -0.245612670821     -0.429711978473     0.754382642258      -0.430191730388     0.754382642258      -0.430191730388     -0.245612670821     -0.429711978473     
1900000000.0        -0.266052680595     -0.44114056133      0.733942610055      -0.441647355342     0.733942610055      -0.441647355342     -0.266052680595     -0.44114056133      
2000000000.0        -0.286413893871     -0.451319888481     0.713581373707      -0.451853760209     0.713581373707      -0.451853760209     -0.286413893871     -0.451319888481     
2100000000.0        -0.306618568204     -0.46031065226      0.693376675645      -0.460871635911     0.693376675645      -0.460871635911     -0.306618568204     -0.46031065226      
2200000000.0        -0.326598751205     -0.468176431393     0.673396468239      -0.468764559759     0.673396468239      -0.468764559759     -0.326598751205     -0.468176431393     
2300000000.0        -0.346295824762     -0.474982470623     0.653699369594      -0.475597775099     0.653699369594      -0.475597775099     -0.346295824762     -0.474982470623     
2400000000.0        -0.365659947362     -0.480794628116     0.634335221208      -0.48143713872      0.634335221208      -0.48143713872      -0.365659947362     -0.480794628116     
2500000000.0        -0.384649428093     -0.485678485834     0.615345713984      -0.486348231237     0.615345713984      -0.486348231237     -0.384649428093     -0.485678485834     
2600000000.0        -0.403230060897     -0.489698613724     0.59676505397       -0.490395621288     0.59676505397       -0.490395621288     -0.403230060897     -0.489698613724     
2700000000.0        -0.421374442793     -0.492917975643     0.578620644141      -0.493642271457     0.578620644141      -0.493642271457     -0.421374442793     -0.492917975643     
2800000000.0        -0.439061295031     -0.495397463174     0.560933763239      -0.496149072103     0.560933763239      -0.496149072103     -0.439061295031     -0.495397463174     
2900000000.0        -0.456274801937     -0.497195542729     0.543720226931      -0.497974488454     0.543720226931      -0.497974488454     -0.456274801937     -0.497195542729     
3000000000.0        -0.473003978366     -0.498368001248     0.526991020357      -0.499174306319     0.526991020357      -0.499174306319     -0.473003978366     -0.498368001248     
3100000000.0        -0.48924207348      -0.498967776338     0.510752894348      -0.499801462218     0.510752894348      -0.499801462218     -0.48924207348      -0.498967776338     
3200000000.0        -0.504986015833     -0.499044857512     0.495008920348      -0.499905944626     0.495008920348      -0.499905944626     -0.504986015833     -0.499044857512     
3300000000.0        -0.52023590254      -0.498646246345     0.479759001235      -0.499534754128     0.479759001235      -0.499534754128     -0.52023590254      -0.498646246345     
3400000000.0        -0.534994533568     -0.497815964548     0.465000337041      -0.498731911492     0.465000337041      -0.498731911492     -0.534994533568     -0.497815964548     
3500000000.0        -0.549266990803     -0.496595100273     0.450727845874      -0.497538503973     0.450727845874      -0.497538503973     -0.549266990803     -0.496595100273     
3600000000.0        -0.563060260595     -0.495021884192     0.436934541381      -0.495992761393     0.436934541381      -0.495992761393     -0.563060260595     -0.495021884192     
3700000000.0        -0.576382897717     -0.49313178811      0.423611868787      -0.494130154746     0.423611868787      -0.494130154746     -0.576382897717     -0.49313178811      
3800000000.0        -0.589244728226     -0.490957639967     0.410750002031      -0.491983511207     0.410750002031      -0.491983511207     -0.589244728226     -0.490957639967     
3900000000.0        -0.601656588417     -0.488529750112     0.398338104818      -0.489583140398     0.398338104818      -0.489583140398     -0.601656588417     -0.488529750112     
4000000000.0        -0.61363009691      -0.485876044611     0.386364558523      -0.486956967701     0.386364558523      -0.486956967701     -0.61363009691      -0.485876044611     
4100000000.0        -0.625177456906     -0.483022202159     0.374817159945      -0.484130671162     0.374817159945      -0.484130671162     -0.625177456906     -0.483022202159     
4200000000.0        -0.636311285662     -0.479991791844     0.363683291823      -0.481127819253     0.363683291823      -0.481127819253     -0.636311285662     -0.479991791844     
4300000000.0        -0.647044468405     -0.476806409588     0.352950068931      -0.477970007319     0.352950068931      -0.477970007319     -0.647044468405     -0.476806409588     
4400000000.0        -0.657390033994     -0.473485811613     0.342604462405      -0.474676991033     0.342604462405      -0.474676991033     -0.657390033994     -0.473485811613     
4500000000.0        -0.667361049882     -0.470048043661     0.332633404794      -0.471266815622     0.332633404794      -0.471266815622     -0.667361049882     -0.470048043661     
4600000000.0        -0.67697053407      -0.466509565085     0.323023878093      -0.467755939952     0.323023878093      -0.467755939952     -0.67697053407      -0.466509565085     
4700000000.0        -0.686231381986     -0.462885367157     0.313762986873      -0.464159354836     0.313762986873      -0.464159354836     -0.686231381986     -0.462885367157     
4800000000.0        -0.695156306381     -0.459189085225     0.304838018383      -0.460490695188     0.304838018383      -0.460490695188     -0.695156306381     -0.459189085225     
4900000000.0        -0.703757788541     -0.455433104484     0.296236491336      -0.456762345798     0.296236491336      -0.456762345798     -0.703757788541     -0.455433104484     
5000000000.0        -0.712048039302     -0.451628659319     0.287946194893      -0.452985540665     0.287946194893      -0.452985540665     -0.712048039302     -0.451628659319     
5100000000.0        -0.720038968501     -0.447785926238     0.279955219219      -0.449170455935     0.279955219219      -0.449170455935     -0.720038968501     -0.447785926238     
5200000000.0        -0.727742161658     -0.443914110545     0.272251978791      -0.445326296573     0.272251978791      -0.445326296573     -0.727742161658     -0.443914110545     
5300000000.0        -0.735168862845     -0.44002152695      0.264825229537      -0.441461376966     0.264825229537      -0.441461376966     -0.735168862845     -0.44002152695      
5400000000.0        -0.742329962795     -0.436115674336     0.257664080722      -0.437583195697     0.257664080722      -0.437583195697     -0.742329962795     -0.436115674336     
5500000000.0        -0.749235991447     -0.432203304982     0.250758002408      -0.433698504761     0.250758002408      -0.433698504761     -0.749235991447     -0.432203304982     
5600000000.0        -0.755897114208     -0.428290488515     0.244096829187      -0.429813373517     0.244096829187      -0.429813373517     -0.755897114208     -0.428290488515     
5700000000.0        -0.762323131325     -0.424382670895     0.237670760811      -0.425933247674     0.237670760811      -0.425933247674     -0.762323131325     -0.424382670895     
5800000000.0        -0.768523479824     -0.420484728751     0.231470360252      -0.422063003625     0.231470360252      -0.422063003625     -0.768523479824     -0.420484728751     
5900000000.0        -0.774507237557     -0.416601019353     0.225486549661      -0.418206998418     0.225486549661      -0.418206998418     -0.774507237557     -0.416601019353     
6000000000.0        -0.780283128958     -0.412735426528     0.219710604601      -0.414369115671     0.219710604601      -0.414369115671     -0.780283128958     -0.412735426528     
6100000000.0        -0.78585953217      -0.408891402805     0.214134146928      -0.410552807715     0.214134146928      -0.410552807715     -0.78585953217      -0.408891402805     
6200000000.0        -0.791244487255     -0.405072008057     0.208749136582      -0.406761134242     0.208749136582      -0.406761134242     -0.791244487255     -0.405072008057     
6300000000.0        -0.796445705219     -0.401279944915     0.203547862553      -0.402996797708     0.203547862553      -0.402996797708     -0.796445705219     -0.401279944915     
6400000000.0        -0.801470577677     -0.397517591187     0.19852293323       -0.399262175758     0.19852293323       -0.399262175758     -0.801470577677     -0.397517591187     
6500000000.0        -0.806326186938     -0.393787029526     0.193667266301      -0.395559350893     0.193667266301      -0.395559350893     -0.806326186938     -0.393787029526     
6600000000.0        -0.811019316394     -0.390090074559     0.188974078373      -0.391890137596     0.188974078373      -0.391890137596     -0.811019316394     -0.390090074559     
6700000000.0        -0.815556461073     -0.386428297687     0.184436874419      -0.388256107135     0.184436874419      -0.388256107135     -0.815556461073     -0.386428297687     
6800000000.0        -0.81994383825      -0.382803049741     0.180049437163      -0.384658610214     0.180049437163      -0.384658610214     -0.81994383825      -0.382803049741     
6900000000.0        -0.824187398035     -0.37921548167      0.175805816496      -0.381098797664     0.175805816496      -0.381098797664     -0.824187398035     -0.37921548167      
7000000000.0        -0.828292833868     -0.375666563433     0.171700318977      -0.377577639334     0.171700318977      -0.377577639334     -0.828292833868     -0.375666563433     
7100000000.0        -0.832265592857     -0.372157101234     0.167727497497      -0.374095941324     0.167727497497      -0.374095941324     -0.832265592857     -0.372157101234     
7200000000.0        -0.836110885924     -0.368687753246     0.163882141135      -0.37065436171      0.163882141135      -0.37065436171      -0.836110885924     -0.368687753246     
7300000000.0        -0.839833697713     -0.365259043956     0.160159265245      -0.367253424889     0.160159265245      -0.367253424889     -0.839833697713     -0.365259043956     
7400000000.0        -0.843438796235     -0.361871377236     0.156554101817      -0.363893534647     0.156554101817      -0.363893534647     -0.843438796235     -0.361871377236     
7500000000.0        -0.846930742236     -0.358525048266     0.153062090105      -0.360574986087     0.153062090105      -0.360574986087     -0.846930742236     -0.358525048266     
7600000000.0        -0.850313898256     -0.355220254393     0.149678867567      -0.35729797648      0.149678867567      -0.35729797648      -0.850313898256     -0.355220254393     
7700000000.0        -0.853592437392     -0.351957105026     0.146400261109      -0.354062615167     0.146400261109      -0.354062615167     -0.853592437392     -0.351957105026     
7800000000.0        -0.856770351737     -0.348735630647     0.143222278635      -0.350868932567     0.143222278635      -0.350868932567     -0.856770351737     -0.348735630647     
7900000000.0        -0.859851460507     -0.345555791021     0.14014110093       -0.347716888383     0.14014110093       -0.347716888383     -0.859851460507     -0.345555791021     
8000000000.0        -0.86283941785      -0.342417482661     0.137153073845      -0.344606379075     0.137153073845      -0.344606379075     -0.86283941785      -0.342417482661     
8100000000.0        -0.865737720339     -0.339320545629     0.134254700808      -0.341537244654     0.134254700808      -0.341537244654     -0.865737720339     -0.339320545629     
8200000000.0        -0.868549714154     -0.336264769723     0.131442635637      -0.338509274867     0.131442635637      -0.338509274867     -0.868549714154     -0.336264769723     
8300000000.0        -0.871278601966     -0.333249900094     0.128713675662      -0.335522214826     0.128713675662      -0.335522214826     -0.871278601966     -0.333249900094     
8400000000.0        -0.873927449514     -0.330275642372     0.126064755145      -0.332575770116     0.126064755145      -0.332575770116     -0.873927449514     -0.330275642372     
8500000000.0        -0.876499191896     -0.327341667304     0.123492938985      -0.329669611449     0.123492938985      -0.329669611449     -0.876499191896     -0.327341667304     
8600000000.0        -0.878996639586     -0.324447614982     0.12099541671       -0.326803378882     0.12099541671       -0.326803378882     -0.878996639586     -0.324447614982     
8700000000.0        -0.881422484165     -0.321593098677     0.118569496739      -0.323976685654     0.118569496739      -0.323976685654     -0.881422484165     -0.321593098677     
8800000000.0        -0.8837793038       -0.318777708321     0.116212600902      -0.321189121669     0.116212600902      -0.321189121669     -0.8837793038       -0.318777708321     
8900000000.0        -0.88606956847      -0.316001013661     0.113922259223      -0.318440256647     0.113922259223      -0.318440256647     -0.88606956847      -0.316001013661     
9000000000.0        -0.88829564494      -0.313262567127     0.111696104936      -0.315729642997     0.111696104936      -0.315729642997     -0.88829564494      -0.313262567127     
9100000000.0        -0.890459801507     -0.310561906426     0.109531869743      -0.313056818401     0.109531869743      -0.313056818401     -0.890459801507     -0.310561906426     
9200000000.0        -0.892564212525     -0.307898556888     0.10742737929       -0.310421308171     0.10742737929       -0.310421308171     -0.892564212525     -0.307898556888     
9300000000.0        -0.894610962709     -0.305272033596     0.105380548862      -0.307822627375     0.105380548862      -0.307822627375     -0.894610962709     -0.305272033596     
9400000000.0        -0.896602051238     -0.302681843307     0.10338937928       -0.305260282752     0.10338937928       -0.305260282752     -0.896602051238     -0.302681843307     
9500000000.0        -0.898539395657     -0.300127486188     0.101451952999      -0.302733774457     0.101451952999      -0.302733774457     -0.898539395657     -0.300127486188     
9600000000.0        -0.900424835601     -0.297608457383     0.0995664303834     -0.300242597622     0.0995664303834     -0.300242597622     -0.900424835601     -0.297608457383     
9700000000.0        -0.902260136326     -0.295124248423     0.0977310461765     -0.29778624377      0.0977310461765     -0.29778624377      -0.902260136326     -0.295124248423     
9800000000.0        -0.904046992087     -0.292674348504     0.0959441061247     -0.295364202087     0.0959441061247     -0.295364202087     -0.904046992087     -0.292674348504     
9900000000.0        -0.905787029336     -0.29025824562      0.0942039837742     -0.292975960561     0.0942039837742     -0.292975960561     -0.905787029336     -0.29025824562      
10000000000.0       -0.90748180978      -0.287875427599     0.0925091174185     -0.290621007014     0.0925091174185     -0.290621007014     -0.90748180978      -0.287875427599     
