# Hz S RI R 50.00 
100000000.0         0.07390383247       0.00295508852946    0.926093228697      -0.00419090269975   0.926093228697      -0.00419090269975   0.07390383247       0.00295508852946    
200000000.0         0.0743932279344     0.00590291279514    0.925600325963      -0.00837454903551   0.925600325963      -0.00837454903551   0.0743932279344     0.00590291279514    
300000000.0         0.0747863140172     0.00884603659695    0.925202163615      -0.0125535100299    0.925202163615      -0.0125535100299    0.0747863140172     0.00884603659695    
400000000.0         0.0751430066404     0.011785163211      0.924838825283      -0.0167284953162    0.924838825283      -0.0167284953162    0.0751430066404     0.011785163211      
500000000.0         0.0754864246073     0.0147205631106     0.924487191753      -0.0208997812915    0.924487191753      -0.0208997812915    0.0754864246073     0.0147205631106     
600000000.0         0.075828371769      0.0176523152569     0.924135458771      -0.0250674525594    0.924135458771      -0.0250674525594    0.075828371769      0.0176523152569     
700000000.0         0.0761758224893     0.0205803938083     0.923776651563      -0.0292314887158    0.923776651563      -0.0292314887158    0.0761758224893     0.0205803938083     
800000000.0         0.0765332911188     0.0235047083675     0.923406255359      -0.0333918046423    0.923406255359      -0.0333918046423    0.0765332911188     0.0235047083675     
900000000.0         0.0769038880443     0.0264251256223     0.923021159336      -0.0375482721776    0.923021159336      -0.0375482721776    0.0769038880443     0.0264251256223     
1000000000.0        0.0772898554834     0.0293414821816     0.922619120821      -0.0417007329743    0.922619120821      -0.0417007329743    0.0772898554834     0.0293414821816     
1100000000.0        0.0776928655979     0.0322535927469     0.922198467177      -0.0458490066861    0.922198467177      -0.0458490066861    0.0776928655979     0.0322535927469     
1200000000.0        0.0781141982906     0.0351612556042     0.921757918001      -0.0499928964722    0.921757918001      -0.0499928964722    0.0781141982906     0.0351612556042     
1300000000.0        0.0785548531666     0.0380642564768     0.921296473165      -0.0541321928587    0.921296473165      -0.0541321928587    0.0785548531666     0.0380642564768     
1400000000.0        0.0790156231907     0.0409623713238     0.920813339159      -0.0582666765453    0.920813339159      -0.0582666765453    0.0790156231907     0.0409623713238     
1500000000.0        0.0794971449259     0.0438553684349     0.920307878846      -0.0623961205056    0.920307878846      -0.0623961205056    0.0794971449259     0.0438553684349     
1600000000.0        0.0799999338519     0.0467430100368     0.919779576147      -0.0665202915991    0.919779576147      -0.0665202915991    0.0799999338519     0.0467430100368     
1700000000.0        0.0805244098435     0.0496250535532     0.919228010565      -0.0706389518355    0.919228010565      -0.0706389518355    0.0805244098435     0.0496250535532     
1800000000.0        0.0810709159641     0.0525012526119     0.918652838383      -0.0747518593853    0.918652838383      -0.0747518593853    0.0810709159641     0.0525012526119     
1900000000.0        0.0816397326005     0.0553713578638     0.918053778539      -0.0788587694021    0.918053778539      -0.0788587694021    0.0816397326005     0.0553713578638     
2000000000.0        0.0822310882787     0.0582351176586     0.9174306018        -0.0829594347011    0.9174306018        -0.0829594347011    0.0822310882787     0.0582351176586     
2100000000.0        0.0828451680651     0.0610922786115     0.916783122369      -0.0870536063278    0.916783122369      -0.0870536063278    0.0828451680651     0.0610922786115     
2200000000.0        0.0834821201837     0.0639425860827     0.916111191262      -0.0911410340406    0.916111191262      -0.0911410340406    0.0834821201837     0.0639425860827     
2300000000.0        0.0841420612929     0.0667857845892     0.915414691033      -0.0952214667235    0.915414691033      -0.0952214667235    0.0841420612929     0.0667857845892     
2400000000.0        0.0848250807393     0.0696216181622     0.914693531523      -0.0992946527458    0.914693531523      -0.0992946527458    0.0848250807393     0.0696216181622     
2500000000.0        0.0855312440247     0.072449830659      0.913947646387      -0.103360340275     0.913947646387      -0.103360340275     0.0855312440247     0.072449830659      
2600000000.0        0.0862605956571     0.0752701660392     0.913176990247      -0.107418277556     0.913176990247      -0.107418277556     0.0862605956571     0.0752701660392     
2700000000.0        0.0870131615159     0.0780823686108     0.912381536327      -0.111468213156     0.912381536327      -0.111468213156     0.0870131615159     0.0780823686108     
2800000000.0        0.0877889508318     0.0808861832502     0.91156127447       -0.115509896187     0.91156127447       -0.115509896187     0.0877889508318     0.0808861832502     
2900000000.0        0.0885879578545     0.0836813556019     0.910716209475      -0.119543076507     0.910716209475      -0.119543076507     0.0885879578545     0.0836813556019     
3000000000.0        0.0894101632708     0.0864676322594     0.909846359673      -0.1235675049       0.909846359673      -0.1235675049       0.0894101632708     0.0864676322594     
3100000000.0        0.0902555354151     0.0892447609312     0.908951755721      -0.127582933247     0.908951755721      -0.127582933247     0.0902555354151     0.0892447609312     
3200000000.0        0.0911240313134     0.0920124905925     0.908032439556      -0.131589114672     0.908032439556      -0.131589114672     0.0911240313134     0.0920124905925     
3300000000.0        0.0920155975859     0.0947705716264     0.907088463493      -0.135585803691     0.907088463493      -0.135585803691     0.0920155975859     0.0947705716264     
3400000000.0        0.0929301712348     0.0975187559539     0.906119889439      -0.139572756337     0.906119889439      -0.139572756337     0.0929301712348     0.0975187559539     
3500000000.0        0.0938676803338     0.100256797156      0.905126788197      -0.143549730287     0.905126788197      -0.143549730287     0.0938676803338     0.100256797156      
3600000000.0        0.0948280446368     0.102984450586      0.904109238866      -0.147516484972     0.904109238866      -0.147516484972     0.0948280446368     0.102984450586      
3700000000.0        0.0958111761165     0.105701473476      0.903067328297      -0.151472781686     0.903067328297      -0.151472781686     0.0958111761165     0.105701473476      
3800000000.0        0.0968169794454     0.108407625039      0.902001150612      -0.155418383686     0.902001150612      -0.155418383686     0.0968169794454     0.108407625039      
3900000000.0        0.0978453524256     0.11110266656       0.900910806776      -0.159353056287     0.900910806776      -0.159353056287     0.0978453524256     0.11110266656       
4000000000.0        0.0988961863765     0.113786361486      0.899796404211      -0.163276566951     0.899796404211      -0.163276566951     0.0988961863765     0.113786361486      
4100000000.0        0.0999693664853     0.116458475508      0.898658056439      -0.167188685369     0.898658056439      -0.167188685369     0.0999693664853     0.116458475508      
4200000000.0        0.101064772125      0.119118776646      0.897495882772      -0.171089183546     0.897495882772      -0.171089183546     0.101064772125      0.119118776646      
4300000000.0        0.102182277148      0.121767035317      0.896310008012      -0.174977835871     0.896310008012      -0.174977835871     0.102182277148      0.121767035317      
4400000000.0        0.103321750148      0.124403024412      0.895100562193      -0.178854419193     0.895100562193      -0.178854419193     0.103321750148      0.124403024412      
4500000000.0        0.104483054713      0.12702651936       0.893867680326      -0.182718712887     0.893867680326      -0.182718712887     0.104483054713      0.12702651936       
4600000000.0        0.105666049647      0.129637298194      0.892611502177      -0.18657049892      0.892611502177      -0.18657049892      0.105666049647      0.129637298194      
4700000000.0        0.106870589188      0.132235141614      0.891332172054      -0.190409561909     0.891332172054      -0.190409561909     0.106870589188      0.132235141614      
4800000000.0        0.108096523201      0.134819833041      0.890029838605      -0.194235689185     0.890029838605      -0.194235689185     0.108096523201      0.134819833041      
4900000000.0        0.109343697363      0.137391158676      0.88870465464       -0.198048670845     0.88870465464       -0.198048670845     0.109343697363      0.137391158676      
5000000000.0        0.110611953344      0.13994890755       0.887356776948      -0.201848299806     0.887356776948      -0.201848299806     0.110611953344      0.13994890755       
5100000000.0        0.111901128964      0.142492871577      0.88598636614       -0.205634371854     0.88598636614       -0.205634371854     0.111901128964      0.142492871577      
5200000000.0        0.113211058354      0.145022845596      0.884593586489      -0.209406685691     0.884593586489      -0.209406685691     0.113211058354      0.145022845596      
5300000000.0        0.114541572101      0.147538627422      0.883178605779      -0.213165042985     0.883178605779      -0.213165042985     0.114541572101      0.147538627422      
5400000000.0        0.115892497393      0.150040017884      0.881741595172      -0.216909248404     0.881741595172      -0.216909248404     0.115892497393      0.150040017884      
5500000000.0        0.117263658149      0.152526820867      0.880282729064      -0.220639109667     0.880282729064      -0.220639109667     0.117263658149      0.152526820867      
5600000000.0        0.118654875156      0.15499884335       0.878802184961      -0.224354437571     0.878802184961      -0.224354437571     0.118654875156      0.15499884335       
5700000000.0        0.120065966186      0.15745589544       0.877300143352      -0.228055046038     0.877300143352      -0.228055046038     0.120065966186      0.15745589544       
5800000000.0        0.12149674612       0.15989779041       0.875776787589      -0.23174075214      0.875776787589      -0.23174075214      0.12149674612       0.15989779041       
5900000000.0        0.122947027064      0.162324344726      0.874232303771      -0.235411376136     0.874232303771      -0.235411376136     0.122947027064      0.162324344726      
6000000000.0        0.124416618458      0.164735378078      0.872666880636      -0.239066741499     0.872666880636      -0.239066741499     0.124416618458      0.164735378078      
6100000000.0        0.12590532719       0.167130713409      0.871080709445      -0.242706674948     0.871080709445      -0.242706674948     0.12590532719       0.167130713409      
6200000000.0        0.127412957697      0.169510176942      0.869473983881      -0.246331006468     0.869473983881      -0.246331006468     0.127412957697      0.169510176942      
6300000000.0        0.128939312069      0.171873598199      0.867846899946      -0.24993956934      0.867846899946      -0.24993956934      0.128939312069      0.171873598199      
6400000000.0        0.130484190151      0.174220810028      0.86619965586       -0.253532200157     0.86619965586       -0.253532200157     0.130484190151      0.174220810028      
6500000000.0        0.132047389637      0.17655164862       0.864532451964      -0.257108738851     0.864532451964      -0.257108738851     0.132047389637      0.17655164862       
6600000000.0        0.133628706169      0.178865953529      0.862845490624      -0.260669028709     0.862845490624      -0.260669028709     0.133628706169      0.178865953529      
6700000000.0        0.135227933428      0.181163567689      0.861138976136      -0.264212916386     0.861138976136      -0.264212916386     0.135227933428      0.181163567689      
6800000000.0        0.136844863225      0.18344433743       0.859413114641      -0.267740251927     0.859413114641      -0.267740251927     0.136844863225      0.18344433743       
6900000000.0        0.138479285592      0.185708112487      0.857668114027      -0.271250888777     0.857668114027      -0.271250888777     0.138479285592      0.185708112487      
7000000000.0        0.14013098887       0.187954746019      0.855904183849      -0.274744683791     0.855904183849      -0.274744683791     0.14013098887       0.187954746019      
7100000000.0        0.141799759791      0.190184094611      0.854121535237      -0.278221497249     0.854121535237      -0.278221497249     0.141799759791      0.190184094611      
7200000000.0        0.143485383568      0.192396018289      0.852320380816      -0.281681192861     0.852320380816      -0.281681192861     0.143485383568      0.192396018289      
7300000000.0        0.145187643974      0.194590380525      0.85050093462       -0.285123637776     0.85050093462       -0.285123637776     0.145187643974      0.194590380525      
7400000000.0        0.146906323424      0.19676704824       0.848663412014      -0.288548702586     0.848663412014      -0.288548702586     0.146906323424      0.19676704824       
7500000000.0        0.148641203055      0.198925891813      0.846808029608      -0.291956261332     0.846808029608      -0.291956261332     0.148641203055      0.198925891813      
7600000000.0        0.150392062809      0.201066785079      0.844935005186      -0.295346191505     0.844935005186      -0.295346191505     0.150392062809      0.201066785079      
7700000000.0        0.152158681502      0.203189605332      0.843044557621      -0.29871837405      0.843044557621      -0.29871837405      0.152158681502      0.203189605332      
7800000000.0        0.153940836908      0.205294233324      0.841136906803      -0.302072693361     0.841136906803      -0.302072693361     0.153940836908      0.205294233324      
7900000000.0        0.155738305832      0.207380553266      0.839212273566      -0.305409037285     0.839212273566      -0.305409037285     0.155738305832      0.207380553266      
8000000000.0        0.15755086418       0.209448452821      0.837270879606      -0.308727297113     0.837270879606      -0.308727297113     0.15755086418       0.209448452821      
8100000000.0        0.159378287037      0.211497823102      0.835312947417      -0.312027367582     0.835312947417      -0.312027367582     0.159378287037      0.211497823102      
8200000000.0        0.161220348735      0.213528558665      0.833338700216      -0.315309146865     0.833338700216      -0.315309146865     0.161220348735      0.213528558665      
8300000000.0        0.163076822924      0.215540557503      0.83134836187       -0.318572536565     0.83134836187       -0.318572536565     0.163076822924      0.215540557503      
8400000000.0        0.164947482644      0.217533721039      0.829342156831      -0.321817441708     0.829342156831      -0.321817441708     0.164947482644      0.217533721039      
8500000000.0        0.166832100388      0.219507954114      0.827320310065      -0.325043770734     0.827320310065      -0.325043770734     0.166832100388      0.219507954114      
8600000000.0        0.168730448176      0.221463164975      0.825283046987      -0.328251435482     0.825283046987      -0.328251435482     0.168730448176      0.221463164975      
8700000000.0        0.170642297614      0.22339926527       0.82323059339       -0.331440351184     0.82323059339       -0.331440351184     0.170642297614      0.22339926527       
8800000000.0        0.172567419964      0.225316170028      0.821163175388      -0.334610436451     0.821163175388      -0.334610436451     0.172567419964      0.225316170028      
8900000000.0        0.174505586206      0.227213797647      0.819081019343      -0.337761613255     0.819081019343      -0.337761613255     0.174505586206      0.227213797647      
9000000000.0        0.176456567101      0.22909206988       0.816984351809      -0.340893806918     0.816984351809      -0.340893806918     0.176456567101      0.22909206988       
9100000000.0        0.178420133254      0.23095091182       0.814873399466      -0.344006946094     0.814873399466      -0.344006946094     0.178420133254      0.23095091182       
9200000000.0        0.180396055174      0.232790251877      0.812748389061      -0.347100962752     0.812748389061      -0.347100962752     0.180396055174      0.232790251877      
9300000000.0        0.182384103332      0.234610021767      0.810609547348      -0.350175792159     0.810609547348      -0.350175792159     0.182384103332      0.234610021767      
9400000000.0        0.184384048225      0.236410156487      0.808457101028      -0.353231372859     0.808457101028      -0.353231372859     0.184384048225      0.236410156487      
9500000000.0        0.186395660426      0.238190594298      0.806291276692      -0.356267646653     0.806291276692      -0.356267646653     0.186395660426      0.238190594298      
9600000000.0        0.18841871065       0.239951276704      0.804112300765      -0.35928455858      0.804112300765      -0.35928455858      0.18841871065       0.239951276704      
9700000000.0        0.190452969801      0.241692148425      0.801920399446      -0.362282056893     0.801920399446      -0.362282056893     0.190452969801      0.241692148425      
9800000000.0        0.192498209033      0.243413157383      0.799715798661      -0.365260093036     0.799715798661      -0.365260093036     0.192498209033      0.243413157383      
9900000000.0        0.1945541998        0.245114254669      0.797498724002      -0.368218621622     0.797498724002      -0.368218621622     0.1945541998        0.245114254669      
10000000000.0       0.196620713911      0.246795394525      0.795269400677      -0.371157600407     0.795269400677      -0.371157600407     0.196620713911      0.246795394525      
