# Hz S RI R 50.00 
100000000.0         0.00823593126663    0.00108171719508    0.99175999243       -0.00279249105843   0.99175999243       -0.00279249105843   0.00823593126663    0.00108171719508    
200000000.0         0.00829856647359    0.00216297583329    0.991691345931      -0.00558452214901   0.991691345931      -0.00558452214901   0.00829856647359    0.00216297583329    
300000000.0         0.00835281376087    0.00324390913288    0.991628152206      -0.00837622774661   0.991628152206      -0.00837622774661   0.00835281376087    0.00324390913288    
400000000.0         0.00840577951848    0.00432453908383    0.991563304711      -0.0111676304149    0.991563304711      -0.0111676304149    0.00840577951848    0.00432453908383    
500000000.0         0.00846020178474    0.00540486189797    0.991494065238      -0.0139587265985    0.991494065238      -0.0139587265985    0.00846020178474    0.00540486189797    
600000000.0         0.00851747708857    0.00648486240971    0.991419037072      -0.0167495011432    0.991419037072      -0.0167495011432    0.00851747708857    0.00648486240971    
700000000.0         0.00857843011739    0.00756451923908    0.991337395323      -0.0195399325198    0.991337395323      -0.0195399325198    0.00857843011739    0.00756451923908    
800000000.0         0.0086435946884     0.00864380718244    0.99124860595       -0.0223299952513    0.99124860595       -0.0223299952513    0.0086435946884     0.00864380718244    
900000000.0         0.00871333887877    0.00972269849449    0.991152300634      -0.0251196612186    0.991152300634      -0.0251196612186    0.00871333887877    0.00972269849449    
1000000000.0        0.00878792846444    0.0108011636463     0.991048213337      -0.0279089004352    0.991048213337      -0.0279089004352    0.00878792846444    0.0108011636463     
1100000000.0        0.00886756219188    0.0118791718064     0.99093614503       -0.0306976815401    0.99093614503       -0.0306976815401    0.00886756219188    0.0118791718064     
1200000000.0        0.00895239279941    0.0129566911621     0.990815942675      -0.0334859721297    0.990815942675      -0.0334859721297    0.00895239279941    0.0129566911621     
1300000000.0        0.00904254024509    0.0140336891448     0.990687485993      -0.0362737389887    0.990687485993      -0.0362737389887    0.00904254024509    0.0140336891448     
1400000000.0        0.00913810040287    0.0151101325917     0.99055067877       -0.0390609482589    0.99055067877       -0.0390609482589    0.00913810040287    0.0151101325917     
1500000000.0        0.00923915098928    0.0161859878667     0.990405442931      -0.0418475655644    0.990405442931      -0.0418475655644    0.00923915098928    0.0161859878667     
1600000000.0        0.00934575572674    0.0172612209521     0.990251714375      -0.0446335561073    0.990251714375      -0.0446335561073    0.00934575572674    0.0172612209521     
1700000000.0        0.00945796734417    0.0183357975203     0.990089439976      -0.0474188847425    0.990089439976      -0.0474188847425    0.00945796734417    0.0183357975203     
1800000000.0        0.00957582978841    0.0194096829901     0.989918575371      -0.0502035160371    0.989918575371      -0.0502035160371    0.00957582978841    0.0194096829901     
1900000000.0        0.00969937988551    0.0204828425722     0.9897390833        -0.0529874143183    0.9897390833        -0.0529874143183    0.00969937988551    0.0204828425722     
2000000000.0        0.00982864861037    0.0215552413065     0.989550932334      -0.0557705437124    0.989550932334      -0.0557705437124    0.00982864861037    0.0215552413065     
2100000000.0        0.00996366207171    0.0226268440928     0.989354095893      -0.0585528681778    0.989354095893      -0.0585528681778    0.00996366207171    0.0226268440928     
2200000000.0        0.0101044422865     0.0236976157163     0.989148551469      -0.0613343515319    0.989148551469      -0.0613343515319    0.0101044422865     0.0236976157163     
2300000000.0        0.0102510077963     0.0247675208698     0.988934280012      -0.0641149574744    0.988934280012      -0.0641149574744    0.0102510077963     0.0247675208698     
2400000000.0        0.0104033741633     0.0258365241719     0.988711265434      -0.0668946496073    0.988711265434      -0.0668946496073    0.0104033741633     0.0258365241719     
2500000000.0        0.0105615543732     0.0269045901832     0.988479494204      -0.0696733914518    0.988479494204      -0.0696733914518    0.0105615543732     0.0269045901832     
2600000000.0        0.0107255591657     0.0279716834202     0.988238955018      -0.0724511464637    0.988238955018      -0.0724511464637    0.0107255591657     0.0279716834202     
2700000000.0        0.0108953973077     0.0290377683677     0.98798963853       -0.0752278780459    0.98798963853       -0.0752278780459    0.0108953973077     0.0290377683677     
2800000000.0        0.0110710758213     0.0301028094897     0.987731537119      -0.0780035495608    0.987731537119      -0.0780035495608    0.0110710758213     0.0301028094897     
2900000000.0        0.0112526001745     0.0311667712387     0.9874646447        -0.0807781243401    0.9874646447        -0.0807781243401    0.0112526001745     0.0311667712387     
3000000000.0        0.0114399744424     0.0322296180646     0.987188956564      -0.0835515656944    0.987188956564      -0.0835515656944    0.0114399744424     0.0322296180646     
3100000000.0        0.0116332014451     0.0332913144227     0.98690446924       -0.0863238369216    0.98690446924       -0.0863238369216    0.0116332014451     0.0332913144227     
3200000000.0        0.0118322828642     0.0343518247804     0.986611180377      -0.0890949013146    0.986611180377      -0.0890949013146    0.0118322828642     0.0343518247804     
3300000000.0        0.0120372193436     0.035411113624      0.986309088645      -0.0918647221683    0.986309088645      -0.0918647221683    0.0120372193436     0.035411113624      
3400000000.0        0.012248010577      0.0364691454646     0.985998193646      -0.0946332627859    0.985998193646      -0.0946332627859    0.012248010577      0.0364691454646     
3500000000.0        0.0124646553826     0.0375258848434     0.985678495841      -0.0974004864848    0.985678495841      -0.0974004864848    0.0124646553826     0.0375258848434     
3600000000.0        0.0126871517695     0.0385812963371     0.985349996483      -0.100166356602     0.985349996483      -0.100166356602     0.0126871517695     0.0385812963371     
3700000000.0        0.012915496995      0.0396353445625     0.985012697559      -0.102930836501     0.985012697559      -0.102930836501     0.012915496995      0.0396353445625     
3800000000.0        0.0131496876152     0.0406879941808     0.984666601741      -0.105693889573     0.984666601741      -0.105693889573     0.0131496876152     0.0406879941808     
3900000000.0        0.0133897195296     0.0417392099021     0.98431171234       -0.108455479243     0.98431171234       -0.108455479243     0.0133897195296     0.0417392099021     
4000000000.0        0.0136355880207     0.0427889564892     0.983948033268      -0.111215568978     0.983948033268      -0.111215568978     0.0136355880207     0.0427889564892     
4100000000.0        0.0138872877893     0.0438371987614     0.983575569         -0.113974122284     0.983575569         -0.113974122284     0.0138872877893     0.0438371987614     
4200000000.0        0.0141448129852     0.0448839015978     0.983194324548      -0.116731102715     0.983194324548      -0.116731102715     0.0141448129852     0.0448839015978     
4300000000.0        0.0144081572359     0.0459290299409     0.982804305426      -0.119486473873     0.982804305426      -0.119486473873     0.0144081572359     0.0459290299409     
4400000000.0        0.0146773136713     0.0469725488        0.982405517633      -0.122240199417     0.982405517633      -0.122240199417     0.0146773136713     0.0469725488        
4500000000.0        0.0149522749465     0.048014423254      0.981997967622      -0.124992243058     0.981997967622      -0.124992243058     0.0149522749465     0.048014423254      
4600000000.0        0.015233033262      0.0490546184543     0.981581662288      -0.12774256857      0.981581662288      -0.12774256857      0.015233033262      0.0490546184543     
4700000000.0        0.0155195803825     0.050093099628      0.981156608943      -0.13049113979      0.981156608943      -0.13049113979      0.0155195803825     0.050093099628      
4800000000.0        0.0158119076534     0.0511298320806     0.980722815302      -0.133237920619     0.980722815302      -0.133237920619     0.0158119076534     0.0511298320806     
4900000000.0        0.016110006016      0.0521647811985     0.980280289469      -0.135982875027     0.980280289469      -0.135982875027     0.016110006016      0.0521647811985     
5000000000.0        0.0164138660219     0.0531979124514     0.979829039919      -0.138725967056     0.979829039919      -0.138725967056     0.0164138660219     0.0531979124514     
5100000000.0        0.0167234778451     0.0542291913955     0.979369075491      -0.141467160822     0.979369075491      -0.141467160822     0.0167234778451     0.0542291913955     
5200000000.0        0.0170388312945     0.0552585836753     0.978900405371      -0.144206420517     0.978900405371      -0.144206420517     0.0170388312945     0.0552585836753     
5300000000.0        0.0173599158237     0.0562860550262     0.978423039084      -0.146943710412     0.978423039084      -0.146943710412     0.0173599158237     0.0562860550261     
5400000000.0        0.0176867205417     0.0573115712767     0.977936986486      -0.14967899486      0.977936986486      -0.14967899486      0.0176867205417     0.0573115712767     
5500000000.0        0.0180192342217     0.0583350983511     0.97744225775       -0.152412238297     0.97744225775       -0.152412238297     0.0180192342217     0.0583350983511     
5600000000.0        0.0183574453099     0.059356602271      0.97693886336       -0.155143405246     0.97693886336       -0.155143405246     0.0183574453099     0.059356602271      
5700000000.0        0.0187013419329     0.060376049158      0.976426814106      -0.157872460317     0.976426814106      -0.157872460317     0.0187013419329     0.060376049158      
5800000000.0        0.0190509119055     0.0613934052357     0.975906121072      -0.160599368213     0.975906121072      -0.160599368213     0.0190509119055     0.0613934052357     
5900000000.0        0.0194061427373     0.0624086368315     0.97537679563       -0.163324093727     0.97537679563       -0.163324093727     0.0194061427373     0.0624086368315     
6000000000.0        0.0197670216393     0.0634217103789     0.974838849438      -0.166046601748     0.974838849438      -0.166046601748     0.0197670216393     0.0634217103789     
6100000000.0        0.0201335355298     0.0644325924196     0.974292294429      -0.168766857261     0.974292294429      -0.168766857261     0.0201335355298     0.0644325924196     
6200000000.0        0.0205056710401     0.0654412496049     0.973737142807      -0.171484825352     0.973737142807      -0.171484825352     0.0205056710401     0.0654412496049     
6300000000.0        0.0208834145197     0.0664476486984     0.973173407042      -0.174200471204     0.973173407042      -0.174200471204     0.0208834145197     0.0664476486984     
6400000000.0        0.0212667520415     0.0674517565771     0.972601099866      -0.176913760107     0.972601099866      -0.176913760107     0.0212667520415     0.0674517565771     
6500000000.0        0.0216556694064     0.0684535402338     0.972020234266      -0.179624657453     0.972020234266      -0.179624657453     0.0216556694064     0.0684535402338     
6600000000.0        0.022050152148      0.0694529667788     0.971430823481      -0.18233312874      0.971430823481      -0.18233312874      0.022050152148      0.0694529667788     
6700000000.0        0.0224501855367     0.0704500034413     0.970832880999      -0.185039139577     0.970832880999      -0.185039139577     0.0224501855367     0.0704500034413     
6800000000.0        0.0228557545838     0.0714446175718     0.97022642055       -0.187742655679     0.97022642055       -0.187742655679     0.0228557545838     0.0714446175718     
6900000000.0        0.0232668440454     0.0724367766434     0.969611456104      -0.190443642878     0.969611456104      -0.190443642878     0.0232668440454     0.0724367766434     
7000000000.0        0.0236834384261     0.0734264482538     0.968988001866      -0.193142067115     0.968988001866      -0.193142067115     0.0236834384261     0.0734264482538     
7100000000.0        0.0241055219828     0.0744136001265     0.968356072276      -0.195837894448     0.968356072276      -0.195837894448     0.0241055219828     0.0744136001265     
7200000000.0        0.0245330787276     0.075398200113      0.967715682001      -0.198531091054     0.967715682001      -0.198531091054     0.0245330787276     0.075398200113      
7300000000.0        0.0249660924317     0.0763802161943     0.967066845934      -0.201221623225     0.967066845934      -0.201221623225     0.0249660924317     0.0763802161943     
7400000000.0        0.025404546628      0.0773596164821     0.966409579191      -0.203909457376     0.966409579191      -0.203909457376     0.025404546628      0.0773596164821     
7500000000.0        0.0258484246145     0.0783363692212     0.965743897108      -0.206594560042     0.965743897108      -0.206594560042     0.0258484246145     0.0783363692212     
7600000000.0        0.0262977094571     0.07931044279       0.965069815237      -0.209276897883     0.965069815237      -0.209276897883     0.0262977094571     0.07931044279       
7700000000.0        0.0267523839927     0.0802818057032     0.964387349345      -0.211956437684     0.964387349345      -0.211956437684     0.0267523839927     0.0802818057032     
7800000000.0        0.0272124308314     0.0812504266124     0.963696515409      -0.214633146354     0.963696515409      -0.214633146354     0.0272124308314     0.0812504266124     
7900000000.0        0.0276778323599     0.0822162743082     0.962997329615      -0.217306990934     0.962997329615      -0.217306990934     0.0276778323599     0.0822162743082     
8000000000.0        0.0281485707436     0.0831793177212     0.962289808356      -0.219977938592     0.962289808356      -0.219977938592     0.0281485707436     0.0831793177212     
8100000000.0        0.0286246279295     0.084139525924      0.961573968226      -0.222645956626     0.961573968226      -0.222645956626     0.0286246279295     0.084139525924      
8200000000.0        0.0291059856483     0.0850968681322     0.960849826023      -0.22531101247      0.960849826023      -0.22531101247      0.0291059856483     0.0850968681322     
8300000000.0        0.0295926254174     0.0860513137059     0.96011739874       -0.227973073689     0.96011739874       -0.227973073689     0.0295926254174     0.0860513137059     
8400000000.0        0.0300845285424     0.0870028321514     0.95937670357       -0.230632107983     0.95937670357       -0.230632107983     0.0300845285424     0.0870028321514     
8500000000.0        0.0305816761205     0.0879513931224     0.958627757897      -0.233288083191     0.958627757897      -0.233288083191     0.0305816761205     0.0879513931224     
8600000000.0        0.031084049042      0.088896966421      0.957870579298      -0.235940967288     0.957870579298      -0.235940967288     0.031084049042      0.088896966421      
8700000000.0        0.0315916279929     0.0898395219998     0.95710518554       -0.238590728389     0.95710518554       -0.238590728389     0.0315916279929     0.0898395219998     
8800000000.0        0.0321043934567     0.0907790299626     0.956331594575      -0.24123733475      0.956331594575      -0.24123733475      0.0321043934567     0.0907790299626     
8900000000.0        0.0326223257173     0.091715460566      0.955549824541      -0.243880754768     0.955549824541      -0.243880754768     0.0326223257173     0.091715460566      
9000000000.0        0.0331454048605     0.0926487842206     0.954759893762      -0.246520956984     0.954759893762      -0.246520956984     0.0331454048605     0.0926487842206     
9100000000.0        0.0336736107764     0.0935789714924     0.953961820738      -0.249157910083     0.953961820738      -0.249157910083     0.0336736107764     0.0935789714924     
9200000000.0        0.0342069231613     0.0945059931039     0.953155624151      -0.251791582896     0.953155624151      -0.251791582896     0.0342069231613     0.0945059931039     
9300000000.0        0.0347453215198     0.0954298199354     0.952341322859      -0.254421944401     0.952341322859      -0.254421944401     0.0347453215198     0.0954298199354     
9400000000.0        0.0352887851672     0.0963504230262     0.951518935895      -0.257048963725     0.951518935895      -0.257048963725     0.0352887851672     0.0963504230262     
9500000000.0        0.035837293231      0.0972677735758     0.950688482464      -0.259672610141     0.950688482464      -0.259672610141     0.035837293231      0.0972677735758     
9600000000.0        0.036390824653      0.0981818429454     0.949849981944      -0.262292853076     0.949849981944      -0.262292853076     0.036390824653      0.0981818429454     
9700000000.0        0.0369493581915     0.0990926026583     0.949003453879      -0.264909662108     0.949003453879      -0.264909662108     0.0369493581915     0.0990926026583     
9800000000.0        0.0375128724231     0.100000024402      0.948148917982      -0.267523006967     0.948148917982      -0.267523006967     0.0375128724231     0.100000024402      
9900000000.0        0.0380813457445     0.100904080029      0.947286394131      -0.270132857536     0.947286394131      -0.270132857536     0.0380813457445     0.100904080029      
10000000000.0       0.0386547563749     0.101804741556      0.946415902366      -0.272739183854     0.946415902366      -0.272739183854     0.0386547563749     0.101804741556      
