# Hz S RI R 50.00 
100000000.0         0.000498812236243   -0.00216205967182   0.999475106976      -0.00402194308552   0.999475106976      -0.00402194308553   0.000498812236243   -0.00216205967182   
200000000.0         0.000473189895144   -0.00432400954685   0.999437399503      -0.00804378295493   0.999437399503      -0.00804378295493   0.000473189895144   -0.00432400954685   
300000000.0         0.000429284141434   -0.00648572234402   0.999379727403      -0.0120654194478    0.999379727403      -0.0120654194478    0.000429284141434   -0.00648572234402   
400000000.0         0.000367538157823   -0.00864706512174   0.999301650302      -0.0160867365772    0.999301650302      -0.0160867365772    0.000367538157822   -0.00864706512174   
500000000.0         0.000288124340574   -0.010807901135     0.999203000737      -0.0201076112595    0.999203000737      -0.0201076112595    0.000288124340574   -0.010807901135     
600000000.0         0.000191132971261   -0.0129680909682    0.999083695685      -0.0241279159293    0.999083695685      -0.0241279159293    0.000191132971261   -0.0129680909682    
700000000.0         7.6620164658e-05    -0.0151274931881    0.998943688742      -0.0281475198181    0.998943688742      -0.0281475198181    7.66201646578e-05   -0.0151274931881    
800000000.0         -5.53746251086e-05  -0.017285964765     0.998782952725      -0.0321662897065    0.998782952725      -0.0321662897065    -5.53746251087e-05  -0.017285964765     
900000000.0         -0.000204820800599  -0.0194433613662    0.99860147195       -0.0361840904189    0.99860147195       -0.0361840904189    -0.000204820800599  -0.0194433613662    
1000000000.0        -0.000371692656855  -0.0215995375738    0.998399238338      -0.0402007851732    0.998399238338      -0.0402007851732    -0.000371692656855  -0.0215995375738    
1100000000.0        -0.000555967170511  -0.0237543470528    0.99817624926       -0.0442162358411    0.99817624926       -0.0442162358411    -0.000555967170511  -0.0237543470528    
1200000000.0        -0.000757622676437  -0.0259076426871    0.997932506264      -0.0482303031524    0.997932506264      -0.0482303031524    -0.000757622676437  -0.0259076426871    
1300000000.0        -0.000976638030286  -0.0280592766918    0.997668014284      -0.0522428468579    0.997668014284      -0.0522428468579    -0.000976638030286  -0.0280592766918    
1400000000.0        -0.00121299205405   -0.0302091007087    0.99738278112       -0.0562537258651    0.99738278112       -0.0562537258651    -0.00121299205405   -0.0302091007087    
1500000000.0        -0.00146666315506   -0.032356965889     0.997076817093      -0.0602627983533    0.997076817093      -0.0602627983533    -0.00146666315506   -0.032356965889     
1600000000.0        -0.00173762905573   -0.034502722967     0.996750134804      -0.0642699218728    0.996750134804      -0.0642699218728    -0.00173762905573   -0.034502722967     
1700000000.0        -0.00202586659673   -0.0366462223256    0.996402748962      -0.0682749534315    0.996402748962      -0.0682749534315    -0.00202586659673   -0.0366462223256    
1800000000.0        -0.00233135159027   -0.0387873140561    0.996034676261      -0.0722777495735    0.996034676261      -0.0722777495735    -0.00233135159027   -0.0387873140561    
1900000000.0        -0.00265405870861   -0.0409258480132    0.995645935292      -0.0762781664486    0.995645935292      -0.0762781664486    -0.00265405870861   -0.0409258480132    
2000000000.0        -0.00299396139779   -0.0430616738662    0.995236546469      -0.0802760598767    0.995236546469      -0.0802760598767    -0.00299396139779   -0.0430616738662    
2100000000.0        -0.00335103181007   -0.0451946411467    0.994806531982      -0.084271285407     0.994806531982      -0.084271285407     -0.00335103181007   -0.0451946411467    
2200000000.0        -0.00372524075026   -0.0473245992937    0.994355915755      -0.0882636983725    0.994355915755      -0.0882636983725    -0.00372524075026   -0.0473245992937    
2300000000.0        -0.00411655763274   -0.0494513976963    0.993884723412      -0.0922531539417    0.993884723412      -0.0922531539417    -0.00411655763274   -0.0494513976963    
2400000000.0        -0.00452495044674   -0.051574885735     0.993392982259      -0.0962395071669    0.993392982259      -0.0962395071669    -0.00452495044674   -0.051574885735     
2500000000.0        -0.0049503857282    -0.0536949128202    0.992880721255      -0.10022261303      0.992880721255      -0.10022261303      -0.0049503857282    -0.0536949128202    
2600000000.0        -0.00539282853682   -0.0558113284304    0.992347971002      -0.104202326487     0.992347971002      -0.104202326487     -0.00539282853682   -0.0558113284304    
2700000000.0        -0.00585224243749   -0.0579239821483    0.991794763729      -0.108178502507     0.991794763729      -0.108178502507     -0.00585224243749   -0.0579239821483    
2800000000.0        -0.00632858948512   -0.0600327236966    0.991221133278      -0.112150996118     0.991221133278      -0.112150996118     -0.00632858948512   -0.0600327236966    
2900000000.0        -0.0068218302125    -0.0621374029714    0.990627115095      -0.116119662439     0.990627115095      -0.116119662439     -0.0068218302125    -0.0621374029714    
3000000000.0        -0.00733192362063   -0.0642378700765    0.990012746224      -0.120084356722     0.990012746224      -0.120084356722     -0.00733192362063   -0.0642378700765    
3100000000.0        -0.00785882717123   -0.0663339753553    0.989378065292      -0.124044934385     0.989378065292      -0.124044934385     -0.00785882717123   -0.0663339753553    
3200000000.0        -0.00840249678102   -0.0684255694229    0.988723112506      -0.12800125105      0.988723112506      -0.12800125105      -0.00840249678102   -0.0684255694229    
3300000000.0        -0.00896288681772   -0.0705125031973    0.988047929642      -0.131953162576     0.988047929642      -0.131953162576     -0.00896288681772   -0.0705125031973    
3400000000.0        -0.00953995009748   -0.0725946279295    0.98735256004       -0.13590052509      0.98735256004       -0.13590052509      -0.00953995009748   -0.0725946279295    
3500000000.0        -0.0101336378835    -0.074671795234     0.986637048596      -0.139843195023     0.986637048596      -0.139843195023     -0.0101336378835    -0.074671795234     
3600000000.0        -0.010743899886     -0.0767438571176    0.985901441754      -0.143781029141     0.985901441754      -0.143781029141     -0.010743899886     -0.0767438571176    
3700000000.0        -0.011370684263     -0.0788106660085    0.985145787498      -0.147713884574     0.985145787498      -0.147713884574     -0.011370684263     -0.0788106660085    
3800000000.0        -0.0120139376224    -0.0808720747848    0.984370135345      -0.151641618848     0.984370135345      -0.151641618848     -0.0120139376224    -0.0808720747848    
3900000000.0        -0.0126736050246    -0.0829279368021    0.983574536337      -0.155564089913     0.983574536337      -0.155564089913     -0.0126736050246    -0.0829279368021    
4000000000.0        -0.0133496299862    -0.084978105921     0.982759043036      -0.159481156175     0.982759043036      -0.159481156175     -0.0133496299862    -0.084978105921     
4100000000.0        -0.0140419544844    -0.0870224365344    0.981923709508      -0.163392676524     0.981923709508      -0.163392676524     -0.0140419544844    -0.0870224365344    
4200000000.0        -0.0147505189622    -0.0890607835938    0.981068591324      -0.167298510358     0.981068591324      -0.167298510358     -0.0147505189622    -0.0890607835938    
4300000000.0        -0.0154752623341    -0.0910930026355    0.980193745543      -0.171198517617     0.980193745543      -0.171198517617     -0.0154752623341    -0.0910930026355    
4400000000.0        -0.0162161219928    -0.0931189498065    0.979299230707      -0.175092558805     0.979299230707      -0.175092558805     -0.0162161219928    -0.0931189498065    
4500000000.0        -0.0169730338159    -0.0951384818901    0.978385106831      -0.178980495019     0.978385106831      -0.178980495019     -0.0169730338159    -0.0951384818901    
4600000000.0        -0.0177459321741    -0.0971514563304    0.977451435393      -0.182862187974     0.977451435393      -0.182862187974     -0.0177459321741    -0.0971514563304    
4700000000.0        -0.0185347499391    -0.0991577312575    0.976498279322      -0.186737500031     0.976498279322      -0.186737500031     -0.0185347499391    -0.0991577312575    
4800000000.0        -0.0193394184928    -0.101157165512     0.975525702989      -0.190606294219     0.975525702989      -0.190606294219     -0.0193394184928    -0.101157165512     
4900000000.0        -0.0201598677361    -0.103149618667     0.974533772197      -0.194468434261     0.974533772197      -0.194468434261     -0.0201598677361    -0.103149618667     
5000000000.0        -0.0209960260993    -0.105134951054     0.973522554167      -0.198323784601     0.973522554167      -0.198323784601     -0.0209960260993    -0.105134951054     
5100000000.0        -0.021847820552     -0.107113023787     0.97249211753       -0.202172210425     0.97249211753       -0.202172210425     -0.021847820552     -0.107113023787     
5200000000.0        -0.0227151766142    -0.109083698781     0.971442532311      -0.206013577684     0.971442532311      -0.206013577684     -0.0227151766142    -0.109083698781     
5300000000.0        -0.0235980183676    -0.111046838779     0.970373869918      -0.20984775312      0.970373869918      -0.20984775312      -0.0235980183676    -0.111046838779     
5400000000.0        -0.0244962684669    -0.11300230737      0.969286203131      -0.213674604288     0.969286203131      -0.213674604288     -0.0244962684669    -0.11300230737      
5500000000.0        -0.0254098481523    -0.114949969014     0.968179606089      -0.217493999576     0.968179606089      -0.217493999576     -0.0254098481523    -0.114949969014     
5600000000.0        -0.0263386772621    -0.116889689064     0.967054154273      -0.221305808231     0.967054154273      -0.221305808231     -0.0263386772621    -0.116889689064     
5700000000.0        -0.0272826742452    -0.118821333784     0.965909924495      -0.225109900376     0.965909924495      -0.225109900376     -0.0272826742452    -0.118821333784     
5800000000.0        -0.0282417561749    -0.12074477037      0.964746994885      -0.228906147035     0.964746994885      -0.228906147035     -0.0282417561749    -0.12074477037      
5900000000.0        -0.0292158387624    -0.122659866973     0.963565444874      -0.232694420152     0.963565444874      -0.232694420152     -0.0292158387624    -0.122659866973     
6000000000.0        -0.0302048363708    -0.124566492716     0.96236535518       -0.236474592611     0.96236535518       -0.236474592611     -0.0302048363708    -0.124566492716     
6100000000.0        -0.0312086620297    -0.126464517717     0.961146807797      -0.24024653826      0.961146807797      -0.24024653826      -0.0312086620297    -0.126464517717     
6200000000.0        -0.0322272274497    -0.128353813104     0.959909885972      -0.244010131922     0.959909885972      -0.244010131922     -0.0322272274497    -0.128353813104     
6300000000.0        -0.033260443038     -0.130234251037     0.958654674195      -0.247765249424     0.958654674195      -0.247765249424     -0.033260443038     -0.130234251037     
6400000000.0        -0.0343082179131    -0.132105704725     0.957381258184      -0.251511767609     0.957381258184      -0.251511767609     -0.0343082179131    -0.132105704725     
6500000000.0        -0.0353704599213    -0.133968048445     0.956089724864      -0.255249564358     0.956089724864      -0.255249564358     -0.0353704599213    -0.133968048445     
6600000000.0        -0.0364470756522    -0.13582115756      0.954780162353      -0.258978518605     0.954780162353      -0.258978518605     -0.0364470756522    -0.13582115756      
6700000000.0        -0.0375379704551    -0.137664908533     0.953452659949      -0.26269851036      0.953452659949      -0.26269851036      -0.0375379704551    -0.137664908533     
6800000000.0        -0.0386430484559    -0.139499178951     0.952107308104      -0.266409420719     0.952107308104      -0.266409420719     -0.0386430484559    -0.139499178951     
6900000000.0        -0.0397622125737    -0.141323847533     0.950744198418      -0.270111131886     0.950744198418      -0.270111131886     -0.0397622125737    -0.141323847533     
7000000000.0        -0.0408953645379    -0.143138794153     0.949363423611      -0.273803527187     0.949363423611      -0.273803527187     -0.0408953645379    -0.143138794153     
7100000000.0        -0.0420424049059    -0.144943899852     0.947965077513      -0.277486491089     0.947965077513      -0.277486491089     -0.0420424049059    -0.144943899852     
7200000000.0        -0.0432032330805    -0.146739046856     0.946549255043      -0.281159909212     0.946549255043      -0.281159909212     -0.0432032330805    -0.146739046856     
7300000000.0        -0.0443777473279    -0.148524118589     0.945116052188      -0.284823668346     0.945116052188      -0.284823668346     -0.0443777473279    -0.148524118589     
7400000000.0        -0.0455658447958    -0.150298999688     0.943665565992      -0.288477656465     0.943665565992      -0.288477656465     -0.0455658447958    -0.150298999688     
7500000000.0        -0.0467674215314    -0.15206357602      0.94219789453       -0.292121762743     0.94219789453       -0.292121762743     -0.0467674215314    -0.15206357602      
7600000000.0        -0.0479823725004    -0.153817734691     0.940713136892      -0.295755877567     0.940713136892      -0.295755877567     -0.0479823725004    -0.153817734691     
7700000000.0        -0.0492105916056    -0.155561364065     0.939211393167      -0.299379892551     0.939211393167      -0.299379892551     -0.0492105916056    -0.155561364065     
7800000000.0        -0.0504519717056    -0.157294353772     0.937692764419      -0.302993700548     0.937692764419      -0.302993700548     -0.0504519717056    -0.157294353772     
7900000000.0        -0.0517064046341    -0.159016594725     0.93615735267       -0.306597195664     0.93615735267       -0.306597195664     -0.0517064046341    -0.159016594725     
8000000000.0        -0.0529737812189    -0.160727979129     0.93460526088       -0.31019027327      0.93460526088       -0.31019027327      -0.0529737812189    -0.160727979129     
8100000000.0        -0.0542539913019    -0.162428400495     0.933036592928      -0.313772830014     0.933036592928      -0.313772830014     -0.0542539913019    -0.162428400495     
8200000000.0        -0.055546923758     -0.164117753651     0.931451453592      -0.317344763834     0.931451453592      -0.317344763834     -0.055546923758     -0.164117753651     
8300000000.0        -0.0568524665153    -0.165795934754     0.92984994853       -0.320905973966     0.92984994853       -0.320905973966     -0.0568524665153    -0.165795934754     
8400000000.0        -0.0581705065747    -0.167462841299     0.928232184256      -0.324456360958     0.928232184256      -0.324456360958     -0.0581705065747    -0.167462841299     
8500000000.0        -0.0595009300301    -0.16911837213      0.926598268125      -0.327995826678     0.926598268125      -0.327995826678     -0.0595009300301    -0.16911837213      
8600000000.0        -0.0608436220885    -0.170762427451     0.92494830831       -0.331524274325     0.92494830831       -0.331524274325     -0.0608436220885    -0.170762427451     
8700000000.0        -0.0621984670899    -0.172394908835     0.923282413781      -0.335041608441     0.923282413781      -0.335041608441     -0.0621984670899    -0.172394908835     
8800000000.0        -0.063565348528     -0.174015719233     0.921600694285      -0.338547734914     0.921600694285      -0.338547734914     -0.063565348528     -0.174015719233     
8900000000.0        -0.0649441490707    -0.175624762982     0.919903260328      -0.342042560994     0.919903260328      -0.342042560994     -0.0649441490707    -0.175624762982     
9000000000.0        -0.0663347505801    -0.177221945815     0.91819022315       -0.345525995294     0.91819022315       -0.345525995294     -0.0663347505801    -0.177221945815     
9100000000.0        -0.0677370341335    -0.178807174868     0.916461694706      -0.348997947806     0.916461694706      -0.348997947806     -0.0677370341335    -0.178807174868     
9200000000.0        -0.0691508800442    -0.180380358689     0.914717787648      -0.352458329902     0.914717787648      -0.352458329902     -0.0691508800442    -0.180380358689     
9300000000.0        -0.0705761678815    -0.181941407244     0.912958615299      -0.355907054343     0.912958615299      -0.355907054343     -0.0705761678815    -0.181941407244     
9400000000.0        -0.0720127764925    -0.183490231922     0.911184291636      -0.359344035289     0.911184291636      -0.359344035289     -0.0720127764925    -0.183490231922     
9500000000.0        -0.0734605840219    -0.185026745546     0.909394931266      -0.3627691883       0.909394931266      -0.3627691883       -0.0734605840219    -0.185026745546     
9600000000.0        -0.0749194679337    -0.186550862375     0.907590649408      -0.366182430346     0.907590649408      -0.366182430346     -0.0749194679337    -0.186550862375     
9700000000.0        -0.0763893050314    -0.188062498112     0.905771561871      -0.36958367981      0.905771561871      -0.36958367981      -0.0763893050314    -0.188062498112     
9800000000.0        -0.0778699714795    -0.189561569909     0.90393778503       -0.372972856497     0.90393778503       -0.372972856497     -0.0778699714795    -0.189561569909     
9900000000.0        -0.0793613428241    -0.191047996371     0.90208943581       -0.376349881634     0.90208943581       -0.376349881634     -0.0793613428241    -0.191047996371     
10000000000.0       -0.0808632940138    -0.19252169756      0.90022663166       -0.379714677877     0.90022663166       -0.379714677877     -0.0808632940138    -0.19252169756      
