# Hz S RI R 50.00 
100000000.0         0.215793766946      0.00320274094467    0.784202059167      -0.00491283128378   0.784202059167      -0.00491283128378   0.215793766946      0.00320274094467    
200000000.0         0.216960546877      0.00638162900405    0.783028909119      -0.00980181821463   0.783028909119      -0.00980181821463   0.216960546877      0.00638162900405    
300000000.0         0.217861241146      0.00954572825204    0.782118645203      -0.0146760373189    0.782118645203      -0.0146760373189    0.217861241146      0.00954572825204    
400000000.0         0.218644827719      0.0126978195815     0.781322287047      -0.019538281464     0.781322287047      -0.019538281464     0.218644827719      0.0126978195815     
500000000.0         0.219368787504      0.015839222805      0.780582351698      -0.0243898821961    0.780582351698      -0.0243898821961    0.219368787504      0.015839222805      
600000000.0         0.220062462742      0.0189706115386     0.779869495037      -0.0292315247075    0.779869495037      -0.0292315247075    0.220062462742      0.0189706115386     
700000000.0         0.220743184437      0.0220923059872     0.779166384263      -0.0340635406649    0.779166384263      -0.0340635406649    0.220743184437      0.0220923059872     
800000000.0         0.221422165062      0.0252044088169     0.778461805139      -0.0388860441079    0.778461805139      -0.0388860441079    0.221422165062      0.0252044088169     
900000000.0         0.222107125023      0.0283068781996     0.777748035489      -0.0436990045096    0.777748035489      -0.0436990045096    0.222107125023      0.0283068781996     
1000000000.0        0.222803625271      0.0313995711249     0.777019512566      -0.0485022901017    0.777019512566      -0.0485022901017    0.222803625271      0.0313995711249     
1100000000.0        0.223515808776      0.0344822709696     0.776272091562      -0.0532956954523    0.776272091562      -0.0532956954523    0.223515808776      0.0344822709696     
1200000000.0        0.22424684275       0.0375547060205     0.775502603369      -0.0580789599955    0.775502603369      -0.0580789599955    0.22424684275       0.0375547060205     
1300000000.0        0.22499919713       0.0406165624657     0.77470857609       -0.0628517810276    0.77470857609       -0.0628517810276    0.22499919713       0.0406165624657     
1400000000.0        0.225774827787      0.0436674938296     0.773888051821      -0.0676138231476    0.773888051821      -0.0676138231476    0.225774827787      0.0436674938296     
1500000000.0        0.226575301495      0.0467071280315     0.773039461674      -0.0723647253181    0.773039461674      -0.0723647253181    0.226575301495      0.0467071280315     
1600000000.0        0.227401883792      0.049735072798      0.772161537915      -0.077104106281     0.772161537915      -0.077104106281     0.227401883792      0.049735072798      
1700000000.0        0.22825560237       0.0527509199054     0.771253250567      -0.0818315688028    0.771253250567      -0.0818315688028    0.22825560237       0.0527509199054     
1800000000.0        0.229137293847      0.0557542485686     0.770313760634      -0.086546703065     0.770313760634      -0.086546703065     0.229137293847      0.0557542485686     
1900000000.0        0.230047638955      0.0587446281943     0.769342384913      -0.0912490894196    0.769342384913      -0.0912490894196    0.230047638955      0.0587446281943     
2000000000.0        0.230987189473      0.0617216206518     0.768338569053      -0.0959383006609    0.768338569053      -0.0959383006609    0.230987189473      0.0617216206518     
2100000000.0        0.231956389168      0.0646847821712     0.76730186662       -0.100613903926     0.76730186662       -0.100613903926     0.231956389168      0.0646847821712     
2200000000.0        0.232955590295      0.06763366495       0.766231922583      -0.105275462301     0.766231922583      -0.105275462301     0.232955590295      0.06763366495       
2300000000.0        0.233985066776      0.0705678185287     0.765128460148      -0.1099225362       0.765128460148      -0.1099225362       0.233985066776      0.0705678185287     
2400000000.0        0.23504502483       0.0734867909786     0.763991270116      -0.114554684551     0.763991270116      -0.114554684551     0.23504502483       0.0734867909786     
2500000000.0        0.236135611653      0.0763901299392     0.762820202199      -0.119171465839     0.762820202199      -0.119171465839     0.236135611653      0.0763901299392     
2600000000.0        0.237256922575      0.0792773835296     0.761615157875      -0.12377243901      0.761615157875      -0.12377243901      0.237256922575      0.0792773835296     
2700000000.0        0.238409007004      0.0821481011572     0.76037608443       -0.128357164289     0.76037608443       -0.128357164289     0.238409007004      0.0821481011572     
2800000000.0        0.239591873418      0.0850018342376     0.75910296997       -0.132925203896     0.75910296997       -0.132925203896     0.239591873418      0.0850018342376     
2900000000.0        0.240805493586      0.0878381368423     0.7577958392        -0.137476122694     0.7577958392        -0.137476122694     0.240805493586      0.0878381368423     
3000000000.0        0.242049806166      0.0906565662818     0.756454749824      -0.142009488775     0.756454749824      -0.142009488775     0.242049806166      0.0906565662818     
3100000000.0        0.243324719792      0.0934566836346     0.755079789456      -0.146524873988     0.755079789456      -0.146524873988     0.243324719792      0.0934566836346     
3200000000.0        0.244630115747      0.0962380542287     0.753671072945      -0.15102185442      0.753671072945      -0.15102185442      0.244630115747      0.0962380542287     
3300000000.0        0.24596585029       0.0990002480816     0.752228740053      -0.155500010839     0.752228740053      -0.155500010839     0.24596585029       0.0990002480816     
3400000000.0        0.247331756697      0.101742840303      0.75075295341       -0.159958929095     0.75075295341       -0.159958929095     0.247331756697      0.101742840303      
3500000000.0        0.248727647052      0.104465411464      0.749243896715      -0.164398200489     0.749243896715      -0.164398200489     0.248727647052      0.104465411464      
3600000000.0        0.250153313855      0.107167547939      0.747701773143      -0.168817422118     0.747701773143      -0.168817422118     0.250153313855      0.107167547939      
3700000000.0        0.251608531439      0.109848842221      0.746126803913      -0.173216197188     0.746126803913      -0.173216197188     0.251608531439      0.109848842221      
3800000000.0        0.253093057252      0.112508893207      0.744519227011      -0.177594135301     0.744519227011      -0.177594135301     0.253093057252      0.112508893207      
3900000000.0        0.25460663302       0.11514730647       0.742879296031      -0.181950852725     0.742879296031      -0.181950852725     0.25460663302       0.11514730647       
4000000000.0        0.256148985787      0.117763694505      0.741207279123      -0.186285972645     0.741207279123      -0.186285972645     0.256148985787      0.117763694505      
4100000000.0        0.257719828883      0.120357676955      0.739503458036      -0.190599125384     0.739503458036      -0.190599125384     0.257719828883      0.120357676955      
4200000000.0        0.2593188628        0.122928880826      0.737768127235      -0.194889948622     0.737768127235      -0.194889948622     0.2593188628        0.122928880826      
4300000000.0        0.260945776001      0.125476940679      0.736001593093      -0.199158087584     0.736001593093      -0.199158087584     0.260945776001      0.125476940679      
4400000000.0        0.262600245676      0.12800149881       0.734204173136      -0.203403195224     0.734204173136      -0.203403195224     0.262600245676      0.12800149881       
4500000000.0        0.264281938436      0.130502205411      0.732376195343      -0.207624932386     0.732376195343      -0.207624932386     0.264281938436      0.130502205411      
4600000000.0        0.265990510969      0.132978718729      0.730517997499      -0.21182296796      0.730517997499      -0.21182296796      0.265990510969      0.132978718729      
4700000000.0        0.267725610649      0.135430705194      0.728629926575      -0.215996979014     0.728629926575      -0.215996979014     0.267725610649      0.135430705194      
4800000000.0        0.269486876115      0.13785783955       0.726712338156      -0.220146650921     0.726712338156      -0.220146650921     0.269486876115      0.13785783955       
4900000000.0        0.271273937813      0.140259804969      0.724765595895      -0.224271677477     0.724765595895      -0.224271677477     0.271273937813      0.140259804969      
5000000000.0        0.273086418514      0.142636293149      0.722790070997      -0.228371760998     0.722790070997      -0.228371760998     0.273086418514      0.142636293149      
5100000000.0        0.274923933798      0.14498700441       0.72078614173       -0.232446612411     0.72078614173       -0.232446612411     0.274923933798      0.14498700441       
5200000000.0        0.276786092528      0.147311647771      0.718754192956      -0.23649595134      0.718754192956      -0.23649595134      0.276786092528      0.147311647771      
5300000000.0        0.278672497289      0.149609941022      0.716694615687      -0.240519506171     0.716694615687      -0.240519506171     0.278672497289      0.149609941022      
5400000000.0        0.280582744819      0.151881610785      0.714607806656      -0.244517014119     0.714607806656      -0.244517014119     0.280582744819      0.151881610785      
5500000000.0        0.282516426418      0.154126392566      0.712494167909      -0.248488221272     0.712494167909      -0.248488221272     0.282516426418      0.154126392566      
5600000000.0        0.284473128339      0.156344030798      0.710354106407      -0.252432882642     0.710354106407      -0.252432882642     0.284473128339      0.156344030798      
5700000000.0        0.286452432168      0.158534278874      0.708188033652      -0.256350762191     0.708188033652      -0.256350762191     0.286452432168      0.158534278874      
5800000000.0        0.288453915192      0.160696899171      0.705996365317      -0.260241632864     0.705996365317      -0.260241632864     0.288453915192      0.160696899171      
5900000000.0        0.290477150746      0.162831663073      0.703779520896      -0.264105276601     0.703779520896      -0.264105276601     0.290477150746      0.162831663073      
6000000000.0        0.29252170856       0.164938350972      0.70153792336       -0.267941484348     0.70153792336       -0.267941484348     0.29252170856       0.164938350972      
6100000000.0        0.294587155086      0.167016752279      0.699271998828      -0.271750056061     0.699271998828      -0.271750056061     0.294587155086      0.167016752279      
6200000000.0        0.296673053815      0.169066665411      0.696982176245      -0.275530800697     0.696982176245      -0.275530800697     0.296673053815      0.169066665411      
6300000000.0        0.298778965592      0.171087897782      0.694668887075      -0.279283536203     0.694668887075      -0.279283536203     0.298778965592      0.171087897782      
6400000000.0        0.300904448911      0.173080265785      0.692332564998      -0.283008089498     0.692332564998      -0.283008089498     0.300904448911      0.173080265785      
6500000000.0        0.303049060213      0.175043594763      0.689973645618      -0.286704296445     0.689973645618      -0.286704296445     0.303049060213      0.175043594763      
6600000000.0        0.305212354161      0.176977718976      0.687592566181      -0.290372001819     0.687592566181      -0.290372001819     0.305212354161      0.176977718976      
6700000000.0        0.30739388392       0.178882481566      0.685189765296      -0.294011059268     0.685189765296      -0.294011059268     0.30739388392       0.178882481566      
6800000000.0        0.309593201423      0.180757734509      0.682765682675      -0.297621331269     0.682765682675      -0.297621331269     0.309593201423      0.180757734509      
6900000000.0        0.311809857629      0.182603338566      0.680320758863      -0.301202689078     0.680320758863      -0.301202689078     0.311809857629      0.182603338566      
7000000000.0        0.314043402775      0.184419163229      0.677855434996      -0.304755012671     0.677855434996      -0.304755012671     0.314043402775      0.184419163229      
7100000000.0        0.316293386621      0.186205086655      0.675370152549      -0.308278190687     0.675370152549      -0.308278190687     0.316293386621      0.186205086655      
7200000000.0        0.318559358688      0.187960995604      0.672865353099      -0.311772120359     0.672865353099      -0.311772120359     0.318559358688      0.187960995604      
7300000000.0        0.320840868486      0.189686785366      0.670341478098      -0.315236707444     0.670341478098      -0.315236707444     0.320840868486      0.189686785366      
7400000000.0        0.323137465743      0.191382359686      0.667798968642      -0.318671866145     0.667798968642      -0.318671866145     0.323137465743      0.191382359686      
7500000000.0        0.325448700617      0.193047630681      0.665238265258      -0.322077519032     0.665238265258      -0.322077519032     0.325448700617      0.193047630681      
7600000000.0        0.32777412391       0.19468251876       0.662659807689      -0.32545359696      0.662659807689      -0.32545359696      0.32777412391       0.19468251876       
7700000000.0        0.330113287272      0.196286952532      0.660064034691      -0.328800038973     0.660064034691      -0.328800038973     0.330113287272      0.196286952532      
7800000000.0        0.332465743398      0.197860868712      0.657451383836      -0.332116792218     0.657451383836      -0.332116792218     0.332465743398      0.197860868712      
7900000000.0        0.334831046224      0.199404212029      0.654822291311      -0.335403811846     0.654822291311      -0.335403811846     0.334831046224      0.199404212029      
8000000000.0        0.337208751108      0.200916935122      0.652177191742      -0.33866106091      0.652177191742      -0.33866106091      0.337208751108      0.200916935122      
8100000000.0        0.339598415014      0.20239899844       0.649516518005      -0.341888510267     0.649516518005      -0.341888510267     0.339598415014      0.20239899844       
8200000000.0        0.341999596684      0.203850370133      0.646840701054      -0.345086138463     0.646840701054      -0.345086138463     0.341999596684      0.203850370133      
8300000000.0        0.34441185681       0.205271025943      0.644150169751      -0.348253931635     0.644150169751      -0.348253931635     0.34441185681       0.205271025943      
8400000000.0        0.346834758191      0.206660949095      0.641445350706      -0.351391883387     0.641445350706      -0.351391883387     0.346834758191      0.206660949095      
8500000000.0        0.349267865896      0.208020130179      0.638726668114      -0.354499994684     0.638726668114      -0.354499994684     0.349267865896      0.208020130179      
8600000000.0        0.351710747412      0.209348567034      0.635994543606      -0.35757827373      0.635994543606      -0.35757827373      0.351710747412      0.209348567034      
8700000000.0        0.354162972788      0.210646264627      0.633249396101      -0.36062673585      0.633249396101      -0.36062673585      0.354162972788      0.210646264627      
8800000000.0        0.356624114782      0.211913234936      0.630491641666      -0.363645403368     0.630491641666      -0.363645403368     0.356624114782      0.211913234936      
8900000000.0        0.359093748991      0.213149496822      0.62772169338       -0.366634305483     0.62772169338       -0.366634305483     0.359093748991      0.213149496822      
9000000000.0        0.36157145398       0.214355075905      0.624939961203      -0.369593478147     0.624939961203      -0.369593478147     0.36157145398       0.214355075905      
9100000000.0        0.364056811411      0.215530004439      0.622146851851      -0.372522963931     0.622146851851      -0.372522963931     0.364056811411      0.215530004439      
9200000000.0        0.366549406158      0.216674321183      0.619342768675      -0.375422811904     0.619342768675      -0.375422811904     0.366549406158      0.216674321183      
9300000000.0        0.369048826423      0.217788071269      0.616528111547      -0.3782930775       0.616528111547      -0.3782930775       0.369048826423      0.217788071269      
9400000000.0        0.371554663845      0.218871306076      0.613703276751      -0.381133822387     0.613703276751      -0.381133822387     0.371554663845      0.218871306076      
9500000000.0        0.374066513604      0.219924083094      0.610868656876      -0.383945114334     0.610868656876      -0.383945114334     0.374066513604      0.219924083094      
9600000000.0        0.37658397452       0.220946465795      0.60802464072       -0.386727027082     0.60802464072       -0.386727027082     0.37658397452       0.220946465795      
9700000000.0        0.379106649149      0.221938523497      0.605171613187      -0.389479640209     0.605171613187      -0.389479640209     0.379106649149      0.221938523497      
9800000000.0        0.381634143867      0.222900331231      0.602309955206      -0.392203038991     0.602309955206      -0.392203038991     0.381634143867      0.222900331231      
9900000000.0        0.384166068965      0.223831969608      0.599440043638      -0.394897314276     0.599440043638      -0.394897314276     0.384166068965      0.223831969608      
10000000000.0       0.386702038717      0.224733524683      0.596562251198      -0.397562562344     0.596562251198      -0.397562562344     0.386702038717      0.224733524683      
