# Hz S RI R 50.00 
100000000.0         0.0690568254928     0.00362285697593    0.930937434312      -0.00589668127484   0.930937434312      -0.00589668127484   0.0690568254928     0.00362285697593    
200000000.0         0.0695493005607     0.00723629942045    0.93043491915       -0.0117839510794    0.93043491915       -0.0117839510794    0.0695493005607     0.00723629942045    
300000000.0         0.0699728701934     0.0108431805367     0.92999600772       -0.017664673995     0.92999600772       -0.017664673995     0.0699728701934     0.0108431805367     
400000000.0         0.0703836464442     0.0144440414949     0.929564586453      -0.0235394022239    0.929564586453      -0.0235394022239    0.0703836464442     0.0144440414949     
500000000.0         0.0708032252791     0.0180388876963     0.929119057901      -0.029408152024     0.929119057901      -0.029408152024     0.0708032252791     0.0180388876963     
600000000.0         0.0712425903299     0.0216274886678     0.928648436894      -0.0352707036637    0.928648436894      -0.0352707036637    0.0712425903299     0.0216274886678     
700000000.0         0.0717081937501     0.0252094858218     0.928146269647      -0.0411267092121    0.928146269647      -0.0411267092121    0.0717081937501     0.0252094858218     
800000000.0         0.072204176838      0.028784442518      0.927608413108      -0.0469757426189    0.927608413108      -0.0469757426189    0.072204176838      0.028784442518      
900000000.0         0.0727333592926     0.0323518710404     0.927032045692      -0.0528173267034    0.927032045692      -0.0528173267034    0.0727333592926     0.0323518710404     
1000000000.0        0.073297740898      0.0359112486573     0.926415165584      -0.0586509492222    0.926415165584      -0.0586509492222    0.073297740898      0.0359112486573     
1100000000.0        0.0738987805458     0.0394620279037     0.925756311705      -0.064476073158     0.925756311705      -0.064476073158     0.0738987805458     0.0394620279037     
1200000000.0        0.0745375625884     0.0430036435459     0.925054397362      -0.0702921436883    0.925054397362      -0.0702921436883    0.0745375625884     0.0430036435459     
1300000000.0        0.0752149015685     0.0465355175176     0.924308605504      -0.076098593125     0.924308605504      -0.076098593125     0.0752149015685     0.0465355175176     
1400000000.0        0.075931411113      0.0500570625518     0.923518319833      -0.0818948445491    0.923518319833      -0.0818948445491    0.075931411113      0.0500570625518     
1500000000.0        0.076687550928      0.0535676849419     0.9226830778        -0.0876803145732    0.9226830778        -0.0876803145732    0.076687550928      0.0535676849419     
1600000000.0        0.07748365985       0.0570667866969     0.921802537558      -0.0934544154993    0.921802537558      -0.0934544154993    0.07748365985       0.0570667866969     
1700000000.0        0.0783199797079     0.0605537672687     0.92087645409       -0.0992165570464    0.92087645409       -0.0992165570464    0.0783199797079     0.0605537672687     
1800000000.0        0.0791966729454     0.064028024963      0.919904661593      -0.104966147763     0.919904661593      -0.104966147763     0.0791966729454     0.064028024963      
1900000000.0        0.0801138359006     0.0674889581168     0.918887060191      -0.110702596207     0.918887060191      -0.110702596207     0.0801138359006     0.0674889581168     
2000000000.0        0.0810715089921     0.0709359660964     0.917823605752      -0.11642531194      0.917823605752      -0.11642531194      0.0810715089921     0.0709359660964     
2100000000.0        0.0820696846599     0.0743684501564     0.916714301944      -0.122133706392     0.916714301944      -0.122133706392     0.0820696846599     0.0743684501564     
2200000000.0        0.0831083136474     0.0777858141891     0.915559193949      -0.127827193608     0.915559193949      -0.127827193608     0.0831083136474     0.0777858141891     
2300000000.0        0.084187310039      0.081187465387      0.914358363433      -0.13350519091      0.914358363433      -0.13350519091      0.084187310039      0.081187465387      
2400000000.0        0.0853065553515     0.0845728148323     0.913111924443      -0.139167119492     0.913111924443      -0.139167119492     0.0853065553515     0.0845728148323     
2500000000.0        0.0864659018959     0.0879412780291     0.911820020055      -0.144812404946     0.911820020055      -0.144812404946     0.0864659018959     0.0879412780291     
2600000000.0        0.087665175572      0.0912922753856     0.91048281957       -0.150440477748     0.91048281957       -0.150440477748     0.087665175572      0.0912922753856     
2700000000.0        0.0889041782151     0.0946252326544     0.909100516172      -0.156050773697     0.909100516172      -0.156050773697     0.0889041782151     0.0946252326544     
2800000000.0        0.090182689589      0.0979395813377     0.907673324933      -0.161642734321     0.907673324933      -0.161642734321     0.090182689589      0.0979395813377     
2900000000.0        0.0915004690934     0.101234759062      0.906201481104      -0.16721580725      0.906201481104      -0.16721580725      0.0915004690934     0.101234759062      
3000000000.0        0.0928572572417     0.104510209922      0.904685238638      -0.172769446564     0.904685238638      -0.172769446564     0.0928572572417     0.104510209922      
3100000000.0        0.0942527769532     0.107765384809      0.903124868896      -0.178303113115     0.903124868896      -0.178303113115     0.0942527769532     0.107765384809      
3200000000.0        0.0956867346902     0.110999741705      0.901520659512      -0.183816274825     0.901520659512      -0.183816274825     0.0956867346902     0.110999741705      
3300000000.0        0.0971588214705     0.114212745969      0.899872913375      -0.189308406975     0.899872913375      -0.189308406975     0.0971588214705     0.114212745969      
3400000000.0        0.0986687137749     0.1174038706        0.898181947726      -0.194778992458     0.898181947726      -0.194778992458     0.0986687137749     0.1174038706        
3500000000.0        0.100216074367      0.120572596483      0.896448093337      -0.200227522036     0.896448093337      -0.200227522036     0.100216074367      0.120572596483      
3600000000.0        0.101800553042      0.123718412619      0.894671693759      -0.205653494562     0.894671693759      -0.205653494562     0.101800553042      0.123718412619      
3700000000.0        0.103421787308      0.126840816348      0.89285310464       -0.211056417207     0.89285310464       -0.211056417207     0.103421787308      0.126840816348      
3800000000.0        0.105079403024      0.129939313548      0.890992693092      -0.216435805655     0.890992693092      -0.216435805655     0.105079403024      0.129939313548      
3900000000.0        0.106773014989      0.133013418827      0.889090837095      -0.221791184299     0.889090837095      -0.221791184299     0.106773014989      0.133013418827      
4000000000.0        0.108502227489      0.136062655703      0.887147924954      -0.227122086419     0.887147924954      -0.227122086419     0.108502227489      0.136062655703      
4100000000.0        0.110266634819      0.139086556773      0.885164354773      -0.232428054347     0.885164354773      -0.232428054347     0.110266634819      0.139086556773      
4200000000.0        0.112065821773      0.142084663864      0.883140533968      -0.237708639623     0.883140533968      -0.237708639623     0.112065821773      0.142084663864      
4300000000.0        0.113899364108      0.145056528183      0.881076878797      -0.242963403143     0.881076878797      -0.242963403143     0.113899364108      0.145056528183      
4400000000.0        0.115766828995      0.148001710451      0.878973813919      -0.24819191529      0.878973813919      -0.24819191529      0.115766828995      0.148001710451      
4500000000.0        0.117667775437      0.150919781026      0.876831771962      -0.253393756059     0.876831771962      -0.253393756059     0.117667775437      0.150919781026      
4600000000.0        0.119601754685      0.153810320019      0.874651193115      -0.258568515174     0.874651193115      -0.258568515174     0.119601754685      0.153810320019      
4700000000.0        0.121568310633      0.156672917398      0.872432524735      -0.263715792189     0.872432524735      -0.263715792189     0.121568310633      0.156672917398      
4800000000.0        0.123566980197      0.159507173087      0.870176220959      -0.268835196586     0.870176220959      -0.268835196586     0.123566980197      0.159507173087      
4900000000.0        0.12559729369       0.162312697048      0.867882742333      -0.27392634786      0.867882742333      -0.27392634786      0.12559729369       0.162312697048      
5000000000.0        0.127658775178      0.165089109365      0.865552555455      -0.278988875598     0.865552555455      -0.278988875598     0.127658775178      0.165089109365      
5100000000.0        0.129750942835      0.167836040308      0.863186132621      -0.284022419546     0.863186132621      -0.284022419546     0.129750942835      0.167836040308      
5200000000.0        0.131873309285      0.170553130394      0.860783951482      -0.289026629672     0.860783951482      -0.289026629672     0.131873309285      0.170553130394      
5300000000.0        0.134025381931      0.173240030443      0.858346494709      -0.294001166212     0.858346494709      -0.294001166212     0.134025381931      0.173240030443      
5400000000.0        0.136206663288      0.175896401621      0.85587424967       -0.298945699722     0.85587424967       -0.298945699722     0.136206663288      0.175896401621      
5500000000.0        0.138416651298      0.178521915472      0.853367708104      -0.303859911105     0.853367708104      -0.303859911105     0.138416651298      0.178521915472      
5600000000.0        0.140654839646      0.181116253951      0.85082736581       -0.308743491647     0.85082736581       -0.308743491647     0.140654839646      0.181116253951      
5700000000.0        0.142920718064      0.183679109444      0.848253722342      -0.31359614303      0.848253722342      -0.31359614303      0.142920718064      0.183679109444      
5800000000.0        0.145213772633      0.186210184781      0.845647280704      -0.31841757735      0.845647280704      -0.31841757735      0.145213772633      0.186210184781      
5900000000.0        0.147533486079      0.18870919324       0.843008547057      -0.323207517119     0.843008547057      -0.323207517119     0.147533486079      0.18870919324       
6000000000.0        0.149879338061      0.191175858547      0.840338030427      -0.327965695267     0.840338030427      -0.327965695267     0.149879338061      0.191175858547      
6100000000.0        0.152250805454      0.193609914872      0.837636242423      -0.33269185513      0.837636242423      -0.33269185513      0.152250805454      0.193609914872      
6200000000.0        0.15464736263       0.196011106806      0.834903696955      -0.337385750434     0.834903696955      -0.337385750434     0.15464736263       0.196011106806      
6300000000.0        0.15706848173       0.198379189348      0.832140909962      -0.342047145276     0.832140909962      -0.342047145276     0.15706848173       0.198379189348      
6400000000.0        0.159513632932      0.200713927869      0.829348399143      -0.346675814095     0.829348399143      -0.346675814095     0.159513632932      0.200713927869      
6500000000.0        0.161982284715      0.203015098084      0.82652668369       -0.351271541634     0.82652668369       -0.351271541634     0.161982284715      0.203015098084      
6600000000.0        0.164473904119      0.205282486011      0.823676284034      -0.355834122903     0.823676284034      -0.355834122903     0.164473904119      0.205282486011      
6700000000.0        0.166987956993      0.207515887919      0.820797721587      -0.360363363128     0.820797721587      -0.360363363128     0.166987956993      0.207515887919      
6800000000.0        0.169523908249      0.209715110283      0.817891518494      -0.364859077702     0.817891518494      -0.364859077702     0.169523908249      0.209715110283      
6900000000.0        0.172081222101      0.211879969722      0.81495819739       -0.369321092126     0.81495819739       -0.369321092126     0.172081222101      0.211879969722      
7000000000.0        0.174659362308      0.214010292938      0.811998281162      -0.373749241942     0.811998281162      -0.373749241942     0.174659362308      0.214010292938      
7100000000.0        0.177257792403      0.216105916647      0.809012292711      -0.378143372668     0.809012292711      -0.378143372668     0.177257792403      0.216105916647      
7200000000.0        0.179875975922      0.218166687505      0.806000754725      -0.382503339722     0.806000754725      -0.382503339722     0.179875975922      0.218166687505      
7300000000.0        0.182513376631      0.22019246203       0.802964189457      -0.386829008343     0.802964189457      -0.386829008343     0.182513376631      0.22019246203       
7400000000.0        0.18516945874       0.22218310652       0.799903118502      -0.391120253509     0.799903118502      -0.391120253509     0.18516945874       0.22218310652       
7500000000.0        0.187843687121      0.224138496964      0.796818062584      -0.395376959846     0.796818062584      -0.395376959846     0.187843687121      0.224138496964      
7600000000.0        0.190535527511      0.226058518953      0.793709541347      -0.399599021537     0.793709541347      -0.399599021537     0.190535527511      0.226058518953      
7700000000.0        0.193244446722      0.227943067579      0.790578073151      -0.403786342227     0.790578073151      -0.403786342227     0.193244446722      0.227943067579      
7800000000.0        0.195969912833      0.229792047341      0.787424174873      -0.407938834918     0.787424174873      -0.407938834918     0.195969912833      0.229792047341      
7900000000.0        0.19871139539       0.231605372034      0.78424836171       -0.412056421868     0.78424836171       -0.412056421868     0.19871139539       0.231605372034      
8000000000.0        0.201468365588      0.233382964651      0.781051146995      -0.416139034482     0.781051146995      -0.416139034482     0.201468365588      0.233382964651      
8100000000.0        0.204240296459      0.23512475726       0.777833042007      -0.420186613198     0.777833042007      -0.420186613198     0.204240296459      0.23512475726       
8200000000.0        0.207026663047      0.236830690902      0.774594555795      -0.424199107375     0.774594555795      -0.424199107375     0.207026663047      0.236830690902      
8300000000.0        0.209826942585      0.238500715465      0.771336195004      -0.428176475173     0.771336195004      -0.428176475173     0.209826942585      0.238500715465      
8400000000.0        0.21264061466       0.240134789566      0.768058463705      -0.432118683431     0.768058463705      -0.432118683431     0.21264061466       0.240134789566      
8500000000.0        0.215467161378      0.241732880429      0.764761863232      -0.436025707547     0.764761863232      -0.436025707547     0.215467161378      0.241732880429      
8600000000.0        0.218306067518      0.243294963759      0.761446892021      -0.439897531345     0.761446892021      -0.439897531345     0.218306067518      0.243294963759      
8700000000.0        0.221156820694      0.244821023612      0.758114045458      -0.443734146952     0.758114045458      -0.443734146952     0.221156820694      0.244821023612      
8800000000.0        0.224018911493      0.246311052267      0.754763815729      -0.447535554662     0.754763815729      -0.447535554662     0.224018911493      0.246311052267      
8900000000.0        0.226891833624      0.24776505009       0.751396691675      -0.451301762805     0.751396691675      -0.451301762805     0.226891833624      0.24776505009       
9000000000.0        0.229775084057      0.249183025402      0.748013158658      -0.455032787613     0.748013158658      -0.455032787613     0.229775084057      0.249183025402      
9100000000.0        0.232668163149      0.250564994342      0.744613698419      -0.458728653077     0.744613698419      -0.458728653077     0.232668163149      0.250564994342      
9200000000.0        0.235570574782      0.25191098073       0.741198788954      -0.462389390813     0.741198788954      -0.462389390813     0.235570574782      0.25191098073       
9300000000.0        0.238481826478      0.253221015923      0.737768904389      -0.46601503992      0.737768904389      -0.46601503992      0.238481826478      0.253221015923      
9400000000.0        0.241401429522      0.254495138679      0.734324514861      -0.469605646838     0.734324514861      -0.469605646838     0.241401429522      0.254495138679      
9500000000.0        0.244328899076      0.255733395011      0.730866086401      -0.473161265202     0.730866086401      -0.473161265202     0.244328899076      0.255733395011      
9600000000.0        0.247263754284      0.256935838048      0.727394080826      -0.476681955703     0.727394080826      -0.476681955703     0.247263754284      0.256935838048      
9700000000.0        0.250205518381      0.258102527884      0.723908955633      -0.48016778594      0.723908955633      -0.48016778594      0.250205518381      0.258102527884      
9800000000.0        0.253153718787      0.259233531442      0.720411163899      -0.483618830272     0.720411163899      -0.483618830272     0.253153718787      0.259233531442      
9900000000.0        0.256107887207      0.26032892232       0.716901154185      -0.487035169675     0.716901154185      -0.487035169675     0.256107887207      0.26032892232       
10000000000.0       0.259067559718      0.261388780648      0.713379370446      -0.490416891592     0.713379370446      -0.490416891592     0.259067559718      0.261388780648      
