# Hz S RI R 50.00 
100000000.0         0.00050885005113    0.000278960237052   0.999489647162      -0.000714744843732  0.999489647162      -0.000714744843732  0.00050885005113    0.000278960237052   
200000000.0         0.000512647158455   0.000557913765027   0.999485157307      -0.00142949266924   0.999485157307      -0.00142949266924   0.000512647158455   0.000557913765027   
300000000.0         0.000515945187142   0.000836862978736   0.999480976542      -0.00214425095877   0.999480976542      -0.00214425095877   0.000515945187142   0.000836862978736   
400000000.0         0.000519186059909   0.00111580850909    0.999476662913      -0.00285902421249   0.999476662913      -0.00285902421249   0.000519186059909   0.00111580850909    
500000000.0         0.000522539915472   0.00139475059497    0.999472046246      -0.00357381591436   0.999472046246      -0.00357381591436   0.000522539915472   0.00139475059497    
600000000.0         0.000526093500155   0.0016736893152     0.999467039754      -0.00428862897589   0.999467039754      -0.00428862897589   0.000526093500154   0.0016736893152     
700000000.0         0.000529898046775   0.001952624672      0.99946159216       -0.00500346592715   0.99946159216       -0.00500346592715   0.000529898046775   0.001952624672      
800000000.0         0.00053398674448    0.00223155662922    0.999455670226      -0.0057183290201    0.999455670226      -0.0057183290201    0.00053398674448    0.00223155662922    
900000000.0         0.000538382515206   0.00251048513254    0.999449250981      -0.0064332202919    0.999449250981      -0.0064332202919    0.000538382515206   0.00251048513254    
1000000000.0        0.00054310195438    0.00278941012084    0.999442317776      -0.00714814160737   0.999442317776      -0.00714814160737   0.00054310195438    0.00278941012084    
1100000000.0        0.000548157520964   0.00306833153354    0.999434858095      -0.00786309468863   0.999434858095      -0.00786309468863   0.000548157520964   0.00306833153354    
1200000000.0        0.000553558842063   0.00334724931508    0.999426862253      -0.00857808113728   0.999426862253      -0.00857808113728   0.000553558842063   0.00334724931508    
1300000000.0        0.000559313533522   0.00362616341787    0.999418322573      -0.00929310245124   0.999418322573      -0.00929310245124   0.000559313533522   0.00362616341787    
1400000000.0        0.000565427739133   0.00390507380428    0.999409232849      -0.010008160038     0.999409232849      -0.010008160038     0.000565427739133   0.00390507380428    
1500000000.0        0.000571906497985   0.00418398044806    0.999399587976      -0.0107232552254    0.999399587976      -0.0107232552254    0.000571906497984   0.00418398044806    
1600000000.0        0.000578754002375   0.00446288333515    0.999389383696      -0.0114383892701    0.999389383696      -0.0114383892701    0.000578754002375   0.00446288333515    
1700000000.0        0.000585973783639   0.00474178246432    0.99937861641       -0.012153563365     0.99937861641       -0.012153563365     0.000585973783639   0.00474178246432    
1800000000.0        0.000593568849019   0.00502067784744    0.999367283039      -0.0128687786453    0.999367283039      -0.0128687786453    0.000593568849019   0.00502067784744    
1900000000.0        0.000601541784453   0.00529956950989    0.999355380928      -0.0135840361941    0.999355380928      -0.0135840361941    0.000601541784453   0.00529956950989    
2000000000.0        0.000609894833102   0.00557845749042    0.99934290776       -0.014299337046     0.99934290776       -0.014299337046     0.000609894833101   0.00557845749042    
2100000000.0        0.000618629956222   0.00585734184135    0.999329861499      -0.0150146821921    0.999329861499      -0.0150146821921    0.000618629956222   0.00585734184135    
2200000000.0        0.000627748881026   0.00613622262841    0.999316240345      -0.0157300725824    0.999316240345      -0.0157300725824    0.000627748881026   0.00613622262841    
2300000000.0        0.000637253138744   0.00641509993067    0.999302042689      -0.0164455091297    0.999302042689      -0.0164455091297    0.000637253138744   0.00641509993067    
2400000000.0        0.000647144095235   0.00669397384043    0.999287267089      -0.0171609927117    0.999287267089      -0.0171609927117    0.000647144095235   0.00669397384043    
2500000000.0        0.000657422975853   0.00697284446307    0.99927191224       -0.0178765241736    0.99927191224       -0.0178765241736    0.000657422975853   0.00697284446307    
2600000000.0        0.000668090885824   0.00725171191679    0.999255976959      -0.0185921043302    0.999255976959      -0.0185921043302    0.000668090885824   0.00725171191679    
2700000000.0        0.000679148827081   0.00753057633253    0.999239460164      -0.019307733968     0.999239460164      -0.019307733968     0.000679148827081   0.00753057633253    
2800000000.0        0.000690597712296   0.00780943785368    0.999222360862      -0.0200234138467    0.999222360862      -0.0200234138467    0.000690597712296   0.00780943785368    
2900000000.0        0.000702438376635   0.00808829663592    0.999204678136      -0.0207391447011    0.999204678136      -0.0207391447011    0.000702438376636   0.00808829663592    
3000000000.0        0.000714671587678   0.00836715284703    0.999186411137      -0.021454927242     0.999186411137      -0.021454927242     0.000714671587678   0.00836715284703    
3100000000.0        0.000727298053856   0.00864600666661    0.999167559074      -0.0221707621585    0.999167559074      -0.0221707621585    0.000727298053856   0.00864600666661    
3200000000.0        0.000740318431644   0.0089248582859     0.999148121207      -0.0228866501182    0.999148121207      -0.0228866501182    0.000740318431644   0.0089248582859     
3300000000.0        0.000753733331737   0.00920370790759    0.999128096844      -0.023602591769     0.999128096844      -0.023602591769     0.000753733331737   0.00920370790759    
3400000000.0        0.000767543324384   0.00948255574557    0.999107485329      -0.0243185877398    0.999107485329      -0.0243185877398    0.000767543324384   0.00948255574557    
3500000000.0        0.000781748944007   0.00976140202475    0.999086286044      -0.0250346386417    0.999086286044      -0.0250346386417    0.000781748944007   0.00976140202475    
3600000000.0        0.000796350693219   0.0100402469808     0.999064498401      -0.0257507450687    0.999064498401      -0.0257507450687    0.000796350693219   0.0100402469808     
3700000000.0        0.00081134904634    0.01031909086       0.999042121842      -0.0264669075987    0.999042121842      -0.0264669075987    0.00081134904634    0.01031909086       
3800000000.0        0.00082674445248    0.010597933919      0.999019155833      -0.0271831267941    0.999019155833      -0.0271831267941    0.00082674445248    0.010597933919      
3900000000.0        0.000842537338253   0.0108767764247     0.998995599861      -0.0278994032027    0.998995599861      -0.0278994032027    0.000842537338253   0.0108767764247     
4000000000.0        0.000858728110176   0.0111556186539     0.998971453435      -0.0286157373583    0.998971453435      -0.0286157373583    0.000858728110176   0.0111556186539     
4100000000.0        0.000875317156797   0.0114344608933     0.99894671608       -0.0293321297812    0.99894671608       -0.0293321297812    0.000875317156797   0.0114344608933     
4200000000.0        0.000892304850588   0.0117133034392     0.998921387339      -0.0300485809791    0.998921387339      -0.0300485809791    0.000892304850588   0.0117133034392     
4300000000.0        0.000909691549626   0.0119921465972     0.998895466767      -0.0307650914474    0.998895466767      -0.0307650914474    0.000909691549626   0.0119921465972     
4400000000.0        0.000927477599109   0.0122709906822     0.998868953933      -0.0314816616698    0.998868953933      -0.0314816616698    0.000927477599109   0.0122709906822     
4500000000.0        0.000945663332708   0.0125498360184     0.998841848419      -0.0321982921188    0.998841848419      -0.0321982921188    0.000945663332708   0.0125498360184     
4600000000.0        0.000964249073777   0.0128286829386     0.998814149815      -0.0329149832563    0.998814149815      -0.0329149832563    0.000964249073777   0.0128286829386     
4700000000.0        0.000983235136459   0.0131075317844     0.998785857721      -0.0336317355335    0.998785857721      -0.0336317355335    0.000983235136459   0.0131075317844     
4800000000.0        0.00100262182668    0.0133863829061     0.998756971746      -0.0343485493923    0.998756971746      -0.0343485493923    0.00100262182668    0.0133863829061     
4900000000.0        0.00102240944302    0.0136652366623     0.998727491505      -0.0350654252647    0.998727491505      -0.0350654252647    0.00102240944302    0.0136652366623     
5000000000.0        0.00104259827758    0.0139440934199     0.998697416621      -0.0357823635736    0.998697416621      -0.0357823635736    0.00104259827758    0.0139440934199     
5100000000.0        0.00106318861667    0.0142229535538     0.998666746723      -0.0364993647334    0.998666746723      -0.0364993647334    0.00106318861667    0.0142229535538     
5200000000.0        0.00108418074152    0.0145018174469     0.998635481445      -0.0372164291499    0.998635481445      -0.0372164291499    0.00108418074152    0.0145018174469     
5300000000.0        0.00110557492887    0.01478068549       0.998603620425      -0.0379335572206    0.998603620425      -0.0379335572206    0.00110557492887    0.01478068549       
5400000000.0        0.00112737145156    0.0150595580814     0.998571163305      -0.0386507493355    0.998571163305      -0.0386507493355    0.00112737145156    0.0150595580814     
5500000000.0        0.00114957057902    0.0153384356269     0.998538109732      -0.039368005877     0.998538109732      -0.039368005877     0.00114957057902    0.0153384356269     
5600000000.0        0.0011721725778     0.0156173185399     0.998504459356      -0.04008532722      0.998504459356      -0.04008532722      0.0011721725778     0.0156173185399     
5700000000.0        0.00119517771192    0.0158962072407     0.998470211829      -0.0408027137327    0.998470211829      -0.0408027137327    0.00119517771192    0.0158962072407     
5800000000.0        0.00121858624335    0.016175102157      0.998435366805      -0.0415201657763    0.998435366805      -0.0415201657763    0.00121858624335    0.016175102157      
5900000000.0        0.00124239843235    0.0164540037233     0.998399923942      -0.0422376837057    0.998399923942      -0.0422376837057    0.00124239843235    0.0164540037233     
6000000000.0        0.00126661453781    0.016732912381      0.998363882897      -0.0429552678692    0.998363882897      -0.0429552678692    0.00126661453781    0.016732912381      
6100000000.0        0.00129123481757    0.0170118285783     0.998327243331      -0.0436729186094    0.998327243331      -0.0436729186094    0.00129123481757    0.0170118285783     
6200000000.0        0.00131625952872    0.0172907527699     0.998290004906      -0.0443906362626    0.998290004906      -0.0443906362626    0.00131625952872    0.0172907527699     
6300000000.0        0.0013416889279     0.0175696854171     0.998252167282      -0.0451084211596    0.998252167282      -0.0451084211596    0.0013416889279     0.0175696854171     
6400000000.0        0.00136752327148    0.0178486269874     0.998213730122      -0.0458262736257    0.998213730122      -0.0458262736257    0.00136752327148    0.0178486269874     
6500000000.0        0.00139376281588    0.0181275779546     0.998174693091      -0.0465441939808    0.998174693091      -0.0465441939808    0.00139376281588    0.0181275779546     
6600000000.0        0.00142040781773    0.018406538799      0.99813505585       -0.0472621825397    0.99813505585       -0.0472621825397    0.00142040781773    0.018406538799      
6700000000.0        0.00144745853413    0.0186855100063     0.998094818065      -0.0479802396119    0.998094818065      -0.0479802396119    0.00144745853413    0.0186855100063     
6800000000.0        0.00147491522277    0.0189644920688     0.998053979397      -0.0486983655024    0.998053979397      -0.0486983655024    0.00147491522277    0.0189644920688     
6900000000.0        0.0015027781422     0.019243485484      0.99801253951       -0.0494165605113    0.99801253951       -0.0494165605113    0.0015027781422     0.019243485484      
7000000000.0        0.00153104755191    0.0195224907557     0.997970498067      -0.0501348249341    0.997970498067      -0.0501348249341    0.00153104755191    0.0195224907557     
7100000000.0        0.00155972371255    0.0198015083929     0.997927854729      -0.0508531590619    0.997927854729      -0.0508531590619    0.00155972371255    0.0198015083929     
7200000000.0        0.00158880688607    0.0200805389103     0.997884609159      -0.0515715631814    0.997884609159      -0.0515715631814    0.00158880688607    0.0200805389103     
7300000000.0        0.00161829733582    0.0203595828281     0.997840761016      -0.0522900375751    0.997840761016      -0.0522900375751    0.00161829733582    0.0203595828281     
7400000000.0        0.00164819532672    0.0206386406716     0.99779630996       -0.0530085825215    0.99779630996       -0.0530085825215    0.00164819532672    0.0206386406716     
7500000000.0        0.00167850112538    0.0209177129716     0.997751255649      -0.053727198295     0.997751255649      -0.053727198295     0.00167850112538    0.0209177129716     
7600000000.0        0.00170921500021    0.021196800264      0.997705597741      -0.0544458851663    0.997705597741      -0.0544458851663    0.00170921500021    0.021196800264      
7700000000.0        0.00174033722152    0.0214759030895     0.997659335892      -0.055164643402     0.997659335892      -0.055164643402     0.00174033722152    0.0214759030895     
7800000000.0        0.00177186806164    0.021755021994      0.997612469756      -0.0558834732654    0.997612469756      -0.0558834732654    0.00177186806164    0.021755021994      
7900000000.0        0.001803807795      0.0220341575284     0.997564998987      -0.0566023750159    0.997564998987      -0.0566023750159    0.001803807795      0.0220341575284     
8000000000.0        0.00183615669826    0.0223133102481     0.997516923236      -0.0573213489095    0.997516923236      -0.0573213489095    0.00183615669826    0.0223133102481     
8100000000.0        0.00186891505036    0.0225924807134     0.997468242154      -0.0580403951989    0.997468242154      -0.0580403951989    0.00186891505036    0.0225924807134     
8200000000.0        0.0019020831326     0.0228716694892     0.997418955388      -0.0587595141331    0.997418955388      -0.0587595141331    0.0019020831326     0.0228716694892     
8300000000.0        0.00193566122877    0.0231508771449     0.997369062587      -0.0594787059584    0.997369062587      -0.0594787059584    0.00193566122877    0.0231508771449     
8400000000.0        0.00196964962517    0.0234301042545     0.997318563394      -0.0601979709173    0.997318563394      -0.0601979709173    0.00196964962517    0.0234301042545     
8500000000.0        0.0020040486107     0.0237093513962     0.997267457452      -0.0609173092496    0.997267457452      -0.0609173092496    0.0020040486107     0.0237093513962     
8600000000.0        0.00203885847696    0.0239886191528     0.997215744404      -0.0616367211919    0.997215744404      -0.0616367211919    0.00203885847696    0.0239886191528     
8700000000.0        0.00207407951825    0.024267908111      0.997163423887      -0.0623562069776    0.997163423887      -0.0623562069776    0.00207407951825    0.024267908111      
8800000000.0        0.0021097120317     0.0245472188618     0.997110495539      -0.0630757668376    0.997110495539      -0.0630757668376    0.0021097120317     0.0245472188618     
8900000000.0        0.00214575631728    0.0248265520005     0.997056958995      -0.0637954009995    0.997056958995      -0.0637954009995    0.00214575631728    0.0248265520005     
9000000000.0        0.00218221267789    0.0251059081261     0.997002813888      -0.0645151096883    0.997002813888      -0.0645151096883    0.00218221267789    0.0251059081261     
9100000000.0        0.00221908141938    0.0253852878416     0.99694805985       -0.0652348931262    0.99694805985       -0.0652348931262    0.00221908141938    0.0253852878416     
9200000000.0        0.00225636285063    0.0256646917542     0.996892696507      -0.0659547515326    0.996892696507      -0.0659547515326    0.00225636285063    0.0256646917542     
9300000000.0        0.0022940572836     0.0259441204744     0.996836723487      -0.0666746851241    0.996836723487      -0.0666746851241    0.0022940572836     0.0259441204744     
9400000000.0        0.00233216503334    0.0262235746169     0.996780140414      -0.0673946941151    0.996780140414      -0.0673946941151    0.00233216503334    0.0262235746169     
9500000000.0        0.00237068641809    0.0265030547997     0.996722946909      -0.0681147787169    0.996722946909      -0.0681147787169    0.0023706864181     0.0265030547997     
9600000000.0        0.00240962175929    0.0267825616447     0.996665142593      -0.0688349391385    0.996665142593      -0.0688349391385    0.00240962175929    0.0267825616447     
9700000000.0        0.0024489713816     0.0270620957771     0.996606727081      -0.0695551755863    0.996606727081      -0.0695551755863    0.0024489713816     0.0270620957771     
9800000000.0        0.002488735613      0.0273416578258     0.996547699988      -0.0702754882644    0.996547699988      -0.0702754882644    0.002488735613      0.0273416578258     
9900000000.0        0.00252891478477    0.0276212484228     0.996488060928      -0.0709958773742    0.996488060928      -0.0709958773742    0.00252891478477    0.0276212484228     
10000000000.0       0.00256950923157    0.0279008682037     0.996427809508      -0.0717163431148    0.996427809508      -0.0717163431148    0.00256950923157    0.0279008682037     
