# Hz S RI R 50.00 
100000000.0         0.00366038040927    0.00140040864692    0.996336366426      -0.00279121371643   0.996336366426      -0.00279121371643   0.00366038040927    0.00140040864692    
200000000.0         0.00369582068892    0.00280056782627    0.996296736179      -0.00558218854122   0.996296736179      -0.00558218854122   0.00369582068892    0.00280056782627    
300000000.0         0.00373266833881    0.00420051091943    0.996253761622      -0.00837296512184   0.996253761622      -0.00837296512184   0.00373266833881    0.00420051091943    
400000000.0         0.00377408865633    0.00560021772752    0.996204277283      -0.0111635288539    0.996204277283      -0.0111635288539    0.00377408865633    0.00560021772752    
500000000.0         0.00382129970772    0.00699965560565    0.996147064894      -0.0139538518415    0.996147064894      -0.0139538518415    0.00382129970772    0.00699965560565    
600000000.0         0.00387492169787    0.00839878641525    0.996081504017      -0.0167439001398    0.996081504017      -0.0167439001398    0.00387492169787    0.00839878641525    
700000000.0         0.00393531996828    0.00979756902289    0.996007229047      -0.0195336364031    0.996007229047      -0.0195336364031    0.00393531996828    0.00979756902289    
800000000.0         0.0040027301685     0.0111959604604     0.995924004045      -0.0223230211331    0.995924004045      -0.0223230211331    0.0040027301685     0.0111959604604     
900000000.0         0.00407731398273    0.0125939165488     0.995831667011      -0.0251120133624    0.995831667011      -0.0251120133624    0.00407731398273    0.0125939165488     
1000000000.0        0.00415918737302    0.0139913922686     0.995730101643      -0.0279005710657    0.995730101643      -0.0279005710657    0.00415918737302    0.0139913922686     
1100000000.0        0.00424843627715    0.0153883419957     0.995619221637      -0.0306886514263    0.995619221637      -0.0306886514263    0.00424843627715    0.0153883419957     
1200000000.0        0.00434512596125    0.0167847196598     0.995498961337      -0.0334762110184    0.995498961337      -0.0334762110184    0.00434512596125    0.0167847196598     
1300000000.0        0.00444930690314    0.0181804788563     0.995369269855      -0.0362632059368    0.995369269855      -0.0362632059368    0.00444930690314    0.0181804788563     
1400000000.0        0.0045610186588     0.0195755729268     0.995230107198      -0.0390495918929    0.995230107198      -0.0390495918929    0.0045610186588     0.0195755729268     
1500000000.0        0.00468029249674    0.0209699550203     0.995081441643      -0.0418353242878    0.995081441643      -0.0418353242878    0.00468029249674    0.0209699550203     
1600000000.0        0.00480715324792    0.0223635781398     0.994923247882      -0.0446203582693    0.994923247882      -0.0446203582693    0.00480715324792    0.0223635781398     
1700000000.0        0.00494162063875    0.0237563951793     0.994755505689      -0.0474046487772    0.994755505689      -0.0474046487772    0.00494162063875    0.0237563951793     
1800000000.0        0.00508371027321    0.0251483589528     0.994578198942      -0.0501881505803    0.994578198942      -0.0501881505803    0.00508371027321    0.0251483589528     
1900000000.0        0.0052334343705     0.0265394222191     0.994391314884      -0.0529708183073    0.994391314884      -0.0529708183073    0.0052334343705     0.0265394222191     
2000000000.0        0.00539080232869    0.0279295377013     0.994194843558      -0.0557526064718    0.994194843558      -0.0557526064718    0.00539080232869    0.0279295377013     
2100000000.0        0.00555582116195    0.0293186581041     0.993988777375      -0.0585334694946    0.993988777375      -0.0585334694946    0.00555582116195    0.0293186581041     
2200000000.0        0.00572849584436    0.0307067361277     0.993773110763      -0.0613133617225    0.993773110763      -0.0613133617225    0.00572849584436    0.0307067361277     
2300000000.0        0.00590882958345    0.0320937244811     0.993547839902      -0.0640922374445    0.993547839902      -0.0640922374445    0.00590882958345    0.0320937244811     
2400000000.0        0.00609682404045    0.0334795758921     0.993312962498      -0.0668700509066    0.993312962498      -0.0668700509066    0.00609682404045    0.0334795758921     
2500000000.0        0.00629247950923    0.0348642431177     0.993068477607      -0.0696467563241    0.993068477607      -0.0696467563241    0.00629247950923    0.0348642431177     
2600000000.0        0.00649579506316    0.0362476789523     0.992814385487      -0.0724223078937    0.992814385487      -0.0724223078937    0.00649579506316    0.0362476789523     
2700000000.0        0.00670676867659    0.037629836236      0.992550687481      -0.0751966598036    0.992550687481      -0.0751966598036    0.00670676867659    0.037629836236      
2800000000.0        0.00692539732615    0.0390106678611     0.992277385909      -0.0779697662434    0.992277385909      -0.0779697662434    0.00692539732615    0.0390106678611     
2900000000.0        0.00715167707586    0.0403901267792     0.991994483989      -0.0807415814121    0.991994483989      -0.0807415814121    0.00715167707586    0.0403901267792     
3000000000.0        0.00738560314913    0.0417681660067     0.991701985761      -0.083512059527     0.991701985761      -0.083512059527     0.00738560314913    0.0417681660067     
3100000000.0        0.00762716998997    0.0431447386309     0.991399896031      -0.0862811548307    0.991399896031      -0.0862811548307    0.00762716998997    0.0431447386309     
3200000000.0        0.00787637131551    0.0445197978148     0.991088220314      -0.0890488215981    0.991088220314      -0.0890488215981    0.00787637131551    0.0445197978148     
3300000000.0        0.00813320016116    0.0458932968026     0.990766964791      -0.0918150141433    0.990766964791      -0.0918150141433    0.00813320016116    0.0458932968026     
3400000000.0        0.00839764891974    0.0472651889238     0.990436136269      -0.0945796868252    0.990436136269      -0.0945796868252    0.00839764891974    0.0472651889238     
3500000000.0        0.00866970937556    0.0486354275978     0.990095742149      -0.0973427940541    0.990095742149      -0.0973427940541    0.00866970937556    0.0486354275978     
3600000000.0        0.00894937273422    0.0500039663384     0.989745790396      -0.100104290296     0.989745790396      -0.100104290296     0.00894937273422    0.0500039663384     
3700000000.0        0.00923662964876    0.0513707587576     0.989386289512      -0.102864130081     0.989386289512      -0.102864130081     0.00923662964876    0.0513707587576     
3800000000.0        0.00953147024286    0.0527357585698     0.989017248511      -0.105622268003     0.989017248511      -0.105622268003     0.00953147024286    0.0527357585698     
3900000000.0        0.00983388413131    0.0540989195949     0.988638676905      -0.108378658729     0.988638676905      -0.108378658729     0.00983388413131    0.0540989195949     
4000000000.0        0.0101438604383     0.0554601957629     0.988250584679      -0.111133257004     0.988250584679      -0.111133257004     0.0101438604383     0.0554601957629     
4100000000.0        0.0104613878139     0.0568195411166     0.987852982278      -0.113886017652     0.987852982278      -0.113886017652     0.0104613878139     0.0568195411166     
4200000000.0        0.0107864544484     0.0581769098155     0.987445880594      -0.116636895583     0.987445880594      -0.116636895583     0.0107864544484     0.0581769098155     
4300000000.0        0.0111190480862     0.0595322561388     0.987029290948      -0.119385845797     0.987029290948      -0.119385845797     0.0111190480862     0.0595322561388     
4400000000.0        0.011459156037      0.0608855344891     0.986603225084      -0.122132823386     0.986603225084      -0.122132823386     0.011459156037      0.0608855344891     
4500000000.0        0.0118067651876     0.0622366993951     0.986167695154      -0.124877783541     0.986167695154      -0.124877783541     0.0118067651876     0.0622366993951     
4600000000.0        0.0121618620112     0.0635857055151     0.985722713709      -0.127620681554     0.985722713709      -0.127620681554     0.0121618620112     0.0635857055151     
4700000000.0        0.0125244325768     0.0649325076396     0.985268293692      -0.130361472822     0.985268293692      -0.130361472822     0.0125244325768     0.0649325076396     
4800000000.0        0.0128944625578     0.0662770606948     0.984804448426      -0.133100112852     0.984804448426      -0.133100112852     0.0128944625578     0.0662770606948     
4900000000.0        0.0132719372393     0.0676193197452     0.984331191611      -0.135836557261     0.984331191611      -0.135836557261     0.0132719372393     0.0676193197452     
5000000000.0        0.0136568415258     0.0689592399963     0.983848537312      -0.138570761785     0.983848537312      -0.138570761785     0.0136568415258     0.0689592399963     
5100000000.0        0.0140491599476     0.070296776798      0.983356499956      -0.141302682275     0.983356499956      -0.141302682275     0.0140491599476     0.070296776798      
5200000000.0        0.0144488766671     0.0716318856469     0.982855094325      -0.14403227471      0.982855094325      -0.14403227471      0.0144488766671     0.0716318856469     
5300000000.0        0.0148559754848     0.0729645221891     0.982344335549      -0.146759495191     0.982344335549      -0.146759495191     0.0148559754848     0.0729645221891     
5400000000.0        0.0152704398444     0.074294642223      0.981824239103      -0.149484299948     0.981824239103      -0.149484299948     0.0152704398444     0.074294642223      
5500000000.0        0.0156922528388     0.0756222017019     0.981294820799      -0.152206645347     0.981294820799      -0.152206645347     0.0156922528388     0.0756222017019     
5600000000.0        0.016121397214      0.0769471567367     0.980756096782      -0.154926487885     0.980756096782      -0.154926487885     0.016121397214      0.0769471567367     
5700000000.0        0.0165578553746     0.0782694635983     0.980208083528      -0.157643784199     0.980208083528      -0.157643784199     0.0165578553746     0.0782694635983     
5800000000.0        0.0170016093877     0.0795890787202     0.979650797836      -0.160358491069     0.979650797836      -0.160358491069     0.0170016093877     0.0795890787202     
5900000000.0        0.0174526409877     0.0809059587011     0.979084256826      -0.163070565418     0.979084256826      -0.163070565418     0.0174526409877     0.0809059587011     
6000000000.0        0.0179109315798     0.0822200603074     0.978508477935      -0.165779964315     0.978508477935      -0.165779964315     0.0179109315798     0.0822200603074     
6100000000.0        0.0183764622441     0.0835313404754     0.977923478912      -0.16848664498      0.977923478912      -0.16848664498      0.0183764622441     0.0835313404754     
6200000000.0        0.0188492137396     0.0848397563139     0.977329277815      -0.171190564786     0.977329277815      -0.171190564786     0.0188492137396     0.0848397563139     
6300000000.0        0.0193291665077     0.0861452651066     0.976725893008      -0.173891681262     0.976725893008      -0.173891681262     0.0193291665077     0.0861452651066     
6400000000.0        0.0198163006755     0.0874478243142     0.976113343156      -0.176589952094     0.976113343156      -0.176589952094     0.0198163006755     0.0874478243142     
6500000000.0        0.0203105960594     0.088747391577      0.975491647222      -0.17928533513      0.975491647222      -0.17928533513      0.0203105960594     0.088747391577      
6600000000.0        0.0208120321687     0.0900439247172     0.974860824467      -0.18197778838      0.974860824467      -0.18197778838      0.0208120321687     0.0900439247172     
6700000000.0        0.0213205882084     0.0913373817407     0.974220894442      -0.184667270022     0.974220894442      -0.184667270022     0.0213205882084     0.0913373817407     
6800000000.0        0.0218362430825     0.0926277208401     0.973571876987      -0.187353738401     0.973571876987      -0.187353738401     0.0218362430825     0.0926277208401     
6900000000.0        0.0223589753971     0.0939149003961     0.972913792228      -0.190037152033     0.972913792228      -0.190037152033     0.0223589753971     0.0939149003961     
7000000000.0        0.0228887634637     0.0951988789801     0.972246660577      -0.192717469609     0.972246660577      -0.192717469609     0.0228887634637     0.0951988789801     
7100000000.0        0.0234255853018     0.0964796153564     0.971570502721      -0.195394649995     0.971570502721      -0.195394649995     0.0234255853018     0.0964796153564     
7200000000.0        0.023969418642      0.097757068484      0.970885339628      -0.198068652235     0.970885339628      -0.198068652235     0.023969418642      0.097757068484      
7300000000.0        0.024520240929      0.0990311975191     0.97019119254       -0.200739435554     0.97019119254       -0.200739435554     0.024520240929      0.0990311975191     
7400000000.0        0.0250780293241     0.100301961817      0.969488082969      -0.20340695936      0.969488082969      -0.20340695936      0.0250780293241     0.100301961817      
7500000000.0        0.0256427607085     0.101569320933      0.968776032698      -0.206071183246     0.968776032698      -0.206071183246     0.0256427607085     0.101569320933      
7600000000.0        0.0262144116857     0.102833234627      0.968055063773      -0.208732066993     0.968055063773      -0.208732066993     0.0262144116857     0.102833234627      
7700000000.0        0.0267929585844     0.104093662864      0.967325198507      -0.211389570571     0.967325198507      -0.211389570571     0.0267929585844     0.104093662864      
7800000000.0        0.0273783774612     0.105350565814      0.966586459471      -0.214043654143     0.966586459471      -0.214043654143     0.0273783774612     0.105350565814      
7900000000.0        0.0279706441033     0.106603903858      0.965838869496      -0.216694278064     0.965838869496      -0.216694278064     0.0279706441033     0.106603903858      
8000000000.0        0.0285697340312     0.107853637587      0.965082451666      -0.219341402887     0.965082451666      -0.219341402887     0.0285697340312     0.107853637587      
8100000000.0        0.0291756225014     0.109099727804      0.964317229322      -0.221984989363     0.964317229322      -0.221984989363     0.0291756225014     0.109099727804      
8200000000.0        0.029788284509      0.110342135529      0.96354322605       -0.224624998441     0.96354322605       -0.224624998441     0.029788284509      0.110342135529      
8300000000.0        0.0304076947902     0.111580821995      0.962760465687      -0.227261391275     0.962760465687      -0.227261391275     0.0304076947902     0.111580821995      
8400000000.0        0.0310338278254     0.112815748655      0.961968972315      -0.229894129221     0.961968972315      -0.229894129221     0.0310338278254     0.112815748655      
8500000000.0        0.0316666578412     0.114046877182      0.961168770258      -0.232523173843     0.961168770258      -0.232523173843     0.0316666578412     0.114046877182      
8600000000.0        0.0323061588132     0.115274169471      0.960359884078      -0.235148486911     0.960359884078      -0.235148486911     0.0323061588132     0.115274169471      
8700000000.0        0.032952304469      0.116497587639      0.959542338577      -0.237770030407     0.959542338577      -0.237770030407     0.032952304469      0.116497587639      
8800000000.0        0.0336050682901     0.117717094029      0.958716158791      -0.240387766523     0.958716158791      -0.240387766523     0.0336050682901     0.117717094029      
8900000000.0        0.0342644235152     0.11893265121       0.957881369987      -0.243001657665     0.957881369987      -0.243001657665     0.0342644235152     0.11893265121       
9000000000.0        0.0349303431421     0.120144221981      0.957037997664      -0.245611666454     0.957037997664      -0.245611666454     0.0349303431421     0.120144221981      
9100000000.0        0.0356027999307     0.121351769368      0.956186067546      -0.24821775573      0.956186067546      -0.24821775573      0.0356027999307     0.121351769368      
9200000000.0        0.0362817664055     0.122555256632      0.955325605583      -0.250819888549     0.955325605583      -0.250819888549     0.0362817664055     0.122555256632      
9300000000.0        0.036967214858      0.123754647264      0.954456637946      -0.25341802819      0.954456637946      -0.25341802819      0.036967214858      0.123754647264      
9400000000.0        0.0376591173494     0.124949904992      0.953579191027      -0.256012138151     0.953579191027      -0.256012138151     0.0376591173494     0.124949904992      
9500000000.0        0.0383574457132     0.126140993777      0.952693291434      -0.258602182157     0.952693291434      -0.258602182157     0.0383574457132     0.126140993777      
9600000000.0        0.0390621715575     0.127327877822      0.951798965991      -0.261188124157     0.951798965991      -0.261188124157     0.0390621715575     0.127327877822      
9700000000.0        0.039773266268      0.128510521565      0.950896241731      -0.263769928326     0.950896241731      -0.263769928326     0.039773266268      0.128510521565      
9800000000.0        0.0404907010099     0.129688889686      0.949985145899      -0.266347559069     0.949985145899      -0.266347559069     0.0404907010099     0.129688889686      
9900000000.0        0.0412144467312     0.130862947107      0.949065705947      -0.268920981019     0.949065705947      -0.268920981019     0.0412144467312     0.130862947107      
10000000000.0       0.0419444741647     0.132032658992      0.94813794953       -0.271490159044     0.94813794953       -0.271490159044     0.0419444741647     0.132032658992      
