# Hz S RI R 50.00 
100000000.0         0.000246921799517   -0.00134060192954   0.999738870994      -0.00292522542646   0.999738870994      -0.00292522542646   0.000246921799516   -0.00134060192954   
200000000.0         0.000234811200339   -0.00268127135132   0.999719572814      -0.00585057513142   0.999719572814      -0.00585057513142   0.000234811200339   -0.00268127135132   
300000000.0         0.000214411800581   -0.00402202037225   0.999690356759      -0.00877610002421   0.999690356759      -0.00877610002421   0.000214411800581   -0.00402202037225   
400000000.0         0.000185939709023   -0.00536284591453   0.999651000299      -0.011701825193     0.999651000299      -0.011701825193     0.000185939709023   -0.00536284591453   
500000000.0         0.00014947581416    -0.00670373649643   0.999601415232      -0.0146277627929    0.999601415232      -0.0146277627929    0.00014947581416    -0.00670373649643   
600000000.0         0.000105059437258   -0.00804467485529   0.999541554298      -0.017553916417     0.999541554298      -0.017553916417     0.000105059437258   -0.00804467485529   
700000000.0         5.27121696228e-05   -0.00938563933582   0.999471387536      -0.020480283319     0.999471387536      -0.020480283319     5.27121696225e-05   -0.00938563933582   
800000000.0         -7.55339987979e-06  -0.010726604745     0.999390893702      -0.023406855748     0.999390893702      -0.023406855748     -7.55339987968e-06  -0.010726604745     
900000000.0         -7.57297767363e-05  -0.0120675429311    0.999300056485      -0.0263336218357    0.999300056485      -0.0263336218357    -7.57297767365e-05  -0.0120675429311    
1000000000.0        -0.000151812562397  -0.0134084231997    0.999198862616      -0.0292605662241    0.999198862616      -0.0292605662241    -0.000151812562397  -0.0134084231997    
1100000000.0        -0.000235799329433  -0.0147492126293    0.999087300824      -0.0321876705352    0.999087300824      -0.0321876705352    -0.000235799329433  -0.0147492126293    
1200000000.0        -0.000327688939939  -0.0160898763187    0.998965361244      -0.0351149137334    0.998965361244      -0.0351149137334    -0.000327688939938  -0.0160898763187    
1300000000.0        -0.000427481107371  -0.0174303775854    0.998833035037      -0.0380422724145    0.998833035037      -0.0380422724145    -0.000427481107371  -0.0174303775854    
1400000000.0        -0.000535176100767  -0.0187706781308    0.998690314168      -0.0409697210423    0.998690314168      -0.0409697210423    -0.000535176100767  -0.0187706781308    
1500000000.0        -0.00065077453663   -0.0201107381788    0.998537191248      -0.0438972321445    0.998537191248      -0.0438972321445    -0.00065077453663   -0.0201107381788    
1600000000.0        -0.000774277227169  -0.0214505165942    0.998373659435      -0.0468247764799    0.998373659435      -0.0468247764799    -0.000774277227169  -0.0214505165942    
1700000000.0        -0.000905685066149  -0.0227899709861    0.99819971237       -0.0497523231814    0.99819971237       -0.0497523231814    -0.000905685066149  -0.0227899709861    
1800000000.0        -0.00104499894064   -0.0241290577982    0.99801534413       -0.0526798398803    0.99801534413       -0.0526798398803    -0.00104499894064   -0.0241290577982    
1900000000.0        -0.00119221966112   -0.0254677323895    0.9978205492        -0.0556072928162    0.9978205492        -0.0556072928162    -0.00119221966112   -0.0254677323895    
2000000000.0        -0.00134734790497   -0.0268059491065    0.997615322456      -0.0585346469338    0.997615322456      -0.0585346469338    -0.00134734790497   -0.0268059491065    
2100000000.0        -0.00151038416982   -0.028143661348     0.997399659148      -0.0614618659704    0.997399659148      -0.0614618659704    -0.00151038416982   -0.028143661348     
2200000000.0        -0.00168132873455   -0.0294808216249    0.997173554899      -0.0643889125345    0.997173554899      -0.0643889125345    -0.00168132873455   -0.0294808216249    
2300000000.0        -0.00186018162605   -0.0308173816141    0.9969370057        -0.0673157481766    0.9969370057        -0.0673157481766    -0.00186018162605   -0.0308173816141    
2400000000.0        -0.00204694259064   -0.0321532922091    0.996690007907      -0.0702423334551    0.996690007907      -0.0702423334551    -0.00204694259064   -0.0321532922091    
2500000000.0        -0.00224161106917   -0.0334885035659    0.996432558248      -0.0731686279955    0.996432558248      -0.0731686279955    -0.00224161106917   -0.0334885035659    
2600000000.0        -0.00244418617513   -0.0348229651464    0.996164653822      -0.076094590546     0.996164653822      -0.076094590546     -0.00244418617513   -0.0348229651464    
2700000000.0        -0.00265466667527   -0.0361566257584    0.995886292105      -0.0790201790289    0.995886292105      -0.0790201790289    -0.00265466667527   -0.0361566257584    
2800000000.0        -0.00287305097225   -0.0374894335938    0.995597470954      -0.0819453505877    0.995597470954      -0.0819453505877    -0.00287305097225   -0.0374894335938    
2900000000.0        -0.00309933708915   -0.0388213362639    0.995298188609      -0.0848700616321    0.995298188609      -0.0848700616321    -0.00309933708915   -0.0388213362639    
3000000000.0        -0.00333352265533   -0.0401522808327    0.994988443702      -0.0877942678796    0.994988443702      -0.0877942678796    -0.00333352265533   -0.0401522808327    
3100000000.0        -0.00357560489381   -0.0414822138492    0.994668235263      -0.0907179243947    0.994668235263      -0.0907179243947    -0.00357560489381   -0.0414822138492    
3200000000.0        -0.00382558060959   -0.0428110813769    0.994337562719      -0.093640985626     0.994337562719      -0.093640985626     -0.00382558060959   -0.0428110813769    
3300000000.0        -0.00408344617914   -0.044138829023     0.993996425907      -0.096563405441     0.993996425907      -0.096563405441     -0.00408344617914   -0.044138829023     
3400000000.0        -0.00434919754071   -0.045465401965     0.993644825071      -0.0994851371593    0.993644825071      -0.0994851371593    -0.00434919754071   -0.045465401965     
3500000000.0        -0.00462283018545   -0.0467907449777    0.993282760876      -0.102406133584     0.993282760876      -0.102406133584     -0.00462283018545   -0.0467907449777    
3600000000.0        -0.0049043391493    -0.0481148024572    0.992910234405      -0.105326347032     0.992910234405      -0.105326347032     -0.0049043391493    -0.0481148024572    
3700000000.0        -0.00519371900551   -0.0494375184453    0.992527247165      -0.108245729363     0.992527247165      -0.108245729363     -0.00519371900551   -0.0494375184453    
3800000000.0        -0.00549096385778   -0.0507588366523    0.992133801097      -0.111164232003     0.992133801097      -0.111164232003     -0.00549096385778   -0.0507588366523    
3900000000.0        -0.00579606733395   -0.0520787004794    0.991729898573      -0.114081805977     0.991729898573      -0.114081805977     -0.00579606733395   -0.0520787004794    
4000000000.0        -0.00610902258023   -0.053397053039     0.991315542403      -0.116998401927     0.991315542403      -0.116998401927     -0.00610902258023   -0.053397053039     
4100000000.0        -0.00642982225585   -0.0547138371764    0.990890735838      -0.119913970144     0.990890735838      -0.119913970144     -0.00642982225585   -0.0547138371764    
4200000000.0        -0.00675845852826   -0.0560289954885    0.990455482574      -0.12282846058      0.990455482574      -0.12282846058      -0.00675845852826   -0.0560289954885    
4300000000.0        -0.0070949230686    -0.0573424703432    0.990009786756      -0.125741822881     0.990009786756      -0.125741822881     -0.0070949230686    -0.0573424703432    
4400000000.0        -0.00743920704773   -0.0586542038981    0.989553652979      -0.128654006402     0.989553652979      -0.128654006402     -0.00743920704773   -0.0586542038981    
4500000000.0        -0.00779130113249   -0.059964138118     0.98908708629       -0.13156496023      0.98908708629       -0.13156496023      -0.00779130113249   -0.059964138118     
4600000000.0        -0.00815119548234   -0.0612722147923    0.988610092194      -0.134474633202     0.988610092194      -0.134474633202     -0.00815119548234   -0.0612722147923    
4700000000.0        -0.00851887974643   -0.0625783755517    0.988122676653      -0.137382973925     0.988122676653      -0.137382973925     -0.00851887974643   -0.0625783755517    
4800000000.0        -0.00889434306081   -0.0638825618845    0.987624846088      -0.140289930795     0.987624846088      -0.140289930795     -0.00889434306081   -0.0638825618845    
4900000000.0        -0.00927757404606   -0.0651847151524    0.987116607385      -0.143195452015     0.987116607385      -0.143195452015     -0.00927757404606   -0.0651847151524    
5000000000.0        -0.00966856080519   -0.0664847766056    0.98659796789       -0.146099485611     0.98659796789       -0.146099485611     -0.00966856080519   -0.0664847766056    
5100000000.0        -0.0100672909217    -0.0677826873982    0.986068935415      -0.149001979449     0.986068935415      -0.149001979449     -0.0100672909217    -0.0677826873982    
5200000000.0        -0.0104737514582    -0.0690783886019    0.985529518239      -0.151902881254     0.985529518239      -0.151902881254     -0.0104737514582    -0.0690783886019    
5300000000.0        -0.0108879289547    -0.0703718212212    0.984979725106      -0.154802138621     0.984979725106      -0.154802138621     -0.0108879289547    -0.0703718212212    
5400000000.0        -0.0113098094279    -0.0716629262059    0.984419565229      -0.157699699033     0.984419565229      -0.157699699033     -0.0113098094279    -0.0716629262059    
5500000000.0        -0.0117393783698    -0.0729516444656    0.983849048287      -0.160595509877     0.983849048287      -0.160595509877     -0.0117393783698    -0.0729516444656    
5600000000.0        -0.0121766207476    -0.0742379168819    0.98326818443       -0.163489518457     0.98326818443       -0.163489518457     -0.0121766207476    -0.0742379168819    
5700000000.0        -0.0126215210028    -0.0755216843217    0.982676984275      -0.166381672007     0.982676984275      -0.166381672007     -0.0126215210028    -0.0755216843217    
5800000000.0        -0.0130740630512    -0.0768028876493    0.982075458908      -0.169271917707     0.982075458908      -0.169271917707     -0.0130740630512    -0.0768028876493    
5900000000.0        -0.0135342302824    -0.0780814677387    0.981463619884      -0.172160202693     0.981463619884      -0.172160202693     -0.0135342302824    -0.0780814677387    
6000000000.0        -0.0140020055606    -0.0793573654852    0.980841479226      -0.175046474073     0.980841479226      -0.175046474073     -0.0140020055606    -0.0793573654852    
6100000000.0        -0.0144773712242    -0.0806305218173    0.980209049424      -0.177930678941     0.980209049424      -0.177930678941     -0.0144773712242    -0.0806305218173    
6200000000.0        -0.0149603090868    -0.0819008777076    0.979566343436      -0.180812764383     0.979566343436      -0.180812764383     -0.0149603090868    -0.0819008777076    
6300000000.0        -0.0154508004373    -0.0831683741842    0.978913374686      -0.183692677494     0.978913374686      -0.183692677494     -0.0154508004373    -0.0831683741842    
6400000000.0        -0.0159488260412    -0.0844329523412    0.978250157062      -0.186570365389     0.978250157062      -0.186570365389     -0.0159488260412    -0.0844329523412    
6500000000.0        -0.0164543661413    -0.0856945533494    0.977576704919      -0.189445775214     0.977576704919      -0.189445775214     -0.0164543661413    -0.0856945533494    
6600000000.0        -0.0169674004586    -0.0869531184666    0.976893033071      -0.192318854155     0.976893033071      -0.192318854155     -0.0169674004586    -0.0869531184666    
6700000000.0        -0.0174879081942    -0.0882085890477    0.976199156798      -0.195189549452     0.976199156798      -0.195189549452     -0.0174879081942    -0.0882085890477    
6800000000.0        -0.0180158680297    -0.0894609065544    0.975495091837      -0.198057808409     0.975495091837      -0.198057808409     -0.0180158680297    -0.0894609065544    
6900000000.0        -0.0185512581298    -0.0907100125654    0.974780854385      -0.200923578402     0.974780854385      -0.200923578402     -0.0185512581298    -0.0907100125654    
7000000000.0        -0.019094056143     -0.0919558487852    0.974056461095      -0.20378680689      0.974056461095      -0.20378680689      -0.019094056143     -0.0919558487852    
7100000000.0        -0.0196442392041    -0.0931983570536    0.973321929075      -0.206647441427     0.973321929075      -0.206647441427     -0.0196442392041    -0.0931983570536    
7200000000.0        -0.0202017839356    -0.0944374793552    0.972577275885      -0.209505429668     0.972577275885      -0.209505429668     -0.0202017839356    -0.0944374793552    
7300000000.0        -0.02076666645      -0.0956731578275    0.971822519537      -0.212360719383     0.971822519537      -0.212360719383     -0.02076666645      -0.0956731578275    
7400000000.0        -0.021338862352     -0.0969053347704    0.971057678492      -0.215213258459     0.971057678492      -0.215213258459     -0.021338862352     -0.0969053347704    
7500000000.0        -0.0219183467405    -0.0981339526543    0.970282771655      -0.218062994918     0.970282771655      -0.218062994918     -0.0219183467405    -0.0981339526543    
7600000000.0        -0.0225050942112    -0.0993589541284    0.969497818377      -0.220909876919     0.969497818377      -0.220909876919     -0.0225050942112    -0.0993589541284    
7700000000.0        -0.023099078859     -0.100580282029     0.968702838447      -0.223753852767     0.968702838447      -0.223753852767     -0.023099078859     -0.100580282029     
7800000000.0        -0.0237002742807    -0.101797879388     0.967897852096      -0.226594870925     0.967897852096      -0.226594870925     -0.0237002742807    -0.101797879388     
7900000000.0        -0.0243086535772    -0.10301168944      0.967082879989      -0.22943288002      0.967082879989      -0.22943288002      -0.0243086535772    -0.10301168944      
8000000000.0        -0.0249241893571    -0.10422165563      0.966257943223      -0.232267828849     0.966257943223      -0.232267828849     -0.0249241893571    -0.10422165563      
8100000000.0        -0.0255468537389    -0.105427721622     0.965423063327      -0.235099666392     0.965423063327      -0.235099666392     -0.0255468537389    -0.105427721622     
8200000000.0        -0.0261766183541    -0.106629831305     0.964578262255      -0.237928341814     0.964578262255      -0.237928341814     -0.0261766183541    -0.106629831305     
8300000000.0        -0.0268134543508    -0.107827928802     0.963723562387      -0.240753804476     0.963723562387      -0.240753804476     -0.0268134543508    -0.107827928802     
8400000000.0        -0.0274573323959    -0.109021958475     0.96285898652       -0.243576003939     0.96285898652       -0.243576003939     -0.0274573323959    -0.109021958475     
8500000000.0        -0.0281082226792    -0.110211864933     0.961984557873      -0.246394889976     0.961984557873      -0.246394889976     -0.0281082226792    -0.110211864933     
8600000000.0        -0.0287660949164    -0.11139759304      0.961100300074      -0.249210412575     0.961100300074      -0.249210412575     -0.0287660949164    -0.11139759304      
8700000000.0        -0.0294309183522    -0.112579087919     0.960206237164      -0.252022521946     0.960206237164      -0.252022521946     -0.0294309183522    -0.112579087919     
8800000000.0        -0.0301026617644    -0.113756294963     0.959302393592      -0.25483116853      0.959302393592      -0.25483116853      -0.0301026617644    -0.113756294963     
8900000000.0        -0.0307812934669    -0.114929159835     0.958388794209      -0.257636303004     0.958388794209      -0.257636303004     -0.0307812934669    -0.114929159835     
9000000000.0        -0.0314667813137    -0.116097628481     0.957465464264      -0.260437876287     0.957465464264      -0.260437876287     -0.0314667813137    -0.116097628481     
9100000000.0        -0.0321590927023    -0.117261647131     0.956532429404      -0.263235839547     0.956532429404      -0.263235839547     -0.0321590927023    -0.117261647131     
9200000000.0        -0.0328581945778    -0.118421162308     0.955589715669      -0.266030144205     0.955589715669      -0.266030144205     -0.0328581945778    -0.118421162308     
9300000000.0        -0.0335640534364    -0.119576120833     0.954637349484      -0.268820741944     0.954637349484      -0.268820741944     -0.0335640534364    -0.119576120833     
9400000000.0        -0.0342766353297    -0.120726469832     0.953675357662      -0.271607584714     0.953675357662      -0.271607584714     -0.0342766353297    -0.120726469832     
9500000000.0        -0.0349959058681    -0.121872156739     0.952703767392      -0.274390624737     0.952703767392      -0.274390624737     -0.0349959058681    -0.121872156739     
9600000000.0        -0.0357218302255    -0.123013129303     0.951722606243      -0.27716981451      0.951722606243      -0.27716981451      -0.0357218302255    -0.123013129303     
9700000000.0        -0.0364543731429    -0.124149335596     0.950731902154      -0.279945106815     0.950731902154      -0.279945106815     -0.0364543731429    -0.124149335596     
9800000000.0        -0.0371934989329    -0.125280724014     0.949731683433      -0.282716454723     0.949731683433      -0.282716454723     -0.0371934989329    -0.125280724014     
9900000000.0        -0.0379391714834    -0.126407243285     0.94872197875       -0.285483811596     0.94872197875       -0.285483811596     -0.0379391714834    -0.126407243285     
10000000000.0       -0.0386913542625    -0.127528842474     0.947702817136      -0.288247131095     0.947702817136      -0.288247131095     -0.0386913542625    -0.127528842474     
