# Hz S RI R 50.00 
100000000.0         0.0207827065649     0.000982817407064   0.979216029134      -0.00123830242419   0.979216029134      -0.00123830242419   0.0207827065649     0.000982817407064   
200000000.0         0.0209201156753     0.00196502044362    0.979078289979      -0.00247599125102   0.979078289979      -0.00247599125102   0.0209201156753     0.00196502044362    
300000000.0         0.0210234463537     0.0029468505631     0.978974563508      -0.00371330841927   0.978974563508      -0.00371330841927   0.0210234463537     0.0029468505631     
400000000.0         0.0211105005841     0.00392838738286    0.97888704773       -0.00495033393424   0.97888704773       -0.00495033393424   0.0211105005841     0.00392838738286    
500000000.0         0.0211881556969     0.00490967279375    0.97880886531       -0.00618711002622   0.97880886531       -0.00618711002622   0.0211881556969     0.00490967279375    
600000000.0         0.021259929634      0.00589073194762    0.9787364983        -0.00742366215489   0.9787364983        -0.00742366215489   0.021259929634      0.00589073194762    
700000000.0         0.0213279066889     0.00687158080105    0.978667862404      -0.00866000656186   0.978667862404      -0.00866000656186   0.0213279066889     0.00687158080105    
800000000.0         0.0213934412085     0.00785222961638    0.978601603269      -0.00989615377679   0.978601603269      -0.00989615377679   0.0213934412085     0.00785222961638    
900000000.0         0.021457471292      0.00883268484295    0.97853678279       -0.0111321105021    0.97853678279       -0.0111321105021    0.021457471292      0.00883268484295    
1000000000.0        0.0215206779841     0.00981295023134    0.978472719919      -0.0123678807295    0.978472719919      -0.0123678807295    0.0215206779841     0.00981295023134    
1100000000.0        0.0215835738721     0.0107930275411     0.978408902063      -0.0136034664497    0.978408902063      -0.0136034664497    0.0215835738721     0.0107930275411     
1200000000.0        0.0216465559393     0.0117729170149     0.978344932234      -0.0148388681275    0.978344932234      -0.0148388681275    0.0216465559393     0.0117729170149     
1300000000.0        0.0217099388557     0.0127526177095     0.978280495756      -0.0160740850342    0.978280495756      -0.0160740850342    0.0217099388557     0.0127526177095     
1400000000.0        0.0217739768856     0.0137321277349     0.97821533836       -0.0173091154873    0.97821533836       -0.0173091154873    0.0217739768856     0.0137321277349     
1500000000.0        0.0218388788323     0.0147114444316     0.978149251236      -0.0185439570287    0.978149251236      -0.0185439570287    0.0218388788323     0.0147114444316     
1600000000.0        0.0219048185466     0.0156905645059     0.978082060529      -0.0197786065605    0.978082060529      -0.0197786065605    0.0219048185466     0.0156905645059     
1700000000.0        0.0219719425087     0.0166694841343     0.978013619753      -0.0210130604496    0.978013619753      -0.0210130604496    0.0219719425087     0.0166694841343     
1800000000.0        0.0220403754201     0.0176481990458     0.9779438042        -0.0222473146109    0.9779438042        -0.0222473146109    0.0220403754201     0.0176481990458     
1900000000.0        0.0221102244099     0.0186267045884     0.977872506734      -0.0234813645737    0.977872506734      -0.0234813645737    0.0221102244099     0.0186267045884     
2000000000.0        0.0221815822516     0.0196049957825     0.977799634577      -0.0247152055356    0.977799634577      -0.0247152055356    0.0221815822516     0.0196049957825     
2100000000.0        0.0222545298614     0.0205830673647     0.977725106805      -0.0259488324068    0.977725106805      -0.0259488324068    0.0222545298614     0.0205830673647     
2200000000.0        0.022329138264      0.0215609138248     0.977648852388      -0.0271822398468    0.977648852388      -0.0271822398468    0.022329138264      0.0215609138248     
2300000000.0        0.0224054701592     0.0225385294358     0.977570808619      -0.028415422295     0.977570808619      -0.028415422295     0.0224054701592     0.0225385294358     
2400000000.0        0.0224835811825     0.0235159082802     0.977490919855      -0.0296483739971    0.977490919855      -0.0296483739971    0.0224835811825     0.0235159082802     
2500000000.0        0.0225635209315     0.0244930442714     0.977409136493      -0.0308810890271    0.977409136493      -0.0308810890271    0.0225635209315     0.0244930442714     
2600000000.0        0.022645333807      0.0254699311733     0.977325414124      -0.0321135613058    0.977325414124      -0.0321135613058    0.022645333807      0.0254699311733     
2700000000.0        0.0227290597103     0.026446562616      0.97723971284       -0.0333457846181    0.97723971284       -0.0333457846181    0.0227290597103     0.0264465626159     
2800000000.0        0.0228147346234     0.0274229321098     0.977151996651      -0.0345777526264    0.977151996651      -0.0345777526264    0.0228147346234     0.0274229321098     
2900000000.0        0.0229023910969     0.0283990330582     0.977062233         -0.0358094588836    0.977062233         -0.0358094588836    0.0229023910969     0.0283990330582     
3000000000.0        0.022992058662      0.029374858768      0.976970392348      -0.0370408968435    0.976970392348      -0.0370408968435    0.022992058662      0.029374858768      
3100000000.0        0.0230837641808     0.0303504024591     0.976876447824      -0.0382720598711    0.976876447824      -0.0382720598711    0.0230837641808     0.0303504024591     
3200000000.0        0.023177532146      0.031325657273      0.976780374929      -0.0395029412503    0.976780374929      -0.0395029412503    0.023177532146      0.031325657273      
3300000000.0        0.0232733849381     0.0323006162802     0.976682151273      -0.0407335341923    0.976682151273      -0.0407335341923    0.0232733849381     0.0323006162802     
3400000000.0        0.0233713430479     0.033275272487      0.976581756359      -0.0419638318417    0.976581756359      -0.0419638318417    0.0233713430479     0.033275272487      
3500000000.0        0.0234714252693     0.0342496188414     0.976479171383      -0.043193827283     0.976479171383      -0.043193827283     0.0234714252693     0.0342496188414     
3600000000.0        0.023573648867      0.0352236482383     0.976374379073      -0.0444235135458    0.976374379073      -0.0444235135458    0.023573648867      0.0352236482383     
3700000000.0        0.0236780297241     0.036197353525      0.976267363536      -0.0456528836101    0.976267363536      -0.0456528836101    0.0236780297241     0.036197353525      
3800000000.0        0.0237845824706     0.0371707275049     0.976158110135      -0.0468819304103    0.976158110135      -0.0468819304103    0.0237845824706     0.0371707275049     
3900000000.0        0.0238933205977     0.038143762942      0.97604660537       -0.0481106468396    0.97604660537       -0.0481106468396    0.0238933205977     0.038143762942      
4000000000.0        0.0240042565578     0.0391164525642     0.975932836778      -0.0493390257534    0.975932836778      -0.0493390257534    0.0240042565578     0.0391164525642     
4100000000.0        0.0241174018544     0.0400887890668     0.975816792849      -0.0505670599731    0.975816792849      -0.0505670599731    0.0241174018544     0.0400887890668     
4200000000.0        0.024232767121      0.0410607651156     0.975698462938      -0.0517947422889    0.975698462938      -0.0517947422889    0.024232767121      0.0410607651156     
4300000000.0        0.0243503621921     0.0420323733496     0.975577837202      -0.0530220654625    0.975577837202      -0.0530220654625    0.0243503621921     0.0420323733496     
4400000000.0        0.024470196167      0.0430036063836     0.975454906532      -0.05424902223      0.975454906532      -0.05424902223      0.024470196167      0.0430036063836     
4500000000.0        0.024592277466      0.0439744568104     0.9753296625        -0.0554756053043    0.9753296625        -0.0554756053043    0.024592277466      0.0439744568104     
4600000000.0        0.0247166138824     0.0449449172035     0.975202097301      -0.056701807377     0.975202097301      -0.056701807377     0.0247166138824     0.0449449172035     
4700000000.0        0.0248432126281     0.0459149801184     0.975072203714      -0.0579276211209    0.975072203714      -0.0579276211209    0.0248432126281     0.0459149801184     
4800000000.0        0.0249720803754     0.0468846380951     0.974939975058      -0.0591530391917    0.974939975058      -0.0591530391917    0.0249720803754     0.0468846380951     
4900000000.0        0.0251032232951     0.0478538836595     0.97480540515       -0.0603780542297    0.97480540515       -0.0603780542297    0.0251032232951     0.0478538836595     
5000000000.0        0.0252366470904     0.0488227093251     0.974668488278      -0.0616026588615    0.974668488278      -0.0616026588615    0.0252366470904     0.0488227093251     
5100000000.0        0.0253723570285     0.0497911075946     0.974529219165      -0.0628268457016    0.974529219165      -0.0628268457016    0.0253723570285     0.0497911075946     
5200000000.0        0.0255103579685     0.0507590709614     0.974387592942      -0.064050607354     0.974387592942      -0.064050607354     0.0255103579685     0.0507590709614     
5300000000.0        0.025650654388      0.0517265919106     0.974243605119      -0.0652739364133    0.974243605119      -0.0652739364133    0.025650654388      0.0517265919106     
5400000000.0        0.0257932504062     0.0526936629205     0.974097251568      -0.0664968254661    0.974097251568      -0.0664968254661    0.0257932504062     0.0526936629205     
5500000000.0        0.0259381498062     0.0536602764639     0.973948528494      -0.067719267092     0.973948528494      -0.067719267092     0.0259381498062     0.0536602764639     
5600000000.0        0.0260853560544     0.0546264250089     0.973797432421      -0.0689412538651    0.973797432421      -0.0689412538651    0.0260853560544     0.0546264250089     
5700000000.0        0.0262348723194     0.0555921010199     0.973643960169      -0.0701627783548    0.973643960169      -0.0701627783548    0.0262348723194     0.0555921010199     
5800000000.0        0.0263867014885     0.056557296959      0.97348810884       -0.0713838331269    0.97348810884       -0.0713838331269    0.0263867014885     0.056557296959      
5900000000.0        0.0265408461832     0.0575220052867     0.973329875801      -0.0726044107443    0.973329875801      -0.0726044107443    0.0265408461832     0.0575220052867     
6000000000.0        0.0266973087742     0.0584862184626     0.973169258671      -0.0738245037685    0.973169258671      -0.0738245037685    0.0266973087742     0.0584862184626     
6100000000.0        0.0268560913938     0.0594499289464     0.973006255305      -0.0750441047596    0.973006255305      -0.0750441047596    0.0268560913938     0.0594499289464     
6200000000.0        0.0270171959489     0.0604131291987     0.972840863787      -0.0762632062779    0.972840863787      -0.0762632062779    0.0270171959489     0.0604131291987     
6300000000.0        0.0271806241319     0.0613758116819     0.97267308241       -0.0774818008842    0.97267308241       -0.0774818008842    0.0271806241319     0.0613758116819     
6400000000.0        0.0273463774318     0.0623379688604     0.972502909676      -0.0786998811407    0.972502909676      -0.0786998811407    0.0273463774318     0.0623379688604     
6500000000.0        0.0275144571436     0.063299593202      0.972330344278      -0.0799174396117    0.972330344278      -0.0799174396117    0.0275144571436     0.063299593202      
6600000000.0        0.0276848643776     0.0642606771779     0.972155385093      -0.0811344688641    0.972155385093      -0.0811344688641    0.0276848643776     0.0642606771779     
6700000000.0        0.0278576000681     0.0652212132637     0.971978031176      -0.0823509614683    0.971978031176      -0.0823509614683    0.0278576000681     0.0652212132637     
6800000000.0        0.0280326649809     0.06618119394       0.971798281747      -0.0835669099986    0.971798281747      -0.0835669099986    0.0280326649809     0.06618119394       
6900000000.0        0.0282100597213     0.0671406116925     0.971616136191      -0.0847823070339    0.971616136191      -0.0847823070339    0.0282100597213     0.0671406116925     
7000000000.0        0.0283897847406     0.0680994590133     0.971431594044      -0.0859971451581    0.971431594044      -0.0859971451581    0.0283897847406     0.0680994590133     
7100000000.0        0.0285718403428     0.0690577284009     0.971244654989      -0.0872114169609    0.971244654989      -0.0872114169609    0.0285718403428     0.0690577284009     
7200000000.0        0.0287562266905     0.0700154123606     0.971055318852      -0.0884251150381    0.971055318852      -0.0884251150381    0.0287562266905     0.0700154123606     
7300000000.0        0.0289429438109     0.0709725034055     0.970863585593      -0.0896382319922    0.970863585593      -0.0896382319922    0.0289429438109     0.0709725034055     
7400000000.0        0.0291319916009     0.0719289940565     0.970669455302      -0.0908507604326    0.970669455302      -0.0908507604326    0.0291319916009     0.0719289940565     
7500000000.0        0.0293233698321     0.0728848768429     0.970472928196      -0.0920626929765    0.970472928196      -0.0920626929765    0.0293233698321     0.0728848768429     
7600000000.0        0.0295170781556     0.0738401443029     0.97027400461       -0.0932740222492    0.97027400461       -0.0932740222492    0.0295170781556     0.0738401443029     
7700000000.0        0.0297131161067     0.074794788984      0.970072684996      -0.0944847408842    0.970072684996      -0.0944847408842    0.0297131161067     0.074794788984      
7800000000.0        0.0299114831086     0.0757488034431     0.969868969919      -0.095694841524     0.969868969919      -0.095694841524     0.0299114831086     0.0757488034431     
7900000000.0        0.0301121784766     0.0767021802475     0.969662860049      -0.0969043168204    0.969662860049      -0.0969043168204    0.0301121784766     0.0767021802475     
8000000000.0        0.0303152014219     0.0776549119747     0.969454356164      -0.0981131594348    0.969454356164      -0.0981131594348    0.0303152014219     0.0776549119747     
8100000000.0        0.0305205510549     0.078606991213      0.969243459138      -0.0993213620387    0.969243459138      -0.0993213620387    0.0305205510549     0.078606991213      
8200000000.0        0.0307282263889     0.0795584105617     0.969030169946      -0.100528917314     0.969030169946      -0.100528917314     0.0307282263889     0.0795584105617     
8300000000.0        0.0309382263428     0.0805091626318     0.968814489656      -0.101735817952     0.968814489656      -0.101735817952     0.0309382263428     0.0805091626318     
8400000000.0        0.0311505497441     0.081459240046      0.968596419426      -0.102942056658     0.968596419426      -0.102942056658     0.0311505497441     0.081459240046      
8500000000.0        0.0313651953323     0.0824086354391     0.968375960504      -0.104147626146     0.968375960504      -0.104147626146     0.0313651953323     0.0824086354391     
8600000000.0        0.0315821617607     0.0833573414582     0.968153114223      -0.105352519143     0.968153114223      -0.105352519143     0.0315821617607     0.0833573414582     
8700000000.0        0.0318014475997     0.0843053507633     0.967927881998      -0.106556728388     0.967927881998      -0.106556728388     0.0318014475997     0.0843053507633     
8800000000.0        0.0320230513387     0.0852526560274     0.967700265327      -0.107760246631     0.967700265327      -0.107760246631     0.0320230513387     0.0852526560274     
8900000000.0        0.0322469713887     0.0861992499367     0.967470265784      -0.108963066637     0.967470265784      -0.108963066637     0.0322469713887     0.0861992499367     
9000000000.0        0.0324732060843     0.0871451251911     0.967237885022      -0.110165181181     0.967237885022      -0.110165181181     0.0324732060843     0.0871451251911     
9100000000.0        0.0327017536858     0.0880902745042     0.967003124765      -0.111366583054     0.967003124765      -0.111366583054     0.0327017536858     0.0880902745042     
9200000000.0        0.0329326123812     0.0890346906038     0.966765986813      -0.112567265058     0.966765986813      -0.112567265058     0.0329326123812     0.0890346906038     
9300000000.0        0.0331657802881     0.0899783662321     0.966526473032      -0.113767220011     0.966526473032      -0.113767220011     0.0331657802881     0.0899783662321     
9400000000.0        0.0334012554554     0.0909212941459     0.966284585361      -0.114966440743     0.966284585361      -0.114966440743     0.0334012554554     0.0909212941459     
9500000000.0        0.033639035865      0.0918634671169     0.966040325802      -0.1161649201       0.966040325802      -0.1161649201       0.033639035865      0.0918634671169     
9600000000.0        0.0338791194337     0.0928048779318     0.965793696426      -0.117362650941     0.965793696426      -0.117362650941     0.0338791194337     0.0928048779318     
9700000000.0        0.0341215040142     0.0937455193927     0.965544699363      -0.11855962614      0.965544699363      -0.11855962614      0.0341215040142     0.0937455193927     
9800000000.0        0.0343661873974     0.0946853843173     0.96529333681       -0.119755838586     0.96529333681       -0.119755838586     0.0343661873974     0.0946853843173     
9900000000.0        0.0346131673128     0.0956244655391     0.965039611022      -0.120951281184     0.965039611022      -0.120951281184     0.0346131673128     0.0956244655391     
10000000000.0       0.034862441431      0.0965627559077     0.964783524313      -0.122145946855     0.964783524313      -0.122145946855     0.034862441431      0.0965627559077     
