# Hz S RI R 50.00 
100000000.0         0.000250036162622   -0.00672463870783   0.99962927807       -0.00779878330372   0.99962927807       -0.00779878330372   0.000250036162622   -0.00672463870783   
200000000.0         8.77088064291e-05   -0.0134469803128    0.999461017811      -0.0155952879581    0.999461017811      -0.0155952879581    8.77088064291e-05   -0.0134469803128    
300000000.0         -0.000179938688452  -0.0201648570884    0.999187357904      -0.0233873670589    0.999187357904      -0.0233873670589    -0.000179938688452  -0.0201648570884    
400000000.0         -0.000552487936797  -0.0268760889236    0.998808181421      -0.0311728565906    0.998808181421      -0.0311728565906    -0.000552487936797  -0.0268760889236    
500000000.0         -0.00102962522183   -0.0335784932343    0.998323596395      -0.0389495883282    0.998323596395      -0.0389495883282    -0.00102962522183   -0.0335784932343    
600000000.0         -0.00161102704696   -0.04026988997      0.997733821566      -0.0467153955679    0.997733821566      -0.0467153955679    -0.00161102704696   -0.04026988997      
700000000.0         -0.00229633121999   -0.0469481052164    0.997039157249      -0.054468117052     0.997039157249      -0.054468117052     -0.00229633121999   -0.0469481052164    
800000000.0         -0.00308512653676   -0.0536109741894    0.996239974496      -0.0622056001416    0.996239974496      -0.0622056001416    -0.00308512653676   -0.0536109741894    
900000000.0         -0.00397694846704   -0.0602563439072    0.995336710009      -0.0699257036004    0.995336710009      -0.0699257036004    -0.00397694846704   -0.0602563439072    
1000000000.0        -0.00497127727684   -0.066882075663     0.994329863252      -0.0776263001422    0.994329863252      -0.0776263001422    -0.00497127727684   -0.066882075663     
1100000000.0        -0.00606753731417   -0.0734860473607    0.993219994533      -0.0853052788199    0.993219994533      -0.0853052788199    -0.00606753731417   -0.0734860473607    
1200000000.0        -0.00726509692804   -0.0800661557444    0.992007723502      -0.0929605472961    0.992007723502      -0.0929605472961    -0.00726509692804   -0.0800661557444    
1300000000.0        -0.00856326877217   -0.0866203185416    0.990693727871      -0.100590034016     0.990693727871      -0.100590034016     -0.00856326877217   -0.0866203185416    
1400000000.0        -0.00996131036674   -0.0931464765284    0.989278742196      -0.108191690298     0.989278742196      -0.108191690298     -0.00996131036674   -0.0931464765284    
1500000000.0        -0.0114584248476    -0.0996425955234    0.987763556691      -0.115763492347     0.987763556691      -0.115763492347     -0.0114584248476    -0.0996425955234    
1600000000.0        -0.0130537618614    -0.106106668312     0.986149016026      -0.123303443195     0.986149016026      -0.123303443195     -0.0130537618614    -0.106106668312     
1700000000.0        -0.014746418581     -0.112536716505     0.984436018084      -0.130809574572     0.984436018084      -0.130809574572     -0.014746418581     -0.112536716505     
1800000000.0        -0.0165354408219    -0.118930792322     0.982625512686      -0.138279948704     0.982625512686      -0.138279948704     -0.0165354408219    -0.118930792322     
1900000000.0        -0.0184198242491    -0.125286980316     0.980718500259      -0.145712660045     0.980718500259      -0.145712660045     -0.0184198242491    -0.125286980316     
2000000000.0        -0.0203985156628    -0.131603399024     0.978716030458      -0.153105836935     0.978716030458      -0.153105836935     -0.0203985156628    -0.131603399024     
2100000000.0        -0.0224704143568    -0.13787820254      0.976619200735      -0.160457643187     0.976619200735      -0.160457643187     -0.0224704143568    -0.13787820254      
2200000000.0        -0.0246343735413    -0.144109582028     0.974429154861      -0.167766279598     0.974429154861      -0.167766279598     -0.0246343735413    -0.144109582028     
2300000000.0        -0.0268892018258    -0.15029576715      0.972147081393      -0.175029985388     0.972147081393      -0.175029985388     -0.0268892018258    -0.15029576715      
2400000000.0        -0.0292336647561    -0.156435027426     0.969774212109      -0.182247039566     0.969774212109      -0.182247039566     -0.0292336647561    -0.156435027426     
2500000000.0        -0.0316664863994    -0.162525673517     0.967311820387      -0.189415762212     0.967311820387      -0.189415762212     -0.0316664863994    -0.162525673517     
2600000000.0        -0.0341863509749    -0.168566058423     0.964761219551      -0.196534515688     0.964761219551      -0.196534515688     -0.0341863509749    -0.168566058423     
2700000000.0        -0.0367919045234    -0.174554578617     0.962123761187      -0.203601705767     0.962123761187      -0.203601705767     -0.0367919045234    -0.174554578617     
2800000000.0        -0.0394817566121    -0.180489675084     0.959400833416      -0.210615782683     0.959400833416      -0.210615782683     -0.0394817566121    -0.180489675084     
2900000000.0        -0.0422544820702    -0.186369834292     0.956593859147      -0.217575242098     0.956593859147      -0.217575242098     -0.0422544820702    -0.186369834292     
3000000000.0        -0.0451086227508    -0.192193589077     0.953704294303      -0.224478625999     0.953704294303      -0.224478625999     -0.0451086227508    -0.192193589077     
3100000000.0        -0.0480426893157    -0.197959519449     0.950733626028      -0.231324523498     0.950733626028      -0.231324523498     -0.0480426893157    -0.197959519449     
3200000000.0        -0.051055163037     -0.20366625332      0.947683370875      -0.238111571568     0.947683370875      -0.238111571568     -0.051055163037     -0.20366625332      
3300000000.0        -0.054144497614     -0.209312467148     0.944555072983      -0.244838455686     0.944555072983      -0.244838455686     -0.054144497614     -0.209312467148     
3400000000.0        -0.0573091209991    -0.214896886502     0.941350302245      -0.251503910404     0.941350302245      -0.251503910404     -0.0573091209991    -0.214896886502     
3500000000.0        -0.06054743723      -0.22041828655      0.938070652469      -0.258106719835     0.938070652469      -0.258106719835     -0.06054743723      -0.22041828655      
3600000000.0        -0.0638578282645    -0.225875492465     0.934717739543      -0.264645718064     0.934717739543      -0.264645718064     -0.0638578282645    -0.225875492465     
3700000000.0        -0.0672386558133    -0.231267379756     0.931293199591      -0.271119789481     0.931293199591      -0.271119789481     -0.0672386558133    -0.231267379756     
3800000000.0        -0.070688263168     -0.236592874522     0.927798687149      -0.277527869032     0.927798687149      -0.277527869032     -0.070688263168     -0.236592874522     
3900000000.0        -0.0742049770198    -0.241850953626     0.924235873337      -0.283868942403     0.924235873337      -0.283868942403     -0.0742049770198    -0.241850953626     
4000000000.0        -0.0777871092675    -0.247040644804     0.920606444052      -0.290142046121     0.920606444052      -0.290142046121     -0.0777871092675    -0.247040644804     
4100000000.0        -0.0814329588089    -0.252161026692     0.916912098175      -0.296346267591     0.916912098175      -0.296346267591     -0.0814329588089    -0.252161026692     
4200000000.0        -0.0851408133142    -0.257211228788     0.91315454579       -0.302480745053     0.91315454579       -0.302480745053     -0.0851408133142    -0.257211228788     
4300000000.0        -0.0889089509784    -0.262190431343     0.909335506436      -0.308544667479     0.909335506436      -0.308544667479     -0.0889089509784    -0.262190431343     
4400000000.0        -0.092735642249     -0.267097865184     0.905456707373      -0.314537274393     0.905456707373      -0.314537274393     -0.092735642249     -0.267097865184     
4500000000.0        -0.0966191515266    -0.271932811476     0.901519881883      -0.320457855639     0.901519881883      -0.320457855639     -0.0966191515266    -0.271932811476     
4600000000.0        -0.100557738837     -0.276694601416     0.897526767596      -0.326305751071     0.897526767596      -0.326305751071     -0.100557738837     -0.276694601416     
4700000000.0        -0.104549661469     -0.281382615869     0.893479104846      -0.332080350194     0.893479104846      -0.332080350194     -0.104549661469     -0.281382615869     
4800000000.0        -0.108593175582     -0.285996284943     0.88937863507       -0.33778109174      0.88937863507       -0.33778109174      -0.108593175582     -0.285996284943     
4900000000.0        -0.112686537773     -0.290535087516     0.885227099237      -0.343407463191     0.885227099237      -0.343407463191     -0.112686537773     -0.290535087516     
5000000000.0        -0.116828006609     -0.294998550698     0.881026236311      -0.34895900025      0.881026236311      -0.34895900025      -0.116828006609     -0.294998550698     
5100000000.0        -0.121015844115     -0.29938624925      0.876777781766      -0.354435286256     0.876777781766      -0.354435286256     -0.121015844115     -0.29938624925      
5200000000.0        -0.125248317227     -0.303697804954     0.872483466132      -0.359835951552     0.872483466132      -0.359835951552     -0.125248317227     -0.303697804954     
5300000000.0        -0.129523699197     -0.307932885933     0.868145013589      -0.365160672813     0.868145013589      -0.365160672813     -0.129523699197     -0.307932885933     
5400000000.0        -0.133840270952     -0.312091205932     0.863764140604      -0.370409172324     0.863764140604      -0.370409172324     -0.133840270952     -0.312091205932     
5500000000.0        -0.138196322415     -0.316172523556     0.859342554616      -0.375581217218     0.859342554616      -0.375581217218     -0.138196322415     -0.316172523556     
5600000000.0        -0.142590153771     -0.32017664147      0.854881952762      -0.38067661868      0.854881952762      -0.38067661868      -0.142590153771     -0.32017664147      
5700000000.0        -0.147020076693     -0.324103405567     0.850384020658      -0.385695231112     0.850384020658      -0.385695231112     -0.147020076693     -0.324103405567     
5800000000.0        -0.151484415512     -0.327952704101     0.845850431219      -0.390636951267     0.845850431219      -0.390636951267     -0.151484415512     -0.327952704101     
5900000000.0        -0.155981508349     -0.331724466784     0.841282843538      -0.395501717353     0.841282843538      -0.395501717353     -0.155981508349     -0.331724466784     
6000000000.0        -0.160509708184     -0.335418663869     0.836682901806      -0.400289508107     0.836682901806      -0.400289508107     -0.160509708184     -0.335418663869     
6100000000.0        -0.165067383891     -0.339035305194     0.832052234283      -0.405000341849     0.832052234283      -0.405000341849     -0.165067383891     -0.339035305194     
6200000000.0        -0.169652921212     -0.342574439214     0.827392452322      -0.409634275506     0.827392452322      -0.409634275506     -0.169652921212     -0.342574439214     
6300000000.0        -0.174264723685     -0.346036152005     0.822705149441      -0.414191403625     0.822705149441      -0.414191403625     -0.174264723685     -0.346036152005     
6400000000.0        -0.178901213523     -0.349420566259     0.817991900438      -0.418671857361     0.817991900438      -0.418671857361     -0.178901213523     -0.349420566259     
6500000000.0        -0.183560832447     -0.352727840253     0.813254260569      -0.423075803453     0.813254260569      -0.423075803453     -0.183560832447     -0.352727840253     
6600000000.0        -0.188242042461     -0.355958166815     0.808493764762      -0.427403443187     0.808493764762      -0.427403443187     -0.188242042461     -0.355958166815     
6700000000.0        -0.192943326587     -0.359111772276     0.803711926887      -0.431655011347     0.803711926887      -0.431655011347     -0.192943326587     -0.359111772276     
6800000000.0        -0.197663189549     -0.362188915408     0.798910239071      -0.435830775161     0.798910239071      -0.435830775161     -0.197663189549     -0.362188915408     
6900000000.0        -0.202400158407     -0.365189886365     0.794090171062      -0.439931033233     0.794090171062      -0.439931033233     -0.202400158407     -0.365189886365     
7000000000.0        -0.207152783149     -0.368115005615     0.789253169639      -0.443956114482     0.789253169639      -0.443956114482     -0.207152783149     -0.368115005615     
7100000000.0        -0.21191963723      -0.370964622866     0.784400658071      -0.447906377066     0.784400658071      -0.447906377066     -0.21191963723      -0.370964622866     
7200000000.0        -0.216699318072     -0.373739115996     0.779534035616      -0.451782207315     0.779534035616      -0.451782207315     -0.216699318072     -0.373739115996     
7300000000.0        -0.221490447519     -0.376438889989     0.774654677069      -0.455584018662     0.774654677069      -0.455584018662     -0.221490447519     -0.376438889989     
7400000000.0        -0.226291672241     -0.379064375858     0.769763932355      -0.459312250575     0.769763932355      -0.459312250575     -0.226291672241     -0.379064375858     
7500000000.0        -0.231101664106     -0.381616029594     0.764863126156      -0.462967367497     0.764863126156      -0.462967367497     -0.231101664106     -0.381616029594     
7600000000.0        -0.235919120503     -0.384094331101     0.759953557591      -0.46654985779      0.759953557591      -0.46654985779      -0.235919120503     -0.384094331101     
7700000000.0        -0.240742764625     -0.386499783154     0.755036499929      -0.470060232686     0.755036499929      -0.470060232686     -0.240742764625     -0.386499783154     
7800000000.0        -0.245571345718     -0.388832910355     0.750113200342      -0.473499025251     0.750113200342      -0.473499025251     -0.245571345718     -0.388832910355     
7900000000.0        -0.250403639288     -0.391094258108     0.745184879698      -0.476866789353     0.745184879698      -0.476866789353     -0.250403639288     -0.391094258108     
8000000000.0        -0.255238447268     -0.393284391599     0.740252732393      -0.48016409865      0.740252732393      -0.48016409865      -0.255238447268     -0.393284391599     
8100000000.0        -0.260074598154     -0.395403894795     0.735317926213      -0.48339154558      0.735317926213      -0.48339154558      -0.260074598154     -0.395403894795     
8200000000.0        -0.264910947107     -0.397453369447     0.730381602234      -0.486549740376     0.730381602234      -0.486549740376     -0.264910947107     -0.397453369447     
8300000000.0        -0.269746376016     -0.399433434123     0.725444874759      -0.489639310088     0.725444874759      -0.489639310088     -0.269746376016     -0.399433434123     
8400000000.0        -0.274579793536     -0.401344723237     0.720508831279      -0.492660897622     0.720508831279      -0.492660897622     -0.274579793536     -0.401344723237     
8500000000.0        -0.279410135089     -0.403187886116     0.71557453247       -0.4956151608       0.71557453247       -0.4956151608       -0.279410135089     -0.403187886116     
8600000000.0        -0.284236362838     -0.404963586065     0.710643012219      -0.498502771432     0.710643012219      -0.498502771432     -0.284236362838     -0.404963586065     
8700000000.0        -0.289057465637     -0.406672499465     0.705715277681      -0.501324414406     0.705715277681      -0.501324414406     -0.289057465637     -0.406672499465     
8800000000.0        -0.293872458944     -0.408315314878     0.700792309353      -0.504080786804     0.700792309353      -0.504080786804     -0.293872458944     -0.408315314878     
8900000000.0        -0.298680384719     -0.409892732182     0.695875061186      -0.506772597028     0.695875061186      -0.506772597028     -0.298680384719     -0.409892732182     
9000000000.0        -0.303480311288     -0.411405461715     0.690964460715      -0.509400563949     0.690964460715      -0.509400563949     -0.303480311288     -0.411405461715     
9100000000.0        -0.308271333195     -0.412854223447     0.686061409213      -0.51196541608      0.686061409213      -0.51196541608      -0.308271333195     -0.412854223447     
9200000000.0        -0.313052571018     -0.414239746169     0.681166781865      -0.514467890764     0.681166781865      -0.514467890764     -0.313052571018     -0.414239746169     
9300000000.0        -0.317823171176     -0.415562766705     0.676281427969      -0.516908733382     0.676281427969      -0.516908733382     -0.317823171176     -0.415562766705     
9400000000.0        -0.322582305711     -0.416824029142     0.671406171151      -0.519288696593     0.671406171151      -0.519288696593     -0.322582305711     -0.416824029142     
9500000000.0        -0.327329172053     -0.418024284081     0.6665418096        -0.521608539579     0.6665418096        -0.521608539579     -0.327329172053     -0.418024284081     
9600000000.0        -0.332062992766     -0.419164287917     0.661689116322      -0.523869027323     0.661689116322      -0.523869027323     -0.332062992766     -0.419164287917     
9700000000.0        -0.336783015279     -0.42024480213      0.656848839407      -0.526070929908     0.656848839407      -0.526070929908     -0.336783015279     -0.42024480213      
9800000000.0        -0.341488511602     -0.421266592601     0.652021702312      -0.528215021828     0.652021702312      -0.528215021828     -0.341488511602     -0.421266592601     
9900000000.0        -0.346178778028     -0.422230428959     0.647208404163      -0.530302081333     0.647208404163      -0.530302081333     -0.346178778028     -0.422230428959     
10000000000.0       -0.350853134823     -0.42313708393      0.642409620063      -0.532332889788     0.642409620063      -0.532332889788     -0.350853134823     -0.42313708393      
