# Hz S RI R 50.00 
100000000.0         -5.00255454771e-05  -0.0086902733163    0.999874585647      -0.00902483102217   0.999874585647      -0.00902483102217   -5.00255454771e-05  -0.0086902733163    
200000000.0         -0.00029377076854   -0.017376567353     0.999630160247      -0.0180457369182    0.999630160247      -0.0180457369182    -0.00029377076854   -0.017376567353     
300000000.0         -0.000694199679897  -0.0260549793557    0.999229069332      -0.0270588432084    0.999229069332      -0.0270588432084    -0.000694199679897  -0.0260549793557    
400000000.0         -0.00125095667438   -0.0347215561253    0.998671603503      -0.0360602183753    0.998671603503      -0.0360602183753    -0.00125095667438   -0.0347215561253    
500000000.0         -0.00196357148204   -0.0433723282274    0.997958208009      -0.0450459112877    0.997958208009      -0.0450459112877    -0.00196357148204   -0.0433723282274    
600000000.0         -0.00283144438973   -0.0520033259896    0.997089469771      -0.0540119683192    0.997089469771      -0.0540119683192    -0.00283144438973   -0.0520033259896    
700000000.0         -0.00385384261833   -0.0606105906494    0.99606611396       -0.0629544450677    0.99606611396       -0.0629544450677    -0.00385384261833   -0.0606105906494    
800000000.0         -0.00502989952541   -0.0691901834397    0.994889002234      -0.0718694157869    0.994889002234      -0.0718694157869    -0.00502989952541   -0.0691901834397    
900000000.0         -0.0063586150079    -0.0777381935895    0.993559131196      -0.0807529816152    0.993559131196      -0.0807529816152    -0.0063586150079    -0.0777381935895    
1000000000.0        -0.00783885661636   -0.0862507456489    0.992077630701      -0.0896012780641    0.992077630701      -0.0896012780641    -0.00783885661636   -0.0862507456489    
1100000000.0        -0.00946936118994   -0.0947240063435    0.990445761907      -0.0984104819943    0.990445761907      -0.0984104819943    -0.00946936118994   -0.0947240063435    
1200000000.0        -0.0112487369201    -0.103154191059     0.988664915021      -0.107176818195     0.988664915021      -0.107176818195     -0.0112487369201    -0.103154191059     
1300000000.0        -0.0131754657904    -0.111537570012     0.986736606735      -0.115896565632     0.986736606735      -0.115896565632     -0.0131754657904    -0.111537570012     
1400000000.0        -0.0152479063578    -0.119870474137     0.984662477374      -0.124566063392     0.984662477374      -0.124566063392     -0.0152479063578    -0.119870474137     
1500000000.0        -0.0174642968466    -0.128149300694     0.982444287745      -0.13318171635      0.982444287745      -0.13318171635      -0.0174642968466    -0.128149300694     
1600000000.0        -0.0198227585336    -0.136370518619     0.980083915719      -0.141740000559     0.980083915719      -0.141740000559     -0.0198227585336    -0.136370518619     
1700000000.0        -0.0223212994028    -0.1445306736       0.977583352545      -0.150237468363     0.977583352545      -0.150237468363     -0.0223212994028    -0.1445306736       
1800000000.0        -0.0249578180486    -0.152626392883     0.97494469893       -0.158670753244     0.97494469893       -0.158670753244     -0.0249578180486    -0.152626392883     
1900000000.0        -0.0277301078093    -0.160654389805     0.972170160894      -0.167036574379     0.972170160894      -0.167036574379     -0.0277301078093    -0.160654389805     
2000000000.0        -0.0306358611101    -0.168611468047     0.969262045411      -0.175331740919     0.969262045411      -0.175331740919     -0.0306358611101    -0.168611468047     
2100000000.0        -0.0336726739965    -0.176494525596     0.966222755871      -0.183553155983     0.966222755871      -0.183553155983     -0.0336726739965    -0.176494525596     
2200000000.0        -0.0368380508384    -0.184300558427     0.963054787368      -0.191697820351     0.963054787368      -0.191697820351     -0.0368380508384    -0.184300558427     
2300000000.0        -0.0401294091852    -0.192026663881     0.95976072184       -0.199762835871     0.95976072184       -0.199762835871     -0.0401294091852    -0.192026663881     
2400000000.0        -0.0435440847524    -0.199670043748     0.956343223078      -0.207745408556     0.956343223078      -0.207745408556     -0.0435440847524    -0.199670043748     
2500000000.0        -0.0470793365199    -0.207228007053     0.952805031625      -0.215642851387     0.952805031625      -0.215642851387     -0.0470793365199    -0.207228007053     
2600000000.0        -0.0507323519218    -0.214697972531     0.949148959584      -0.223452586808     0.949148959584      -0.223452586808     -0.0507323519218    -0.214697972531     
2700000000.0        -0.05450025211      -0.222077470811     0.945377885352      -0.231172148919     0.945377885352      -0.231172148919     -0.05450025211      -0.222077470811     
2800000000.0        -0.0583800972708    -0.229364146293     0.9414947483        -0.238799185368     0.9414947483        -0.238799185368     -0.0583800972708    -0.229364146293     
2900000000.0        -0.062368891977     -0.236555758722     0.937502543423      -0.246331458941     0.937502543423      -0.246331458941     -0.062368891977     -0.236555758722     
3000000000.0        -0.0664635905565    -0.243650184468     0.933404315966      -0.253766848851     0.933404315966      -0.253766848851     -0.0664635905565    -0.243650184468     
3100000000.0        -0.0706611024601    -0.25064541752      0.929203156059      -0.261103351744     0.929203156059      -0.261103351744     -0.0706611024601    -0.25064541752      
3200000000.0        -0.074958297611     -0.257539570179     0.924902193363      -0.268339082404     0.924902193363      -0.268339082404     -0.074958297611     -0.257539570179     
3300000000.0        -0.0793520117195    -0.264330873483     0.92050459176       -0.275472274182     0.92050459176       -0.275472274182     -0.0793520117195    -0.264330873483     
3400000000.0        -0.0838390515475    -0.271017677343     0.916013544082      -0.282501279153     0.916013544082      -0.282501279153     -0.0838390515475    -0.271017677343     
3500000000.0        -0.0884162001071    -0.27759845043      0.911432266914      -0.289424567998     0.911432266914      -0.289424567998     -0.0884162001071    -0.27759845043      
3600000000.0        -0.0930802217791    -0.284071779784     0.906763995478      -0.296240729633     0.906763995478      -0.296240729633     -0.0930802217791    -0.284071779784     
3700000000.0        -0.0978278673384    -0.290436370192     0.902011978603      -0.302948470586     0.902011978603      -0.302948470586     -0.0978278673384    -0.290436370192     
3800000000.0        -0.102655878874     -0.296691043312     0.897179473807      -0.309546614139     0.897179473807      -0.309546614139     -0.102655878874     -0.296691043312     
3900000000.0        -0.107560994589     -0.302834736584     0.892269742496      -0.316034099231     0.892269742496      -0.316034099231     -0.107560994589     -0.302834736584     
4000000000.0        -0.112539953479     -0.308866501906     0.887286045287      -0.322409979157     0.887286045287      -0.322409979157     -0.112539953479     -0.308866501906     
4100000000.0        -0.117589499861     -0.314785504123     0.882231637475      -0.328673420052     0.882231637475      -0.328673420052     -0.117589499861     -0.314785504123     
4200000000.0        -0.122706387769     -0.320591019304     0.877109764643      -0.334823699182     0.877109764643      -0.334823699182     -0.122706387769     -0.320591019304     
4300000000.0        -0.127887385184     -0.326282432855     0.871923658425      -0.340860203053     0.871923658425      -0.340860203053     -0.127887385184     -0.326282432855     
4400000000.0        -0.133129278108     -0.331859237448     0.866676532438      -0.346782425355     0.866676532438      -0.346782425355     -0.133129278108     -0.331859237448     
4500000000.0        -0.138428874469     -0.3373210308       0.861371578373      -0.352589964742     0.861371578373      -0.352589964742     -0.138428874469     -0.3373210308       
4600000000.0        -0.143783007856     -0.342667513305     0.856011962263      -0.358282522472     0.856011962263      -0.358282522472     -0.143783007856     -0.342667513305     
4700000000.0        -0.14918854107      -0.347898485542     0.850600820929      -0.363859899912     0.850600820929      -0.363859899912     -0.14918854107      -0.347898485542     
4800000000.0        -0.154642369503     -0.353013845646     0.8451412586        -0.369321995923     0.8451412586        -0.369321995923     -0.154642369503     -0.353013845646     
4900000000.0        -0.160141424331     -0.358013586594     0.839636343726      -0.374668804143     0.839636343726      -0.374668804143     -0.160141424331     -0.358013586594     
5000000000.0        -0.165682675522     -0.362897793375     0.834089105964      -0.379900410166     0.834089105964      -0.379900410166     -0.165682675522     -0.362897793375     
5100000000.0        -0.171263134659     -0.367666640095     0.828502533356      -0.385016988649     0.828502533356      -0.385016988649     -0.171263134659     -0.367666640095     
5200000000.0        -0.176879857582     -0.372320386998     0.822879569689      -0.390018800335     0.822879569689      -0.390018800335     -0.176879857582     -0.372320386998     
5300000000.0        -0.182529946838     -0.37685937743      0.817223112042      -0.394906189024     0.817223112042      -0.394906189024     -0.182529946838     -0.37685937743      
5400000000.0        -0.188210553956     -0.381284034761     0.811536008516      -0.399679578494     0.811536008516      -0.399679578494     -0.188210553956     -0.381284034761     
5500000000.0        -0.193918881532     -0.385594859259     0.805821056143      -0.404339469381     0.805821056143      -0.404339469381     -0.193918881532     -0.385594859259     
5600000000.0        -0.199652185143     -0.389792424942     0.800080998975      -0.408886436035     0.800080998975      -0.408886436035     -0.199652185143     -0.389792424942     
5700000000.0        -0.205407775079     -0.393877376408     0.794318526351      -0.41332112335      0.794318526351      -0.41332112335      -0.205407775079     -0.393877376408     
5800000000.0        -0.211183017905     -0.39785042566      0.788536271338      -0.417644243594     0.788536271338      -0.417644243594     -0.211183017905     -0.39785042566      
5900000000.0        -0.216975337852     -0.401712348929     0.782736809334      -0.421856573232     0.782736809334      -0.421856573232     -0.216975337852     -0.401712348929     
6000000000.0        -0.222782218047     -0.405463983505     0.776922656842      -0.42595894976      0.776922656842      -0.42595894976      -0.222782218047     -0.405463983505     
6100000000.0        -0.22860120158      -0.409106224584     0.771096270406      -0.42995226856      0.771096270406      -0.42995226856      -0.22860120158      -0.409106224584     
6200000000.0        -0.234429892415     -0.41264002214      0.765260045692      -0.433837479765     0.765260045692      -0.433837479765     -0.234429892415     -0.41264002214      
6300000000.0        -0.240265956157     -0.41606637783      0.759416316728      -0.437615585171     0.759416316728      -0.437615585171     -0.240265956157     -0.41606637783      
6400000000.0        -0.246107120664     -0.41938634193      0.753567355288      -0.441287635176     0.753567355288      -0.441287635176     -0.246107120664     -0.41938634193      
6500000000.0        -0.251951176531     -0.42260101032      0.747715370408      -0.444854725765     0.747715370408      -0.444854725765     -0.251951176531     -0.42260101032      
6600000000.0        -0.257795977435     -0.425711521513     0.741862508045      -0.44831799554      0.741862508045      -0.44831799554      -0.257795977435     -0.425711521513     
6700000000.0        -0.263639440352     -0.428719053743     0.736010850856      -0.451678622814     0.736010850856      -0.451678622814     -0.263639440352     -0.428719053743     
6800000000.0        -0.269479545656     -0.431624822107     0.730162418098      -0.454937822746     0.730162418098      -0.454937822746     -0.269479545656     -0.431624822107     
6900000000.0        -0.2753143371       -0.434430075769     0.724319165651      -0.458096844556     0.724319165651      -0.458096844556     -0.2753143371       -0.434430075769     
7000000000.0        -0.281141921689     -0.437136095232     0.718482986144      -0.461156968795     0.718482986144      -0.461156968795     -0.281141921689     -0.437136095232     
7100000000.0        -0.286960469448     -0.439744189679     0.712655709184      -0.464119504683     0.712655709184      -0.464119504683     -0.286960469448     -0.439744189679     
7200000000.0        -0.292768213097     -0.442255694385     0.706839101684      -0.466985787527     0.706839101684      -0.466985787527     -0.292768213097     -0.442255694385     
7300000000.0        -0.298563447624     -0.444671968199     0.701034868288      -0.469757176207     0.701034868288      -0.469757176207     -0.298563447624     -0.444671968199     
7400000000.0        -0.30434452979      -0.446994391113     0.695244651869      -0.472435050738     0.695244651869      -0.472435050738     -0.30434452979      -0.446994391113     
7500000000.0        -0.310109877533     -0.449224361896     0.689470034119      -0.475020809912     0.689470034119      -0.475020809912     -0.310109877533     -0.449224361896     
7600000000.0        -0.315857969318     -0.451363295817     0.683712536207      -0.477515869017     0.683712536207      -0.477515869017     -0.315857969318     -0.451363295817     
7700000000.0        -0.321587343405     -0.453412622444     0.677973619503      -0.47992165764      0.677973619503      -0.47992165764      -0.321587343405     -0.453412622444     
7800000000.0        -0.327296597058     -0.455373783521     0.672254686377      -0.482239617546     0.672254686377      -0.482239617546     -0.327296597058     -0.455373783521     
7900000000.0        -0.332984385697     -0.45724823093      0.666557081037      -0.484471200638     0.666557081037      -0.484471200638     -0.332984385697     -0.45724823093      
8000000000.0        -0.338649421998     -0.459037424737     0.66088209044       -0.486617867005     0.66088209044       -0.486617867005     -0.338649421998     -0.459037424737     
8100000000.0        -0.344290474942     -0.460742831311     0.655230945236      -0.488681083041     0.655230945236      -0.488681083041     -0.344290474942     -0.460742831311     
8200000000.0        -0.349906368824     -0.462365921528     0.649604820759      -0.490662319653     0.649604820759      -0.490662319653     -0.349906368824     -0.462365921528     
8300000000.0        -0.35549598222      -0.46390816906      0.644004838061      -0.492563050543     0.644004838061      -0.492563050543     -0.35549598222      -0.46390816906      
8400000000.0        -0.361058246928     -0.465371048731     0.638432064976      -0.494384750576     0.638432064976      -0.494384750576     -0.361058246928     -0.465371048731     
8500000000.0        -0.366592146868     -0.466756034965     0.632887517211      -0.496128894218     0.632887517211      -0.496128894218     -0.366592146868     -0.466756034965     
8600000000.0        -0.372096716964     -0.468064600304     0.627372159471      -0.497796954059     0.627372159471      -0.497796954059     -0.372096716964     -0.468064600304     
8700000000.0        -0.377571042003     -0.469298213997     0.621886906596      -0.499390399406     0.621886906596      -0.499390399406     -0.377571042003     -0.469298213997     
8800000000.0        -0.383014255473     -0.470458340679     0.616432624724      -0.500910694954     0.616432624724      -0.500910694954     -0.383014255473     -0.470458340679     
8900000000.0        -0.388425538391     -0.471546439106     0.611010132465      -0.502359299529     0.611010132465      -0.502359299529     -0.388425538391     -0.471546439106     
9000000000.0        -0.393804118114     -0.472563960972     0.605620202089      -0.503737664903     0.605620202089      -0.503737664903     -0.393804118114     -0.472563960972     
9100000000.0        -0.399149267144     -0.473512349793     0.600263560716      -0.505047234676     0.600263560716      -0.505047234676     -0.399149267144     -0.473512349793     
9200000000.0        -0.40446030193      -0.474393039855     0.594940891522      -0.506289443231     0.594940891522      -0.506289443231     -0.40446030193      -0.474393039855     
9300000000.0        -0.409736581665     -0.475207455238     0.589652834937      -0.507465714748     0.589652834937      -0.507465714748     -0.409736581665     -0.475207455238     
9400000000.0        -0.414977507082     -0.475957008891     0.584399989852      -0.50857746229      0.584399989852      -0.50857746229      -0.414977507082     -0.475957008891     
9500000000.0        -0.420182519251     -0.476643101781     0.579182914817      -0.509626086945     0.579182914817      -0.509626086945     -0.420182519251     -0.476643101781     
9600000000.0        -0.425351098388     -0.477267122095     0.574002129237      -0.510612977029     0.574002129237      -0.510612977029     -0.425351098388     -0.477267122095     
9700000000.0        -0.430482762662     -0.4778304445       0.568858114564      -0.511539507354     0.568858114564      -0.511539507354     -0.430482762662     -0.4778304445       
9800000000.0        -0.435577067012     -0.478334429468     0.563751315476      -0.51240703854      0.563751315476      -0.51240703854      -0.435577067012     -0.478334429468     
9900000000.0        -0.440633601979     -0.478780422643     0.558682141051      -0.513216916394     0.558682141051      -0.513216916394     -0.440633601979     -0.478780422643     
10000000000.0       -0.445651992546     -0.479169754267     0.553650965923      -0.513970471331     0.553650965923      -0.513970471331     -0.445651992546     -0.479169754267     
