# Hz S RI R 50.00 
100000000.0         -2.02446930175e-05  -0.00488229040426   0.999961562899      -0.00491051143506   0.999961562899      -0.00491051143506   -2.02446930175e-05  -0.00488229040426   
200000000.0         -9.69640316195e-05  -0.00976370122118   0.999884718281      -0.00982014478092   0.999884718281      -0.00982014478092   -9.69640316197e-05  -0.00976370122118   
300000000.0         -0.000221613402583  -0.0146434877927    0.999759974191      -0.014728156159     0.999759974191      -0.014728156159     -0.000221613402584  -0.0146434877927    
400000000.0         -0.000394143679607  -0.0195209157319    0.999587364109      -0.0196338117844    0.999587364109      -0.0196338117844    -0.000394143679607  -0.0195209157319    
500000000.0         -0.000614495838246  -0.0243952567017    0.999366941067      -0.0245363838328    0.999366941067      -0.0245363838328    -0.000614495838246  -0.0243952567017    
600000000.0         -0.000882597792578  -0.0292657870722    0.999098774106      -0.0294351491291    0.999098774106      -0.0294351491291    -0.000882597792578  -0.0292657870722    
700000000.0         -0.00119836369178   -0.0341317874901    0.998782947292      -0.0343293887317    0.998782947292      -0.0343293887317    -0.00119836369178   -0.0341317874901    
800000000.0         -0.00156169374886   -0.0389925427097    0.998419559257      -0.0392183877732    0.998419559257      -0.0392183877732    -0.00156169374886   -0.0389925427097    
900000000.0         -0.00197247423654   -0.0438473416395    0.998008722937      -0.0441014355129    0.998008722937      -0.0441014355129    -0.00197247423654   -0.0438473416395    
1000000000.0        -0.00243057755156   -0.0486954774388    0.997550565367      -0.0489778254381    0.997550565367      -0.0489778254381    -0.00243057755156   -0.0486954774388    
1100000000.0        -0.00293586231445   -0.0535362477052    0.997045227499      -0.0538468554538    0.997045227499      -0.0538468554538    -0.00293586231445   -0.0535362477052    
1200000000.0        -0.00348817348813   -0.0583689546684    0.996492864043      -0.0587078280801    0.996492864043      -0.0587078280801    -0.00348817348813   -0.0583689546684    
1300000000.0        -0.0040873425118    -0.0631929054303    0.995893643305      -0.0635600506935    0.995893643305      -0.0635600506935    -0.0040873425118    -0.0631929054303    
1400000000.0        -0.00473318744506   -0.0680074122007    0.995247747017      -0.0684028357639    0.995247747017      -0.0684028357639    -0.00473318744506   -0.0680074122007    
1500000000.0        -0.00542551312278   -0.0728117925566    0.994555370178      -0.0732355011156    0.994555370178      -0.0732355011156    -0.00542551312278   -0.0728117925566    
1600000000.0        -0.0061641113174    -0.0776053696928    0.993816720877      -0.0780573701791    0.993816720877      -0.0780573701791    -0.0061641113174    -0.0776053696928    
1700000000.0        -0.00694876091094   -0.0823874726911    0.993032020115      -0.0828677722607    0.993032020115      -0.0828677722607    -0.00694876091094   -0.0823874726911    
1800000000.0        -0.00777922807326   -0.087157436775     0.992201501626      -0.087666042798     0.992201501626      -0.087666042798     -0.00777922807326   -0.087157436775     
1900000000.0        -0.00865526644927   -0.0919146035744    0.991325411681      -0.0924515236255    0.991325411681      -0.0924515236255    -0.00865526644927   -0.0919146035744    
2000000000.0        -0.00957661735254   -0.0966583213823    0.990404008896      -0.097223563232     0.990404008896      -0.097223563232     -0.00957661735254   -0.0966583213823    
2100000000.0        -0.0105430099658    -0.101387945407     0.989437564024      -0.101981517013     0.989437564024      -0.101981517013     -0.0105430099658    -0.101387945407     
2200000000.0        -0.0115541615493    -0.106102838029     0.988426359753      -0.106724747527     0.988426359753      -0.106724747527     -0.0115541615493    -0.106102838029     
2300000000.0        -0.0126097776549    -0.110802369042     0.987370690484      -0.111452624741     0.987370690484      -0.111452624741     -0.0126097776549    -0.110802369042     
2400000000.0        -0.0137095523461    -0.115485915897     0.98627086211       -0.116164526267     0.98627086211       -0.116164526267     -0.0137095523461    -0.115485915897     
2500000000.0        -0.0148531684254    -0.120152863935     0.985127191793      -0.120859837608     0.985127191793      -0.120859837608     -0.0148531684254    -0.120152863935     
2600000000.0        -0.016040297667     -0.124802606622     0.983940007726      -0.125537952376     0.983940007726      -0.125537952376     -0.016040297667     -0.124802606622     
2700000000.0        -0.0172706010538    -0.129434545763     0.982709648896      -0.130198272522     0.982709648896      -0.130198272522     -0.0172706010538    -0.129434545763     
2800000000.0        -0.0185437290221    -0.134048091725     0.981436464842      -0.134840208551     0.981436464842      -0.134840208551     -0.0185437290221    -0.134048091725     
2900000000.0        -0.0198593217095    -0.138642663644     0.980120815401      -0.13946317973      0.980120815401      -0.13946317973      -0.0198593217095    -0.138642663644     
3000000000.0        -0.0212170092078    -0.143217689622     0.978763070461      -0.144066614289     0.978763070461      -0.144066614289     -0.0212170092078    -0.143217689622     
3100000000.0        -0.0226164118216    -0.14777260693      0.977363609699      -0.14864994962      0.977363609699      -0.14864994962      -0.0226164118216    -0.14777260693      
3200000000.0        -0.0240571403297    -0.152306862185     0.975922822317      -0.153212632455     0.975922822317      -0.153212632455     -0.0240571403297    -0.152306862185     
3300000000.0        -0.0255387962507    -0.156819911534     0.974441106781      -0.157754119051     0.974441106781      -0.157754119051     -0.0255387962507    -0.156819911534     
3400000000.0        -0.0270609721133    -0.16131122082      0.972918870548      -0.162273875359     0.972918870548      -0.162273875359     -0.0270609721133    -0.16131122082      
3500000000.0        -0.028623251728     -0.165780265749     0.971356529794      -0.166771377185     0.971356529794      -0.166771377185     -0.028623251728     -0.165780265749     
3600000000.0        -0.0302252104639    -0.170226532039     0.969754509138      -0.171246110343     0.969754509138      -0.171246110343     -0.0302252104639    -0.170226532039     
3700000000.0        -0.0318664155268    -0.174649515568     0.968113241364      -0.175697570804     0.968113241364      -0.175697570804     -0.0318664155268    -0.174649515568     
3800000000.0        -0.0335464262402    -0.179048722512     0.966433167136      -0.180125264831     0.966433167136      -0.180125264831     -0.0335464262402    -0.179048722512     
3900000000.0        -0.0352647943286    -0.183423669468     0.964714734721      -0.184528709107     0.964714734721      -0.184528709107     -0.0352647943286    -0.183423669468     
4000000000.0        -0.0370210642022    -0.187773883583     0.962958399701      -0.188907430856     0.962958399701      -0.188907430856     -0.0370210642022    -0.187773883583     
4100000000.0        -0.0388147732436    -0.192098902657     0.961164624683      -0.193260967954     0.961164624683      -0.193260967954     -0.0388147732436    -0.192098902657     
4200000000.0        -0.0406454520961    -0.19639827525      0.959333879019      -0.197588869035     0.959333879019      -0.197588869035     -0.0406454520961    -0.19639827525      
4300000000.0        -0.0425126249512    -0.200671560777     0.957466638508      -0.20189069358      0.957466638508      -0.20189069358      -0.0425126249512    -0.200671560777     
4400000000.0        -0.0444158098395    -0.204918329593     0.955563385115      -0.20616601201      0.955563385115      -0.20616601201      -0.0444158098395    -0.204918329593     
4500000000.0        -0.0463545189194    -0.209138163068     0.953624606674      -0.210414405756     0.953624606674      -0.210414405756     -0.0463545189194    -0.209138163068     
4600000000.0        -0.048328258768     -0.21333065366      0.951650796603      -0.214635467335     0.951650796603      -0.214635467335     -0.048328258768     -0.21333065366      
4700000000.0        -0.0503365306701    -0.217495404975     0.949642453611      -0.218828800406     0.949642453611      -0.218828800406     -0.0503365306701    -0.217495404975     
4800000000.0        -0.0523788309086    -0.221632031818     0.947600081411      -0.222994019825     0.947600081411      -0.222994019825     -0.0523788309086    -0.221632031818     
4900000000.0        -0.0544546510519    -0.225740160235     0.94552418843       -0.227130751689     0.94552418843       -0.227130751689     -0.0544546510519    -0.225740160235     
5000000000.0        -0.0565634782432    -0.229819427555     0.94341528752       -0.23123863337      0.94341528752       -0.23123863337      -0.0565634782432    -0.229819427555     
5100000000.0        -0.0587047954859    -0.233869482412     0.941273895675      -0.235317313546     0.941273895675      -0.235317313546     -0.0587047954859    -0.233869482412     
5200000000.0        -0.0608780819295    -0.237889984768     0.939100533739      -0.239366452218     0.939100533739      -0.239366452218     -0.0608780819295    -0.237889984768     
5300000000.0        -0.0630828131528    -0.241880605926     0.936895726132      -0.243385720726     0.936895726132      -0.243385720726     -0.0630828131528    -0.241880605926     
5400000000.0        -0.0653184614454    -0.245841028531     0.93466000056       -0.247374801748     0.93466000056       -0.247374801748     -0.0653184614454    -0.245841028531     
5500000000.0        -0.0675844960876    -0.249770946569     0.932393887739      -0.251333389304     0.932393887739      -0.251333389304     -0.0675844960876    -0.249770946569     
5600000000.0        -0.0698803836265    -0.253670065356     0.93009792112       -0.255261188739     0.93009792112       -0.255261188739     -0.0698803836265    -0.253670065356     
5700000000.0        -0.0722055881518    -0.257538101522     0.927772636609      -0.259157916707     0.927772636609      -0.259157916707     -0.0722055881518    -0.257538101522     
5800000000.0        -0.0745595715664    -0.26137478298      0.925418572302      -0.263023301148     0.925418572302      -0.263023301148     -0.0745595715664    -0.26137478298      
5900000000.0        -0.0769417938559    -0.265179848902     0.923036268211      -0.266857081255     0.923036268211      -0.266857081255     -0.0769417938559    -0.265179848902     
6000000000.0        -0.0793517133539    -0.268953049672     0.920626265998      -0.270659007432     0.920626265998      -0.270659007432     -0.0793517133539    -0.268953049672     
6100000000.0        -0.0817887870039    -0.272694146847     0.918189108719      -0.274428841253     0.918189108719      -0.274428841253     -0.0817887870039    -0.272694146847     
6200000000.0        -0.084252470619     -0.276402913101     0.915725340557      -0.278166355406     0.915725340557      -0.278166355406     -0.084252470619     -0.276402913101     
6300000000.0        -0.0867422191359    -0.280079132164     0.913235506576      -0.281871333638     0.913235506576      -0.281871333638     -0.0867422191359    -0.280079132164     
6400000000.0        -0.0892574868666    -0.283722598765     0.910720152459      -0.285543570687     0.910720152459      -0.285543570687     -0.0892574868666    -0.283722598765     
6500000000.0        -0.0917977277457    -0.287333118554     0.908179824271      -0.289182872212     0.908179824271      -0.289182872212     -0.0917977277457    -0.287333118554     
6600000000.0        -0.094362395573     -0.290910508029     0.905615068211      -0.292789054719     0.905615068211      -0.292789054719     -0.094362395573     -0.290910508029     
6700000000.0        -0.0969509442533    -0.294454594451     0.903026430371      -0.296361945476     0.903026430371      -0.296361945476     -0.0969509442533    -0.294454594451     
6800000000.0        -0.0995628280295    -0.297965215761     0.900414456508      -0.299901382426     0.900414456508      -0.299901382426     -0.0995628280295    -0.297965215761     
6900000000.0        -0.102197501713     -0.301442220483     0.897779691807      -0.303407214095     0.897779691807      -0.303407214095     -0.102197501713     -0.301442220483     
7000000000.0        -0.104854420911     -0.304885467627     0.895122680662      -0.306879299494     0.895122680662      -0.306879299494     -0.104854420911     -0.304885467627     
7100000000.0        -0.107533042243     -0.308294826587     0.89244396645       -0.310317508018     0.89244396645       -0.310317508018     -0.107533042243     -0.308294826587     
7200000000.0        -0.11023282356      -0.311670177035     0.88974409132       -0.313721719332     0.88974409132       -0.313721719332     -0.11023282356      -0.311670177035     
7300000000.0        -0.112953224155     -0.315011408804     0.887023595977      -0.317091823268     0.887023595977      -0.317091823268     -0.112953224155     -0.315011408804     
7400000000.0        -0.115693704966     -0.318318421779     0.884283019482      -0.320427719703     0.884283019482      -0.320427719703     -0.115693704966     -0.318318421779     
7500000000.0        -0.118453728781     -0.321591125771     0.881522899044      -0.323729318442     0.881522899044      -0.323729318442     -0.118453728781     -0.321591125771     
7600000000.0        -0.121232760431     -0.324829440395     0.878743769833      -0.326996539092     0.878743769833      -0.326996539092     -0.121232760431     -0.324829440395     
7700000000.0        -0.124030266983     -0.328033294943     0.875946164781      -0.330229310934     0.875946164781      -0.330229310934     -0.124030266983     -0.328033294943     
7800000000.0        -0.126845717923     -0.331202628253     0.873130614401      -0.333427572793     0.873130614401      -0.333427572793     -0.126845717923     -0.331202628253     
7900000000.0        -0.129678585336     -0.334337388571     0.870297646605      -0.336591272905     0.870297646605      -0.336591272905     -0.129678585336     -0.334337388571     
8000000000.0        -0.132528344083     -0.337437533419     0.867447786532      -0.339720368777     0.867447786532      -0.339720368777     -0.132528344083     -0.337437533419     
8100000000.0        -0.135394471972     -0.340503029449     0.864581556375      -0.342814827046     0.864581556375      -0.342814827046     -0.135394471972     -0.340503029449     
8200000000.0        -0.138276449916     -0.343533852304     0.861699475218      -0.345874623338     0.861699475218      -0.345874623338     -0.138276449916     -0.343533852304     
8300000000.0        -0.141173762099     -0.34652998647      0.858802058876      -0.348899742122     0.858802058876      -0.348899742122     -0.141173762099     -0.34652998647      
8400000000.0        -0.144085896126     -0.349491425128     0.855889819744      -0.351890176561     0.855889819744      -0.351890176561     -0.144085896126     -0.349491425128     
8500000000.0        -0.147012343172     -0.352418170004     0.852963266645      -0.354845928361     0.852963266645      -0.354845928361     -0.147012343172     -0.352418170004     
8600000000.0        -0.149952598125     -0.355310231219     0.850022904692      -0.357767007623     0.850022904692      -0.357767007623     -0.149952598125     -0.355310231219     
8700000000.0        -0.152906159725     -0.358167627132     0.847069235143      -0.360653432684     0.847069235143      -0.360653432684     -0.152906159725     -0.358167627132     
8800000000.0        -0.155872530693     -0.360990384185     0.844102755277      -0.363505229963     0.844102755277      -0.363505229963     -0.155872530693     -0.360990384185     
8900000000.0        -0.158851217863     -0.363778536745     0.841123958259      -0.366322433805     0.841123958259      -0.366322433805     -0.158851217863     -0.363778536745     
9000000000.0        -0.161841732299     -0.366532126951     0.838133333024      -0.369105086322     0.838133333024      -0.369105086322     -0.161841732299     -0.366532126951     
9100000000.0        -0.164843589416     -0.369251204547     0.835131364156      -0.371853237236     0.835131364156      -0.371853237236     -0.164843589416     -0.369251204547     
9200000000.0        -0.167856309088     -0.371935826725     0.832118531782      -0.374566943711     0.832118531782      -0.374566943711     -0.167856309088     -0.371935826725     
9300000000.0        -0.170879415756     -0.374586057967     0.829095311458      -0.377246270202     0.829095311458      -0.377246270202     -0.170879415756     -0.374586057967     
9400000000.0        -0.17391243853      -0.377201969875     0.826062174075      -0.379891288285     0.826062174075      -0.379891288285     -0.17391243853      -0.377201969875     
9500000000.0        -0.176954911285     -0.379783641018     0.823019585758      -0.382502076499     0.823019585758      -0.382502076499     -0.176954911285     -0.379783641018     
9600000000.0        -0.180006372749     -0.382331156762     0.819968007777      -0.385078720181     0.819968007777      -0.385078720181     -0.180006372749     -0.382331156762     
9700000000.0        -0.183066366595     -0.384844609109     0.816907896459      -0.387621311305     0.816907896459      -0.387621311305     -0.183066366595     -0.384844609109     
9800000000.0        -0.186134441519     -0.387324096537     0.813839703107      -0.390129948317     0.813839703107      -0.390129948317     -0.186134441519     -0.387324096537     
9900000000.0        -0.189210151316     -0.389769723832     0.810763873926      -0.392604735972     0.810763873926      -0.392604735972     -0.189210151316     -0.389769723832     
10000000000.0       -0.192293054956     -0.392181601929     0.807680849945      -0.395045785174     0.807680849945      -0.395045785174     -0.192293054956     -0.392181601929     
