# Hz S RI R 50.00 
100000000.0         0.00767005762237    0.000915698728659   0.992325299181      -0.00283106636396   0.992325299181      -0.00283106636396   0.00767005762237    0.000915698728659   
200000000.0         0.00772763084344    0.00183098654507    0.992260404518      -0.00566171728119   0.992260404518      -0.00566171728119   0.00772763084344    0.00183098654507    
300000000.0         0.00777694851869    0.00274598494574    0.992200086985      -0.00849207373684   0.992200086985      -0.00849207373684   0.00777694851869    0.00274598494574    
400000000.0         0.00782463120816    0.00366071530763    0.992137725853      -0.0113221559011    0.992137725853      -0.0113221559011    0.00782463120816    0.00366071530762    
500000000.0         0.00787322952958    0.00457517582124    0.992070770326      -0.0141519604108    0.992070770326      -0.0141519604108    0.00787322952958    0.00457517582124    
600000000.0         0.00792404434304    0.00548935444948    0.991997919348      -0.0169814734497    0.991997919348      -0.0169814734497    0.00792404434304    0.00548935444948    
700000000.0         0.00797784382985    0.00640323357169    0.991918404522      -0.0198106754548    0.991918404522      -0.0198106754548    0.00797784382985    0.00640323357169    
800000000.0         0.00803512525253    0.00731679213312    0.991831728353      -0.0226395433026    0.991831728353      -0.0226395433026    0.00803512525253    0.00731679213312    
900000000.0         0.00809623152354    0.00823000679715    0.991737547675      -0.0254680514855    0.991737547675      -0.0254680514855    0.00809623152354    0.00823000679715    
1000000000.0        0.00816141030078    0.00914285262611    0.991635614557      -0.0282961728094    0.991635614557      -0.0282961728094    0.00816141030078    0.00914285262611    
1100000000.0        0.00823084684287    0.0100553035129     0.991525743448      -0.031123878838     0.991525743448      -0.031123878838     0.00823084684287    0.0100553035129     
1200000000.0        0.00830468358943    0.0109673324699     0.991407791598      -0.0339511401911    0.991407791598      -0.0339511401911    0.00830468358943    0.0109673324699     
1300000000.0        0.00838303248151    0.0118789118301     0.991281646732      -0.036777926753     0.991281646732      -0.036777926753     0.00838303248151    0.0118789118301     
1400000000.0        0.00846598306088    0.0127900133925     0.991147218959      -0.0396042078238    0.991147218959      -0.0396042078238    0.00846598306088    0.0127900133925     
1500000000.0        0.00855360798969    0.0137006085302     0.991004435245      -0.0424299522324    0.991004435245      -0.0424299522324    0.00855360798969    0.0137006085302     
1600000000.0        0.00864596692749    0.0146106682723     0.990853235542      -0.0452551284222    0.990853235542      -0.0452551284222    0.00864596692749    0.0146106682723     
1700000000.0        0.00874310932563    0.0155201633679     0.99069356999       -0.0480797045186    0.99069356999       -0.0480797045186    0.00874310932563    0.0155201633679     
1800000000.0        0.00884507648632    0.0164290643361     0.990525396859      -0.050903648382     0.990525396859      -0.050903648382     0.00884507648632    0.0164290643361     
1900000000.0        0.0089519031096     0.017337341507      0.990348681002      -0.0537269276505    0.990348681002      -0.0537269276505    0.0089519031096     0.017337341507      
2000000000.0        0.00906361847543    0.0182449650544     0.990163392674      -0.0565495097755    0.990163392674      -0.0565495097755    0.00906361847543    0.0182449650544     
2100000000.0        0.00918024736065    0.0191519050232     0.989969506616      -0.0593713620504    0.989969506616      -0.0593713620504    0.00918024736065    0.0191519050232     
2200000000.0        0.00930181076002    0.0200581313521     0.989767001331      -0.062192451635     0.989767001331      -0.062192451635     0.00930181076002    0.0200581313521     
2300000000.0        0.00942832645989    0.0209636138927     0.989555858511      -0.0650127455763    0.989555858511      -0.0650127455763    0.00942832645989    0.0209636138927     
2400000000.0        0.00955980949989    0.0218683224262     0.989336062579      -0.067832210826     0.989336062579      -0.067832210826     0.00955980949989    0.0218683224262     
2500000000.0        0.00969627254793    0.0227722266771     0.98910760031       -0.0706508142557    0.98910760031       -0.0706508142557    0.00969627254793    0.0227722266771     
2600000000.0        0.00983772620778    0.0236752963259     0.988870460527      -0.07346852267      0.988870460527      -0.07346852267      0.00983772620778    0.0236752963259     
2700000000.0        0.00998417927331    0.0245775010194     0.988624633843      -0.0762853028184    0.988624633843      -0.0762853028184    0.0099841792733     0.0245775010194     
2800000000.0        0.0101356389403     0.0254788103803     0.988370112453      -0.0791011214054    0.988370112453      -0.0791011214054    0.0101356389403     0.0254788103803     
2900000000.0        0.0102921109843     0.0263791940159     0.988106889953      -0.0819159450994    0.988106889953      -0.0819159450994    0.0102921109843     0.0263791940159     
3000000000.0        0.0104535999103     0.0272786215249     0.987834961194      -0.0847297405413    0.987834961194      -0.0847297405413    0.0104535999103     0.0272786215249     
3100000000.0        0.010620109081      0.0281770625048     0.98755432215       -0.0875424743513    0.98755432215       -0.0875424743513    0.010620109081      0.0281770625048     
3200000000.0        0.0107916408249     0.0290744865577     0.987264969814      -0.090354113136     0.987264969814      -0.090354113136     0.0107916408249     0.0290744865577     
3300000000.0        0.0109681965306     0.0299708632958     0.986966902099      -0.0931646234941    0.986966902099      -0.0931646234941    0.0109681965306     0.0299708632958     
3400000000.0        0.0111497767272     0.0308661623468     0.986660117763      -0.0959739720223    0.986660117763      -0.0959739720223    0.0111497767272     0.0308661623468     
3500000000.0        0.0113363811546     0.0317603533583     0.986344616334      -0.09878212532      0.986344616334      -0.09878212532      0.0113363811546     0.0317603533583     
3600000000.0        0.0115280088244     0.032653406002      0.986020398052      -0.101589049994     0.986020398052      -0.101589049994     0.0115280088244     0.032653406002      
3700000000.0        0.0117246580735     0.0335452899782     0.985687463817      -0.104394712664     0.985687463817      -0.104394712664     0.0117246580735     0.0335452899782     
3800000000.0        0.0119263266111     0.0344359750191     0.985345815137      -0.107199079964     0.985345815137      -0.107199079964     0.0119263266111     0.0344359750191     
3900000000.0        0.0121330115596     0.0353254308926     0.984995454091      -0.11000211855      0.984995454091      -0.11000211855      0.0121330115596     0.0353254308926     
4000000000.0        0.0123447094919     0.0362136274055     0.984636383291      -0.112803795099     0.984636383291      -0.112803795099     0.0123447094919     0.0362136274055     
4100000000.0        0.0125614164634     0.0371005344063     0.98426860585       -0.115604076316     0.98426860585       -0.115604076316     0.0125614164634     0.0371005344063     
4200000000.0        0.0127831280411     0.0379861217889     0.983892125354      -0.118402928937     0.983892125354      -0.118402928937     0.0127831280411     0.0379861217889     
4300000000.0        0.0130098393298     0.0388703594947     0.983506945832      -0.121200319729     0.983506945832      -0.121200319729     0.0130098393298     0.0388703594947     
4400000000.0        0.0132415449946     0.0397532175155     0.98311307174       -0.123996215495     0.98311307174       -0.123996215495     0.0132415449946     0.0397532175155     
4500000000.0        0.0134782392825     0.0406346658962     0.982710507932      -0.126790583078     0.982710507932      -0.126790583078     0.0134782392825     0.0406346658962     
4600000000.0        0.013719916041      0.041514674737      0.982299259649      -0.12958338936      0.982299259649      -0.12958338936      0.013719916041      0.041514674737      
4700000000.0        0.0139665687346     0.0423932141961     0.981879332497      -0.13237460127      0.981879332497      -0.13237460127      0.0139665687346     0.0423932141961     
4800000000.0        0.0142181904612     0.0432702544916     0.981450732432      -0.135164185779     0.981450732432      -0.135164185779     0.0142181904612     0.0432702544916     
4900000000.0        0.0144747739652     0.0441457659038     0.981013465748      -0.137952109909     0.981013465748      -0.137952109909     0.0144747739652     0.0441457659038     
5000000000.0        0.0147363116506     0.0450197187774     0.980567539065      -0.140738340731     0.980567539065      -0.140738340731     0.0147363116506     0.0450197187774     
5100000000.0        0.0150027955931     0.0458920835235     0.980112959313      -0.143522845371     0.980112959313      -0.143522845371     0.0150027955931     0.0458920835235     
5200000000.0        0.0152742175501     0.0467628306215     0.979649733727      -0.146305591007     0.979649733727      -0.146305591007     0.0152742175501     0.0467628306215     
5300000000.0        0.0155505689708     0.0476319306213     0.979177869832      -0.149086544876     0.979177869832      -0.149086544876     0.0155505689708     0.0476319306213     
5400000000.0        0.0158318410054     0.0484993541448     0.978697375438      -0.151865674272     0.978697375438      -0.151865674272     0.0158318410054     0.0484993541448     
5500000000.0        0.0161180245133     0.0493650718878     0.978208258631      -0.154642946551     0.978208258631      -0.154642946551     0.0161180245133     0.0493650718878     
5600000000.0        0.0164091100707     0.0502290546222     0.977710527762      -0.157418329132     0.977710527762      -0.157418329132     0.0164091100707     0.0502290546222     
5700000000.0        0.0167050879778     0.0510912731973     0.977204191444      -0.160191789497     0.977204191444      -0.160191789497     0.0167050879778     0.0510912731973     
5800000000.0        0.0170059482654     0.0519516985415     0.976689258544      -0.162963295193     0.976689258544      -0.162963295193     0.0170059482654     0.0519516985415     
5900000000.0        0.0173116807013     0.0528103016644     0.976165738177      -0.165732813839     0.976165738177      -0.165732813839     0.0173116807013     0.0528103016644     
6000000000.0        0.0176222747956     0.0536670536579     0.9756336397        -0.168500313119     0.9756336397        -0.168500313119     0.0176222747956     0.0536670536579     
6100000000.0        0.0179377198066     0.0545219256981     0.975092972707      -0.171265760791     0.975092972707      -0.171265760791     0.0179377198066     0.0545219256981     
6200000000.0        0.0182580047455     0.055374889047      0.974543747022      -0.174029124684     0.974543747022      -0.174029124684     0.0182580047455     0.055374889047      
6300000000.0        0.0185831183809     0.0562259150537     0.973985972699      -0.176790372702     0.973985972699      -0.176790372702     0.0185831183809     0.0562259150537     
6400000000.0        0.0189130492439     0.0570749751562     0.973419660013      -0.179549472825     0.973419660013      -0.179549472825     0.0189130492439     0.0570749751562     
6500000000.0        0.0192477856318     0.0579220408826     0.972844819458      -0.182306393111     0.972844819458      -0.182306393111     0.0192477856318     0.0579220408826     
6600000000.0        0.0195873156122     0.058767083853      0.972261461743      -0.185061101696     0.972261461743      -0.185061101696     0.0195873156122     0.058767083853      
6700000000.0        0.0199316270267     0.0596100757806     0.971669597788      -0.187813566795     0.971669597788      -0.187813566795     0.0199316270267     0.0596100757806     
6800000000.0        0.0202807074945     0.0604509884732     0.971069238721      -0.190563756707     0.971069238721      -0.190563756707     0.0202807074945     0.0604509884732     
6900000000.0        0.0206345444157     0.0612897938346     0.970460395872      -0.193311639814     0.970460395872      -0.193311639814     0.0206345444157     0.0612897938346     
7000000000.0        0.0209931249747     0.0621264638663     0.969843080774      -0.196057184581     0.969843080774      -0.196057184581     0.0209931249747     0.0621264638663     
7100000000.0        0.0213564361431     0.0629609706681     0.969217305159      -0.198800359559     0.969217305159      -0.198800359559     0.0213564361431     0.0629609706681     
7200000000.0        0.0217244646826     0.0637932864403     0.968583080952      -0.201541133388     0.968583080952      -0.201541133388     0.0217244646826     0.0637932864403     
7300000000.0        0.022097197148      0.0646233834846     0.967940420271      -0.204279474796     0.967940420271      -0.204279474796     0.022097197148      0.0646233834846     
7400000000.0        0.0224746198895     0.0654512342052     0.967289335424      -0.207015352599     0.967289335424      -0.207015352599     0.0224746198895     0.0654512342052     
7500000000.0        0.022856719056      0.0662768111108     0.966629838907      -0.209748735705     0.966629838907      -0.209748735705     0.022856719056      0.0662768111108     
7600000000.0        0.0232434805966     0.0671000868151     0.9659619434        -0.212479593117     0.9659619434        -0.212479593117     0.0232434805966     0.0671000868151     
7700000000.0        0.0236348902641     0.0679210340383     0.965285661764      -0.215207893927     0.965285661764      -0.215207893927     0.0236348902641     0.0679210340383     
7800000000.0        0.0240309336162     0.0687396256088     0.964601007044      -0.217933607326     0.964601007044      -0.217933607326     0.0240309336162     0.0687396256088     
7900000000.0        0.0244315960188     0.0695558344638     0.963907992458      -0.220656702598     0.963907992458      -0.220656702598     0.0244315960188     0.0695558344638     
8000000000.0        0.0248368626473     0.0703696336507     0.963206631404      -0.223377149127     0.963206631404      -0.223377149127     0.0248368626473     0.0703696336507     
8100000000.0        0.0252467184894     0.0711809963286     0.962496937452      -0.226094916393     0.962496937452      -0.226094916393     0.0252467184894     0.0711809963286     
8200000000.0        0.0256611483465     0.0719898957692     0.961778924344      -0.228809973976     0.961778924344      -0.228809973976     0.0256611483465     0.0719898957692     
8300000000.0        0.0260801368362     0.0727963053578     0.961052605991      -0.231522291559     0.961052605991      -0.231522291559     0.0260801368362     0.0727963053578     
8400000000.0        0.0265036683942     0.0736001985948     0.960317996474      -0.234231838923     0.960317996474      -0.234231838923     0.0265036683942     0.0736001985948     
8500000000.0        0.0269317272758     0.0744015490969     0.959575110037      -0.236938585955     0.959575110037      -0.236938585955     0.0269317272758     0.0744015490969     
8600000000.0        0.0273642975583     0.0752003305977     0.958823961091      -0.239642502645     0.958823961091      -0.239642502645     0.0273642975583     0.0752003305977     
8700000000.0        0.0278013631423     0.0759965169494     0.958064564209      -0.242343559088     0.958064564209      -0.242343559088     0.0278013631423     0.0759965169494     
8800000000.0        0.0282429077539     0.0767900821236     0.957296934124      -0.245041725485     0.957296934124      -0.245041725485     0.0282429077539     0.0767900821236     
8900000000.0        0.0286889149461     0.0775810002124     0.956521085727      -0.247736972145     0.956521085727      -0.247736972145     0.0286889149461     0.0775810002124     
9000000000.0        0.0291393681009     0.0783692454295     0.955737034069      -0.250429269483     0.955737034069      -0.250429269483     0.0291393681009     0.0783692454295     
9100000000.0        0.0295942504305     0.0791547921112     0.954944794355      -0.253118588027     0.954944794355      -0.253118588027     0.0295942504305     0.0791547921112     
9200000000.0        0.0300535449794     0.0799376147177     0.954144381946      -0.255804898412     0.954144381946      -0.255804898412     0.0300535449794     0.0799376147177     
9300000000.0        0.0305172346258     0.0807176878339     0.953335812351      -0.258488171386     0.953335812351      -0.258488171386     0.0305172346258     0.0807176878339     
9400000000.0        0.0309853020831     0.0814949861704     0.952519101236      -0.261168377807     0.952519101236      -0.261168377807     0.0309853020831     0.0814949861704     
9500000000.0        0.031457729902      0.0822694845645     0.951694264412      -0.26384548865      0.951694264412      -0.26384548865      0.031457729902      0.0822694845645     
9600000000.0        0.0319345004713     0.0830411579815     0.95086131784       -0.266519475001     0.95086131784       -0.266519475001     0.0319345004713     0.0830411579815     
9700000000.0        0.0324155960201     0.0838099815154     0.950020277627      -0.269190308061     0.950020277627      -0.269190308061     0.0324155960201     0.0838099815154     
9800000000.0        0.032900998619      0.0845759303899     0.949171160025      -0.27185795915      0.949171160025      -0.27185795915      0.032900998619      0.0845759303899     
9900000000.0        0.0333906901817     0.0853389799593     0.948313981428      -0.274522399701     0.948313981428      -0.274522399701     0.0333906901817     0.0853389799593     
10000000000.0       0.0338846524666     0.0860991057098     0.947448758374      -0.277183601267     0.947448758374      -0.277183601267     0.0338846524666     0.0860991057098     
