# Hz S RI R 50.00 
100000000.0         0.000155460736567   -0.000245277558736  0.999842164643      -0.000715075981907  0.999842164643      -0.000715075981907  0.000155460736567   -0.000245277558736  
200000000.0         0.000155532018872   -0.000490561148063  0.999839796358      -0.00143016076739   0.999839796358      -0.00143016076739   0.000155532018872   -0.000490561148063  
300000000.0         0.000154978547238   -0.000735853135196  0.999837130365      -0.00214525993143   0.999837130365      -0.00214525993143   0.000154978547238   -0.000735853135196  
400000000.0         0.000153935726862   -0.000981155369041  0.999834031151      -0.00286037747009   0.999834031151      -0.00286037747009   0.000153935726861   -0.000981155369041  
500000000.0         0.000152455559966   -0.00122646936142   0.999830446592      -0.00357551665201   0.999830446592      -0.00357551665201   0.000152455559966   -0.00122646936142   
600000000.0         0.000150564479365   -0.00147179638969   0.999826350115      -0.00429068028418   0.999826350115      -0.00429068028418   0.000150564479365   -0.00147179638969   
700000000.0         0.0001482780359     -0.00171713755207   0.999821726015      -0.00500587084024   0.999821726015      -0.00500587084024   0.0001482780359     -0.00171713755207   
800000000.0         0.00014560625415    -0.00196249380406   0.999816564101      -0.00572109053729   0.999816564101      -0.00572109053729   0.00014560625415    -0.00196249380406   
900000000.0         0.000142556015131   -0.00220786598271   0.999810857315      -0.00643634138521   0.999810857315      -0.00643634138521   0.000142556015131   -0.00220786598271   
1000000000.0        0.00013913226298    -0.0024532548241    0.999804600523      -0.00715162522122   0.999804600523      -0.00715162522122   0.00013913226298    -0.0024532548241    
1100000000.0        0.000135338675348   -0.00269866097655   0.99979778985       -0.0078669437351    0.99979778985       -0.0078669437351    0.000135338675348   -0.00269866097655   
1200000000.0        0.00013117806252    -0.00294408501064   0.999790422278      -0.00858229848829   0.999790422278      -0.00858229848829   0.00013117806252    -0.00294408501064   
1300000000.0        0.000126652618429   -0.00318952742772   0.999782495397      -0.00929769092925   0.999782495397      -0.00929769092925   0.000126652618429   -0.00318952742772   
1400000000.0        0.000121764085513   -0.00343498866636   0.999774007243      -0.0100131224054    0.999774007243      -0.0100131224054    0.000121764085513   -0.00343498866636   
1500000000.0        0.000116513867031   -0.00368046910785   0.999764956181      -0.0107285941731    0.999764956181      -0.0107285941731    0.000116513867031   -0.00368046910785   
1600000000.0        0.000110903105929   -0.00392596908084   0.999755340832      -0.0114441074057    0.999755340832      -0.0114441074057    0.000110903105929   -0.00392596908084   
1700000000.0        0.000104932741631   -0.00417148886545   0.999745160013      -0.0121596632007    0.999745160013      -0.0121596632007    0.000104932741631   -0.00417148886545   
1800000000.0        9.86035519102e-05   -0.00441702869649   0.999734412697      -0.0128752625859    0.999734412697      -0.0128752625859    9.86035519104e-05   -0.00441702869649   
1900000000.0        9.19161843327e-05   -0.00466258876663   0.999723097984      -0.0135909065241    0.999723097984      -0.0135909065241    9.19161843325e-05   -0.00466258876663   
2000000000.0        8.48711802857e-05   -0.00490816922883   0.999711215071      -0.0143065959179    0.999711215071      -0.0143065959179    8.48711802854e-05   -0.00490816922883   
2100000000.0        7.74689936227e-05   -0.00515377019877   0.999698763242      -0.0150223316133    0.999698763242      -0.0150223316133    7.74689936225e-05   -0.00515377019877   
2200000000.0        6.97100053371e-05   -0.00539939175706   0.999685741847      -0.0157381144039    0.999685741847      -0.0157381144039    6.97100053371e-05   -0.00539939175706   
2300000000.0        6.15945352378e-05   -0.00564503395084   0.999672150294      -0.0164539450332    0.999672150294      -0.0164539450332    6.15945352378e-05   -0.00564503395084   
2400000000.0        5.31228513525e-05   -0.00589069679567   0.99965798804       -0.0171698241981    0.99965798804       -0.0171698241981    5.31228513525e-05   -0.00589069679567   
2500000000.0        4.42951775832e-05   -0.00613638027699   0.99964325458       -0.0178857525507    0.99964325458       -0.0178857525507    4.42951775832e-05   -0.00613638027699   
2600000000.0        3.51116999784e-05   -0.00638208435147   0.999627949445      -0.0186017307013    0.999627949445      -0.0186017307013    3.51116999784e-05   -0.00638208435147   
2700000000.0        2.55725719409e-05   -0.00662780894845   0.999612072198      -0.0193177592201    0.999612072198      -0.0193177592201    2.55725719409e-05   -0.00662780894845   
2800000000.0        1.56779185603e-05   -0.00687355397093   0.999595622424      -0.0200338386391    0.999595622424      -0.0200338386391    1.56779185603e-05   -0.00687355397093   
2900000000.0        5.42784026192e-06   -0.00711931929683   0.999578599732      -0.020749969454     0.999578599732      -0.020749969454     5.42784026192e-06   -0.00711931929683   
3000000000.0        -5.17758410201e-06  -0.00736510477986   0.999561003749      -0.0214661521258    0.999561003749      -0.0214661521258    -5.1775841019e-06   -0.00736510477986   
3100000000.0        -1.61382946284e-05  -0.00761091025052   0.999542834121      -0.0221823870822    0.999542834121      -0.0221823870822    -1.61382946287e-05  -0.00761091025052   
3200000000.0        -2.74542481097e-05  -0.00785673551706   0.999524090507      -0.0228986747189    0.999524090507      -0.0228986747189    -2.745424811e-05    -0.00785673551706   
3300000000.0        -3.91254160936e-05  -0.00810258036614   0.99950477258       -0.0236150154012    0.99950477258       -0.0236150154012    -3.91254160936e-05  -0.00810258036614   
3400000000.0        -5.11517832014e-05  -0.00834844456377   0.999484880024      -0.024331409465     0.999484880024      -0.024331409465     -5.1151783201e-05   -0.00834844456377   
3500000000.0        -6.35333456656e-05  -0.0085943278558    0.999464412533      -0.0250478572176    0.999464412533      -0.0250478572176    -6.35333456656e-05  -0.0085943278558    
3600000000.0        -7.6270110057e-05   -0.00884022996887   0.99944336981       -0.0257643589395    0.99944336981       -0.0257643589395    -7.6270110057e-05   -0.00884022996887   
3700000000.0        -8.93620921542e-05  -0.00908615061091   0.999421751568      -0.0264809148849    0.999421751568      -0.0264809148849    -8.9362092154e-05   -0.00908615061091   
3800000000.0        -0.00010280931596   -0.00933208947169   0.999399557525      -0.0271975252823    0.999399557525      -0.0271975252823    -0.000102809315959  -0.00933208947169   
3900000000.0        -0.000116611812819  -0.00957804622353   0.999376787407      -0.0279141903363    0.999376787407      -0.0279141903363    -0.000116611812819  -0.00957804622353   
4000000000.0        -0.00013076962065   -0.00982402052179   0.999353440946      -0.0286309102277    0.999353440946      -0.0286309102277    -0.000130769620649  -0.00982402052179   
4100000000.0        -0.000145282783233  -0.0100700120053    0.999329517878      -0.0293476851142    0.999329517878      -0.0293476851142    -0.000145282783233  -0.0100700120053    
4200000000.0        -0.000160151349609  -0.0103160202971    0.999305017947      -0.0300645151317    0.999305017947      -0.0300645151317    -0.000160151349609  -0.0103160202971    
4300000000.0        -0.000175375373506  -0.0105620450045    0.999279940897      -0.0307814003948    0.999279940897      -0.0307814003948    -0.000175375373506  -0.0105620450045    
4400000000.0        -0.000190954912841  -0.01080808572      0.999254286481      -0.0314983409971    0.999254286481      -0.0314983409971    -0.000190954912841  -0.01080808572      
4500000000.0        -0.00020689002927   -0.0110541420214    0.999228054452      -0.0322153370123    0.999228054452      -0.0322153370123    -0.000206890029269  -0.0110541420214    
4600000000.0        -0.000223180787769  -0.0113002134723    0.999201244569      -0.0329323884946    0.999201244569      -0.0329323884946    -0.000223180787769  -0.0113002134723    
4700000000.0        -0.00023982725627   -0.0115462996225    0.999173856593      -0.0336494954793    0.999173856593      -0.0336494954793    -0.00023982725627   -0.0115462996225    
4800000000.0        -0.000256829505312  -0.0117924000083    0.999145890287      -0.0343666579833    0.999145890287      -0.0343666579833    -0.000256829505313  -0.0117924000083    
4900000000.0        -0.000274187607734  -0.012038514153     0.99911734542       -0.0350838760057    0.99911734542       -0.0350838760057    -0.000274187607733  -0.012038514153     
5000000000.0        -0.000291901638384  -0.0122846415673    0.999088221761      -0.0358011495282    0.999088221761      -0.0358011495282    -0.000291901638385  -0.0122846415673    
5100000000.0        -0.000309971673874  -0.0125307817493    0.999058519082      -0.0365184785159    0.999058519082      -0.0365184785159    -0.000309971673873  -0.0125307817493    
5200000000.0        -0.000328397792319  -0.0127769341852    0.999028237157      -0.0372358629173    0.999028237157      -0.0372358629173    -0.000328397792319  -0.0127769341852    
5300000000.0        -0.000347180073129  -0.0130230983492    0.998997375765      -0.0379533026651    0.998997375765      -0.0379533026651    -0.000347180073129  -0.0130230983492    
5400000000.0        -0.000366318596804  -0.0132692737045    0.998965934682      -0.0386707976764    0.998965934682      -0.0386707976764    -0.000366318596804  -0.0132692737045    
5500000000.0        -0.000385813444738  -0.0135154597026    0.998933913691      -0.0393883478533    0.998933913691      -0.0393883478533    -0.000385813444738  -0.0135154597026    
5600000000.0        -0.000405664699048  -0.0137616557845    0.998901312575      -0.040105953083     0.998901312575      -0.040105953083     -0.000405664699048  -0.0137616557845    
5700000000.0        -0.000425872442409  -0.0140078613803    0.998868131117      -0.0408236132388    0.998868131117      -0.0408236132388    -0.000425872442409  -0.0140078613803    
5800000000.0        -0.000446436757904  -0.01425407591      0.998834369105      -0.0415413281796    0.998834369105      -0.0415413281796    -0.000446436757904  -0.01425407591      
5900000000.0        -0.000467357728884  -0.0145002987833    0.998800026326      -0.042259097751     0.998800026326      -0.042259097751     -0.000467357728884  -0.0145002987833    
6000000000.0        -0.000488635438829  -0.0147465294       0.998765102571      -0.0429769217852    0.998765102571      -0.0429769217852    -0.000488635438829  -0.0147465294       
6100000000.0        -0.000510269971232  -0.0149927671505    0.99872959763       -0.0436948001015    0.99872959763       -0.0436948001015    -0.000510269971233  -0.0149927671505    
6200000000.0        -0.000532261409479  -0.0152390114156    0.998693511297      -0.0444127325066    0.998693511297      -0.0444127325066    -0.000532261409479  -0.0152390114156    
6300000000.0        -0.000554609836741  -0.0154852615669    0.998656843366      -0.0451307187949    0.998656843366      -0.0451307187949    -0.000554609836741  -0.0154852615669    
6400000000.0        -0.000577315335869  -0.0157315169671    0.998619593634      -0.0458487587489    0.998619593634      -0.0458487587489    -0.000577315335869  -0.0157315169671    
6500000000.0        -0.000600377989307  -0.0159777769702    0.998581761898      -0.0465668521392    0.998581761898      -0.0465668521392    -0.000600377989307  -0.0159777769702    
6600000000.0        -0.000623797878989  -0.0162240409214    0.998543347956      -0.047284998725     0.998543347956      -0.047284998725     -0.000623797878989  -0.0162240409214    
6700000000.0        -0.000647575086267  -0.0164703081579    0.998504351609      -0.0480031982545    0.998504351609      -0.0480031982545    -0.000647575086267  -0.0164703081579    
6800000000.0        -0.000671709691815  -0.0167165780083    0.998464772659      -0.0487214504649    0.998464772659      -0.0487214504649    -0.000671709691814  -0.0167165780083    
6900000000.0        -0.000696201775566  -0.0169628497935    0.998424610909      -0.0494397550825    0.998424610909      -0.0494397550825    -0.000696201775566  -0.0169628497935    
7000000000.0        -0.000721051416633  -0.0172091228266    0.998383866163      -0.0501581118237    0.998383866163      -0.0501581118237    -0.000721051416633  -0.0172091228266    
7100000000.0        -0.000746258693243  -0.0174553964129    0.998342538228      -0.0508765203943    0.998342538228      -0.0508765203943    -0.000746258693243  -0.0174553964129    
7200000000.0        -0.00077182368267   -0.0177016698503    0.99830062691       -0.0515949804903    0.99830062691       -0.0515949804903    -0.00077182368267   -0.0177016698503    
7300000000.0        -0.000797746461175  -0.0179479424295    0.998258132019      -0.0523134917981    0.998258132019      -0.0523134917981    -0.000797746461175  -0.0179479424295    
7400000000.0        -0.000824027103945  -0.0181942134338    0.998215053364      -0.0530320539945    0.998215053364      -0.0530320539945    -0.000824027103945  -0.0181942134338    
7500000000.0        -0.000850665685044  -0.0184404821399    0.998171390756      -0.053750666747     0.998171390756      -0.053750666747     -0.000850665685043  -0.0184404821399    
7600000000.0        -0.000877662277347  -0.0186867478173    0.998127144008      -0.0544693297141    0.998127144008      -0.0544693297141    -0.000877662277347  -0.0186867478173    
7700000000.0        -0.000905016952503  -0.0189330097291    0.998082312934      -0.0551880425454    0.998082312934      -0.0551880425454    -0.000905016952503  -0.0189330097291    
7800000000.0        -0.000932729780878  -0.0191792671317    0.99803689735       -0.0559068048819    0.99803689735       -0.0559068048819    -0.000932729780878  -0.0191792671317    
7900000000.0        -0.000960800831512  -0.0194255192752    0.997990897072      -0.0566256163559    0.997990897072      -0.0566256163559    -0.000960800831512  -0.0194255192752    
8000000000.0        -0.000989230172075  -0.0196717654034    0.997944311918      -0.0573444765916    0.997944311918      -0.0573444765916    -0.000989230172075  -0.0196717654034    
8100000000.0        -0.00101801786882   -0.0199180047541    0.997897141707      -0.0580633852051    0.997897141707      -0.0580633852051    -0.00101801786882   -0.0199180047541    
8200000000.0        -0.00104716398656   -0.0201642365588    0.99784938626       -0.0587823418044    0.99784938626       -0.0587823418044    -0.00104716398656   -0.0201642365588    
8300000000.0        -0.00107666858859   -0.0204104600435    0.997801045399      -0.0595013459899    0.997801045399      -0.0595013459899    -0.00107666858859   -0.0204104600435    
8400000000.0        -0.00110653173671   -0.0206566744284    0.997752118948      -0.0602203973543    0.997752118948      -0.0602203973543    -0.00110653173671   -0.0206566744284    
8500000000.0        -0.00113675349112   -0.0209028789279    0.99770260673       -0.0609394954828    0.99770260673       -0.0609394954828    -0.00113675349112   -0.0209028789279    
8600000000.0        -0.00116733391046   -0.0211490727511    0.997652508573      -0.0616586399535    0.997652508573      -0.0616586399535    -0.00116733391046   -0.0211490727511    
8700000000.0        -0.0011982730517    -0.0213952551017    0.997601824304      -0.0623778303371    0.997601824304      -0.0623778303371    -0.0011982730517    -0.0213952551017    
8800000000.0        -0.00122957097018   -0.021641425178     0.997550553751      -0.0630970661977    0.997550553751      -0.0630970661977    -0.00122957097018   -0.021641425178     
8900000000.0        -0.00126122771952   -0.0218875821734    0.997498696745      -0.0638163470923    0.997498696745      -0.0638163470923    -0.00126122771952   -0.0218875821734    
9000000000.0        -0.00129324335164   -0.0221337252761    0.997446253117      -0.0645356725712    0.997446253117      -0.0645356725712    -0.00129324335164   -0.0221337252761    
9100000000.0        -0.0013256179167    -0.0223798536695    0.997393222701      -0.0652550421783    0.997393222701      -0.0652550421783    -0.0013256179167    -0.0223798536695    
9200000000.0        -0.00135835146309   -0.0226259665319    0.997339605331      -0.0659744554511    0.997339605331      -0.0659744554511    -0.00135835146309   -0.0226259665319    
9300000000.0        -0.00139144403738   -0.0228720630373    0.997285400842      -0.0666939119207    0.997285400842      -0.0666939119207    -0.00139144403738   -0.0228720630373    
9400000000.0        -0.00142489568434   -0.0231181423547    0.997230609072      -0.0674134111121    0.997230609072      -0.0674134111121    -0.00142489568434   -0.0231181423547    
9500000000.0        -0.00145870644687   -0.0233642036489    0.99717522986       -0.0681329525444    0.99717522986       -0.0681329525444    -0.00145870644687   -0.0233642036489    
9600000000.0        -0.00149287636599   -0.02361024608      0.997119263045      -0.0688525357306    0.997119263045      -0.0688525357306    -0.00149287636599   -0.02361024608      
9700000000.0        -0.00152740548086   -0.0238562688039    0.997062708469      -0.0695721601782    0.997062708469      -0.0695721601782    -0.00152740548086   -0.0238562688039    
9800000000.0        -0.00156229382867   -0.0241022709723    0.997005565976      -0.0702918253889    0.997005565976      -0.0702918253889    -0.00156229382867   -0.0241022709723    
9900000000.0        -0.00159754144472   -0.0243482517328    0.996947835408      -0.0710115308588    0.996947835408      -0.0710115308588    -0.00159754144472   -0.0243482517328    
10000000000.0       -0.00163314836232   -0.0245942102287    0.996889516613      -0.0717312760788    0.996889516613      -0.0717312760788    -0.00163314836231   -0.0245942102287    
