# Hz S RI R 50.00 
100000000.0         0.00300485262624    0.00111557487696    0.996991526011      -0.00264732219173   0.996991526011      -0.00264732219173   0.00300485262624    0.00111557487696    
200000000.0         0.00303299255418    0.00223096998138    0.996958415952      -0.00529448896564   0.996958415952      -0.00529448896564   0.00303299255418    0.00223096998138    
300000000.0         0.00306176773844    0.00334621279688    0.996922321606      -0.00794154202154   0.996922321606      -0.00794154202154   0.00306176773844    0.00334621279688    
400000000.0         0.00309377915775    0.00446129130046    0.996880641665      -0.0105884799926    0.996880641665      -0.0105884799926    0.00309377915775    0.00446129130046    
500000000.0         0.00313002806814    0.00557618431965    0.996832374479      -0.0132352905508    0.996832374479      -0.0132352905508    0.00313002806814    0.00557618431965    
600000000.0         0.00317102462535    0.00669086666645    0.996777009443      -0.0158819561577    0.996777009443      -0.0158819561577    0.00317102462535    0.00669086666645    
700000000.0         0.00321706968813    0.00780531098192    0.996714245197      -0.0185284562245    0.996714245197      -0.0185284562245    0.00321706968813    0.00780531098192    
800000000.0         0.00326835765821    0.0089194885914     0.996643886792      -0.0211747681569    0.996643886792      -0.0211747681569    0.00326835765821    0.0089194885914     
900000000.0         0.00332502226512    0.0100333699635     0.996565799904      -0.0238208679396    0.996565799904      -0.0238208679396    0.00332502226512    0.0100333699635     
1000000000.0        0.00338715977088    0.0111469249816     0.996479887636      -0.0264667304964    0.996479887636      -0.0264667304964    0.00338715977088    0.0111469249816     
1100000000.0        0.00345484186748    0.0122601231159     0.996386077621      -0.0291123299282    0.996386077621      -0.0291123299282    0.00345484186748    0.0122601231159     
1200000000.0        0.00352812336117    0.0133729335385     0.99628431434       -0.0317576396779    0.99628431434       -0.0317576396779    0.00352812336117    0.0133729335385     
1300000000.0        0.00360704700628    0.0144853252035     0.99617455429       -0.0344026326512    0.99617455429       -0.0344026326512    0.00360704700628    0.0144853252035     
1400000000.0        0.00369164668202    0.0155972669049     0.996056762808      -0.0370472813058    0.996056762808      -0.0370472813058    0.00369164668202    0.0155972669049     
1500000000.0        0.00378194955692    0.0167087273194     0.995930911911      -0.0396915577212    0.995930911911      -0.0396915577212    0.00378194955692    0.0167087273194     
1600000000.0        0.00387797760878    0.0178196750387     0.995796978773      -0.0423354336535    0.995796978773      -0.0423354336535    0.00387797760878    0.0178196750387     
1700000000.0        0.00397974871989    0.0189300785952     0.995654944634      -0.0449788805792    0.995654944634      -0.0449788805792    0.00397974871989    0.0189300785952     
1800000000.0        0.00408727748391    0.0200399064811     0.995504793995      -0.0476218697316    0.995504793995      -0.0476218697316    0.00408727748391    0.0200399064811     
1900000000.0        0.00420057581192    0.021149127165      0.995346514011      -0.0502643721305    0.995346514011      -0.0502643721305    0.00420057581192    0.021149127165      
2000000000.0        0.00431965339544    0.0222577091042     0.995180094028      -0.0529063586074    0.995180094028      -0.0529063586074    0.00431965339544    0.0222577091042     
2100000000.0        0.00444451806563    0.023365620756      0.995005525228      -0.0555477998275    0.995005525228      -0.0555477998275    0.00444451806563    0.023365620756      
2200000000.0        0.00457517607561    0.024472830586      0.994822800346      -0.0581886663078    0.994822800346      -0.0581886663078    0.00457517607561    0.024472830586      
2300000000.0        0.00471163232517    0.0255793070755     0.994631913447      -0.0608289284333    0.994631913447      -0.0608289284333    0.00471163232517    0.0255793070755     
2400000000.0        0.00485389054153    0.0266850187283     0.994432859742      -0.0634685564715    0.994432859742      -0.0634685564715    0.00485389054153    0.0266850187283     
2500000000.0        0.00500195342624    0.0277899340758     0.994225635449      -0.0661075205844    0.994225635449      -0.0661075205844    0.00500195342624    0.0277899340758     
2600000000.0        0.00515582277566    0.0288940216819     0.994010237665      -0.0687457908399    0.994010237665      -0.0687457908399    0.00515582277566    0.0288940216819     
2700000000.0        0.0053154995806     0.0299972501466     0.993786664275      -0.0713833372218    0.993786664275      -0.0713833372218    0.0053154995806     0.0299972501466     
2800000000.0        0.00548098410929    0.0310995881102     0.993554913865      -0.0740201296388    0.993554913865      -0.0740201296388    0.00548098410929    0.0310995881102     
2900000000.0        0.00565227597715    0.0322010042565     0.993314985652      -0.0766561379327    0.993314985652      -0.0766561379327    0.00565227597715    0.0322010042565     
3000000000.0        0.00582937420561    0.033301467315      0.993066879429      -0.0792913318856    0.993066879429      -0.0792913318856    0.00582937420561    0.033301467315      
3100000000.0        0.00601227727221    0.0344009460642     0.992810595514      -0.0819256812271    0.992810595514      -0.0819256812271    0.00601227727221    0.0344009460642     
3200000000.0        0.00620098315344    0.0354994093336     0.992546134708      -0.0845591556404    0.992546134708      -0.0845591556404    0.00620098315344    0.0354994093336     
3300000000.0        0.00639548936151    0.0365968260059     0.992273498258      -0.087191724768     0.992273498258      -0.087191724768     0.00639548936151    0.0365968260059     
3400000000.0        0.00659579297624    0.0376931650189     0.991992687827      -0.0898233582174    0.991992687827      -0.0898233582174    0.00659579297624    0.0376931650189     
3500000000.0        0.00680189067264    0.0387883953675     0.991703705463      -0.0924540255657    0.991703705463      -0.0924540255657    0.00680189067264    0.0387883953675     
3600000000.0        0.00701377874508    0.0398824861049     0.991406553582      -0.0950836963647    0.991406553582      -0.0950836963647    0.00701377874508    0.0398824861049     
3700000000.0        0.00723145312844    0.0409754063449     0.991101234943      -0.097712340145     0.991101234943      -0.097712340145     0.00723145312844    0.0409754063449     
3800000000.0        0.00745490941667    0.0420671252626     0.990787752627      -0.10033992642      0.990787752627      -0.10033992642      0.00745490941667    0.0420671252626     
3900000000.0        0.00768414287927    0.0431576120964     0.990466110029      -0.102966424691     0.990466110029      -0.102966424691     0.00768414287927    0.0431576120964     
4000000000.0        0.00791914847589    0.0442468361489     0.990136310836      -0.105591804449     0.990136310836      -0.105591804449     0.00791914847589    0.0442468361489     
4100000000.0        0.0081599208693     0.0453347667884     0.989798359019      -0.108216035179     0.989798359019      -0.108216035179     0.0081599208693     0.0453347667884     
4200000000.0        0.008406454437      0.0464213734499     0.98945225882       -0.110839086365     0.98945225882       -0.110839086365     0.008406454437      0.0464213734499     
4300000000.0        0.00865874328165    0.0475066256363     0.989098014742      -0.113460927489     0.989098014742      -0.113460927489     0.00865874328165    0.0475066256363     
4400000000.0        0.00891678124043    0.0485904929198     0.98873563154       -0.116081528039     0.98873563154       -0.116081528039     0.00891678124043    0.0485904929198     
4500000000.0        0.0091805618935     0.0496729449424     0.988365114215      -0.118700857508     0.988365114215      -0.118700857508     0.0091805618935     0.0496729449424     
4600000000.0        0.00945007857166    0.0507539514173     0.987986468002      -0.1213188854       0.987986468002      -0.1213188854       0.00945007857166    0.0507539514173     
4700000000.0        0.0097253243633     0.0518334821298     0.987599698369      -0.123935581229     0.987599698369      -0.123935581229     0.0097253243633     0.0518334821298     
4800000000.0        0.0100062921208     0.0529115069383     0.987204811005      -0.126550914524     0.987204811005      -0.126550914524     0.0100062921208     0.0529115069383     
4900000000.0        0.0102929744662     0.0539879957751     0.98680181182       -0.129164854832     0.98680181182       -0.129164854832     0.0102929744662     0.0539879957751     
5000000000.0        0.0105853637966     0.0550629186475     0.986390706938      -0.131777371718     0.986390706938      -0.131777371718     0.0105853637966     0.0550629186475     
5100000000.0        0.0108834522892     0.0561362456388     0.985971502689      -0.13438843477      0.985971502689      -0.13438843477      0.0108834522892     0.0561362456388     
5200000000.0        0.0111872319055     0.0572079469086     0.98554420561       -0.136998013598     0.98554420561       -0.136998013598     0.0111872319055     0.0572079469086     
5300000000.0        0.0114966943956     0.0582779926943     0.985108822439      -0.139606077838     0.985108822439      -0.139606077838     0.0114966943956     0.0582779926943     
5400000000.0        0.0118118313021     0.0593463533118     0.98466536011       -0.142212597157     0.98466536011       -0.142212597157     0.0118118313021     0.0593463533118     
5500000000.0        0.0121326339639     0.0604129991561     0.984213825752      -0.144817541248     0.984213825752      -0.144817541248     0.0121326339639     0.0604129991561     
5600000000.0        0.0124590935189     0.0614779007022     0.983754226684      -0.147420879838     0.983754226684      -0.147420879838     0.0124590935189     0.0614779007022     
5700000000.0        0.0127912009078     0.0625410285061     0.983286570412      -0.150022582688     0.983286570412      -0.150022582688     0.0127912009078     0.0625410285061     
5800000000.0        0.0131289468768     0.0636023532054     0.98281086463       -0.152622619594     0.98281086463       -0.152622619594     0.0131289468768     0.0636023532054     
5900000000.0        0.0134723219802     0.0646618455202     0.982327117211      -0.155220960389     0.982327117211      -0.155220960389     0.0134723219802     0.0646618455202     
6000000000.0        0.0138213165832     0.0657194762537     0.981835336212      -0.157817574945     0.981835336212      -0.157817574945     0.0138213165832     0.0657194762537     
6100000000.0        0.0141759208643     0.0667752162934     0.981335529865      -0.160412433178     0.981335529865      -0.160412433178     0.0141759208643     0.0667752162934     
6200000000.0        0.0145361248174     0.0678290366113     0.980827706578      -0.163005505043     0.980827706578      -0.163005505043     0.0145361248174     0.0678290366113     
6300000000.0        0.0149019182544     0.0688809082649     0.980311874936      -0.165596760539     0.980311874936      -0.165596760539     0.0149019182544     0.0688809082649     
6400000000.0        0.015273290807      0.0699308023982     0.979788043693      -0.168186169714     0.979788043693      -0.168186169714     0.015273290807      0.0699308023982     
6500000000.0        0.0156502319287     0.0709786902419     0.979256221774      -0.17077370266      0.979256221774      -0.17077370266      0.0156502319287     0.0709786902419     
6600000000.0        0.0160327308967     0.0720245431148     0.978716418273      -0.17335932952      0.978716418273      -0.17335932952      0.0160327308967     0.0720245431148     
6700000000.0        0.016420776814      0.0730683324238     0.97816864245       -0.175943020485     0.97816864245       -0.175943020485     0.016420776814      0.0730683324238     
6800000000.0        0.0168143586107     0.0741100296653     0.97761290373       -0.178524745801     0.97761290373       -0.178524745801     0.0168143586107     0.0741100296653     
6900000000.0        0.017213465046      0.0751496064254     0.977049211705      -0.181104475764     0.977049211705      -0.181104475764     0.017213465046      0.0751496064254     
7000000000.0        0.0176180847097     0.0761870343807     0.976477576124      -0.183682180726     0.976477576124      -0.183682180726     0.0176180847097     0.0761870343807     
7100000000.0        0.0180282060238     0.0772222852995     0.975898006902      -0.186257831095     0.975898006902      -0.186257831095     0.0180282060238     0.0772222852995     
7200000000.0        0.0184438172438     0.0782553310418     0.97531051411       -0.188831397335     0.97531051411       -0.188831397335     0.0184438172438     0.0782553310418     
7300000000.0        0.0188649064606     0.0792861435603     0.974715107979      -0.19140284997      0.974715107979      -0.19140284997      0.0188649064606     0.0792861435603     
7400000000.0        0.0192914616014     0.0803146949013     0.974111798897      -0.193972159583     0.974111798897      -0.193972159583     0.0192914616014     0.0803146949013     
7500000000.0        0.0197234704314     0.081340957205      0.973500597408      -0.196539296818     0.973500597408      -0.196539296818     0.0197234704314     0.081340957205      
7600000000.0        0.020160920555      0.0823649027063     0.972881514208      -0.199104232383     0.972881514208      -0.199104232383     0.020160920555      0.0823649027063     
7700000000.0        0.0206037994172     0.0833865037357     0.97225456015       -0.201666937046     0.97225456015       -0.201666937046     0.0206037994172     0.0833865037357     
7800000000.0        0.0210520943049     0.0844057327197     0.971619746238      -0.204227381643     0.971619746238      -0.204227381643     0.0210520943049     0.0844057327197     
7900000000.0        0.0215057923478     0.0854225621816     0.970977083627      -0.206785537076     0.970977083627      -0.206785537076     0.0215057923478     0.0854225621816     
8000000000.0        0.0219648805201     0.086436964742      0.970326583622      -0.20934137431      0.970326583622      -0.20934137431      0.0219648805201     0.086436964742      
8100000000.0        0.0224293456414     0.0874489131196     0.969668257677      -0.211894864384     0.969668257677      -0.211894864384     0.0224293456414     0.0874489131196     
8200000000.0        0.0228991743778     0.0884583801319     0.969002117394      -0.214445978401     0.969002117394      -0.214445978401     0.0228991743778     0.0884583801319     
8300000000.0        0.0233743532433     0.0894653386956     0.968328174524      -0.216994687539     0.968328174524      -0.216994687539     0.0233743532433     0.0894653386956     
8400000000.0        0.0238548686007     0.0904697618276     0.96764644096       -0.219540963044     0.96764644096       -0.219540963044     0.0238548686007     0.0904697618276     
8500000000.0        0.024340706663      0.0914716226453     0.966956928744      -0.222084776236     0.966956928744      -0.222084776236     0.024340706663      0.0914716226453     
8600000000.0        0.024831853494      0.0924708943674     0.966259650059      -0.224626098509     0.966259650059      -0.224626098509     0.024831853494      0.0924708943674     
8700000000.0        0.0253282950098     0.0934675503143     0.965554617233      -0.227164901332     0.965554617233      -0.227164901332     0.0253282950098     0.0934675503143     
8800000000.0        0.0258300169798     0.0944615639092     0.964841842737      -0.229701156247     0.964841842737      -0.229701156247     0.0258300169798     0.0944615639092     
8900000000.0        0.0263370050275     0.0954529086783     0.964121339179      -0.232234834877     0.964121339179      -0.232234834877     0.0263370050275     0.0954529086783     
9000000000.0        0.026849244632      0.0964415582515     0.963393119312      -0.234765908919     0.963393119312      -0.234765908919     0.026849244632      0.0964415582515     
9100000000.0        0.0273667211285     0.0974274863629     0.962657196026      -0.23729435015      0.962657196026      -0.23729435015      0.0273667211285     0.0974274863629     
9200000000.0        0.0278894197096     0.0984106668519     0.961913582349      -0.239820130426     0.961913582349      -0.239820130426     0.0278894197096     0.0984106668519     
9300000000.0        0.0284173254263     0.099391073663      0.961162291447      -0.242343221686     0.961162291447      -0.242343221686     0.0284173254263     0.099391073663      
9400000000.0        0.028950423189      0.100368680847      0.960403336624      -0.244863595948     0.960403336624      -0.244863595948     0.028950423189      0.100368680847      
9500000000.0        0.0294886977682     0.101343462562      0.959636731318      -0.247381225313     0.959636731318      -0.247381225313     0.0294886977682     0.101343462562      
9600000000.0        0.0300321337961     0.102315393072      0.958862489102      -0.249896081964     0.958862489102      -0.249896081964     0.0300321337961     0.102315393072      
9700000000.0        0.030580715767      0.103284446751      0.958080623684      -0.252408138172     0.958080623684      -0.252408138172     0.030580715767      0.103284446751      
9800000000.0        0.0311344280384     0.104250598079      0.957291148903      -0.25491736629      0.957291148903      -0.25491736629      0.0311344280384     0.104250598079      
9900000000.0        0.0316932548321     0.105213821646      0.956494078733      -0.257423738758     0.956494078733      -0.257423738758     0.0316932548321     0.105213821646      
10000000000.0       0.0322571802352     0.106174092153      0.955689427278      -0.259927228101     0.955689427278      -0.259927228101     0.0322571802352     0.106174092153      
