# Hz S RI R 50.00 
100000000.0         0.0357215730016     0.003546958865      0.964274379823      -0.00524688095184   0.964274379823      -0.00524688095184   0.0357215730016     0.003546958865      
200000000.0         0.0360065114464     0.00708924884806    0.963983468227      -0.0104891054375    0.963983468227      -0.0104891054375    0.0360065114464     0.00708924884806    
300000000.0         0.0362686276886     0.0106280430188     0.963712452233      -0.0157278586928    0.963712452233      -0.0157278586928    0.0362686276886     0.0106280430188     
400000000.0         0.0365379282024     0.0141634149819     0.963431324773      -0.0209632251161    0.963431324773      -0.0209632251161    0.0365379282024     0.0141634149819     
500000000.0         0.0368259566016     0.01769518353       0.963128541609      -0.0261950336044    0.963128541609      -0.0261950336044    0.0368259566016     0.01769518353       
600000000.0         0.0371385794343     0.0212230553198     0.962798235513      -0.0314230004698    0.962798235513      -0.0314230004698    0.0371385794343     0.0212230553198     
700000000.0         0.0374792383917     0.0247466761772     0.962436964051      -0.0366467808659    0.962436964051      -0.0366467808659    0.0374792383917     0.0247466761772     
800000000.0         0.0378501378506     0.0282656549575     0.962042522034      -0.0418659927219    0.962042522034      -0.0418659927219    0.0378501378506     0.0282656549575     
900000000.0         0.0382527738666     0.0317795764247     0.961613412525      -0.0470802296692    0.961613412525      -0.0470802296692    0.0382527738666     0.0317795764247     
1000000000.0        0.038688202426      0.035288008936      0.961148578581      -0.0522890687599    0.961148578581      -0.0522890687599    0.038688202426      0.035288008936      
1100000000.0        0.0391571886313     0.0387905093767     0.960647254069      -0.0574920754268    0.960647254069      -0.0574920754268    0.0391571886313     0.0387905093767     
1200000000.0        0.0396602956409     0.0422866265159     0.960108874724      -0.0626888068574    0.960108874724      -0.0626888068574    0.0396602956409     0.0422866265159     
1300000000.0        0.0401979406604     0.0457759033964     0.959533022159      -0.0678788143995    0.959533022159      -0.0678788143995    0.0401979406604     0.0457759033964     
1400000000.0        0.0407704317735     0.0492578791036     0.958919387031      -0.0730616453415    0.958919387031      -0.0730616453415    0.0407704317735     0.0492578791036     
1500000000.0        0.0413779930649     0.0527320901198     0.958267743922      -0.0782368442765    0.958267743922      -0.0782368442765    0.0413779930649     0.0527320901198     
1600000000.0        0.0420207822891     0.0561980713893     0.957577933665      -0.0834039541761    0.957577933665      -0.0834039541761    0.0420207822891     0.0561980713893     
1700000000.0        0.0426989036265     0.0596553571803     0.956849850592      -0.0885625172584    0.956849850592      -0.0885625172584    0.0426989036265     0.0596553571803     
1800000000.0        0.0434124171042     0.0631034817956     0.956083433111      -0.093712075705     0.956083433111      -0.093712075705     0.0434124171042     0.0631034817956     
1900000000.0        0.0441613456952     0.0665419801718     0.955278656607      -0.0988521722652    0.955278656607      -0.0988521722652    0.0441613456952     0.0665419801718     
2000000000.0        0.0449456807642     0.0699703883931     0.954435527998      -0.103982350774     0.954435527998      -0.103982350774     0.0449456807642     0.0699703883931     
2100000000.0        0.0457653863136     0.0733882441391     0.953554081485      -0.109102156605     0.953554081485      -0.109102156605     0.0457653863136     0.0733882441391     
2200000000.0        0.0466204023425     0.0767950870796     0.952634375199      -0.114211137067     0.952634375199      -0.114211137067     0.0466204023425     0.0767950870796     
2300000000.0        0.0475106475417     0.0801904592281     0.9516764885        -0.119308841759     0.9516764885        -0.119308841759     0.0475106475417     0.0801904592281     
2400000000.0        0.0484360214817     0.0835739052606     0.950680519792      -0.124394822897     0.950680519792      -0.124394822897     0.0484360214817     0.0835739052606     
2500000000.0        0.0493964064125     0.0869449728071     0.949646584725      -0.129468635603     0.949646584725      -0.129468635603     0.0493964064125     0.0869449728071     
2600000000.0        0.0503916687595     0.0903032127182     0.948574814695      -0.134529838177     0.948574814695      -0.134529838177     0.0503916687595     0.0903032127182     
2700000000.0        0.0514216603809     0.0936481793127     0.94746535559       -0.139577992342     0.94746535559       -0.139577992342     0.0514216603809     0.0936481793127     
2800000000.0        0.0524862196359     0.0969794306079     0.94631836672       -0.144612663483     0.94631836672       -0.144612663483     0.0524862196359     0.0969794306079     
2900000000.0        0.053585172301      0.100296528534      0.945134019901      -0.149633420857     0.945134019901      -0.149633420857     0.053585172301      0.100296528534      
3000000000.0        0.0547183323639     0.103599039138      0.943912498664      -0.154639837801     0.943912498664      -0.154639837801     0.0547183323639     0.103599039138      
3100000000.0        0.0558855027181     0.106886532771      0.942653997555      -0.159631491922     0.942653997555      -0.159631491922     0.0558855027181     0.106886532771      
3200000000.0        0.0570864757758     0.110158584271      0.941358721526      -0.164607965277     0.941358721526      -0.164607965277     0.0570864757758     0.110158584271      
3300000000.0        0.0583210340137     0.113414773132      0.940026885388      -0.169568844547     0.940026885388      -0.169568844547     0.0583210340137     0.113414773132      
3400000000.0        0.0595889504644     0.116654683665      0.938658713323      -0.174513721198     0.938658713323      -0.174513721198     0.0595889504644     0.116654683665      
3500000000.0        0.0608899891598     0.119877905153      0.937254438432      -0.179442191637     0.937254438432      -0.179442191637     0.0608899891598     0.119877905153      
3600000000.0        0.0622239055381     0.123084031993      0.93581430234       -0.184353857356     0.93581430234       -0.184353857356     0.0622239055381     0.123084031993      
3700000000.0        0.063590446816      0.126272663842      0.934338554811      -0.189248325075     0.934338554811      -0.189248325075     0.063590446816      0.126272663842      
3800000000.0        0.0649893523361     0.12944340574       0.932827453412      -0.19412520687      0.932827453412      -0.19412520687      0.0649893523361     0.12944340574       
3900000000.0        0.0664203538888     0.132595868243      0.931281263184      -0.198984120307     0.931281263184      -0.198984120307     0.0664203538888     0.132595868243      
4000000000.0        0.0678831760162     0.135729667539      0.92970025634       -0.203824688554     0.92970025634       -0.203824688554     0.0678831760162     0.135729667539      
4100000000.0        0.0693775362983     0.138844425562      0.928084711979      -0.208646540501     0.928084711979      -0.208646540501     0.0693775362983     0.138844425562      
4200000000.0        0.0709031456247     0.141939770098      0.926434915815      -0.213449310865     0.926434915815      -0.213449310865     0.0709031456247     0.141939770098      
4300000000.0        0.0724597084547     0.145015334893      0.924751159916      -0.218232640295     0.924751159916      -0.218232640295     0.0724597084547     0.145015334893      
4400000000.0        0.0740469230655     0.148070759742      0.923033742456      -0.222996175467     0.923033742456      -0.222996175467     0.0740469230655     0.148070759742      
4500000000.0        0.0756644817921     0.151105690587      0.921282967473      -0.227739569181     0.921282967473      -0.227739569181     0.0756644817921     0.151105690587      
4600000000.0        0.0773120712582     0.1541197796        0.919499144642      -0.232462480441     0.919499144642      -0.232462480441     0.0773120712582     0.1541197796        
4700000000.0        0.0789893726006     0.157112685266      0.917682589049      -0.237164574543     0.917682589049      -0.237164574543     0.0789893726006     0.157112685266      
4800000000.0        0.0806960616872     0.160084072459      0.915833620971      -0.241845523149     0.915833620971      -0.241845523149     0.0806960616872     0.160084072459      
4900000000.0        0.0824318093291     0.163033612513      0.913952565666      -0.246505004358     0.913952565666      -0.246505004358     0.0824318093291     0.163033612513      
5000000000.0        0.0841962814878     0.16596098329       0.912039753164      -0.251142702779     0.912039753164      -0.251142702779     0.0841962814878     0.16596098329       
5100000000.0        0.0859891394787     0.168865869241      0.910095518067      -0.255758309584     0.910095518067      -0.255758309584     0.0859891394787     0.168865869241      
5200000000.0        0.0878100401693     0.171747961465      0.908120199347      -0.260351522575     0.908120199347      -0.260351522575     0.0878100401693     0.171747961465      
5300000000.0        0.089658636175      0.174606957761      0.90611414015       -0.264922046234     0.90611414015       -0.264922046234     0.089658636175      0.174606957761      
5400000000.0        0.0915345760504     0.177442562675      0.904077687607      -0.269469591768     0.904077687607      -0.269469591768     0.0915345760504     0.177442562675      
5500000000.0        0.0934375044787     0.180254487547      0.902011192644      -0.273993877159     0.902011192644      -0.273993877159     0.0934375044787     0.180254487547      
5600000000.0        0.0953670624575     0.183042450549      0.899915009795      -0.278494627202     0.899915009795      -0.278494627202     0.0953670624575     0.183042450549      
5700000000.0        0.0973228874815     0.185806176721      0.897789497019      -0.282971573539     0.897789497019      -0.282971573539     0.0973228874815     0.185806176721      
5800000000.0        0.099304613724      0.188545398         0.895635015522      -0.287424454694     0.895635015522      -0.287424454694     0.099304613724      0.188545398         
5900000000.0        0.101311872215      0.191259853252      0.893451929573      -0.291853016095     0.893451929573      -0.291853016095     0.101311872215      0.191259853252      
6000000000.0        0.103344291015      0.193949288288      0.891240606333      -0.296257010102     0.891240606333      -0.296257010102     0.103344291015      0.193949288288      
6100000000.0        0.105401495394      0.196613455888      0.889001415679      -0.300636196023     0.889001415679      -0.300636196023     0.105401495394      0.196613455888      
6200000000.0        0.107483107996      0.199252115814      0.886734730032      -0.304990340131     0.886734730032      -0.304990340131     0.107483107996      0.199252115814      
6300000000.0        0.109588749015      0.201865034822      0.884440924189      -0.309319215674     0.884440924189      -0.309319215674     0.109588749015      0.201865034822      
6400000000.0        0.111718036355      0.204451986666      0.882120375156      -0.313622602882     0.882120375156      -0.313622602882     0.111718036355      0.204451986666      
6500000000.0        0.113870585803      0.207012752104      0.879773461981      -0.31790028897      0.879773461981      -0.31790028897      0.113870585803      0.207012752104      
6600000000.0        0.116046011186      0.209547118898      0.877400565591      -0.32215206814      0.877400565591      -0.32215206814      0.116046011186      0.209547118898      
6700000000.0        0.118243924534      0.212054881806      0.875002068633      -0.326377741573     0.875002068633      -0.326377741573     0.118243924534      0.212054881806      
6800000000.0        0.120463936238      0.21453584258       0.872578355312      -0.330577117428     0.872578355312      -0.330577117428     0.120463936238      0.21453584258       
6900000000.0        0.12270565521       0.216989809948      0.870129811238      -0.334750010822     0.870129811238      -0.334750010822     0.12270565521       0.216989809948      
7000000000.0        0.124968689033      0.219416599607      0.867656823267      -0.338896243823     0.867656823267      -0.338896243823     0.124968689033      0.219416599607      
7100000000.0        0.127252644115      0.221816034197      0.865159779353      -0.343015645428     0.865159779353      -0.343015645428     0.127252644115      0.221816034197      
7200000000.0        0.12955712584       0.224187943286      0.862639068392      -0.347108051545     0.862639068392      -0.347108051545     0.12955712584       0.224187943286      
7300000000.0        0.131881738717      0.226532163341      0.86009508008       -0.351173304964     0.86009508008       -0.351173304964     0.131881738717      0.226532163341      
7400000000.0        0.134226086523      0.228848537705      0.857528204762      -0.355211255333     0.857528204762      -0.355211255333     0.134226086523      0.228848537705      
7500000000.0        0.13658977245       0.23113691656       0.854938833288      -0.359221759128     0.854938833288      -0.359221759128     0.13658977245       0.23113691656       
7600000000.0        0.138972399243      0.233397156901      0.852327356878      -0.363204679615     0.852327356878      -0.363204679615     0.138972399243      0.233397156901      
7700000000.0        0.141373569343      0.23562912249       0.849694166972      -0.367159886817     0.849694166972      -0.367159886817     0.141373569343      0.23562912249       
7800000000.0        0.14379288502       0.237832683826      0.847039655103      -0.371087257474     0.847039655103      -0.371087257474     0.14379288502       0.237832683826      
7900000000.0        0.146229948512      0.240007718096      0.844364212756      -0.374986675002     0.844364212756      -0.374986675002     0.146229948512      0.240007718096      
8000000000.0        0.148684362151      0.242154109133      0.841668231239      -0.378858029445     0.841668231239      -0.378858029445     0.148684362151      0.242154109133      
8100000000.0        0.151155728499      0.244271747369      0.838952101549      -0.382701217428     0.838952101549      -0.382701217428     0.151155728499      0.244271747369      
8200000000.0        0.153643650473      0.246360529783      0.836216214249      -0.386516142112     0.836216214249      -0.386516142112     0.153643650473      0.246360529783      
8300000000.0        0.156147731468      0.24842035985       0.833460959341      -0.390302713135     0.833460959341      -0.390302713135     0.156147731468      0.24842035985       
8400000000.0        0.158667575483      0.250451147485      0.830686726142      -0.394060846562     0.830686726142      -0.394060846562     0.158667575483      0.250451147485      
8500000000.0        0.161202787237      0.25245280899       0.827893903164      -0.397790464827     0.827893903164      -0.397790464827     0.161202787237      0.25245280899       
8600000000.0        0.163752972292      0.254425266988      0.825082877999      -0.401491496672     0.825082877999      -0.401491496672     0.163752972292      0.254425266988      
8700000000.0        0.166317737161      0.256368450369      0.822254037199      -0.405163877088     0.822254037199      -0.405163877088     0.166317737161      0.256368450369      
8800000000.0        0.168896689428      0.258282294221      0.81940776617       -0.40880754725      0.81940776617       -0.40880754725      0.168896689428      0.258282294221      
8900000000.0        0.171489437853      0.260166739768      0.816544449053      -0.412422454455     0.816544449053      -0.412422454455     0.171489437853      0.260166739768      
9000000000.0        0.17409559248       0.262021734304      0.813664468624      -0.416008552051     0.813664468624      -0.416008552051     0.17409559248       0.262021734304      
9100000000.0        0.176714764742      0.26384723112       0.810768206185      -0.41956579937      0.810768206185      -0.41956579937      0.176714764742      0.26384723112       
9200000000.0        0.179346567567      0.265643189437      0.807856041462      -0.423094161659     0.807856041462      -0.423094161659     0.179346567567      0.265643189437      
9300000000.0        0.181990615471      0.267409574334      0.804928352507      -0.426593610006     0.804928352507      -0.426593610006     0.181990615471      0.267409574334      
9400000000.0        0.184646524661      0.269146356672      0.801985515597      -0.430064121267     0.801985515597      -0.430064121267     0.184646524661      0.269146356672      
9500000000.0        0.187313913125      0.270853513022      0.799027905143      -0.433505677991     0.799027905143      -0.433505677991     0.187313913125      0.270853513022      
9600000000.0        0.189992400727      0.272531025586      0.796055893595      -0.436918268345     0.796055893595      -0.436918268345     0.189992400727      0.272531025586      
9700000000.0        0.192681609296      0.27417888212       0.793069851354      -0.440301886032     0.793069851354      -0.440301886032     0.192681609296      0.27417888212       
9800000000.0        0.195381162711      0.275797075858      0.790070146686      -0.44365653022      0.790070146686      -0.44365653022      0.195381162711      0.275797075858      
9900000000.0        0.198090686985      0.277385605429      0.787057145633      -0.446982205453     0.787057145633      -0.446982205453     0.198090686985      0.277385605429      
10000000000.0       0.20080981035       0.278944474775      0.784031211937      -0.450278921576     0.784031211937      -0.450278921576     0.20080981035       0.278944474775      
