# Hz S RI R 50.00 
100000000.0         0.00511174118139    0.00128012464908    0.994881687644      -0.00381066870341   0.994881687644      -0.00381066870341   0.00511174118139    0.00128012464908    
200000000.0         0.00515921668641    0.0025598279112     0.994822226073      -0.00762091348519   0.994822226073      -0.00762091348519   0.00515921668641    0.0025598279112     
300000000.0         0.00520753917329    0.00383916798516    0.994755502259      -0.0114307935531    0.994755502259      -0.0114307935531    0.00520753917329    0.00383916798516    
400000000.0         0.00526112157983    0.00511811270283    0.994677102822      -0.0152402757127    0.994677102822      -0.0152402757127    0.00526112157983    0.00511811270283    
500000000.0         0.00532166115553    0.0063966090393     0.994585329991      -0.0190493048891    0.994585329991      -0.0190493048891    0.00532166115553    0.0063966090393     
600000000.0         0.00539002126248    0.00767459480999    0.994479319801      -0.0228578161787    0.994479319801      -0.0228578161787    0.00539002126248    0.00767459480999    
700000000.0         0.00546670968859    0.00895200286134    0.994358563778      -0.02666573922      0.994358563778      -0.02666573922      0.00546670968859    0.00895200286134    
800000000.0         0.00555205319153    0.010228763011      0.994222734406      -0.0304730002422    0.994222734406      -0.0304730002422    0.00555205319153    0.010228763011      
900000000.0         0.00564627520224    0.0115048030889     0.994071607413      -0.0342795231768    0.994071607413      -0.0342795231768    0.00564627520224    0.0115048030889     
1000000000.0        0.00574953520443    0.0127800495544     0.993905022405      -0.038085230324     0.993905022405      -0.038085230324     0.00574953520443    0.0127800495544     
1100000000.0        0.00586195062127    0.0140544278881     0.993722860972      -0.0418900427817    0.993722860972      -0.0418900427817    0.00586195062127    0.0140544278881     
1200000000.0        0.00598360985457    0.0153278628566     0.993525033656      -0.0456938807373    0.993525033656      -0.0456938807373    0.00598360985457    0.0153278628566     
1300000000.0        0.00611458048698    0.0166002786968     0.993311471745      -0.0494966636745    0.993311471745      -0.0494966636745    0.00611458048698    0.0166002786968     
1400000000.0        0.00625491467225    0.0178715992521     0.993082121889      -0.053298310526     0.993082121889      -0.053298310526     0.00625491467225    0.0178715992521     
1500000000.0        0.00640465280775    0.0191417480733     0.992836942425      -0.0570987397891    0.992836942425      -0.0570987397891    0.00640465280775    0.0191417480733     
1600000000.0        0.00656382611349    0.0204106484973     0.992575900801      -0.0608978696162    0.992575900801      -0.0608978696162    0.00656382611349    0.0204106484973     
1700000000.0        0.00673245849057    0.021678223709      0.992298971718      -0.0646956178861    0.992298971718      -0.0646956178861    0.00673245849057    0.021678223709      
1800000000.0        0.00691056789043    0.0229443967914     0.992006135759      -0.0684919022628    0.992006135759      -0.0684919022628    0.00691056789043    0.0229443967914     
1900000000.0        0.00709816734356    0.0242090907665     0.991697378368      -0.0722866402437    0.991697378368      -0.0722866402437    0.00709816734356    0.0242090907665     
2000000000.0        0.00729526574555    0.0254722286304     0.991372689055      -0.0760797492004    0.991372689055      -0.0760797492004    0.00729526574555    0.0254722286304     
2100000000.0        0.00750186846709    0.0267337333819     0.991032060797      -0.0798711464131    0.991032060797      -0.0798711464131    0.00750186846709    0.0267337333819     
2200000000.0        0.00771797783365    0.0279935280485     0.990675489551      -0.083660749101     0.990675489551      -0.083660749101     0.00771797783365    0.0279935280485     
2300000000.0        0.00794359350746    0.0292515357081     0.990302973875      -0.0874484744485    0.990302973875      -0.0874484744485    0.00794359350746    0.0292515357081     
2400000000.0        0.0081787127951     0.0305076795088     0.989914514626      -0.0912342396283    0.989914514626      -0.0912342396283    0.0081787127951     0.0305076795088     
2500000000.0        0.00842333089767    0.0317618826864     0.989510114702      -0.0950179618228    0.989510114702      -0.0950179618228    0.00842333089767    0.0317618826864     
2600000000.0        0.00867744111617    0.0330140685805     0.989089778844      -0.0987995582422    0.989089778844      -0.0987995582422    0.00867744111617    0.0330140685805     
2700000000.0        0.00894103502164    0.0342641606488     0.988653513462      -0.102578946142     0.988653513462      -0.102578946142     0.00894103502164    0.0342641606488     
2800000000.0        0.00921410259723    0.0355120824807     0.988201326498      -0.10635604284      0.988201326498      -0.10635604284      0.00921410259723    0.0355120824807     
2900000000.0        0.00949663235768    0.0367577578096     0.987733227301      -0.110130765728     0.987733227301      -0.110130765728     0.00949663235768    0.0367577578096     
3000000000.0        0.00978861145053    0.0380011105245     0.987249226532      -0.113903032288     0.987249226532      -0.113903032288     0.00978861145053    0.0380011105245     
3100000000.0        0.0100900257425     0.0392420646812     0.986749336076      -0.117672760103     0.986749336076      -0.117672760103     0.0100900257425     0.0392420646812     
3200000000.0        0.0104008598937     0.0404805445123     0.986233568967      -0.121439866872     0.986233568967      -0.121439866872     0.0104008598937     0.0404805445123     
3300000000.0        0.0107210974215     0.0417164744372     0.985701939326      -0.125204270417     0.985701939326      -0.125204270417     0.0107210974215     0.0417164744372     
3400000000.0        0.0110507207562     0.0429497790716     0.985154462305      -0.128965888697     0.985154462305      -0.128965888697     0.0110507207562     0.0429497790716     
3500000000.0        0.0113897112897     0.0441803832364     0.98459115404       -0.132724639817     0.98459115404       -0.132724639817     0.0113897112897     0.0441803832364     
3600000000.0        0.0117380494181     0.0454082119664     0.984012031606      -0.136480442037     0.984012031606      -0.136480442037     0.0117380494181     0.0454082119664     
3700000000.0        0.0120957145794     0.0466331905188     0.983417112985      -0.140233213784     0.983417112985      -0.140233213784     0.0120957145794     0.0466331905188     
3800000000.0        0.0124626852869     0.0478552443809     0.982806417027      -0.143982873658     0.982806417027      -0.143982873658     0.0124626852869     0.0478552443809     
3900000000.0        0.0128389391592     0.0490742992787     0.982179963422      -0.147729340442     0.982179963422      -0.147729340442     0.0128389391592     0.0490742992787     
4000000000.0        0.013224452947      0.0502902811837     0.981537772679      -0.151472533111     0.981537772679      -0.151472533111     0.013224452947      0.0502902811837     
4100000000.0        0.0136192025569     0.0515031163211     0.980879866093      -0.155212370841     0.980879866093      -0.155212370841     0.0136192025569     0.0515031163211     
4200000000.0        0.0140231630735     0.0527127311766     0.980206265731      -0.158948773012     0.980206265731      -0.158948773012     0.0140231630735     0.0527127311766     
4300000000.0        0.0144363087793     0.0539190525038     0.979516994411      -0.162681659223     0.979516994411      -0.162681659223     0.0144363087793     0.0539190525038     
4400000000.0        0.0148586131727     0.0551220073309     0.978812075679      -0.166410949293     0.978812075679      -0.166410949293     0.0148586131727     0.0551220073309     
4500000000.0        0.0152900489848     0.0563215229678     0.978091533801      -0.170136563274     0.978091533801      -0.170136563274     0.0152900489848     0.0563215229678     
4600000000.0        0.0157305881946     0.0575175270127     0.977355393741      -0.173858421452     0.977355393741      -0.173858421452     0.0157305881946     0.0575175270127     
4700000000.0        0.0161802020435     0.0587099473584     0.97660368115       -0.177576444359     0.97660368115       -0.177576444359     0.0161802020435     0.0587099473584     
4800000000.0        0.0166388610482     0.0598987121992     0.975836422354      -0.181290552779     0.975836422354      -0.181290552779     0.0166388610482     0.0598987121992     
4900000000.0        0.0171065350136     0.0610837500369     0.975053644339      -0.185000667752     0.975053644339      -0.185000667752     0.0171065350136     0.0610837500369     
5000000000.0        0.0175831930438     0.0622649896875     0.974255374742      -0.188706710582     0.974255374742      -0.188706710582     0.0175831930438     0.0622649896875     
5100000000.0        0.0180688035536     0.0634423602865     0.973441641841      -0.192408602846     0.973441641841      -0.192408602846     0.0180688035536     0.0634423602865     
5200000000.0        0.0185633342785     0.0646157912959     0.972612474541      -0.196106266395     0.972612474541      -0.196106266395     0.0185633342785     0.0646157912959     
5300000000.0        0.0190667522846     0.0657852125094     0.971767902368      -0.199799623367     0.971767902368      -0.199799623367     0.0190667522846     0.0657852125094     
5400000000.0        0.0195790239783     0.0669505540588     0.970907955459      -0.203488596186     0.970907955459      -0.203488596186     0.0195790239783     0.0669505540588     
5500000000.0        0.0201001151146     0.0681117464194     0.970032664554      -0.207173107572     0.970032664554      -0.207173107572     0.0201001151146     0.0681117464194     
5600000000.0        0.0206299908064     0.0692687204159     0.969142060985      -0.210853080546     0.969142060985      -0.210853080546     0.0206299908064     0.0692687204159     
5700000000.0        0.0211686155323     0.070421407228      0.968236176671      -0.214528438437     0.968236176671      -0.214528438437     0.0211686155323     0.070421407228      
5800000000.0        0.0217159531447     0.0715697383958     0.967315044109      -0.218199104885     0.967315044109      -0.218199104885     0.0217159531447     0.0715697383958     
5900000000.0        0.0222719668777     0.0727136458253     0.966378696366      -0.221865003849     0.966378696366      -0.221865003849     0.0222719668777     0.0727136458253     
6000000000.0        0.0228366193545     0.0738530617939     0.965427167074      -0.22552605961      0.965427167074      -0.22552605961      0.0228366193545     0.0738530617939     
6100000000.0        0.0234098725944     0.0749879189556     0.964460490418      -0.229182196778     0.964460490418      -0.229182196778     0.0234098725944     0.0749879189556     
6200000000.0        0.0239916880206     0.076118150346      0.963478701135      -0.232833340299     0.963478701135      -0.232833340299     0.0239916880206     0.076118150346      
6300000000.0        0.0245820264666     0.0772436893881     0.962481834503      -0.236479415456     0.962481834503      -0.236479415456     0.0245820264666     0.0772436893881     
6400000000.0        0.0251808481832     0.0783644698965     0.961469926338      -0.240120347878     0.961469926338      -0.240120347878     0.0251808481832     0.0783644698965     
6500000000.0        0.0257881128455     0.079480426083      0.960443012983      -0.24375606354      0.960443012983      -0.24375606354      0.0257881128455     0.079480426083      
6600000000.0        0.0264037795589     0.0805914925615     0.959401131305      -0.247386488775     0.959401131305      -0.247386488775     0.0264037795589     0.0805914925615     
6700000000.0        0.0270278068662     0.0816976043525     0.958344318689      -0.251011550274     0.958344318689      -0.251011550274     0.0270278068662     0.0816976043525     
6800000000.0        0.0276601527535     0.0827986968882     0.95727261303       -0.25463117509      0.95727261303       -0.25463117509      0.0276601527535     0.0827986968882     
6900000000.0        0.0283007746571     0.0838947060171     0.956186052725      -0.258245290645     0.956186052725      -0.258245290645     0.0283007746571     0.0838947060171     
7000000000.0        0.0289496294691     0.0849855680086     0.955084676674      -0.261853824736     0.955084676674      -0.261853824736     0.0289496294691     0.0849855680086     
7100000000.0        0.0296066735444     0.0860712195577     0.953968524265      -0.265456705536     0.953968524265      -0.265456705536     0.0296066735444     0.0860712195577     
7200000000.0        0.0302718627061     0.0871515977894     0.952837635375      -0.269053861598     0.952837635375      -0.269053861598     0.0302718627061     0.0871515977894     
7300000000.0        0.0309451522521     0.088226640263      0.951692050361      -0.272645221865     0.951692050361      -0.272645221865     0.0309451522521     0.088226640263      
7400000000.0        0.0316264969609     0.0892962849768     0.950531810054      -0.276230715667     0.950531810054      -0.276230715667     0.0316264969609     0.0892962849768     
7500000000.0        0.0323158510979     0.090360470372      0.949356955754      -0.279810272732     0.949356955754      -0.279810272732     0.0323158510979     0.090360470372      
7600000000.0        0.0330131684211     0.0914191353372     0.948167529226      -0.283383823182     0.948167529226      -0.283383823182     0.0330131684211     0.0914191353372     
7700000000.0        0.0337184021875     0.0924722192124     0.94696357269       -0.286951297548     0.94696357269       -0.286951297548     0.0337184021875     0.0924722192124     
7800000000.0        0.0344315051584     0.0935196617931     0.945745128817      -0.290512626761     0.945745128817      -0.290512626761     0.0344315051584     0.0935196617931     
7900000000.0        0.0351524296062     0.0945614033343     0.944512240726      -0.294067742168     0.944512240726      -0.294067742168     0.0351524296062     0.0945614033343     
8000000000.0        0.0358811273196     0.0955973845545     0.943264951974      -0.297616575528     0.943264951974      -0.297616575528     0.0358811273196     0.0955973845545     
8100000000.0        0.0366175496098     0.0966275466393     0.942003306553      -0.301159059017     0.942003306553      -0.301159059017     0.0366175496098     0.0966275466393     
8200000000.0        0.0373616473165     0.0976518312458     0.940727348884      -0.304695125234     0.940727348884      -0.304695125234     0.0373616473165     0.0976518312458     
8300000000.0        0.0381133708135     0.0986701805054     0.93943712381       -0.308224707203     0.93943712381       -0.308224707203     0.0381133708135     0.0986701805054     
8400000000.0        0.0388726700149     0.0996825370284     0.938132676592      -0.311747738378     0.938132676592      -0.311747738378     0.0388726700149     0.0996825370284     
8500000000.0        0.0396394943807     0.100688843907      0.9368140529        -0.315264152642     0.9368140529        -0.315264152642     0.0396394943807     0.100688843907      
8600000000.0        0.0404137929231     0.101689044719      0.935481298814      -0.318773884315     0.935481298814      -0.318773884315     0.0404137929231     0.101689044719      
8700000000.0        0.0411955142116     0.10268308353       0.934134460811      -0.322276868157     0.934134460811      -0.322276868157     0.0411955142116     0.10268308353       
8800000000.0        0.0419846063798     0.103670904901      0.932773585763      -0.325773039367     0.932773585763      -0.325773039367     0.0419846063798     0.103670904901      
8900000000.0        0.0427810171305     0.104652453885      0.93139872093       -0.329262333591     0.93139872093       -0.329262333591     0.0427810171305     0.104652453885      
9000000000.0        0.0435846937421     0.105627676036      0.930009913957      -0.332744686922     0.930009913957      -0.332744686922     0.0435846937421     0.105627676036      
9100000000.0        0.0443955830739     0.106596517411      0.928607212865      -0.336220035903     0.928607212865      -0.336220035903     0.0443955830739     0.106596517411      
9200000000.0        0.0452136315727     0.107558924568      0.927190666046      -0.339688317533     0.927190666046      -0.339688317533     0.0452136315727     0.107558924568      
9300000000.0        0.0460387852781     0.108514844579      0.925760322259      -0.343149469266     0.925760322259      -0.343149469266     0.0460387852781     0.108514844579      
9400000000.0        0.0468709898285     0.109464225021      0.924316230623      -0.346603429014     0.924316230623      -0.346603429014     0.0468709898285     0.109464225021      
9500000000.0        0.047710190467      0.110407013989      0.922858440612      -0.350050135152     0.922858440612      -0.350050135152     0.047710190467      0.110407013989      
9600000000.0        0.0485563320474     0.111343160094      0.921387002047      -0.353489526521     0.921387002047      -0.353489526521     0.0485563320474     0.111343160094      
9700000000.0        0.0494093590398     0.112272612466      0.919901965095      -0.356921542424     0.919901965095      -0.356921542424     0.0494093590398     0.112272612466      
9800000000.0        0.0502692155367     0.113195320757      0.918403380258      -0.360346122639     0.918403380258      -0.360346122639     0.0502692155367     0.113195320757      
9900000000.0        0.0511358452588     0.114111235143      0.916891298371      -0.363763207412     0.916891298371      -0.363763207412     0.0511358452588     0.114111235143      
10000000000.0       0.0520091915608     0.115020306329      0.915365770594      -0.367172737463     0.915365770594      -0.367172737463     0.0520091915608     0.115020306329      
