# Hz S RI R 50.00 
100000000.0         0.00042495925373    -0.00475905523926   0.999498029472      -0.00663871794814   0.999498029472      -0.00663871794814   0.00042495925373    -0.00475905523926   
200000000.0         0.000327776261523   -0.00951709386266   0.999389285169      -0.0132764431682    0.999389285169      -0.0132764431682    0.000327776261523   -0.00951709386266   
300000000.0         0.000166628586759   -0.0142731346038    0.999214645236      -0.0199122328797    0.999214645236      -0.0199122328797    0.000166628586759   -0.0142731346038    
400000000.0         -5.80366690944e-05  -0.0190261818577    0.998973757333      -0.026545119647     0.998973757333      -0.026545119647     -5.80366690945e-05  -0.0190261818577    
500000000.0         -0.000345998252849  -0.0237752328234    0.998666535071      -0.0331741253174    0.998666535071      -0.0331741253174    -0.000345998252849  -0.0237752328234    
600000000.0         -0.000697089843086  -0.0285192807928    0.998292987668      -0.0397982658431    0.998292987668      -0.0397982658431    -0.000697089843086  -0.0285192807928    
700000000.0         -0.00111115656364   -0.0332573171552    0.997853176811      -0.04641655395      0.997853176811      -0.04641655395      -0.00111115656364   -0.0332573171552    
800000000.0         -0.0015880390966    -0.0379883328386    0.997347200972      -0.0530280009363    0.997347200972      -0.0530280009363    -0.0015880390966    -0.0379883328386    
900000000.0         -0.00212756661474   -0.0427113194551    0.99677518844       -0.0596316180372    0.99677518844       -0.0596316180372    -0.00212756661474   -0.0427113194551    
1000000000.0        -0.00272955322142   -0.0474252702729    0.99613729377       -0.0662264175441    0.99613729377       -0.0662264175441    -0.00272955322142   -0.0474252702729    
1100000000.0        -0.00339379600601   -0.0521291810789    0.99543369579       -0.0728114137696    0.99543369579       -0.0728114137696    -0.00339379600601   -0.0521291810789    
1200000000.0        -0.00412007392836   -0.0568220509656    0.994664596369      -0.0793856239117    0.994664596369      -0.0793856239117    -0.00412007392836   -0.0568220509656    
1300000000.0        -0.0049081471669    -0.0615028830646    0.993830219594      -0.085948068845     0.993830219594      -0.085948068845     -0.0049081471669    -0.0615028830646    
1400000000.0        -0.00575775674537   -0.0661706852395    0.992930811176      -0.0924977738599    0.992930811176      -0.0924977738599    -0.00575775674537   -0.0661706852395    
1500000000.0        -0.00666862433764   -0.0708244707468    0.991966637991      -0.0990337693601    0.991966637991      -0.0990337693601    -0.00666862433764   -0.0708244707468    
1600000000.0        -0.00764045219307   -0.0754632588706    0.990937987689      -0.105555091527     0.990937987689      -0.105555091527     -0.00764045219307   -0.0754632588706    
1700000000.0        -0.00867292314769   -0.0800860755347    0.989845168356      -0.112060782959     0.989845168356      -0.112060782959     -0.00867292314769   -0.0800860755347    
1800000000.0        -0.00976570069935   -0.084691953895     0.98868850819       -0.118549893282     0.98868850819       -0.118549893282     -0.00976570069935   -0.084691953895     
1900000000.0        -0.0109184291328    -0.0892799349143    0.987468355199      -0.125021479743     0.987468355199      -0.125021479743     -0.0109184291328    -0.0892799349143    
2000000000.0        -0.0121307336847    -0.0938490679198    0.986185076891      -0.131474607786     0.986185076891      -0.131474607786     -0.0121307336847    -0.0938490679198    
2100000000.0        -0.0134022207427    -0.0983984111454    0.984839059973      -0.137908351605     0.984839059973      -0.137908351605     -0.0134022207427    -0.0983984111454    
2200000000.0        -0.0147324780726    -0.102927032258     0.983430710033      -0.144321794681     0.983430710033      -0.144321794681     -0.0147324780726    -0.102927032258     
2300000000.0        -0.0161210750714    -0.10743400887      0.981960451226      -0.150714030309     0.981960451226      -0.150714030309     -0.0161210750714    -0.10743400887      
2400000000.0        -0.017567563042     -0.111918429036     0.98042872594       -0.157084162099     0.98042872594       -0.157084162099     -0.017567563042     -0.111918429036     
2500000000.0        -0.0190714754888    -0.116379391733     0.97883599446       -0.163431304471     0.97883599446       -0.163431304471     -0.0190714754888    -0.116379391733     
2600000000.0        -0.0206323284319    -0.120816007332     0.977182734619      -0.169754583127     0.977182734619      -0.169754583127     -0.0206323284319    -0.120816007332     
2700000000.0        -0.0222496207375    -0.125227398047     0.975469441436      -0.176053135511     0.975469441436      -0.176053135511     -0.0222496207375    -0.125227398047     
2800000000.0        -0.0239228344652    -0.129612698375     0.973696626744      -0.182326111254     0.973696626744      -0.182326111254     -0.0239228344652    -0.129612698375     
2900000000.0        -0.0256514352293    -0.133971055515     0.971864818809      -0.1885726726       0.971864818809      -0.1885726726       -0.0256514352293    -0.133971055515     
3000000000.0        -0.0274348725738    -0.138301629784     0.969974561938      -0.194791994823     0.969974561938      -0.194791994823     -0.0274348725738    -0.138301629784     
3100000000.0        -0.0292725803607    -0.142603594997     0.968026416078      -0.200983266618     0.968026416078      -0.200983266618     -0.0292725803607    -0.142603594997     
3200000000.0        -0.0311639771692    -0.146876138855     0.9660209564        -0.207145690484     0.9660209564        -0.207145690484     -0.0311639771692    -0.146876138855     
3300000000.0        -0.0331084667068    -0.151118463299     0.963958772879      -0.213278483094     0.963958772879      -0.213278483094     -0.0331084667068    -0.151118463299     
3400000000.0        -0.0351054382303    -0.155329784855     0.961840469865      -0.219380875634     0.961840469865      -0.219380875634     -0.0351054382303    -0.155329784855     
3500000000.0        -0.0371542669765    -0.159509334969     0.959666665645      -0.225452114143     0.959666665645      -0.225452114143     -0.0371542669765    -0.159509334969     
3600000000.0        -0.039254314601     -0.163656360313     0.957437991993      -0.231491459826     0.957437991993      -0.231491459826     -0.039254314601     -0.163656360313     
3700000000.0        -0.0414049296262    -0.167770123083     0.955155093719      -0.237498189354     0.955155093719      -0.237498189354     -0.0414049296262    -0.167770123083     
3800000000.0        -0.0436054478952    -0.171849901284     0.952818628211      -0.243471595147     0.952818628211      -0.243471595147     -0.0436054478952    -0.171849901284     
3900000000.0        -0.0458551930336    -0.175894988987     0.950429264965      -0.249410985638     0.950429264965      -0.249410985638     -0.0458551930336    -0.175894988987     
4000000000.0        -0.0481534769162    -0.179904696581     0.947987685116      -0.255315685528     0.947987685116      -0.255315685528     -0.0481534769162    -0.179904696581     
4100000000.0        -0.0504996001399    -0.183878351003     0.945494580961      -0.261185036015     0.945494580961      -0.261185036015     -0.0504996001399    -0.183878351003     
4200000000.0        -0.0528928525001    -0.187815295949     0.942950655478      -0.267018395008     0.942950655478      -0.267018395008     -0.0528928525001    -0.187815295949     
4300000000.0        -0.055332513472     -0.191714892075     0.940356621845      -0.272815137333     0.940356621845      -0.272815137333     -0.055332513472     -0.191714892075     
4400000000.0        -0.0578178526948    -0.195576517178     0.937713202949      -0.278574654912     0.937713202949      -0.278574654912     -0.0578178526948    -0.195576517178     
4500000000.0        -0.0603481304582    -0.19939956636      0.935021130901      -0.284296356927     0.935021130901      -0.284296356927     -0.0603481304582    -0.19939956636      
4600000000.0        -0.0629225981914    -0.203183452172     0.932281146538      -0.289979669977     0.932281146538      -0.289979669977     -0.0629225981914    -0.203183452172     
4700000000.0        -0.0655404989532    -0.206927604755     0.929493998941      -0.295624038204     0.929493998941      -0.295624038204     -0.0655404989532    -0.206927604755     
4800000000.0        -0.0682010679231    -0.210631471946     0.926660444931      -0.301228923414     0.926660444931      -0.301228923414     -0.0682010679231    -0.210631471946     
4900000000.0        -0.0709035328924    -0.214294519384     0.923781248584      -0.306793805176     0.923781248584      -0.306793805176     -0.0709035328924    -0.214294519384     
5000000000.0        -0.0736471147549    -0.217916230591     0.920857180735      -0.31231818091      0.920857180735      -0.31231818091      -0.0736471147549    -0.217916230591     
5100000000.0        -0.0764310279968    -0.221496107039     0.917889018489      -0.317801565953     0.917889018489      -0.317801565953     -0.0764310279968    -0.221496107039     
5200000000.0        -0.0792544811846    -0.225033668204     0.914877544727      -0.323243493613     0.914877544727      -0.323243493613     -0.0792544811846    -0.225033668204     
5300000000.0        -0.0821166774518    -0.228528451605     0.911823547623      -0.328643515209     0.911823547623      -0.328643515209     -0.0821166774518    -0.228528451605     
5400000000.0        -0.0850168149824    -0.231980012819     0.908727820155      -0.334001200091     0.908727820155      -0.334001200091     -0.0850168149824    -0.231980012819     
5500000000.0        -0.0879540874909    -0.235387925494     0.905591159629      -0.339316135649     0.905591159629      -0.339316135649     -0.0879540874909    -0.235387925494     
5600000000.0        -0.0909276847001    -0.238751781341     0.902414367193      -0.344587927308     0.902414367193      -0.344587927308     -0.0909276847001    -0.238751781341     
5700000000.0        -0.0939367928129    -0.242071190106     0.899198247371      -0.349816198504     0.899198247371      -0.349816198504     -0.0939367928129    -0.242071190106     
5800000000.0        -0.0969805949814    -0.245345779541     0.895943607586      -0.35500059065      0.895943607586      -0.35500059065      -0.0969805949814    -0.245345779541     
5900000000.0        -0.10005827177      -0.248575195351     0.892651257704      -0.360140763087     0.892651257704      -0.360140763087     -0.10005827177      -0.248575195351     
6000000000.0        -0.103169001612     -0.251759101129     0.889322009565      -0.365236393021     0.889322009565      -0.365236393021     -0.103169001612     -0.251759101129     
6100000000.0        -0.106311961265     -0.254897178282     0.88595667654       -0.370287175449     0.88595667654       -0.370287175449     -0.106311961265     -0.254897178282     
6200000000.0        -0.109486326253     -0.257989125942     0.882556073077      -0.375292823066     0.882556073077      -0.375292823066     -0.109486326253     -0.257989125942     
6300000000.0        -0.112691271308     -0.261034660863     0.879121014265      -0.380253066171     0.879121014265      -0.380253066171     -0.112691271308     -0.261034660863     
6400000000.0        -0.1159259708       -0.264033517306     0.875652315398      -0.385167652545     0.875652315398      -0.385167652545     -0.1159259708       -0.264033517306     
6500000000.0        -0.119189599164     -0.266985446917     0.87215079155       -0.390036347337     0.87215079155       -0.390036347337     -0.119189599164     -0.266985446917     
6600000000.0        -0.122481331319     -0.269890218589     0.868617257156      -0.394858932918     0.868617257156      -0.394858932918     -0.122481331319     -0.269890218589     
6700000000.0        -0.125800343074     -0.272747618314     0.865052525604      -0.39963520874      0.865052525604      -0.39963520874      -0.125800343074     -0.272747618314     
6800000000.0        -0.129145811529     -0.275557449025     0.86145740883       -0.404364991176     0.86145740883       -0.404364991176     -0.129145811529     -0.275557449025     
6900000000.0        -0.132516915473     -0.278319530427     0.857832716925      -0.409048113354     0.857832716925      -0.409048113354     -0.132516915473     -0.278319530427     
7000000000.0        -0.135912835762     -0.281033698823     0.854179257751      -0.413684424979     0.854179257751      -0.413684424979     -0.135912835762     -0.281033698823     
7100000000.0        -0.139332755699     -0.283699806923     0.850497836561      -0.418273792145     0.850497836561      -0.418273792145     -0.139332755699     -0.283699806923     
7200000000.0        -0.142775861398     -0.286317723649     0.846789255638      -0.422816097142     0.846789255638      -0.422816097142     -0.142775861398     -0.286317723649     
7300000000.0        -0.146241342141     -0.288887333931     0.843054313933      -0.427311238247     0.843054313933      -0.427311238247     -0.146241342141     -0.288887333931     
7400000000.0        -0.149728390726     -0.291408538493     0.839293806715      -0.431759129521     0.839293806715      -0.431759129521     -0.149728390726     -0.291408538493     
7500000000.0        -0.153236203804     -0.293881253636     0.835508525238      -0.436159700578     0.835508525238      -0.436159700578     -0.153236203804     -0.293881253636     
7600000000.0        -0.156763982209     -0.296305411009     0.831699256407      -0.440512896366     0.831699256407      -0.440512896366     -0.156763982209     -0.296305411009     
7700000000.0        -0.160310931272     -0.298680957373     0.827866782461      -0.44481867693      0.827866782461      -0.44481867693      -0.160310931272     -0.298680957373     
7800000000.0        -0.163876261135     -0.301007854361     0.824011880663      -0.449077017171     0.824011880663      -0.449077017171     -0.163876261135     -0.301007854361     
7900000000.0        -0.167459187045     -0.303286078234     0.820135323002      -0.453287906603     0.820135323002      -0.453287906603     -0.167459187045     -0.303286078234     
8000000000.0        -0.171058929643     -0.305515619627     0.816237875903      -0.457451349096     0.816237875903      -0.457451349096     -0.171058929643     -0.305515619627     
8100000000.0        -0.174674715244     -0.30769648329      0.812320299948      -0.461567362621     0.812320299948      -0.461567362621     -0.174674715244     -0.30769648329      
8200000000.0        -0.1783057761       -0.309828687828     0.808383349607      -0.465635978992     0.808383349607      -0.465635978992     -0.1783057761       -0.309828687828     
8300000000.0        -0.181951350663     -0.311912265434     0.804427772982      -0.469657243591     0.804427772982      -0.469657243591     -0.181951350663     -0.311912265434     
8400000000.0        -0.185610683829     -0.313947261616     0.800454311557      -0.473631215106     0.800454311557      -0.473631215106     -0.185610683829     -0.313947261616     
8500000000.0        -0.189283027175     -0.315933734927     0.796463699957      -0.47755796525      0.796463699957      -0.47755796525      -0.189283027175     -0.315933734927     
8600000000.0        -0.192967639188     -0.317871756683     0.792456665725      -0.481437578489     0.792456665725      -0.481437578489     -0.192967639188     -0.317871756683     
8700000000.0        -0.19666378548      -0.319761410685     0.788433929104      -0.485270151758     0.788433929104      -0.485270151758     -0.19666378548      -0.319761410685     
8800000000.0        -0.200370738995     -0.321602792936     0.784396202823      -0.489055794179     0.784396202823      -0.489055794179     -0.200370738995     -0.321602792936     
8900000000.0        -0.204087780206     -0.323396011353     0.780344191909      -0.492794626775     0.780344191909      -0.492794626775     -0.204087780206     -0.323396011353     
9000000000.0        -0.207814197301     -0.325141185485     0.776278593489      -0.496486782185     0.776278593489      -0.496486782185     -0.207814197301     -0.325141185485     
9100000000.0        -0.211549286362     -0.326838446218     0.772200096622      -0.500132404376     0.772200096622      -0.500132404376     -0.211549286362     -0.326838446218     
9200000000.0        -0.215292351526     -0.328487935491     0.768109382124      -0.503731648347     0.768109382124      -0.503731648347     -0.215292351526     -0.328487935491     
9300000000.0        -0.219042705151     -0.330089806002     0.764007122411      -0.507284679847     0.764007122411      -0.507284679847     -0.219042705151     -0.330089806002     
9400000000.0        -0.222799667957     -0.331644220917     0.759893981355      -0.510791675076     0.759893981355      -0.510791675076     -0.222799667957     -0.331644220917     
9500000000.0        -0.226562569165     -0.333151353579     0.755770614138      -0.514252820402     0.755770614138      -0.514252820402     -0.226562569165     -0.333151353579     
9600000000.0        -0.230330746629     -0.334611387219     0.751637667124      -0.517668312058     0.751637667124      -0.517668312058     -0.230330746629     -0.334611387219     
9700000000.0        -0.234103546953     -0.336024514659     0.747495777743      -0.521038355863     0.747495777743      -0.521038355863     -0.234103546953     -0.336024514659     
9800000000.0        -0.237880325605     -0.337390938027     0.743345574371      -0.524363166922     0.743345574371      -0.524363166922     -0.237880325605     -0.337390938027     
9900000000.0        -0.241660447014     -0.338710868466     0.739187676233      -0.527642969341     0.739187676233      -0.527642969341     -0.241660447014     -0.338710868466     
10000000000.0       -0.245443284665     -0.339984525842     0.735022693308      -0.53087799594      0.735022693308      -0.53087799594      -0.245443284665     -0.339984525842     
