# Hz S RI R 50.00 
100000000.0         0.0310093810794     0.00155388216414    0.968988870917      -0.0021562543558    0.968988870917      -0.0021562543558    0.0310093810794     0.00155388216414    
200000000.0         0.0312171182423     0.00310621478728    0.968780018964      -0.00431096363354   0.968780018964      -0.00431096363354   0.0312171182423     0.00310621478728    
300000000.0         0.0313778124531     0.00465758266767    0.968617843113      -0.00646471547175   0.968617843113      -0.00646471547175   0.0313778124531     0.00465758266767    
400000000.0         0.0315177454501     0.00620816669094    0.968476061573      -0.00861769304115   0.968476061573      -0.00861769304115   0.0315177454501     0.00620816669094    
500000000.0         0.0316470673768     0.00775805359571    0.968344524146      -0.0107699850871    0.968344524146      -0.0107699850871    0.0316470673768     0.00775805359571    
600000000.0         0.0317709683172     0.00930728836027    0.968218040696      -0.012921638413     0.968218040696      -0.012921638413     0.0317709683172     0.00930728836027    
700000000.0         0.0318925217706     0.0108558930338     0.96809353767       -0.0150726767615    0.96809353767       -0.0150726767615    0.0318925217706     0.0108558930338     
800000000.0         0.0320137236224     0.0124038754765     0.967969019128      -0.0172231095833    0.967969019128      -0.0172231095833    0.0320137236224     0.0124038754765     
900000000.0         0.0321359552567     0.0139512340573     0.967843103626      -0.0193729367548    0.967843103626      -0.0193729367548    0.0321359552567     0.0139512340573     
1000000000.0        0.032260218553      0.0154979604359     0.967714789224      -0.0215221513738    0.967714789224      -0.0215221513738    0.032260218553      0.0154979604359     
1100000000.0        0.032387266656      0.0170440413312     0.967583322717      -0.0236707415376    0.967583322717      -0.0236707415376    0.032387266656      0.0170440413312     
1200000000.0        0.0325176819805     0.018589459706      0.967448121622      -0.0258186915357    0.967448121622      -0.0258186915357    0.0325176819805     0.018589459706      
1300000000.0        0.0326519253384     0.0201341955949     0.967308725062      -0.0279659826834    0.967308725062      -0.0279659826834    0.0326519253384     0.0201341955949     
1400000000.0        0.0327903682642     0.0216782267021     0.967164761431      -0.0301125939247    0.967164761431      -0.0301125939247    0.0327903682642     0.0216782267021     
1500000000.0        0.032933315064      0.0232215288465     0.967015926349      -0.0322585022811    0.967015926349      -0.0322585022811    0.032933315064      0.0232215288465     
1600000000.0        0.0330810183181     0.0247640762995     0.966861967163      -0.0344036831928    0.966861967163      -0.0344036831928    0.0330810183181     0.0247640762995     
1700000000.0        0.0332336900637     0.0263058420478     0.966702671756      -0.0365481107846    0.966702671756      -0.0365481107846    0.0332336900637     0.0263058420478     
1800000000.0        0.0333915100431     0.0278467980011     0.966537860306      -0.0386917580753    0.966537860306      -0.0386917580753    0.0333915100431     0.0278467980011     
1900000000.0        0.0335546319056     0.0293869151582     0.966367379081      -0.0408345971462    0.966367379081      -0.0408345971462    0.0335546319056     0.0293869151582     
2000000000.0        0.0337231879517     0.0309261637425     0.966191095695      -0.0429765992787    0.966191095695      -0.0429765992787    0.0337231879517     0.0309261637425     
2100000000.0        0.0338972928155     0.0324645133136     0.966008895426      -0.0451177350667    0.966008895426      -0.0451177350667    0.0338972928155     0.0324645133136     
2200000000.0        0.0340770463635     0.0340019328596     0.965820678318      -0.0472579745111    0.965820678318      -0.0472579745111    0.0340770463635     0.0340019328596     
2300000000.0        0.0342625360031     0.0355383908752     0.965626356871      -0.0493972870984    0.965626356871      -0.0493972870984    0.0342625360031     0.0355383908752     
2400000000.0        0.0344538385415     0.0370738554276     0.965425854182      -0.0515356418685    0.965425854182      -0.0515356418685    0.0344538385415     0.0370738554276     
2500000000.0        0.0346510216973     0.0386082942131     0.965219102436      -0.0536730074714    0.965219102436      -0.0536730074714    0.0346510216973     0.0386082942131     
2600000000.0        0.0348541453411     0.0401416746057     0.965006041663      -0.0558093522172    0.965006041663      -0.0558093522172    0.0348541453411     0.0401416746057     
2700000000.0        0.0350632625221     0.0416739636989     0.964786618711      -0.0579446441188    0.964786618711      -0.0579446441188    0.0350632625221     0.0416739636989     
2800000000.0        0.0352784203241     0.043205128343      0.964560786393      -0.0600788509297    0.964560786393      -0.0600788509297    0.0352784203241     0.043205128343      
2900000000.0        0.0354996605835     0.0447351351769     0.964328502766      -0.0622119401767    0.964328502766      -0.0622119401767    0.0354996605835     0.0447351351769     
3000000000.0        0.0357270204971     0.0462639506573     0.964089730524      -0.0643438791893    0.964089730524      -0.0643438791893    0.0357270204971     0.0462639506573     
3100000000.0        0.0359605331383     0.0477915410833     0.963844436484      -0.0664746351253    0.963844436484      -0.0664746351253    0.0359605331383     0.0477915410833     
3200000000.0        0.0362002278984     0.0493178726195     0.963592591141      -0.0686041749944    0.963592591141      -0.0686041749944    0.0362002278984     0.0493178726195     
3300000000.0        0.0364461308664     0.0508429113165     0.963334168291      -0.0707324656788    0.963334168291      -0.0707324656788    0.0364461308664     0.0508429113165     
3400000000.0        0.0366982651563     0.0523666231284     0.963069144703      -0.0728594739519    0.963069144703      -0.0728594739519    0.0366982651563     0.0523666231284     
3500000000.0        0.0369566511918     0.0538889739303     0.962797499834      -0.0749851664953    0.962797499834      -0.0749851664953    0.0369566511918     0.0538889739303     
3600000000.0        0.0372213069544     0.0554099295326     0.962519215581      -0.0771095099141    0.962519215581      -0.0771095099141    0.0372213069544     0.0554099295326     
3700000000.0        0.0374922481996     0.0569294556949     0.962234276064      -0.0792324707513    0.962234276064      -0.0792324707513    0.0374922481996     0.0569294556949     
3800000000.0        0.0377694886485     0.0584475181389     0.961942667438      -0.0813540155006    0.961942667438      -0.0813540155006    0.0377694886485     0.0584475181389     
3900000000.0        0.038053040155      0.0599640825595     0.961644377721      -0.0834741106178    0.961644377721      -0.0834741106178    0.038053040155      0.0599640825595     
4000000000.0        0.0383429128549     0.0614791146354     0.961339396647      -0.0855927225324    0.961339396647      -0.0855927225324    0.0383429128549     0.0614791146354     
4100000000.0        0.0386391152979     0.0629925800395     0.961027715536      -0.0877098176574    0.961027715536      -0.0877098176574    0.0386391152979     0.0629925800395     
4200000000.0        0.0389416545651     0.0645044444473     0.960709327173      -0.0898253623988    0.960709327173      -0.0898253623988    0.0389416545651     0.0645044444473     
4300000000.0        0.0392505363741     0.0660146735459     0.960384225704      -0.091939323164     0.960384225704      -0.091939323164     0.0392505363741     0.0660146735459     
4400000000.0        0.0395657651729     0.0675232330415     0.960052406544      -0.0940516663705    0.960052406544      -0.0940516663705    0.0395657651729     0.0675232330415     
4500000000.0        0.0398873442249     0.0690300886672     0.959713866292      -0.0961623584531    0.959713866292      -0.0961623584531    0.0398873442249     0.0690300886672     
4600000000.0        0.0402152756846     0.0705352061897     0.95936860265       -0.0982713658714    0.95936860265       -0.0982713658714    0.0402152756846     0.0705352061897     
4700000000.0        0.0405495606663     0.072038551416      0.959016614362      -0.100378655116     0.959016614362      -0.100378655116     0.0405495606663     0.072038551416      
4800000000.0        0.0408901993069     0.0735400901993     0.958657901147      -0.102484192716     0.958657901147      -0.102484192716     0.0408901993069     0.0735400901993     
4900000000.0        0.0412371908218     0.0750397884449     0.958292463641      -0.104587945244     0.958292463641      -0.104587945244     0.0412371908218     0.0750397884449     
5000000000.0        0.0415905335568     0.076537612116      0.95792030335       -0.10668987932      0.95792030335       -0.10668987932      0.0415905335568     0.076537612116      
5100000000.0        0.0419502250343     0.0780335272385     0.957541422603      -0.108789961623     0.957541422603      -0.108789961623     0.0419502250343     0.0780335272385     
5200000000.0        0.0423162619967     0.0795274999062     0.957155824504      -0.110888158888     0.957155824504      -0.110888158888     0.0423162619967     0.0795274999062     
5300000000.0        0.0426886404453     0.0810194962854     0.956763512898      -0.112984437918     0.956763512898      -0.112984437918     0.0426886404453     0.0810194962854     
5400000000.0        0.0430673556762     0.0825094826195     0.956364492334      -0.115078765582     0.956364492334      -0.115078765582     0.0430673556762     0.0825094826195     
5500000000.0        0.0434524023134     0.0839974252333     0.955958768029      -0.117171108825     0.955958768029      -0.117171108825     0.0434524023134     0.0839974252333     
5600000000.0        0.043843774339      0.0854832905371     0.955546345844      -0.119261434672     0.955546345844      -0.119261434672     0.043843774339      0.0854832905371     
5700000000.0        0.0442414651217     0.0869670450305     0.955127232248      -0.121349710227     0.955127232248      -0.121349710227     0.0442414651217     0.0869670450305     
5800000000.0        0.0446454674423     0.0884486553065     0.954701434299      -0.123435902681     0.954701434299      -0.123435902681     0.0446454674423     0.0884486553065     
5900000000.0        0.0450557735179     0.0899280880547     0.954268959614      -0.125519979317     0.954268959614      -0.125519979317     0.0450557735179     0.0899280880547     
6000000000.0        0.0454723750241     0.0914053100655     0.953829816353      -0.127601907509     0.953829816353      -0.127601907509     0.0454723750241     0.0914053100655     
6100000000.0        0.0458952631158     0.0928802882326     0.953384013192      -0.12968165473      0.953384013192      -0.12968165473      0.0458952631158     0.0928802882326     
6200000000.0        0.0463244284466     0.0943529895569     0.952931559311      -0.131759188553     0.952931559311      -0.131759188553     0.0463244284466     0.0943529895569     
6300000000.0        0.0467598611863     0.0958233811495     0.952472464367      -0.133834476654     0.952472464367      -0.133834476654     0.0467598611863     0.0958233811495     
6400000000.0        0.0472015510381     0.0972914302345     0.952006738485      -0.135907486817     0.952006738485      -0.135907486817     0.0472015510381     0.0972914302345     
6500000000.0        0.0476494872543     0.0987571041523     0.951534392239      -0.137978186935     0.951534392239      -0.137978186935     0.0476494872543     0.0987571041523     
6600000000.0        0.0481036586508     0.100220370362      0.951055436639      -0.140046545013     0.951055436639      -0.140046545013     0.0481036586508     0.100220370362      
6700000000.0        0.0485640536208     0.101681196445      0.950569883112      -0.142112529175     0.950569883112      -0.142112529175     0.0485640536208     0.101681196445      
6800000000.0        0.0490306601483     0.103139550106      0.950077743497      -0.144176107661     0.950077743497      -0.144176107661     0.0490306601483     0.103139550106      
6900000000.0        0.0495034658197     0.104595399179      0.949579030028      -0.146237248832     0.949579030028      -0.146237248832     0.0495034658197     0.104595399179      
7000000000.0        0.0499824578359     0.106048711624      0.949073755321      -0.148295921173     0.949073755321      -0.148295921173     0.0499824578359     0.106048711624      
7100000000.0        0.0504676230227     0.107499455536      0.948561932367      -0.150352093297     0.948561932367      -0.150352093297     0.0504676230227     0.107499455536      
7200000000.0        0.0509589478412     0.108947599142      0.948043574521      -0.152405733944     0.948043574521      -0.152405733944     0.0509589478412     0.108947599142      
7300000000.0        0.0514564183978     0.110393110809      0.94751869549       -0.154456811986     0.94751869549       -0.154456811986     0.0514564183978     0.110393110809      
7400000000.0        0.0519600204532     0.11183595904       0.946987309325      -0.156505296428     0.946987309325      -0.156505296428     0.0519600204532     0.11183595904       
7500000000.0        0.0524697394311     0.113276112479      0.946449430414      -0.158551156411     0.946449430414      -0.158551156411     0.0524697394311     0.113276112479      
7600000000.0        0.0529855604269     0.114713539916      0.94590507347       -0.160594361214     0.94590507347       -0.160594361214     0.0529855604269     0.114713539916      
7700000000.0        0.0535074682152     0.116148210283      0.945354253528      -0.162634880258     0.945354253528      -0.162634880258     0.0535074682152     0.116148210283      
7800000000.0        0.0540354472578     0.117580092663      0.94479698593       -0.164672683102     0.94479698593       -0.164672683102     0.0540354472578     0.117580092663      
7900000000.0        0.0545694817106     0.119009156285      0.944233286327      -0.166707739454     0.944233286327      -0.166707739454     0.0545694817106     0.119009156285      
8000000000.0        0.0551095554309     0.120435370531      0.943663170665      -0.168740019167     0.943663170665      -0.168740019167     0.0551095554309     0.120435370531      
8100000000.0        0.0556556519835     0.121858704936      0.943086655182      -0.170769492239     0.943086655182      -0.170769492239     0.0556556519835     0.121858704936      
8200000000.0        0.0562077546477     0.123279129191      0.942503756397      -0.172796128823     0.942503756397      -0.172796128823     0.0562077546477     0.123279129191      
8300000000.0        0.0567658464229     0.124696613142      0.941914491113      -0.174819899222     0.941914491113      -0.174819899222     0.0567658464229     0.124696613142      
8400000000.0        0.0573299100348     0.126111126795      0.9413188764        -0.176840773893     0.9413188764        -0.176840773893     0.0573299100348     0.126111126795      
8500000000.0        0.0578999279407     0.127522640316      0.940716929599      -0.178858723447     0.940716929599      -0.178858723447     0.0578999279407     0.127522640316      
8600000000.0        0.0584758823354     0.128931124033      0.94010866831       -0.180873718656     0.94010866831       -0.180873718656     0.0584758823354     0.128931124033      
8700000000.0        0.059057755156      0.130336548438      0.939494110389      -0.182885730449     0.939494110389      -0.182885730449     0.059057755156      0.130336548438      
8800000000.0        0.0596455280875     0.131738884187      0.938873273944      -0.184894729915     0.938873273944      -0.184894729915     0.0596455280875     0.131738884187      
8900000000.0        0.0602391825671     0.133138102105      0.93824617733       -0.186900688307     0.93824617733       -0.186900688307     0.0602391825671     0.133138102105      
9000000000.0        0.0608386997894     0.134534173183      0.937612839141      -0.188903577041     0.937612839141      -0.188903577041     0.0608386997894     0.134534173183      
9100000000.0        0.0614440607108     0.135927068585      0.93697327821       -0.1909033677       0.93697327821       -0.1909033677       0.0614440607108     0.135927068585      
9200000000.0        0.0620552460543     0.137316759642      0.936327513601      -0.192900032031     0.936327513601      -0.192900032031     0.0620552460543     0.137316759642      
9300000000.0        0.0626722363132     0.138703217862      0.935675564607      -0.194893541954     0.935675564607      -0.194893541954     0.0626722363132     0.138703217862      
9400000000.0        0.0632950117561     0.140086414924      0.935017450744      -0.196883869554     0.935017450744      -0.196883869554     0.0632950117561     0.140086414924      
9500000000.0        0.0639235524302     0.141466322685      0.934353191748      -0.198870987092     0.934353191748      -0.198870987092     0.0639235524302     0.141466322685      
9600000000.0        0.0645578381661     0.142842913177      0.933682807571      -0.200854866998     0.933682807571      -0.200854866998     0.0645578381661     0.142842913177      
9700000000.0        0.0651978485811     0.144216158611      0.933006318377      -0.202835481878     0.933006318377      -0.202835481878     0.0651978485811     0.144216158611      
9800000000.0        0.0658435630833     0.145586031377      0.932323744537      -0.204812804513     0.932323744537      -0.204812804513     0.0658435630833     0.145586031377      
9900000000.0        0.0664949608754     0.146952504046      0.931635106627      -0.206786807861     0.931635106627      -0.206786807861     0.0664949608754     0.146952504046      
10000000000.0       0.067152020958      0.148315549371      0.930940425424      -0.208757465057     0.930940425424      -0.208757465057     0.067152020958      0.148315549371      
