# Hz S RI R 50.00 
100000000.0         -3.89523763877e-06  -0.00147788104183   0.999995574516      -0.00147939464044   0.999995574516      -0.00147939464044   -3.89523763877e-06  -0.00147788104183   
200000000.0         -1.19256377049e-05  -0.00295563368404   0.999987540486      -0.00295866113869   0.999987540486      -0.00295866113869   -1.19256377048e-05  -0.00295563368404   
300000000.0         -2.43269126055e-05  -0.00443318760027   0.999975136491      -0.00443772929857   0.999975136491      -0.00443772929857   -2.43269126052e-05  -0.00443318760027   
400000000.0         -4.10966213623e-05  -0.00591048510545   0.999958364515      -0.0059165415331    0.999958364515      -0.0059165415331    -4.10966213624e-05  -0.00591048510545   
500000000.0         -6.22320480453e-05  -0.007387475462     0.999937227101      -0.00739504718559   0.999937227101      -0.00739504718559   -6.22320480448e-05  -0.007387475462     
600000000.0         -8.77301137204e-05  -0.00886411254148   0.999911727238      -0.00887320019674   0.999911727238      -0.00887320019674   -8.77301137204e-05  -0.00886411254148   
700000000.0         -0.000117587415956  -0.0103403537191    0.999881868278      -0.0103509580017    0.999881868278      -0.0103509580017    -0.000117587415956  -0.0103403537191    
800000000.0         -0.000151800237796  -0.0118161594046    0.999847653903      -0.0118282810628    0.999847653903      -0.0118282810628    -0.000151800237796  -0.0118161594046    
900000000.0         -0.000190364586425  -0.0132914926075    0.999809088084      -0.0133051324355    0.999809088084      -0.0133051324355    -0.000190364586425  -0.0132914926075    
1000000000.0        -0.000233276219222  -0.0147663184264    0.999766175046      -0.0147814772595    0.999766175046      -0.0147814772595    -0.000233276219223  -0.0147663184264    
1100000000.0        -0.000280530657268  -0.0162406040124    0.999718919257      -0.0162572827211    0.999718919257      -0.0162572827211    -0.000280530657269  -0.0162406040124    
1200000000.0        -0.000332123218399  -0.0177143182794    0.999667325388      -0.0177325177659    0.999667325388      -0.0177325177659    -0.000332123218399  -0.0177143182794    
1300000000.0        -0.000388049027153  -0.019187431736     0.999611398308      -0.0192071529297    0.999611398308      -0.0192071529297    -0.000388049027153  -0.019187431736     
1400000000.0        -0.000448303039563  -0.0206599164402    0.999551143056      -0.0206811602941    0.999551143056      -0.0206811602941    -0.000448303039563  -0.0206599164402    
1500000000.0        -0.000512880053861  -0.0221317457281    0.999486564827      -0.0221545132157    0.999486564827      -0.0221545132157    -0.000512880053861  -0.0221317457281    
1600000000.0        -0.000581774727907  -0.0236028942145    0.99941766896       -0.0236271863263    0.99941766896       -0.0236271863263    -0.000581774727907  -0.0236028942145    
1700000000.0        -0.000654981591829  -0.0250733377052    0.999344460923      -0.0250991554464    0.999344460923      -0.0250991554464    -0.000654981591829  -0.0250733377052    
1800000000.0        -0.000732495060714  -0.0265430530642    0.999266946295      -0.0265703974515    0.999266946295      -0.0265703974515    -0.000732495060714  -0.0265430530642    
1900000000.0        -0.000814309442292  -0.0280120180975    0.999185130769      -0.0280408901572    0.999185130769      -0.0280408901572    -0.000814309442292  -0.0280120180975    
2000000000.0        -0.000900418953291  -0.0294802116128    0.999099020124      -0.0295106123783    0.999099020124      -0.0295106123783    -0.000900418953291  -0.0294802116128    
2100000000.0        -0.000990817721057  -0.0309476131986    0.999008620232      -0.0309795437083    0.999008620232      -0.0309795437083    -0.000990817721057  -0.0309476131986    
2200000000.0        -0.00108549979859   -0.0324142032975    0.998913937038      -0.0324476645931    0.998913937038      -0.0324476645931    -0.00108549979859   -0.0324142032975    
2300000000.0        -0.00118445916657   -0.0338799630364    0.998814976561      -0.0339149561608    0.998814976561      -0.0339149561608    -0.00118445916657   -0.0338799630364    
2400000000.0        -0.00128768974271   -0.0353448742373    0.99871174488       -0.0353814002335    0.99871174488       -0.0353814002335    -0.00128768974271   -0.0353448742373    
2500000000.0        -0.00139518538581   -0.0368089193383    0.998604248138      -0.0368469792474    0.998604248138      -0.0368469792474    -0.00139518538581   -0.0368089193383    
2600000000.0        -0.00150693990376   -0.0382720813772    0.998492492524      -0.0383116762373    0.998492492524      -0.0383116762373    -0.00150693990376   -0.0382720813772    
2700000000.0        -0.00162294705429   -0.0397343438956    0.99837648428       -0.0397754747403    0.99837648428       -0.0397754747403    -0.00162294705429   -0.0397343438956    
2800000000.0        -0.00174320055174   -0.0411956909393    0.998256229691      -0.0412383587969    0.998256229691      -0.0412383587969    -0.00174320055174   -0.0411956909393    
2900000000.0        -0.00186769407031   -0.0426561070134    0.998131735082      -0.0427003129056    0.998131735082      -0.0427003129056    -0.00186769407031   -0.0426561070134    
3000000000.0        -0.00199642124487   -0.0441155770122    0.998003006818      -0.0441613219532    0.998003006818      -0.0441613219532    -0.00199642124487   -0.0441155770122    
3100000000.0        -0.00212937567643   -0.0455740862318    0.997870051298      -0.0456213712274    0.997870051298      -0.0456213712274    -0.00212937567643   -0.0455740862318    
3200000000.0        -0.00226655093202   -0.0470316202992    0.997732874953      -0.0470804463461    0.997732874953      -0.0470804463461    -0.00226655093202   -0.0470316202992    
3300000000.0        -0.00240794054767   -0.0484881651661    0.997591484247      -0.048538533251     0.997591484247      -0.048538533251     -0.00240794054767   -0.0484881651661    
3400000000.0        -0.00255353802895   -0.049943707062     0.997445885675      -0.0499956181611    0.997445885675      -0.0499956181611    -0.00255353802895   -0.049943707062     
3500000000.0        -0.00270333685319   -0.0513982324826    0.997296085758      -0.0514516875611    0.997296085758      -0.0514516875611    -0.00270333685319   -0.0513982324826    
3600000000.0        -0.0028573304693    -0.0528517281587    0.997142091048      -0.0529067281701    0.997142091048      -0.0529067281701    -0.0028573304693    -0.0528517281587    
3700000000.0        -0.00301551229894   -0.0543041810331    0.996983908122      -0.0543607269188    0.996983908122      -0.0543607269188    -0.00301551229894   -0.0543041810331    
3800000000.0        -0.00317787573535   -0.0557555782263    0.996821543587      -0.0558136709153    0.996821543587      -0.0558136709153    -0.00317787573535   -0.0557555782263    
3900000000.0        -0.00334441414618   -0.0572059070466    0.996655004075      -0.0572655474551    0.996655004075      -0.0572655474551    -0.00334441414618   -0.0572059070466    
4000000000.0        -0.00351512087163   -0.0586551549472    0.996484296246      -0.0587163439783    0.996484296246      -0.0587163439783    -0.00351512087163   -0.0586551549472    
4100000000.0        -0.00368998922267   -0.0601033095008    0.996309426788      -0.0601660480443    0.996309426788      -0.0601660480443    -0.00368998922267   -0.0601033095008    
4200000000.0        -0.00386901248612   -0.0615503584292    0.996130402415      -0.061614647361     0.996130402415      -0.061614647361     -0.00386901248612   -0.0615503584292    
4300000000.0        -0.00405218391632   -0.0629962895223    0.995947229871      -0.063062129705     0.995947229871      -0.063062129705     -0.00405218391632   -0.0629962895223    
4400000000.0        -0.0042394967415    -0.0644410906823    0.995759915929      -0.0645084829643    0.995759915929      -0.0645084829643    -0.0042394967415    -0.0644410906823    
4500000000.0        -0.00443094415824   -0.0658847498725    0.995568467392      -0.0659536950883    0.995568467392      -0.0659536950883    -0.00443094415824   -0.0658847498725    
4600000000.0        -0.0046265193338    -0.0673272551315    0.995372891093      -0.0673977541015    0.995372891093      -0.0673977541015    -0.0046265193338    -0.0673272551315    
4700000000.0        -0.00482621540445   -0.0687685945547    0.995173193894      -0.0688406480853    0.995173193894      -0.0688406480853    -0.00482621540445   -0.0687685945547    
4800000000.0        -0.00503002547317   -0.0702087562748    0.994969382694      -0.0702823651582    0.994969382694      -0.0702823651582    -0.00503002547317   -0.0702087562748    
4900000000.0        -0.00523794260831   -0.0716477284519    0.994761464423      -0.0717228934662    0.994761464423      -0.0717228934662    -0.00523794260831   -0.0716477284519    
5000000000.0        -0.00544995984451   -0.0730854992791    0.994549446046      -0.0731622211884    0.994549446046      -0.0731622211884    -0.00544995984451   -0.0730854992791    
5100000000.0        -0.00566607018398   -0.0745220569911    0.994333334563      -0.0746003365452    0.994333334563      -0.0746003365452    -0.00566607018398   -0.0745220569911    
5200000000.0        -0.00588626658687   -0.0759573897981    0.994113137011      -0.076037227733     0.994113137011      -0.076037227733     -0.00588626658687   -0.0759573897981    
5300000000.0        -0.00611054197974   -0.0773914859472    0.993888860465      -0.077472882985     0.993888860465      -0.077472882985     -0.00611054197974   -0.0773914859472    
5400000000.0        -0.00633888924758   -0.0788243336691    0.99366051204       -0.0789072905179    0.99366051204       -0.0789072905179    -0.00633888924758   -0.0788243336691    
5500000000.0        -0.00657130123565   -0.0802559211944    0.99342809889       -0.0803404385489    0.99342809889       -0.0803404385489    -0.00657130123565   -0.0802559211944    
5600000000.0        -0.00680777075091   -0.0816862367649    0.993191628208      -0.0817723153059    0.993191628208      -0.0817723153059    -0.00680777075091   -0.0816862367649    
5700000000.0        -0.00704829055301   -0.0831152685801    0.992951107235      -0.0832029089752    0.992951107235      -0.0832029089752    -0.00704829055301   -0.0831152685801    
5800000000.0        -0.00729285336203   -0.0845430048495    0.99270654325       -0.084632207753     0.99270654325       -0.084632207753     -0.00729285336203   -0.0845430048495    
5900000000.0        -0.0075414518514    -0.085969433753     0.99245794358       -0.0860601998058    0.99245794358       -0.0860601998058    -0.0075414518514    -0.085969433753     
6000000000.0        -0.00779407864932   -0.0873945434535    0.992205315597      -0.0874868732838    0.992205315597      -0.0874868732838    -0.00779407864932   -0.0873945434535    
6100000000.0        -0.0080507263365    -0.0888183220882    0.991948666719      -0.0889122163112    0.991948666719      -0.0889122163112    -0.0080507263365    -0.0888183220882    
6200000000.0        -0.00831138744732   -0.0902407577788    0.991688004414      -0.0903362169972    0.991688004414      -0.0903362169972    -0.00831138744732   -0.0902407577788    
6300000000.0        -0.00857605446647   -0.0916618386177    0.991423336195      -0.0917588634215    0.991423336195      -0.0917588634215    -0.00857605446647   -0.0916618386177    
6400000000.0        -0.00884471982825   -0.0930815526675    0.991154669628      -0.0931801436348    0.991154669628      -0.0931801436348    -0.00884471982825   -0.0930815526675    
6500000000.0        -0.0091173759162    -0.0944998879646    0.990882012331      -0.094600045661     0.990882012331      -0.094600045661     -0.0091173759162    -0.0944998879646    
6600000000.0        -0.0093940150621    -0.0959168325176    0.99060537197       -0.0960185574971    0.99060537197       -0.0960185574971    -0.0093940150621    -0.0959168325176    
6700000000.0        -0.0096746295459    -0.0973323743115    0.990324756267      -0.0974356671162    0.990324756267      -0.0974356671162    -0.0096746295459    -0.0973323743115    
6800000000.0        -0.009959211592     -0.0987465012927    0.990040172997      -0.0988513624533    0.990040172997      -0.0988513624533    -0.009959211592     -0.0987465012927    
6900000000.0        -0.0102477533728    -0.100159201392     0.989751629987      -0.100265631427     0.989751629987      -0.100265631427     -0.0102477533728    -0.100159201392     
7000000000.0        -0.0105402470024    -0.101570462495     0.989459135123      -0.101678461914     0.989459135123      -0.101678461914     -0.0105402470024    -0.101570462495     
7100000000.0        -0.0108366845427    -0.10298027248      0.989162696343      -0.10308984178      0.989162696343      -0.10308984178      -0.0108366845427    -0.10298027248      
7200000000.0        -0.011137057995     -0.104388619179     0.988862321647      -0.104499758847     0.988862321647      -0.104499758847     -0.011137057995     -0.104388619179     
7300000000.0        -0.0114413593053    -0.105795490409     0.988558019088      -0.105908200919     0.988558019088      -0.105908200919     -0.0114413593053    -0.105795490409     
7400000000.0        -0.0117495803608    -0.107200873954     0.988249796778      -0.107315155774     0.988249796778      -0.107315155774     -0.0117495803608    -0.107200873954     
7500000000.0        -0.0120617129899    -0.108604757577     0.98793766289       -0.108720611162     0.98793766289       -0.108720611162     -0.0120617129899    -0.108604757577     
7600000000.0        -0.0123777489617    -0.110007129015     0.987621625654      -0.11012455481      0.987621625654      -0.11012455481      -0.0123777489617    -0.110007129015     
7700000000.0        -0.0126976799859    -0.111407975987     0.98730169336       -0.111526974428     0.98730169336       -0.111526974428     -0.0126976799859    -0.111407975987     
7800000000.0        -0.0130214977109    -0.112807286182     0.986977874361      -0.112927857696     0.986977874361      -0.112927857696     -0.0130214977109    -0.112807286182     
7900000000.0        -0.0133491937239    -0.114205047272     0.986650177069      -0.114327192276     0.986650177069      -0.114327192276     -0.0133491937239    -0.114205047272     
8000000000.0        -0.013680759551     -0.11560124691      0.986318609958      -0.115724965812     0.986318609958      -0.115724965812     -0.013680759551     -0.11560124691      
8100000000.0        -0.0140161866564    -0.116995872731     0.985983181563      -0.117121165929     0.985983181563      -0.117121165929     -0.0140161866564    -0.116995872731     
8200000000.0        -0.014355466443     -0.118388912357     0.985643900483      -0.118515780242     0.985643900483      -0.118515780242     -0.014355466443     -0.118388912357     
8300000000.0        -0.014698590249     -0.119780353387     0.985300775377      -0.11990879634      0.985300775377      -0.11990879634      -0.014698590249     -0.119780353387     
8400000000.0        -0.015045549352     -0.121170183416     0.98495381497       -0.121300201811     0.98495381497       -0.121300201811     -0.015045549352     -0.121170183416     
8500000000.0        -0.0153963349644    -0.122558390019     0.984603028049      -0.122689984221     0.984603028049      -0.122689984221     -0.0153963349644    -0.122558390019     
8600000000.0        -0.0157509382357    -0.123944960766     0.984248423464      -0.124078131131     0.984248423464      -0.124078131131     -0.0157509382357    -0.123944960766     
8700000000.0        -0.0161093502519    -0.125329883216     0.983890010128      -0.125464630093     0.983890010128      -0.125464630093     -0.0161093502519    -0.125329883216     
8800000000.0        -0.0164715620343    -0.12671314492      0.983527797022      -0.126849468651     0.983527797022      -0.126849468651     -0.0164715620343    -0.12671314492      
8900000000.0        -0.0168375645399    -0.128094733423     0.983161793187      -0.128232634341     0.983161793187      -0.128232634341     -0.0168375645399    -0.128094733423     
9000000000.0        -0.0172073486637    -0.129474636274     0.98279200773       -0.129614114706     0.98279200773       -0.129614114706     -0.0172073486637    -0.129474636274     
9100000000.0        -0.0175809052337    -0.130852841012     0.982418449821      -0.130993897276     0.982418449821      -0.130993897276     -0.0175809052337    -0.130852841012     
9200000000.0        -0.0179582250126    -0.132229335171     0.982041128699      -0.13237196958      0.982041128699      -0.13237196958      -0.0179582250126    -0.132229335171     
9300000000.0        -0.0183392987006    -0.133604106296     0.981660053662      -0.133748319155     0.981660053662      -0.133748319155     -0.0183392987006    -0.133604106296     
9400000000.0        -0.0187241169338    -0.134977141935     0.981275234075      -0.135122933543     0.981275234075      -0.135122933543     -0.0187241169338    -0.134977141935     
9500000000.0        -0.019112670281     -0.136348429634     0.98088667937       -0.136495800282     0.98088667937       -0.136495800282     -0.019112670281     -0.136348429634     
9600000000.0        -0.0195049492466    -0.137717956943     0.980494399041      -0.137866906917     0.980494399041      -0.137866906917     -0.0195049492466    -0.137717956943     
9700000000.0        -0.0199009442722    -0.13908571143      0.980098402647      -0.139236241009     0.980098402647      -0.139236241009     -0.0199009442722    -0.13908571143      
9800000000.0        -0.0203006457333    -0.140451680664     0.979698699813      -0.14060379012      0.979698699813      -0.14060379012      -0.0203006457333    -0.140451680664     
9900000000.0        -0.0207040439415    -0.141815852229     0.979295300227      -0.141969541831     0.979295300227      -0.141969541831     -0.0207040439415    -0.141815852229     
10000000000.0       -0.0211111291423    -0.143178213718     0.978888213644      -0.143333483725     0.978888213644      -0.143333483725     -0.0211111291423    -0.143178213718     
