# Hz S RI R 50.00 
100000000.0         -0.000333158236566  -0.0184289717745    0.99960434984       -0.0187401161352    0.99960434984       -0.0187401161352    -0.000333158236566  -0.0184289717745    
200000000.0         -0.00138626158183   -0.0368175591555    0.998550675371      -0.0374399152286    0.998550675371      -0.0374399152286    -0.00138626158183   -0.0368175591555    
300000000.0         -0.0031243859875    -0.0551273434943    0.996811990393      -0.0560610137095    0.996811990393      -0.0560610137095    -0.0031243859875    -0.0551273434943    
400000000.0         -0.00554021764452   -0.0733205325434    0.994395554859      -0.0745656461627    0.994395554859      -0.0745656461627    -0.00554021764452   -0.0733205325434    
500000000.0         -0.00862372376732   -0.0913601776095    0.991311380805      -0.0929168864235    0.991311380805      -0.0929168864235    -0.00862372376732   -0.0913601776095    
600000000.0         -0.0123622477871    -0.10921040283      0.987572114169      -0.11107887824      0.987572114169      -0.11107887824      -0.0123622477871    -0.10921040283      
700000000.0         -0.0167406369664    -0.126836625652     0.983192901343      -0.129017056465     0.983192901343      -0.129017056465     -0.0167406369664    -0.126836625652     
800000000.0         -0.0217413938183    -0.144205761976     0.978191235637      -0.146698352633     0.978191235637      -0.146698352633     -0.0217413938183    -0.144205761976     
900000000.0         -0.0273448475441    -0.161286412249     0.972586784894      -0.164091381337     0.972586784894      -0.164091381337     -0.0273448475441    -0.161286412249     
1000000000.0        -0.0335293422238    -0.178049025946     0.966401202826      -0.181166604931     0.966401202826      -0.181166604931     -0.0335293422238    -0.178049025946     
1100000000.0        -0.0402714384855    -0.19446604269      0.959657927082      -0.197896474796     0.959657927082      -0.197896474796     -0.0402714384855    -0.19446604269      
1200000000.0        -0.0475461253167    -0.210512008835     0.952381967281      -0.214255548051     0.952381967281      -0.214255548051     -0.0475461253167    -0.210512008835     
1300000000.0        -0.055327038669     -0.226163668941     0.944599686305      -0.230220579132     0.944599686305      -0.230220579132     -0.055327038669     -0.226163668941     
1400000000.0        -0.063586683569     -0.241400032075     0.93633857813       -0.245770586173     0.93633857813       -0.245770586173     -0.063586683569     -0.241400032075     
1500000000.0        -0.0722966565711    -0.256202413326     0.927627045327      -0.260886892592     0.927627045327      -0.260886892592     -0.0722966565711    -0.256202413326     
1600000000.0        -0.0814278655813    -0.270554451383     0.918494179208      -0.275553144734     0.918494179208      -0.275553144734     -0.0814278655813    -0.270554451383     
1700000000.0        -0.0909507443215    -0.28444210336      0.908969545342      -0.289755306748     0.908969545342      -0.289755306748     -0.0909507443215    -0.28444210336      
1800000000.0        -0.100835458991     -0.297853618404     0.899082976875      -0.30348163424      0.899082976875      -0.30348163424      -0.100835458991     -0.297853618404     
1900000000.0        -0.111052104997     -0.310779491826     0.88886437779       -0.316722628452     0.88886437779       -0.316722628452     -0.111052104997     -0.310779491826     
2000000000.0        -0.121570891966     -0.323212401748     0.878343537888      -0.329470972946     0.878343537888      -0.329470972946     -0.121570891966     -0.323212401748     
2100000000.0        -0.132362315577     -0.335147130339     0.867549960945      -0.341721454873     0.867549960945      -0.341721454873     -0.132362315577     -0.335147130339     
2200000000.0        -0.14339731513      -0.346580471813     0.856512707139      -0.353470873007     0.856512707139      -0.353470873007     -0.14339731513      -0.346580471813     
2300000000.0        -0.154647416051     -0.357511129382     0.845260250544      -0.364717934725     0.845260250544      -0.364717934725     -0.154647416051     -0.357511129382     
2400000000.0        -0.166084856898     -0.367939603327     0.833820352117      -0.375463144105     0.833820352117      -0.375463144105     -0.166084856898     -0.367939603327     
2500000000.0        -0.177682700676     -0.377868072282     0.822219948382      -0.38570868324      0.822219948382      -0.38570868324      -0.177682700676     -0.377868072282     
2600000000.0        -0.189414930576     -0.387300269727     0.81048505569       -0.395458288747     0.81048505569       -0.395458288747     -0.189414930576     -0.387300269727     
2700000000.0        -0.201256530433     -0.396241357552     0.798640689756      -0.404717125361     0.798640689756      -0.404717125361     -0.201256530433     -0.396241357552     
2800000000.0        -0.213183550453     -0.40469779841      0.786710799937      -0.413491658303     0.786710799937      -0.413491658303     -0.213183550453     -0.40469779841      
2900000000.0        -0.225173158864     -0.412677228396     0.77471821757       -0.421789525981     0.77471821757       -0.421789525981     -0.225173158864     -0.412677228396     
3000000000.0        -0.237203680329     -0.420188331431     0.76268461757       -0.42961941439      0.76268461757       -0.42961941439      -0.237203680329     -0.420188331431     
3100000000.0        -0.24925462202      -0.427240716538     0.750630492343      -0.436990934408     0.750630492343      -0.436990934408     -0.24925462202      -0.427240716538     
3200000000.0        -0.261306688353     -0.433844799025     0.738575137062      -0.443914502993     0.738575137062      -0.443914502993     -0.261306688353     -0.433844799025     
3300000000.0        -0.273341785391     -0.440011686415     0.726536645254      -0.450401229125     0.726536645254      -0.450401229125     -0.273341785391     -0.440011686415     
3400000000.0        -0.285343015988     -0.445753069793     0.714531913661      -0.456462805173     0.714531913661      -0.456462805173     -0.285343015988     -0.445753069793     
3500000000.0        -0.297294666702     -0.451081121101     0.702576655325      -0.462111404199     0.702576655325      -0.462111404199     -0.297294666702     -0.451081121101     
3600000000.0        -0.30918218751      -0.456008396743     0.690685419873      -0.467359583577     0.690685419873      -0.467359583577     -0.30918218751      -0.456008396743     
3700000000.0        -0.320992165326     -0.460547747763     0.678871619998      -0.472220195181     0.678871619998      -0.472220195181     -0.320992165326     -0.460547747763     
3800000000.0        -0.332712292254     -0.464712236712     0.667147563204      -0.476706302268     0.667147563204      -0.476706302268     -0.332712292254     -0.464712236712     
3900000000.0        -0.344331329492     -0.46851506125      0.655524487907      -0.480831103082     0.655524487907      -0.480831103082     -0.344331329492     -0.46851506125      
4000000000.0        -0.355839067703     -0.471969484415     0.644012603061      -0.484607861141     0.644012603061      -0.484607861141     -0.355839067703     -0.471969484415     
4100000000.0        -0.367226284621     -0.475088771435     0.632621130548      -0.488049842052     0.632621130548      -0.488049842052     -0.367226284621     -0.475088771435     
4200000000.0        -0.378484700609     -0.477886132885     0.621358349625      -0.491170256681     0.621358349625      -0.491170256681     -0.378484700609     -0.477886132885     
4300000000.0        -0.389606932785     -0.480374673955     0.610231642799      -0.493982210427     0.610231642799      -0.493982210427     -0.389606932785     -0.480374673955     
4400000000.0        -0.400586448283     -0.482567349546     0.599247542557      -0.496498658328     0.599247542557      -0.496498658328     -0.400586448283     -0.482567349546     
4500000000.0        -0.411417517159     -0.484476924885     0.588411778473      -0.498732365678     0.588411778473      -0.498732365678     -0.411417517159     -0.484476924885     
4600000000.0        -0.422095165362     -0.486115941334     0.577729324224      -0.500695873846     0.577729324224      -0.500695873846     -0.422095165362     -0.486115941334     
4700000000.0        -0.432615128162     -0.487496687043     0.567204444169      -0.502401470941     0.567204444169      -0.502401470941     -0.432615128162     -0.487496687043     
4800000000.0        -0.442973804347     -0.488631172121     0.556840739153      -0.503861166978     0.556840739153      -0.503861166978     -0.442973804347     -0.488631172121     
4900000000.0        -0.453168211451     -0.489531107952     0.546641191274      -0.505086673208     0.546641191274      -0.505086673208     -0.453168211451     -0.489531107952     
5000000000.0        -0.463195942254     -0.490207890338     0.536608207386      -0.506089385261     0.536608207386      -0.506089385261     -0.463195942254     -0.490207890338     
5100000000.0        -0.473055122715     -0.490672586116     0.526743661165      -0.506880369773     0.526743661165      -0.506880369773     -0.473055122715     -0.490672586116     
5200000000.0        -0.48274437148      -0.49093592294      0.5170489336        -0.507470354169     0.5170489336        -0.507470354169     -0.48274437148      -0.49093592294      
5300000000.0        -0.492262761081     -0.491008281911     0.507524951799      -0.507869719299     0.507524951799      -0.507869719299     -0.492262761081     -0.491008281911     
5400000000.0        -0.501609780879     -0.490899692761     0.498172226037      -0.508088494625     0.498172226037      -0.508088494625     -0.501609780879     -0.490899692761     
5500000000.0        -0.510785301829     -0.490619831321     0.488990884999      -0.508136355694     0.488990884999      -0.508136355694     -0.510785301829     -0.490619831321     
5600000000.0        -0.519789543058     -0.490178019005     0.479980709197      -0.508022623625     0.479980709197      -0.508022623625     -0.519789543058     -0.490178019005     
5700000000.0        -0.528623040284     -0.489583224067     0.471141162555      -0.507756266367     0.471141162555      -0.507756266367     -0.528623040284     -0.489583224067     
5800000000.0        -0.537286616052     -0.48884406441      0.462471422167      -0.507345901519     0.462471422167      -0.507345901519     -0.537286616052     -0.48884406441      
5900000000.0        -0.545781351769     -0.487968811743     0.453970406268      -0.506799800481     0.453970406268      -0.506799800481     -0.545781351769     -0.487968811743     
6000000000.0        -0.554108561489     -0.486965396889     0.445636800447      -0.506125893765     0.445636800447      -0.506125893765     -0.554108561489     -0.486965396889     
6100000000.0        -0.562269767403     -0.485841416064     0.437469082154      -0.505331777288     0.437469082154      -0.505331777288     -0.562269767403     -0.485841416064     
6200000000.0        -0.57026667699      -0.484604137993     0.429465543552      -0.504424719474     0.429465543552      -0.504424719474     -0.57026667699      -0.484604137993     
6300000000.0        -0.57810116175      -0.483260511691     0.421624312784      -0.50341166905      0.421624312784      -0.50341166905      -0.57810116175      -0.483260511691     
6400000000.0        -0.585775237465     -0.481817174799     0.413943373712      -0.502299263379     0.413943373712      -0.502299263379     -0.585775237465     -0.481817174799     
6500000000.0        -0.593291045916     -0.480280462356     0.406420584195      -0.501093837232     0.406420584195      -0.501093837232     -0.593291045916     -0.480280462356     
6600000000.0        -0.600650837989     -0.478656415899     0.399053692991      -0.499801431896     0.399053692991      -0.499801431896     -0.600650837989     -0.478656415899     
6700000000.0        -0.607856958089     -0.476950792804     0.391840355337      -0.498427804509     0.391840355337      -0.498427804509     -0.607856958089     -0.476950792804     
6800000000.0        -0.614911829809     -0.475169075791     0.384778147281      -0.496978437571     0.384778147281      -0.496978437571     -0.614911829809     -0.475169075791     
6900000000.0        -0.62181794276      -0.473316482506     0.377864578856      -0.495458548529     0.377864578856      -0.495458548529     -0.62181794276      -0.473316482506     
7000000000.0        -0.628577840511     -0.471397975143     0.371097106133      -0.493873099396     0.371097106133      -0.493873099396     -0.628577840511     -0.471397975143     
7100000000.0        -0.635194109567     -0.46941827003      0.364473142247      -0.49222680634      0.364473142247      -0.49222680634      -0.635194109567     -0.46941827003      
7200000000.0        -0.641669369312     -0.467381847143     0.357990067454      -0.490524149201     0.357990067454      -0.490524149201     -0.641669369312     -0.467381847143     
7300000000.0        -0.648006262863     -0.465292959509     0.351645238278      -0.488769380891     0.351645238278      -0.488769380891     -0.648006262863     -0.465292959509     
7400000000.0        -0.654207448764     -0.46315564246      0.345435995814      -0.486966536653     0.345435995814      -0.486966536653     -0.654207448764     -0.46315564246      
7500000000.0        -0.660275593473     -0.460973722712     0.339359673242      -0.485119443136     0.339359673242      -0.485119443136     -0.660275593473     -0.460973722712     
7600000000.0        -0.666213364576     -0.458750827246     0.333413602613      -0.483231727284     0.333413602613      -0.483231727284     -0.666213364576     -0.458750827246     
7700000000.0        -0.672023424679     -0.456490391972     0.327595120957      -0.481306824994     0.327595120957      -0.481306824994     -0.672023424679     -0.456490391972     
7800000000.0        -0.677708425933     -0.454195670162     0.321901575759      -0.479347989551     0.321901575759      -0.479347989551     -0.677708425933     -0.454195670162     
7900000000.0        -0.683271005132     -0.451869740634     0.316330329859      -0.477358299816     0.316330329859      -0.477358299816     -0.683271005132     -0.451869740634     
8000000000.0        -0.688713779351     -0.449515515692     0.310878765816      -0.475340668162     0.310878765816      -0.475340668162     -0.688713779351     -0.449515515692     
8100000000.0        -0.694039342076     -0.447135748794     0.305544289775      -0.473297848146     0.305544289775      -0.473297848146     -0.694039342076     -0.447135748794     
8200000000.0        -0.699250259789     -0.444733041973     0.300324334884      -0.471232441928     0.300324334884      -0.471232441928     -0.699250259789     -0.444733041973     
8300000000.0        -0.704349068972     -0.442309852981     0.295216364294      -0.469146907416     0.295216364294      -0.469146907416     -0.704349068972     -0.442309852981     
8400000000.0        -0.709338273483     -0.439868502171     0.290217873772      -0.46704356515      0.290217873772      -0.46704356515      -0.709338273483     -0.439868502171     
8500000000.0        -0.714220342301     -0.437411179123     0.285326393966      -0.464924604925     0.285326393966      -0.464924604925     -0.714220342301     -0.437411179123     
8600000000.0        -0.718997707571     -0.434939949001     0.280539492358      -0.462792092149     0.280539492358      -0.462792092149     -0.718997707571     -0.434939949001     
8700000000.0        -0.723672762954     -0.432456758655     0.275854774909      -0.460647973951     0.275854774909      -0.460647973951     -0.723672762954     -0.432456758655     
8800000000.0        -0.728247862239     -0.429963442473     0.271269887452      -0.458494085023     0.271269887452      -0.458494085023     -0.728247862239     -0.429963442473     
8900000000.0        -0.7327253182       -0.427461727985     0.266782516833      -0.456332153232     0.266782516833      -0.456332153232     -0.7327253182       -0.427461727985     
9000000000.0        -0.737107401667     -0.424953241224     0.262390391843      -0.454163804977     0.262390391843      -0.454163804977     -0.737107401667     -0.424953241224     
9100000000.0        -0.741396340799     -0.422439511854     0.258091283936      -0.451990570322     0.258091283936      -0.451990570322     -0.741396340799     -0.422439511854     
9200000000.0        -0.745594320546     -0.419921978071     0.25388300778       -0.449813887888     0.25388300778       -0.449813887888     -0.745594320546     -0.419921978071     
9300000000.0        -0.749703482254     -0.417401991278     0.249763421639      -0.447635109537     0.249763421639      -0.447635109537     -0.749703482254     -0.417401991278     
9400000000.0        -0.753725923441     -0.414880820549     0.245730427609      -0.445455504833     0.245730427609      -0.445455504833     -0.753725923441     -0.414880820549     
9500000000.0        -0.757663697679     -0.412359656892     0.241781971724      -0.443276265303     0.241781971724      -0.443276265303     -0.757663697679     -0.412359656892     
9600000000.0        -0.761518814619     -0.4098396173       0.237916043943      -0.441098508491     0.237916043943      -0.441098508491     -0.761518814619     -0.4098396173       
9700000000.0        -0.765293240101     -0.407321748623     0.234130678028      -0.438923281824     0.234130678028      -0.438923281824     -0.765293240101     -0.407321748623     
9800000000.0        -0.768988896368     -0.404807031243     0.230423951338      -0.436751566299     0.230423951338      -0.436751566299     -0.768988896368     -0.404807031243     
9900000000.0        -0.772607662365     -0.402296382589     0.226793984531      -0.434584279981     0.226793984531      -0.434584279981     -0.772607662365     -0.402296382589     
10000000000.0       -0.776151374102     -0.399790660459     0.223238941193      -0.432422281342     0.223238941193      -0.432422281342     -0.776151374102     -0.399790660459     
