# Hz S RI R 50.00 
100000000.0         -0.00133140482589   -0.0360163076422    0.998655840303      -0.036083678138     0.998655840303      -0.036083678138     -0.00133140482589   -0.0360163076422    
200000000.0         -0.00524980861232   -0.0717421402185    0.994737342499      -0.0718769059634    0.994737342499      -0.0718769059634    -0.00524980861232   -0.0717421402185    
300000000.0         -0.0116870850595    -0.10690245922      0.988299989389      -0.107104657292     0.988299989389      -0.107104657292     -0.0116870850595    -0.10690245922      
400000000.0         -0.0205432229216    -0.141237535222     0.979443781252      -0.141507211732     0.979443781252      -0.141507211732     -0.0205432229216    -0.141237535222     
500000000.0         -0.0316844296262    -0.174508758243     0.968302506453      -0.174845966503     0.968302506453      -0.174845966503     -0.0316844296262    -0.174508758243     
600000000.0         -0.04494808595      -0.206503551507     0.955038782075      -0.206908350731     0.955038782075      -0.206908350731     -0.0449480859499    -0.206503551507     
700000000.0         -0.0601484430517    -0.237039061725     0.939838355694      -0.23751151601      0.939838355694      -0.23751151601      -0.0601484430517    -0.237039061725     
800000000.0         -0.0770827196559    -0.265964510434     0.922904007765      -0.266504687914     0.922904007765      -0.266504687914     -0.0770827196559    -0.265964510434     
900000000.0         -0.0955372615271    -0.293162207763     0.904449391955      -0.293770179894     0.904449391955      -0.293770179894     -0.0955372615271    -0.293162207763     
1000000000.0        -0.115293458902     -0.31854732125      0.884693117612      -0.319223162188     0.884693117612      -0.319223162188     -0.115293458902     -0.31854732125      
1100000000.0        -0.136133171894     -0.34206656072      0.86385332431       -0.342810346783     0.86385332431       -0.342810346783     -0.136133171894     -0.34206656072      
1200000000.0        -0.157843479956     -0.363695984398     0.842142932352      -0.364507793582     0.842142932352      -0.364507793582     -0.157843479956     -0.363695984398     
1300000000.0        -0.180220640784     -0.383438152069     0.819765683846      -0.384318063627     0.819765683846      -0.384318063627     -0.180220640784     -0.383438152069     
1400000000.0        -0.203073209391     -0.401318850894     0.796913023617      -0.402266944966     0.796913023617      -0.402266944966     -0.203073209391     -0.401318850894     
1500000000.0        -0.226224324298     -0.417383602932     0.773761813012      -0.418399960208     0.773761813012      -0.418399960208     -0.226224324298     -0.417383602932     
1600000000.0        -0.249513212        -0.431694135448     0.750472825423      -0.43277883688      0.750472825423      -0.43277883688      -0.249513212        -0.431694135448     
1700000000.0        -0.272795991992     -0.444324960935     0.727189941257      -0.445478087478     0.727189941257      -0.445478087478     -0.272795991992     -0.444324960935     
1800000000.0        -0.295945883349     -0.455360177527     0.704039941357      -0.456581809909     0.704039941357      -0.456581809909     -0.295945883349     -0.455360177527     
1900000000.0        -0.318852921722     -0.464890565775     0.681132789998      -0.466180784303     0.681132789998      -0.466180784303     -0.318852921722     -0.464890565775     
2000000000.0        -0.341423294899     -0.473011026706     0.658562299324      -0.474369911091     0.658562299324      -0.474369911091     -0.341423294899     -0.473011026706     
2100000000.0        -0.363578398116     -0.479818380095     0.636407074045      -0.481246009298     0.636407074045      -0.481246009298     -0.363578398116     -0.479818380095     
2200000000.0        -0.385253699271     -0.485409521403     0.614731646209      -0.486905973513     0.614731646209      -0.486905973513     -0.385253699271     -0.485409521403     
2300000000.0        -0.406397491097     -0.489879920776     0.593587723037      -0.491445272895     0.593587723037      -0.491445272895     -0.406397491097     -0.489879920776     
2400000000.0        -0.426969593505     -0.493322437241     0.573015484574      -0.494956765391     0.573015484574      -0.494956765391     -0.426969593505     -0.493322437241     
2500000000.0        -0.446940055972     -0.495826415159     0.553044881305      -0.497529794207     0.553044881305      -0.497529794207     -0.446940055972     -0.495826415159     
2600000000.0        -0.466287897584     -0.497477027152     0.533696894108      -0.499249530742     0.533696894108      -0.499249530742     -0.466287897584     -0.497477027152     
2700000000.0        -0.484999911656     -0.498354827391     0.514984729635      -0.500196527898     0.514984729635      -0.500196527898     -0.484999911656     -0.498354827391     
2800000000.0        -0.503069552807     -0.49853548055      0.496914933237      -0.500446449036     0.496914933237      -0.500446449036     -0.503069552807     -0.49853548055      
2900000000.0        -0.52049591706      -0.498089634314     0.479488408864      -0.500069940499     0.479488408864      -0.500069940499     -0.52049591706      -0.498089634314     
3000000000.0        -0.537282819764     -0.497082906566     0.462701341138      -0.499132618805     0.462701341138      -0.499132618805     -0.537282819764     -0.497082906566     
3100000000.0        -0.553437971786     -0.495575961934     0.446546019171      -0.497695147208     0.446546019171      -0.497695147208     -0.553437971786     -0.495575961934     
3200000000.0        -0.568972251241     -0.493624655946     0.431011564824      -0.495813379852     0.431011564824      -0.495813379852     -0.568972251241     -0.493624655946     
3300000000.0        -0.583899065842     -0.491280228461     0.416084570363      -0.493538555212     0.416084570363      -0.493538555212     -0.583899065842     -0.491280228461     
3400000000.0        -0.598233799573     -0.488589531212     0.401749651786      -0.490917523645     0.401749651786      -0.490917523645     -0.598233799573     -0.488589531212     
3500000000.0        -0.611993336576     -0.485595277117     0.387989924929      -0.487992996699     0.387989924929      -0.487992996699     -0.611993336576     -0.485595277117     
3600000000.0        -0.625195654849     -0.482336301508     0.374787411778      -0.484803808355     0.374787411778      -0.484803808355     -0.625195654849     -0.482336301508     
3700000000.0        -0.637859482343     -0.478847827544     0.362123384366      -0.481385180435     0.362123384366      -0.481385180435     -0.637859482343     -0.478847827544     
3800000000.0        -0.650004008314     -0.475161729879     0.349978653422      -0.477768986278     0.349978653422      -0.477768986278     -0.650004008314     -0.475161729879     
3900000000.0        -0.661648643186     -0.471306792154     0.338333808506      -0.473984008234     0.338333808506      -0.473984008234     -0.661648643186     -0.471306792154     
4000000000.0        -0.672812820684     -0.467308955103     0.327169415879      -0.470056185771     0.327169415879      -0.470056185771     -0.672812820684     -0.467308955103     
4100000000.0        -0.683515836541     -0.463191553057     0.316466179796      -0.46600885198      0.316466179796      -0.46600885198      -0.683515836541     -0.463191553057     
4200000000.0        -0.69377671865      -0.45897553741      0.30620507235       -0.461862957048     0.30620507235       -0.461862957048     -0.69377671865      -0.45897553741      
4300000000.0        -0.703614124084     -0.454679686242     0.296367436458      -0.457637277875     0.296367436458      -0.457637277875     -0.703614124084     -0.454679686242     
4400000000.0        -0.713046258942     -0.450320799769     0.286935066008      -0.453348613528     0.286935066008      -0.453348613528     -0.713046258942     -0.450320799769     
4500000000.0        -0.722090817473     -0.44591388163      0.277890266742      -0.44901196653      0.277890266742      -0.44901196653      -0.722090817473     -0.44591388163      
4600000000.0        -0.730764937371     -0.441472306328     0.269215900953      -0.444640710301     0.269215900953      -0.444640710301     -0.730764937371     -0.441472306328     
4700000000.0        -0.739085168575     -0.437007973299     0.260895418694      -0.440246743223     0.260895418694      -0.440246743223     -0.739085168575     -0.437007973299     
4800000000.0        -0.74706745325      -0.432531448219     0.25291287779       -0.435840629955     0.25291287779       -0.435840629955     -0.74706745325      -0.432531448219     
4900000000.0        -0.754727114969     -0.428052092265     0.245252954659      -0.431431730689     0.245252954659      -0.431431730689     -0.754727114969     -0.428052092265     
5000000000.0        -0.762078855405     -0.423578180075     0.23790094762       -0.427028319108     0.23790094762       -0.427028319108     -0.762078855405     -0.423578180075     
5100000000.0        -0.769136757086     -0.419117007158     0.230842774136      -0.422637689802     0.230842774136      -0.422637689802     -0.769136757086     -0.419117007158     
5200000000.0        -0.775914291002     -0.414674987549     0.224064963208      -0.418266255916     0.224064963208      -0.418266255916     -0.775914291002     -0.414674987549     
5300000000.0        -0.782424328033     -0.41025774244      0.21755464395       -0.413919637787     0.21755464395       -0.413919637787     -0.782424328033     -0.41025774244      
5400000000.0        -0.788679153332     -0.40587018052      0.211299531199      -0.409602743278     0.211299531199      -0.409602743278     -0.788679153332     -0.40587018052      
5500000000.0        -0.794690482954     -0.401516570711     0.205287908896      -0.405319840516     0.205287908896      -0.405319840516     -0.794690482954     -0.401516570711     
5600000000.0        -0.800469482115     -0.397200607956     0.199508611814      -0.40107462368      0.199508611814      -0.40107462368      -0.800469482115     -0.397200607956     
5700000000.0        -0.806026784606     -0.392925472667     0.193951006158      -0.396870272449     0.193951006158      -0.396870272449     -0.806026784606     -0.392925472667     
5800000000.0        -0.811372512936     -0.388693884404     0.188604969412      -0.392709505677     0.188604969412      -0.392709505677     -0.811372512936     -0.388693884404     
5900000000.0        -0.816516298883     -0.384508150309     0.183460869791      -0.388594629828     0.183460869791      -0.388594629828     -0.816516298883     -0.384508150309     
6000000000.0        -0.821467304182     -0.380370208778     0.178509545554      -0.38452758265      0.178509545554      -0.38452758265      -0.821467304182     -0.380370208778     
6100000000.0        -0.826234241127     -0.376281668827     0.173742284399      -0.380509972537     0.173742284399      -0.380509972537     -0.826234241127     -0.376281668827     
6200000000.0        -0.830825392926     -0.37224384555      0.169150803115      -0.376543113988     0.169150803115      -0.376543113988     -0.830825392926     -0.37224384555      
6300000000.0        -0.835248633661     -0.368257792049     0.164727227612      -0.372628059533     0.164727227612      -0.372628059533     -0.835248633661     -0.368257792049     
6400000000.0        -0.839511447758     -0.364324328168     0.160464073459      -0.368765628472     0.160464073459      -0.368765628472     -0.839511447758     -0.364324328168     
6500000000.0        -0.843620948889     -0.360444066353     0.156354226977      -0.364956432731     0.156354226977      -0.364956432731     -0.843620948889     -0.360444066353     
6600000000.0        -0.847583898248     -0.356617434903     0.152390926969      -0.36120090011      0.152390926969      -0.36120090011      -0.847583898248     -0.356617434903     
6700000000.0        -0.851406722153     -0.352844698878     0.148567747109      -0.357499295197     0.148567747109      -0.357499295197     -0.851406722153     -0.352844698878     
6800000000.0        -0.855095528965     -0.349125978896     0.144878579031      -0.353851738156     0.144878579031      -0.353851738156     -0.855095528965     -0.349125978896     
6900000000.0        -0.8586561253       -0.345461268011     0.141317616114      -0.350258221611     0.141317616114      -0.350258221611     -0.8586561253       -0.345461268011     
7000000000.0        -0.862094031531     -0.341850446881     0.137879337979      -0.34671862581      0.137879337979      -0.34671862581      -0.862094031531     -0.341850446881     
7100000000.0        -0.86541449659      -0.338293297387     0.13455849569       -0.343232732244     0.13455849569       -0.343232732244     -0.86541449659      -0.338293297387     
7200000000.0        -0.868622512067     -0.334789514847     0.131350097652      -0.339800235862     0.131350097652      -0.339800235862     -0.868622512067     -0.334789514847     
7300000000.0        -0.871722825633     -0.331338718988     0.128249396188      -0.33642075604      0.128249396188      -0.33642075604      -0.871722825633     -0.331338718988     
7400000000.0        -0.874719953803     -0.327940463774     0.125251874776      -0.333093846407     0.125251874776      -0.333093846407     -0.874719953803     -0.327940463774     
7500000000.0        -0.877618194049     -0.32459424622      0.122353235942      -0.329819003664     0.122353235942      -0.329819003664     -0.877618194049     -0.32459424622      
7600000000.0        -0.880421636297     -0.321299514289     0.119549389753      -0.326595675476     0.119549389753      -0.326595675476     -0.880421636297     -0.321299514289     
7700000000.0        -0.883134173824     -0.31805567396      0.116836442928      -0.323423267541     0.116836442928      -0.323423267541     -0.883134173824     -0.31805567396      
7800000000.0        -0.885759513585     -0.314862095556     0.114210688507      -0.320301149914     0.114210688507      -0.320301149914     -0.885759513585     -0.314862095556     
7900000000.0        -0.888301185988     -0.3117181194       0.111668596076      -0.31722866267      0.111668596076      -0.31722866267      -0.888301185988     -0.3117181194       
8000000000.0        -0.890762554151     -0.308623060868     0.109206802512      -0.31420512095      0.109206802512      -0.31420512095      -0.890762554151     -0.308623060868     
8100000000.0        -0.893146822657     -0.305576214904     0.106822103228      -0.311229819475     0.106822103228      -0.311229819475     -0.893146822657     -0.305576214904     
8200000000.0        -0.895457045831     -0.302576860042     0.104511443893      -0.308302036573     0.104511443893      -0.308302036573     -0.895457045831     -0.302576860042     
8300000000.0        -0.897696135574     -0.299624261988     0.1022719126        -0.305421037758     0.1022719126        -0.305421037758     -0.897696135574     -0.299624261988     
8400000000.0        -0.899866868765     -0.296717676816     0.100100732468      -0.30258607892      0.100100732468      -0.30258607892      -0.899866868765     -0.296717676816     
8500000000.0        -0.901971894254     -0.293856353795     0.0979952546392     -0.299796409163     0.0979952546392     -0.299796409163     -0.901971894254     -0.293856353795     
8600000000.0        -0.904013739478     -0.291039537908     0.0959529516726     -0.297051273312     0.0959529516726     -0.297051273312     -0.904013739478     -0.291039537908     
8700000000.0        -0.905994816709     -0.288266472074     0.093971411291      -0.294349914143     0.093971411291      -0.294349914143     -0.905994816709     -0.288266472074     
8800000000.0        -0.90791742896      -0.285536399121     0.0920483304773     -0.291691574351     0.0920483304773     -0.291691574351     -0.90791742896      -0.285536399121     
8900000000.0        -0.909783775562     -0.282848563516     0.0901815098932     -0.289075498279     0.0901815098932     -0.289075498279     -0.909783775562     -0.282848563516     
9000000000.0        -0.911595957444     -0.280202212893     0.0883688486061     -0.286500933451     0.0883688486061     -0.286500933451     -0.911595957444     -0.280202212893     
9100000000.0        -0.913355982113     -0.277596599391     0.0866083391043     -0.283967131903     0.0866083391043     -0.283967131903     -0.913355982113     -0.277596599391     
9200000000.0        -0.915065768363     -0.275030980821     0.0848980625872     -0.281473351356     0.0848980625872     -0.281473351356     -0.915065768363     -0.275030980821     
9300000000.0        -0.916727150732     -0.272504621689     0.0832361845122     -0.279018856231     0.0832361845122     -0.279018856231     -0.916727150732     -0.272504621689     
9400000000.0        -0.918341883708     -0.27001679407      0.0816209503859     -0.276602918534     0.0816209503859     -0.276602918534     -0.918341883708     -0.27001679407      
9500000000.0        -0.919911645709     -0.267566778375     0.0800506817844     -0.274224818607     0.0800506817844     -0.274224818607     -0.919911645709     -0.267566778375     
9600000000.0        -0.921438042849     -0.265153863995     0.0785237725908     -0.271883845786     0.0785237725908     -0.271883845786     -0.921438042849     -0.265153863995     
9700000000.0        -0.922922612489     -0.262777349855     0.0770386854358     -0.269579298951     0.0770386854358     -0.269579298951     -0.922922612489     -0.262777349855     
9800000000.0        -0.924366826613     -0.260436544882     0.075593948332      -0.267310486986     0.075593948332      -0.267310486986     -0.924366826613     -0.260436544882     
9900000000.0        -0.925772095005     -0.258130768383     0.074188151489      -0.265076729167     0.074188151489      -0.265076729167     -0.925772095005     -0.258130768383     
10000000000.0       -0.927139768267     -0.255859350368     0.0728199442998     -0.262877355478     0.0728199442998     -0.262877355478     -0.927139768267     -0.255859350368     
