# Hz S RI R 50.00 
100000000.0         0.000468971568159   -0.000553996640568  0.999526541327      -0.00129624760374   0.999526541327      -0.00129624760374   0.000468971568159   -0.000553996640568  
200000000.0         0.000469094496784   -0.00110799657914   0.999519507294      -0.00259249239948   0.999519507294      -0.00259249239948   0.000469094496784   -0.00110799657914   
300000000.0         0.000466955781288   -0.00166199697086   0.999511310824      -0.00388873688049   0.999511310824      -0.00388873688049   0.000466955781288   -0.00166199697086   
400000000.0         0.000462963055124   -0.00221599548767   0.999501544189      -0.00518498124468   0.999501544189      -0.00518498124468   0.000462963055124   -0.00221599548767   
500000000.0         0.000457273013338   -0.00276998973149   0.999490050587      -0.00648122486863   0.999490050587      -0.00648122486863   0.000457273013338   -0.00276998973149   
600000000.0         0.000449965412954   -0.00332397719952   0.99947675015       -0.00777746665466   0.99947675015       -0.00777746665466   0.000449965412954   -0.00332397719952   
700000000.0         0.00044108726982    -0.00387795528961   0.99946159575       -0.00907370518303   0.99946159575       -0.00907370518303   0.00044108726982    -0.00387795528961   
800000000.0         0.000430668976993   -0.00443192131162   0.999444556881      -0.0103699387958    0.999444556881      -0.0103699387958    0.000430668976993   -0.00443192131162   
900000000.0         0.00041873147616    -0.00498587249793   0.999425612489      -0.0116661656484    0.999425612489      -0.0116661656484    0.00041873147616    -0.00498587249793   
1000000000.0        0.000405289890264   -0.00553980601237   0.999404747343      -0.0129623837446    0.999404747343      -0.0129623837446    0.000405289890264   -0.00553980601237   
1100000000.0        0.000390355541433   -0.00609371895749   0.999381950019      -0.014258590961     0.999381950019      -0.014258590961     0.000390355541433   -0.00609371895749   
1200000000.0        0.000373937152623   -0.00664760838101   0.999357211697      -0.0155547850655    0.999357211697      -0.0155547850655    0.000373937152623   -0.00664760838101   
1300000000.0        0.00035604160321    -0.0072014712808    0.999330525406      -0.0168509637315    0.999330525406      -0.0168509637315    0.00035604160321    -0.0072014712808    
1400000000.0        0.000336674425351   -0.00775530460924   0.999301885531      -0.0181471245487    0.999301885531      -0.0181471245487    0.000336674425351   -0.00775530460924   
1500000000.0        0.000315840141987   -0.0083091052771    0.999271287476      -0.0194432650323    0.999271287476      -0.0194432650323    0.000315840141987   -0.0083091052771    
1600000000.0        0.000293542504185   -0.00886287015655   0.999238727426      -0.0207393826302    0.999238727426      -0.0207393826302    0.000293542504185   -0.00886287015655   
1700000000.0        0.00026978466205    -0.00941659608409   0.999204202174      -0.0220354747295    0.999204202174      -0.0220354747295    0.000269784662051   -0.00941659608409   
1800000000.0        0.00024456929065    -0.00997027986277   0.999167709003      -0.0233315386612    0.999167709003      -0.0233315386612    0.00024456929065    -0.00997027986277   
1900000000.0        0.00021789868455    -0.0105239182645    0.999129245584      -0.0246275717047    0.999129245584      -0.0246275717047    0.00021789868455    -0.0105239182645    
2000000000.0        0.000189774830035   -0.0110775080321    0.99908880991       -0.0259235710921    0.99908880991       -0.0259235710921    0.000189774830035   -0.0110775080321    
2100000000.0        0.000160199461126   -0.0116310458804    0.999046400238      -0.0272195340109    0.999046400238      -0.0272195340109    0.000160199461126   -0.0116310458804    
2200000000.0        0.000129174103602   -0.0121845284983    0.999002015046      -0.0285154576075    0.999002015046      -0.0285154576075    0.000129174103602   -0.0121845284983    
2300000000.0        9.67001100345e-05   -0.0127379525503    0.998955652999      -0.0298113389895    0.998955652999      -0.0298113389895    9.67001100343e-05   -0.0127379525503    
2400000000.0        6.27786879768e-05   -0.0132913146768    0.998907312919      -0.0311071752277    0.998907312919      -0.0311071752277    6.27786879768e-05   -0.0132913146768    
2500000000.0        2.74109228577e-05   -0.0138446114963    0.998856993766      -0.032402963359     0.998856993766      -0.032402963359     2.74109228575e-05   -0.0138446114963    
2600000000.0        -9.40220323709e-06  -0.0143978396058    0.998804694617      -0.0336987003875    0.998804694617      -0.0336987003875    -9.40220323709e-06  -0.0143978396058    
2700000000.0        -4.76597960306e-05  -0.0149509955821    0.998750414651      -0.0349943832865    0.998750414651      -0.0349943832865    -4.76597960306e-05  -0.0149509955821    
2800000000.0        -8.7361036115e-05   -0.0155040759823    0.998694153137      -0.0362900090001    0.998694153137      -0.0362900090001    -8.7361036115e-05   -0.0155040759823    
2900000000.0        -0.00012850516809   -0.0160570773449    0.998635909424      -0.0375855744446    0.998635909424      -0.0375855744446    -0.00012850516809   -0.0160570773449    
3000000000.0        -0.000171091491385  -0.0166099961904    0.998575682932      -0.0388810765094    0.998575682932      -0.0388810765094    -0.000171091491385  -0.0166099961904    
3100000000.0        -0.000215119352458  -0.0171628290221    0.998513473142      -0.0401765120587    0.998513473142      -0.0401765120587    -0.000215119352458  -0.0171628290221    
3200000000.0        -0.000260588138123  -0.0177155723269    0.998449279595      -0.0414718779326    0.998449279595      -0.0414718779326    -0.000260588138123  -0.0177155723269    
3300000000.0        -0.00030749726982   -0.0182682225755    0.998383101879      -0.0427671709476    0.998383101879      -0.0427671709476    -0.00030749726982   -0.0182682225755    
3400000000.0        -0.000355846198651  -0.0188207762233    0.998314939634      -0.0440623878979    0.998314939634      -0.0440623878979    -0.000355846198651  -0.0188207762233    
3500000000.0        -0.000405634401089  -0.0193732297109    0.998244792536      -0.0453575255564    0.998244792536      -0.0453575255564    -0.00040563440109   -0.0193732297109    
3600000000.0        -0.000456861375227  -0.0199255794644    0.998172660306      -0.0466525806753    0.998172660306      -0.0466525806753    -0.000456861375228  -0.0199255794644    
3700000000.0        -0.000509526637484  -0.0204778218961    0.998098542697      -0.0479475499867    0.998098542697      -0.0479475499867    -0.000509526637484  -0.0204778218961    
3800000000.0        -0.000563629719727  -0.0210299534051    0.998022439497      -0.049242430204     0.998022439497      -0.049242430204     -0.000563629719728  -0.0210299534051    
3900000000.0        -0.000619170166719  -0.0215819703774    0.997944350524      -0.0505372180216    0.997944350524      -0.0505372180216    -0.000619170166719  -0.0215819703774    
4000000000.0        -0.000676147533859  -0.0221338691862    0.997864275627      -0.0518319101166    0.997864275627      -0.0518319101166    -0.000676147533859  -0.0221338691862    
4100000000.0        -0.000734561385181  -0.022685646193     0.997782214679      -0.0531265031485    0.997782214679      -0.0531265031485    -0.000734561385181  -0.022685646193     
4200000000.0        -0.000794411291559  -0.0232372977471    0.997698167582      -0.0544209937604    0.997698167582      -0.0544209937604    -0.000794411291559  -0.0232372977471    
4300000000.0        -0.00085569682911   -0.0237888201868    0.997612134259      -0.0557153785791    0.997612134259      -0.0557153785791    -0.00085569682911   -0.0237888201868    
4400000000.0        -0.000918417577754  -0.0243402098388    0.997524114658      -0.0570096542159    0.997524114658      -0.0570096542159    -0.000918417577754  -0.0243402098388    
4500000000.0        -0.00098257311993   -0.0248914630195    0.997434108749      -0.0583038172672    0.997434108749      -0.0583038172672    -0.00098257311993   -0.0248914630195    
4600000000.0        -0.00104816303942   -0.0254425760346    0.997342116521      -0.0595978643144    0.997342116521      -0.0595978643144    -0.00104816303942   -0.0254425760346    
4700000000.0        -0.00111518692029   -0.0259935451798    0.997248137984      -0.0608917919252    0.997248137984      -0.0608917919252    -0.00111518692029   -0.0259935451798    
4800000000.0        -0.00118364434597   -0.0265443667409    0.997152173167      -0.0621855966531    0.997152173167      -0.0621855966531    -0.00118364434597   -0.0265443667409    
4900000000.0        -0.00125353489831   -0.0270950369941    0.997054222119      -0.0634792750386    0.997054222119      -0.0634792750386    -0.00125353489831   -0.0270950369941    
5000000000.0        -0.00132485815688   -0.0276455522065    0.996954284903      -0.0647728236091    0.996954284903      -0.0647728236091    -0.00132485815688   -0.0276455522065    
5100000000.0        -0.00139761369818   -0.0281959086359    0.996852361604      -0.0660662388795    0.996852361604      -0.0660662388795    -0.00139761369818   -0.0281959086359    
5200000000.0        -0.00147180109498   -0.0287461025316    0.996748452321      -0.0673595173526    0.996748452321      -0.0673595173526    -0.00147180109498   -0.0287461025316    
5300000000.0        -0.00154741991576   -0.0292961301341    0.996642557169      -0.0686526555191    0.996642557169      -0.0686526555191    -0.00154741991576   -0.0292961301341    
5400000000.0        -0.00162446972409   -0.029845987676     0.99653467628       -0.0699456498585    0.99653467628       -0.0699456498585    -0.00162446972409   -0.029845987676     
5500000000.0        -0.00170295007818   -0.0303956713815    0.996424809802      -0.0712384968388    0.996424809802      -0.0712384968388    -0.00170295007818   -0.0303956713815    
5600000000.0        -0.00178286053033   -0.0309451774671    0.996312957896      -0.0725311929175    0.996312957896      -0.0725311929175    -0.00178286053033   -0.0309451774671    
5700000000.0        -0.00186420062657   -0.0314945021417    0.996199120739      -0.0738237345412    0.996199120739      -0.0738237345412    -0.00186420062657   -0.0314945021417    
5800000000.0        -0.0019469699062    -0.0320436416069    0.996083298525      -0.0751161181464    0.996083298525      -0.0751161181464    -0.0019469699062    -0.0320436416069    
5900000000.0        -0.00203116790142   -0.032592592057     0.995965491459      -0.0764083401597    0.995965491459      -0.0764083401597    -0.00203116790142   -0.032592592057     
6000000000.0        -0.00211679413701   -0.0331413496793    0.99584569976       -0.0777003969977    0.99584569976       -0.0777003969977    -0.00211679413701   -0.0331413496793    
6100000000.0        -0.00220384812997   -0.0336899106543    0.995723923664      -0.0789922850677    0.995723923664      -0.0789922850677    -0.00220384812997   -0.0336899106543    
6200000000.0        -0.00229232938924   -0.0342382711562    0.995600163419      -0.080284000768     0.995600163419      -0.080284000768     -0.00229232938924   -0.0342382711562    
6300000000.0        -0.0023822374154    -0.0347864273523    0.995474419285      -0.0815755404877    0.995474419285      -0.0815755404877    -0.0023822374154    -0.0347864273523    
6400000000.0        -0.00247357170042   -0.0353343754042    0.995346691538      -0.0828669006074    0.995346691538      -0.0828669006074    -0.00247357170042   -0.0353343754042    
6500000000.0        -0.00256633172739   -0.0358821114671    0.995216980467      -0.084158077499     0.995216980467      -0.084158077499     -0.00256633172739   -0.0358821114671    
6600000000.0        -0.00266051697034   -0.0364296316904    0.995085286372      -0.0854490675265    0.995085286372      -0.0854490675265    -0.00266051697034   -0.0364296316904    
6700000000.0        -0.00275612689394   -0.036976932218     0.994951609567      -0.0867398670456    0.994951609567      -0.0867398670456    -0.00275612689394   -0.036976932218     
6800000000.0        -0.00285316095338   -0.0375240091881    0.994815950381      -0.0880304724045    0.994815950381      -0.0880304724045    -0.00285316095338   -0.0375240091881    
6900000000.0        -0.00295161859411   -0.0380708587336    0.994678309153      -0.0893208799437    0.994678309153      -0.0893208799437    -0.00295161859411   -0.0380708587336    
7000000000.0        -0.00305149925172   -0.0386174769822    0.994538686237      -0.0906110859963    0.994538686237      -0.0906110859963    -0.00305149925172   -0.0386174769822    
7100000000.0        -0.0031528023517    -0.0391638600565    0.994397081997      -0.0919010868883    0.994397081997      -0.0919010868883    -0.0031528023517    -0.0391638600565    
7200000000.0        -0.00325552730935   -0.0397100040745    0.994253496813      -0.0931908789389    0.994253496813      -0.0931908789389    -0.00325552730935   -0.0397100040745    
7300000000.0        -0.00335967352959   -0.0402559051491    0.994107931074      -0.0944804584603    0.994107931074      -0.0944804584603    -0.00335967352959   -0.0402559051491    
7400000000.0        -0.0034652404068    -0.0408015593889    0.993960385184      -0.0957698217584    0.993960385184      -0.0957698217584    -0.0034652404068    -0.0408015593889    
7500000000.0        -0.00357222732473   -0.0413469628979    0.99381085956       -0.0970589651325    0.99381085956       -0.0970589651325    -0.00357222732473   -0.0413469628979    
7600000000.0        -0.00368063365634   -0.0418921117761    0.993659354628      -0.098347884876     0.993659354628      -0.098347884876     -0.00368063365634   -0.0418921117761    
7700000000.0        -0.00379045876367   -0.0424370021191    0.993505870829      -0.0996365772759    0.993505870829      -0.0996365772759    -0.00379045876367   -0.0424370021191    
7800000000.0        -0.00390170199777   -0.0429816300186    0.993350408616      -0.100925038614     0.993350408616      -0.100925038614     -0.00390170199777   -0.0429816300186    
7900000000.0        -0.00401436269854   -0.0435259915625    0.993192968455      -0.102213265165     0.993192968455      -0.102213265165     -0.00401436269854   -0.0435259915625    
8000000000.0        -0.00412844019465   -0.044070082835     0.993033550822      -0.103501253201     0.993033550822      -0.103501253201     -0.00412844019465   -0.044070082835     
8100000000.0        -0.00424393380343   -0.0446138999167    0.992872156206      -0.104788998985     0.992872156206      -0.104788998985     -0.00424393380343   -0.0446138999167    
8200000000.0        -0.00436084283079   -0.0451574388846    0.99270878511       -0.106076498779     0.99270878511       -0.106076498779     -0.00436084283079   -0.0451574388846    
8300000000.0        -0.00447916657113   -0.0457006958128    0.992543438046      -0.107363748836     0.992543438046      -0.107363748836     -0.00447916657113   -0.0457006958128    
8400000000.0        -0.00459890430724   -0.0462436667718    0.992376115542      -0.108650745406     0.992376115542      -0.108650745406     -0.00459890430724   -0.0462436667718    
8500000000.0        -0.00472005531022   -0.0467863478294    0.992206818136      -0.109937484735     0.992206818136      -0.109937484735     -0.00472005531022   -0.0467863478294    
8600000000.0        -0.00484261883943   -0.0473287350502    0.992035546376      -0.111223963064     0.992035546376      -0.111223963064     -0.00484261883943   -0.0473287350502    
8700000000.0        -0.00496659414237   -0.0478708244961    0.991862300827      -0.11251017663      0.991862300827      -0.11251017663      -0.00496659414237   -0.0478708244961    
8800000000.0        -0.00509198045464   -0.0484126122266    0.991687082062      -0.113796121664     0.991687082062      -0.113796121664     -0.00509198045464   -0.0484126122266    
8900000000.0        -0.0052187769999    -0.0489540942982    0.991509890667      -0.115081794394     0.991509890667      -0.115081794394     -0.0052187769999    -0.0489540942982    
9000000000.0        -0.00534698298974   -0.0494952667654    0.991330727242      -0.116367191046     0.991330727242      -0.116367191046     -0.00534698298974   -0.0494952667654    
9100000000.0        -0.00547659762365   -0.0500361256801    0.991149592396      -0.117652307838     0.991149592396      -0.117652307838     -0.00547659762365   -0.0500361256801    
9200000000.0        -0.005607620089     -0.0505766670922    0.990966486753      -0.118937140989     0.990966486753      -0.118937140989     -0.005607620089     -0.0505766670922    
9300000000.0        -0.00574004956091   -0.0511168870494    0.990781410948      -0.120221686712     0.990781410948      -0.120221686712     -0.00574004956091   -0.0511168870494    
9400000000.0        -0.00587388520226   -0.0516567815977    0.990594365626      -0.121505941216     0.990594365626      -0.121505941216     -0.00587388520226   -0.0516567815977    
9500000000.0        -0.00600912616362   -0.0521963467809    0.990405351448      -0.122789900708     0.990405351448      -0.122789900708     -0.00600912616362   -0.0521963467809    
9600000000.0        -0.00614577158317   -0.0527355786413    0.990214369083      -0.124073561393     0.990214369083      -0.124073561393     -0.00614577158317   -0.0527355786413    
9700000000.0        -0.0062838205867    -0.0532744732198    0.990021419215      -0.125356919469     0.990021419215      -0.125356919469     -0.0062838205867    -0.0532744732198    
9800000000.0        -0.00642327228755   -0.0538130265553    0.989826502539      -0.126639971137     0.989826502539      -0.126639971137     -0.00642327228755   -0.0538130265553    
9900000000.0        -0.00656412578655   -0.0543512346859    0.989629619761      -0.12792271259      0.989629619761      -0.12792271259      -0.00656412578655   -0.0543512346859    
10000000000.0       -0.00670638017201   -0.0548890936479    0.9894307716        -0.129205140021     0.9894307716        -0.129205140021     -0.00670638017201   -0.0548890936479    
