# Hz S RI R 50.00 
100000000.0         0.000436294142938   -0.00346996021996   0.999518586494      -0.00500660611301   0.999518586494      -0.00500660611301   0.000436294142938   -0.00346996021996   
200000000.0         0.000383173651942   -0.00693950397045   0.999455728135      -0.0100128016739    0.999455728135      -0.0100128016739    0.000383173651943   -0.00693950397045   
300000000.0         0.00029451639592    -0.0104082344442    0.999356563227      -0.015018212345     0.999356563227      -0.015018212345     0.00029451639592    -0.0104082344442    
400000000.0         0.000170732014519   -0.0138757485564    0.999220709708      -0.0200224502884    0.999220709708      -0.0200224502884    0.000170732014519   -0.0138757485564    
500000000.0         1.19923484689e-05   -0.0173416395691    0.999048035101      -0.0250251217247    0.999048035101      -0.0250251217247    1.19923484689e-05   -0.0173416395691    
600000000.0         -0.000181599391053  -0.0208054984337    0.998838487576      -0.0300258293185    0.998838487576      -0.0300258293185    -0.000181599391053  -0.0208054984337    
700000000.0         -0.000409965629861  -0.0242669145824    0.998592053104      -0.0350241734045    0.998592053104      -0.0350241734045    -0.000409965629861  -0.0242669145824    
800000000.0         -0.000673038735029  -0.0277254764656    0.998308739873      -0.0400197527555    0.998308739873      -0.0400197527555    -0.000673038735029  -0.0277254764656    
900000000.0         -0.000970754021575  -0.0311807719553    0.997988571362      -0.0450121651222    0.997988571362      -0.0450121651222    -0.000970754021575  -0.0311807719553    
1000000000.0        -0.0013030462055    -0.034632388667     0.997631582853      -0.0500010076466    0.997631582853      -0.0500010076466    -0.0013030462055    -0.034632388667     
1100000000.0        -0.00166984743238   -0.0380799142321    0.997237819486      -0.0549858771965    0.997237819486      -0.0549858771965    -0.00166984743238   -0.0380799142321    
1200000000.0        -0.00207108610512   -0.0415229365347    0.996807335112      -0.0599663706494    0.996807335112      -0.0599663706494    -0.00207108610512   -0.0415229365347    
1300000000.0        -0.00250668615078   -0.0449610439259    0.996340191559      -0.0649420851407    0.996340191559      -0.0649420851407    -0.00250668615078   -0.0449610439259    
1400000000.0        -0.00297656654425   -0.0483938254193    0.995836458152      -0.069912618287     0.995836458152      -0.069912618287     -0.00297656654425   -0.0483938254193    
1500000000.0        -0.00348064099057   -0.0518208708741    0.995296211377      -0.0748775683902    0.995296211377      -0.0748775683902    -0.00348064099057   -0.0518208708741    
1600000000.0        -0.00401881770954   -0.0552417711669    0.99471953464       -0.0798365346279    0.99471953464       -0.0798365346279    -0.00401881770954   -0.0552417711669    
1700000000.0        -0.00459099928906   -0.0586561183565    0.994106518083      -0.0847891172315    0.994106518083      -0.0847891172315    -0.00459099928906   -0.0586561183565    
1800000000.0        -0.00519708258632   -0.0620635058406    0.993457258442      -0.0897349176562    0.993457258442      -0.0897349176562    -0.00519708258632   -0.0620635058406    
1900000000.0        -0.00583695866321   -0.0654635285082    0.992771858927      -0.0946735387429    0.992771858927      -0.0946735387429    -0.00583695866321   -0.0654635285082    
2000000000.0        -0.00651051274723   -0.068855782886     0.992050429129      -0.0996045848742    0.992050429129      -0.0996045848742    -0.00651051274723   -0.068855782886     
2100000000.0        -0.0072176242117    -0.0722398672816    0.991293084924      -0.104527662124     0.991293084924      -0.104527662124     -0.0072176242117    -0.0722398672816    
2200000000.0        -0.00795816657107   -0.0756153819219    0.9904999484        -0.109442378406     0.9904999484        -0.109442378406     -0.00795816657107   -0.0756153819219    
2300000000.0        -0.00873200748833   -0.0789819290887    0.989671147783      -0.114348343608     0.989671147783      -0.114348343608     -0.00873200748833   -0.0789819290887    
2400000000.0        -0.00953900879237   -0.0823391132513    0.98880681736       -0.119245169739     0.98880681736       -0.119245169739     -0.00953900879237   -0.0823391132513    
2500000000.0        -0.0103790265036    -0.0856865411958    0.987907097416      -0.124132471057     0.987907097416      -0.124132471057     -0.0103790265036    -0.0856865411958    
2600000000.0        -0.0112519108667    -0.0890238221515    0.986972134164      -0.129009864199     0.986972134164      -0.129009864199     -0.0112519108667    -0.0890238221515    
2700000000.0        -0.0121575063893    -0.0923505679148    0.986002079675      -0.133876968314     0.986002079675      -0.133876968314     -0.0121575063893    -0.0923505679148    
2800000000.0        -0.0130956518866    -0.0956663929708    0.984997091812      -0.138733405182     0.984997091812      -0.138733405182     -0.0130956518866    -0.0956663929708    
2900000000.0        -0.0140661805303    -0.0989709146118    0.983957334157      -0.143578799341     0.983957334157      -0.143578799341     -0.0140661805303    -0.0989709146118    
3000000000.0        -0.015068919902     -0.102263753054     0.982882975946      -0.1484127782       0.982882975946      -0.1484127782       -0.015068919902     -0.102263753054     
3100000000.0        -0.0161036920512    -0.10554453155      0.981774191991      -0.153234972161     0.981774191991      -0.153234972161     -0.0161036920512    -0.10554453155      
3200000000.0        -0.017170313556     -0.108812876502     0.980631162609      -0.15804501473      0.980631162609      -0.15804501473      -0.017170313556     -0.108812876502     
3300000000.0        -0.0182685955882    -0.112068417569     0.979454073548      -0.162842542628     0.979454073548      -0.162842542628     -0.0182685955882    -0.112068417569     
3400000000.0        -0.019398343981     -0.115310787776     0.978243115906      -0.167627195901     0.978243115906      -0.167627195901     -0.019398343981     -0.115310787776     
3500000000.0        -0.0205593592998    -0.118539623614     0.976998486057      -0.172398618023     0.976998486057      -0.172398618023     -0.0205593592998    -0.118539623614     
3600000000.0        -0.0217514369162    -0.121754565143     0.975720385568      -0.177156456003     0.975720385568      -0.177156456003     -0.0217514369162    -0.121754565143     
3700000000.0        -0.0229743670842    -0.124955256094     0.974409021115      -0.181900360483     0.974409021115      -0.181900360483     -0.0229743670842    -0.124955256094     
3800000000.0        -0.0242279350192    -0.128141343963     0.973064604402      -0.186629985835     0.973064604402      -0.186629985835     -0.0242279350192    -0.128141343963     
3900000000.0        -0.0255119209792    -0.131312480103     0.971687352074      -0.19134499026      0.971687352074      -0.19134499026      -0.0255119209792    -0.131312480103     
4000000000.0        -0.0268261003485    -0.134468319821     0.970277485628      -0.196045035879     0.970277485628      -0.196045035879     -0.0268261003485    -0.134468319821     
4100000000.0        -0.0281702437238    -0.137608522461     0.968835231325      -0.200729788823     0.968835231325      -0.200729788823     -0.0281702437238    -0.137608522461     
4200000000.0        -0.0295441170012    -0.140732751495     0.967360820099      -0.205398919319     0.967360820099      -0.205398919319     -0.0295441170012    -0.140732751495     
4300000000.0        -0.0309474814668    -0.143840674605     0.965854487464      -0.21005210178      0.965854487464      -0.21005210178      -0.0309474814668    -0.143840674605     
4400000000.0        -0.0323800938877    -0.146931963763     0.964316473419      -0.21468901488      0.964316473419      -0.21468901488      -0.0323800938877    -0.146931963763     
4500000000.0        -0.0338417066056    -0.150006295312     0.962747022355      -0.21930934164      0.962747022355      -0.21930934164      -0.0338417066056    -0.150006295312     
4600000000.0        -0.0353320676319    -0.153063350042     0.961146382955      -0.223912769501     0.961146382955      -0.223912769501     -0.0353320676319    -0.153063350042     
4700000000.0        -0.0368509207439    -0.156102813259     0.959514808097      -0.2284989904       0.959514808097      -0.2284989904       -0.0368509207439    -0.156102813259     
4800000000.0        -0.0383980055831    -0.159124374862     0.957852554755      -0.233067700839     0.957852554755      -0.233067700839     -0.0383980055831    -0.159124374862     
4900000000.0        -0.0399730577544    -0.162127729404     0.956159883897      -0.237618601958     0.956159883897      -0.237618601958     -0.0399730577544    -0.162127729404     
5000000000.0        -0.0415758089268    -0.165112576163     0.954437060383      -0.242151399594     0.954437060383      -0.242151399594     -0.0415758089268    -0.165112576163     
5100000000.0        -0.0432059869351    -0.168078619203     0.952684352862      -0.246665804353     0.952684352862      -0.246665804353     -0.0432059869351    -0.168078619203     
5200000000.0        -0.0448633158833    -0.17102556743      0.950902033669      -0.251161531661     0.950902033669      -0.251161531661     -0.0448633158833    -0.17102556743      
5300000000.0        -0.046547516248     -0.173953134654     0.949090378719      -0.25563830183      0.949090378719      -0.25563830183      -0.046547516248     -0.173953134654     
5400000000.0        -0.0482583049839    -0.17686103964      0.947249667401      -0.260095840106     0.947249667401      -0.260095840106     -0.0482583049839    -0.17686103964      
5500000000.0        -0.049995395629     -0.179749006162     0.94538018247       -0.264533876726     0.94538018247       -0.264533876726     -0.049995395629     -0.179749006162     
5600000000.0        -0.0517584984116    -0.18261676305      0.943482209944      -0.268952146965     0.943482209944      -0.268952146965     -0.0517584984116    -0.18261676305      
5700000000.0        -0.0535473203573    -0.185464044233     0.94155603899       -0.273350391181     0.94155603899       -0.273350391181     -0.0535473203573    -0.185464044233     
5800000000.0        -0.055361565397     -0.18829058879      0.939601961822      -0.277728354863     0.939601961822      -0.277728354863     -0.055361565397     -0.18829058879      
5900000000.0        -0.057200934475     -0.191096140985     0.937620273585      -0.282085788668     0.937620273585      -0.282085788668     -0.057200934475     -0.191096140985     
6000000000.0        -0.0590651256584    -0.193880450303     0.935611272252      -0.28642244846      0.935611272252      -0.28642244846      -0.0590651256584    -0.193880450303     
6100000000.0        -0.0609538342458    -0.196643271491     0.933575258509      -0.290738095347     0.933575258509      -0.290738095347     -0.0609538342458    -0.196643271491     
6200000000.0        -0.0628667528768    -0.199384364585     0.931512535649      -0.295032495713     0.931512535649      -0.295032495713     -0.0628667528768    -0.199384364585     
6300000000.0        -0.0648035716422    -0.202103494943     0.929423409458      -0.299305421246     0.929423409458      -0.299305421246     -0.0648035716422    -0.202103494943     
6400000000.0        -0.0667639781934    -0.20480043327      0.927308188109      -0.303556648968     0.927308188109      -0.303556648968     -0.0667639781934    -0.20480043327      
6500000000.0        -0.0687476578527    -0.207474955643     0.925167182046      -0.307785961259     0.925167182046      -0.307785961259     -0.0687476578527    -0.207474955643     
6600000000.0        -0.070754293723     -0.210126843533     0.92300070388       -0.311993145877     0.92300070388       -0.311993145877     -0.070754293723     -0.210126843533     
6700000000.0        -0.0727835667979    -0.21275588382      0.920809068273      -0.316177995979     0.920809068273      -0.316177995979     -0.0727835667979    -0.21275588382      
6800000000.0        -0.0748351560712    -0.215361868817     0.918592591831      -0.320340310138     0.918592591831      -0.320340310138     -0.0748351560712    -0.215361868817     
6900000000.0        -0.0769087386468    -0.217944596276     0.916351592995      -0.324479892355     0.916351592995      -0.324479892355     -0.0769087386468    -0.217944596276     
7000000000.0        -0.0790039898474    -0.220503869404     0.914086391926      -0.328596552071     0.914086391926      -0.328596552071     -0.0790039898474    -0.220503869404     
7100000000.0        -0.0811205833242    -0.223039496869     0.911797310402      -0.332690104177     0.911797310402      -0.332690104177     -0.0811205833242    -0.223039496869     
7200000000.0        -0.0832581911645    -0.225551292806     0.909484671708      -0.33676036902      0.909484671708      -0.33676036902      -0.0832581911645    -0.225551292806     
7300000000.0        -0.0854164840005    -0.228039076824     0.907148800522      -0.340807172404     0.907148800522      -0.340807172404     -0.0854164840005    -0.228039076824     
7400000000.0        -0.0875951311165    -0.230502674001     0.904790022815      -0.344830345597     0.904790022815      -0.344830345597     -0.0875951311165    -0.230502674001     
7500000000.0        -0.0897938005556    -0.232941914889     0.902408665739      -0.348829725323     0.902408665739      -0.348829725323     -0.0897938005556    -0.232941914889     
7600000000.0        -0.0920121592262    -0.235356635507     0.900005057521      -0.352805153763     0.900005057521      -0.352805153763     -0.0920121592262    -0.235356635507     
7700000000.0        -0.0942498730077    -0.237746677332     0.897579527359      -0.35675647855      0.897579527359      -0.35675647855      -0.0942498730077    -0.237746677332     
7800000000.0        -0.0965066068548    -0.240111887298     0.895132405313      -0.360683552755     0.895132405313      -0.360683552755     -0.0965066068548    -0.240111887298     
7900000000.0        -0.0987820249017    -0.242452117779     0.892664022208      -0.364586234883     0.892664022208      -0.364586234883     -0.0987820249017    -0.242452117779     
8000000000.0        -0.101075790565     -0.244767226577     0.890174709521      -0.368464388855     0.890174709521      -0.368464388855     -0.101075790565     -0.244767226577     
8100000000.0        -0.103387566647     -0.247057076911     0.887664799287      -0.372317883998     0.887664799287      -0.372317883998     -0.103387566647     -0.247057076911     
8200000000.0        -0.105717015434     -0.249321537394     0.885134623995      -0.376146595022     0.885134623995      -0.376146595022     -0.105717015434     -0.249321537394     
8300000000.0        -0.1080637988       -0.251560482017     0.882584516483      -0.379950402007     0.882584516483      -0.379950402007     -0.1080637988       -0.251560482017     
8400000000.0        -0.110427578303     -0.253773790127     0.880014809845      -0.383729190375     0.880014809845      -0.383729190375     -0.110427578303     -0.253773790127     
8500000000.0        -0.112808015284     -0.255961346401     0.877425837331      -0.387482850873     0.877425837331      -0.387482850873     -0.112808015284     -0.255961346401     
8600000000.0        -0.115204770965     -0.258123040824     0.874817932248      -0.391211279542     0.874817932248      -0.391211279542     -0.115204770965     -0.258123040824     
8700000000.0        -0.117617506542     -0.26025876866      0.872191427866      -0.394914377693     0.872191427866      -0.394914377693     -0.117617506542     -0.26025876866      
8800000000.0        -0.12004588328      -0.262368430423     0.869546657321      -0.398592051877     0.869546657321      -0.398592051877     -0.12004588328      -0.262368430423     
8900000000.0        -0.12248956261      -0.264451931842     0.866883953526      -0.402244213854     0.866883953526      -0.402244213854     -0.12248956261      -0.264451931842     
9000000000.0        -0.124948206212     -0.266509183836     0.864203649075      -0.405870780557     0.864203649075      -0.405870780557     -0.124948206212     -0.266509183836     
9100000000.0        -0.127421476117     -0.268540102469     0.861506076155      -0.409471674064     0.861506076155      -0.409471674064     -0.127421476117     -0.268540102469     
9200000000.0        -0.129909034785     -0.270544608924     0.858791566454      -0.413046821553     0.858791566454      -0.413046821553     -0.129909034785     -0.270544608924     
9300000000.0        -0.1324105452       -0.272522629455     0.856060451075      -0.416596155272     0.856060451075      -0.416596155272     -0.1324105452       -0.272522629455     
9400000000.0        -0.134925670952     -0.274474095355     0.853313060451      -0.420119612493     0.853313060451      -0.420119612493     -0.134925670952     -0.274474095355     
9500000000.0        -0.137454076326     -0.27639894291      0.850549724256      -0.423617135475     0.850549724256      -0.423617135475     -0.137454076326     -0.27639894291      
9600000000.0        -0.139995426378     -0.278297113358     0.847770771326      -0.427088671418     0.847770771326      -0.427088671418     -0.139995426378     -0.278297113358     
9700000000.0        -0.142549387025     -0.280168552844     0.844976529574      -0.430534172422     0.844976529574      -0.430534172422     -0.142549387025     -0.280168552844     
9800000000.0        -0.14511562512      -0.282013212375     0.842167325909      -0.433953595439     0.842167325909      -0.433953595439     -0.14511562512      -0.282013212375     
9900000000.0        -0.14769380853      -0.283831047772     0.839343486162      -0.437346902224     0.839343486162      -0.437346902224     -0.14769380853      -0.283831047772     
10000000000.0       -0.150283606217     -0.285622019623     0.836505335004      -0.440714059294     0.836505335004      -0.440714059294     -0.150283606217     -0.285622019623     
