# Hz S RI R 50.00 
100000000.0         0.000116817480093   4.3175384128e-05    0.999882146257      -8.09742894032e-05  0.999882146257      -8.09742894032e-05  0.000116817480093   4.31753841279e-05   
200000000.0         0.000117591624643   8.63508116258e-05   0.999881334419      -0.000161949399116  0.999881334419      -0.000161949399116  0.000117591624643   8.63508116257e-05   
300000000.0         0.000118165015658   0.00012952648932    0.999880721904      -0.000242925933499  0.999880721904      -0.000242925933499  0.000118165015658   0.00012952648932    
400000000.0         0.000118639641989   0.000172702551055   0.999880206723      -0.000323904331432  0.999880206723      -0.000323904331432  0.000118639641989   0.000172702551055   
500000000.0         0.000119054796345   0.000215879112359   0.999879749583      -0.000404884961035  0.999879749583      -0.000404884961035  0.000119054796345   0.000215879112359   
600000000.0         0.000119430525428   0.000259056275926   0.999879330436      -0.000485868152129  0.999879330436      -0.000485868152129  0.000119430525428   0.000259056275926   
700000000.0         0.000119778675193   0.000302234140818   0.999878937436      -0.000566854204237  0.999878937436      -0.000566854204237  0.000119778675193   0.000302234140818   
800000000.0         0.000120106922959   0.000345412802869   0.999878562905      -0.000647843395763  0.999878562905      -0.000647843395763  0.000120106922959   0.000345412802869   
900000000.0         0.000120420573041   0.000388592355434   0.999878201538      -0.000728835989224  0.999878201538      -0.000728835989224  0.000120420573041   0.000388592355434   
1000000000.0        0.000120723466154   0.000431772891902   0.999877849494      -0.00080983223276   0.999877849494      -0.00080983223276   0.000120723466154   0.000431772891902   
1100000000.0        0.000121018485925   0.000474954504836   0.999877503889      -0.000890832363866  0.999877503889      -0.000890832363865  0.000121018485925   0.000474954504836   
1200000000.0        0.000121307860022   0.000518137287518   0.999877162494      -0.000971836609969  0.999877162494      -0.000971836609969  0.000121307860022   0.000518137287518   
1300000000.0        0.000121593350018   0.000561321332806   0.999876823548      -0.00105284519119   0.999876823548      -0.00105284519119   0.000121593350018   0.000561321332806   
1400000000.0        0.000121876375921   0.000604506734469   0.99987648563       -0.00113385832027   0.99987648563       -0.00113385832027   0.000121876375921   0.000604506734469   
1500000000.0        0.000122158101211   0.00064769358723    0.999876147575      -0.00121487620357   0.999876147575      -0.00121487620357   0.000122158101211   0.00064769358723    
1600000000.0        0.000122439492519   0.000690881986613   0.999875808418      -0.00129589904201   0.999875808418      -0.00129589904201   0.000122439492519   0.000690881986613   
1700000000.0        0.000122721362681   0.000734072028734   0.999875467343      -0.00137692703199   0.999875467343      -0.00137692703199   0.000122721362681   0.000734072028734   
1800000000.0        0.000123004402322   0.000777263811404   0.999875123661      -0.00145796036483   0.999875123661      -0.00145796036483   0.000123004402322   0.000777263811404   
1900000000.0        0.00012328920373    0.000820457432688   0.999874776778      -0.00153899922874   0.999874776778      -0.00153899922874   0.00012328920373    0.000820457432688   
2000000000.0        0.000123576279012   0.000863652992447   0.999874426181      -0.0016200438076    0.999874426181      -0.0016200438076    0.000123576279012   0.000863652992447   
2100000000.0        0.000123866074268   0.000906850591271   0.999874071424      -0.00170109428246   0.999874071424      -0.00170109428246   0.000123866074268   0.000906850591271   
2200000000.0        0.000124158980552   0.000950050331307   0.999873712116      -0.00178215083098   0.999873712116      -0.00178215083098   0.000124158980552   0.000950050331307   
2300000000.0        0.000124455342823   0.000993252315568   0.999873347909      -0.00186321362839   0.999873347909      -0.00186321362839   0.000124455342824   0.000993252315568   
2400000000.0        0.000124755466981   0.0010364566484     0.999872978499      -0.00194428284724   0.999872978499      -0.00194428284724   0.000124755466981   0.0010364566484     
2500000000.0        0.00012505962566    0.0010796634351     0.999872603612      -0.00202535865801   0.999872603612      -0.00202535865801   0.00012505962566    0.0010796634351     
2600000000.0        0.000125368062902   0.00112287278277    0.999872223003      -0.00210644122841   0.999872223003      -0.00210644122841   0.000125368062902   0.00112287278277    
2700000000.0        0.000125680998142   0.00116608479915    0.999871836452      -0.00218753072473   0.999871836452      -0.00218753072473   0.000125680998142   0.00116608479915    
2800000000.0        0.000125998629414   0.00120929959312    0.999871443761      -0.00226862731146   0.999871443761      -0.00226862731146   0.000125998629414   0.00120929959312    
2900000000.0        0.000126321136054   0.00125251727562    0.999871044749      -0.00234973115052   0.999871044749      -0.00234973115052   0.000126321136054   0.00125251727562    
3000000000.0        0.000126648681076   0.00129573795758    0.999870639253      -0.00243084240342   0.999870639253      -0.00243084240342   0.000126648681076   0.00129573795758    
3100000000.0        0.000126981413059   0.00133896175215    0.999870227123      -0.00251196122912   0.999870227123      -0.00251196122912   0.00012698141306    0.00133896175215    
3200000000.0        0.000127319467863   0.00138218877308    0.999869808224      -0.00259308778579   0.999869808224      -0.00259308778579   0.000127319467863   0.00138218877308    
3300000000.0        0.000127662970034   0.00142541913551    0.99986938243       -0.00267422223009   0.99986938243       -0.00267422223009   0.000127662970034   0.00142541913551    
3400000000.0        0.000128012034048   0.00146865295577    0.999868949626      -0.00275536471738   0.999868949626      -0.00275536471738   0.000128012034048   0.00146865295577    
3500000000.0        0.000128366765408   0.00151189035127    0.999868509706      -0.00283651540198   0.999868509706      -0.00283651540198   0.000128366765408   0.00151189035127    
3600000000.0        0.000128727261516   0.00155513144047    0.999868062572      -0.00291767443724   0.999868062572      -0.00291767443724   0.000128727261516   0.00155513144047    
3700000000.0        0.000129093612553   0.00159837634341    0.999867608132      -0.00299884197504   0.999867608132      -0.00299884197504   0.000129093612554   0.00159837634341    
3800000000.0        0.000129465902154   0.00164162518062    0.999867146304      -0.00308001816694   0.999867146304      -0.00308001816694   0.000129465902154   0.00164162518062    
3900000000.0        0.000129844208058   0.00168487807422    0.999866677007      -0.00316120316317   0.999866677007      -0.00316120316317   0.000129844208058   0.00168487807422    
4000000000.0        0.000130228602634   0.00172813514749    0.999866200171      -0.00324239711304   0.999866200171      -0.00324239711304   0.000130228602634   0.00172813514749    
4100000000.0        0.000130619153415   0.00177139652443    0.999865715725      -0.00332360016546   0.999865715725      -0.00332360016546   0.000130619153415   0.00177139652443    
4200000000.0        0.000131015923495   0.00181466233039    0.999865223607      -0.0034048124683    0.999865223607      -0.0034048124683    0.000131015923495   0.00181466233039    
4300000000.0        0.000131418971947   0.00185793269179    0.999864723756      -0.00348603416879   0.999864723756      -0.00348603416879   0.000131418971947   0.00185793269179    
4400000000.0        0.000131828354152   0.00190120773602    0.999864216118      -0.00356726541357   0.999864216118      -0.00356726541357   0.000131828354152   0.00190120773602    
4500000000.0        0.000132244122131   0.00194448759164    0.999863700639      -0.00364850634852   0.999863700639      -0.00364850634852   0.000132244122131   0.00194448759164    
4600000000.0        0.0001326663248     0.00198777238821    0.999863177269      -0.00372975711901   0.999863177269      -0.00372975711901   0.0001326663248     0.00198777238821    
4700000000.0        0.000133095008249   0.00203106225634    0.999862645963      -0.00381101786985   0.999862645963      -0.00381101786985   0.000133095008249   0.00203106225634    
4800000000.0        0.000133530215952   0.0020743573277     0.999862106675      -0.00389228874525   0.999862106675      -0.00389228874525   0.000133530215952   0.0020743573277     
4900000000.0        0.000133971988977   0.00211765773477    0.999861559364      -0.00397356988917   0.999861559364      -0.00397356988917   0.000133971988977   0.00211765773477    
5000000000.0        0.000134420366178   0.00216096361145    0.999861003992      -0.00405486144467   0.999861003992      -0.00405486144467   0.000134420366178   0.00216096361145    
5100000000.0        0.000134875384359   0.00220427509219    0.999860440519      -0.00413616355484   0.999860440519      -0.00413616355484   0.000134875384359   0.00220427509219    
5200000000.0        0.00013533707843    0.0022475923127     0.999859868912      -0.00421747636207   0.999859868912      -0.00421747636207   0.00013533707843    0.0022475923127     
5300000000.0        0.000135805481548   0.00229091540968    0.999859289135      -0.00429880000833   0.999859289135      -0.00429880000833   0.000135805481548   0.00229091540968    
5400000000.0        0.000136280625248   0.00233424452064    0.999858701158      -0.0043801346354    0.999858701158      -0.0043801346354    0.000136280625248   0.00233424452064    
5500000000.0        0.000136762539557   0.00237757978414    0.999858104948      -0.00446148038462   0.999858104948      -0.00446148038462   0.000136762539557   0.00237757978414    
5600000000.0        0.000137251253097   0.00242092133964    0.999857500478      -0.00454283739702   0.999857500478      -0.00454283739703   0.000137251253097   0.00242092133964    
5700000000.0        0.000137746793198   0.00246426932766    0.99985688772       -0.00462420581326   0.99985688772       -0.00462420581326   0.000137746793198   0.00246426932766    
5800000000.0        0.000138249185974   0.00250762388954    0.999856266645      -0.00470558577378   0.999856266645      -0.00470558577378   0.000138249185974   0.00250762388954    
5900000000.0        0.000138758456419   0.00255098516753    0.99985563723       -0.00478697741875   0.99985563723       -0.00478697741875   0.000138758456419   0.00255098516753    
6000000000.0        0.000139274628471   0.00259435330488    0.999854999449      -0.00486838088802   0.999854999449      -0.00486838088802   0.000139274628472   0.00259435330488    
6100000000.0        0.000139797725097   0.00263772844564    0.999854353279      -0.00494979632129   0.999854353279      -0.00494979632129   0.000139797725097   0.00263772844564    
6200000000.0        0.000140327768344   0.00268111073489    0.999853698698      -0.0050312238579    0.999853698698      -0.0050312238579    0.000140327768344   0.00268111073489    
6300000000.0        0.000140864779417   0.00272450031845    0.999853035683      -0.00511266363713   0.999853035683      -0.00511266363713   0.000140864779417   0.00272450031845    
6400000000.0        0.000141408778716   0.00276789734313    0.999852364213      -0.00519411579795   0.999852364213      -0.00519411579795   0.000141408778716   0.00276789734313    
6500000000.0        0.000141959785908   0.00281130195654    0.999851684269      -0.0052755804792    0.999851684269      -0.0052755804792    0.000141959785907   0.00281130195654    
6600000000.0        0.000142517819956   0.00285471430715    0.999850995831      -0.00535705781957   0.999850995831      -0.00535705781957   0.000142517819956   0.00285471430715    
6700000000.0        0.000143082899181   0.00289813454439    0.99985029888       -0.00543854795746   0.99985029888       -0.00543854795746   0.000143082899181   0.00289813454439    
6800000000.0        0.000143655041294   0.00294156281839    0.999849593398      -0.00552005103126   0.999849593398      -0.00552005103126   0.000143655041294   0.00294156281839    
6900000000.0        0.000144234263442   0.00298499928024    0.999848879367      -0.00560156717916   0.999848879367      -0.00560156717916   0.000144234263442   0.00298499928024    
7000000000.0        0.000144820582234   0.00302844408177    0.99984815677       -0.00568309653921   0.99984815677       -0.00568309653921   0.000144820582234   0.00302844408177    
7100000000.0        0.000145414013785   0.0030718973757     0.99984742559       -0.00576463924936   0.99984742559       -0.00576463924936   0.000145414013784   0.0030718973757     
7200000000.0        0.000146014573744   0.00311535931546    0.999846685811      -0.0058461954475    0.999846685811      -0.0058461954475    0.000146014573744   0.00311535931546    
7300000000.0        0.000146622277323   0.00315883005545    0.999845937418      -0.0059277652713    0.999845937418      -0.0059277652713    0.000146622277323   0.00315883005545    
7400000000.0        0.000147237139333   0.00320230975079    0.999845180395      -0.00600934885838   0.999845180395      -0.00600934885838   0.000147237139333   0.00320230975079    
7500000000.0        0.000147859174194   0.00324579855732    0.999844414728      -0.00609094634636   0.999844414728      -0.00609094634636   0.000147859174194   0.00324579855732    
7600000000.0        0.000148488395971   0.00328929663177    0.999843640401      -0.0061725578727    0.999843640401      -0.0061725578727    0.000148488395971   0.00328929663177    
7700000000.0        0.000149124818398   0.0033328041316     0.9998428574        -0.0062541835748    0.9998428574        -0.0062541835748    0.000149124818398   0.0033328041316     
7800000000.0        0.000149768454897   0.00337632121518    0.999842065713      -0.00633582358991   0.999842065713      -0.00633582358991   0.000149768454897   0.00337632121518    
7900000000.0        0.000150419318591   0.00341984804142    0.999841265324      -0.00641747805542   0.999841265324      -0.00641747805542   0.000150419318591   0.00341984804142    
8000000000.0        0.000151077422336   0.00346338477011    0.999840456221      -0.00649914710855   0.999840456221      -0.00649914710855   0.000151077422335   0.00346338477011    
8100000000.0        0.000151742778731   0.00350693156184    0.99983963839       -0.00658083088646   0.99983963839       -0.00658083088646   0.000151742778731   0.00350693156184    
8200000000.0        0.000152415400138   0.0035504885779     0.99983881182       -0.00666252952629   0.99983881182       -0.00666252952629   0.000152415400138   0.0035504885779     
8300000000.0        0.000153095298691   0.0035940559803     0.999837976497      -0.00674424316519   0.999837976497      -0.00674424316519   0.000153095298691   0.0035940559803     
8400000000.0        0.000153782486326   0.00363763393181    0.999837132408      -0.00682597194024   0.999837132408      -0.00682597194024   0.000153782486326   0.00363763393181    
8500000000.0        0.000154476974779   0.00368122259599    0.999836279543      -0.00690771598848   0.999836279543      -0.00690771598848   0.000154476974779   0.00368122259599    
8600000000.0        0.00015517877561    0.00372482213699    0.999835417888      -0.00698947544705   0.999835417888      -0.00698947544705   0.000155178775609   0.00372482213699    
8700000000.0        0.000155887900209   0.00376843271986    0.999834547432      -0.00707125045288   0.999834547432      -0.00707125045288   0.00015588790021    0.00376843271986    
8800000000.0        0.000156604359818   0.00381205451021    0.999833668163      -0.00715304114306   0.999833668163      -0.00715304114306   0.000156604359818   0.00381205451021    
8900000000.0        0.000157328165529   0.00385568767447    0.999832780071      -0.0072348476546    0.999832780071      -0.0072348476546    0.000157328165529   0.00385568767447    
9000000000.0        0.000158059328304   0.00389933237965    0.999831883142      -0.00731667012458   0.999831883142      -0.00731667012458   0.000158059328304   0.00389933237965    
9100000000.0        0.000158797858985   0.0039429887936     0.999830977367      -0.00739850869001   0.999830977367      -0.00739850869001   0.000158797858985   0.0039429887936     
9200000000.0        0.000159543768297   0.00398665708481    0.999830062735      -0.00748036348791   0.999830062735      -0.00748036348791   0.000159543768297   0.00398665708481    
9300000000.0        0.000160297066868   0.00403033742243    0.999829139233      -0.00756223465536   0.999829139233      -0.00756223465536   0.000160297066868   0.00403033742243    
9400000000.0        0.000161057765226   0.00407402997633    0.999828206852      -0.00764412232946   0.999828206852      -0.00764412232946   0.000161057765226   0.00407402997633    
9500000000.0        0.000161825873817   0.00411773491704    0.99982726558       -0.00772602664731   0.99982726558       -0.00772602664731   0.000161825873817   0.00411773491704    
9600000000.0        0.000162601403006   0.0041614524158     0.999826315407      -0.007807947746     0.999826315407      -0.007807947746     0.000162601403007   0.0041614524158     
9700000000.0        0.000163384363091   0.00420518264446    0.999825356322      -0.00788988576273   0.999825356322      -0.00788988576273   0.000163384363091   0.00420518264446    
9800000000.0        0.000164174764303   0.00424892577562    0.999824388314      -0.00797184083463   0.999824388314      -0.00797184083463   0.000164174764303   0.00424892577562    
9900000000.0        0.000164972616818   0.0042926819825     0.999823411374      -0.00805381309894   0.999823411374      -0.00805381309894   0.000164972616818   0.0042926819825     
10000000000.0       0.000165777930763   0.00433645143895    0.999822425491      -0.00813580269295   0.999822425491      -0.00813580269295   0.000165777930763   0.00433645143895    
