# Hz S RI R 50.00 
100000000.0         -0.00618975764149   -0.077963635235     0.99377635008       -0.0781117911722    0.99377635008       -0.0781117911722    -0.00618975764149   -0.077963635235     
200000000.0         -0.0242004239273    -0.153076160025     0.975765418978      -0.153372531862     0.975765418978      -0.153372531862     -0.0242004239273    -0.153076160025     
300000000.0         -0.0527525090168    -0.222851606614     0.947213105081      -0.223296285099     0.947213105081      -0.223296285099     -0.0527525090168    -0.222851606614     
400000000.0         -0.0899866643521    -0.285391352528     0.909978727773      -0.285984451549     0.909978727773      -0.285984451549     -0.0899866643521    -0.285391352528     
500000000.0         -0.133727210056     -0.339507207209     0.866237955711      -0.340248859598     0.866237955711      -0.340248859598     -0.133727210056     -0.339507207209     
600000000.0         -0.181758306574     -0.384714609612     0.818206622717      -0.385604964186     0.818206622717      -0.385604964186     -0.181758306574     -0.384714609612     
700000000.0         -0.232042508696     -0.421127481537     0.767922170594      -0.422166700788     0.767922170594      -0.422166700788     -0.232042508696     -0.421127481537     
800000000.0         -0.282857305801     -0.449301800664     0.717107107731      -0.450490058847     0.717107107731      -0.450490058847     -0.282857305801     -0.449301800664     
900000000.0         -0.332852192828     -0.470071211213     0.667111937626      -0.471408692723     0.667111937626      -0.471408692723     -0.332852192828     -0.470071211213     
1000000000.0        -0.381044839622     -0.484403760932     0.618918989276      -0.48589065889      0.618918989276      -0.48589065889      -0.381044839622     -0.484403760932     
1100000000.0        -0.426779587275     -0.493293133128     0.573183920698      -0.494929648141     0.573183920698      -0.494929648141     -0.426779587275     -0.493293133128     
1200000000.0        -0.469668642913     -0.497685834623     0.530294524057      -0.499472173677     0.530294524057      -0.499472173677     -0.469668642913     -0.497685834623     
1300000000.0        -0.509530387004     -0.498439090789     0.4904324183        -0.500375466265     0.4904324183        -0.500375466265     -0.509530387004     -0.498439090789     
1400000000.0        -0.546333206281     -0.49630175312      0.453629216207      -0.498388381917     0.453629216207      -0.498388381917     -0.546333206281     -0.49630175312      
1500000000.0        -0.580148636489     -0.491910704035     0.419813381613      -0.49414780678      0.419813381613      -0.49414780678      -0.580148636489     -0.491910704035     
1600000000.0        -0.61111461425      -0.485796626212     0.388846977531      -0.488184426553     0.388846977531      -0.488184426553     -0.61111461425      -0.485796626212     
1700000000.0        -0.6394080154       -0.478394673369     0.360553127801      -0.480933397342     0.360553127801      -0.480933397342     -0.6394080154       -0.478394673369     
1800000000.0        -0.665224968317     -0.470057073744     0.334735703754      -0.472746949212     0.334735703754      -0.472746949212     -0.665224968317     -0.470057073744     
1900000000.0        -0.688767293555     -0.461065853787     0.311192884573      -0.463907109933     0.311192884573      -0.463907109933     -0.688767293555     -0.461065853787     
2000000000.0        -0.710233562901     -0.451644683411     0.289726098229      -0.454637550291     0.289726098229      -0.454637550291     -0.710233562901     -0.451644683411     
2100000000.0        -0.729813522511     -0.441969376144     0.270145598345      -0.445114084291     0.270145598345      -0.445114084291     -0.729813522511     -0.441969376144     
2200000000.0        -0.747684893338     -0.432176901971     0.25227366376       -0.435473682048     0.25227366376       -0.435473682048     -0.747684893338     -0.432176901971     
2300000000.0        -0.764011803853     -0.422372953561     0.235946165807      -0.425822036046     0.235946165807      -0.425822036046     -0.764011803853     -0.422372953561     
2400000000.0        -0.778944309421     -0.412638198489     0.22101304894       -0.416239813415     0.22101304894       -0.416239813415     -0.778944309421     -0.412638198489     
2500000000.0        -0.792618608385     -0.40303338684      0.207338114643      -0.406787763562     0.207338114643      -0.406787763562     -0.792618608385     -0.40303338684      
2600000000.0        -0.805157682244     -0.393603488781     0.194798381252      -0.397510855773     0.194798381252      -0.397510855773     -0.805157682244     -0.393603488781     
2700000000.0        -0.816672173219     -0.384381025468     0.183283206389      -0.388441610158     0.183283206389      -0.388441610158     -0.816672173219     -0.384381025468     
2800000000.0        -0.82726137428      -0.375388738053     0.172693296934      -0.379602766679     0.172693296934      -0.379602766679     -0.82726137428      -0.375388738053     
2900000000.0        -0.837014250211     -0.366641718717     0.16293968796       -0.371009416208     0.16293968796       -0.371009416208     -0.837014250211     -0.366641718717     
3000000000.0        -0.846010438565     -0.358149107457     0.153942741773      -0.362670697341     0.153942741773      -0.362670697341     -0.846010438565     -0.358149107457     
3100000000.0        -0.854321200023     -0.3499154401       0.14563119756       -0.354591144429     0.14563119756       -0.354591144429     -0.854321200023     -0.3499154401       
3200000000.0        -0.862010301558     -0.341941717158     0.137941288217      -0.346771756451     0.137941288217      -0.346771756451     -0.862010301558     -0.341941717158     
3300000000.0        -0.869134824986     -0.334226249838     0.130815931803      -0.33921084304      0.130815931803      -0.33921084304      -0.869134824986     -0.334226249838     
3400000000.0        -0.875745899327     -0.326765328441     0.124203999174      -0.331904692902     0.124203999174      -0.331904692902     -0.875745899327     -0.326765328441     
3500000000.0        -0.881889359057     -0.319553749411     0.118059655736      -0.324848100871     0.118059655736      -0.324848100871     -0.881889359057     -0.319553749411     
3600000000.0        -0.887606332423     -0.312585229943     0.112341773126      -0.318034782536     0.112341773126      -0.318034782536     -0.887606332423     -0.312585229943     
3700000000.0        -0.89293376513      -0.305852733255     0.107013405524      -0.311457699516     0.107013405524      -0.311457699516     -0.89293376513      -0.305852733255     
3800000000.0        -0.897904885142     -0.299348722858     0.102041324855      -0.305109313748     0.102041324855      -0.305109313748     -0.897904885142     -0.299348722858     
3900000000.0        -0.902549614407     -0.293065360468     0.0973956090629     -0.298981785402     0.0973956090629     -0.298981785402     -0.902549614407     -0.293065360468     
4000000000.0        -0.906894933079     -0.286994659183     0.0930492778855     -0.293067126064     0.0930492778855     -0.293067126064     -0.906894933079     -0.286994659183     
4100000000.0        -0.910965201482     -0.28112860117      0.0889779708928     -0.287357316434     0.0889779708928     -0.287357316434     -0.910965201482     -0.28112860117      
4200000000.0        -0.914782444625     -0.275459227238     0.085159662972      -0.281844395905     0.085159662972      -0.281844395905     -0.914782444625     -0.275459227238     
4300000000.0        -0.918366603623     -0.269978704157     0.0815744129067     -0.276520529878     0.0815744129067     -0.276520529878     -0.918366603623     -0.269978704157     
4400000000.0        -0.921735757936     -0.264679374379     0.0782041411333     -0.271378059501     0.0782041411333     -0.271378059501     -0.921735757936     -0.264679374379     
4500000000.0        -0.924906321926     -0.259553791898     0.0750324331908     -0.266409537518     0.0750324331908     -0.266409537518     -0.924906321926     -0.259553791898     
4600000000.0        -0.927893218796     -0.254594747191     0.0720443657755     -0.261607753227     0.0720443657755     -0.261607753227     -0.927893218796     -0.254594747191     
4700000000.0        -0.930710034664     -0.249795283621     0.0692263526725     -0.256965748874     0.0692263526725     -0.256965748874     -0.930710034664     -0.249795283621     
4800000000.0        -0.933369155145     -0.245148707162     0.0665660081677     -0.252476829385     0.0665660081677     -0.252476829385     -0.933369155145     -0.245148707162     
4900000000.0        -0.935881886571     -0.240648590958     0.0640520258313     -0.248134566927     0.0640520258313     -0.248134566927     -0.935881886571     -0.240648590958     
5000000000.0        -0.938258563683     -0.236288775904     0.0616740708259     -0.243932801492     0.0616740708259     -0.243932801492     -0.938258563683     -0.236288775904     
5100000000.0        -0.940508645415     -0.232063368202     0.0594226841215     -0.239865638447     0.0594226841215     -0.239865638447     -0.940508645415     -0.232063368202     
5200000000.0        -0.94264080019      -0.227966734631     0.0572891971976     -0.235927443812     0.0572891971976     -0.235927443812     -0.94264080019      -0.227966734631     
5300000000.0        -0.944662981972     -0.223993496149     0.0552656559937     -0.232112837859     0.0552656559937     -0.232112837859     -0.944662981972     -0.223993496149     
5400000000.0        -0.946582498156     -0.22013852029      0.05334475302       -0.228416687506     0.05334475302       -0.228416687506     -0.946582498156     -0.22013852029      
5500000000.0        -0.948406070244     -0.216396912717     0.0515197666768     -0.224834097878     0.0515197666768     -0.224834097878     -0.948406070244     -0.216396912717     
5600000000.0        -0.950139888156     -0.212764008253     0.0497845069489     -0.22136040333      0.0497845069489     -0.22136040333      -0.950139888156     -0.212764008253     
5700000000.0        -0.951789658888     -0.209235361587     0.0481332667433     -0.217991158157     0.0481332667433     -0.217991158157     -0.951789658888     -0.209235361587     
5800000000.0        -0.953360650175     -0.20580673786      0.0465607782285     -0.214722127176     0.0465607782285     -0.214722127176     -0.953360650175     -0.20580673786      
5900000000.0        -0.954857729711     -0.202474103241     0.0450621736122     -0.211549276308     0.0450621736122     -0.211549276308     -0.954857729711     -0.202474103241     
6000000000.0        -0.956285400434     -0.19923361563      0.0436329498609     -0.208468763268     0.0436329498609     -0.208468763268     -0.956285400434     -0.19923361563      
6100000000.0        -0.957647832292     -0.19608161553      0.0422689369273     -0.205476928451     0.0422689369273     -0.205476928451     -0.957647832292     -0.19608161553      
6200000000.0        -0.958948890898     -0.193014617177     0.0409662691        -0.202570286048     0.0409662691        -0.202570286048     -0.958948890898     -0.193014617177     
6300000000.0        -0.960192163395     -0.190029299947     0.0397213591374     -0.199745515461     0.0397213591374     -0.199745515461     -0.960192163395     -0.190029299947     
6400000000.0        -0.961380981835     -0.187122500079     0.0385308748874     -0.196999453019     0.0385308748874     -0.196999453019     -0.961380981835     -0.187122500079     
6500000000.0        -0.962518444339     -0.184291202733     0.0373917181288     -0.194329084039     0.0373917181288     -0.194329084039     -0.962518444339     -0.184291202733     
6600000000.0        -0.963607434267     -0.18153253438      0.0363010053999     -0.191731535211     0.0363010053999     -0.191731535211     -0.963607434267     -0.18153253438      
6700000000.0        -0.96465063761      -0.178843755545     0.0352560506089     -0.189204067346     0.0352560506089     -0.189204067346     -0.96465063761      -0.178843755545     
6800000000.0        -0.965650558778     -0.176222253889     0.0342543492412     -0.186744068448     0.0342543492412     -0.186744068448     -0.965650558778     -0.176222253889     
6900000000.0        -0.966609534964     -0.173665537631     0.0332935640014     -0.184349047143     0.0332935640014     -0.184349047143     -0.966609534964     -0.173665537631     
7000000000.0        -0.967529749207     -0.171171229298     0.0323715117457     -0.182016626422     0.0323715117457     -0.182016626422     -0.967529749207     -0.171171229298     
7100000000.0        -0.968413242301     -0.168737059799     0.0314861515748     -0.179744537716     0.0314861515748     -0.179744537716     -0.968413242301     -0.168737059799     
7200000000.0        -0.969261923654     -0.166360862807     0.0306355739731     -0.17753061528      0.0306355739731     -0.17753061528      -0.969261923654     -0.166360862807     
7300000000.0        -0.970077581207     -0.164040569442     0.0298179908919     -0.175372790867     0.0298179908919     -0.175372790867     -0.970077581207     -0.164040569442     
7400000000.0        -0.970861890497     -0.161774203232     0.0290317266859     -0.173269088698     0.0290317266859     -0.173269088698     -0.970861890497     -0.161774203232     
7500000000.0        -0.97161642295      -0.159559875361     0.0282752098188     -0.171217620696     0.0282752098188     -0.171217620696     -0.97161642295      -0.159559875361     
7600000000.0        -0.972342653477     -0.157395780158     0.0275469652686     -0.169216581988     0.0275469652686     -0.169216581988     -0.972342653477     -0.157395780158     
7700000000.0        -0.973041967436     -0.15528019085      0.0268456075635     -0.167264246646     0.0268456075635     -0.167264246646     -0.973041967436     -0.15528019085      
7800000000.0        -0.973715667027     -0.153211455538     0.0261698343924     -0.165358963667     0.0261698343924     -0.165358963667     -0.973715667027     -0.153211455538     
7900000000.0        -0.974364977154     -0.1511879934       0.0255184207348     -0.163499153173     0.0255184207348     -0.163499153173     -0.974364977154     -0.1511879934       
8000000000.0        -0.974991050826     -0.149208291104     0.0248902134657     -0.161683302824     0.0248902134657     -0.161683302824     -0.974991050826     -0.149208291104     
8100000000.0        -0.97559497412      -0.147270899416     0.0242841263894     -0.159909964425     0.0242841263894     -0.159909964425     -0.97559497412      -0.147270899416     
8200000000.0        -0.976177770758     -0.145374430002     0.0236991356661     -0.158177750725     0.0236991356661     -0.158177750725     -0.976177770758     -0.145374430002     
8300000000.0        -0.976740406319     -0.143517552398     0.0231342755963     -0.156485332391     0.0231342755963     -0.156485332391     -0.976740406319     -0.143517552398     
8400000000.0        -0.97728379213      -0.141698991156     0.022588634731      -0.154831435144     0.022588634731      -0.154831435144     -0.97728379213      -0.141698991156     
8500000000.0        -0.977808788859     -0.139917523143     0.0220613522795     -0.153214837068     0.0220613522795     -0.153214837068     -0.977808788859     -0.139917523143     
8600000000.0        -0.97831620983      -0.138171974986     0.0215516147903     -0.151634366046     0.0215516147903     -0.151634366046     -0.97831620983      -0.138171974986     
8700000000.0        -0.978806824103     -0.136461220663     0.0210586530806     -0.150088897352     0.0210586530806     -0.150088897352     -0.978806824103     -0.136461220663     
8800000000.0        -0.979281359304     -0.134784179222     0.0205817393938     -0.148577351371     0.0205817393938     -0.148577351371     -0.979281359304     -0.134784179222     
8900000000.0        -0.979740504267     -0.133139812621     0.0201201847672     -0.147098691438     0.0201201847672     -0.147098691438     -0.979740504267     -0.133139812621     
9000000000.0        -0.980184911471     -0.131527123692     0.0196733365903     -0.145651921798     0.0196733365903     -0.145651921798     -0.980184911471     -0.131527123692     
9100000000.0        -0.980615199307     -0.12994515421      0.0192405763401     -0.144236085678     0.0192405763401     -0.144236085678     -0.980615199307     -0.12994515421      
9200000000.0        -0.981031954178     -0.128392983064     0.0188213174785     -0.142850263456     0.0188213174785     -0.142850263456     -0.981031954178     -0.128392983064     
9300000000.0        -0.981435732457     -0.126869724535     0.0184150034972     -0.141493570937     0.0184150034972     -0.141493570937     -0.981435732457     -0.126869724535     
9400000000.0        -0.981827062299     -0.125374526651     0.0180211061018     -0.140165157708     0.0180211061018     -0.140165157708     -0.981827062299     -0.125374526651     
9500000000.0        -0.982206445338     -0.123906569644     0.0176391235202     -0.138864205596     0.0176391235202     -0.138864205596     -0.982206445338     -0.123906569644     
9600000000.0        -0.982574358255     -0.122465064477     0.0172685789285     -0.137589927192     0.0172685789285     -0.137589927192     -0.982574358255     -0.122465064477     
9700000000.0        -0.982931254251     -0.121049251454     0.0169090189839     -0.13634156446      0.0169090189839     -0.13634156446      -0.982931254251     -0.121049251454     
9800000000.0        -0.983277564411     -0.119658398899     0.0165600124568     -0.135118387421     0.0165600124568     -0.135118387421     -0.983277564411     -0.119658398899     
9900000000.0        -0.983613698979     -0.118291801907     0.0162211489544     -0.133919692893     0.0162211489544     -0.133919692893     -0.983613698979     -0.118291801907     
10000000000.0       -0.983940048555     -0.116948781156     0.0158920377292     -0.132744803315     0.0158920377292     -0.132744803315     -0.983940048555     -0.116948781156     
