# Hz S RI R 50.00 
100000000.0         -0.00144653089903   -0.0375852087949    0.998530517155      -0.0377253705405    0.998530517155      -0.0377253705405    -0.00144653089903   -0.0375852087949    
200000000.0         -0.00571826594391   -0.0748391473876    0.994258595833      -0.0751195409465    0.994258595833      -0.0751195409465    -0.00571826594391   -0.0748391473876    
300000000.0         -0.0127301399786    -0.111449046799     0.987246555219      -0.111869777183     0.987246555219      -0.111869777183     -0.0127301399786    -0.111449046799     
400000000.0         -0.0223633979738    -0.147121165935     0.977613130563      -0.147682363776     0.977613130563      -0.147682363776     -0.0223633979738    -0.147121165935     
500000000.0         -0.0344597998959    -0.181587868105     0.965516554275      -0.182289684488     0.965516554275      -0.182289684488     -0.0344597998959    -0.181587868105     
600000000.0         -0.0488279723532    -0.214613483685     0.951148195836      -0.215456086484     0.951148195836      -0.215456086484     -0.0488279723532    -0.214613483685     
700000000.0         -0.0652506409074    -0.245998549679     0.934725327346      -0.246982120689     0.934725327346      -0.246982120689     -0.0652506409074    -0.245998549679     
800000000.0         -0.0834922764943    -0.275582301028     0.916483476329      -0.276707033605     0.916483476329      -0.276707033605     -0.0834922764943    -0.275582301028     
900000000.0         -0.10330670628      -0.303243448348     0.896668814527      -0.304509545409     0.896668814527      -0.304509545409     -0.10330670628      -0.303243448348     
1000000000.0        -0.124444296066     -0.328899398298     0.875530975323      -0.330307070595     0.875530975323      -0.330307070595     -0.124444296066     -0.328899398298     
1100000000.0        -0.146658394975     -0.352504159055     0.85331660896       -0.354053623671     0.85331660896       -0.354053623671     -0.146658394975     -0.352504159055     
1200000000.0        -0.169710829697     -0.374045223654     0.830263888235      -0.375736702677     0.830263888235      -0.375736702677     -0.169710829697     -0.374045223654     
1300000000.0        -0.193376332453     -0.393539740429     0.806598080501      -0.39537345979      0.806598080501      -0.39537345979      -0.193376332453     -0.393539740429     
1400000000.0        -0.217445874191     -0.411030268199     0.78252821445       -0.413006456639     0.78252821445       -0.413006456639     -0.217445874191     -0.411030268199     
1500000000.0        -0.241728945997     -0.42658038137      0.758244798683      -0.428699269533     0.758244798683      -0.428699269533     -0.241728945997     -0.42658038137      
1600000000.0        -0.266054884242     -0.440270344947     0.733918496552      -0.442532164577     0.733918496552      -0.442532164577     -0.266054884242     -0.440270344947     
1700000000.0        -0.290273368494     -0.452193028675     0.709699628244      -0.45459801191      0.709699628244      -0.45459801191      -0.290273368494     -0.452193028675     
1800000000.0        -0.314254237695     -0.462450179108     0.685718354595      -0.464998557858     0.685718354595      -0.464998557858     -0.314254237695     -0.462450179108     
1900000000.0        -0.33788677262      -0.471149122476     0.662085394627      -0.473841127885     0.662085394627      -0.473841127885     -0.33788677262      -0.471149122476     
2000000000.0        -0.361078584924     -0.478399932333     0.638893136499      -0.481235794302     0.638893136499      -0.481235794302     -0.361078584924     -0.478399932333     
2100000000.0        -0.38375423855      -0.484313065093     0.616217016096      -0.487293011875     0.616217016096      -0.487293011875     -0.38375423855      -0.484313065093     
2200000000.0        -0.405853711052     -0.48899744385      0.594117055702      -0.492121701695     0.594117055702      -0.492121701695     -0.405853711052     -0.48899744385      
2300000000.0        -0.427330782886     -0.492558955405     0.572639474713      -0.495827748263     0.572639474713      -0.495827748263     -0.427330782886     -0.492558955405     
2400000000.0        -0.448151423636     -0.495099316293     0.551818303403      -0.498512865561     0.551818303403      -0.498512865561     -0.448151423636     -0.495099316293     
2500000000.0        -0.468292226726     -0.496715259334     0.531676948216      -0.500273783642     0.531676948216      -0.500273783642     -0.468292226726     -0.496715259334     
2600000000.0        -0.487738928949     -0.497497991734     0.512229672233      -0.501201706772     0.512229672233      -0.501201706772     -0.487738928949     -0.497497991734     
2700000000.0        -0.506485038462     -0.497532877854     0.493482967176      -0.501381996234     0.493482967176      -0.501381996234     -0.506485038462     -0.497532877854     
2800000000.0        -0.52453058469      -0.496899303493     0.475436803512      -0.500894034641     0.475436803512      -0.500894034641     -0.52453058469      -0.496899303493     
2900000000.0        -0.541880995665     -0.495670683229     0.458085753096      -0.499811233295     0.458085753096      -0.499811233295     -0.541880995665     -0.495670683229     
3000000000.0        -0.558546102502     -0.493914577378     0.441419984714      -0.498201149186     0.441419984714      -0.498201149186     -0.558546102502     -0.493914577378     
3100000000.0        -0.574539266463     -0.491692890214     0.425426137003      -0.496125683222     0.425426137003      -0.496125683222     -0.574539266463     -0.491692890214     
3200000000.0        -0.589876621365     -0.489062125813     0.410088076053      -0.493641336092     0.410088076053      -0.493641336092     -0.589876621365     -0.489062125813     
3300000000.0        -0.604576422318     -0.486073682248     0.395387546665      -0.490799502485     0.395387546665      -0.490799502485     -0.604576422318     -0.486073682248     
3400000000.0        -0.618658490966     -0.482774168702     0.381304727106      -0.48764678821      0.381304727106      -0.48764678821      -0.618658490966     -0.482774168702     
3500000000.0        -0.632143747134     -0.479205733377     0.367818697469      -0.484225338123     0.367818697469      -0.484225338123     -0.632143747134     -0.479205733377     
3600000000.0        -0.645053816973     -0.475406392887     0.354907831522      -0.480573165527     0.354907831522      -0.480573165527     -0.645053816973     -0.475406392887     
3700000000.0        -0.657410708151     -0.471410356161     0.34255012152       -0.476724476089     0.34255012152       -0.476724476089     -0.657410708151     -0.471410356161     
3800000000.0        -0.669236543328     -0.467248337802     0.330723444728      -0.472709981205     0.330723444728      -0.472709981205     -0.669236543328     -0.467248337802     
3900000000.0        -0.680553343867     -0.462947857365     0.31940577971       -0.468557197282     0.31940577971       -0.468557197282     -0.680553343867     -0.462947857365     
4000000000.0        -0.691382856561     -0.458533522266     0.308575379602      -0.464290728661     0.308575379602      -0.464290728661     -0.691382856561     -0.458533522266     
4100000000.0        -0.701746416932     -0.454027292972     0.298210908818      -0.459932532802     0.298210908818      -0.459932532802     -0.701746416932     -0.454027292972     
4200000000.0        -0.711664843411     -0.449448729857     0.288291548856      -0.455502167153     0.288291548856      -0.455502167153     -0.711664843411     -0.449448729857     
4300000000.0        -0.721158357464     -0.444815221658     0.278797078189      -0.451017017605     0.278797078189      -0.451017017605     -0.721158357464     -0.444815221658     
4400000000.0        -0.730246525326     -0.440142195878     0.269707930518      -0.446492508894     0.269707930518      -0.446492508894     -0.730246525326     -0.440142195878     
4500000000.0        -0.738948217654     -0.43544331175      0.261005235125      -0.441942297575     0.261005235125      -0.441942297575     -0.738948217654     -0.43544331175      
4600000000.0        -0.747281583902     -0.430730636595     0.252670842498      -0.437378448377     0.252670842498      -0.437378448377     -0.747281583902     -0.430730636595     
4700000000.0        -0.755264038722     -0.426014806514     0.244687337925      -0.432811594897     0.244687337925      -0.432811594897     -0.755264038722     -0.426014806514     
4800000000.0        -0.762912258075     -0.42130517243      0.237038045388      -0.428251085639     0.237038045388      -0.428251085639     -0.762912258075     -0.42130517243      
4900000000.0        -0.770242183129     -0.416609932512     0.229707023665      -0.423705116443     0.229707023665      -0.423705116443     -0.770242183129     -0.416609932512     
5000000000.0        -0.777269030293     -0.411936252036     0.22267905629       -0.419180850344     0.22267905629       -0.419180850344     -0.777269030293     -0.411936252036     
5100000000.0        -0.78400730605      -0.407290371685     0.215939636728      -0.414684525869     0.215939636728      -0.414684525869     -0.78400730605      -0.407290371685     
5200000000.0        -0.790470825429     -0.402677705264     0.209474949896      -0.410221554758     0.209474949896      -0.410221554758     -0.790470825429     -0.402677705264     
5300000000.0        -0.796672733194     -0.39810292776      0.203271850979      -0.405796610015     0.203271850979      -0.405796610015     -0.796672733194     -0.39810292776      
5400000000.0        -0.802625526973     -0.393570054617     0.197317842297      -0.401413705187     0.197317842297      -0.401413705187     -0.802625526973     -0.393570054617     
5500000000.0        -0.808341081685     -0.389082513023     0.191601048878      -0.397076265647     0.191601048878      -0.397076265647     -0.808341081685     -0.389082513023     
5600000000.0        -0.813830674769     -0.384643205982     0.186110193236      -0.392787192667     0.186110193236      -0.392787192667     -0.813830674769     -0.384643205982     
5700000000.0        -0.819105011775     -0.380254569838     0.18083456977       -0.388548920938     0.18083456977       -0.388548920938     -0.819105011775     -0.380254569838     
5800000000.0        -0.824174252004     -0.375918625907     0.17576401913       -0.384363470204     0.17576401913       -0.384363470204     -0.824174252004     -0.375918625907     
5900000000.0        -0.829048033924     -0.371637026782     0.170888902799      -0.380232491561     0.170888902799      -0.380232491561     -0.829048033924     -0.371637026782     
6000000000.0        -0.833735500161     -0.367411097843     0.166200078103      -0.376157308968     0.166200078103      -0.376157308968     -0.833735500161     -0.367411097843     
6100000000.0        -0.838245321896     -0.363241874457     0.161688873811      -0.372138956444     0.161688873811      -0.372138956444     -0.838245321896     -0.363241874457     
6200000000.0        -0.842585722574     -0.359130135291     0.157347066432      -0.368178211378     0.157347066432      -0.368178211378     -0.842585722574     -0.359130135291     
6300000000.0        -0.846764500804     -0.355076432142     0.15316685731       -0.364275624365     0.15316685731       -0.364275624365     -0.846764500804     -0.355076432142     
6400000000.0        -0.850789052423     -0.351081116639     0.149140850559      -0.360431545892     0.149140850559      -0.360431545892     -0.850789052423     -0.351081116639     
6500000000.0        -0.854666391661     -0.347144364121     0.145262031901      -0.356646150228     0.145262031901      -0.356646150228     -0.854666391661     -0.347144364121     
6600000000.0        -0.858403171406     -0.343266195004     0.141523748401      -0.352919456781     0.141523748401      -0.352919456781     -0.858403171406     -0.343266195004     
6700000000.0        -0.862005702544     -0.339446493881     0.137919689128      -0.349251349198     0.137919689128      -0.349251349198     -0.862005702544     -0.339446493881     
6800000000.0        -0.865479972386     -0.335685026583     0.13444386672       -0.345641592426     0.13444386672       -0.345641592426     -0.865479972386     -0.335685026583     
6900000000.0        -0.868831662199     -0.331981455433     0.131090599866      -0.342089847963     0.131090599866      -0.342089847963     -0.868831662199     -0.331981455433     
7000000000.0        -0.872066163849     -0.328335352859     0.127854496651      -0.338595687467     0.127854496651      -0.338595687467     -0.872066163849     -0.328335352859     
7100000000.0        -0.875188595589     -0.324746213542     0.124730438775      -0.335158604909     0.124730438775      -0.335158604909     -0.875188595589     -0.324746213542     
7200000000.0        -0.878203817015     -0.321213465265     0.121713566593      -0.33177802741      0.121713566593      -0.33177802741      -0.878203817015     -0.321213465265     
7300000000.0        -0.881116443223     -0.317736478568     0.118799264964      -0.328453324907     0.118799264964      -0.328453324907     -0.881116443223     -0.317736478568     
7400000000.0        -0.883930858193     -0.314314575371     0.115983149858      -0.325183818759     0.115983149858      -0.325183818759     -0.883930858193     -0.314314575371     
7500000000.0        -0.886651227444     -0.310947036631     0.113261055709      -0.32196878942      0.113261055709      -0.32196878942      -0.886651227444     -0.310947036631     
7600000000.0        -0.889281509983     -0.307633109173     0.110629023461      -0.318807483252     0.110629023461      -0.318807483252     -0.889281509983     -0.307633109173     
7700000000.0        -0.891825469585     -0.304372011752     0.10808328929       -0.315699118598     0.10808328929       -0.315699118598     -0.891825469585     -0.304372011752     
7800000000.0        -0.894286685443     -0.301162940439     0.105620273957      -0.312642891159     0.105620273957      -0.312642891159     -0.894286685443     -0.301162940439     
7900000000.0        -0.896668562205     -0.298005073399     0.103236572761      -0.309637978773     0.103236572761      -0.309637978773     -0.896668562205     -0.298005073399     
8000000000.0        -0.898974339455     -0.294897575126     0.100928946072      -0.306683545649     0.100928946072      -0.306683545649     -0.898974339455     -0.294897575126     
8100000000.0        -0.901207100634     -0.291839600188     0.0986943103977     -0.303778746111     0.0986943103977     -0.303778746111     -0.901207100634     -0.291839600188     
8200000000.0        -0.903369781472     -0.288830296535     0.0965297299592     -0.300922727905     0.0965297299592     -0.300922727905     -0.903369781472     -0.288830296535     
8300000000.0        -0.905465177917     -0.285868808419     0.0944324087564     -0.298114635113     0.0944324087564     -0.298114635113     -0.905465177917     -0.285868808419     
8400000000.0        -0.907495953626     -0.282954278961     0.092399683083      -0.295353610725     0.092399683083      -0.295353610725     -0.907495953626     -0.282954278961     
8500000000.0        -0.909464647015     -0.280085852403     0.0904290144719     -0.29263879889      0.0904290144719     -0.29263879889      -0.909464647015     -0.280085852403     
8600000000.0        -0.911373677909     -0.277262676086     0.0885179830463     -0.289969346885     0.0885179830463     -0.289969346885     -0.911373677909     -0.277262676086     
8700000000.0        -0.913225353812     -0.274483902171     0.0866642812502     -0.287344406842     0.0866642812502     -0.287344406842     -0.913225353812     -0.274483902171     
8800000000.0        -0.915021875816     -0.271748689135     0.0848657079389     -0.284763137245     0.0848657079389     -0.284763137245     -0.915021875816     -0.271748689135     
8900000000.0        -0.916765344175     -0.269056203076     0.0831201628066     -0.282224704223     0.0831201628066     -0.282224704223     -0.916765344175     -0.269056203076     
9000000000.0        -0.918457763557     -0.266405618826     0.0814256411317     -0.279728282675     0.0814256411317     -0.279728282675     -0.918457763557     -0.266405618826     
9100000000.0        -0.920101048002     -0.263796120911     0.0797802288214     -0.277273057222     0.0797802288214     -0.277273057222     -0.920101048002     -0.263796120911     
9200000000.0        -0.921697025593     -0.261226904373     0.0781820977369     -0.274858223024     0.0781820977369     -0.274858223024     -0.921697025593     -0.261226904373     
9300000000.0        -0.92324744287      -0.25869717545      0.0766295012839     -0.272482986472     0.0766295012839     -0.272482986472     -0.92324744287      -0.25869717545      
9400000000.0        -0.924753968991     -0.256206152159     0.0751207702509     -0.270146565757     0.0751207702509     -0.270146565757     -0.924753968991     -0.256206152159     
9500000000.0        -0.926218199655     -0.253753064767     0.0736543088822     -0.267848191348     0.0736543088822     -0.267848191348     -0.926218199655     -0.253753064767     
9600000000.0        -0.927641660813     -0.251337156175     0.0722285911702     -0.265587106371     0.0722285911702     -0.265587106371     -0.927641660813     -0.251337156175     
9700000000.0        -0.929025812168     -0.248957682224     0.0708421573553     -0.263362566918     0.0708421573553     -0.263362566918     -0.929025812168     -0.248957682224     
9800000000.0        -0.930372050483     -0.246613911931     0.0694936106196     -0.261173842279     0.0694936106196     -0.261173842279     -0.930372050483     -0.246613911931     
9900000000.0        -0.931681712697     -0.244305127654     0.0681816139636     -0.259020215107     0.0681816139636     -0.259020215107     -0.931681712697     -0.244305127654     
10000000000.0       -0.932956078884     -0.242030625213     0.0669048872564     -0.256900981541     0.0669048872564     -0.256900981541     -0.932956078884     -0.242030625213     
