# Hz S RI R 50.00 
100000000.0         0.121573318087      0.00463732219726    0.878422607595      -0.00633120787697   0.878422607595      -0.00633120787697   0.121573318087      0.00463732219726    
200000000.0         0.122374704435      0.00925581147279    0.877615143451      -0.0126436062433    0.877615143451      -0.0126436062433    0.122374704435      0.00925581147279    
300000000.0         0.123050758153      0.0138615038454     0.876930006588      -0.0189432520563    0.876930006588      -0.0189432520563    0.123050758153      0.0138615038454     
400000000.0         0.123694941212      0.018455722821      0.876273733499      -0.0252314878175    0.876273733499      -0.0252314878175    0.123694941212      0.018455722821      
500000000.0         0.124343214305      0.0230386993524     0.875610362035      -0.0315085624978    0.875610362035      -0.0315085624978    0.124343214305      0.0230386993524     
600000000.0         0.125013850192      0.0276101836867     0.874921617972      -0.0377742437237    0.874921617972      -0.0377742437237    0.125013850192      0.0276101836867     
700000000.0         0.125717564138      0.0321696654547     0.874196784529      -0.0440280380393    0.874196784529      -0.0440280380393    0.125717564138      0.0321696654547     
800000000.0         0.126461214072      0.0367164760595     0.873429002189      -0.0502692933988    0.873429002189      -0.0502692933988    0.126461214072      0.0367164760595     
900000000.0         0.12724944925       0.0412498439541     0.872613620023      -0.0564972545124    0.872613620023      -0.0564972545124    0.12724944925       0.0412498439541     
1000000000.0        0.128085546483      0.0457689276296     0.871747359448      -0.0627110958826    0.871747359448      -0.0627110958826    0.128085546483      0.0457689276296     
1100000000.0        0.128971875338      0.050272836803      0.870827849021      -0.068909943027     0.870827849021      -0.068909943027     0.128971875338      0.050272836803      
1200000000.0        0.129910175556      0.0547606468218     0.869853347016      -0.0750928869114    0.869853347016      -0.0750928869114    0.129910175556      0.0547606468218     
1300000000.0        0.130901731784      0.0592314089202     0.86882256669       -0.0812589942256    0.86882256669       -0.0812589942256    0.130901731784      0.0592314089202     
1400000000.0        0.131947488576      0.0636841578043     0.867734561276      -0.0874073149874    0.867734561276      -0.0874073149874    0.131947488576      0.0636841578043     
1500000000.0        0.133048128911      0.0681179174487     0.866588645466      -0.0935368883526    0.866588645466      -0.0935368883526    0.133048128911      0.0681179174487     
1600000000.0        0.134204129468      0.0725317056513     0.865384340131      -0.0996467471822    0.865384340131      -0.0996467471822    0.134204129468      0.0725317056513     
1700000000.0        0.1354158006        0.0769245377014     0.864121332346      -0.10573592172      0.864121332346      -0.10573592172      0.1354158006        0.0769245377014     
1800000000.0        0.136683315918      0.0812954293961     0.862799445808      -0.111803442618     0.862799445808      -0.111803442618     0.136683315918      0.0812954293961     
1900000000.0        0.138006734644      0.0856433995684     0.861418618479      -0.117848343471     0.861418618479      -0.117848343471     0.138006734644      0.0856433995684     
2000000000.0        0.139386018811      0.0899674722402     0.859978885386      -0.123869662979     0.859978885386      -0.123869662979     0.139386018811      0.0899674722402     
2100000000.0        0.14082104674       0.0942666784816     0.858480365143      -0.129866446808     0.858480365143      -0.129866446808     0.14082104674       0.0942666784816     
2200000000.0        0.142311623751      0.0985400580372     0.85692324924       -0.135837749226     0.85692324924       -0.135837749226     0.142311623751      0.0985400580372     
2300000000.0        0.143857490815      0.102786660761      0.855307793389      -0.141782634539     0.855307793389      -0.141782634539     0.143857490815      0.102786660761      
2400000000.0        0.145458331631      0.107005547899      0.85363431045       -0.147700178377     0.85363431045       -0.147700178377     0.145458331631      0.107005547899      
2500000000.0        0.147113778495      0.111195793234      0.851903164557      -0.153589468849     0.851903164557      -0.153589468849     0.147113778495      0.111195793234      
2600000000.0        0.148823417233      0.115356484126      0.850114766188      -0.159449607578     0.850114766188      -0.159449607578     0.148823417233      0.115356484126      
2700000000.0        0.150586791387      0.119486722454      0.848269567977      -0.165279710652     0.848269567977      -0.165279710652     0.150586791387      0.119486722454      
2800000000.0        0.152403405821      0.12358562547       0.846368061107      -0.171078909481     0.846368061107      -0.171078909481     0.152403405821      0.12358562547       
2900000000.0        0.154272729854      0.127652326588      0.844410772181      -0.176846351582     0.844410772181      -0.176846351582     0.154272729854      0.127652326588      
3000000000.0        0.156194200013      0.131685976093      0.84239826046       -0.182581201301     0.84239826046       -0.182581201301     0.156194200013      0.131685976093      
3100000000.0        0.15816722248       0.135685741802      0.840331115427      -0.188282640466     0.840331115427      -0.188282640466     0.15816722248       0.135685741802      
3200000000.0        0.160191175284      0.139650809665      0.838209954585      -0.193949868995     0.838209954585      -0.193949868995     0.160191175284      0.139650809665      
3300000000.0        0.162265410282      0.143580384311      0.836035421481      -0.199582105445     0.836035421481      -0.199582105445     0.162265410282      0.143580384311      
3400000000.0        0.164389254975      0.14747368955       0.833808183889      -0.205178587514     0.833808183889      -0.205178587514     0.164389254975      0.14747368955       
3500000000.0        0.166562014164      0.151329968833      0.83152893215       -0.210738572503     0.83152893215       -0.210738572503     0.166562014164      0.151329968833      
3600000000.0        0.168782971499      0.155148485666      0.829198377628      -0.216261337732     0.829198377628      -0.216261337732     0.168782971499      0.155148485666      
3700000000.0        0.171051390918      0.158928523985      0.826817251269      -0.221746180914     0.826817251269      -0.221746180914     0.171051390918      0.158928523985      
3800000000.0        0.173366517991      0.162669388492      0.824386302255      -0.227192420498     0.824386302255      -0.227192420498     0.173366517991      0.162669388492      
3900000000.0        0.175727581198      0.166370404957      0.821906296725      -0.232599395967     0.821906296725      -0.232599395967     0.175727581198      0.166370404957      
4000000000.0        0.178133793138      0.170030920486      0.819378016572      -0.237966468108     0.819378016572      -0.237966468108     0.178133793138      0.170030920486      
4100000000.0        0.180584351671      0.173650303747      0.816802258291      -0.243293019246     0.816802258291      -0.243293019246     0.180584351671      0.173650303747      
4200000000.0        0.183078441024      0.177227945178      0.814179831881      -0.248578453441     0.814179831881      -0.248578453441     0.183078441024      0.177227945178      
4300000000.0        0.18561523284       0.180763257151      0.811511559792      -0.253822196666     0.811511559792      -0.253822196666     0.18561523284       0.180763257151      
4400000000.0        0.188193887193      0.184255674112      0.80879827591       -0.259023696937     0.80879827591       -0.259023696937     0.188193887193      0.184255674112      
4500000000.0        0.190813553559      0.187704652691      0.806040824584      -0.264182424431     0.806040824584      -0.264182424431     0.190813553559      0.187704652691      
4600000000.0        0.193473371764      0.191109671783      0.803240059684      -0.269297871568     0.803240059684      -0.269297871568     0.193473371764      0.191109671783      
4700000000.0        0.19617247289       0.194470232605      0.800396843684      -0.274369553062     0.800396843684      -0.274369553062     0.19617247289       0.194470232605      
4800000000.0        0.198909980161      0.197785858717      0.797512046787      -0.279397005954     0.797512046787      -0.279397005954     0.198909980161      0.197785858717      
4900000000.0        0.201685009796      0.201056096036      0.794586546061      -0.284379789614     0.794586546061      -0.284379789614     0.201685009796      0.201056096036      
5000000000.0        0.204496671843      0.2042805128        0.791621224616      -0.28931748572      0.791621224616      -0.28931748572      0.204496671843      0.2042805128        
5100000000.0        0.207344070982      0.207458699536      0.788616970791      -0.294209698211     0.788616970791      -0.294209698211     0.207344070982      0.207458699536      
5200000000.0        0.210226307307      0.210590268981      0.785574677373      -0.299056053225     0.785574677373      -0.299056053225     0.210226307307      0.210590268981      
5300000000.0        0.21314247709       0.213674855995      0.782495240838      -0.303856198999     0.782495240838      -0.303856198999     0.21314247709       0.213674855995      
5400000000.0        0.216091673521      0.21671211745       0.779379560607      -0.308609805768     0.779379560607      -0.308609805768     0.216091673521      0.21671211745       
5500000000.0        0.219072987422      0.219701732097      0.77622853833       -0.313316565627     0.77622853833       -0.313316565627     0.219072987422      0.219701732097      
5600000000.0        0.222085507947      0.222643400409      0.773043077188      -0.317976192379     0.773043077188      -0.317976192379     0.222085507947      0.222643400409      
5700000000.0        0.22512832326       0.225536844418      0.769824081213      -0.322588421369     0.769824081213      -0.322588421369     0.22512832326       0.225536844418      
5800000000.0        0.228200521193      0.228381807519      0.766572454632      -0.32715300929      0.766572454632      -0.32715300929      0.228200521193      0.228381807519      
5900000000.0        0.231301189883      0.231178054267      0.763289101226      -0.331669733982     0.763289101226      -0.331669733982     0.231301189883      0.231178054267      
6000000000.0        0.23442941839       0.233925370152      0.759974923713      -0.336138394207     0.759974923713      -0.336138394207     0.23442941839       0.233925370152      
6100000000.0        0.237584297299      0.236623561365      0.756630823148      -0.340558809411     0.756630823148      -0.340558809411     0.237584297299      0.236623561365      
6200000000.0        0.240764919299      0.239272454536      0.753257698338      -0.344930819472     0.753257698338      -0.344930819472     0.240764919299      0.239272454536      
6300000000.0        0.243970379744      0.241871896477      0.749856445286      -0.349254284434     0.749856445286      -0.349254284434     0.243970379744      0.241871896477      
6400000000.0        0.247199777197      0.244421753893      0.746427956644      -0.353529084223     0.746427956644      -0.353529084223     0.247199777197      0.244421753893      
6500000000.0        0.250452213952      0.246921913094      0.742973121186      -0.357755118361     0.742973121186      -0.357755118361     0.250452213952      0.246921913094      
6600000000.0        0.253726796544      0.249372279685      0.739492823309      -0.361932305654     0.739492823309      -0.361932305654     0.253726796544      0.249372279685      
6700000000.0        0.25702263623       0.251772778256      0.735987942538      -0.36606058388      0.735987942538      -0.36606058388      0.25702263623       0.251772778256      
6800000000.0        0.260338849462      0.254123352051      0.73245935306       -0.370139909466     0.73245935306       -0.370139909466     0.260338849462      0.254123352051      
6900000000.0        0.263674558338      0.256423962633      0.728907923275      -0.374170257146     0.728907923275      -0.374170257146     0.263674558338      0.256423962633      
7000000000.0        0.26702889103       0.258674589542      0.725334515358      -0.378151619622     0.725334515358      -0.378151619622     0.26702889103       0.258674589542      
7100000000.0        0.270400982202      0.26087522994       0.721739984847      -0.382084007211     0.721739984847      -0.382084007211     0.270400982202      0.26087522994       
7200000000.0        0.273789973407      0.26302589825       0.718125180245      -0.385967447484     0.718125180245      -0.385967447484     0.273789973407      0.26302589825       
7300000000.0        0.277195013465      0.265126625794      0.714490942641      -0.389801984901     0.714490942641      -0.389801984901     0.277195013465      0.265126625794      
7400000000.0        0.280615258822      0.267177460413      0.710838105346      -0.393587680436     0.710838105346      -0.393587680436     0.280615258822      0.267177460413      
7500000000.0        0.284049873899      0.269178466097      0.70716749355       -0.397324611205     0.70716749355       -0.397324611205     0.284049873899      0.269178466097      
7600000000.0        0.287498031418      0.271129722596      0.703479923991      -0.401012870075     0.703479923991      -0.401012870075     0.287498031418      0.271129722596      
7700000000.0        0.290958912707      0.273031325036      0.69977620465       -0.404652565288     0.69977620465       -0.404652565288     0.290958912707      0.273031325036      
7800000000.0        0.294431708002      0.274883383528      0.696057134448      -0.408243820061     0.696057134448      -0.408243820061     0.294431708002      0.274883383528      
7900000000.0        0.297915616718      0.276686022775      0.692323502977      -0.411786772199     0.692323502977      -0.411786772199     0.297915616718      0.276686022775      
8000000000.0        0.30140984771       0.278439381678      0.688576090232      -0.415281573699     0.688576090232      -0.415281573699     0.30140984771       0.278439381678      
8100000000.0        0.304913619524      0.280143612933      0.684815666367      -0.418728390352     0.684815666367      -0.418728390352     0.304913619524      0.280143612933      
8200000000.0        0.308426160618      0.281798882641      0.681042991468      -0.422127401345     0.681042991468      -0.422127401345     0.308426160618      0.281798882641      
8300000000.0        0.311946709583      0.283405369904      0.677258815331      -0.425478798863     0.677258815331      -0.425478798863     0.311946709583      0.283405369904      
8400000000.0        0.315474515337      0.284963266423      0.673463877271      -0.428782787689     0.673463877271      -0.428782787689     0.315474515337      0.284963266423      
8500000000.0        0.31900883731       0.286472776106      0.669658905931      -0.432039584806     0.669658905931      -0.432039584806     0.31900883731       0.286472776106      
8600000000.0        0.322548945617      0.287934114665      0.665844619114      -0.435249418999     0.665844619114      -0.435249418999     0.322548945617      0.287934114665      
8700000000.0        0.326094121208      0.28934750922       0.662021723627      -0.438412530458     0.662021723627      -0.438412530458     0.326094121208      0.28934750922       
8800000000.0        0.329643656013      0.290713197904      0.658190915137      -0.441529170382     0.658190915137      -0.441529170382     0.329643656013      0.290713197904      
8900000000.0        0.333196853066      0.29203142947       0.654352878045      -0.444599600588     0.654352878045      -0.444599600588     0.333196853066      0.29203142947       
9000000000.0        0.336753026626      0.293302462898      0.65050828537       -0.44762409312      0.65050828537       -0.44762409312      0.336753026626      0.293302462898      
9100000000.0        0.34031150227       0.294526567011      0.646657798643      -0.450602929858     0.646657798643      -0.450602929858     0.34031150227       0.294526567011      
9200000000.0        0.34387161699       0.295704020087      0.642802067823      -0.453536402139     0.642802067823      -0.453536402139     0.34387161699       0.295704020087      
9300000000.0        0.347432719267      0.296835109477      0.638941731211      -0.45642481037      0.638941731211      -0.45642481037      0.347432719267      0.296835109477      
9400000000.0        0.350994169132      0.297920131233      0.635077415394      -0.459268463656     0.635077415394      -0.459268463656     0.350994169132      0.297920131233      
9500000000.0        0.354555338225      0.298959389727      0.63120973518       -0.462067679421     0.63120973518       -0.462067679421     0.354555338225      0.298959389727      
9600000000.0        0.358115609838      0.299953197286      0.627339293564      -0.464822783045     0.627339293564      -0.464822783045     0.358115609838      0.299953197286      
9700000000.0        0.36167437894       0.300901873829      0.623466681689      -0.467534107497     0.623466681689      -0.467534107497     0.36167437894       0.300901873829      
9800000000.0        0.365231052204      0.301805746504      0.619592478826      -0.470201992974     0.619592478826      -0.470201992974     0.365231052204      0.301805746504      
9900000000.0        0.368785048017      0.302665149336      0.615717252361      -0.472826786549     0.615717252361      -0.472826786549     0.368785048017      0.302665149336      
10000000000.0       0.372335796478      0.303480422878      0.611841557795      -0.475408841823     0.611841557795      -0.475408841823     0.372335796478      0.303480422878      
