# Hz S RI R 50.00 
100000000.0         8.17033460132e-06   -0.000366273498575  0.999989788709      -0.000397868542806  0.999989788709      -0.000397868542806  8.1703346011e-06    -0.000366273498575  
200000000.0         7.42096924422e-06   -0.000732550676268  0.999988913165      -0.000795741421946  0.999988913165      -0.000795741421946  7.420969244e-06     -0.000732550676268  
300000000.0         6.36417356015e-06   -0.00109883357314   0.99998776108       -0.0011936210237    0.99998776108       -0.0011936210237    6.36417356037e-06   -0.00109883357314   
400000000.0         5.00784318636e-06   -0.00146512365837   0.999986324501      -0.00159150908429   0.999986324501      -0.00159150908429   5.00784318636e-06   -0.00146512365837   
500000000.0         3.35499252802e-06   -0.00183142213426   0.999984600363      -0.00198940703408   0.999984600363      -0.00198940703408   3.35499252824e-06   -0.00183142213426   
600000000.0         1.4071351031e-06    -0.00219773002665   0.99998258709       -0.00238731610168   0.99998258709       -0.00238731610168   1.40713510288e-06   -0.00219773002665   
700000000.0         -8.34853599363e-07  -0.00256404823181   0.999980283739      -0.00278523736785   0.999980283739      -0.00278523736785   -8.34853599474e-07  -0.00256404823181   
800000000.0         -3.37042357268e-06  -0.0029303775355    0.999977689687      -0.0031831717887    0.999977689687      -0.0031831717887    -3.37042357268e-06  -0.0029303775355    
900000000.0         -6.19921011835e-06  -0.00329671864143   0.999974804492      -0.00358112022684   0.999974804492      -0.00358112022684   -6.19921011846e-06  -0.00329671864143   
1000000000.0        -9.32096344075e-06  -0.00366307218536   0.999971627822      -0.00397908346742   0.999971627822      -0.00397908346742   -9.32096344086e-06  -0.00366307218536   
1100000000.0        -1.27355091195e-05  -0.00402943873569   0.999968159415      -0.00437706222007   0.999968159415      -0.00437706222007   -1.27355091197e-05  -0.00402943873569   
1200000000.0        -1.64427250277e-05  -0.00439581881237   0.999964399061      -0.00477505713894   0.999964399061      -0.00477505713894   -1.64427250278e-05  -0.00439581881237   
1300000000.0        -2.04425262623e-05  -0.00476221288461   0.999960346579      -0.00517306882118   0.999960346579      -0.00517306882118   -2.04425262625e-05  -0.00476221288461   
1400000000.0        -2.47348555558e-05  -0.0051286213791    0.999956001817      -0.00557109781587   0.999956001817      -0.00557109781587   -2.47348555561e-05  -0.0051286213791    
1500000000.0        -2.93196766885e-05  -0.00549504468344   0.999951364638      -0.00596914462798   0.999951364638      -0.00596914462798   -2.93196766885e-05  -0.00549504468344   
1600000000.0        -3.41969695871e-05  -0.00586148314856   0.99994643492       -0.00636720972124   0.99994643492       -0.00636720972124   -3.41969695872e-05  -0.00586148314856   
1700000000.0        -3.93667271961e-05  -0.0062279370935    0.999941212552      -0.00676529352335   0.999941212552      -0.00676529352335   -3.93667271957e-05  -0.0062279370935    
1800000000.0        -4.48289527442e-05  -0.00659440680596   0.999935697428      -0.00716339642679   0.999935697428      -0.00716339642679   -4.48289527443e-05  -0.00659440680596   
1900000000.0        -5.0583658007e-05   -0.00696089254439   0.999929889451      -0.00756151879121   0.999929889451      -0.00756151879121   -5.05836580068e-05  -0.00696089254439   
2000000000.0        -5.66308617015e-05  -0.0073273945411    0.99992378853       -0.00795966094684   0.99992378853       -0.00795966094684   -5.66308617012e-05  -0.0073273945411    
2100000000.0        -6.29705884092e-05  -0.00769391300304   0.999917394574      -0.00835782319542   0.999917394574      -0.00835782319542   -6.29705884092e-05  -0.00769391300304   
2200000000.0        -6.96028677226e-05  -0.00806044811305   0.999910707499      -0.00875600581168   0.999910707499      -0.00875600581168   -6.96028677227e-05  -0.00806044811305   
2300000000.0        -7.65277333172e-05  -0.0084270000321    0.999903727223      -0.0091542090457    0.999903727223      -0.0091542090457    -7.65277333175e-05  -0.0084270000321    
2400000000.0        -8.37452225435e-05  -0.00879356889859   0.999896453664      -0.00955243312245   0.999896453664      -0.00955243312245   -8.37452225436e-05  -0.00879356889859   
2500000000.0        -9.12553758321e-05  -0.00916015483153   0.999888886744      -0.009950678245     0.999888886744      -0.009950678245     -9.12553758322e-05  -0.00916015483153   
2600000000.0        -9.90582362858e-05  -0.00952675793014   0.999881026385      -0.0103489445943    0.999881026385      -0.0103489445943    -9.90582362855e-05  -0.00952675793014   
2700000000.0        -0.000107153849327  -0.00989337827421   0.999872872513      -0.0107472323298    0.999872872513      -0.0107472323298    -0.000107153849327  -0.00989337827421   
2800000000.0        -0.000115542262444  -0.0102600159279    0.999864425052      -0.011145541593     0.999864425052      -0.011145541593     -0.000115542262444  -0.0102600159279    
2900000000.0        -0.000124223524869  -0.0106266709361    0.999855683929      -0.0115438725041    0.999855683929      -0.0115438725041    -0.000124223524869  -0.0106266709361    
3000000000.0        -0.000133197687384  -0.0109933433283    0.99984664907       -0.0119422251661    0.99984664907       -0.0119422251661    -0.000133197687383  -0.0109933433283    
3100000000.0        -0.000142464802139  -0.0113600331183    0.999837320403      -0.0123405996644    0.999837320403      -0.0123405996644    -0.000142464802138  -0.0113600331183    
3200000000.0        -0.000152024922453  -0.0117267403045    0.999827697857      -0.0127389960672    0.999827697857      -0.0127389960672    -0.000152024922453  -0.0117267403045    
3300000000.0        -0.000161878102687  -0.0120934648703    0.999817781361      -0.013137414426     0.999817781361      -0.013137414426     -0.000161878102687  -0.0120934648703    
3400000000.0        -0.000172024398099  -0.0124602067864    0.999807570845      -0.013535854778     0.999807570845      -0.013535854778     -0.000172024398099  -0.0124602067864    
3500000000.0        -0.000182463864704  -0.0128269660083    0.999797066238      -0.0139343171435    0.999797066238      -0.0139343171435    -0.000182463864704  -0.0128269660083    
3600000000.0        -0.000193196559204  -0.013193742479     0.999786267472      -0.0143328015288    0.999786267472      -0.0143328015288    -0.000193196559204  -0.013193742479     
3700000000.0        -0.000204222538865  -0.0135605361292    0.999775174476      -0.0147313079264    0.999775174476      -0.0147313079264    -0.000204222538864  -0.0135605361292    
3800000000.0        -0.000215541861396  -0.0139273468759    0.999763787184      -0.0151298363139    0.999763787184      -0.0151298363139    -0.000215541861396  -0.0139273468759    
3900000000.0        -0.000227154584941  -0.0142941746259    0.999752105526      -0.0155283866569    0.999752105526      -0.0155283866569    -0.000227154584941  -0.0142941746259    
4000000000.0        -0.000239060767921  -0.0146610192728    0.999740129436      -0.0159269589068    0.999740129436      -0.0159269589068    -0.000239060767921  -0.0146610192728    
4100000000.0        -0.000251260469039  -0.0150278807004    0.999727858846      -0.0163255530035    0.999727858846      -0.0163255530035    -0.000251260469039  -0.0150278807004    
4200000000.0        -0.000263753747146  -0.0153947587804    0.999715293689      -0.0167241688742    0.999715293689      -0.0167241688742    -0.000263753747146  -0.0153947587804    
4300000000.0        -0.000276540661233  -0.0157616533745    0.999702433899      -0.0171228064342    0.999702433899      -0.0171228064342    -0.000276540661233  -0.0157616533745    
4400000000.0        -0.000289621270341  -0.0161285643339    0.999689279411      -0.0175214655874    0.999689279411      -0.0175214655874    -0.000289621270341  -0.0161285643339    
4500000000.0        -0.000302995633528  -0.0164954915001    0.999675830159      -0.017920146227     0.999675830159      -0.017920146227     -0.000302995633528  -0.0164954915001    
4600000000.0        -0.000316663809803  -0.0168624347044    0.999662086078      -0.0183188482346    0.999662086078      -0.0183188482346    -0.000316663809803  -0.0168624347044    
4700000000.0        -0.000330625858095  -0.0172293937691    0.999648047104      -0.0187175714816    0.999648047104      -0.0187175714816    -0.000330625858095  -0.0172293937691    
4800000000.0        -0.000344881837193  -0.0175963685065    0.999633713172      -0.0191163158289    0.999633713172      -0.0191163158289    -0.000344881837193  -0.0175963685065    
4900000000.0        -0.000359431805733  -0.0179633587211    0.99961908422       -0.019515081128     0.99961908422       -0.019515081128     -0.000359431805733  -0.0179633587211    
5000000000.0        -0.000374275822096  -0.0183303642072    0.999604160185      -0.0199138672193    0.999604160185      -0.0199138672193    -0.000374275822096  -0.0183303642072    
5100000000.0        -0.000389413944468  -0.0186973847523    0.999588941004      -0.0203126739356    0.999588941004      -0.0203126739356    -0.000389413944468  -0.0186973847523    
5200000000.0        -0.000404846230704  -0.019064420134     0.999573426616      -0.0207115010988    0.999573426616      -0.0207115010988    -0.000404846230705  -0.019064420134     
5300000000.0        -0.000420572738354  -0.0194314701226    0.999557616958      -0.0211103485226    0.999557616958      -0.0211103485226    -0.000420572738354  -0.0194314701226    
5400000000.0        -0.000436593524628  -0.0197985344809    0.999541511972      -0.0215092160118    0.999541511972      -0.0215092160118    -0.000436593524628  -0.0197985344809    
5500000000.0        -0.000452908646321  -0.0201656129628    0.999525111595      -0.0219081033621    0.999525111595      -0.0219081033621    -0.000452908646322  -0.0201656129628    
5600000000.0        -0.000469518159838  -0.0205327053155    0.99950841577       -0.0223070103614    0.99950841577       -0.0223070103614    -0.000469518159838  -0.0205327053155    
5700000000.0        -0.000486422121144  -0.0208998112793    0.999491424437      -0.0227059367895    0.999491424437      -0.0227059367895    -0.000486422121144  -0.0208998112793    
5800000000.0        -0.000503620585717  -0.0212669305863    0.999474137538      -0.0231048824176    0.999474137538      -0.0231048824176    -0.000503620585717  -0.0212669305863    
5900000000.0        -0.000521113608561  -0.0216340629625    0.999456555015      -0.0235038470099    0.999456555015      -0.0235038470099    -0.000521113608561  -0.0216340629625    
6000000000.0        -0.000538901244133  -0.0220012081266    0.999438676812      -0.0239028303221    0.999438676812      -0.0239028303221    -0.000538901244134  -0.0220012081266    
6100000000.0        -0.000556983546369  -0.0223683657908    0.999420502872      -0.0243018321034    0.999420502872      -0.0243018321034    -0.000556983546369  -0.0223683657908    
6200000000.0        -0.000575360568628  -0.0227355356609    0.999402033139      -0.0247008520951    0.999402033139      -0.0247008520951    -0.000575360568628  -0.0227355356609    
6300000000.0        -0.00059403236368   -0.0231027174365    0.999383267559      -0.0250998900319    0.999383267559      -0.0250998900319    -0.00059403236368   -0.0231027174365    
6400000000.0        -0.000612998983683  -0.0234699108106    0.999364206078      -0.0254989456412    0.999364206078      -0.0254989456412    -0.000612998983683  -0.0234699108106    
6500000000.0        -0.000632260480156  -0.0238371154704    0.999344848642      -0.0258980186437    0.999344848642      -0.0258980186437    -0.000632260480156  -0.0238371154704    
6600000000.0        -0.000651816903979  -0.0242043310974    0.999325195199      -0.0262971087539    0.999325195199      -0.0262971087539    -0.000651816903979  -0.0242043310974    
6700000000.0        -0.00067166830534   -0.0245715573669    0.999305245697      -0.0266962156793    0.999305245697      -0.0266962156793    -0.00067166830534   -0.0245715573669    
6800000000.0        -0.000691814733769  -0.0249387939491    0.999285000084      -0.0270953391217    0.999285000084      -0.0270953391217    -0.000691814733769  -0.0249387939491    
6900000000.0        -0.000712256238058  -0.0253060405083    0.99926445831       -0.0274944787762    0.99926445831       -0.0274944787762    -0.000712256238058  -0.0253060405083    
7000000000.0        -0.000732992866282  -0.0256732967035    0.999243620326      -0.0278936343322    0.999243620326      -0.0278936343322    -0.000732992866282  -0.0256732967035    
7100000000.0        -0.000754024665772  -0.0260405621886    0.999222486083      -0.0282928054731    0.999222486083      -0.0282928054731    -0.000754024665772  -0.0260405621886    
7200000000.0        -0.000775351683124  -0.0264078366125    0.999201055533      -0.0286919918771    0.999201055533      -0.0286919918771    -0.000775351683124  -0.0264078366125    
7300000000.0        -0.000796973964122  -0.0267751196187    0.999179328628      -0.0290911932157    0.999179328628      -0.0290911932157    -0.000796973964122  -0.0267751196187    
7400000000.0        -0.000818891553786  -0.027142410846     0.999157305324      -0.0294904091559    0.999157305324      -0.0294904091559    -0.000818891553786  -0.027142410846     
7500000000.0        -0.000841104496318  -0.0275097099286    0.999134985574      -0.0298896393589    0.999134985574      -0.0298896393589    -0.000841104496318  -0.0275097099286    
7600000000.0        -0.000863612835124  -0.0278770164958    0.999112369334      -0.0302888834809    0.999112369334      -0.0302888834809    -0.000863612835124  -0.0278770164958    
7700000000.0        -0.000886416612747  -0.0282443301724    0.999089456559      -0.0306881411727    0.999089456559      -0.0306881411727    -0.000886416612747  -0.0282443301724    
7800000000.0        -0.000909515870919  -0.028611650579     0.999066247209      -0.0310874120805    0.999066247209      -0.0310874120805    -0.000909515870919  -0.028611650579     
7900000000.0        -0.000932910650473  -0.0289789773311    0.999042741239      -0.0314866958448    0.999042741239      -0.0314866958448    -0.000932910650473  -0.0289789773311    
8000000000.0        -0.000956600991427  -0.0293463100411    0.999018938611      -0.0318859921027    0.999018938611      -0.0318859921027    -0.000956600991427  -0.0293463100411    
8100000000.0        -0.00098058693287   -0.0297136483164    0.998994839283      -0.0322853004853    0.998994839283      -0.0322853004853    -0.00098058693287   -0.0297136483164    
8200000000.0        -0.00100486851302   -0.0300809917604    0.998970443216      -0.0326846206198    0.998970443216      -0.0326846206198    -0.00100486851302   -0.0300809917604    
8300000000.0        -0.00102944576917   -0.0304483399729    0.998945750373      -0.0330839521288    0.998945750373      -0.0330839521288    -0.00102944576917   -0.0304483399729    
8400000000.0        -0.00105431873773   -0.0308156925495    0.998920760716      -0.0334832946306    0.998920760716      -0.0334832946306    -0.00105431873773   -0.0308156925495    
8500000000.0        -0.00107948745415   -0.0311830490822    0.998895474209      -0.0338826477391    0.998895474209      -0.0338826477391    -0.00107948745415   -0.0311830490822    
8600000000.0        -0.00110495195297   -0.0315504091593    0.998869890816      -0.0342820110642    0.998869890816      -0.0342820110642    -0.00110495195297   -0.0315504091593    
8700000000.0        -0.00113071226778   -0.0319177723655    0.998844010503      -0.0346813842118    0.998844010503      -0.0346813842118    -0.00113071226778   -0.0319177723655    
8800000000.0        -0.0011567684312    -0.0322851382819    0.998817833237      -0.0350807667835    0.998817833237      -0.0350807667835    -0.0011567684312    -0.0322851382819    
8900000000.0        -0.00118312047489   -0.032652506486     0.998791358986      -0.0354801583773    0.998791358986      -0.0354801583773    -0.00118312047489   -0.032652506486     
9000000000.0        -0.00120976842954   -0.0330198765524    0.998764587717      -0.0358795585873    0.998764587717      -0.0358795585873    -0.00120976842954   -0.0330198765524    
9100000000.0        -0.00123671232487   -0.033387248052     0.998737519402      -0.0362789670039    0.998737519402      -0.0362789670039    -0.00123671232487   -0.033387248052     
9200000000.0        -0.00126395218959   -0.0337546205527    0.998710154009      -0.036678383214     0.998710154009      -0.036678383214     -0.00126395218959   -0.0337546205527    
9300000000.0        -0.00129148805142   -0.0341219936192    0.998682491512      -0.0370778068007    0.998682491512      -0.0370778068007    -0.00129148805142   -0.0341219936192    
9400000000.0        -0.00131931993709   -0.0344893668133    0.998654531882      -0.037477237344     0.998654531882      -0.037477237344     -0.00131931993709   -0.0344893668133    
9500000000.0        -0.00134744787228   -0.0348567396936    0.998626275093      -0.0378766744202    0.998626275093      -0.0378766744202    -0.00134744787228   -0.0348567396936    
9600000000.0        -0.00137587188168   -0.0352241118158    0.998597721121      -0.0382761176025    0.998597721121      -0.0382761176025    -0.00137587188168   -0.0352241118158    
9700000000.0        -0.00140459198895   -0.0355914827329    0.99856886994       -0.0386755664608    0.99856886994       -0.0386755664608    -0.00140459198895   -0.0355914827329    
9800000000.0        -0.0014336082167    -0.0359588519952    0.998539721528      -0.0390750205618    0.998539721528      -0.0390750205618    -0.0014336082167    -0.0359588519952    
9900000000.0        -0.00146292058651   -0.0363262191501    0.998510275862      -0.0394744794694    0.998510275862      -0.0394744794694    -0.00146292058651   -0.0363262191501    
10000000000.0       -0.00149252911893   -0.0366935837425    0.998480532922      -0.0398739427442    0.998480532922      -0.0398739427442    -0.00149252911893   -0.0366935837425    
