# Hz S RI R 50.00 
100000000.0         0.0336195697145     0.00128974790587    0.96637893675       -0.00171806653075   0.96637893675       -0.00171806653075   0.0336195697145     0.00128974790587    
200000000.0         0.0338394900002     0.00257815054512    0.966158337308      -0.00343479160965   0.966158337308      -0.00343479160965   0.0338394900002     0.00257815054512    
300000000.0         0.0340055082533     0.00386573676945    0.965991454241      -0.00515070631767   0.965991454241      -0.00515070631767   0.0340055082533     0.00386573676945    
400000000.0         0.0341460735863     0.00515267997907    0.965849838409      -0.00686598581924   0.965849838409      -0.00686598581924   0.0341460735863     0.00515267997907    
500000000.0         0.0342721793943     0.00643907062064    0.965722496386      -0.00858072209169   0.965722496386      -0.00858072209169   0.0342721793943     0.00643907062064    
600000000.0         0.0343894503799     0.00772496230547    0.96560380344       -0.0102949701247    0.96560380344       -0.0102949701247    0.0343894503799     0.00772496230547    
700000000.0         0.0345012197172     0.00901038839679    0.96549042637       -0.0120087645486    0.96549042637       -0.0120087645486    0.0345012197172     0.00901038839679    
800000000.0         0.0346096536402     0.0102953697122     0.96538019891       -0.013722127362     0.96538019891       -0.013722127362     0.0346096536402     0.0102953697122     
900000000.0         0.0347162528226     0.0115799186652     0.965271620356      -0.0154350720889    0.965271620356      -0.0154350720889    0.0347162528226     0.0115799186652     
1000000000.0        0.0348221068431     0.012864041719      0.965163601097      -0.0171476062446    0.965163601097      -0.0171476062446    0.0348221068431     0.012864041719      
1100000000.0        0.0349280358188     0.0141477409468     0.965055320983      -0.0188597329041    0.965055320983      -0.0188597329041    0.0349280358188     0.0141477409468     
1200000000.0        0.0350346749073     0.0154310150772     0.964946144823      -0.0205714517535    0.964946144823      -0.0205714517535    0.0350346749073     0.0154310150772     
1300000000.0        0.0351425275375     0.0167138602244     0.964835569152      -0.0222827598258    0.964835569152      -0.0222827598258    0.0351425275375     0.0167138602244     
1400000000.0        0.0352520004418     0.0179962704162     0.964723187203      -0.0239936520329    0.964723187203      -0.0239936520329    0.0352520004418     0.0179962704162     
1500000000.0        0.0353634275574     0.0192782379863     0.964608664999      -0.0257041215609    0.964608664999      -0.0257041215609    0.0353634275574     0.0192782379863     
1600000000.0        0.0354770868336     0.0205597538723     0.964491724554      -0.027414160171     0.964491724554      -0.027414160171     0.0354770868336     0.0205597538723     
1700000000.0        0.0355932123595     0.0218408078475     0.964372131739      -0.0291237584337    0.964372131739      -0.0291237584337    0.0355932123595     0.0218408078475     
1800000000.0        0.0357120033105     0.0231213887034     0.964249687337      -0.0308329059132    0.964249687337      -0.0308329059132    0.0357120033105     0.0231213887034     
1900000000.0        0.0358336306765     0.0244014843961     0.964124220318      -0.0325415913157    0.964124220318      -0.0325415913157    0.0358336306765     0.0244014843961     
2000000000.0        0.0359582424103     0.0256810821653     0.963995582685      -0.0342498026094    0.963995582685      -0.0342498026094    0.0359582424103     0.0256810821653     
2100000000.0        0.036085967424      0.0269601686318     0.963863645483      -0.0359575271241    0.963863645483      -0.0359575271241    0.036085967424      0.0269601686318     
2200000000.0        0.0362169187362     0.0282387298791     0.963728295649      -0.0376647516331    0.963728295649      -0.0376647516331    0.0362169187362     0.0282387298791     
2300000000.0        0.0363511959784     0.0295167515206     0.963589433505      -0.0393714624221    0.963589433505      -0.0393714624221    0.0363511959784     0.0295167515206     
2400000000.0        0.0364888874136     0.0307942187579     0.963446970741      -0.041077645348     0.963446970741      -0.041077645348     0.0364888874136     0.0307942187579     
2500000000.0        0.0366300715783     0.0320711164292     0.963300828774      -0.0427832858885    0.963300828774      -0.0427832858885    0.0366300715783     0.0320711164292     
2600000000.0        0.0367748186307     0.033347429052      0.963150937395      -0.0444883691851    0.963150937395      -0.0444883691851    0.0367748186307     0.033347429052      
2700000000.0        0.0369231914654     0.0346231408586     0.962997233662      -0.0461928800797    0.962997233662      -0.0461928800797    0.0369231914654     0.0346231408586     
2800000000.0        0.0370752466437     0.0358982358284     0.962839660963      -0.0478968031475    0.962839660963      -0.0478968031475    0.0370752466437     0.0358982358284     
2900000000.0        0.0372310351746     0.0371726977152     0.962678168236      -0.0496001227244    0.962678168236      -0.0496001227244    0.0372310351746     0.0371726977152     
3000000000.0        0.0373906031747     0.0384465100717     0.962512709313      -0.0513028229324    0.962512709313      -0.0513028229324    0.0373906031747     0.0384465100717     
3100000000.0        0.0375539924298     0.0397196562705     0.962343242355      -0.0530048877014    0.962343242355      -0.0530048877014    0.0375539924298     0.0397196562705     
3200000000.0        0.0377212408742     0.0409921195236     0.962169729374      -0.0547063007884    0.962169729374      -0.0547063007884    0.0377212408742     0.0409921195236     
3300000000.0        0.0378923830037     0.0422638828992     0.961992135819      -0.0564070457953    0.961992135819      -0.0564070457953    0.0378923830037     0.0422638828992     
3400000000.0        0.0380674502317     0.0435349293366     0.961810430221      -0.0581071061839    0.961810430221      -0.0581071061839    0.0380674502317     0.0435349293366     
3500000000.0        0.0382464711981     0.0448052416601     0.961624583883      -0.0598064652904    0.961624583883      -0.0598064652904    0.0382464711981     0.0448052416601     
3600000000.0        0.0384294720393     0.0460748025915     0.961434570612      -0.0615051063378    0.961434570612      -0.0615051063378    0.0384294720393     0.0460748025915     
3700000000.0        0.0386164766232     0.0473435947605     0.961240366481      -0.0632030124474    0.961240366481      -0.0632030124474    0.0386164766232     0.0473435947605     
3800000000.0        0.0388075067567     0.0486116007156     0.961041949626      -0.0649001666488    0.961041949626      -0.0649001666488    0.0388075067567     0.0486116007156     
3900000000.0        0.0390025823682     0.0498788029325     0.960839300058      -0.0665965518899    0.960839300058      -0.0665965518899    0.0390025823682     0.0498788029325     
4000000000.0        0.0392017216689     0.0511451838231     0.960632399505      -0.0682921510454    0.960632399505      -0.0682921510454    0.0392017216689     0.0511451838231     
4100000000.0        0.039404941296      0.0524107257431     0.960421231269      -0.0699869469245    0.960421231269      -0.0699869469245    0.039404941296      0.0524107257431     
4200000000.0        0.0396122564404     0.0536754109984     0.960205780097      -0.0716809222781    0.960205780097      -0.0716809222781    0.0396122564404     0.0536754109984     
4300000000.0        0.0398236809605     0.0549392218525     0.959986032069      -0.0733740598062    0.959986032069      -0.0733740598062    0.0398236809605     0.0549392218525     
4400000000.0        0.040039227484      0.0562021405318     0.959761974493      -0.0750663421631    0.959761974493      -0.0750663421631    0.040039227484      0.0562021405318     
4500000000.0        0.0402589074996     0.0574641492317     0.959533595817      -0.0767577519639    0.959533595817      -0.0767577519639    0.0402589074996     0.0574641492317     
4600000000.0        0.040482731439      0.0587252301209     0.959300885544      -0.0784482717897    0.959300885544      -0.0784482717897    0.040482731439      0.0587252301209     
4700000000.0        0.0407107087517     0.0599853653473     0.95906383416       -0.0801378841922    0.95906383416       -0.0801378841922    0.0407107087517     0.0599853653473     
4800000000.0        0.0409428479713     0.0612445370414     0.958822433066      -0.0818265716985    0.958822433066      -0.0818265716985    0.0409428479713     0.0612445370414     
4900000000.0        0.0411791567774     0.0625027273211     0.958576674515      -0.0835143168158    0.958576674515      -0.0835143168158    0.0411791567774     0.0625027273211     
5000000000.0        0.0414196420501     0.0637599182953     0.958326551559      -0.0852011020346    0.958326551559      -0.0852011020346    0.0414196420501     0.0637599182953     
5100000000.0        0.0416643099205     0.0650160920676     0.958072058001      -0.0868869098334    0.958072058001      -0.0868869098334    0.0416643099205     0.0650160920676     
5200000000.0        0.0419131658166     0.0662712307398     0.957813188344      -0.0885717226816    0.957813188344      -0.0885717226816    0.0419131658166     0.0662712307398     
5300000000.0        0.0421662145054     0.0675253164149     0.957549937751      -0.0902555230431    0.957549937751      -0.0902555230431    0.0421662145054     0.0675253164149     
5400000000.0        0.0424234601308     0.0687783312003     0.95728230201       -0.0919382933795    0.95728230201       -0.0919382933795    0.0424234601308     0.0687783312003     
5500000000.0        0.0426849062491     0.0700302572106     0.957010277493      -0.093620016153     0.957010277493      -0.093620016153     0.0426849062491     0.0700302572106     
5600000000.0        0.0429505558613     0.0712810765703     0.95673386113       -0.0953006738292    0.95673386113       -0.0953006738292    0.0429505558613     0.0712810765703     
5700000000.0        0.0432204114425     0.0725307714164     0.956453050374      -0.0969802488797    0.956453050374      -0.0969802488797    0.0432204114425     0.0725307714164     
5800000000.0        0.0434944749697     0.0737793239006     0.956167843175      -0.0986587237848    0.956167843175      -0.0986587237848    0.0434944749697     0.0737793239006     
5900000000.0        0.0437727479468     0.0750267161918     0.955878237959      -0.100336081036     0.955878237959      -0.100336081036     0.0437727479468     0.0750267161918     
6000000000.0        0.0440552314278     0.0762729304785     0.955584233598      -0.102012303138     0.955584233598      -0.102012303138     0.0440552314278     0.0762729304785     
6100000000.0        0.0443419260389     0.0775179489702     0.955285829393      -0.10368737261      0.955285829393      -0.10368737261      0.0443419260389     0.0775179489702     
6200000000.0        0.0446328319982     0.0787617539001     0.954983025051      -0.105361271991     0.954983025051      -0.105361271991     0.0446328319982     0.0787617539001     
6300000000.0        0.0449279491344     0.0800043275266     0.95467582067       -0.107033983838     0.95467582067       -0.107033983838     0.0449279491344     0.0800043275266     
6400000000.0        0.045227276904      0.0812456521353     0.954364216718      -0.10870549073      0.954364216718      -0.10870549073      0.045227276904      0.0812456521353     
6500000000.0        0.0455308144074     0.0824857100403     0.954048214019      -0.110375775268     0.954048214019      -0.110375775268     0.0455308144074     0.0824857100403     
6600000000.0        0.0458385604043     0.0837244835867     0.953727813739      -0.11204482008      0.953727813739      -0.11204482008      0.0458385604043     0.0837244835867     
6700000000.0        0.0461505133269     0.0849619551513     0.953403017369      -0.113712607819     0.953403017369      -0.113712607819     0.0461505133269     0.0849619551513     
6800000000.0        0.0464666712939     0.0861981071446     0.953073826713      -0.115379121167     0.953073826713      -0.115379121167     0.0464666712939     0.0861981071446     
6900000000.0        0.0467870321221     0.0874329220122     0.952740243878      -0.117044342837     0.952740243878      -0.117044342837     0.0467870321221     0.0874329220122     
7000000000.0        0.0471115933379     0.0886663822362     0.952402271259      -0.118708255571     0.952402271259      -0.118708255571     0.0471115933379     0.0886663822362     
7100000000.0        0.0474403521884     0.0898984703366     0.952059911532      -0.120370842146     0.952059911532      -0.120370842146     0.0474403521884     0.0898984703366     
7200000000.0        0.0477733056513     0.0911291688723     0.95171316764       -0.122032085372     0.95171316764       -0.122032085372     0.0477733056513     0.0911291688723     
7300000000.0        0.0481104504443     0.092358460443      0.951362042787      -0.123691968094     0.951362042787      -0.123691968094     0.0481104504443     0.092358460443      
7400000000.0        0.048451783034      0.0935863276897     0.951006540428      -0.125350473194     0.951006540428      -0.125350473194     0.048451783034      0.0935863276897     
7500000000.0        0.0487972996445     0.0948127532964     0.950646664257      -0.127007583594     0.950646664257      -0.127007583594     0.0487972996445     0.0948127532964     
7600000000.0        0.0491469962652     0.0960377199912     0.950282418208      -0.128663282252     0.950282418208      -0.128663282252     0.0491469962652     0.0960377199912     
7700000000.0        0.0495008686582     0.0972612105468     0.949913806435      -0.130317552169     0.949913806435      -0.130317552169     0.0495008686582     0.0972612105468     
7800000000.0        0.0498589123654     0.0984832077826     0.949540833318      -0.131970376386     0.949540833318      -0.131970376386     0.0498589123654     0.0984832077826     
7900000000.0        0.0502211227154     0.0997036945648     0.949163503447      -0.133621737988     0.949163503447      -0.133621737988     0.0502211227154     0.0997036945648     
8000000000.0        0.0505874948296     0.100922653808      0.948781821618      -0.135271620101     0.948781821618      -0.135271620101     0.0505874948296     0.100922653808      
8100000000.0        0.0509580236279     0.102140068476      0.94839579283       -0.136920005899     0.94839579283       -0.136920005899     0.0509580236279     0.102140068476      
8200000000.0        0.0513327038352     0.103355921581      0.948005422276      -0.138566878599     0.948005422276      -0.138566878599     0.0513327038352     0.103355921581      
8300000000.0        0.051711529986      0.104570196191      0.947610715339      -0.140212221467     0.947610715339      -0.140212221467     0.051711529986      0.104570196191      
8400000000.0        0.0520944964299     0.105782875419      0.947211677586      -0.141856017815     0.947211677586      -0.141856017815     0.0520944964299     0.105782875419      
8500000000.0        0.0524815973365     0.106993942438      0.946808314766      -0.143498251004     0.946808314766      -0.143498251004     0.0524815973365     0.106993942438      
8600000000.0        0.0528728266998     0.108203380468      0.946400632801      -0.145138904444     0.946400632801      -0.145138904444     0.0528728266998     0.108203380468      
8700000000.0        0.0532681783429     0.109411172789      0.945988637783      -0.146777961596     0.945988637783      -0.146777961596     0.0532681783429     0.109411172789      
8800000000.0        0.0536676459221     0.110617302732      0.945572335973      -0.148415405973     0.945572335973      -0.148415405973     0.0536676459221     0.110617302732      
8900000000.0        0.0540712229309     0.111821753688      0.945151733793      -0.150051221137     0.945151733793      -0.150051221137     0.0540712229309     0.111821753688      
9000000000.0        0.054478902704      0.113024509101      0.944726837824      -0.151685390705     0.944726837824      -0.151685390705     0.054478902704      0.113024509101      
9100000000.0        0.0548906784206     0.114225552475      0.944297654801      -0.153317898349     0.944297654801      -0.153317898349     0.0548906784206     0.114225552475      
9200000000.0        0.0553065431086     0.115424867372      0.943864191612      -0.154948727791     0.943864191612      -0.154948727791     0.0553065431086     0.115424867372      
9300000000.0        0.0557264896473     0.116622437413      0.943426455291      -0.156577862813     0.943426455291      -0.156577862813     0.0557264896473     0.116622437413      
9400000000.0        0.0561505107711     0.117818246277      0.94298445302       -0.15820528725      0.94298445302       -0.15820528725      0.0561505107711     0.117818246277      
9500000000.0        0.0565785990722     0.119012277705      0.94253819212       -0.159830984993     0.94253819212       -0.159830984993     0.0565785990722     0.119012277705      
9600000000.0        0.057010747004      0.1202045155        0.94208768005       -0.161454939993     0.94208768005       -0.161454939993     0.057010747004      0.1202045155        
9700000000.0        0.0574469468839     0.121394943524      0.941632924409      -0.163077136256     0.941632924409      -0.163077136256     0.0574469468839     0.121394943524      
9800000000.0        0.0578871908957     0.122583545704      0.941173932925      -0.164697557849     0.941173932925      -0.164697557849     0.0578871908957     0.122583545704      
9900000000.0        0.0583314710927     0.123770306029      0.940710713458      -0.166316188897     0.940710713458      -0.166316188897     0.0583314710927     0.123770306029      
10000000000.0       0.0587797794001     0.124955208549      0.940243273996      -0.167933013584     0.940243273996      -0.167933013584     0.0587797794001     0.124955208549      
