# Hz S RI R 50.00 
100000000.0         0.00141164362016    0.000657180902395   0.998583965912      -0.0024874812843    0.998583965912      -0.0024874812843    0.00141164362016    0.000657180902395   
200000000.0         0.00142513586751    0.00131428523847    0.998563731411      -0.00497491434258   0.998563731411      -0.00497491434258   0.00142513586751    0.00131428523847    
300000000.0         0.00143942329539    0.00197131802798    0.99853934959       -0.00746231987999   0.99853934959       -0.00746231987999   0.00143942329539    0.00197131802798    
400000000.0         0.00145572825458    0.00262826941629    0.998509597642      -0.00994969908708   0.998509597642      -0.00994969908708   0.00145572825458    0.00262826941629    
500000000.0         0.00147452094392    0.00328512630038    0.998474004822      -0.0124370475383    0.998474004822      -0.0124370475383    0.00147452094392    0.00328512630038    
600000000.0         0.00149604077538    0.00394187423924    0.998432331098      -0.0149243579042    0.998432331098      -0.0149243579042    0.00149604077538    0.00394187423924    
700000000.0         0.00152042885471    0.00459849812248    0.998384434674      -0.0174116210324    0.998384434674      -0.0174116210324    0.00152042885471    0.00459849812248    
800000000.0         0.00154777631301    0.00525498247244    0.998330223665      -0.0198988264962    0.998330223665      -0.0198988264962    0.00154777631301    0.00525498247244    
900000000.0         0.0015781458175     0.00591131160136    0.998269634594      -0.0223859629162    0.998269634594      -0.0223859629162    0.0015781458175     0.00591131160136    
1000000000.0        0.00161158247063    0.00656746970127    0.998202621497      -0.0248730181663    0.998202621497      -0.0248730181663    0.00161158247063    0.00656746970127    
1100000000.0        0.00164811986618    0.00722344089892    0.998129149868      -0.0273599795143    0.998129149868      -0.0273599795143    0.00164811986618    0.00722344089892    
1200000000.0        0.00168778369655    0.007879209291      0.998049193057      -0.0298468337238    0.998049193057      -0.0298468337238    0.00168778369655    0.007879209291      
1300000000.0        0.00173059402137    0.00853475896755    0.997962730002      -0.0323335671291    0.997962730002      -0.0323335671291    0.00173059402137    0.00853475896755    
1400000000.0        0.00177656675812    0.00919007402788    0.997869743747      -0.0348201656946    0.997869743747      -0.0348201656946    0.00177656675812    0.00919007402788    
1500000000.0        0.00182571469751    0.00984513859174    0.997770220422      -0.03730661506      0.997770220422      -0.03730661506      0.00182571469751    0.00984513859174    
1600000000.0        0.00187804821631    0.0104999368071     0.997664148536      -0.0397929005781    0.997664148536      -0.0397929005781    0.00187804821631    0.0104999368071     
1700000000.0        0.00193357579099    0.011154452856      0.997551518465      -0.042279007345     0.997551518465      -0.042279007345     0.00193357579099    0.011154452856      
1800000000.0        0.00199230437602    0.0118086709581     0.997432322075      -0.0447649202259    0.997432322075      -0.0447649202259    0.00199230437602    0.0118086709581     
1900000000.0        0.00205423968801    0.012462575374      0.997306552439      -0.0472506238766    0.997306552439      -0.0472506238766    0.00205423968801    0.012462575374      
2000000000.0        0.00211938642272    0.0131161504072     0.997174203625      -0.0497361027616    0.997174203625      -0.0497361027616    0.00211938642272    0.0131161504072     
2100000000.0        0.00218774842343    0.0137693804052     0.997035270524      -0.0522213411707    0.997035270524      -0.0522213411707    0.00218774842343    0.0137693804052     
2200000000.0        0.00225932881327    0.0144222497608     0.996889748722      -0.0547063232322    0.996889748722      -0.0547063232322    0.00225932881327    0.0144222497608     
2300000000.0        0.0023341301005     0.0150747429125     0.996737634398      -0.0571910329255    0.996737634398      -0.0571910329255    0.0023341301005     0.0150747429125     
2400000000.0        0.00241215426325    0.0157268443452     0.996578924235      -0.0596754540917    0.996578924235      -0.0596754540917    0.00241215426325    0.0157268443452     
2500000000.0        0.00249340281833    0.0163785385898     0.996413615359      -0.0621595704435    0.996413615359      -0.0621595704435    0.00249340281833    0.0163785385898     
2600000000.0        0.00257787687769    0.0170298102236     0.996241705277      -0.0646433655735    0.996241705277      -0.0646433655735    0.00257787687769    0.0170298102236     
2700000000.0        0.00266557719508    0.0176806438699     0.996063191837      -0.0671268229621    0.996063191837      -0.0671268229621    0.00266557719508    0.0176806438699     
2800000000.0        0.00275650420501    0.0183310241983     0.995878073186      -0.0696099259848    0.995878073186      -0.0696099259848    0.00275650420501    0.0183310241983     
2900000000.0        0.00285065805533    0.0189809359237     0.995686347743      -0.0720926579181    0.995686347743      -0.0720926579181    0.00285065805533    0.0189809359237     
3000000000.0        0.00294803863484    0.0196303638066     0.995488014166      -0.0745750019459    0.995488014166      -0.0745750019459    0.00294803863484    0.0196303638066     
3100000000.0        0.00304864559676    0.0202792926524     0.995283071334      -0.0770569411644    0.995283071334      -0.0770569411644    0.00304864559676    0.0202792926524     
3200000000.0        0.00315247837876    0.0209277073111     0.995071518329      -0.0795384585874    0.995071518329      -0.0795384585874    0.00315247837876    0.0209277073111     
3300000000.0        0.00325953622021    0.021575592677      0.994853354413      -0.0820195371508    0.994853354413      -0.0820195371508    0.00325953622021    0.021575592677      
3400000000.0        0.00336981817706    0.0222229336881     0.994628579022      -0.0845001597165    0.994628579022      -0.0845001597165    0.00336981817706    0.0222229336881     
3500000000.0        0.00348332313481    0.0228697153257     0.994397191748      -0.086980309077     0.994397191748      -0.086980309077     0.00348332313481    0.0228697153257     
3600000000.0        0.00360004981973    0.0235159226142     0.99415919233       -0.0894599679585    0.99415919233       -0.0894599679585    0.00360004981973    0.0235159226142     
3700000000.0        0.0037199968088     0.0241615406203     0.993914580646      -0.0919391190244    0.993914580646      -0.0919391190244    0.0037199968088     0.0241615406203     
3800000000.0        0.00384316253835    0.0248065544531     0.993663356704      -0.0944177448788    0.993663356704      -0.0944177448788    0.00384316253835    0.0248065544531     
3900000000.0        0.00396954531176    0.0254509492632     0.993405520634      -0.0968958280692    0.993405520634      -0.0968958280692    0.00396954531176    0.0254509492632     
4000000000.0        0.00409914330625    0.0260947102424     0.993141072685      -0.0993733510897    0.993141072685      -0.0993733510897    0.00409914330625    0.0260947102424     
4100000000.0        0.00423195457891    0.0267378226234     0.992870013215      -0.101850296383     0.992870013215      -0.101850296383     0.00423195457891    0.0267378226234     
4200000000.0        0.0043679770721     0.0273802716796     0.992592342689      -0.104326646344     0.992592342689      -0.104326646344     0.0043679770721     0.0273802716796     
4300000000.0        0.00450720861829    0.0280220427242     0.992308061676      -0.106802383321     0.992308061676      -0.106802383321     0.00450720861829    0.0280220427242     
4400000000.0        0.00464964694439    0.0286631211104     0.992017170842      -0.109277489619     0.992017170842      -0.109277489619     0.00464964694439    0.0286631211104     
4500000000.0        0.00479528967562    0.0293034922304     0.991719670948      -0.111751947501     0.991719670948      -0.111751947501     0.00479528967562    0.0293034922304     
4600000000.0        0.00494413433908    0.0299431415159     0.991415562848      -0.114225739189     0.991415562848      -0.114225739189     0.00494413433908    0.0299431415159     
4700000000.0        0.00509617836692    0.0305820544369     0.991104847484      -0.116698846871     0.991104847484      -0.116698846871     0.00509617836692    0.0305820544369     
4800000000.0        0.00525141909923    0.031220216502      0.990787525885      -0.119171252696     0.990787525885      -0.119171252696     0.00525141909923    0.031220216502      
4900000000.0        0.0054098537867     0.0318576132575     0.990463599165      -0.12164293878      0.990463599165      -0.12164293878      0.0054098537867     0.0318576132575     
5000000000.0        0.005571479593      0.0324942302879     0.990133068521      -0.124113887206     0.990133068521      -0.124113887206     0.005571479593      0.0324942302879     
5100000000.0        0.00573629359701    0.0331300532148     0.989795935231      -0.126584080027     0.989795935231      -0.126584080027     0.00573629359701    0.0331300532148     
5200000000.0        0.00590429279483    0.033765067697      0.989452200651      -0.129053499267     0.989452200651      -0.129053499267     0.00590429279483    0.033765067697      
5300000000.0        0.00607547410163    0.0343992594303     0.989101866216      -0.131522126921     0.989101866216      -0.131522126921     0.00607547410163    0.0343992594303     
5400000000.0        0.00624983435337    0.0350326141471     0.988744933436      -0.13398994496      0.988744933436      -0.13398994496      0.00624983435337    0.0350326141471     
5500000000.0        0.00642737030837    0.035665117616      0.988381403897      -0.136456935327     0.988381403897      -0.136456935327     0.00642737030837    0.035665117616      
5600000000.0        0.00660807864878    0.0362967556419     0.98801127926       -0.138923079943     0.98801127926       -0.138923079943     0.00660807864878    0.0362967556419     
5700000000.0        0.00679195598193    0.0369275140655     0.987634561257      -0.141388360707     0.987634561257      -0.141388360707     0.00679195598193    0.0369275140655     
5800000000.0        0.00697899884157    0.0375573787633     0.987251251694      -0.143852759497     0.987251251694      -0.143852759497     0.00697899884157    0.0375573787633     
5900000000.0        0.00716920368908    0.0381863356472     0.986861352446      -0.146316258168     0.986861352446      -0.146316258168     0.00716920368908    0.0381863356472     
6000000000.0        0.00736256691451    0.0388143706642     0.986464865462      -0.148778838561     0.986464865462      -0.148778838561     0.00736256691451    0.0388143706642     
6100000000.0        0.00755908483765    0.0394414697965     0.986061792756      -0.151240482496     0.986061792756      -0.151240482496     0.00755908483765    0.0394414697965     
6200000000.0        0.00775875370895    0.0400676190612     0.985652136416      -0.153701171776     0.985652136416      -0.153701171776     0.00775875370895    0.0400676190612     
6300000000.0        0.00796156971041    0.04069280451       0.985235898595      -0.15616088819      0.985235898595      -0.15616088819      0.00796156971041    0.04069280451       
6400000000.0        0.00816752895646    0.0413170122293     0.984813081515      -0.158619613511     0.984813081515      -0.158619613511     0.00816752895646    0.0413170122293     
6500000000.0        0.00837662749471    0.0419402283396     0.984383687466      -0.1610773295       0.984383687466      -0.1610773295       0.00837662749471    0.0419402283396     
6600000000.0        0.00858886130669    0.0425624389957     0.983947718803      -0.163534017903     0.983947718803      -0.163534017903     0.00858886130669    0.0425624389957     
6700000000.0        0.00880422630859    0.0431836303866     0.983505177949      -0.165989660455     0.983505177949      -0.165989660455     0.00880422630859    0.0431836303866     
6800000000.0        0.00902271835189    0.0438037887351     0.983056067394      -0.16844423888      0.983056067394      -0.16844423888      0.00902271835189    0.0438037887351     
6900000000.0        0.00924433322402    0.0444229002977     0.98260038969       -0.170897734891     0.98260038969       -0.170897734891     0.00924433322402    0.0444229002977     
7000000000.0        0.00946906664892    0.0450409513647     0.982138147458      -0.173350130194     0.982138147458      -0.173350130194     0.00946906664892    0.0450409513647     
7100000000.0        0.00969691428762    0.04565792826       0.981669343382      -0.175801406483     0.981669343382      -0.175801406483     0.00969691428762    0.04565792826       
7200000000.0        0.00992787173878    0.0462738173407     0.981193980211      -0.178251545446     0.981193980211      -0.178251545446     0.00992787173878    0.0462738173407     
7300000000.0        0.0101619345392     0.0468886049974     0.980712060757      -0.180700528765     0.980712060757      -0.180700528765     0.0101619345392     0.0468886049974     
7400000000.0        0.0103990981644     0.0475022776538     0.980223587898      -0.183148338112     0.980223587898      -0.183148338112     0.0103990981644     0.0475022776538     
7500000000.0        0.0106393580288     0.0481148217669     0.979728564575      -0.185594955158     0.979728564575      -0.185594955158     0.0106393580288     0.0481148217669     
7600000000.0        0.0108827094865     0.0487262238266     0.979226993792      -0.188040361566     0.979226993792      -0.188040361566     0.0108827094865     0.0487262238266     
7700000000.0        0.0111291478315     0.0493364703557     0.978718878616      -0.190484538995     0.978718878616      -0.190484538995     0.0111291478315     0.0493364703557     
7800000000.0        0.0113786682984     0.0499455479101     0.978204222178      -0.192927469101     0.978204222178      -0.192927469101     0.0113786682984     0.0499455479101     
7900000000.0        0.0116312660622     0.0505534430782     0.977683027671      -0.195369133537     0.977683027671      -0.195369133537     0.0116312660622     0.0505534430782     
8000000000.0        0.0118869362393     0.0511601424814     0.97715529835       -0.197809513953     0.97715529835       -0.197809513953     0.0118869362393     0.0511601424814     
8100000000.0        0.0121456738876     0.0517656327736     0.976621037534      -0.200248591998     0.976621037534      -0.200248591998     0.0121456738876     0.0517656327736     
8200000000.0        0.0124074740067     0.0523699006414     0.976080248603      -0.202686349319     0.976080248603      -0.202686349319     0.0124074740067     0.0523699006414     
8300000000.0        0.0126723315386     0.052972932804      0.975532934999      -0.205122767564     0.975532934999      -0.205122767564     0.0126723315386     0.052972932804      
8400000000.0        0.0129402413676     0.0535747160129     0.974979100226      -0.20755782838      0.974979100226      -0.20755782838      0.0129402413676     0.0535747160129     
8500000000.0        0.013211198321      0.0541752370524     0.97441874785       -0.209991513413     0.97441874785       -0.209991513413     0.013211198321      0.0541752370524     
8600000000.0        0.0134851971692     0.0547744827389     0.973851881499      -0.212423804314     0.973851881499      -0.212423804314     0.0134851971692     0.0547744827389     
8700000000.0        0.013762232626      0.0553724399213     0.97327850486       -0.214854682731     0.97327850486       -0.214854682731     0.013762232626      0.0553724399213     
8800000000.0        0.0140422993488     0.055969095481      0.972698621684      -0.217284130318     0.972698621684      -0.217284130318     0.0140422993488     0.055969095481      
8900000000.0        0.0143253919393     0.0565644363315     0.972112235781      -0.21971212873      0.972112235781      -0.21971212873      0.0143253919393     0.0565644363315     
9000000000.0        0.014611504943      0.0571584494187     0.971519351024      -0.222138659624     0.971519351024      -0.222138659624     0.014611504943      0.0571584494187     
9100000000.0        0.0149006328504     0.0577511217208     0.970919971344      -0.224563704663     0.970919971344      -0.224563704663     0.0149006328504     0.0577511217208     
9200000000.0        0.0151927700964     0.0583424402483     0.970314100736      -0.226987245513     0.970314100736      -0.226987245513     0.0151927700964     0.0583424402483     
9300000000.0        0.0154879110611     0.0589323920438     0.969701743253      -0.229409263844     0.969701743253      -0.229409263844     0.0154879110611     0.0589323920438     
9400000000.0        0.0157860500697     0.0595209641823     0.96908290301       -0.231829741332     0.96908290301       -0.231829741332     0.0157860500697     0.0595209641823     
9500000000.0        0.016087181393      0.0601081437709     0.968457584181      -0.234248659658     0.968457584181      -0.234248659658     0.016087181393      0.0601081437709     
9600000000.0        0.0163912992475     0.0606939179489     0.967825791         -0.23666600051      0.967825791         -0.23666600051      0.0163912992475     0.0606939179489     
9700000000.0        0.0166983977956     0.061278273888      0.967187527764      -0.239081745581     0.967187527764      -0.239081745581     0.0166983977956     0.061278273888      
9800000000.0        0.0170084711457     0.061861198792      0.966542798827      -0.241495876572     0.966542798827      -0.241495876572     0.0170084711457     0.061861198792      
9900000000.0        0.0173215133529     0.0624426798968     0.965891608604      -0.243908375189     0.965891608604      -0.243908375189     0.0173215133529     0.0624426798968     
10000000000.0       0.0176375184185     0.0630227044708     0.965233961569      -0.246319223149     0.965233961569      -0.246319223149     0.0176375184185     0.0630227044708     
