# Hz S RI R 50.00 
100000000.0         0.00635772249694    0.00154956277712    0.993639002629      -0.00293960813967   0.993639002629      -0.00293960813967   0.00635772249694    0.00154956277712    
200000000.0         0.00641283281857    0.00309869023409    0.993579680963      -0.00587879321387   0.993579680963      -0.00587879321387   0.00641283281857    0.00309869023409    
300000000.0         0.00646592182898    0.0046474747814     0.993520443966      -0.00881765595545   0.993520443966      -0.00881765595545   0.00646592182898    0.0046474747814     
400000000.0         0.00652248083777    0.00619590905296    0.993455800122      -0.0117561954872    0.993455800122      -0.0117561954872    0.00652248083777    0.00619590905296    
500000000.0         0.00658462451772    0.00774396248372    0.993383634524      -0.0146943868074    0.993383634524      -0.0146943868074    0.00658462451772    0.00774396248372    
600000000.0         0.00665343053179    0.00929159425425    0.993302869239      -0.0176321940535    0.993302869239      -0.0176321940535    0.00665343053179    0.00929159425425    
700000000.0         0.00672953440252    0.0108387579434     0.993212868443      -0.0205695753176    0.993212868443      -0.0205695753176    0.00672953440252    0.0108387579434     
800000000.0         0.00681334665325    0.0123854036885     0.993113221284      -0.023506484904     0.993113221284      -0.023506484904     0.00681334665325    0.0123854036885     
900000000.0         0.00690514950276    0.0139314793465     0.993003645181      -0.0264428745551    0.993003645181      -0.0264428745551    0.00690514950276    0.0139314793465     
1000000000.0        0.00700514588333    0.0154769311836     0.992883936815      -0.0293786941859    0.992883936815      -0.0293786941859    0.00700514588333    0.0154769311836     
1100000000.0        0.00711348669197    0.0170217043137     0.992753944873      -0.0323138923559    0.992753944873      -0.0323138923559    0.00711348669197    0.0170217043137     
1200000000.0        0.00723028703006    0.0185657429932     0.992613553812      -0.03524841659      0.992613553812      -0.03524841659      0.00723028703006    0.0185657429932     
1300000000.0        0.00735563642143    0.020108990828      0.992462673639      -0.038182213605     0.992462673639      -0.038182213605     0.00735563642143    0.020108990828      
1400000000.0        0.00748960552921    0.0216513909242     0.992301233198      -0.0411152294764    0.992301233198      -0.0411152294764    0.00748960552921    0.0216513909242     
1500000000.0        0.00763225073319    0.0231928859998     0.99212917559       -0.0440474097645    0.99212917559       -0.0440474097645    0.00763225073319    0.0231928859998     
1600000000.0        0.00778361734504    0.0247334184717     0.991946454963      -0.0469786996111    0.991946454963      -0.0469786996111    0.00778361734504    0.0247334184717     
1700000000.0        0.00794374192553    0.0262729305233     0.991753034188      -0.0499090438174    0.991753034188      -0.0499090438174    0.00794374192553    0.0262729305233     
1800000000.0        0.0081126539922     0.0278113641585     0.99154888316       -0.0528383869059    0.99154888316       -0.0528383869059    0.0081126539922     0.0278113641585     
1900000000.0        0.00829037730232    0.029348661246      0.991333977509      -0.0557666731716    0.991333977509      -0.0557666731716    0.00829037730232    0.029348661246      
2000000000.0        0.00847693083336    0.0308847635556     0.991108297623      -0.0586938467242    0.991108297623      -0.0586938467242    0.00847693083336    0.0308847635556     
2100000000.0        0.00867232954376    0.0324196127891     0.990871827888      -0.0616198515245    0.990871827888      -0.0616198515245    0.00867232954376    0.0324196127891     
2200000000.0        0.00887658497114    0.033953150606      0.990624556088      -0.0645446314149    0.990624556088      -0.0645446314149    0.00887658497114    0.033953150606      
2300000000.0        0.00908970570861    0.0354853186458     0.990366472931      -0.067468130146     0.990366472931      -0.067468130146     0.00908970570861    0.0354853186458     
2400000000.0        0.00931169778807    0.0370160585478     0.990097571665      -0.0703902913998    0.990097571665      -0.0703902913998    0.00931169778807    0.0370160585478     
2500000000.0        0.00954256499189    0.0385453119679     0.989817847768      -0.0733110588103    0.989817847768      -0.0733110588103    0.00954256499189    0.0385453119679     
2600000000.0        0.00978230910859    0.040073020594      0.989527298689      -0.0762303759819    0.989527298689      -0.0762303759819    0.00978230910859    0.040073020594      
2700000000.0        0.0100309301445     0.0415991261595     0.989225923643      -0.0791481865056    0.989225923643      -0.0791481865056    0.0100309301445     0.0415991261595     
2800000000.0        0.0102884265001     0.0431235704554     0.988913723427      -0.082064433974     0.988913723427      -0.082064433974     0.0102884265001     0.0431235704554     
2900000000.0        0.0105547951184     0.0446462953418     0.98859070028       -0.0849790619949    0.98859070028       -0.0849790619949    0.0105547951184     0.0446462953418     
3000000000.0        0.0108300316104     0.0461672427582     0.98825685775       -0.0878920142035    0.98825685775       -0.0878920142035    0.0108300316104     0.0461672427582     
3100000000.0        0.0111141303618     0.0476863547324     0.987912200595      -0.0908032342742    0.987912200595      -0.0908032342742    0.0111141303618     0.0476863547324     
3200000000.0        0.011407084624      0.0492035733901     0.987556734686      -0.0937126659308    0.987556734686      -0.0937126659308    0.011407084624      0.0492035733901     
3300000000.0        0.0117088865935     0.0507188409623     0.987190466931      -0.0966202529571    0.987190466931      -0.0966202529571    0.0117088865935     0.0507188409623     
3400000000.0        0.0120195274795     0.0522320997937     0.986813405207      -0.0995259392056    0.986813405207      -0.0995259392056    0.0120195274795     0.0522320997937     
3500000000.0        0.0123389975637     0.0537432923495     0.9864255583        -0.102429668607     0.9864255583        -0.102429668607     0.0123389975637     0.0537432923495     
3600000000.0        0.0126672862516     0.0552523612224     0.986026935857      -0.105331385176     0.986026935857      -0.105331385176     0.0126672862516     0.0552523612224     
3700000000.0        0.0130043821188     0.0567592491395     0.985617548333      -0.108231033025     0.985617548333      -0.108231033025     0.0130043821188     0.0567592491395     
3800000000.0        0.0133502729504     0.0582638989678     0.98519740696       -0.111128556364     0.98519740696       -0.111128556364     0.0133502729504     0.0582638989678     
3900000000.0        0.0137049457775     0.0597662537211     0.984766523702      -0.114023899514     0.984766523702      -0.114023899514     0.0137049457775     0.0597662537211     
4000000000.0        0.0140683869086     0.061266256565      0.984324911234      -0.11691700691      0.984324911234      -0.11691700691      0.0140683869086     0.061266256565      
4100000000.0        0.0144405819578     0.0627638508229     0.983872582903      -0.119807823109     0.983872582903      -0.119807823109     0.0144405819578     0.0627638508229     
4200000000.0        0.0148215158708     0.064258979981      0.983409552712      -0.122696292797     0.983409552712      -0.122696292797     0.0148215158708     0.064258979981      
4300000000.0        0.0152111729475     0.0657515876939     0.98293583529       -0.125582360795     0.98293583529       -0.125582360795     0.0152111729475     0.0657515876939     
4400000000.0        0.0156095368631     0.0672416177892     0.982451445876      -0.128465972063     0.982451445876      -0.128465972063     0.0156095368631     0.0672416177892     
4500000000.0        0.0160165906866     0.0687290142728     0.981956400297      -0.131347071706     0.981956400297      -0.131347071706     0.0160165906866     0.0687290142728     
4600000000.0        0.0164323168985     0.0702137213332     0.981450714955      -0.134225604984     0.981450714955      -0.134225604984     0.0164323168985     0.0702137213332     
4700000000.0        0.0168566974064     0.0716956833465     0.980934406806      -0.137101517311     0.980934406806      -0.137101517311     0.0168566974064     0.0716956833465     
4800000000.0        0.0172897135593     0.0731748448805     0.98040749335       -0.139974754264     0.98040749335       -0.139974754264     0.0172897135593     0.0731748448805     
4900000000.0        0.0177313461612     0.0746511506997     0.979869992616      -0.142845261588     0.979869992616      -0.142845261588     0.0177313461612     0.0746511506997     
5000000000.0        0.0181815754834     0.076124545769      0.979321923149      -0.145712985198     0.979321923149      -0.145712985198     0.0181815754834     0.076124545769      
5100000000.0        0.0186403812761     0.0775949752582     0.978763304002      -0.14857787119      0.978763304002      -0.14857787119      0.0186403812761     0.0775949752582     
5200000000.0        0.0191077427787     0.0790623845462     0.97819415472       -0.151439865837     0.97819415472       -0.151439865837     0.0191077427787     0.0790623845462     
5300000000.0        0.0195836387302     0.0805267192249     0.977614495335      -0.154298915602     0.977614495335      -0.154298915602     0.0195836387302     0.0805267192249     
5400000000.0        0.0200680473784     0.0819879251033     0.977024346355      -0.157154967138     0.977024346355      -0.157154967138     0.0200680473784     0.0819879251033     
5500000000.0        0.0205609464888     0.0834459482111     0.976423728755      -0.160007967293     0.976423728755      -0.160007967293     0.0205609464888     0.0834459482111     
5600000000.0        0.021062313353      0.084900734803      0.975812663967      -0.162857863114     0.975812663967      -0.162857863114     0.021062313353      0.084900734803      
5700000000.0        0.0215721247962     0.086352231362      0.975191173877      -0.165704601853     0.975191173877      -0.165704601853     0.0215721247962     0.086352231362      
5800000000.0        0.0220903571852     0.0878003846033     0.974559280814      -0.16854813097      0.974559280814      -0.16854813097      0.0220903571852     0.0878003846033     
5900000000.0        0.0226169864353     0.089245141478      0.973917007542      -0.171388398136     0.973917007542      -0.171388398136     0.0226169864353     0.089245141478      
6000000000.0        0.0231519880172     0.0906864491764     0.973264377256      -0.17422535124      0.973264377256      -0.17422535124      0.0231519880172     0.0906864491764     
6100000000.0        0.0236953369632     0.0921242551319     0.972601413576      -0.17705893839      0.972601413576      -0.17705893839      0.0236953369632     0.0921242551319     
6200000000.0        0.0242470078741     0.0935585070241     0.971928140538      -0.179889107918     0.971928140538      -0.179889107918     0.0242470078741     0.0935585070241     
6300000000.0        0.0248069749246     0.0949891527823     0.971244582588      -0.182715808383     0.971244582588      -0.182715808383     0.0248069749246     0.0949891527823     
6400000000.0        0.0253752118698     0.0964161405888     0.97055076458       -0.185538988576     0.97055076458       -0.185538988576     0.0253752118698     0.0964161405888     
6500000000.0        0.02595169205       0.0978394188823     0.969846711768      -0.188358597524     0.969846711768      -0.188358597524     0.02595169205       0.0978394188823     
6600000000.0        0.0265363883972     0.0992589363612     0.969132449798      -0.191174584491     0.969132449798      -0.191174584491     0.0265363883972     0.0992589363612     
6700000000.0        0.0271292734395     0.100674641986      0.968408004708      -0.193986898984     0.968408004708      -0.193986898984     0.0271292734395     0.100674641986      
6800000000.0        0.0277303193068     0.102086484985      0.96767340292       -0.196795490755     0.96767340292       -0.196795490755     0.0277303193068     0.102086484985      
6900000000.0        0.0283394977358     0.103494414853      0.966928671235      -0.199600309806     0.966928671235      -0.199600309806     0.0283394977358     0.103494414853      
7000000000.0        0.0289567800748     0.104898381357      0.966173836827      -0.20240130639      0.966173836827      -0.20240130639      0.0289567800748     0.104898381357      
7100000000.0        0.0295821372886     0.106298334541      0.965408927243      -0.205198431016     0.965408927243      -0.205198431016     0.0295821372886     0.106298334541      
7200000000.0        0.0302155399634     0.107694224725      0.96463397039       -0.207991634453     0.96463397039       -0.207991634453     0.0302155399634     0.107694224725      
7300000000.0        0.0308569583111     0.109086002512      0.963848994541      -0.21078086773      0.963848994541      -0.21078086773      0.0308569583111     0.109086002512      
7400000000.0        0.0315063621745     0.110473618784      0.963054028321      -0.213566082143     0.963054028321      -0.213566082143     0.0315063621745     0.110473618784      
7500000000.0        0.0321637210311     0.111857024716      0.962249100708      -0.216347229253     0.962249100708      -0.216347229253     0.0321637210311     0.111857024716      
7600000000.0        0.0328290039979     0.113236171765      0.961434241027      -0.219124260896     0.961434241027      -0.219124260896     0.0328290039979     0.113236171765      
7700000000.0        0.0335021798361     0.114611011686      0.960609478944      -0.221897129179     0.960609478944      -0.221897129179     0.0335021798361     0.114611011686      
7800000000.0        0.0341832169549     0.115981496525      0.959774844465      -0.224665786487     0.959774844465      -0.224665786487     0.0341832169549     0.115981496525      
7900000000.0        0.034872083416      0.117347578625      0.958930367931      -0.227430185485     0.958930367931      -0.227430185485     0.034872083416      0.117347578625      
8000000000.0        0.035568746938      0.118709210631      0.958076080011      -0.230190279119     0.958076080011      -0.230190279119     0.035568746938      0.118709210631      
8100000000.0        0.0362731749006     0.120066345488      0.957212011701      -0.232946020623     0.957212011701      -0.232946020623     0.0362731749006     0.120066345488      
8200000000.0        0.0369853343485     0.121418936445      0.956338194317      -0.235697363515     0.956338194317      -0.235697363515     0.0369853343485     0.121418936445      
8300000000.0        0.0377051919958     0.122766937062      0.955454659496      -0.238444261607     0.955454659496      -0.238444261607     0.0377051919958     0.122766937062      
8400000000.0        0.0384327142303     0.124110301203      0.954561439184      -0.241186669003     0.954561439184      -0.241186669003     0.0384327142303     0.124110301203      
8500000000.0        0.0391678671169     0.125448983048      0.953658565639      -0.243924540101     0.953658565639      -0.243924540101     0.0391678671169     0.125448983048      
8600000000.0        0.0399106164026     0.126782937089      0.952746071425      -0.246657829598     0.952746071425      -0.246657829598     0.0399106164026     0.126782937089      
8700000000.0        0.0406609275199     0.128112118134      0.951823989406      -0.249386492493     0.951823989406      -0.249386492493     0.0406609275199     0.128112118134      
8800000000.0        0.0414187655908     0.129436481311      0.950892352745      -0.252110484085     0.950892352745      -0.252110484085     0.0414187655908     0.129436481311      
8900000000.0        0.0421840954315     0.130755982067      0.949951194895      -0.254829759981     0.949951194895      -0.254829759981     0.0421840954315     0.130755982067      
9000000000.0        0.0429568815554     0.132070576172      0.949000549602      -0.257544276093     0.949000549602      -0.257544276093     0.0429568815554     0.132070576172      
9100000000.0        0.0437370881781     0.133380219721      0.948040450897      -0.260253988644     0.948040450897      -0.260253988644     0.0437370881781     0.133380219721      
9200000000.0        0.0445246792204     0.134684869137      0.947070933091      -0.262958854168     0.947070933091      -0.262958854168     0.0445246792204     0.134684869137      
9300000000.0        0.0453196183132     0.135984481169      0.946092030775      -0.265658829513     0.946092030775      -0.265658829513     0.0453196183132     0.135984481169      
9400000000.0        0.0461218688005     0.137279012899      0.94510377881       -0.268353871844     0.94510377881       -0.268353871844     0.0461218688005     0.137279012899      
9500000000.0        0.0469313937442     0.138568421741      0.944106212332      -0.271043938643     0.944106212332      -0.271043938643     0.0469313937442     0.138568421741      
9600000000.0        0.0477481559273     0.139852665442      0.943099366739      -0.273728987712     0.943099366739      -0.273728987712     0.0477481559273     0.139852665442      
9700000000.0        0.0485721178585     0.141131702086      0.942083277692      -0.276408977174     0.942083277692      -0.276408977174     0.0485721178585     0.141131702086      
9800000000.0        0.0494032417754     0.142405490097      0.941057981112      -0.279083865479     0.941057981112      -0.279083865479     0.0494032417754     0.142405490097      
9900000000.0        0.050241489649      0.143673988235      0.940023513173      -0.281753611398     0.940023513173      -0.281753611398     0.050241489649      0.143673988235      
10000000000.0       0.0510868231872     0.144937155604      0.938979910298      -0.284418174033     0.938979910298      -0.284418174033     0.0510868231872     0.144937155604      
