# Hz S RI R 50.00 
100000000.0         -0.000639148520861  -0.0250301636972    0.999325529044      -0.0252072711877    0.999325529044      -0.0252072711877    -0.000639148520861  -0.0250301636972    
200000000.0         -0.00255288736303   -0.0499608625775    0.997411502042      -0.0503151267405    0.997411502042      -0.0503151267405    -0.00255288736303   -0.0499608625775    
300000000.0         -0.00570926995791   -0.0746974787682    0.994254860579      -0.0752289739346    0.994254860579      -0.0752289739346    -0.00570926995791   -0.0746974787682    
400000000.0         -0.0100840406189    -0.0991481373346    0.98987982993       -0.0998569568245    0.98987982993       -0.0998569568245    -0.0100840406189    -0.0991481373346    
500000000.0         -0.0156441481125    -0.123224692364     0.984319449635      -0.12411094521      0.984319449635      -0.12411094521      -0.0156441481125    -0.123224692364     
600000000.0         -0.0223483706256    -0.146843696058     0.977614935531      -0.147907504749     0.977614935531      -0.147907504749     -0.0223483706256    -0.146843696058     
700000000.0         -0.0301480715859    -0.169927269781     0.969814920642      -0.171168768532     0.969814920642      -0.171168768532     -0.0301480715859    -0.169927269781     
800000000.0         -0.0389880602075    -0.192403847221     0.960974593433      -0.193823180569     0.960974593433      -0.193823180569     -0.0389880602075    -0.192403847221     
900000000.0         -0.0488075301453    -0.214208773199     0.95115475862       -0.215806094815     0.95115475862       -0.215806094815     -0.0488075301453    -0.214208773199     
1000000000.0        -0.0595410486441    -0.235284749636     0.940420847757      -0.2370602213       0.940420847757      -0.2370602213       -0.0595410486441    -0.235284749636     
1100000000.0        -0.071119568718     -0.255582126701     0.928841906903      -0.257535917397     0.928841906903      -0.257535917397     -0.071119568718     -0.255582126701     
1200000000.0        -0.0834714381946    -0.275059042662     0.916489587494      -0.277191327773     0.916489587494      -0.277191327773     -0.0834714381946    -0.275059042662     
1300000000.0        -0.0965233817432    -0.293681420744     0.903437164253      -0.295992381327     0.903437164253      -0.295992381327     -0.0965233817432    -0.293681420744     
1400000000.0        -0.110201435045     -0.311422835069     0.889758600991      -0.313912657199     0.889758600991      -0.313912657199     -0.110201435045     -0.311422835069     
1500000000.0        -0.12443181382      -0.328264260719     0.875527681552      -0.330933134893     0.875527681552      -0.330933134893     -0.12443181382      -0.328264260719     
1600000000.0        -0.139141704237     -0.344193724849     0.860817219383      -0.34704184544      0.860817219383      -0.34704184544      -0.139141704237     -0.344193724849     
1700000000.0        -0.154259965141     -0.359205876882     0.845698355303      -0.362233441643     0.845698355303      -0.362233441643     -0.154259965141     -0.359205876882     
1800000000.0        -0.169717736215     -0.373301496017     0.830239949321      -0.376508705622     0.830239949321      -0.376508705622     -0.169717736215     -0.373301496017     
1900000000.0        -0.185448949691     -0.386486953792     0.814508068929      -0.389874011419     0.814508068929      -0.389874011419     -0.185448949691     -0.386486953792     
2000000000.0        -0.201390746219     -0.398773648399     0.79856557322       -0.402340759344     0.79856557322       -0.402340759344     -0.201390746219     -0.398773648399     
2100000000.0        -0.217483798084     -0.410177425944     0.782471789672      -0.413924797266     0.782471789672      -0.413924797266     -0.217483798084     -0.410177425944     
2200000000.0        -0.233672545008     -0.420718002039     0.766282278342      -0.42464584224      0.766282278342      -0.42464584224      -0.233672545008     -0.420718002039     
2300000000.0        -0.24990534932      -0.430418395176     0.75004867669       -0.434526913898     0.75004867669       -0.434526913898     -0.24990534932      -0.430418395176     
2400000000.0        -0.266134578363     -0.439304381277     0.733818617176      -0.443593789033     0.733818617176      -0.443593789033     -0.266134578363     -0.439304381277     
2500000000.0        -0.282316622595     -0.447403976853     0.717635709154      -0.451874484775     0.717635709154      -0.451874484775     -0.282316622595     -0.447403976853     
2600000000.0        -0.298411858139     -0.454746956327     0.70153957632       -0.459398775938     0.70153957632       -0.459398775938     -0.298411858139     -0.454746956327     
2700000000.0        -0.314384562451     -0.46136440734      0.685565941047      -0.466197750344     0.685565941047      -0.466197750344     -0.314384562451     -0.46136440734      
2800000000.0        -0.33020279145      -0.467288326355     0.669746747249      -0.472303404449     0.669746747249      -0.472303404449     -0.33020279145      -0.467288326355     
2900000000.0        -0.345838225977     -0.47255125555      0.654110313926      -0.477748280248     0.654110313926      -0.477748280248     -0.345838225977     -0.47255125555      
3000000000.0        -0.361265994779     -0.477185960903     0.638681512175      -0.48256514338      0.638681512175      -0.48256514338      -0.361265994779     -0.477185960903     
3100000000.0        -0.37646448053      -0.48122515048      0.623481959173      -0.486786701429     0.623481959173      -0.486786701429     -0.37646448053      -0.48122515048      
3200000000.0        -0.391415114601     -0.484701231245     0.608530223402      -0.49044536075      0.608530223402      -0.49044536075      -0.391415114601     -0.484701231245     
3300000000.0        -0.406102165562     -0.487646102214     0.593842036153      -0.493573019631     0.593842036153      -0.493573019631     -0.406102165562     -0.487646102214     
3400000000.0        -0.420512525611     -0.4900909814       0.579430505089      -0.49620089526      0.579430505089      -0.49620089526      -0.420512525611     -0.4900909814       
3500000000.0        -0.434635498462     -0.492066263801     0.565306326361      -0.49835938171      0.565306326361      -0.49835938171      -0.434635498462     -0.492066263801     
3600000000.0        -0.448462591523     -0.493601407545     0.551477992431      -0.500077936109     0.551477992431      -0.500077936109     -0.448462591523     -0.493601407545     
3700000000.0        -0.461987314633     -0.49472484533      0.537951993332      -0.501384990077     0.537951993332      -0.501384990077     -0.461987314633     -0.49472484533      
3800000000.0        -0.475204987085     -0.495463918304     0.524733009646      -0.502307883625     0.524733009646      -0.502307883625     -0.475204987085     -0.495463918304     
3900000000.0        -0.488112554204     -0.495844829685     0.511824095923      -0.50287281878      0.511824095923      -0.50287281878      -0.488112554204     -0.495844829685     
4000000000.0        -0.500708414346     -0.495892615545     0.499226853691      -0.503104830372     0.499226853691      -0.503104830372     -0.500708414346     -0.495892615545     
4100000000.0        -0.512992256852     -0.495631130354     0.486941593487      -0.503027771592     0.486941593487      -0.503027771592     -0.512992256852     -0.495631130354     
4200000000.0        -0.524964911216     -0.495083045088     0.474967485704      -0.502664312104     0.474967485704      -0.502664312104     -0.524964911216     -0.495083045088     
4300000000.0        -0.536628207485     -0.494269855888     0.463302700181      -0.502035946709     0.463302700181      -0.502035946709     -0.536628207485     -0.494269855888     
4400000000.0        -0.547984847736     -0.493211901468     0.45194453473       -0.501163012762     0.45194453473       -0.501163012762     -0.547984847736     -0.493211901468     
4500000000.0        -0.559038288334     -0.491928387656     0.440889532875      -0.500064714712     0.440889532875      -0.500064714712     -0.559038288334     -0.491928387656     
4600000000.0        -0.56979263256      -0.490437417633     0.430133591229      -0.498759154355     0.430133591229      -0.498759154355     -0.56979263256      -0.490437417633     
4700000000.0        -0.580252533119     -0.488756026635     0.419672056979      -0.497263365532     0.419672056979      -0.497263365532     -0.580252533119     -0.488756026635     
4800000000.0        -0.590423104003     -0.486900220019     0.40949981603       -0.495593352203     0.40949981603       -0.495593352203     -0.590423104003     -0.486900220019     
4900000000.0        -0.600309841116     -0.484885013749     0.399611372373      -0.493764128937     0.399611372373      -0.493764128937     -0.600309841116     -0.484885013749     
5000000000.0        -0.609918551096     -0.482724476521     0.390000919271      -0.49178976304      0.390000919271      -0.49178976304      -0.609918551096     -0.482724476521     
5100000000.0        -0.619255287717     -0.480431772824     0.38066240285       -0.489683417618     0.38066240285       -0.489683417618     -0.619255287717     -0.480431772824     
5200000000.0        -0.628326295307     -0.478019206386     0.37158957868       -0.487457395027     0.37158957868       -0.487457395027     -0.628326295307     -0.478019206386     
5300000000.0        -0.637137958606     -0.475498263517     0.362776061924      -0.485123180219     0.362776061924      -0.485123180219     -0.637137958606     -0.475498263517     
5400000000.0        -0.645696758516     -0.472879655977     0.354215371586      -0.48269148361      0.354215371586      -0.48269148361      -0.645696758516     -0.472879655977     
5500000000.0        -0.654009233216     -0.47017336304      0.34590096939       -0.480172283151     0.34590096939       -0.480172283151     -0.654009233216     -0.47017336304      
5600000000.0        -0.662081944165     -0.467388672527     0.337826293781      -0.477574865356     0.337826293781      -0.477574865356     -0.662081944165     -0.467388672527     
5700000000.0        -0.669921446516     -0.464534220585     0.329984789515      -0.474907865092     0.329984789515      -0.474907865092     -0.669921446516     -0.464534220585     
5800000000.0        -0.67753426351      -0.461618030102     0.322369933256      -0.472179303983     0.322369933256      -0.472179303983     -0.67753426351      -0.461618030102     
5900000000.0        -0.684926864465     -0.458647547622     0.314975255598      -0.469396627339     0.314975255598      -0.469396627339     -0.684926864465     -0.458647547622     
6000000000.0        -0.692105645965     -0.455629678712     0.307794359861      -0.466566739519     0.307794359861      -0.466566739519     -0.692105645965     -0.455629678712     
6100000000.0        -0.69907691594      -0.452570821729     0.300820938029      -0.463696037694     0.300820938029      -0.463696037694     -0.69907691594      -0.452570821729     
6200000000.0        -0.705846880294     -0.449476899961     0.294048784107      -0.460790443998     0.294048784107      -0.460790443998     -0.705846880294     -0.449476899961     
6300000000.0        -0.712421631823     -0.446353392165     0.287471805209      -0.457855436064     0.287471805209      -0.457855436064     -0.712421631823     -0.446353392165     
6400000000.0        -0.718807141151     -0.443205361497     0.281084030625      -0.454896075949     0.281084030625      -0.454896075949     -0.718807141151     -0.443205361497     
6500000000.0        -0.725009249451     -0.440037482869     0.274879619092      -0.451917037498     0.274879619092      -0.451917037498     -0.725009249451     -0.440037482869     
6600000000.0        -0.731033662745     -0.436854068781     0.268852864501      -0.448922632178     0.268852864501      -0.448922632178     -0.731033662745     -0.436854068781     
6700000000.0        -0.736885947585     -0.433659093666     0.262998200216      -0.445916833413     0.262998200216      -0.445916833413     -0.736885947585     -0.433659093666     
6800000000.0        -0.742571527942     -0.430456216795     0.257310202177      -0.442903299502     0.257310202177      -0.442903299502     -0.742571527942     -0.430456216795     
6900000000.0        -0.748095683163     -0.427248803815     0.251783590952      -0.439885395151     0.251783590952      -0.439885395151     -0.748095683163     -0.427248803815     
7000000000.0        -0.753463546835     -0.424039946963     0.246413232868      -0.436866211687     0.246413232868      -0.436866211687     -0.753463546835     -0.424039946963     
7100000000.0        -0.75868010645      -0.420832484027     0.241194140347      -0.433848586018     0.241194140347      -0.433848586018     -0.75868010645      -0.420832484027     
7200000000.0        -0.763750203754     -0.417629016103     0.236121471559      -0.430835118395     0.236121471559      -0.430835118395     -0.763750203754     -0.417629016103     
7300000000.0        -0.76867853568      -0.414431924225     0.231190529487      -0.427828189038     0.231190529487      -0.427828189038     -0.76867853568      -0.414431924225     
7400000000.0        -0.773469655779     -0.411243384916     0.226396760492      -0.424829973687     0.226396760492      -0.424829973687     -0.773469655779     -0.411243384916     
7500000000.0        -0.778127976081     -0.408065384723     0.221735752465      -0.42184245814      0.221735752465      -0.42184245814      -0.778127976081     -0.408065384723     
7600000000.0        -0.78265776929      -0.404899733794     0.217203232611      -0.418867451827     0.217203232611      -0.418867451827     -0.78265776929      -0.404899733794     
7700000000.0        -0.787063171296     -0.401748078551     0.212795064961      -0.415906600482     0.212795064961      -0.415906600482     -0.787063171296     -0.401748078551     
7800000000.0        -0.791348183902     -0.398611913518     0.208507247626      -0.412961397976     0.208507247626      -0.412961397976     -0.791348183902     -0.398611913518     
7900000000.0        -0.79551667776      -0.395492592344     0.204335909869      -0.410033197333     0.204335909869      -0.410033197333     -0.79551667776      -0.395492592344     
8000000000.0        -0.799572395449     -0.392391338085     0.200277309027      -0.407123221017     0.200277309027      -0.407123221017     -0.799572395449     -0.392391338085     
8100000000.0        -0.803518954672     -0.389309252781     0.196327827313      -0.404232570505     0.196327827313      -0.404232570505     -0.803518954672     -0.389309252781     
8200000000.0        -0.807359851536     -0.386247326374     0.192483968536      -0.40136223521      0.192483968536      -0.40136223521      -0.807359851536     -0.386247326374     
8300000000.0        -0.811098463887     -0.383206445016     0.188742354766      -0.398513100781     0.188742354766      -0.398513100781     -0.811098463887     -0.383206445016     
8400000000.0        -0.814738054681     -0.3801873988       0.185099722962      -0.395685956839     0.185099722962      -0.395685956839     -0.814738054681     -0.3801873988       
8500000000.0        -0.818281775366     -0.377190888949     0.18155292159       -0.392881504168     0.18155292159       -0.392881504168     -0.818281775366     -0.377190888949     
8600000000.0        -0.82173266926      -0.374217534516     0.17809890725       -0.390100361405     0.17809890725       -0.390100361405     -0.82173266926      -0.374217534516     
8700000000.0        -0.82509367491      -0.3712678786       0.174734741307      -0.387343071267     0.174734741307      -0.387343071267     -0.82509367491      -0.3712678786       
8800000000.0        -0.82836762942      -0.368342394137     0.171457586574      -0.384610106334     0.171457586574      -0.384610106334     -0.82836762942      -0.368342394137     
8900000000.0        -0.831557271733     -0.365441489281     0.168264704022      -0.381901874433     0.168264704022      -0.381901874433     -0.831557271733     -0.365441489281     
9000000000.0        -0.834665245866     -0.362565512402     0.165153449547      -0.379218723634     0.165153449547      -0.379218723634     -0.834665245866     -0.362565512402     
9100000000.0        -0.837694104084     -0.359714756735     0.162121270799      -0.376560946899     0.162121270799      -0.376560946899     -0.837694104084     -0.359714756735     
9200000000.0        -0.840646310011     -0.356889464696     0.159165704069      -0.373928786398     0.159165704069      -0.373928786398     -0.840646310011     -0.356889464696     
9300000000.0        -0.843524241667     -0.354089831893     0.156284371248      -0.37132243752      0.156284371248      -0.37132243752      -0.843524241667     -0.354089831893     
9400000000.0        -0.84633019444      -0.351316010852     0.153474976863      -0.368742052597     0.153474976863      -0.368742052597     -0.84633019444      -0.351316010852     
9500000000.0        -0.849066383973     -0.348568114474     0.150735305182      -0.366187744363     0.150735305182      -0.366187744363     -0.849066383973     -0.348568114474     
9600000000.0        -0.85173494898      -0.345846219249     0.148063217405      -0.363659589166     0.148063217405      -0.363659589166     -0.85173494898      -0.345846219249     
9700000000.0        -0.854337953979     -0.343150368237     0.145456648925      -0.361157629947     0.145456648925      -0.361157629947     -0.854337953979     -0.343150368237     
9800000000.0        -0.856877391944     -0.340480573837     0.142913606679      -0.358681879011     0.142913606679      -0.358681879011     -0.856877391944     -0.340480573837     
9900000000.0        -0.859355186879     -0.337836820352     0.140432166575      -0.356232320593     0.140432166575      -0.356232320593     -0.859355186879     -0.337836820352     
10000000000.0       -0.86177319631      -0.335219066374     0.138010470996      -0.353808913238     0.138010470996      -0.353808913238     -0.86177319631      -0.335219066374     
