# Hz S RI R 50.00 
100000000.0         0.000352888002787   -0.00610688101268   0.999518666286      -0.00891475364052   0.999518666286      -0.00891475364052   0.000352888002787   -0.00610688101268   
200000000.0         0.000185065157022   -0.0122117304088    0.999333384015      -0.01782761685      0.999333384015      -0.01782761685      0.000185065157023   -0.0122117304088    
300000000.0         -9.22954283115e-05  -0.0183124309747    0.999032106716      -0.0267365861623    0.999032106716      -0.0267365861623    -9.22954283109e-05  -0.0183124309747    
400000000.0         -0.000478717820483  -0.0244068007035    0.998614589778      -0.0356395682527    0.998614589778      -0.0356395682527    -0.000478717820484  -0.0244068007035    
500000000.0         -0.000973891083384  -0.0304926255341    0.998080864103      -0.0445344274338    0.998080864103      -0.0445344274338    -0.000973891083384  -0.0304926255341    
600000000.0         -0.00157751451209   -0.0365676728177    0.997431084676      -0.053419003161     0.997431084676      -0.053419003161     -0.00157751451209   -0.0365676728177    
700000000.0         -0.00228925771364   -0.0426296993242    0.996665492787      -0.0622911199362    0.996665492787      -0.0622911199362    -0.00228925771364   -0.0426296993242    
800000000.0         -0.0031087457612    -0.0486764569319    0.99578440257       -0.0711485940803    0.99578440257       -0.0711485940803    -0.0031087457612    -0.0486764569319    
900000000.0         -0.00403555248407   -0.0547056971253    0.994788195138      -0.0799892389224    0.994788195138      -0.0799892389224    -0.00403555248407   -0.0547056971253    
1000000000.0        -0.00506919708119   -0.0607151748052    0.993677315613      -0.0888108690843    0.993677315613      -0.0888108690843    -0.00506919708119   -0.0607151748052    
1100000000.0        -0.00620914233239   -0.0667026516598    0.992452271391      -0.0976113041954    0.992452271391      -0.0976113041954    -0.00620914233239   -0.0667026516598    
1200000000.0        -0.00745479368392   -0.0726658992398    0.991113630959      -0.106388372226     0.991113630959      -0.106388372226     -0.00745479368392   -0.0726658992398    
1300000000.0        -0.00880549886745   -0.0786027018175    0.98966202297       -0.115139912549     0.98966202297       -0.115139912549     -0.00880549886745   -0.0786027018175    
1400000000.0        -0.0102605478771    -0.0845108590807    0.988098135403      -0.123863778792     0.988098135403      -0.123863778792     -0.0102605478771    -0.0845108590807    
1500000000.0        -0.0118191732069    -0.0903881886939    0.986422714743      -0.132557841527     0.986422714743      -0.132557841527     -0.0118191732069    -0.0903881886939    
1600000000.0        -0.0134805502911    -0.0962325287458    0.984636565135      -0.14121999083      0.984636565135      -0.14121999083      -0.0134805502911    -0.0962325287458    
1700000000.0        -0.0152437981099    -0.102041740098     0.982740547484      -0.149848138717     0.982740547484      -0.149848138717     -0.0152437981099    -0.102041740098     
1800000000.0        -0.0171079799382    -0.107813708642     0.980735578495      -0.158440221475     0.980735578495      -0.158440221475     -0.0171079799382    -0.107813708642     
1900000000.0        -0.0190721042179    -0.113546347469     0.978622629636      -0.166994201904     0.978622629636      -0.166994201904     -0.0190721042179    -0.113546347469     
2000000000.0        -0.0211351255426    -0.119237598965     0.976402726037      -0.17550807146      0.976402726037      -0.17550807146      -0.0211351255426    -0.119237598965     
2100000000.0        -0.023295945744     -0.124885436809     0.974076945306      -0.183979852312     0.974076945306      -0.183979852312     -0.023295945744     -0.124885436809     
2200000000.0        -0.0255534150721    -0.130487867911     0.971646416276      -0.192407599315     0.971646416276      -0.192407599315     -0.0255534150721    -0.130487867911     
2300000000.0        -0.0279063334608    -0.136042934254     0.969112317682      -0.200789401898     0.969112317682      -0.200789401898     -0.0279063334608    -0.136042934254     
2400000000.0        -0.030353451875     -0.141548714664     0.966475876767      -0.209123385862     0.966475876767      -0.209123385862     -0.030353451875     -0.141548714664     
2500000000.0        -0.03289347373      -0.147003326493     0.963738367821      -0.2174077151       0.963738367821      -0.2174077151       -0.03289347373      -0.147003326493     
2600000000.0        -0.0355250563813    -0.152404927231     0.960901110666      -0.225640593227     0.960901110666      -0.225640593227     -0.0355250563813    -0.152404927231     
2700000000.0        -0.0382468126756    -0.157751716016     0.957965469075      -0.233820265128     0.957965469075      -0.233820265128     -0.0382468126756    -0.157751716016     
2800000000.0        -0.0410573125618    -0.163041935081     0.954932849137      -0.241945018414     0.954932849137      -0.241945018414     -0.0410573125618    -0.163041935081     
2900000000.0        -0.0439550847536    -0.168273871097     0.951804697583      -0.250013184797     0.951804697583      -0.250013184797     -0.0439550847536    -0.168273871097     
3000000000.0        -0.046938618441     -0.173445856448     0.948582500051      -0.258023141372     0.948582500051      -0.258023141372     -0.046938618441     -0.173445856448     
3100000000.0        -0.0500063650447    -0.178556270399     0.945267779323      -0.265973311816     0.945267779323      -0.265973311816     -0.0500063650447    -0.178556270399     
3200000000.0        -0.053156740009     -0.183603540199     0.941862093516      -0.273862167491     0.941862093516      -0.273862167491     -0.053156740009     -0.183603540199     
3300000000.0        -0.0563881246282    -0.188586142076     0.93836703425       -0.281688228465     0.93836703425       -0.281688228465     -0.0563881246282    -0.188586142076     
3400000000.0        -0.0596988679025    -0.193502602158     0.934784224777      -0.28945006444      0.934784224777      -0.28945006444      -0.0596988679025    -0.193502602158     
3500000000.0        -0.0630872884174    -0.198351497299     0.931115318095      -0.297146295593     0.931115318095      -0.297146295593     -0.0630872884174    -0.198351497299     
3600000000.0        -0.0665516762434    -0.203131455818     0.927361995042      -0.304775593325     0.927361995042      -0.304775593325     -0.0665516762434    -0.203131455818     
3700000000.0        -0.070090294851     -0.207841158155     0.923525962372      -0.312336680925     0.923525962372      -0.312336680925     -0.070090294851     -0.207841158155     
3800000000.0        -0.0737013830363    -0.212479337432     0.919608950822      -0.319828334144     0.919608950822      -0.319828334144     -0.0737013830363    -0.212479337432     
3900000000.0        -0.0773831568531    -0.217044779932     0.915612713173      -0.32724938168      0.915612713173      -0.32724938168      -0.0773831568531    -0.217044779932     
4000000000.0        -0.0811338115477    -0.221536325497     0.911539022311      -0.334598705585     0.911539022311      -0.334598705585     -0.0811338115477    -0.221536325497     
4100000000.0        -0.0849515234912    -0.22595286783      0.907389669288      -0.341875241575     0.907389669288      -0.341875241575     -0.0849515234912    -0.22595286783      
4200000000.0        -0.0888344521069    -0.230293354725     0.903166461388      -0.349077979263     0.903166461388      -0.349077979263     -0.0888344521069    -0.230293354725     
4300000000.0        -0.0927807417874    -0.234556788209     0.898871220203      -0.356205962314     0.898871220203      -0.356205962314     -0.0927807417874    -0.234556788209     
4400000000.0        -0.0967885237982    -0.238742224606     0.894505779727      -0.363258288507     0.894505779727      -0.363258288507     -0.0967885237982    -0.238742224606     
4500000000.0        -0.100855918165     -0.242848774523     0.890071984462      -0.370234109733     0.890071984462      -0.370234109733     -0.100855918165     -0.242848774523     
4600000000.0        -0.10498103554      -0.246875602755     0.885571687544      -0.3771326319       0.885571687544      -0.3771326319       -0.10498103554      -0.246875602755     
4700000000.0        -0.109161979044     -0.250821928126     0.881006748899      -0.383953114781     0.881006748899      -0.383953114781     -0.109161979044     -0.250821928126     
4800000000.0        -0.113396846084     -0.254687023243     0.876379033418      -0.390694871771     0.876379033418      -0.390694871771     -0.113396846084     -0.254687023243     
4900000000.0        -0.117683730138     -0.258470214197     0.871690409167      -0.397357269591     0.871690409167      -0.397357269591     -0.117683730138     -0.258470214197     
5000000000.0        -0.122020722507     -0.262170880178     0.86694274563       -0.403939727907     0.86694274563       -0.403939727907     -0.122020722507     -0.262170880178     
5100000000.0        -0.126405914037     -0.265788453042     0.862137911982      -0.410441718903     0.862137911982      -0.410441718903     -0.126405914037     -0.265788453042     
5200000000.0        -0.130837396795     -0.269322416805     0.857277775404      -0.416862766771     0.857277775404      -0.416862766771     -0.130837396795     -0.269322416805     
5300000000.0        -0.135313265715     -0.27277230708      0.852364199438      -0.423202447157     0.852364199438      -0.423202447157     -0.135313265715     -0.27277230708      
5400000000.0        -0.13983162019      -0.276137710461     0.847399042382      -0.429460386539     0.847399042382      -0.429460386539     -0.13983162019      -0.276137710461     
5500000000.0        -0.144390565631     -0.279418263842     0.842384155732      -0.435636261561     0.842384155732      -0.435636261561     -0.144390565631     -0.279418263842     
5600000000.0        -0.148988214976     -0.2826136537       0.837321382663      -0.441729798302     0.837321382663      -0.441729798302     -0.148988214976     -0.2826136537       
5700000000.0        -0.153622690148     -0.285723615315     0.832212556565      -0.447740771509     0.832212556565      -0.447740771509     -0.153622690148     -0.285723615315     
5800000000.0        -0.15829212347      -0.288747931955     0.827059499625      -0.453669003778     0.827059499625      -0.453669003778     -0.15829212347      -0.288747931955     
5900000000.0        -0.162994659029     -0.291686434012     0.821864021457      -0.459514364689     0.821864021457      -0.459514364689     -0.162994659029     -0.291686434012     
6000000000.0        -0.167728453983     -0.294538998101     0.816627917782      -0.465276769911     0.816627917782      -0.465276769911     -0.167728453983     -0.294538998101     
6100000000.0        -0.172491679827     -0.297305546119     0.811352969165      -0.470956180258     0.811352969165      -0.470956180258     -0.172491679827     -0.297305546119     
6200000000.0        -0.177282523594     -0.299986044278     0.806040939804      -0.47655260072      0.806040939804      -0.47655260072      -0.177282523594     -0.299986044278     
6300000000.0        -0.182099189016     -0.302580502094     0.80069357636       -0.482066079458     0.80069357636       -0.482066079458     -0.182099189016     -0.302580502094     
6400000000.0        -0.186939897616     -0.305088971361     0.795312606862      -0.487496706773     0.795312606862      -0.487496706773     -0.186939897616     -0.305088971361     
6500000000.0        -0.191802889762     -0.307511545092     0.789899739645      -0.492844614047     0.789899739645      -0.492844614047     -0.191802889762     -0.307511545092     
6600000000.0        -0.196686425654     -0.309848356438     0.784456662356      -0.49810997266      0.784456662356      -0.49810997266      -0.196686425654     -0.309848356438     
6700000000.0        -0.201588786266     -0.312099577588     0.778985041007      -0.503292992895     0.778985041007      -0.503292992895     -0.201588786266     -0.312099577588     
6800000000.0        -0.206508274229     -0.314265418652     0.773486519082      -0.508393922814     0.773486519082      -0.508393922814     -0.206508274229     -0.314265418652     
6900000000.0        -0.211443214658     -0.316346126531     0.767962716704      -0.513413047128     0.767962716704      -0.513413047128     -0.211443214658     -0.316346126531     
7000000000.0        -0.216391955938     -0.318341983769     0.762415229845      -0.518350686049     0.762415229845      -0.518350686049     -0.216391955938     -0.318341983769     
7100000000.0        -0.221352870438     -0.3202533074       0.756845629598      -0.523207194137     0.756845629598      -0.523207194137     -0.221352870438     -0.3202533074       
7200000000.0        -0.226324355192     -0.322080447789     0.751255461496      -0.527982959131     0.751255461496      -0.527982959131     -0.226324355192     -0.322080447789     
7300000000.0        -0.231304832516     -0.323823787462     0.745646244883      -0.532678400788     0.745646244883      -0.532678400788     -0.231304832516     -0.323823787462     
7400000000.0        -0.236292750576     -0.325483739937     0.740019472338      -0.537293969706     0.740019472338      -0.537293969706     -0.236292750576     -0.325483739937     
7500000000.0        -0.241286583912     -0.327060748558     0.734376609147      -0.541830146153     0.734376609147      -0.541830146153     -0.241286583912     -0.327060748558     
7600000000.0        -0.246284833907     -0.328555285319     0.728719092822      -0.546287438894     0.728719092822      -0.546287438894     -0.246284833907     -0.328555285319     
7700000000.0        -0.251286029209     -0.329967849702     0.723048332673      -0.550666384026     0.723048332673      -0.550666384026     -0.251286029209     -0.329967849702     
7800000000.0        -0.256288726109     -0.331298967517     0.71736570942       -0.554967543809     0.71736570942       -0.554967543809     -0.256288726109     -0.331298967517     
7900000000.0        -0.26129150887      -0.332549189747     0.711672574861      -0.559191505514     0.711672574861      -0.559191505514     -0.26129150887      -0.332549189747     
8000000000.0        -0.266292990013     -0.333719091399     0.705970251568      -0.563338880269     0.705970251568      -0.563338880269     -0.266292990013     -0.333719091399     
8100000000.0        -0.27129181056      -0.334809270376     0.700260032646      -0.567410301927     0.700260032646      -0.567410301927     -0.27129181056      -0.334809270376     
8200000000.0        -0.276286640234     -0.335820346345     0.694543181519      -0.571406425932     0.694543181519      -0.571406425932     -0.276286640234     -0.335820346345     
8300000000.0        -0.281276177616     -0.336752959632     0.688820931762      -0.575327928205     0.688820931762      -0.575327928205     -0.281276177616     -0.336752959632     
8400000000.0        -0.286259150269     -0.337607770122     0.683094486972      -0.57917550405      0.683094486972      -0.57917550405      -0.286259150269     -0.337607770122     
8500000000.0        -0.291234314817     -0.338385456178     0.677365020679      -0.582949867057     0.677365020679      -0.582949867057     -0.291234314817     -0.338385456178     
8600000000.0        -0.296200456992     -0.339086713578     0.67163367629       -0.586651748046     0.67163367629       -0.586651748046     -0.296200456992     -0.339086713578     
8700000000.0        -0.301156391644     -0.339712254467     0.665901567069      -0.590281894006     0.665901567069      -0.590281894006     -0.301156391644     -0.339712254467     
8800000000.0        -0.306100962712     -0.340262806327     0.660169776155      -0.593841067063     0.660169776155      -0.593841067063     -0.306100962712     -0.340262806327     
8900000000.0        -0.311033043178     -0.340739110972     0.654439356602      -0.597330043471     0.654439356602      -0.597330043471     -0.311033043178     -0.340739110972     
9000000000.0        -0.315951534967     -0.341141923554     0.648711331466      -0.600749612614     0.648711331466      -0.600749612614     -0.315951534967     -0.341141923554     
9100000000.0        -0.320855368839     -0.341472011598     0.642986693905      -0.604100576034     0.642986693905      -0.604100576034     -0.320855368839     -0.341472011598     
9200000000.0        -0.325743504241     -0.341730154058     0.637266407317      -0.607383746479     0.637266407317      -0.607383746479     -0.325743504241     -0.341730154058     
9300000000.0        -0.330614929133     -0.341917140387     0.631551405502      -0.610599946974     0.631551405502      -0.610599946974     -0.330614929133     -0.341917140387     
9400000000.0        -0.335468659792     -0.34203376964      0.625842592849      -0.613750009912     0.625842592849      -0.613750009912     -0.335468659792     -0.34203376964      
9500000000.0        -0.340303740589     -0.342080849595     0.620140844551      -0.616834776171     0.620140844551      -0.616834776171     -0.340303740589     -0.342080849595     
9600000000.0        -0.345119243746     -0.342059195895     0.614447006831      -0.619855094254     0.614447006831      -0.619855094254     -0.345119243746     -0.342059195895     
9700000000.0        -0.349914269068     -0.341969631222     0.608761897205      -0.622811819447     0.608761897205      -0.622811819447     -0.349914269068     -0.341969631222     
9800000000.0        -0.354687943658     -0.341812984482     0.603086304755      -0.625705813008     0.603086304755      -0.625705813008     -0.354687943658     -0.341812984482     
9900000000.0        -0.359439421614     -0.341590090029     0.597420990421      -0.628537941376     0.597420990421      -0.628537941376     -0.359439421614     -0.341590090029     
10000000000.0       -0.364167883702     -0.3413017869       0.591766687312      -0.631309075404     0.591766687312      -0.631309075404     -0.364167883702     -0.3413017869       
