# Hz S RI R 50.00 
100000000.0         -0.0133447617835    -0.114257971485     0.98662519456       -0.114361805401     0.98662519456       -0.114361805401     -0.0133447617835    -0.114257971485     
200000000.0         -0.0511453017058    -0.219721312399     0.948824432683      -0.219929008513     0.948824432683      -0.219929008513     -0.0511453017058    -0.219721312399     
300000000.0         -0.108015832512     -0.309764017325     0.891953720493      -0.310075618741     0.891953720493      -0.310075618741     -0.108015832512     -0.309764017325     
400000000.0         -0.177011707321     -0.380983765019     0.822957679048      -0.381399326149     0.822957679048      -0.381399326149     -0.177011707321     -0.380983765019     
500000000.0         -0.251407936795     -0.433071287321     0.748561287783      -0.433590871979     0.748561287783      -0.433590871979     -0.251407936795     -0.433071287321     
600000000.0         -0.325845981897     -0.467883438359     0.674123080693      -0.468507118408     0.674123080693      -0.468507118408     -0.325845981897     -0.467883438359     
700000000.0         -0.396701957251     -0.48835169605      0.603266940184      -0.489079550353     0.603266940184      -0.489079550353     -0.396701957251     -0.48835169605      
800000000.0         -0.461919601413     -0.497631799245     0.538049125772      -0.498463912799     0.538049125772      -0.498463912799     -0.461919601413     -0.497631799245     
900000000.0         -0.520618519683     -0.498604400847     0.479350030819      -0.499540864037     0.479350030819      -0.499540864037     -0.520618519683     -0.498604400847     
1000000000.0        -0.572689218427     -0.493663560103     0.42727914799       -0.494704468058     0.42727914799       -0.494704468058     -0.572689218427     -0.493663560103     
1100000000.0        -0.618468944639     -0.484683756381     0.381499229555      -0.485829208401     0.381499229555      -0.485829208401     -0.618468944639     -0.484683756381     
1200000000.0        -0.65851654623      -0.473074479879     0.341451427028      -0.474324578928     0.341451427028      -0.474324578928     -0.65851654623      -0.473074479879     
1300000000.0        -0.693471041902     -0.459865140741     0.306496721247      -0.461219992985     0.306496721247      -0.461219992985     -0.693471041902     -0.459865140741     
1400000000.0        -0.723970336297     -0.445790646225     0.275997207195      -0.447250360628     0.275997207195      -0.447250360628     -0.723970336297     -0.445790646225     
1500000000.0        -0.750609131642     -0.431365298074     0.24935818233       -0.432929986019     0.24935818233       -0.432929986019     -0.750609131642     -0.431365298074     
1600000000.0        -0.773920623416     -0.416941813343     0.226046450906      -0.418611588304     0.226046450906      -0.418611588304     -0.773920623416     -0.416941813343     
1700000000.0        -0.794371726585     -0.402756390896     0.205595097725      -0.404531368133     0.205595097725      -0.404531368133     -0.794371726585     -0.402756390896     
1800000000.0        -0.812365442816     -0.388962186451     0.187601120923      -0.390842482737     0.187601120923      -0.390842482737     -0.812365442816     -0.388962186451     
1900000000.0        -0.828246582707     -0.375653746114     0.171719709723      -0.377639479492     0.171719709723      -0.377639479492     -0.828246582707     -0.375653746114     
2000000000.0        -0.842308703905     -0.36288463882      0.157657306321      -0.364975928385     0.157657306321      -0.364975928385     -0.842308703905     -0.36288463882      
2100000000.0        -0.854801122546     -0.350680084265     0.145164594438      -0.352877049965     0.145164594438      -0.352877049965     -0.854801122546     -0.350680084265     
2200000000.0        -0.865935437218     -0.339045947949     0.134029975356      -0.34134871041      0.134029975356      -0.34134871041      -0.865935437218     -0.339045947949     
2300000000.0        -0.875891332298     -0.327975120951     0.124073764583      -0.330383801323     0.124073764583      -0.330383801323     -0.875891332298     -0.327975120951     
2400000000.0        -0.884821604139     -0.317452026518     0.115143165654      -0.31996674634      0.115143165654      -0.31996674634      -0.884821604139     -0.317452026518     
2500000000.0        -0.89285644294      -0.30745578898      0.107107988271      -0.310076670052     0.107107988271      -0.310076670052     -0.89285644294      -0.30745578898      
2600000000.0        -0.900107043187     -0.29796244912      0.0998570378523     -0.300689613405     0.0998570378523     -0.300689613405     -0.900107043187     -0.29796244912      
2700000000.0        -0.906668628967     -0.288946500669     0.0932950902244     -0.291780070197     0.0932950902244     -0.291780070197     -0.906668628967     -0.288946500669     
2800000000.0        -0.912622979978     -0.28038194396      0.0873403656057     -0.283322040754     0.0873403656057     -0.283322040754     -0.912622979978     -0.28038194396      
2900000000.0        -0.918040537109     -0.272242996715     0.0819224230291     -0.275289742718     0.0819224230291     -0.275289742718     -0.918040537109     -0.272242996715     
3000000000.0        -0.922982156923     -0.264504561834     0.0769804058545     -0.267658078859     0.0769804058545     -0.267658078859     -0.922982156923     -0.264504561834     
3100000000.0        -0.927500574456     -0.257142523565     0.0724615789777     -0.260402933249     0.0724615789777     -0.260402933249     -0.927500574456     -0.257142523565     
3200000000.0        -0.93164162434      -0.25013392307      0.0683201076967     -0.253501346834     0.0683201076967     -0.253501346834     -0.93164162434      -0.25013392307      
3300000000.0        -0.935445261994     -0.243457049836     0.064516036527      -0.246931608858     0.064516036527      -0.246931608858     -0.935445261994     -0.243457049836     
3400000000.0        -0.938946419396     -0.23709147503      0.0610144334275     -0.240673290226     0.0610144334275     -0.240673290226     -0.938946419396     -0.23709147503      
3500000000.0        -0.942175723927     -0.23101804541      0.057784670957      -0.234707237418     0.057784670957      -0.234707237418     -0.942175723927     -0.23101804541      
3600000000.0        -0.945160103716     -0.225218851075     0.0547998209261     -0.229015540247     0.0547998209261     -0.229015540247     -0.945160103716     -0.225218851075     
3700000000.0        -0.947923298762     -0.219677176484     0.0520361432799     -0.223581482884     0.0520361432799     -0.223581482884     -0.947923298762     -0.219677176484     
3800000000.0        -0.950486293652     -0.214377441434     0.0494726533733     -0.218389484841     0.0494726533733     -0.218389484841     -0.950486293652     -0.214377441434     
3900000000.0        -0.952867684931     -0.209305136661     0.0470907546089     -0.213425036576     0.0470907546089     -0.213425036576     -0.952867684931     -0.209305136661     
4000000000.0        -0.955083993825     -0.204446757332     0.0448739257054     -0.208674632989     0.0448739257054     -0.208674632989     -0.955083993825     -0.204446757332     
4100000000.0        -0.957149933209     -0.199789736644     0.0428074537374     -0.204125707025     0.0428074537374     -0.204125707025     -0.957149933209     -0.199789736644     
4200000000.0        -0.959078636106     -0.195322381017     0.0408782056283     -0.199766564868     0.0408782056283     -0.199766564868     -0.959078636106     -0.195322381017     
4300000000.0        -0.960881851816     -0.191033807835     0.0390744320286     -0.195586323687     0.0390744320286     -0.195586323687     -0.960881851816     -0.191033807835     
4400000000.0        -0.962570114685     -0.186913886321     0.0373855985429     -0.191574852516     0.0373855985429     -0.191574852516     -0.962570114685     -0.186913886321     
4500000000.0        -0.964152889719     -0.182953181861     0.035802240114      -0.187722716573     0.035802240114      -0.187722716573     -0.964152889719     -0.182953181861     
4600000000.0        -0.965638698547     -0.179142903901     0.0343158350655     -0.184021125166     0.0343158350655     -0.184021125166     -0.965638698547     -0.179142903901     
4700000000.0        -0.967035228642     -0.175474857436     0.0329186958764     -0.18046188318      0.0329186958764     -0.18046188318      -0.967035228642     -0.175474857436     
4800000000.0        -0.968349428268     -0.171941397992     0.0316038742335     -0.177037346059     0.0316038742335     -0.177037346059     -0.968349428268     -0.171941397992     
4900000000.0        -0.969587589216     -0.168535389976     0.0303650782992     -0.173740378162     0.0303650782992     -0.173740378162     -0.969587589216     -0.168535389976     
5000000000.0        -0.970755419057     -0.165250168217     0.0291966004545     -0.170564314301     0.0291966004545     -0.170564314301     -0.970755419057     -0.165250168217     
5100000000.0        -0.971858104394     -0.162079502513     0.0280932540481     -0.167502924289     0.0280932540481     -0.167502924289     -0.971858104394     -0.162079502513     
5200000000.0        -0.972900366355     -0.159017564982     0.0270503179075     -0.164550380291     0.0270503179075     -0.164550380291     -0.972900366355     -0.159017564982     
5300000000.0        -0.97388650937      -0.156058900014     0.0260634875531     -0.161701226784     0.0260634875531     -0.161701226784     -0.97388650937      -0.156058900014     
5400000000.0        -0.974820464161     -0.153198396651     0.0251288322176     -0.158950352924     0.0251288322176     -0.158950352924     -0.974820464161     -0.153198396651     
5500000000.0        -0.97570582568      -0.150431263172     0.0242427569014     -0.156292967143     0.0242427569014     -0.156292967143     -0.97570582568      -0.150431263172     
5600000000.0        -0.976545886676     -0.147753003746     0.0234019688082     -0.153724573796     0.0234019688082     -0.153724573796     -0.976545886676     -0.147753003746     
5700000000.0        -0.977343667444     -0.145159396951     0.0226034475967     -0.151240951682     0.0226034475967     -0.151240951682     -0.977343667444     -0.145159396951     
5800000000.0        -0.978101942236     -0.142646476034     0.0218444189666     -0.148838134305     0.0218444189666     -0.148838134305     -0.978101942236     -0.142646476034     
5900000000.0        -0.978823262761     -0.140210510745     0.0211223311606     -0.146512391703     0.0211223311606     -0.146512391703     -0.978823262761     -0.140210510745     
6000000000.0        -0.979509979128     -0.137847990621     0.0204348340244     -0.144260213739     0.0204348340244     -0.144260213739     -0.979509979128     -0.137847990621     
6100000000.0        -0.980164258533     -0.135555609602     0.0197797603126     -0.142078294712     0.0197797603126     -0.142078294712     -0.980164258533     -0.135555609602     
6200000000.0        -0.980788101979     -0.133330251859     0.0191551089736     -0.139963519183     0.0191551089736     -0.139963519183     -0.980788101979     -0.133330251859     
6300000000.0        -0.981383359249     -0.131168978733     0.0185590301766     -0.137912948921     0.0185590301766     -0.137912948921     -0.981383359249     -0.131168978733     
6400000000.0        -0.981951742335     -0.129069016692     0.0179898118803     -0.135923810852     0.0179898118803     -0.135923810852     -0.981951742335     -0.129069016692     
6500000000.0        -0.982494837509     -0.127027746222     0.0174458677634     -0.133993485954     0.0174458677634     -0.133993485954     -0.982494837509     -0.127027746222     
6600000000.0        -0.983014116183     -0.125042691568     0.0169257263647     -0.132119498997     0.0169257263647     -0.132119498997     -0.983014116183     -0.125042691568     
6700000000.0        -0.983510944696     -0.123111511257     0.016428021295      -0.130299509063     0.016428021295      -0.130299509063     -0.983510944696     -0.123111511257     
6800000000.0        -0.983986593147     -0.121231989338     0.0159514824038     -0.128531300787     0.0159514824038     -0.128531300787     -0.983986593147     -0.121231989338     
6900000000.0        -0.984442243383     -0.119402027274     0.0154949277954     -0.126812776252     0.0154949277954     -0.126812776252     -0.984442243383     -0.119402027274     
7000000000.0        -0.984878996216     -0.117619636442     0.0150572566037     -0.125141947484     0.0150572566037     -0.125141947484     -0.984878996216     -0.117619636442     
7100000000.0        -0.985297877981     -0.115882931182     0.014637442444      -0.123516929499     0.014637442444      -0.123516929499     -0.985297877981     -0.115882931182     
7200000000.0        -0.985699846468     -0.114190122349     0.0142345274716     -0.121935933863     0.0142345274716     -0.121935933863     -0.985699846468     -0.114190122349     
7300000000.0        -0.986085796329     -0.112539511341     0.0138476169832     -0.120397262709     0.0138476169832     -0.120397262709     -0.986085796329     -0.112539511341     
7400000000.0        -0.986456563984     -0.110929484545     0.0134758745058     -0.11889930319      0.0134758745058     -0.11889930319      -0.986456563984     -0.110929484545     
7500000000.0        -0.986812932092     -0.109358508181     0.0131185173238     -0.117440522321     0.0131185173238     -0.117440522321     -0.986812932092     -0.109358508181     
7600000000.0        -0.987155633637     -0.107825123511     0.0127748124002     -0.116019462184     0.0127748124002     -0.116019462184     -0.987155633637     -0.107825123511     
7700000000.0        -0.987485355644     -0.106327942381     0.0124440726531     -0.114634735472     0.0124440726531     -0.114634735472     -0.987485355644     -0.106327942381     
7800000000.0        -0.987802742589     -0.104865643065     0.0121256535521     -0.113285021335     0.0121256535521     -0.113285021335     -0.987802742589     -0.104865643065     
7900000000.0        -0.988108399508     -0.103436966401     0.0118189500048     -0.11196906151      0.0118189500048     -0.11196906151      -0.988108399508     -0.103436966401     
8000000000.0        -0.988402894848     -0.102040712184     0.0115233935042     -0.11068565672      0.0115233935042     -0.11068565672      -0.988402894848     -0.102040712184     
8100000000.0        -0.988686763091     -0.100675735806     0.0112384495134     -0.109433663307     0.0112384495134     -0.109433663307     -0.988686763091     -0.100675735806     
8200000000.0        -0.988960507142     -0.0993409451115    0.0109636150658     -0.108211990092     0.0109636150658     -0.108211990092     -0.988960507142     -0.0993409451115    
8300000000.0        -0.989224600546     -0.0980352974683    0.010698416559      -0.107019595443     0.010698416559      -0.107019595443     -0.989224600546     -0.0980352974683    
8400000000.0        -0.989479489508     -0.0967577970251    0.0104424077267     -0.105855484532     0.0104424077267     -0.105855484532     -0.989479489508     -0.0967577970251    
8500000000.0        -0.989725594765     -0.0955074921478    0.0101951677715     -0.104718706773     0.0101951677715     -0.104718706773     -0.989725594765     -0.0955074921478    
8600000000.0        -0.989963313305     -0.0942834730196    0.00995629964414    -0.103608353419     0.00995629964414    -0.103608353419     -0.989963313305     -0.0942834730196    
8700000000.0        -0.990193019952     -0.0930848693938    0.00972542845708    -0.102523555317     0.00972542845708    -0.102523555317     -0.990193019952     -0.0930848693938    
8800000000.0        -0.990415068834     -0.0919108484879    0.00950220001933    -0.101463480798     0.00950220001933    -0.101463480798     -0.990415068834     -0.0919108484879    
8900000000.0        -0.990629794735     -0.0907606130092    0.00928627948319    -0.100427333708     0.00928627948319    -0.100427333708     -0.990629794735     -0.0907606130092    
9000000000.0        -0.990837514346     -0.0896333993016    0.00907735009273    -0.0994143515489    0.00907735009273    -0.0994143515489    -0.990837514346     -0.0896333993016    
9100000000.0        -0.991038527424     -0.0885284756069    0.00887511202547    -0.0984238037413    0.00887511202547    -0.0984238037413    -0.991038527424     -0.0885284756069    
9200000000.0        -0.991233117863     -0.0874451404308    0.00867928131957    -0.0974549899916    0.00867928131957    -0.0974549899916    -0.991233117863     -0.0874451404308    
9300000000.0        -0.991421554693     -0.0863827210074    0.00848958887914    -0.0965072387547    0.00848958887914    -0.0965072387547    -0.991421554693     -0.0863827210074    
9400000000.0        -0.991604092998     -0.0853405718552    0.00830577955154    -0.0955799057898    0.00830577955154    -0.0955799057898    -0.991604092998     -0.0853405718552    
9500000000.0        -0.991780974775     -0.0843180734182    0.00812761127065    -0.0946723728018    0.00812761127065    -0.0946723728018    -0.991780974775     -0.0843180734182    
9600000000.0        -0.99195242973      -0.0833146307869    0.00795485426074    -0.0937840461614    0.00795485426074    -0.0937840461614    -0.99195242973      -0.0833146307869    
9700000000.0        -0.992118676017     -0.0823296724931    0.00778729029622    -0.0929143557       0.00778729029622    -0.0929143557       -0.992118676017     -0.0823296724931    
9800000000.0        -0.99227992093      -0.081362649374     0.0076247120128     -0.0920627535733    0.0076247120128     -0.0920627535733    -0.99227992093      -0.081362649374     
9900000000.0        -0.992436361538     -0.0804130335016    0.0074669222659     -0.0912287131908    0.0074669222659     -0.0912287131908    -0.992436361538     -0.0804130335016    
10000000000.0       -0.992588185293     -0.0794803171721    0.00731373353295    -0.0904117282043    0.00731373353295    -0.0904117282043    -0.992588185293     -0.0794803171721    
