# Hz S RI R 50.00 
100000000.0         0.00871131499955    0.00191987923467    0.991277332546      -0.00561598379648   0.991277332546      -0.00561598379648   0.00871131499955    0.00191987923467    
200000000.0         0.00879983032383    0.00383863343225    0.991164762631      -0.0112308288682    0.991164762631      -0.0112308288682    0.00879983032383    0.00383863343225    
300000000.0         0.00889491889457    0.0057563488104     0.991031916026      -0.0168446161501    0.991031916026      -0.0168446161501    0.00889491889457    0.0057563488104     
400000000.0         0.00900406804571    0.00767288340406    0.990871303812      -0.0224571941454    0.990871303812      -0.0224571941454    0.00900406804571    0.00767288340406    
500000000.0         0.00913015147303    0.00958804263265    0.990680050395      -0.0280683565944    0.990680050395      -0.0280683565944    0.00913015147303    0.00958804263265    
600000000.0         0.00927462458453    0.0115016088886     0.990456698147      -0.0336778727988    0.990456698147      -0.0336778727988    0.00927462458453    0.0115016088886     
700000000.0         0.00943833673941    0.0134133521636     0.99020039517       -0.0392854986217    0.99020039517       -0.0392854986217    0.00943833673941    0.0134133521636     
800000000.0         0.00962182765955    0.0153230349874     0.989910598892      -0.0448909816491    0.989910598892      -0.0448909816491    0.00962182765955    0.0153230349874     
900000000.0         0.00982545939094    0.0172304150951     0.989586944107      -0.0504940640022    0.989586944107      -0.0504940640022    0.00982545939094    0.0172304150951     
1000000000.0        0.0100494831838     0.0191352470201     0.9892291761        -0.0560944840329    0.9892291761        -0.0560944840329    0.0100494831838     0.0191352470201     
1100000000.0        0.0102940766665     0.0210372831209     0.98883711348       -0.0616919774234    0.98883711348       -0.0616919774234    0.0102940766665     0.0210372831209     
1200000000.0        0.0105593659949     0.0229362742815     0.988410626031      -0.0672862779438    0.988410626031      -0.0672862779438    0.0105593659949     0.0229362742815     
1300000000.0        0.0108454397882     0.024831970414      0.987949620785      -0.0728771179971    0.987949620785      -0.0728771179971    0.0108454397882     0.024831970414      
1400000000.0        0.01115235829       0.0267241208333     0.987454032858      -0.0784642290288    0.987454032858      -0.0784642290288    0.01115235829       0.0267241208333     
1500000000.0        0.0114801596136     0.0286124745469     0.986923819214      -0.0840473418443    0.986923819214      -0.0840473418443    0.0114801596136     0.0286124745469     
1600000000.0        0.0118288641306     0.0304967804858     0.986358954277      -0.0896261868622    0.986358954277      -0.0896261868622    0.0118288641306     0.0304967804858     
1700000000.0        0.0121984776367     0.0323767876935     0.985759426767      -0.0952004943222    0.985759426767      -0.0952004943222    0.0121984776367     0.0323767876935     
1800000000.0        0.012588993688      0.034252245485      0.98512523737       -0.100769994459     0.98512523737       -0.100769994459     0.012588993688      0.034252245485      
1900000000.0        0.0130003953595     0.0361229035823     0.984456396977      -0.106334417653     0.984456396977      -0.106334417653     0.0130003953595     0.0361229035823     
2000000000.0        0.0134326565922     0.0379885122336     0.983752925346      -0.111893494557     0.983752925346      -0.111893494557     0.0134326565922     0.0379885122336     
2100000000.0        0.0138857432426     0.0398488223184     0.983014850048      -0.117446956213     0.983014850048      -0.117446956213     0.0138857432426     0.0398488223184     
2200000000.0        0.0143596139107     0.0417035854426     0.982242205647      -0.122994534156     0.982242205647      -0.122994534156     0.0143596139107     0.0417035854426     
2300000000.0        0.0148542206042     0.043552554025      0.981435033034      -0.128535960505     0.981435033034      -0.128535960505     0.0148542206042     0.043552554025      
2400000000.0        0.0153695092756     0.0453954813775     0.980593378895      -0.134070968051     0.980593378895      -0.134070968051     0.0153695092756     0.0453954813775     
2500000000.0        0.015905420264      0.0472321217789     0.979717295267      -0.139599290335     0.979717295267      -0.139599290335     0.015905420264      0.0472321217789     
2600000000.0        0.0164618886603     0.0490622305451     0.97880683918       -0.145120661722     0.97880683918       -0.145120661722     0.0164618886603     0.0490622305451     
2700000000.0        0.0170388446143     0.0508855640952     0.977862072347      -0.15063481747      0.977862072347      -0.15063481747      0.0170388446143     0.0508855640952     
2800000000.0        0.017636213594      0.0527018800135     0.976883060911      -0.156141493799     0.976883060911      -0.156141493799     0.017636213594      0.0527018800135     
2900000000.0        0.0182539166077     0.0545109371097     0.975869875221      -0.16164042795      0.975869875221      -0.16164042795      0.0182539166077     0.0545109371097     
3000000000.0        0.0188918703956     0.0563124954764     0.974822589641      -0.167131358243     0.974822589641      -0.167131358243     0.0188918703956     0.0563124954764     
3100000000.0        0.0195499875968     0.0581063165441     0.973741282392      -0.172614024139     0.973741282392      -0.172614024139     0.0195499875968     0.0581063165441     
3200000000.0        0.0202281768965     0.0598921631344     0.972626035395      -0.178088166292     0.972626035395      -0.178088166292     0.0202281768965     0.0598921631344     
3300000000.0        0.0209263431558     0.0616697995116     0.971476934155      -0.183553526602     0.971476934155      -0.183553526602     0.0209263431558     0.0616697995116     
3400000000.0        0.0216443875286     0.063438991433      0.970294067635      -0.189009848263     0.970294067635      -0.189009848263     0.0216443875286     0.063438991433      
3500000000.0        0.0223822075673     0.0651995061969     0.969077528159      -0.194456875818     0.969077528159      -0.194456875818     0.0223822075673     0.0651995061969     
3600000000.0        0.0231396973179     0.06695111269       0.967827411313      -0.199894355201     0.967827411313      -0.199894355201     0.0231396973179     0.06695111269       
3700000000.0        0.0239167474087     0.0686935814337     0.966543815864      -0.205322033788     0.966543815864      -0.205322033788     0.0239167474087     0.0686935814337     
3800000000.0        0.024713245131      0.0704266846282     0.965226843672      -0.210739660436     0.965226843672      -0.210739660436     0.024713245131      0.0704266846282     
3900000000.0        0.0255290745153     0.0721501961967     0.963876599625      -0.216146985533     0.963876599625      -0.216146985533     0.0255290745153     0.0721501961967     
4000000000.0        0.026364116402      0.0738638918276     0.962493191562      -0.221543761034     0.962493191562      -0.221543761034     0.026364116402      0.0738638918276     
4100000000.0        0.0272182485083     0.0755675490165     0.96107673021       -0.226929740508     0.96107673021       -0.226929740508     0.0272182485083     0.0755675490165     
4200000000.0        0.0280913454921     0.0772609471064     0.959627329121      -0.232304679173     0.959627329121      -0.232304679173     0.0280913454921     0.0772609471064     
4300000000.0        0.0289832790124     0.0789438673276     0.958145104615      -0.237668333939     0.958145104615      -0.237668333939     0.0289832790124     0.0789438673276     
4400000000.0        0.0298939177879     0.0806160928359     0.956630175719      -0.243020463442     0.956630175719      -0.243020463442     0.0298939177879     0.0806160928359     
4500000000.0        0.0308231276528     0.0822774087512     0.955082664115      -0.248360828083     0.955082664115      -0.248360828083     0.0308231276528     0.0822774087512     
4600000000.0        0.0317707716116     0.0839276021935     0.953502694085      -0.253689190065     0.953502694085      -0.253689190065     0.0317707716116     0.0839276021935     
4700000000.0        0.0327367098916     0.0855664623197     0.951890392462      -0.259005313425     0.951890392462      -0.259005313425     0.0327367098916     0.0855664623197     
4800000000.0        0.0337207999947     0.087193780358      0.950245888574      -0.264308964072     0.950245888574      -0.264308964072     0.0337207999947     0.087193780358      
4900000000.0        0.0347228967482     0.0888093496427     0.948569314203      -0.269599909814     0.948569314203      -0.269599909814     0.0347228967482     0.0888093496427     
5000000000.0        0.0357428523539     0.0904129656473     0.946860803526      -0.274877920397     0.946860803526      -0.274877920397     0.0357428523539     0.0904129656473     
5100000000.0        0.0367805164369     0.0920044260174     0.945120493079      -0.280142767529     0.945120493079      -0.280142767529     0.0367805164369     0.0920044260174     
5200000000.0        0.0378357360942     0.0935835306021     0.943348521699      -0.285394224917     0.943348521699      -0.285394224917     0.0378357360942     0.0935835306021     
5300000000.0        0.0389083559418     0.0951500814849     0.941545030485      -0.290632068292     0.941545030485      -0.290632068292     0.0389083559418     0.0951500814849     
5400000000.0        0.0399982181618     0.0967038830142     0.939710162751      -0.295856075439     0.939710162751      -0.295856075439     0.0399982181618     0.0967038830142     
5500000000.0        0.0411051625492     0.0982447418319     0.937844063976      -0.301066026225     0.937844063976      -0.301066026225     0.0411051625492     0.0982447418319     
5600000000.0        0.042229026558      0.0997724669023     0.935946881765      -0.306261702623     0.935946881765      -0.306261702623     0.042229026558      0.0997724669023     
5700000000.0        0.0433696453474     0.10128686954       0.934018765798      -0.311442888741     0.934018765798      -0.311442888741     0.0433696453474     0.10128686954       
5800000000.0        0.0445268518273     0.102787763434      0.932059867791      -0.316609370846     0.932059867791      -0.316609370846     0.0445268518273     0.102787763434      
5900000000.0        0.0457004767043     0.10427496468       0.930070341446      -0.321760937388     0.930070341446      -0.321760937388     0.0457004767043     0.10427496468       
6000000000.0        0.0468903485263     0.105748291796      0.928050342414      -0.326897379021     0.928050342414      -0.326897379021     0.0468903485263     0.105748291796      
6100000000.0        0.0480962937285     0.107207565757      0.926000028241      -0.332018488631     0.926000028241      -0.332018488631     0.0480962937285     0.107207565757      
6200000000.0        0.0493181366782     0.108652610011      0.923919558333      -0.33712406135      0.923919558333      -0.33712406135      0.0493181366782     0.108652610011      
6300000000.0        0.0505556997195     0.110083250503      0.921809093906      -0.342213894582     0.921809093906      -0.342213894582     0.0505556997195     0.110083250503      
6400000000.0        0.0518088032186     0.1114993157        0.919668797948      -0.347287788023     0.919668797948      -0.347287788023     0.0518088032186     0.1114993157        
6500000000.0        0.0530772656085     0.11290063661       0.917498835168      -0.352345543675     0.917498835168      -0.352345543675     0.0530772656085     0.11290063661       
6600000000.0        0.0543609034335     0.114287046801      0.915299371959      -0.357386965868     0.915299371959      -0.357386965868     0.0543609034335     0.114287046801      
6700000000.0        0.0556595313944     0.115658382422      0.913070576349      -0.362411861279     0.913070576349      -0.362411861279     0.0556595313944     0.115658382422      
6800000000.0        0.0569729623924     0.117014482223      0.910812617962      -0.367420038943     0.910812617962      -0.367420038943     0.0569729623924     0.117014482223      
6900000000.0        0.0583010075743     0.118355187569      0.908525667971      -0.372411310274     0.908525667971      -0.372411310274     0.0583010075743     0.118355187569      
7000000000.0        0.0596434763765     0.119680342461      0.906209899059      -0.377385489074     0.906209899059      -0.377385489074     0.0596434763765     0.119680342461      
7100000000.0        0.0610001765699     0.12098979355       0.903865485368      -0.382342391552     0.903865485368      -0.382342391552     0.0610001765699     0.12098979355       
7200000000.0        0.0623709143036     0.122283390152      0.901492602465      -0.387281836336     0.901492602465      -0.387281836336     0.0623709143036     0.122283390152      
7300000000.0        0.0637554941501     0.123560984265      0.899091427292      -0.392203644484     0.899091427292      -0.392203644484     0.0637554941501     0.123560984265      
7400000000.0        0.0651537191486     0.124822430581      0.896662138124      -0.397107639494     0.896662138124      -0.397107639494     0.0651537191486     0.124822430581      
7500000000.0        0.0665653908498     0.1260675865        0.894204914531      -0.401993647318     0.894204914531      -0.401993647318     0.0665653908498     0.1260675865        
7600000000.0        0.0679903093595     0.12729631214       0.891719937326      -0.406861496372     0.891719937326      -0.406861496372     0.0679903093595     0.12729631214       
7700000000.0        0.069428273383      0.128508470354      0.889207388532      -0.411711017541     0.889207388532      -0.411711017541     0.069428273383      0.128508470354      
7800000000.0        0.0708790802688     0.129703926734      0.886667451331      -0.41654204419      0.886667451331      -0.41654204419      0.0708790802688     0.129703926734      
7900000000.0        0.0723425260521     0.130882549626      0.884100310027      -0.421354412171     0.884100310027      -0.421354412171     0.0723425260521     0.130882549626      
8000000000.0        0.073818405499      0.132044210137      0.881506149999      -0.426147959831     0.881506149999      -0.426147959831     0.073818405499      0.132044210137      
8100000000.0        0.0753065121494     0.133188782145      0.878885157664      -0.430922528016     0.878885157664      -0.430922528016     0.0753065121494     0.133188782145      
8200000000.0        0.076806638361      0.134316142303      0.876237520429      -0.435677960076     0.876237520429      -0.435677960076     0.076806638361      0.134316142303      
8300000000.0        0.0783185753522     0.135426170052      0.873563426653      -0.44041410187      0.873563426653      -0.44041410187      0.0783185753522     0.135426170052      
8400000000.0        0.0798421132453     0.136518747623      0.870863065603      -0.445130801771     0.870863065603      -0.445130801771     0.0798421132453     0.136518747623      
8500000000.0        0.0813770411092     0.137593760043      0.868136627414      -0.449827910665     0.868136627414      -0.449827910665     0.0813770411092     0.137593760043      
8600000000.0        0.0829231470029     0.138651095141      0.865384303044      -0.454505281958     0.865384303044      -0.454505281958     0.0829231470029     0.138651095141      
8700000000.0        0.0844802180172     0.13969064355       0.862606284238      -0.459162771573     0.862606284238      -0.459162771573     0.0844802180172     0.13969064355       
8800000000.0        0.0860480403176     0.140712298716      0.859802763481      -0.463800237952     0.859802763481      -0.463800237952     0.0860480403176     0.140712298716      
8900000000.0        0.0876263991867     0.141715956891      0.85697393396       -0.468417542058     0.85697393396       -0.468417542058     0.0876263991867     0.141715956891      
9000000000.0        0.0892150790655     0.142701517146      0.854119989526      -0.473014547372     0.854119989526      -0.473014547372     0.0892150790655     0.142701517146      
9100000000.0        0.090813863596      0.143668881363      0.851241124646      -0.477591119889     0.851241124646      -0.477591119889     0.090813863596      0.143668881363      
9200000000.0        0.0924225356621     0.144617954242      0.848337534371      -0.482147128122     0.848337534371      -0.482147128122     0.0924225356621     0.144617954242      
9300000000.0        0.0940408774312     0.145548643297      0.84540941429       -0.486682443093     0.84540941429       -0.486682443093     0.0940408774312     0.145548643297      
9400000000.0        0.0956686703953     0.146460858858      0.842456960493      -0.491196938334     0.842456960493      -0.491196938334     0.0956686703953     0.146460858858      
9500000000.0        0.0973056954118     0.147354514068      0.839480369531      -0.495690489877     0.839480369531      -0.495690489877     0.0973056954118     0.147354514068      
9600000000.0        0.0989517327436     0.148229524881      0.836479838376      -0.500162976257     0.836479838376      -0.500162976257     0.0989517327436     0.148229524881      
9700000000.0        0.1006065621        0.149085810061      0.833455564386      -0.504614278499     0.833455564386      -0.504614278499     0.1006065621        0.149085810061      
9800000000.0        0.102269962677      0.149923291177      0.830407745258      -0.509044280114     0.830407745258      -0.509044280114     0.102269962677      0.149923291177      
9900000000.0        0.103941713194      0.150741892599      0.827336578999      -0.513452867093     0.827336578999      -0.513452867093     0.103941713194      0.150741892599      
10000000000.0       0.10562159194       0.151541541496      0.824242263883      -0.517839927902     0.824242263883      -0.517839927902     0.10562159194       0.151541541496      
