# Hz S RI R 50.00 
100000000.0         0.000645418546034   -0.0106543258057    0.999057776379      -0.0127045329624    0.999057776379      -0.0127045329624    0.000645418546034   -0.0106543258057    
200000000.0         0.00023333072083    -0.0212990381618    0.998628632799      -0.025399472226     0.998628632799      -0.025399472226     0.00023333072083    -0.0212990381618    
300000000.0         -0.000450099262184  -0.0319249547832    0.997926673466      -0.0380757029882    0.997926673466      -0.0380757029882    -0.000450099262184  -0.0319249547832    
400000000.0         -0.00140314243896   -0.0425229226826    0.996952257659      -0.050724125295     0.996952257659      -0.050724125295     -0.00140314243896   -0.0425229226826    
500000000.0         -0.00262408380154   -0.0530838483322    0.995706573179      -0.0633356944875    0.995706573179      -0.0633356944875    -0.00262408380154   -0.0530838483322    
600000000.0         -0.00411093462937   -0.0635987236215    0.994191339364      -0.0759014491789    0.994191339364      -0.0759014491789    -0.00411093462937   -0.0635987236215    
700000000.0         -0.00586136466967   -0.0740586498544    0.992408726494      -0.0884125360596    0.992408726494      -0.0884125360596    -0.00586136466966   -0.0740586498544    
800000000.0         -0.007872683063     -0.0844548604908    0.99036132077       -0.100860233052     0.99036132077       -0.100860233052     -0.007872683063     -0.0844548604908    
900000000.0         -0.0101418357701    -0.0947787428439    0.988052102829      -0.11323597125      0.988052102829      -0.11323597125      -0.0101418357701    -0.0947787428439    
1000000000.0        -0.0126654103264    -0.105021858772     0.985484430819      -0.125531355767     0.985484430819      -0.125531355767     -0.0126654103264    -0.105021858772     
1100000000.0        -0.0154396446039    -0.115175964346     0.982662024875      -0.137738185512     0.982662024875      -0.137738185512     -0.0154396446039    -0.115175964346     
1200000000.0        -0.0184604381483    -0.125233028448     0.979588951758      -0.149848471864     0.979588951758      -0.149848471864     -0.0184604381483    -0.125233028448     
1300000000.0        -0.0217233653733    -0.135185250244     0.976269609136      -0.161854456207     0.976269609136      -0.161854456207     -0.0217233653733    -0.135185250244     
1400000000.0        -0.0252236902008    -0.145025075477     0.972708709282      -0.173748626264     0.972708709282      -0.173748626264     -0.0252236902008    -0.145025075477     
1500000000.0        -0.0289563818719    -0.154745211526     0.968911262138      -0.1855237312       0.968911262138      -0.1855237312       -0.0289563818719    -0.154745211526     
1600000000.0        -0.032916131727     -0.164338641195     0.964882557738      -0.197172795433     0.964882557738      -0.197172795433     -0.032916131727     -0.164338641195     
1700000000.0        -0.0370973707881    -0.173798635185     0.960628148057      -0.208689131134     0.960628148057      -0.208689131134     -0.0370973707881    -0.173798635185     
1800000000.0        -0.0414942879977    -0.18311876322      0.956153828356      -0.220066349379     0.956153828356      -0.220066349379     -0.0414942879977    -0.18311876322      
1900000000.0        -0.0461008489792    -0.192292903825     0.951465618102      -0.231298369937     0.951465618102      -0.231298369937     -0.0461008489792    -0.192292903825     
2000000000.0        -0.0509108151952    -0.201315252718     0.946569741569      -0.24237942968      0.946569741569      -0.24237942968      -0.0509108151952    -0.201315252718     
2100000000.0        -0.0559177633835    -0.210180329837     0.941472608221      -0.253304089631     0.941472608221      -0.253304089631     -0.0559177633835    -0.210180329837     
2200000000.0        -0.061115105156     -0.218882985004     0.936180792959      -0.264067240628     0.936180792959      -0.264067240628     -0.061115105156     -0.218882985004     
2300000000.0        -0.0664961066529    -0.227418402234     0.930701016356      -0.274664107657     0.930701016356      -0.274664107657     -0.0664961066529    -0.227418402234     
2400000000.0        -0.0720539081478    -0.235782102724     0.925040124953      -0.285090252843     0.925040124953      -0.285090252843     -0.0720539081478    -0.235782102724     
2500000000.0        -0.0777815435051    -0.243969946554     0.919205071727      -0.295341577159     0.919205071727      -0.295341577159     -0.0777815435051    -0.243969946554     
2600000000.0        -0.0836719593967    -0.251978133126     0.913202896814      -0.305414320881     0.913202896814      -0.305414320881     -0.0836719593967    -0.251978133126     
2700000000.0        -0.0897180341922    -0.259803200408     0.907040708559      -0.315305062831     0.907040708559      -0.315305062831     -0.0897180341922    -0.259803200408     
2800000000.0        -0.0959125964407    -0.26744202301      0.900725665         -0.325010718471     0.900725665         -0.325010718471     -0.0959125964407    -0.26744202301      
2900000000.0        -0.102248442872     -0.274891809176     0.894264955819      -0.334528536888     0.894264955819      -0.334528536888     -0.102248442872     -0.274891809176     
3000000000.0        -0.108718355847     -0.282150096725     0.88766578487       -0.343856096753     0.88766578487       -0.343856096753     -0.108718355847     -0.282150096725     
3100000000.0        -0.115315120203     -0.289214748026     0.880935353301      -0.352991301298     0.880935353301      -0.352991301298     -0.115315120203     -0.289214748026     
3200000000.0        -0.122031539431     -0.296083944069     0.874080843352      -0.36193237239      0.874080843352      -0.36193237239      -0.122031539431     -0.296083944069     
3300000000.0        -0.128860451152     -0.302756177693     0.867109402863      -0.370677843768     0.867109402863      -0.370677843768     -0.128860451152     -0.302756177693     
3400000000.0        -0.135794741837     -0.309230246054     0.860028130532      -0.379226553516     0.860028130532      -0.379226553516     -0.135794741837     -0.309230246054     
3500000000.0        -0.142827360754     -0.315505242403     0.852844061953      -0.387577635842     0.852844061953      -0.387577635842     -0.142827360754     -0.315505242403     
3600000000.0        -0.149951333105     -0.321580547232     0.845564156468      -0.395730512234     0.845564156468      -0.395730512234     -0.149951333105     -0.321580547232     
3700000000.0        -0.157159772339     -0.327455818885     0.838195284837      -0.403684882073     0.838195284837      -0.403684882073     -0.157159772339     -0.327455818885     
3800000000.0        -0.164445891622     -0.333130983683     0.830744217754      -0.41144071276      0.830744217754      -0.41144071276      -0.164445891622     -0.333130983683     
3900000000.0        -0.171803014468     -0.338606225639     0.823217615215      -0.418998229441     0.823217615215      -0.418998229441     -0.171803014468     -0.338606225639     
4000000000.0        -0.179224584515     -0.343881975841     0.815622016722      -0.426357904389     0.815622016722      -0.426357904389     -0.179224584515     -0.343881975841     
4100000000.0        -0.186704174461     -0.348958901554     0.807963832347      -0.433520446112     0.807963832347      -0.433520446112     -0.186704174461     -0.348958901554     
4200000000.0        -0.194235494155     -0.35383789511      0.800249334622      -0.440486788246     0.800249334622      -0.440486788246     -0.194235494155     -0.35383789511      
4300000000.0        -0.201812397876     -0.358520062652     0.792484651264      -0.447258078303     0.792484651264      -0.447258078303     -0.201812397876     -0.358520062652     
4400000000.0        -0.209428890787     -0.363006712778     0.784675758703      -0.453835666322     0.784675758703      -0.453835666322     -0.209428890787     -0.363006712778     
4500000000.0        -0.217079134617     -0.367299345148     0.776828476402      -0.460221093473     0.776828476402      -0.460221093473     -0.217079134617     -0.367299345148     
4600000000.0        -0.224757452561     -0.371399639103     0.768948461944      -0.466416080684     0.768948461944      -0.466416080684     -0.224757452561     -0.371399639103     
4700000000.0        -0.232458333453     -0.375309442336     0.761041206853      -0.472422517318     0.761041206853      -0.472422517318     -0.232458333453     -0.375309442336     
4800000000.0        -0.240176435217     -0.379030759672     0.75311203314       -0.478242449949     0.75311203314       -0.478242449949     -0.240176435217     -0.379030759672     
4900000000.0        -0.247906587643     -0.382565741983     0.74516609052       -0.483878071286     0.74516609052       -0.483878071286     -0.247906587643     -0.382565741983     
5000000000.0        -0.255643794504     -0.38591667528      0.737208354288      -0.489331709265     0.737208354288      -0.489331709265     -0.255643794504     -0.38591667528      
5100000000.0        -0.263383235059     -0.38908597002      0.729243623807      -0.494605816363     0.729243623807      -0.494605816363     -0.263383235059     -0.38908597002      
5200000000.0        -0.271120264976     -0.392076150648     0.721276521589      -0.499702959138     0.721276521589      -0.499702959138     -0.271120264976     -0.392076150648     
5300000000.0        -0.278850416692     -0.394889845404     0.713311492916      -0.504625808046     0.713311492916      -0.504625808046     -0.278850416692     -0.394889845404     
5400000000.0        -0.286569399273     -0.397529776422     0.705352805988      -0.509377127535     0.705352805988      -0.509377127535     -0.286569399273     -0.397529776422     
5500000000.0        -0.294273097777     -0.399998750129     0.697404552545      -0.513959766454     0.697404552545      -0.513959766454     -0.294273097777     -0.399998750129     
5600000000.0        -0.301957572182     -0.402299647975     0.689470648935      -0.518376648781     0.689470648935      -0.518376648781     -0.301957572182     -0.402299647975     
5700000000.0        -0.309619055897     -0.404435417492     0.681554837601      -0.522630764688     0.681554837601      -0.522630764688     -0.309619055897     -0.404435417492     
5800000000.0        -0.317253953896     -0.406409063708     0.673660688942      -0.526725161957     0.673660688942      -0.526725161957     -0.317253953896     -0.406409063708     
5900000000.0        -0.324858840499     -0.408223640911     0.665791603519      -0.530662937746     0.665791603519      -0.530662937746     -0.324858840499     -0.408223640911     
6000000000.0        -0.332430456852     -0.409882244776     0.657950814578      -0.534447230721     0.657950814578      -0.534447230721     -0.332430456852     -0.409882244776     
6100000000.0        -0.339965708109     -0.411388004859     0.650141390855      -0.538081213549     0.650141390855      -0.538081213549     -0.339965708109     -0.411388004859     
6200000000.0        -0.347461660376     -0.412744077454     0.642366239637      -0.541568085763     0.642366239637      -0.541568085763     -0.347461660376     -0.412744077454     
6300000000.0        -0.354915537416     -0.413953638819     0.634628110037      -0.544911066987     0.634628110037      -0.544911066987     -0.354915537416     -0.413953638819     
6400000000.0        -0.362324717168     -0.415019878766     0.626929596481      -0.548113390528     0.626929596481      -0.548113390528     -0.362324717168     -0.415019878766     
6500000000.0        -0.36968672809      -0.415945994609     0.619273142355      -0.551178297331     0.619273142355      -0.551178297331     -0.36968672809      -0.415945994609     
6600000000.0        -0.376999245357     -0.416735185472     0.611661043799      -0.554109030284     0.611661043799      -0.554109030284     -0.376999245357     -0.416735185472     
6700000000.0        -0.38426008694      -0.417390646938     0.604095453628      -0.556908828877     0.604095453628      -0.556908828877     -0.38426008694      -0.417390646938     
6800000000.0        -0.391467209575     -0.417915566056     0.596578385349      -0.559580924204     0.596578385349      -0.559580924204     -0.391467209575     -0.417915566056     
6900000000.0        -0.398618704667     -0.418313116662     0.589111717258      -0.562128534291     0.589111717258      -0.562128534291     -0.398618704667     -0.418313116662     
7000000000.0        -0.405712794119     -0.418586455043     0.581697196601      -0.564554859763     0.581697196601      -0.564554859763     -0.405712794119     -0.418586455043     
7100000000.0        -0.412747826129     -0.418738715905     0.57433644377       -0.566863079811     0.57433644377       -0.566863079811     -0.412747826129     -0.418738715905     
7200000000.0        -0.419722270959     -0.418773008653     0.567030956534      -0.569056348477     0.567030956534      -0.569056348477     -0.419722270959     -0.418773008653     
7300000000.0        -0.42663471669      -0.418692413962     0.559782114269      -0.571137791229     0.559782114269      -0.571137791229     -0.42663471669      -0.418692413962     
7400000000.0        -0.433483864982     -0.418499980632     0.552591182194      -0.573110501815     0.552591182194      -0.573110501815     -0.433483864982     -0.418499980632     
7500000000.0        -0.440268526861     -0.418198722718     0.545459315583      -0.574977539398     0.545459315583      -0.574977539398     -0.440268526861     -0.418198722718     
7600000000.0        -0.446987618518     -0.41779161692      0.538387563952      -0.576741925949     0.538387563952      -0.576741925949     -0.446987618518     -0.41779161692      
7700000000.0        -0.45364015716      -0.41728160022      0.531376875204      -0.578406643883     0.531376875204      -0.578406643883     -0.45364015716      -0.41728160022      
7800000000.0        -0.460225256905     -0.416671567762     0.524428099728      -0.579974633946     0.524428099728      -0.579974633946     -0.460225256905     -0.416671567762     
7900000000.0        -0.466742124736     -0.415964370954     0.517541994435      -0.581448793314     0.517541994435      -0.581448793314     -0.466742124736     -0.415964370954     
8000000000.0        -0.473190056521     -0.415162815787     0.510719226735      -0.582831973921     0.510719226735      -0.582831973921     -0.473190056521     -0.415162815787     
8100000000.0        -0.479568433099     -0.414269661359     0.503960378437      -0.584126980979     0.503960378437      -0.584126980979     -0.479568433099     -0.414269661359     
8200000000.0        -0.485876716454     -0.413287618589     0.497265949574      -0.585336571701     0.497265949574      -0.585336571701     -0.485876716454     -0.413287618589     
8300000000.0        -0.492114445966     -0.412219349118     0.490636362144      -0.586463454195     0.490636362144      -0.586463454195     -0.492114445966     -0.412219349118     
8400000000.0        -0.498281234743     -0.411067464371     0.484071963762      -0.587510286539     0.484071963762      -0.587510286539     -0.498281234743     -0.411067464371     
8500000000.0        -0.504376766059     -0.409834524794     0.477573031227      -0.588479676011     0.477573031227      -0.588479676011     -0.504376766059     -0.409834524794     
8600000000.0        -0.510400789871     -0.408523039228     0.471139773983      -0.589374178474     0.471139773983      -0.589374178474     -0.510400789871     -0.408523039228     
8700000000.0        -0.516353119442     -0.407135464435     0.464772337501      -0.590196297896     0.464772337501      -0.590196297896     -0.516353119442     -0.407135464435     
8800000000.0        -0.522233628056     -0.405674204748     0.458470806546      -0.590948486008     0.458470806546      -0.590948486008     -0.522233628056     -0.405674204748     
8900000000.0        -0.528042245834     -0.404141611849     0.452235208354      -0.591633142082     0.452235208354      -0.591633142082     -0.528042245834     -0.404141611849     
9000000000.0        -0.533778956655     -0.402539984656     0.446065515709      -0.592252612819     0.446065515709      -0.592252612819     -0.533778956655     -0.402539984656     
9100000000.0        -0.539443795167     -0.40087156932      0.439961649913      -0.592809192351     0.439961649913      -0.592809192351     -0.539443795167     -0.40087156932      
9200000000.0        -0.54503684391      -0.399138559317     0.433923483663      -0.593305122332     0.433923483663      -0.593305122332     -0.54503684391      -0.399138559317     
9300000000.0        -0.550558230531     -0.397343095628     0.42795084382       -0.593742592125     0.42795084382       -0.593742592125     -0.550558230531     -0.397343095628     
9400000000.0        -0.556008125106     -0.395487267008     0.422043514085      -0.594123739067     0.422043514085      -0.594123739067     -0.556008125106     -0.395487267008     
9500000000.0        -0.56138673755      -0.393573110323     0.416201237568      -0.594450648812     0.416201237568      -0.594450648812     -0.56138673755      -0.393573110323     
9600000000.0        -0.566694315139     -0.391602610961     0.410423719271      -0.594725355743     0.410423719271      -0.594725355743     -0.566694315139     -0.391602610961     
9700000000.0        -0.571931140114     -0.389577703303     0.40471062846       -0.594949843446     0.40471062846       -0.594949843446     -0.571931140114     -0.389577703303     
9800000000.0        -0.577097527393     -0.387500271256     0.399061600954      -0.595126045241     0.399061600954      -0.595126045241     -0.577097527393     -0.387500271256     
9900000000.0        -0.582193822363     -0.385372148829     0.393476241317      -0.595255844765     0.393476241317      -0.595255844765     -0.582193822363     -0.385372148829     
10000000000.0       -0.587220398775     -0.38319512076      0.387954124952      -0.5953410766       0.387954124952      -0.5953410766       -0.587220398775     -0.38319512076      
