# Hz S RI R 50.00 
100000000.0         0.013869909909      0.000791555969898   0.986128632315      -0.00119406388291   0.986128632315      -0.00119406388291   0.013869909909      0.000791555969898   
200000000.0         0.0139627421096     0.00158274398615    0.986035179554      -0.00238776087392   0.986035179554      -0.00238776087392   0.0139627421096     0.00158274398615    
300000000.0         0.0140329856747     0.0023737070518     0.98596415263       -0.00358123471472   0.98596415263       -0.00358123471472   0.0140329856747     0.0023737070518     
400000000.0         0.0140925904982     0.00316449171309    0.985903601641      -0.00477453254028   0.985903601641      -0.00477453254028   0.0140925904982     0.00316449171309    
500000000.0         0.0141461708479     0.00395512204887    0.985848912307      -0.00596767894349   0.985848912307      -0.00596767894349   0.0141461708479     0.00395512204887    
600000000.0         0.0141960859299     0.00474561217593    0.985797725415      -0.00716068850681   0.985797725415      -0.00716068850681   0.0141960859299     0.00474561217593    
700000000.0         0.0142437328589     0.00553597074228    0.985748643837      -0.00835357030889   0.985748643837      -0.00835357030889   0.0142437328589     0.00553597074228    
800000000.0         0.014290019036      0.00632620301151    0.985700760164      -0.00954633001697   0.985700760164      -0.00954633001697   0.014290019036      0.00632620301151    
900000000.0         0.014335572684      0.0071163119825     0.985653446162      -0.0107389710117    0.985653446162      -0.0107389710117    0.014335572684      0.0071163119825     
1000000000.0        0.014380849668      0.00790629905228    0.985606245956      -0.011931495054     0.985606245956      -0.011931495054     0.014380849668      0.00790629905228    
1100000000.0        0.0144261929323     0.00869616443695    0.985558816588      -0.0131239027081    0.985558816588      -0.0131239027081    0.0144261929323     0.00869616443695    
1200000000.0        0.0144718679518     0.0094859074535     0.985510892574      -0.014316193626     0.985510892574      -0.014316193626     0.0144718679518     0.0094859074535     
1300000000.0        0.0145180850572     0.0102755267165     0.98546226357       -0.0155083667456    0.98546226357       -0.0155083667456    0.0145180850572     0.0102755267165     
1400000000.0        0.0145650141236     0.0110650202802     0.985412759688      -0.0167004204337    0.985412759688      -0.0167004204337    0.0145650141236     0.0110650202802     
1500000000.0        0.0146127945885     0.0118543857438     0.985362241478      -0.0178923525929    0.985362241478      -0.0178923525929    0.0146127945885     0.0118543857438     
1600000000.0        0.0146615424951     0.0126436203315     0.985310592884      -0.0190841607423    0.985310592884      -0.0190841607423    0.0146615424951     0.0126436203315     
1700000000.0        0.0147113555728     0.0134327209546     0.985257716163      -0.0202758420803    0.985257716163      -0.0202758420803    0.0147113555728     0.0134327209546     
1800000000.0        0.0147623169833     0.0142216842605     0.985203528138      -0.0214673935341    0.985203528138      -0.0214673935341    0.0147623169833     0.0142216842605     
1900000000.0        0.0148144981384     0.0150105066719     0.985147957383      -0.0226588117995    0.985147957383      -0.0226588117995    0.0148144981384     0.0150105066719     
2000000000.0        0.014867960854      0.0157991844182     0.985090942067      -0.0238500933733    0.985090942067      -0.0238500933733    0.014867960854      0.0157991844182     
2100000000.0        0.014922759023      0.0165877135618     0.985032428282      -0.0250412345792    0.985032428282      -0.0250412345792    0.014922759023      0.0165877135618     
2200000000.0        0.0149789399314     0.0173760900199     0.984972368726      -0.0262322315903    0.984972368726      -0.0262322315903    0.0149789399314     0.0173760900199     
2300000000.0        0.0150365453063     0.0181643095821     0.984910721656      -0.0274230804473    0.984910721656      -0.0274230804473    0.0150365453063     0.0181643095821     
2400000000.0        0.0150956121603     0.018952367926      0.984847450042      -0.028613777074     0.984847450042      -0.028613777074     0.0150956121603     0.018952367926      
2500000000.0        0.0151561734771     0.0197402606301     0.984782520884      -0.0298043172906    0.984782520884      -0.0298043172906    0.0151561734771     0.0197402606301     
2600000000.0        0.0152182587752     0.0205279831848     0.984715904645      -0.030994696825     0.984715904645      -0.030994696825     0.0152182587752     0.0205279831848     
2700000000.0        0.0152818945735     0.0213155310023     0.98464757479       -0.0321849113226    0.98464757479       -0.0321849113226    0.0152818945735     0.0213155310023     
2800000000.0        0.0153471047792     0.0221028994243     0.984577507391      -0.033374956355     0.984577507391      -0.033374956355     0.0153471047792     0.0221028994243     
2900000000.0        0.0154139110144     0.0228900837301     0.98450568081       -0.0345648274271    0.98450568081       -0.0345648274271    0.0154139110144     0.0228900837301     
3000000000.0        0.0154823328912     0.0236770791421     0.984432075414      -0.0357545199836    0.984432075414      -0.0357545199836    0.0154823328912     0.0236770791421     
3100000000.0        0.0155523882459     0.024463880832      0.984356673349      -0.0369440294154    0.984356673349      -0.0369440294154    0.0155523882459     0.024463880832      
3200000000.0        0.0156240933389     0.0252504839255     0.984279458333      -0.0381333510637    0.984279458333      -0.0381333510637    0.0156240933389     0.0252504839255     
3300000000.0        0.0156974630267     0.0260368835068     0.98420041549       -0.0393224802254    0.98420041549       -0.0393224802254    0.0156974630267     0.0260368835068     
3400000000.0        0.0157725109106     0.0268230746225     0.984119531198      -0.0405114121566    0.984119531198      -0.0405114121566    0.0157725109106     0.0268230746225     
3500000000.0        0.015849249465      0.0276090522849     0.984036792963      -0.0417001420764    0.984036792963      -0.0417001420764    0.015849249465      0.0276090522849     
3600000000.0        0.01592769015       0.0283948114754     0.983952189302      -0.0428886651703    0.983952189302      -0.0428886651703    0.01592769015       0.0283948114754     
3700000000.0        0.0160078435091     0.0291803471476     0.98386570965       -0.0440769765929    0.98386570965       -0.0440769765929    0.0160078435091     0.0291803471476     
3800000000.0        0.0160897192556     0.0299656542292     0.983777344273      -0.0452650714706    0.983777344273      -0.0452650714706    0.0160897192556     0.0299656542292     
3900000000.0        0.0161733263484     0.0307507276248     0.983687084188      -0.0464529449042    0.983687084188      -0.0464529449042    0.0161733263484     0.0307507276248     
4000000000.0        0.016258673059      0.0315355622179     0.983594921103      -0.0476405919709    0.983594921103      -0.0476405919709    0.016258673059      0.0315355622179     
4100000000.0        0.016345767031      0.0323201528731     0.983500847349      -0.0488280077266    0.983500847349      -0.0488280077266    0.016345767031      0.0323201528731     
4200000000.0        0.0164346153332     0.0331044944373     0.983404855835      -0.0500151872072    0.983404855835      -0.0500151872072    0.0164346153332     0.0331044944373     
4300000000.0        0.0165252245067     0.0338885817418     0.983306939997      -0.0512021254309    0.983306939997      -0.0512021254309    0.0165252245067     0.0338885817418     
4400000000.0        0.0166176006071     0.0346724096036     0.983207093754      -0.0523888173993    0.983207093754      -0.0523888173993    0.0166176006071     0.0346724096036     
4500000000.0        0.0167117492424     0.0354559728268     0.983105311473      -0.053575258099     0.983105311473      -0.053575258099     0.0167117492424     0.0354559728268     
4600000000.0        0.0168076756074     0.0362392662039     0.983001587937      -0.054761442503     0.983001587937      -0.054761442503     0.0168076756074     0.0362392662039     
4700000000.0        0.0169053845139     0.037022284517      0.982895918306      -0.0559473655718    0.982895918306      -0.0559473655718    0.0169053845139     0.037022284517      
4800000000.0        0.017004880419      0.0378050225386     0.9827882981        -0.0571330222546    0.9827882981        -0.0571330222546    0.017004880419      0.0378050225386     
4900000000.0        0.0171061674498     0.0385874750331     0.982678723164      -0.0583184074902    0.982678723164      -0.0583184074902    0.0171061674498     0.0385874750331     
5000000000.0        0.0172092494265     0.0393696367573     0.982567189654      -0.0595035162084    0.982567189654      -0.0595035162084    0.0172092494265     0.0393696367573     
5100000000.0        0.017314129883      0.0401515024614     0.982453694008      -0.0606883433303    0.982453694008      -0.0606883433303    0.017314129883      0.0401515024614     
5200000000.0        0.0174208120858     0.04093306689       0.982338232933      -0.0618728837695    0.982338232933      -0.0618728837695    0.0174208120858     0.04093306689       
5300000000.0        0.0175292990513     0.0417143247827     0.982220803386      -0.0630571324332    0.982220803386      -0.0630571324332    0.0175292990513     0.0417143247827     
5400000000.0        0.0176395935614     0.0424952708745     0.982101402558      -0.0642410842222    0.982101402558      -0.0642410842222    0.0176395935614     0.0424952708745     
5500000000.0        0.0177516981782     0.0432758998973     0.981980027858      -0.0654247340324    0.981980027858      -0.0654247340324    0.0177516981782     0.0432758998973     
5600000000.0        0.0178656152572     0.0440562065795     0.981856676904      -0.0666080767548    0.981856676904      -0.0666080767548    0.0178656152572     0.0440562065795     
5700000000.0        0.0179813469591     0.0448361856475     0.981731347505      -0.0677911072766    0.981731347505      -0.0677911072766    0.0179813469591     0.0448361856475     
5800000000.0        0.0180988952615     0.0456158318257     0.981604037657      -0.0689738204814    0.981604037657      -0.0689738204814    0.0180988952615     0.0456158318257     
5900000000.0        0.0182182619689     0.0463951398371     0.981474745525      -0.0701562112503    0.981474745525      -0.0701562112503    0.0182182619689     0.0463951398371     
6000000000.0        0.0183394487223     0.047174104404      0.98134346944       -0.0713382744617    0.98134346944       -0.0713382744617    0.0183394487223     0.047174104404      
6100000000.0        0.0184624570079     0.0479527202483     0.981210207885      -0.0725200049925    0.981210207885      -0.0725200049925    0.0184624570079     0.0479527202483     
6200000000.0        0.0185872881657     0.0487309820921     0.981074959491      -0.073701397718     0.981074959491      -0.073701397718     0.0185872881657     0.0487309820921     
6300000000.0        0.0187139433962     0.0495088846578     0.980937723027      -0.0748824475127    0.980937723027      -0.0748824475127    0.0187139433962     0.0495088846578     
6400000000.0        0.0188424237685     0.0502864226689     0.980798497394      -0.0760631492507    0.980798497394      -0.0760631492507    0.0188424237685     0.0502864226689     
6500000000.0        0.0189727302256     0.05106359085       0.980657281618      -0.0772434978059    0.980657281618      -0.0772434978059    0.0189727302256     0.05106359085       
6600000000.0        0.0191048635914     0.0518403839277     0.980514074843      -0.0784234880526    0.980514074843      -0.0784234880526    0.0191048635914     0.0518403839277     
6700000000.0        0.019238824576      0.0526167966301     0.980368876329      -0.0796031148657    0.980368876329      -0.0796031148657    0.019238824576      0.0526167966301     
6800000000.0        0.0193746137808     0.0533928236882     0.980221685443      -0.0807823731212    0.980221685443      -0.0807823731212    0.0193746137808     0.0533928236882     
6900000000.0        0.0195122317036     0.0541684598351     0.980072501654      -0.0819612576965    0.980072501654      -0.0819612576965    0.0195122317036     0.0541684598351     
7000000000.0        0.0196516787429     0.0549436998073     0.979921324532      -0.0831397634707    0.979921324532      -0.0831397634707    0.0196516787429     0.0549436998073     
7100000000.0        0.0197929552027     0.0557185383442     0.979768153741      -0.0843178853248    0.979768153741      -0.0843178853248    0.0197929552027     0.0557185383442     
7200000000.0        0.019936061296      0.0564929701889     0.979612989036      -0.0854956181422    0.979612989036      -0.0854956181422    0.019936061296      0.0564929701889     
7300000000.0        0.0200809971488     0.0572669900882     0.979455830256      -0.0866729568087    0.979455830256      -0.0866729568087    0.0200809971488     0.0572669900882     
7400000000.0        0.0202277628033     0.058040592793      0.979296677326      -0.0878498962133    0.979296677326      -0.0878498962133    0.0202277628033     0.058040592793      
7500000000.0        0.0203763582218     0.0588137730584     0.979135530251      -0.0890264312477    0.979135530251      -0.0890264312477    0.0203763582218     0.0588137730584     
7600000000.0        0.0205267832893     0.0595865256441     0.978972389112      -0.0902025568074    0.978972389112      -0.0902025568074    0.0205267832893     0.0595865256441     
7700000000.0        0.0206790378165     0.0603588453144     0.978807254063      -0.0913782677911    0.978807254063      -0.0913782677911    0.0206790378165     0.0603588453144     
7800000000.0        0.0208331215427     0.0611307268386     0.978640125332      -0.0925535591017    0.978640125332      -0.0925535591017    0.0208331215427     0.0611307268386     
7900000000.0        0.0209890341383     0.0619021649914     0.978471003213      -0.0937284256459    0.978471003213      -0.0937284256459    0.0209890341383     0.0619021649914     
8000000000.0        0.021146775207      0.0626731545524     0.978299888067      -0.0949028623349    0.978299888067      -0.0949028623349    0.021146775207      0.0626731545524     
8100000000.0        0.0213063442887     0.0634436903073     0.97812678032       -0.0960768640843    0.97812678032       -0.0960768640843    0.0213063442887     0.0634436903073     
8200000000.0        0.021467740861      0.0642137670472     0.977951680458      -0.0972504258145    0.977951680458      -0.0972504258145    0.021467740861      0.0642137670472     
8300000000.0        0.0216309643417     0.0649833795693     0.977774589028      -0.0984235424506    0.977774589028      -0.0984235424506    0.0216309643417     0.0649833795693     
8400000000.0        0.0217960140906     0.0657525226767     0.977595506634      -0.0995962089231    0.977595506634      -0.0995962089231    0.0217960140906     0.0657525226767     
8500000000.0        0.0219628894111     0.0665211911792     0.977414433936      -0.100768420167     0.977414433936      -0.100768420167     0.0219628894111     0.0665211911792     
8600000000.0        0.0221315895525     0.0672893798927     0.977231371649      -0.101940171125     0.977231371649      -0.101940171125     0.0221315895525     0.0672893798927     
8700000000.0        0.022302113711      0.0680570836399     0.977046320539      -0.103111456742     0.977046320539      -0.103111456742     0.022302113711      0.0680570836399     
8800000000.0        0.0224744610318     0.0688242972503     0.976859281424      -0.104282271972     0.976859281424      -0.104282271972     0.0224744610318     0.0688242972503     
8900000000.0        0.0226486306102     0.0695910155602     0.976670255172      -0.105452611773     0.976670255172      -0.105452611773     0.0226486306102     0.0695910155602     
9000000000.0        0.0228246214933     0.070357233413      0.976479242699      -0.106622471109     0.976479242699      -0.106622471109     0.0228246214933     0.070357233413      
9100000000.0        0.0230024326809     0.0711229456596     0.976286244965      -0.107791844953     0.976286244965      -0.107791844953     0.0230024326809     0.0711229456596     
9200000000.0        0.0231820631275     0.071888147158      0.97609126298       -0.10896072828      0.97609126298       -0.10896072828      0.0231820631275     0.071888147158      
9300000000.0        0.0233635117428     0.0726528327739     0.975894297795      -0.110129116075     0.975894297795      -0.110129116075     0.0233635117428     0.0726528327739     
9400000000.0        0.0235467773932     0.0734169973803     0.975695350504      -0.11129700333      0.975695350504      -0.11129700333      0.0235467773932     0.0734169973803     
9500000000.0        0.0237318589028     0.0741806358586     0.975494422246      -0.112464385042     0.975494422246      -0.112464385042     0.0237318589028     0.0741806358586     
9600000000.0        0.0239187550545     0.0749437430974     0.975291514198      -0.113631256215     0.975291514198      -0.113631256215     0.0239187550545     0.0749437430974     
9700000000.0        0.0241074645909     0.075706313994      0.975086627578      -0.114797611861     0.975086627578      -0.114797611861     0.0241074645909     0.075706313994      
9800000000.0        0.0242979862156     0.0764683434534     0.974879763644      -0.115963447        0.974879763644      -0.115963447        0.0242979862156     0.0764683434534     
9900000000.0        0.0244903185935     0.077229826389      0.97467092369       -0.117128756659     0.97467092369       -0.117128756659     0.0244903185935     0.077229826389      
10000000000.0       0.0246844603523     0.0779907577228     0.974460109049      -0.118293535871     0.974460109049      -0.118293535871     0.0246844603523     0.0779907577228     
