# Hz S RI R 50.00 
100000000.0         0.00447676122542    0.000294610175596   0.995512137244      -0.00394347721474   0.995512137244      -0.00394347721474   0.00447676122542    0.000294610175596   
200000000.0         0.00450839821552    0.000588956196798   0.9954570642        -0.00788663732678   0.9954570642        -0.00788663732678   0.00450839821552    0.000588956196798   
300000000.0         0.00453454376803    0.000883117735648   0.995394147872      -0.0118295240335    0.995394147872      -0.0118295240335    0.00453454376803    0.000883117735648   
400000000.0         0.00455906662282    0.00117710892079    0.995319519412      -0.0157721135383    0.995319519412      -0.0157721135383    0.00455906662282    0.00117710892079    
500000000.0         0.00458345535695    0.0014709288541     0.995231690209      -0.0197143660408    0.995231690209      -0.0197143660408    0.00458345535695    0.0014709288541     
600000000.0         0.00460846815062    0.00176457006919    0.995129902117      -0.0236562345364    0.995129902117      -0.0236562345364    0.00460846815062    0.00176457006919    
700000000.0         0.00463455205326    0.00205802154823    0.995013708188      -0.0275976680068    0.995013708188      -0.0275976680068    0.00463455205326    0.00205802154823    
800000000.0         0.00466199595792    0.00235127011185    0.994882819702      -0.0315386129124    0.994882819702      -0.0315386129124    0.00466199595792    0.00235127011185    
900000000.0         0.00469099869312    0.00264430116063    0.994737038076      -0.0354790140026    0.994737038076      -0.0354790140026    0.00469099869312    0.00264430116063    
1000000000.0        0.00472170352676    0.00293709911129    0.994576220361      -0.0394188147987    0.994576220361      -0.0394188147987    0.00472170352676    0.00293709911129    
1100000000.0        0.00475421734056    0.00322964767193    0.994400260069      -0.0433579579047    0.994400260069      -0.0433579579047    0.00475421734056    0.00322964767193    
1200000000.0        0.00478862205198    0.00352193002524    0.994209075756      -0.0472963852165    0.994209075756      -0.0472963852165    0.00478862205198    0.00352193002524    
1300000000.0        0.00482498179799    0.00381392895578    0.994002603836      -0.0512340380706    0.994002603836      -0.0512340380706    0.00482498179799    0.00381392895578    
1400000000.0        0.00486334765554    0.00410562694134    0.993780793866      -0.0551708573515    0.993780793866      -0.0551708573515    0.00486334765554    0.00410562694134    
1500000000.0        0.00490376085706    0.00439700622054    0.993543605326      -0.0591067835732    0.993543605326      -0.0591067835732    0.00490376085706    0.00439700622054    
1600000000.0        0.00494625504818    0.004688048844      0.99329100537       -0.0630417569416    0.99329100537       -0.0630417569416    0.00494625504818    0.004688048844      
1700000000.0        0.00499085791422    0.00497873671394    0.993022967195      -0.0669757174036    0.993022967195      -0.0669757174036    0.00499085791422    0.00497873671394    
1800000000.0        0.00503759237825    0.00526905161535    0.992739468846      -0.0709086046864    0.992739468846      -0.0709086046864    0.00503759237825    0.00526905161535    
1900000000.0        0.00508647750076    0.00555897524095    0.99244049232       -0.0748403583291    0.99244049232       -0.0748403583291    0.00508647750076    0.00555897524095    
2000000000.0        0.00513752916695    0.00584848921144    0.992126022875      -0.0787709177093    0.992126022875      -0.0787709177093    0.00513752916695    0.00584848921144    
2100000000.0        0.00519076061961    0.00613757509222    0.991796048501      -0.0827002220649    0.991796048501      -0.0827002220649    0.00519076061961    0.00613757509222    
2200000000.0        0.00524618287802    0.00642621440724    0.991450559504      -0.0866282105129    0.991450559504      -0.0866282105129    0.00524618287802    0.00642621440724    
2300000000.0        0.00530380507111    0.00671438865075    0.991089548168      -0.0905548220645    0.991089548168      -0.0905548220645    0.00530380507111    0.00671438865075    
2400000000.0        0.00536363470552    0.00700207929722    0.990713008495      -0.0944799956398    0.990713008495      -0.0944799956398    0.00536363470551    0.00700207929722    
2500000000.0        0.00542567788326    0.00728926780993    0.990320935982      -0.0984036700786    0.990320935982      -0.0984036700786    0.00542567788326    0.00728926780993    
2600000000.0        0.00548993948022    0.00757593564839    0.989913327446      -0.102325784151     0.989913327446      -0.102325784151     0.00548993948022    0.00757593564839    
2700000000.0        0.00555642329365    0.00786206427482    0.98949018088       -0.106246276569     0.98949018088       -0.106246276569     0.00555642329365    0.00786206427482    
2800000000.0        0.00562513216506    0.00814763515989    0.989051495326      -0.110165085989     0.989051495326      -0.110165085989     0.00562513216506    0.00814763515989    
2900000000.0        0.00569606808328    0.0084326297878     0.988597270775      -0.114082151025     0.988597270775      -0.114082151025     0.00569606808328    0.0084326297878     
3000000000.0        0.00576923227152    0.00871702966081    0.98812750808       -0.117997410253     0.98812750808       -0.117997410253     0.00576923227153    0.00871702966081    
3100000000.0        0.00584462526135    0.00900081630338    0.987642208886      -0.121910802215     0.987642208886      -0.121910802215     0.00584462526135    0.00900081630338    
3200000000.0        0.00592224695583    0.00928397126588    0.987141375562      -0.125822265428     0.987141375562      -0.125822265428     0.00592224695583    0.00928397126588    
3300000000.0        0.00600209668389    0.00956647612797    0.986625011152      -0.129731738387     0.986625011152      -0.129731738387     0.00600209668389    0.00956647612797    
3400000000.0        0.00608417324715    0.00984831250172    0.986093119327      -0.13363915957      0.986093119327      -0.13363915957      0.00608417324715    0.00984831250172    
3500000000.0        0.00616847496064    0.0101294620345     0.985545704344      -0.137544467441     0.985545704344      -0.137544467441     0.00616847496064    0.0101294620345     
3600000000.0        0.00625499968821    0.0104099064117     0.984982771013      -0.141447600456     0.984982771013      -0.141447600456     0.00625499968821    0.0104099064117     
3700000000.0        0.00634374487363    0.0106896273591     0.984404324666      -0.145348497067     0.984404324666      -0.145348497067     0.00634374487363    0.0106896273591     
3800000000.0        0.00643470756776    0.0109686066453     0.983810371131      -0.149247095722     0.983810371131      -0.149247095722     0.00643470756776    0.0109686066453     
3900000000.0        0.0065278844527     0.0112468260839     0.983200916705      -0.153143334873     0.983200916705      -0.153143334873     0.0065278844527     0.0112468260839     
4000000000.0        0.00662327186306    0.0115242675355     0.98257596814       -0.157037152976     0.98257596814       -0.157037152976     0.00662327186306    0.0115242675355     
4100000000.0        0.0067208658049     0.01180091291       0.981935532617      -0.160928488492     0.981935532617      -0.160928488492     0.0067208658049     0.01180091291       
4200000000.0        0.00682066197261    0.012076744168      0.981279617737      -0.164817279898     0.981279617737      -0.164817279898     0.00682066197261    0.012076744168      
4300000000.0        0.00692265576404    0.0123517433228     0.9806082315        -0.168703465678     0.9806082315        -0.168703465678     0.00692265576404    0.0123517433228     
4400000000.0        0.00702684229404    0.0126258924422     0.979921382296      -0.172586984336     0.979921382296      -0.172586984336     0.00702684229404    0.0126258924422     
4500000000.0        0.00713321640669    0.0128991736502     0.979219078892      -0.176467774393     0.979219078892      -0.176467774393     0.00713321640669    0.0128991736502     
4600000000.0        0.00724177268633    0.0131715691282     0.978501330423      -0.180345774389     0.978501330423      -0.180345774389     0.00724177268633    0.0131715691282     
4700000000.0        0.00735250546752    0.0134430611172     0.977768146381      -0.184220922888     0.977768146381      -0.184220922888     0.00735250546752    0.0134430611172     
4800000000.0        0.00746540884417    0.0137136319185     0.977019536605      -0.188093158479     0.977019536605      -0.188093158479     0.00746540884417    0.0137136319185     
4900000000.0        0.00758047667773    0.0139832638959     0.976255511276      -0.191962419777     0.976255511276      -0.191962419777     0.00758047667773    0.0139832638959     
5000000000.0        0.00769770260482    0.0142519394766     0.975476080911      -0.195828645427     0.975476080911      -0.195828645427     0.00769770260482    0.0142519394766     
5100000000.0        0.00781708004409    0.0145196411526     0.974681256351      -0.199691774104     0.974681256351      -0.199691774104     0.00781708004409    0.0145196411526     
5200000000.0        0.00793860220261    0.0147863514824     0.973871048763      -0.203551744517     0.973871048763      -0.203551744517     0.00793860220261    0.0147863514824     
5300000000.0        0.00806226208167    0.015052053092      0.973045469627      -0.207408495409     0.973045469627      -0.207408495409     0.00806226208167    0.015052053092      
5400000000.0        0.00818805248223    0.0153167286761     0.972204530737      -0.211261965558     0.972204530737      -0.211261965558     0.00818805248223    0.0153167286761     
5500000000.0        0.00831596600986    0.0155803609996     0.971348244192      -0.215112093784     0.971348244192      -0.215112093784     0.00831596600986    0.0155803609996     
5600000000.0        0.00844599507942    0.0158429328987     0.970476622395      -0.218958818944     0.970476622395      -0.218958818944     0.00844599507942    0.0158429328987     
5700000000.0        0.00857813191936    0.0161044272821     0.969589678049      -0.222802079938     0.969589678049      -0.222802079938     0.00857813191936    0.0161044272821     
5800000000.0        0.00871236857572    0.0163648271323     0.968687424152      -0.22664181571      0.968687424152      -0.22664181571      0.00871236857572    0.0163648271323     
5900000000.0        0.00884869691588    0.0166241155065     0.967769873993      -0.230477965248     0.967769873993      -0.230477965248     0.00884869691588    0.0166241155065     
6000000000.0        0.00898710863211    0.0168822755379     0.966837041152      -0.234310467587     0.966837041152      -0.234310467587     0.00898710863211    0.0168822755379     
6100000000.0        0.00912759524486    0.0171392904369     0.965888939496      -0.23813926181      0.965888939496      -0.23813926181      0.00912759524486    0.0171392904369     
6200000000.0        0.00927014810583    0.0173951434921     0.964925583173      -0.24196428705      0.964925583173      -0.24196428705      0.00927014810583    0.0173951434921     
6300000000.0        0.00941475840096    0.0176498180715     0.963946986616      -0.245785482492     0.963946986616      -0.245785482492     0.00941475840096    0.0176498180715     
6400000000.0        0.00956141715319    0.0179032976235     0.962953164535      -0.249602787374     0.962953164535      -0.249602787374     0.00956141715319    0.0179032976235     
6500000000.0        0.00971011522504    0.0181555656777     0.961944131916      -0.253416140987     0.961944131916      -0.253416140987     0.00971011522504    0.0181555656777     
6600000000.0        0.00986084332116    0.0184066058467     0.960919904023      -0.257225482678     0.960919904023      -0.257225482678     0.00986084332116    0.0184066058467     
6700000000.0        0.0100135919907     0.0186564018262     0.95988049639       -0.261030751852     0.95988049639       -0.261030751852     0.0100135919907     0.0186564018262     
6800000000.0        0.0101683516295     0.0189049373969     0.958825924824      -0.264831887973     0.958825924824      -0.264831887973     0.0101683516295     0.0189049373969     
6900000000.0        0.0103251124824     0.0191521964247     0.957756205402      -0.268628830563     0.957756205402      -0.268628830563     0.0103251124824     0.0191521964247     
7000000000.0        0.0104838646451     0.0193981628624     0.956671354466      -0.272421519207     0.956671354466      -0.272421519207     0.0104838646451     0.0193981628624     
7100000000.0        0.0106445980664     0.0196428207503     0.955571388626      -0.276209893553     0.955571388626      -0.276209893553     0.0106445980664     0.0196428207503     
7200000000.0        0.01080730255       0.0198861542172     0.954456324759      -0.279993893313     0.954456324759      -0.279993893313     0.01080730255       0.0198861542172     
7300000000.0        0.0109719677563     0.0201281474818     0.953326180003      -0.283773458263     0.953326180003      -0.283773458263     0.0109719677563     0.0201281474818     
7400000000.0        0.011138583204      0.0203687848528     0.952180971758      -0.287548528248     0.952180971758      -0.287548528248     0.011138583204      0.0203687848528     
7500000000.0        0.0113071382724     0.0206080507308     0.951020717685      -0.29131904318      0.951020717685      -0.29131904318      0.0113071382724     0.0206080507308     
7600000000.0        0.0114776222025     0.0208459296086     0.949845435707      -0.295084943039     0.949845435707      -0.295084943039     0.0114776222025     0.0208459296086     
7700000000.0        0.0116500240988     0.0210824060724     0.948655144002      -0.298846167879     0.948655144002      -0.298846167879     0.0116500240988     0.0210824060724     
7800000000.0        0.0118243329309     0.0213174648027     0.947449861009      -0.302602657823     0.947449861009      -0.302602657823     0.0118243329309     0.0213174648027     
7900000000.0        0.0120005375351     0.0215510905751     0.946229605419      -0.306354353069     0.946229605419      -0.306354353069     0.0120005375351     0.0215510905751     
8000000000.0        0.0121786266158     0.0217832682615     0.944994396183      -0.310101193889     0.944994396183      -0.310101193889     0.0121786266158     0.0217832682615     
8100000000.0        0.0123585887467     0.0220139828305     0.943744252502      -0.31384312063      0.943744252502      -0.31384312063      0.0123585887467     0.0220139828305     
8200000000.0        0.0125404123729     0.0222432193489     0.942479193833      -0.317580073717     0.942479193833      -0.317580073717     0.0125404123729     0.0222432193489     
8300000000.0        0.0127240858115     0.0224709629821     0.941199239884      -0.321311993652     0.941199239884      -0.321311993652     0.0127240858115     0.0224709629821     
8400000000.0        0.0129095972537     0.022697198995      0.939904410614      -0.325038821018     0.939904410614      -0.325038821018     0.0129095972537     0.022697198995      
8500000000.0        0.0130969347654     0.0229219127533     0.938594726234      -0.328760496478     0.938594726234      -0.328760496478     0.0130969347654     0.0229219127533     
8600000000.0        0.0132860862893     0.0231450897239     0.937270207202      -0.332476960776     0.937270207202      -0.332476960776     0.0132860862893     0.0231450897239     
8700000000.0        0.0134770396455     0.023366715476      0.935930874228      -0.33618815474      0.935930874228      -0.33618815474      0.0134770396455     0.023366715476      
8800000000.0        0.0136697825333     0.0235867756816     0.934576748267      -0.339894019281     0.934576748267      -0.339894019281     0.0136697825333     0.0235867756816     
8900000000.0        0.0138643025319     0.023805256117      0.933207850522      -0.343594495396     0.933207850522      -0.343594495396     0.0138643025319     0.023805256117      
9000000000.0        0.0140605871025     0.0240221426628     0.931824202443      -0.34728952417      0.931824202443      -0.34728952417      0.0140605871025     0.0240221426628     
9100000000.0        0.0142586235885     0.0242374213055     0.930425825723      -0.350979046772     0.930425825723      -0.350979046772     0.0142586235885     0.0242374213055     
9200000000.0        0.0144583992174     0.0244510781376     0.929012742302      -0.354663004464     0.929012742302      -0.354663004464     0.0144583992174     0.0244510781376     
9300000000.0        0.0146599011021     0.024663099359      0.927584974362      -0.358341338594     0.927584974362      -0.358341338594     0.0146599011021     0.024663099359      
9400000000.0        0.0148631162413     0.0248734712775     0.92614254433       -0.362013990604     0.92614254433       -0.362013990604     0.0148631162413     0.0248734712775     
9500000000.0        0.0150680315216     0.0250821803094     0.924685474875      -0.365680902026     0.924685474875      -0.365680902026     0.0150680315216     0.0250821803094     
9600000000.0        0.0152746337181     0.0252892129808     0.923213788904      -0.369342014488     0.923213788904      -0.369342014488     0.0152746337181     0.0252892129808     
9700000000.0        0.0154829094957     0.0254945559279     0.92172750957       -0.372997269708     0.92172750957       -0.372997269708     0.0154829094957     0.0254945559279     
9800000000.0        0.0156928454103     0.0256981958979     0.920226660263      -0.376646609505     0.920226660263      -0.376646609505     0.0156928454103     0.0256981958979     
9900000000.0        0.0159044279099     0.02590011975       0.918711264612      -0.38028997579      0.918711264612      -0.38028997579      0.0159044279099     0.02590011975       
10000000000.0       0.0161176433358     0.0261003144558     0.917181346487      -0.383927310573     0.917181346487      -0.383927310573     0.0161176433358     0.0261003144558     
