# Hz S RI R 50.00 
100000000.0         8.85724299748e-05   -0.00758059370398   0.99975925161       -0.00885702255092   0.99975925161       -0.00885702255092   8.85724299748e-05   -0.00758059370398   
200000000.0         -0.000119756294188  -0.0151582463837    0.999546248618      -0.0177111932929    0.999546248618      -0.0177111932929    -0.000119756294188  -0.0151582463837    
300000000.0         -0.000462512225788  -0.022729995765     0.999197755998      -0.0265596057695    0.999197755998      -0.0265596057695    -0.000462512225787  -0.022729995765     
400000000.0         -0.000939345340606  -0.030292814914     0.998713839645      -0.0353992774368    0.998713839645      -0.0353992774368    -0.000939345340606  -0.030292814914     
500000000.0         -0.00154990144011   -0.0378436491586    0.998094744016      -0.0442271926529    0.998094744016      -0.0442271926529    -0.00154990144011   -0.0378436491586    
600000000.0         -0.00229376013168   -0.0453794316393    0.997340833048      -0.0530403201546    0.997340833048      -0.0530403201546    -0.00229376013168   -0.0453794316393    
700000000.0         -0.00317041871118   -0.0528970931301    0.996452575552      -0.0618356238346    0.996452575552      -0.0618356238346    -0.00317041871118   -0.0528970931301    
800000000.0         -0.0041792862919    -0.0603935694541    0.99543053989       -0.0706100707196    0.99543053989       -0.0706100707196    -0.0041792862919    -0.0603935694541    
900000000.0         -0.00531968141307   -0.0678658076592    0.994275391397      -0.0793606375147    0.994275391397      -0.0793606375147    -0.00531968141307   -0.0678658076592    
1000000000.0        -0.00659083118704   -0.0753107714636    0.992987890717      -0.0880843163066    0.992987890717      -0.0880843163066    -0.00659083118704   -0.0753107714636    
1100000000.0        -0.00799187127882   -0.0827254462244    0.991568892436      -0.0967781197215    0.991568892436      -0.0967781197215    -0.00799187127882   -0.0827254462244    
1200000000.0        -0.00952184641539   -0.090106843566     0.990019343738      -0.105439085698     0.990019343738      -0.105439085698     -0.00952184641539   -0.090106843566     
1300000000.0        -0.0111797112771    -0.0974520057444    0.988340283         -0.114064281968     0.988340283         -0.114064281968     -0.0111797112771    -0.0974520057444    
1400000000.0        -0.0129643316914    -0.104758009795     0.986532838255      -0.122650810294     0.986532838255      -0.122650810294     -0.0129643316914    -0.104758009795     
1500000000.0        -0.0148744860805    -0.112021971492     0.98459822552       -0.131195810501     0.98459822552       -0.131195810501     -0.0148744860805    -0.112021971492     
1600000000.0        -0.0169088671328    -0.119241049126     0.982537746956      -0.139696464328     0.982537746956      -0.139696464328     -0.0169088671328    -0.119241049126     
1700000000.0        -0.0190660836737    -0.126412447128     0.980352788888      -0.148149999094     0.980352788888      -0.148149999094     -0.0190660836737    -0.126412447128     
1800000000.0        -0.0213446627195    -0.133533419522     0.978044819664      -0.156553691206     0.978044819664      -0.156553691206     -0.0213446627195    -0.133533419522     
1900000000.0        -0.0237430516991    -0.140601273222     0.975615387371      -0.164904869492     0.975615387371      -0.164904869492     -0.0237430516991    -0.140601273222     
2000000000.0        -0.0262596208309    -0.147613371172     0.973066117412      -0.173200918375     0.973066117412      -0.173200918375     -0.0262596208309    -0.147613371172     
2100000000.0        -0.0288926656415    -0.154567135325     0.970398709947      -0.181439280887     0.970398709947      -0.181439280887     -0.0288926656415    -0.154567135325     
2200000000.0        -0.0316404096167    -0.161460049453     0.967614937216      -0.189617461504     0.967614937216      -0.189617461504     -0.0316404096167    -0.161460049453     
2300000000.0        -0.0345010069727    -0.168289661802     0.964716640747      -0.19773302883      0.964716640747      -0.19773302883      -0.0345010069727    -0.168289661802     
2400000000.0        -0.0374725455362    -0.175053587575     0.961705728455      -0.205783618097     0.961705728455      -0.205783618097     -0.0374725455362    -0.175053587575     
2500000000.0        -0.0405530497238    -0.181749511245     0.958584171648      -0.213766933506     0.958584171648      -0.213766933506     -0.0405530497238    -0.181749511245     
2600000000.0        -0.0437404836094    -0.188375188705     0.95535400195       -0.221680750386     0.95535400195       -0.221680750386     -0.0437404836094    -0.188375188705     
2700000000.0        -0.0470327540695    -0.194928449234     0.952017308147      -0.229522917189     0.952017308147      -0.229522917189     -0.0470327540695    -0.194928449234     
2800000000.0        -0.0504277139956    -0.201407197305     0.948576232964      -0.2372913573       0.948576232964      -0.2372913573       -0.0504277139956    -0.201407197305     
2900000000.0        -0.0539231655634    -0.2078094142       0.94503296979       -0.244984070684     0.94503296979       -0.244984070684     -0.0539231655634    -0.2078094142       
3000000000.0        -0.0575168635496    -0.214133159472     0.941389759358      -0.252599135343     0.941389759358      -0.252599135343     -0.0575168635496    -0.214133159472     
3100000000.0        -0.0612065186844    -0.220376572216     0.937648886385      -0.260134708613     0.937648886385      -0.260134708613     -0.0612065186844    -0.220376572216     
3200000000.0        -0.0649898010316    -0.226537872175     0.93381267619       -0.267589028278     0.93381267619       -0.267589028278     -0.0649898010316    -0.226537872175     
3300000000.0        -0.0688643433857    -0.232615360674     0.929883491293      -0.274960413515     0.929883491293      -0.274960413515     -0.0688643433857    -0.232615360674     
3400000000.0        -0.0728277446765    -0.238607421384     0.925863728008      -0.282247265663     0.925863728008      -0.282247265663     -0.0728277446765    -0.238607421384     
3500000000.0        -0.0768775733723    -0.244512520913     0.921755813038      -0.289448068835     0.921755813038      -0.289448068835     -0.0768775733723    -0.244512520913     
3600000000.0        -0.0810113708729    -0.250329209239     0.917562200077      -0.296561390349     0.917562200077      -0.296561390349     -0.0810113708729    -0.250329209239     
3700000000.0        -0.0852266548832    -0.256056119976     0.91328536644       -0.30358588101      0.91328536644       -0.30358588101      -0.0852266548832    -0.256056119976     
3800000000.0        -0.0895209227596    -0.261691970485     0.908927809708      -0.310520275225     0.908927809708      -0.310520275225     -0.0895209227596    -0.261691970485     
3900000000.0        -0.0938916548211    -0.267235561827     0.904492044421      -0.317363390968     0.904492044421      -0.317363390968     -0.0938916548211    -0.267235561827     
4000000000.0        -0.0983363176177    -0.272685778568     0.899980598809      -0.324114129587     0.899980598809      -0.324114129587     -0.0983363176177    -0.272685778568     
4100000000.0        -0.102852367148     -0.278041588441     0.895396011567      -0.330771475476     0.895396011567      -0.330771475476     -0.102852367148     -0.278041588441     
4200000000.0        -0.107437252022     -0.283302041862     0.890740828698      -0.337334495597     0.890740828698      -0.337334495597     -0.107437252022     -0.283302041862     
4300000000.0        -0.112088416557     -0.288466271314     0.886017600412      -0.343802338873     0.886017600412      -0.343802338873     -0.112088416557     -0.288466271314     
4400000000.0        -0.116803303808     -0.293533490603     0.881228878095      -0.350174235445     0.881228878095      -0.350174235445     -0.116803303808     -0.293533490603     
4500000000.0        -0.121579358524     -0.298502993988     0.876377211357      -0.356449495809     0.876377211357      -0.356449495809     -0.121579358524     -0.298502993988     
4600000000.0        -0.12641403002      -0.303374155192     0.871465145152      -0.362627509838     0.871465145152      -0.362627509838     -0.12641403002      -0.303374155192     
4700000000.0        -0.131304774969     -0.308146426307     0.86649521699       -0.368707745685     0.86649521699       -0.368707745685     -0.131304774969     -0.308146426307     
4800000000.0        -0.136249060103     -0.312819336586     0.861469954231      -0.374689748582     0.861469954231      -0.374689748582     -0.136249060103     -0.312819336586     
4900000000.0        -0.141244364825     -0.317392491143     0.85639187148       -0.380573139547     0.85639187148       -0.380573139547     -0.141244364825     -0.317392491143     
5000000000.0        -0.146288183725     -0.321865569556     0.851263468063      -0.386357613991     0.851263468063      -0.386357613991     -0.146288183725     -0.321865569556     
5100000000.0        -0.151378028992     -0.326238324385     0.846087225618      -0.392042940237     0.846087225618      -0.392042940237     -0.151378028992     -0.326238324385     
5200000000.0        -0.156511432733     -0.330510579612     0.840865605774      -0.397628957971     0.840865605774      -0.397628957971     -0.156511432733     -0.330510579612     
5300000000.0        -0.161685949188     -0.334682229007     0.835601047936      -0.403115576603     0.835601047936      -0.403115576603     -0.161685949188     -0.334682229007     
5400000000.0        -0.166899156836     -0.338753234428     0.830295967181      -0.408502773578     0.830295967181      -0.408502773578     -0.166899156836     -0.338753234428     
5500000000.0        -0.172148660398     -0.342723624059     0.824952752248      -0.413790592616     0.824952752248      -0.413790592616     -0.172148660398     -0.342723624059     
5600000000.0        -0.177432092738     -0.346593490595     0.819573763641      -0.418979141898     0.819573763641      -0.418979141898     -0.177432092738     -0.346593490595     
5700000000.0        -0.182747116653     -0.350362989383     0.814161331842      -0.424068592215     0.814161331842      -0.424068592215     -0.182747116653     -0.350362989383     
5800000000.0        -0.188091426555     -0.354032336514     0.80871775562       -0.429059175059     0.80871775562       -0.429059175059     -0.188091426555     -0.354032336514     
5900000000.0        -0.193462750048     -0.35760180689      0.803245300458      -0.433951180694     0.803245300458      -0.433951180694     -0.193462750048     -0.35760180689      
6000000000.0        -0.198858849404     -0.361071732248     0.797746197079      -0.438744956185     0.797746197079      -0.438744956185     -0.198858849404     -0.361071732248     
6100000000.0        -0.204277522924     -0.364442499171     0.79222264008       -0.443440903414     0.79222264008       -0.443440903414     -0.204277522924     -0.364442499171     
6200000000.0        -0.209716606203     -0.367714547078     0.786676786668      -0.448039477064     0.786676786668      -0.448039477064     -0.209716606203     -0.367714547078     
6300000000.0        -0.215173973289     -0.370888366194     0.7811107555        -0.452541182602     0.7811107555        -0.452541182602     -0.215173973289     -0.370888366194     
6400000000.0        -0.220647537739     -0.37396449552      0.775526625627      -0.456946574244     0.775526625627      -0.456946574244     -0.220647537739     -0.37396449552      
6500000000.0        -0.226135253584     -0.376943520793     0.76992643553       -0.461256252923     0.76992643553       -0.461256252923     -0.226135253584     -0.376943520793     
6600000000.0        -0.231635116183     -0.379826072452     0.764312182261      -0.465470864257     0.764312182261      -0.465470864257     -0.231635116183     -0.379826072452     
6700000000.0        -0.237145162998     -0.382612823607     0.758685820673      -0.469591096513     0.758685820673      -0.469591096513     -0.237145162998     -0.382612823607     
6800000000.0        -0.242663474262     -0.385304488017     0.753049262746      -0.473617678598     0.753049262746      -0.473617678598     -0.242663474262     -0.385304488017     
6900000000.0        -0.248188173566     -0.38790181808      0.747404377003      -0.477551378044     0.747404377003      -0.477551378044     -0.248188173566     -0.38790181808      
7000000000.0        -0.253717428357     -0.390405602846     0.741752988011      -0.481392999026     0.741752988011      -0.481392999026     -0.253717428357     -0.390405602846     
7100000000.0        -0.259249450348     -0.392816666046     0.736096875967      -0.48514338039      0.736096875967      -0.48514338039      -0.259249450348     -0.392816666046     
7200000000.0        -0.264782495851     -0.395135864141     0.730437776371      -0.488803393712     0.730437776371      -0.488803393712     -0.264782495851     -0.395135864141     
7300000000.0        -0.270314866027     -0.397364084409     0.724777379766      -0.492373941377     0.724777379766      -0.492373941377     -0.270314866027     -0.397364084409     
7400000000.0        -0.275844907062     -0.399502243052     0.719117331571      -0.495855954693     0.719117331571      -0.495855954693     -0.275844907062     -0.399502243052     
7500000000.0        -0.281371010274     -0.401551283336     0.713459231966      -0.499250392032     0.713459231966      -0.499250392032     -0.281371010274     -0.401551283336     
7600000000.0        -0.286891612143     -0.403512173772     0.707804635866      -0.502558237014     0.707804635866      -0.502558237014     -0.286891612143     -0.403512173772     
7700000000.0        -0.292405194281     -0.405385906324     0.702155052948      -0.505780496715     0.702155052948      -0.505780496715     -0.292405194281     -0.405385906324     
7800000000.0        -0.297910283335     -0.407173494663     0.696511947747      -0.508918199924     0.696511947747      -0.508918199924     -0.297910283335     -0.407173494663     
7900000000.0        -0.303405450833     -0.408875972461     0.69087673981       -0.511972395436     0.69087673981       -0.511972395436     -0.303405450833     -0.408875972461     
8000000000.0        -0.30888931297      -0.410494391718     0.685250803909      -0.514944150386     0.685250803909      -0.514944150386     -0.30888931297      -0.410494391718     
8100000000.0        -0.314360530344     -0.412029821142     0.679635470305      -0.517834548623     0.679635470305      -0.517834548623     -0.314360530344     -0.412029821142     
8200000000.0        -0.319817807634     -0.413483344568     0.674032025068      -0.520644689138     0.674032025068      -0.520644689138     -0.319817807634     -0.413483344568     
8300000000.0        -0.325259893244     -0.414856059424     0.668441710436      -0.523375684525     0.668441710436      -0.523375684525     -0.325259893244     -0.414856059424     
8400000000.0        -0.330685578883     -0.416149075239     0.662865725224      -0.526028659495     0.662865725224      -0.526028659495     -0.330685578883     -0.416149075239     
8500000000.0        -0.336093699123     -0.417363512202     0.657305225279      -0.528604749436     0.657305225279      -0.528604749436     -0.336093699123     -0.417363512202     
8600000000.0        -0.341483130904     -0.418500499764     0.651761323963      -0.531105099011     0.651761323963      -0.531105099011     -0.341483130904     -0.418500499764     
8700000000.0        -0.346852793012     -0.419561175289     0.646235092682      -0.533530860819     0.646235092682      -0.533530860819     -0.346852793012     -0.419561175289     
8800000000.0        -0.352201645515     -0.420546682755     0.640727561442      -0.535883194089     0.640727561442      -0.535883194089     -0.352201645515     -0.420546682755     
8900000000.0        -0.357528689181     -0.421458171494     0.635239719438      -0.538163263428     0.635239719438      -0.538163263428     -0.357528689181     -0.421458171494     
9000000000.0        -0.362832964853     -0.42229679499      0.62977251567       -0.540372237612     0.62977251567       -0.540372237612     -0.362832964853     -0.42229679499      
9100000000.0        -0.368113552811     -0.423063709713     0.624326859585      -0.542511288432     0.624326859585      -0.542511288432     -0.368113552811     -0.423063709713     
9200000000.0        -0.373369572107     -0.423760074013     0.618903621743      -0.544581589579     0.618903621743      -0.544581589579     -0.373369572107     -0.423760074013     
9300000000.0        -0.378600179875     -0.424387047045     0.613503634498      -0.546584315575     0.613503634498      -0.546584315575     -0.378600179875     -0.424387047045     
9400000000.0        -0.38380457063      -0.424945787753     0.608127692707      -0.548520640759     0.608127692707      -0.548520640759     -0.38380457063      -0.424945787753     
9500000000.0        -0.388981975546     -0.425437453894     0.602776554446      -0.550391738308     0.602776554446      -0.550391738308     -0.388981975546     -0.425437453894     
9600000000.0        -0.394131661725     -0.425863201103     0.597450941743      -0.552198779309     0.597450941743      -0.552198779309     -0.394131661725     -0.425863201103     
9700000000.0        -0.399252931443     -0.426224182013     0.592151541326      -0.553942931871     0.592151541326      -0.553942931871     -0.399252931443     -0.426224182013     
9800000000.0        -0.404345121402     -0.426521545406     0.586879005376      -0.555625360286     0.586879005376      -0.555625360286     -0.404345121402     -0.426521545406     
9900000000.0        -0.409407601958     -0.426756435413     0.581633952293      -0.557247224227     0.581633952293      -0.557247224227     -0.409407601958     -0.426756435413     
10000000000.0       -0.414439776357     -0.426929990759     0.576416967466      -0.558809677989     0.576416967466      -0.558809677989     -0.414439776357     -0.426929990759     
