# Hz S RI R 50.00 
100000000.0         0.0146134151781     0.000368229990136   0.985385467819      -0.000488656565273  0.985385467819      -0.000488656565273  0.0146134151781     0.000368229990136   
200000000.0         0.0147082825238     0.000736295449928   0.985290468894      -0.000977148717932  0.985290468894      -0.000977148717932  0.0147082825238     0.000736295449928   
300000000.0         0.0147775558237     0.00110426377796    0.985221049438      -0.00146554393314   0.985221049438      -0.00146554393314   0.0147775558237     0.00110426377796    
400000000.0         0.0148338483542     0.00147215844176    0.985164596175      -0.00195386573893   0.985164596175      -0.00195386573893   0.0148338483542     0.00147215844176    
500000000.0         0.0148820367855     0.00183999265606    0.985116232433      -0.00244212740249   0.985116232433      -0.00244212740249   0.0148820367855     0.00183999265606    
600000000.0         0.0149246176573     0.00220777508178    0.985073461672      -0.00293033763208   0.985073461672      -0.00293033763208   0.0149246176573     0.00220777508178    
700000000.0         0.0149630713305     0.00257551187556    0.985034803532      -0.00341850262796   0.985034803532      -0.00341850262796   0.0149630713305     0.00257551187556    
800000000.0         0.0149983605579     0.00294320764143    0.984999295257      -0.00390662703491   0.984999295257      -0.00390662703491   0.0149983605579     0.00294320764143    
900000000.0         0.0150311528084     0.00331086594245    0.98496626938       -0.00439471445443   0.98496626938       -0.00439471445443   0.0150311528084     0.00331086594245    
1000000000.0        0.0150619331249     0.00367848960381    0.984935240856      -0.00488276774829   0.984935240856      -0.00488276774829   0.0150619331249     0.00367848960381    
1100000000.0        0.015091066954      0.00404608090554    0.984905844239      -0.00537078923147   0.984905844239      -0.00537078923147   0.015091066954      0.00404608090554    
1200000000.0        0.0151188376388     0.00441364171164    0.984877796184      -0.00585878080149   0.984877796184      -0.00585878080149   0.0151188376388     0.00441364171164    
1300000000.0        0.0151454700421     0.00478117356018    0.98485087183       -0.00634674402877   0.98485087183       -0.00634674402877   0.0151454700421     0.00478117356018    
1400000000.0        0.0151711460968     0.00514867772853    0.984824889242      -0.00683468022192   0.984824889242      -0.00683468022192   0.0151711460968     0.00514867772853    
1500000000.0        0.015196015418      0.00551615528175    0.984799698805      -0.00732259047627   0.984799698805      -0.00732259047627   0.015196015418      0.00551615528175    
1600000000.0        0.0152202027667     0.00588360710934    0.984775175757      -0.00781047571073   0.984775175757      -0.00781047571073   0.0152202027667     0.00588360710934    
1700000000.0        0.0152438134363     0.00625103395382    0.984751214804      -0.00829833669641   0.984751214804      -0.00829833669641   0.0152438134363     0.00625103395382    
1800000000.0        0.0152669372281     0.00661843643322    0.984727726146      -0.00878617407923   0.984727726146      -0.00878617407923   0.0152669372281     0.00661843643322    
1900000000.0        0.0152896514411     0.00698581505913    0.984704632481      -0.00927398839796   0.984704632481      -0.00927398839796   0.0152896514411     0.00698581505913    
2000000000.0        0.01531202316       0.00735317025131    0.984681866725      -0.00976178009894   0.984681866725      -0.00976178009894   0.01531202316       0.00735317025131    
2100000000.0        0.015334111033      0.00772050234969    0.98465937023       -0.0102495495481    0.98465937023       -0.0102495495481    0.015334111033      0.00772050234969    
2200000000.0        0.0153559666703     0.00808781162437    0.984637091384      -0.0107372970409    0.984637091384      -0.0107372970409    0.0153559666703     0.00808781162437    
2300000000.0        0.0153776357597     0.0084550982839     0.9846149845        -0.011225022811     0.9846149845        -0.011225022811     0.0153776357597     0.0084550982839     
2400000000.0        0.0153991589646     0.00882236248236    0.984593008912      -0.0117127270368    0.984593008912      -0.0117127270368    0.0153991589646     0.00882236248236    
2500000000.0        0.0154205726547     0.00918960432536    0.984571128252      -0.0122004098481    0.984571128252      -0.0122004098481    0.0154205726547     0.00918960432536    
2600000000.0        0.015441909506      0.00955682387514    0.984549309843      -0.0126880713305    0.984549309843      -0.0126880713305    0.015441909506      0.00955682387514    
2700000000.0        0.0154631989974     0.00992402115499    0.984527524204      -0.0131757115306    0.984527524204      -0.0131757115306    0.0154631989974     0.00992402115499    
2800000000.0        0.0154844678249     0.0102911961531     0.98450574464       -0.0136633304594    0.98450574464       -0.0136633304594    0.0154844678249     0.0102911961531     
2900000000.0        0.0155057402493     0.010658348826      0.984483946889      -0.0141509280958    0.984483946889      -0.0141509280958    0.0155057402493     0.010658348826      
3000000000.0        0.0155270383906     0.0110254791014     0.984462108831      -0.0146385043896    0.984462108831      -0.0146385043896    0.0155270383906     0.0110254791014     
3100000000.0        0.0155483824778     0.0113925868805     0.984440210236      -0.0151260592638    0.984440210236      -0.0151260592638    0.0155483824778     0.0113925868805     
3200000000.0        0.015569791063      0.0117596720409     0.984418232552      -0.0156135926175    0.984418232552      -0.0156135926175    0.015569791063      0.0117596720409     
3300000000.0        0.0155912812053     0.0121267344382     0.984396158718      -0.0161011043274    0.984396158718      -0.0161011043274    0.0155912812053     0.0121267344382     
3400000000.0        0.0156128686293     0.0124937739077     0.984373973009      -0.0165885942495    0.984373973009      -0.0165885942495    0.0156128686293     0.0124937739077     
3500000000.0        0.0156345678636     0.0128607902665     0.984351660896      -0.0170760622215    0.984351660896      -0.0170760622215    0.0156345678636     0.0128607902665     
3600000000.0        0.0156563923604     0.0132277833143     0.984329208928      -0.0175635080636    0.984329208928      -0.0175635080636    0.0156563923604     0.0132277833143     
3700000000.0        0.015678354601      0.0135947528353     0.98430660462       -0.0180509315797    0.98430660462       -0.0180509315797    0.015678354601      0.0135947528353     
3800000000.0        0.0157004661879     0.013961698599      0.984283836371      -0.0185383325594    0.984283836371      -0.0185383325594    0.0157004661879     0.013961698599      
3900000000.0        0.0157227379263     0.0143286203615     0.984260893374      -0.0190257107781    0.984260893374      -0.0190257107781    0.0157227379263     0.0143286203615     
4000000000.0        0.0157451798966     0.0146955178664     0.984237765549      -0.0195130659987    0.984237765549      -0.0195130659987    0.0157451798966     0.0146955178664     
4100000000.0        0.0157678015173     0.0150623908454     0.984214443477      -0.0200003979721    0.984214443477      -0.0200003979721    0.0157678015173     0.0150623908454     
4200000000.0        0.0157906116031     0.0154292390197     0.984190918341      -0.0204877064382    0.984190918341      -0.0204877064382    0.0157906116031     0.0154292390197     
4300000000.0        0.0158136184147     0.0157960621        0.984167181881      -0.0209749911264    0.984167181881      -0.0209749911264    0.0158136184147     0.0157960621        
4400000000.0        0.0158368297049     0.0161628597878     0.984143226343      -0.0214622517567    0.984143226343      -0.0214622517567    0.0158368297049     0.0161628597878     
4500000000.0        0.015860252759      0.0165296317758     0.984119044441      -0.0219494880397    0.984119044441      -0.0219494880397    0.015860252759      0.0165296317758     
4600000000.0        0.015883894432      0.0168963777482     0.984094629319      -0.022436699678     0.984094629319      -0.022436699678     0.015883894432      0.0168963777482     
4700000000.0        0.0159077611811     0.0172630973817     0.98406997452       -0.022923886366     0.98406997452       -0.022923886366     0.0159077611811     0.0172630973817     
4800000000.0        0.0159318590962     0.0176297903456     0.984045073953      -0.0234110477905    0.984045073953      -0.0234110477905    0.0159318590962     0.0176297903456     
4900000000.0        0.0159561939266     0.0179964563024     0.984019921868      -0.0238981836317    0.984019921868      -0.0238981836317    0.0159561939266     0.0179964563024     
5000000000.0        0.0159807711061     0.0183630949083     0.98399451283       -0.0243852935628    0.98399451283       -0.0243852935628    0.0159807711061     0.0183630949083     
5100000000.0        0.0160055957746     0.0187297058133     0.983968841699      -0.0248723772512    0.983968841699      -0.0248723772512    0.0160055957746     0.0187297058133     
5200000000.0        0.0160306727996     0.0190962886618     0.983942903606      -0.0253594343581    0.983942903606      -0.0253594343581    0.0160306727996     0.0190962886618     
5300000000.0        0.0160560067939     0.019462843093      0.983916693939      -0.0258464645395    0.983916693939      -0.0258464645395    0.0160560067939     0.019462843093      
5400000000.0        0.0160816021329     0.0198293687408     0.98389020832       -0.026333467446     0.98389020832       -0.026333467446     0.0160816021329     0.0198293687408     
5500000000.0        0.0161074629707     0.0201958652347     0.983863442595      -0.0268204427234    0.983863442595      -0.0268204427234    0.0161074629707     0.0201958652347     
5600000000.0        0.0161335932537     0.0205623321995     0.983836392816      -0.0273073900129    0.983836392816      -0.0273073900129    0.0161335932537     0.0205623321995     
5700000000.0        0.0161599967342     0.0209287692557     0.983809055232      -0.0277943089513    0.983809055232      -0.0277943089513    0.0161599967342     0.0209287692557     
5800000000.0        0.0161866769827     0.0212951760199     0.983781426269      -0.0282811991711    0.983781426269      -0.0282811991711    0.0161866769827     0.0212951760199     
5900000000.0        0.0162136373984     0.0216615521051     0.98375350253       -0.0287680603011    0.98375350253       -0.0287680603011    0.0162136373984     0.0216615521051     
6000000000.0        0.0162408812203     0.0220278971206     0.983725280772      -0.0292548919662    0.983725280772      -0.0292548919662    0.0162408812203     0.0220278971206     
6100000000.0        0.0162684115362     0.022394210672      0.983696757909      -0.0297416937881    0.983696757909      -0.0297416937881    0.0162684115362     0.022394210672      
6200000000.0        0.0162962312918     0.0227604923623     0.983667930993      -0.0302284653848    0.983667930993      -0.0302284653848    0.0162962312918     0.0227604923623     
6300000000.0        0.0163243432989     0.0231267417911     0.983638797212      -0.0307152063714    0.983638797212      -0.0307152063714    0.0163243432989     0.0231267417911     
6400000000.0        0.0163527502427     0.0234929585551     0.98360935388       -0.0312019163598    0.98360935388       -0.0312019163598    0.0163527502427     0.0234929585551     
6500000000.0        0.0163814546893     0.0238591422485     0.983579598429      -0.0316885949592    0.983579598429      -0.0316885949592    0.0163814546893     0.0238591422485     
6600000000.0        0.0164104590917     0.0242252924628     0.983549528407      -0.0321752417762    0.983549528407      -0.0321752417762    0.0164104590917     0.0242252924628     
6700000000.0        0.0164397657967     0.0245914087871     0.983519141465      -0.0326618564145    0.983519141465      -0.0326618564145    0.0164397657967     0.0245914087871     
6800000000.0        0.0164693770498     0.0249574908081     0.983488435357      -0.0331484384757    0.983488435357      -0.0331484384757    0.0164693770498     0.0249574908081     
6900000000.0        0.016499295001      0.0253235381105     0.983457407932      -0.033634987559     0.983457407932      -0.033634987559     0.016499295001      0.0253235381105     
7000000000.0        0.0165295217094     0.0256895502767     0.98342605713       -0.0341215032612    0.98342605713       -0.0341215032612    0.0165295217094     0.0256895502767     
7100000000.0        0.0165600591485     0.0260555268872     0.983394380978      -0.0346079851773    0.983394380978      -0.0346079851773    0.0165600591485     0.0260555268872     
7200000000.0        0.0165909092097     0.0264214675208     0.983362377581      -0.0350944329003    0.983362377581      -0.0350944329003    0.0165909092097     0.0264214675208     
7300000000.0        0.0166220737071     0.0267873717543     0.983330045127      -0.035580846021     0.983330045127      -0.035580846021     0.0166220737071     0.0267873717543     
7400000000.0        0.0166535543807     0.0271532391629     0.983297381872      -0.0360672241288    0.983297381872      -0.0360672241288    0.0166535543807     0.0271532391629     
7500000000.0        0.0166853529006     0.0275190693202     0.983264386148      -0.0365535668112    0.983264386148      -0.0365535668112    0.0166853529006     0.0275190693202     
7600000000.0        0.0167174708698     0.0278848617984     0.983231056349      -0.037039873654     0.983231056349      -0.037039873654     0.0167174708698     0.0278848617984     
7700000000.0        0.0167499098278     0.0282506161681     0.983197390935      -0.0375261442417    0.983197390935      -0.0375261442417    0.0167499098278     0.0282506161681     
7800000000.0        0.0167826712533     0.0286163319985     0.983163388427      -0.0380123781572    0.983163388427      -0.0380123781572    0.0167826712533     0.0286163319985     
7900000000.0        0.0168157565672     0.0289820088578     0.983129047403      -0.0384985749819    0.983129047403      -0.0384985749819    0.0168157565672     0.0289820088578     
8000000000.0        0.0168491671349     0.0293476463127     0.983094366497      -0.0389847342961    0.983094366497      -0.0389847342961    0.0168491671349     0.0293476463127     
8100000000.0        0.0168829042692     0.0297132439288     0.983059344394      -0.0394708556787    0.983059344394      -0.0394708556787    0.0168829042692     0.0297132439288     
8200000000.0        0.0169169692326     0.0300788012707     0.983023979831      -0.0399569387074    0.983023979831      -0.0399569387074    0.0169169692326     0.0300788012707     
8300000000.0        0.0169513632391     0.0304443179019     0.982988271594      -0.0404429829589    0.982988271594      -0.0404429829589    0.0169513632391     0.0304443179019     
8400000000.0        0.0169860874567     0.030809793385      0.982952218513      -0.0409289880088    0.982952218513      -0.0409289880088    0.0169860874567     0.030809793385      
8500000000.0        0.0170211430095     0.0311752272814     0.982915819464      -0.0414149534315    0.982915819464      -0.0414149534315    0.0170211430095     0.0311752272814     
8600000000.0        0.0170565309789     0.0315406191519     0.982879073363      -0.0419008788005    0.982879073363      -0.0419008788005    0.0170565309789     0.0315406191519     
8700000000.0        0.0170922524062     0.0319059685564     0.982841979169      -0.0423867636886    0.982841979169      -0.0423867636886    0.0170922524062     0.0319059685564     
8800000000.0        0.0171283082937     0.0322712750541     0.982804535879      -0.0428726076674    0.982804535879      -0.0428726076674    0.0171283082937     0.0322712750541     
8900000000.0        0.0171646996067     0.0326365382032     0.982766742525      -0.0433584103079    0.982766742525      -0.0433584103079    0.0171646996067     0.0326365382032     
9000000000.0        0.0172014272744     0.0330017575614     0.982728598179      -0.0438441711803    0.982728598179      -0.0438441711803    0.0172014272744     0.0330017575614     
9100000000.0        0.0172384921923     0.0333669326857     0.982690101943      -0.0443298898539    0.982690101943      -0.0443298898539    0.0172384921923     0.0333669326857     
9200000000.0        0.0172758952225     0.0337320631326     0.982651252954      -0.0448155658975    0.982651252954      -0.0448155658975    0.0172758952225     0.0337320631326     
9300000000.0        0.0173136371959     0.0340971484578     0.98261205038       -0.0453011988791    0.98261205038       -0.0453011988791    0.0173136371959     0.0340971484578     
9400000000.0        0.0173517189127     0.0344621882166     0.982572493421      -0.0457867883661    0.982572493421      -0.0457867883661    0.0173517189127     0.0344621882166     
9500000000.0        0.0173901411442     0.0348271819638     0.982532581303      -0.0462723339253    0.982532581303      -0.0462723339253    0.0173901411442     0.0348271819638     
9600000000.0        0.0174289046333     0.0351921292536     0.982492313283      -0.046757835123     0.982492313283      -0.046757835123     0.0174289046333     0.0351921292536     
9700000000.0        0.0174680100961     0.0355570296399     0.982451688644      -0.0472432915249    0.982451688644      -0.0472432915249    0.0174680100961     0.0355570296399     
9800000000.0        0.0175074582228     0.0359218826761     0.982410706694      -0.0477287026963    0.982410706694      -0.0477287026963    0.0175074582228     0.0359218826761     
9900000000.0        0.0175472496782     0.0362866879152     0.982369366768      -0.0482140682019    0.982369366768      -0.0482140682019    0.0175472496782     0.0362866879152     
10000000000.0       0.0175873851033     0.0366514449099     0.982327668224      -0.0486993876062    0.982327668224      -0.0486993876062    0.0175873851033     0.0366514449099     
