# Hz S RI R 50.00 
100000000.0         0.000295096944651   -0.00168357702884   0.999687115525      -0.00322825036223   0.999687115525      -0.00322825036223   0.000295096944651   -0.00168357702884   
200000000.0         0.000278476230473   -0.00336715172423   0.999662818452      -0.00645652794267   0.999662818452      -0.00645652794267   0.000278476230473   -0.00336715172423   
300000000.0         0.000250454137291   -0.00505068944409   0.999625789764      -0.00968482494491   0.999625789764      -0.00968482494491   0.00025045413729    -0.00505068944409   
400000000.0         0.000211291476489   -0.00673414553499   0.999575765592      -0.0129131154879    0.999575765592      -0.0129131154879    0.000211291476489   -0.00673414553499   
500000000.0         0.000161087682434   -0.00841746968788   0.999512643455      -0.0161413648915    0.999512643455      -0.0161413648915    0.000161087682434   -0.00841746968788   
600000000.0         9.98928771452e-05   -0.0101006077158    0.999436370406      -0.0193695327247    0.999436370406      -0.0193695327247    9.98928771454e-05   -0.0101006077158    
700000000.0         2.77363679067e-05   -0.0117835025024    0.999346914673      -0.022597574338     0.999346914673      -0.022597574338     2.77363679064e-05   -0.0117835025024    
800000000.0         -5.5362935479e-05   -0.0134660945874    0.999244255362      -0.0258254417748    0.999244255362      -0.0258254417748    -5.5362935479e-05   -0.0134660945874    
900000000.0         -0.000149391867588  -0.0151483225614    0.999128377896      -0.0290530843745    0.999128377896      -0.0290530843745    -0.000149391867588  -0.0151483225614    
1000000000.0        -0.00025434063666   -0.0168301233512    0.998999271718      -0.0322804491974    0.998999271718      -0.0322804491974    -0.00025434063666   -0.0168301233512    
1100000000.0        -0.00037020149676   -0.0185114324341    0.998856929035      -0.03550748134      0.998856929035      -0.03550748134      -0.00037020149676   -0.0185114324341    
1200000000.0        -0.000496967948381  -0.0201921840058    0.998701344078      -0.0387341241792    0.998701344078      -0.0387341241792    -0.000496967948381  -0.0201921840058    
1300000000.0        -0.000634634228694  -0.0218723111157    0.998532512638      -0.0419603195655    0.998532512638      -0.0419603195655    -0.000634634228694  -0.0218723111157    
1400000000.0        -0.000783194970782  -0.0235517457789    0.99835043178       -0.0451860079812    0.99835043178       -0.0451860079812    -0.000783194970782  -0.0235517457789    
1500000000.0        -0.000942644966613  -0.0252304190701    0.998155099647      -0.0484111286719    0.998155099647      -0.0484111286719    -0.000942644966613  -0.0252304190701    
1600000000.0        -0.00111297899643   -0.0269082612043    0.997946515322      -0.0516356197581    0.997946515322      -0.0516356197581    -0.00111297899643   -0.0269082612043    
1700000000.0        -0.00129419170224   -0.028585201607     0.997724678746      -0.0548594183307    0.997724678746      -0.0548594183307    -0.00129419170224   -0.028585201607     
1800000000.0        -0.0014862774916    -0.0302611689762    0.997489590649      -0.0580824605351    0.997489590649      -0.0580824605351    -0.0014862774916    -0.0302611689762    
1900000000.0        -0.00168923046258   -0.0319360913373    0.997241252507      -0.061304681645     0.997241252507      -0.061304681645     -0.00168923046258   -0.0319360913373    
2000000000.0        -0.0019030443442    -0.0336098960934    0.996979666509      -0.0645260161276    0.996979666509      -0.0645260161276    -0.0019030443442    -0.0336098960934    
2100000000.0        -0.00212771244812   -0.0352825100696    0.996704835538      -0.0677463977034    0.996704835538      -0.0677463977034    -0.00212771244812   -0.0352825100696    
2200000000.0        -0.00236322762896   -0.0369538595554    0.996416763151      -0.0709657593997    0.996416763151      -0.0709657593997    -0.00236322762896   -0.0369538595554    
2300000000.0        -0.00260958225112   -0.0386238703421    0.996115453574      -0.0741840335993    0.996115453574      -0.0741840335993    -0.00260958225112   -0.0386238703421    
2400000000.0        -0.0028667681607    -0.0402924677587    0.995800911688      -0.0774011520862    0.995800911688      -0.0774011520862    -0.0028667681607    -0.0402924677587    
2500000000.0        -0.00313477666152   -0.0419595767048    0.995473143032      -0.0806170460868    0.995473143032      -0.0806170460868    -0.00313477666152   -0.0419595767048    
2600000000.0        -0.00341359849441   -0.0436251216821    0.995132153796      -0.0838316463092    0.995132153796      -0.0838316463092    -0.00341359849441   -0.0436251216821    
2700000000.0        -0.00370322381915   -0.0452890268232    0.994777950819      -0.087044882979     0.994777950819      -0.087044882979     -0.00370322381915   -0.0452890268232    
2800000000.0        -0.00400364219858   -0.0469512159199    0.994410541594      -0.0902566858741    0.994410541594      -0.0902566858741    -0.00400364219858   -0.0469512159199    
2900000000.0        -0.00431484258468   -0.0486116124494    0.994029934265      -0.0934669843563    0.994029934265      -0.0934669843563    -0.00431484258468   -0.0486116124494    
3000000000.0        -0.0046368133061    -0.0502701395996    0.993636137628      -0.096675707402     0.993636137628      -0.096675707402     -0.0046368133061    -0.0502701395996    
3100000000.0        -0.00496954205712   -0.0519267202931    0.993229161137      -0.0998827836311    0.993229161137      -0.0998827836311    -0.00496954205712   -0.0519267202931    
3200000000.0        -0.00531301588772   -0.0535812772105    0.9928090149        -0.103088141335     0.9928090149        -0.103088141335     -0.00531301588772   -0.0535812772105    
3300000000.0        -0.00566722119474   -0.0552337328127    0.992375709685      -0.106291708501     0.992375709685      -0.106291708501     -0.00566722119474   -0.0552337328127    
3400000000.0        -0.00603214371394   -0.0568840093626    0.991929256922      -0.109493412842     0.991929256922      -0.109493412842     -0.00603214371394   -0.0568840093626    
3500000000.0        -0.00640776851279   -0.0585320289454    0.991469668705      -0.112693181816     0.991469668705      -0.112693181816     -0.00640776851279   -0.0585320289454    
3600000000.0        -0.00679407998411   -0.0601777134891    0.990996957791      -0.11589094265      0.990996957791      -0.11589094265      -0.00679407998411   -0.0601777134891    
3700000000.0        -0.00719106184027   -0.061820984784     0.990511137609      -0.119086622367     0.990511137609      -0.119086622367     -0.00719106184027   -0.061820984784     
3800000000.0        -0.00759869710806   -0.0634617645016    0.990012222253      -0.122280147802     0.990012222253      -0.122280147802     -0.00759869710806   -0.0634617645016    
3900000000.0        -0.00801696812412   -0.0650999742128    0.98950022649       -0.125471445627     0.98950022649       -0.125471445627     -0.00801696812412   -0.0650999742128    
4000000000.0        -0.0084458565308    -0.0667355354066    0.988975165762      -0.12866044237      0.988975165762      -0.12866044237      -0.0084458565308    -0.0667355354066    
4100000000.0        -0.0088853432726    -0.0683683695066    0.988437056181      -0.131847064433     0.988437056181      -0.131847064433     -0.0088853432726    -0.0683683695066    
4200000000.0        -0.00933540859298   -0.0699983978892    0.987885914539      -0.135031238115     0.987885914539      -0.135031238115     -0.00933540859298   -0.0699983978892    
4300000000.0        -0.00979603203169   -0.0716255418993    0.987321758301      -0.138212889629     0.987321758301      -0.138212889629     -0.00979603203169   -0.0716255418993    
4400000000.0        -0.0102671924223    -0.0732497228676    0.986744605611      -0.141391945118     0.986744605611      -0.141391945118     -0.0102671924223    -0.0732497228676    
4500000000.0        -0.0107488678905    -0.0748708621257    0.986154475291      -0.144568330677     0.986154475291      -0.144568330677     -0.0107488678905    -0.0748708621257    
4600000000.0        -0.0112410358521    -0.0764888810227    0.985551386842      -0.147741972366     0.985551386842      -0.147741972366     -0.0112410358521    -0.0764888810227    
4700000000.0        -0.011743673012     -0.0781037009397    0.984935360443      -0.150912796231     0.984935360443      -0.150912796231     -0.011743673012     -0.0781037009397    
4800000000.0        -0.0122567553633    -0.0797152433055    0.98430641695       -0.154080728316     0.98430641695       -0.154080728316     -0.0122567553633    -0.0797152433055    
4900000000.0        -0.0127802581866    -0.081323429611     0.9836645779        -0.157245694686     0.9836645779        -0.157245694686     -0.0127802581866    -0.081323429611     
5000000000.0        -0.0133141560495    -0.082928181424     0.983009865507      -0.160407621433     0.983009865507      -0.160407621433     -0.0133141560495    -0.082928181424     
5100000000.0        -0.0138584228067    -0.0845294204031    0.982342302662      -0.163566434702     0.982342302662      -0.163566434702     -0.0138584228067    -0.0845294204031    
5200000000.0        -0.0144130316002    -0.0861270683123    0.981661912932      -0.166722060698     0.981661912932      -0.166722060698     -0.0144130316002    -0.0861270683123    
5300000000.0        -0.0149779548598    -0.0877210470339    0.980968720562      -0.169874425707     0.980968720562      -0.169874425707     -0.0149779548598    -0.0877210470339    
5400000000.0        -0.0155531643038    -0.0893112785829    0.980262750468      -0.173023456104     0.980262750468      -0.173023456104     -0.0155531643038    -0.0893112785829    
5500000000.0        -0.01613863094      -0.0908976851195    0.979544028241      -0.176169078375     0.979544028241      -0.176169078375     -0.01613863094      -0.0908976851195    
5600000000.0        -0.016734325067     -0.0924801889629    0.978812580141      -0.179311219124     0.978812580141      -0.179311219124     -0.016734325067     -0.0924801889629    
5700000000.0        -0.0173402162755    -0.0940587126037    0.9780684331        -0.182449805092     0.9780684331        -0.182449805092     -0.0173402162755    -0.0940587126037    
5800000000.0        -0.0179562734501    -0.0956331787165    0.977311614714      -0.185584763165     0.977311614714      -0.185584763165     -0.0179562734501    -0.0956331787165    
5900000000.0        -0.0185824647711    -0.0972035101728    0.976542153247      -0.188716020396     0.976542153247      -0.188716020396     -0.0185824647711    -0.0972035101728    
6000000000.0        -0.019218757717     -0.0987696300528    0.975760077624      -0.191843504007     0.975760077624      -0.191843504007     -0.019218757717     -0.0987696300528    
6100000000.0        -0.0198651190663    -0.100331461657     0.974965417429      -0.19496714141      0.974965417429      -0.19496714141      -0.0198651190663    -0.100331461657     
6200000000.0        -0.0205215149003    -0.101888928521     0.974158202905      -0.198086860217     0.974158202905      -0.198086860217     -0.0205215149003    -0.101888928521     
6300000000.0        -0.0211879106059    -0.103441954421     0.973338464948      -0.201202588253     0.973338464948      -0.201202588253     -0.0211879106059    -0.103441954421     
6400000000.0        -0.0218642708783    -0.104990463392     0.972506235106      -0.204314253565     0.972506235106      -0.204314253565     -0.0218642708783    -0.104990463392     
6500000000.0        -0.0225505597242    -0.106534379736     0.971661545573      -0.207421784437     0.971661545573      -0.207421784437     -0.0225505597242    -0.106534379736     
6600000000.0        -0.0232467404653    -0.108073628032     0.97080442919       -0.210525109403     0.97080442919       -0.210525109403     -0.0232467404653    -0.108073628032     
6700000000.0        -0.0239527757413    -0.109608133149     0.969934919436      -0.213624157254     0.969934919436      -0.213624157254     -0.0239527757413    -0.109608133149     
6800000000.0        -0.024668627514     -0.111137820256     0.969053050428      -0.216718857053     0.969053050428      -0.216718857053     -0.024668627514     -0.111137820256     
6900000000.0        -0.0253942570709    -0.112662614832     0.968158856916      -0.219809138144     0.968158856916      -0.219809138144     -0.0253942570709    -0.112662614832     
7000000000.0        -0.0261296250291    -0.11418244268      0.967252374279      -0.222894930164     0.967252374279      -0.222894930164     -0.0261296250291    -0.11418244268      
7100000000.0        -0.0268746913394    -0.115697229929     0.966333638518      -0.225976163055     0.966333638518      -0.225976163055     -0.0268746913394    -0.115697229929     
7200000000.0        -0.0276294152909    -0.117206903054     0.965402686258      -0.229052767069     0.965402686258      -0.229052767069     -0.0276294152909    -0.117206903054     
7300000000.0        -0.028393755515     -0.118711388879     0.964459554736      -0.232124672786     0.964459554736      -0.232124672786     -0.028393755515     -0.118711388879     
7400000000.0        -0.0291676699903    -0.120210614589     0.963504281803      -0.235191811119     0.963504281803      -0.235191811119     -0.0291676699903    -0.120210614589     
7500000000.0        -0.0299511160471    -0.121704507742     0.962536905913      -0.238254113324     0.962536905913      -0.238254113324     -0.0299511160471    -0.121704507742     
7600000000.0        -0.0307440503727    -0.123192996272     0.961557466123      -0.241311511012     0.961557466123      -0.241311511012     -0.0307440503727    -0.123192996272     
7700000000.0        -0.0315464290156    -0.124676008506     0.960566002084      -0.244363936159     0.960566002084      -0.244363936159     -0.0315464290156    -0.124676008506     
7800000000.0        -0.0323582073914    -0.126153473166     0.959562554041      -0.247411321112     0.959562554041      -0.247411321112     -0.0323582073914    -0.126153473166     
7900000000.0        -0.0331793402878    -0.127625319385     0.95854716282       -0.2504535986       0.95854716282       -0.2504535986       -0.0331793402878    -0.127625319385     
8000000000.0        -0.0340097818698    -0.12909147671      0.95751986983       -0.253490701745     0.95751986983       -0.253490701745     -0.0340097818698    -0.12909147671      
8100000000.0        -0.0348494856855    -0.130551875111     0.956480717054      -0.256522564068     0.956480717054      -0.256522564068     -0.0348494856855    -0.130551875111     
8200000000.0        -0.0356984046715    -0.132006444995     0.95542974704       -0.259549119498     0.95542974704       -0.259549119498     -0.0356984046715    -0.132006444995     
8300000000.0        -0.0365564911588    -0.133455117207     0.954367002904      -0.262570302383     0.954367002904      -0.262570302383     -0.0365564911588    -0.133455117207     
8400000000.0        -0.0374236968788    -0.134897823044     0.953292528314      -0.265586047496     0.953292528314      -0.265586047496     -0.0374236968788    -0.134897823044     
8500000000.0        -0.0382999729686    -0.136334494258     0.952206367492      -0.268596290044     0.952206367492      -0.268596290044     -0.0382999729686    -0.136334494258     
8600000000.0        -0.0391852699781    -0.13776506307      0.951108565203      -0.271600965675     0.951108565203      -0.271600965675     -0.0391852699781    -0.13776506307      
8700000000.0        -0.0400795378754    -0.139189462171     0.94999916675       -0.274600010487     0.94999916675       -0.274600010487     -0.0400795378754    -0.139189462171     
8800000000.0        -0.0409827260531    -0.140607624733     0.948878217967      -0.277593361036     0.948878217967      -0.277593361036     -0.0409827260531    -0.140607624733     
8900000000.0        -0.0418947833352    -0.142019484417     0.947745765217      -0.280580954344     0.947745765217      -0.280580954344     -0.0418947833352    -0.142019484417     
9000000000.0        -0.0428156579833    -0.143424975378     0.946601855377      -0.283562727902     0.946601855377      -0.283562727902     -0.0428156579833    -0.143424975378     
9100000000.0        -0.0437452977027    -0.144824032275     0.945446535841      -0.286538619683     0.945446535841      -0.286538619683     -0.0437452977027    -0.144824032275     
9200000000.0        -0.04468364965      -0.146216590274     0.944279854505      -0.289508568146     0.944279854505      -0.289508568146     -0.04468364965      -0.146216590274     
9300000000.0        -0.0456306604389    -0.147602585058     0.943101859765      -0.292472512243     0.943101859765      -0.292472512243     -0.0456306604389    -0.147602585058     
9400000000.0        -0.0465862761476    -0.148981952832     0.941912600509      -0.295430391426     0.941912600509      -0.295430391426     -0.0465862761476    -0.148981952832     
9500000000.0        -0.0475504423255    -0.150354630331     0.94071212611       -0.298382145653     0.94071212611       -0.298382145653     -0.0475504423255    -0.150354630331     
9600000000.0        -0.0485231040001    -0.151720554823     0.939500486417      -0.301327715397     0.939500486417      -0.301327715397     -0.0485231040001    -0.151720554823     
9700000000.0        -0.0495042056842    -0.153079664119     0.938277731752      -0.304267041647     0.938277731752      -0.304267041647     -0.0495042056842    -0.153079664119     
9800000000.0        -0.050493691383     -0.154431896578     0.9370439129        -0.30720006592      0.9370439129        -0.30720006592      -0.050493691383     -0.154431896578     
9900000000.0        -0.051491504601     -0.15577719111      0.935799081101      -0.310126730262     0.935799081101      -0.310126730262     -0.051491504601     -0.15577719111      
10000000000.0       -0.0524975883498    -0.157115487186     0.934543288045      -0.313046977258     0.934543288045      -0.313046977258     -0.0524975883498    -0.157115487186     
