# Hz S RI R 50.00 
100000000.0         0.000659101049083   -0.000479698868724  0.999328766645      -0.00338440020144   0.999328766645      -0.00338440020144   0.000659101049083   -0.000479698868725  
200000000.0         0.000656860645282   -0.000959436212577  0.999304938905      -0.0067688302092    0.999304938905      -0.0067688302092    0.000656860645282   -0.000959436212577  
300000000.0         0.000650215171756   -0.00143920405066   0.999270578147      -0.0101533147183    0.999270578147      -0.0101533147183    0.000650215171756   -0.00143920405066   
400000000.0         0.000639737178599   -0.00191899481593   0.99922510898       -0.0135378582147    0.99922510898       -0.0135378582147    0.000639737178599   -0.00191899481593   
500000000.0         0.000625646096344   -0.00239879917208   0.999168308729      -0.0169224567507    0.999168308729      -0.0169224567507    0.000625646096344   -0.00239879917208   
600000000.0         0.000608053081398   -0.0028786062055    0.999100062693      -0.0203071011511    0.999100062693      -0.0203071011511    0.000608053081399   -0.0028786062055    
700000000.0         0.000587023219889   -0.00335840366366   0.999020302026      -0.0236917785224    0.999020302026      -0.0236917785224    0.000587023219889   -0.00335840366366   
800000000.0         0.000562598222786   -0.00383817814586   0.998928981103      -0.0270764731178    0.998928981103      -0.0270764731178    0.000562598222786   -0.00383817814586   
900000000.0         0.000534806531252   -0.00431791525083   0.998826067467      -0.0304611668921    0.998826067467      -0.0304611668921    0.000534806531252   -0.00431791525083   
1000000000.0        0.000503668441202   -0.00479759969228   0.998711536748      -0.0338458398843    0.998711536748      -0.0338458398843    0.000503668441202   -0.00479759969228   
1100000000.0        0.000469198954832   -0.00527721539142   0.998585369843      -0.037230470498     0.998585369843      -0.037230470498     0.000469198954832   -0.00527721539142   
1200000000.0        0.000431409482532   -0.00575674555236   0.998447551255      -0.0406150357124    0.998447551255      -0.0406150357124    0.000431409482532   -0.00575674555236   
1300000000.0        0.000390308916203   -0.00623617272496   0.998298068042      -0.0439995112488    0.998298068042      -0.0439995112488    0.000390308916203   -0.00623617272496   
1400000000.0        0.00034590433701    -0.00671547885788   0.998136909139      -0.0473838717041    0.998136909139      -0.0473838717041    0.00034590433701    -0.00671547885788   
1500000000.0        0.000298201499701   -0.00719464534425   0.997964064895      -0.0507680906593    0.997964064895      -0.0507680906593    0.000298201499701   -0.00719464534425   
1600000000.0        0.000247205174536   -0.00767365306121   0.997779526753      -0.0541521407716    0.997779526753      -0.0541521407716    0.000247205174536   -0.00767365306121   
1700000000.0        0.0001929193953     -0.00815248240485   0.997583287023      -0.0575359938511    0.997583287023      -0.0575359938511    0.0001929193953     -0.00815248240485   
1800000000.0        0.000135347643432   -0.00863111332109   0.997375338713      -0.0609196209274    0.997375338713      -0.0609196209274    0.000135347643432   -0.00863111332109   
1900000000.0        7.44929876018e-05   -0.00910952533347   0.997155675413      -0.0643029923068    0.997155675413      -0.0643029923068    7.4492987602e-05    -0.00910952533347   
2000000000.0        1.03581914597e-05   -0.00958769756816   0.996924291193      -0.0676860776233    0.996924291193      -0.0676860776233    1.03581914599e-05   -0.00958769756816   
2100000000.0        -5.70542017828e-05  -0.0100656087768    0.996681180542      -0.0710688458825    0.996681180542      -0.0710688458825    -5.70542017828e-05  -0.0100656087768    
2200000000.0        -0.000127741801982  -0.0105432373572    0.996426338311      -0.0744512655016    0.996426338311      -0.0744512655016    -0.000127741801982  -0.0105432373572    
2300000000.0        -0.000201702317637  -0.0110205613729    0.996159759669      -0.077833304345     0.996159759669      -0.077833304345     -0.000201702317637  -0.0110205613729    
2400000000.0        -0.00027893351141   -0.0114975585704    0.995881440075      -0.0812149297565    0.995881440075      -0.0812149297565    -0.000278933511411  -0.0114975585704    
2500000000.0        -0.000359433163326  -0.0119742063961    0.99559137525       -0.0845961085882    0.99559137525       -0.0845961085882    -0.000359433163326  -0.0119742063961    
2600000000.0        -0.000443199040023  -0.0124504820118    0.995289561158      -0.0879768072275    0.995289561158      -0.0879768072275    -0.000443199040023  -0.0124504820118    
2700000000.0        -0.000530228868805  -0.0129263623085    0.994975993989      -0.091356991621     0.994975993989      -0.091356991621     -0.000530228868805  -0.0129263623085    
2800000000.0        -0.000620520315557  -0.0134018239209    0.994650670148      -0.0947366272976    0.994650670148      -0.0947366272976    -0.000620520315557  -0.0134018239209    
2900000000.0        -0.000714070965776  -0.0138768432394    0.994313586244      -0.0981156793886    0.994313586244      -0.0981156793886    -0.000714070965776  -0.0138768432394    
3000000000.0        -0.000810878308166  -0.0143513964229    0.993964739084      -0.101494112647     0.993964739084      -0.101494112647     -0.000810878308166  -0.0143513964229    
3100000000.0        -0.000910939720361  -0.0148254594098    0.993604125662      -0.104871891467     0.993604125662      -0.104871891467     -0.000910939720361  -0.0148254594098    
3200000000.0        -0.00101425245639   -0.0152990079294    0.993231743163      -0.108248979898     0.993231743163      -0.108248979898     -0.00101425245639   -0.0152990079294    
3300000000.0        -0.00112081363561   -0.0157720175121    0.992847588949      -0.111625341662     0.992847588949      -0.111625341662     -0.00112081363561   -0.0157720175121    
3400000000.0        -0.00123062023295   -0.0162444634994    0.992451660564      -0.115000940168     0.992451660564      -0.115000940168     -0.00123062023295   -0.0162444634994    
3500000000.0        -0.00134366907013   -0.0167163210536    0.992043955729      -0.118375738527     0.992043955729      -0.118375738527     -0.00134366907013   -0.0167163210536    
3600000000.0        -0.00145995680785   -0.0171875651668    0.991624472339      -0.121749699562     0.991624472339      -0.121749699562     -0.00145995680785   -0.0171875651668    
3700000000.0        -0.00157947993876   -0.01765817067      0.991193208466      -0.125122785824     0.991193208466      -0.125122785824     -0.00157947993876   -0.01765817067      
3800000000.0        -0.0017022347811    -0.0181281122413    0.990750162352      -0.1284949596       0.990750162352      -0.1284949596       -0.0017022347811    -0.0181281122413    
3900000000.0        -0.00182821747296   -0.0185973644142    0.990295332416      -0.131866182929     0.990295332416      -0.131866182929     -0.00182821747296   -0.0185973644142    
4000000000.0        -0.00195742396701   -0.0190659015858    0.989828717248      -0.135236417607     0.989828717248      -0.135236417607     -0.00195742396701   -0.0190659015858    
4100000000.0        -0.00208985002575   -0.0195336980239    0.989350315613      -0.1386056252       0.989350315613      -0.1386056252       -0.00208985002576   -0.0195336980239    
4200000000.0        -0.0022254912172    -0.0200007278747    0.988860126448      -0.141973767055     0.988860126448      -0.141973767055     -0.0022254912172    -0.0200007278747    
4300000000.0        -0.00236434291081   -0.0204669651701    0.988358148865      -0.145340804306     0.988358148865      -0.145340804306     -0.00236434291081   -0.0204669651701    
4400000000.0        -0.00250640027388   -0.0209323838344    0.987844382151      -0.148706697885     0.987844382151      -0.148706697885     -0.00250640027388   -0.0209323838344    
4500000000.0        -0.00265165826818   -0.0213969576912    0.987318825766      -0.152071408527     0.987318825766      -0.152071408527     -0.00265165826818   -0.0213969576912    
4600000000.0        -0.00280011164682   -0.0218606604698    0.986781479348      -0.155434896785     0.986781479348      -0.155434896785     -0.00280011164682   -0.0218606604698    
4700000000.0        -0.00295175495145   -0.0223234658119    0.986232342711      -0.158797123031     0.986232342711      -0.158797123031     -0.00295175495145   -0.0223234658119    
4800000000.0        -0.00310658250957   -0.0227853472776    0.985671415843      -0.162158047464     0.985671415843      -0.162158047464     -0.00310658250957   -0.0227853472776    
4900000000.0        -0.00326458843215   -0.0232462783513    0.985098698915      -0.165517630123     0.985098698915      -0.165517630123     -0.00326458843215   -0.0232462783513    
5000000000.0        -0.00342576661139   -0.023706232448     0.984514192271      -0.168875830888     0.984514192271      -0.168875830888     -0.00342576661139   -0.023706232448     
5100000000.0        -0.00359011071862   -0.0241651829189    0.983917896439      -0.172232609486     0.983917896439      -0.172232609486     -0.00359011071862   -0.0241651829189    
5200000000.0        -0.00375761420243   -0.0246231030568    0.983309812125      -0.175587925504     0.983309812125      -0.175587925504     -0.00375761420243   -0.0246231030568    
5300000000.0        -0.00392827028691   -0.025079966102     0.982689940214      -0.178941738389     0.982689940214      -0.178941738389     -0.00392827028691   -0.025079966102     
5400000000.0        -0.00410207197001   -0.0255357452474    0.982058281775      -0.182294007456     0.982058281775      -0.182294007456     -0.00410207197001   -0.0255357452474    
5500000000.0        -0.00427901202206   -0.0259904136439    0.981414838058      -0.185644691894     0.981414838058      -0.185644691894     -0.00427901202206   -0.0259904136439    
5600000000.0        -0.00445908298444   -0.0264439444054    0.980759610497      -0.188993750772     0.980759610497      -0.188993750772     -0.00445908298444   -0.0264439444054    
5700000000.0        -0.00464227716827   -0.0268963106143    0.980092600707      -0.192341143043     0.980092600707      -0.192341143043     -0.00464227716827   -0.0268963106143    
5800000000.0        -0.0048285866533    -0.0273474853257    0.979413810489      -0.195686827552     0.979413810489      -0.195686827552     -0.0048285866533    -0.0273474853257    
5900000000.0        -0.00501800328688   -0.027797441573     0.978723241829      -0.199030763036     0.978723241829      -0.199030763036     -0.00501800328688   -0.027797441573     
6000000000.0        -0.00521051868296   -0.0282461523722    0.978020896896      -0.202372908136     0.978020896896      -0.202372908136     -0.00521051868296   -0.0282461523722    
6100000000.0        -0.00540612422131   -0.0286935907267    0.977306778048      -0.205713221394     0.977306778048      -0.205713221394     -0.00540612422131   -0.0286935907267    
6200000000.0        -0.00560481104667   -0.029139729632     0.976580887825      -0.209051661265     0.976580887825      -0.209051661265     -0.00560481104667   -0.029139729632     
6300000000.0        -0.00580657006814   -0.02958454208      0.975843228958      -0.212388186117     0.975843228958      -0.212388186117     -0.00580657006814   -0.02958454208      
6400000000.0        -0.00601139195851   -0.0300280010637    0.975093804363      -0.215722754237     0.975093804363      -0.215722754237     -0.00601139195851   -0.0300280010637    
6500000000.0        -0.00621926715377   -0.0304700795811    0.974332617143      -0.219055323833     0.974332617143      -0.219055323833     -0.00621926715377   -0.0304700795811    
6600000000.0        -0.00643018585262   -0.0309107506402    0.973559670592      -0.222385853042     0.973559670592      -0.222385853042     -0.00643018585262   -0.0309107506402    
6700000000.0        -0.00664413801612   -0.0313499872623    0.972774968187      -0.225714299932     0.972774968187      -0.225714299932     -0.00664413801612   -0.0313499872623    
6800000000.0        -0.00686111336731   -0.0317877624871    0.9719785136        -0.229040622506     0.9719785136        -0.229040622506     -0.00686111336731   -0.0317877624871    
6900000000.0        -0.00708110139101   -0.0322240493758    0.971170310687      -0.232364778705     0.971170310687      -0.232364778705     -0.00708110139101   -0.0322240493758    
7000000000.0        -0.00730409133356   -0.0326588210162    0.970350363495      -0.235686726415     0.970350363495      -0.235686726415     -0.00730409133356   -0.0326588210162    
7100000000.0        -0.00753007220273   -0.0330920505256    0.96951867626       -0.239006423466     0.96951867626       -0.239006423466     -0.00753007220273   -0.0330920505256    
7200000000.0        -0.00775903276763   -0.0335237110553    0.968675253408      -0.242323827639     0.968675253408      -0.242323827639     -0.00775903276763   -0.0335237110553    
7300000000.0        -0.00799096155864   -0.0339537757945    0.967820099554      -0.245638896669     0.967820099554      -0.245638896669     -0.00799096155864   -0.0339537757945    
7400000000.0        -0.0082258468675    -0.0343822179736    0.966953219505      -0.248951588247     0.966953219505      -0.248951588247     -0.0082258468675    -0.0343822179736    
7500000000.0        -0.00846367674734   -0.0348090108685    0.966074618254      -0.252261860026     0.966074618254      -0.252261860026     -0.00846367674735   -0.0348090108685    
7600000000.0        -0.00870443901285   -0.0352341278038    0.965184300986      -0.25556966962      0.965184300986      -0.25556966962      -0.00870443901285   -0.0352341278038    
7700000000.0        -0.00894812124041   -0.0356575421566    0.964282273078      -0.258874974612     0.964282273078      -0.258874974612     -0.00894812124041   -0.0356575421566    
7800000000.0        -0.00919471076836   -0.0360792273604    0.963368540093      -0.262177732553     0.963368540093      -0.262177732553     -0.00919471076836   -0.0360792273604    
7900000000.0        -0.00944419469725   -0.036499156908     0.962443107787      -0.265477900969     0.962443107787      -0.265477900969     -0.00944419469725   -0.036499156908     
8000000000.0        -0.00969655989014   -0.0369173043554    0.961505982104      -0.26877543736      0.961505982104      -0.26877543736      -0.00969655989014   -0.0369173043554    
8100000000.0        -0.00995179297304   -0.0373336433254    0.960557169181      -0.272070299206     0.960557169181      -0.272070299206     -0.00995179297304   -0.0373336433254    
8200000000.0        -0.0102098803352    -0.0377481475105    0.959596675339      -0.275362443968     0.959596675339      -0.275362443968     -0.0102098803352    -0.0377481475105    
8300000000.0        -0.0104708081296    -0.0381607906767    0.958624507095      -0.278651829091     0.958624507095      -0.278651829091     -0.0104708081296    -0.0381607906767    
8400000000.0        -0.0107345622735    -0.0385715466663    0.957640671151      -0.281938412008     0.957640671151      -0.281938412008     -0.0107345622735    -0.0385715466663    
8500000000.0        -0.0110011284489    -0.0389803894019    0.9566451744        -0.285222150142     0.9566451744        -0.285222150142     -0.0110011284489    -0.0389803894019    
8600000000.0        -0.011270492103     -0.039387292889     0.955638023923      -0.288503000907     0.955638023923      -0.288503000907     -0.011270492103     -0.039387292889     
8700000000.0        -0.0115426384492    -0.0397922312194    0.954619226991      -0.291780921713     0.954619226991      -0.291780921713     -0.0115426384492    -0.0397922312194    
8800000000.0        -0.0118175524671    -0.0401951785746    0.953588791063      -0.295055869968     0.953588791063      -0.295055869968     -0.0118175524671    -0.0401951785746    
8900000000.0        -0.0120952189038    -0.0405961092283    0.952546723786      -0.298327803079     0.952546723786      -0.298327803079     -0.0120952189038    -0.0405961092283    
9000000000.0        -0.0123756222743    -0.0409949975504    0.951493032996      -0.301596678456     0.951493032996      -0.301596678456     -0.0123756222743    -0.0409949975504    
9100000000.0        -0.0126587468622    -0.0413918180089    0.950427726714      -0.304862453513     0.950427726714      -0.304862453513     -0.0126587468622    -0.0413918180089    
9200000000.0        -0.0129445767206    -0.0417865451741    0.949350813152      -0.308125085672     0.949350813152      -0.308125085672     -0.0129445767206    -0.0417865451741    
9300000000.0        -0.0132330956729    -0.0421791537207    0.948262300705      -0.311384532363     0.948262300705      -0.311384532363     -0.0132330956729    -0.0421791537207    
9400000000.0        -0.0135242873136    -0.0425696184311    0.947162197958      -0.314640751029     0.947162197958      -0.314640751029     -0.0135242873136    -0.0425696184311    
9500000000.0        -0.0138181350094    -0.0429579141982    0.946050513679      -0.317893699124     0.946050513679      -0.317893699124     -0.0138181350094    -0.0429579141982    
9600000000.0        -0.0141146218996    -0.0433440160286    0.944927256824      -0.321143334122     0.944927256824      -0.321143334122     -0.0141146218996    -0.0433440160286    
9700000000.0        -0.0144137308977    -0.0437278990449    0.943792436533      -0.324389613511     0.943792436533      -0.324389613511     -0.0144137308977    -0.0437278990449    
9800000000.0        -0.0147154446918    -0.0441095384888    0.942646062132      -0.3276324948       0.942646062132      -0.3276324948       -0.0147154446918    -0.0441095384888    
9900000000.0        -0.0150197457458    -0.0444889097242    0.941488143129      -0.330871935522     0.941488143129      -0.330871935522     -0.0150197457458    -0.0444889097242    
10000000000.0       -0.0153266163008    -0.0448659882393    0.940318689217      -0.334107893231     0.940318689217      -0.334107893231     -0.0153266163008    -0.0448659882393    
