# Hz S RI R 50.00 
100000000.0         0.0218721661045     0.00362568260159    0.978122741517      -0.0057050286047    0.978122741517      -0.0057050286047    0.0218721661045     0.00362568260159    
200000000.0         0.0220766689555     0.00724806840414    0.977909789845      -0.011406770142     0.977909789845      -0.011406770142     0.0220766689555     0.00724806840414    
300000000.0         0.0222855174195     0.0108676550908     0.97768813545       -0.017105735022     0.97768813545       -0.017105735022     0.0222855174195     0.0108676550908     
400000000.0         0.0225172893226     0.0144842286199     0.977439199803      -0.02280172072      0.977439199803      -0.02280172072      0.0225172893226     0.0144842286199     
500000000.0         0.0227791125517     0.0180974105488     0.977155854222      -0.0284943597035    0.977155854222      -0.0284943597035    0.0227791125517     0.0180974105488     
600000000.0         0.0230745925569     0.0217067504835     0.976834492351      -0.0341832120919    0.976834492351      -0.0341832120919    0.0230745925569     0.0217067504835     
700000000.0         0.0234058281004     0.0253117593644     0.976473014402      -0.0398677990506    0.976473014402      -0.0398677990506    0.0234058281004     0.0253117593644     
800000000.0         0.0237741470731     0.0289119249924     0.976070091335      -0.0455476183806    0.976070091335      -0.0455476183806    0.0237741470731     0.0289119249924     
900000000.0         0.0241804341706     0.0325067204511     0.97562483718       -0.0512221529836    0.97562483718       -0.0512221529836    0.0241804341706     0.0325067204511     
1000000000.0        0.0246252970154     0.0360956091714     0.97513664291       -0.056890875955     0.97513664291       -0.056890875955     0.0246252970154     0.0360956091714     
1100000000.0        0.0251091585277     0.0396780482177     0.974605084076      -0.0625532538934    0.974605084076      -0.0625532538934    0.0251091585277     0.0396780482177     
1200000000.0        0.0256323119895     0.0432534905547     0.974029865734      -0.0682087491824    0.974029865734      -0.0682087491824    0.0256323119895     0.0432534905547     
1300000000.0        0.0261949557109     0.0468213866888     0.973410787786      -0.0738568216462    0.973410787786      -0.0738568216462    0.0261949557109     0.0468213866888     
1400000000.0        0.0267972158413     0.0503811859092     0.972747722163      -0.0794969297998    0.972747722163      -0.0794969297998    0.0267972158413     0.0503811859092     
1500000000.0        0.0274391619368     0.053932337259      0.97204059726       -0.0851285318298    0.97204059726       -0.0851285318298    0.0274391619368     0.053932337259      
1600000000.0        0.0281208179201     0.0574742903205     0.971289386976      -0.0907510863856    0.971289386976      -0.0907510863856    0.0281208179201     0.0574742903205     
1700000000.0        0.0288421700036     0.0610064958668     0.970494102789      -0.0963640532379    0.970494102789      -0.0963640532379    0.0288421700036     0.0610064958668     
1800000000.0        0.0296031725534     0.0645284064158     0.969654787896      -0.101966893837     0.969654787896      -0.101966893837     0.0296031725534     0.0645284064158     
1900000000.0        0.0304037525209     0.0680394767107     0.968771512776      -0.107559071796     0.968771512776      -0.107559071796     0.0304037525209     0.0680394767107     
2000000000.0        0.0312438128551     0.0715391641437     0.967844371782      -0.113140053324     0.967844371782      -0.113140053324     0.0312438128551     0.0715391641437     
2100000000.0        0.0321232351756     0.0750269291366     0.966873480468      -0.118709307601     0.966873480468      -0.118709307601     0.0321232351756     0.0750269291366     
2200000000.0        0.0330418819013     0.0785022354845     0.965858973456      -0.124266307133     0.965858973456      -0.124266307133     0.0330418819013     0.0785022354845     
2300000000.0        0.0339995979703     0.0819645506725     0.964801002721      -0.129810528065     0.964801002721      -0.129810528065     0.0339995979703     0.0819645506725     
2400000000.0        0.0349962122501     0.0854133461676     0.963699736178      -0.135341450479     0.963699736178      -0.135341450479     0.0349962122501     0.0854133461676     
2500000000.0        0.0360315387098     0.0888480976912     0.962555356512      -0.140858558665     0.962555356512      -0.140858558665     0.0360315387098     0.0888480976912     
2600000000.0        0.0371053774077     0.0922682854739     0.961368060187      -0.146361341382     0.961368060187      -0.146361341382     0.0371053774077     0.0922682854739     
2700000000.0        0.038217515333      0.0956733944966     0.960138056607      -0.151849292095     0.960138056607      -0.151849292095     0.038217515333      0.0956733944966     
2800000000.0        0.0393677271341     0.0990629147173     0.95886556739       -0.15732190921      0.95886556739       -0.15732190921      0.0393677271341     0.0990629147173     
2900000000.0        0.0405557757539     0.102436341287      0.957550825725      -0.162778696284     0.957550825725      -0.162778696284     0.0405557757539     0.102436341287      
3000000000.0        0.0417814129928     0.105793174757      0.956194075818      -0.168219162239     0.956194075818      -0.168219162239     0.0417814129928     0.105793174757      
3100000000.0        0.0430443800117     0.109132921268      0.954795572383      -0.17364282155      0.954795572383      -0.17364282155      0.0430443800117     0.109132921268      
3200000000.0        0.0443444077863     0.112455092747      0.953355580188      -0.17904919444      0.953355580188      -0.17904919444      0.0443444077863     0.112455092747      
3300000000.0        0.0456812175227     0.115759207074      0.951874373643      -0.184437807056     0.951874373643      -0.184437807056     0.0456812175227     0.115759207074      
3400000000.0        0.0470545210396     0.119044788263      0.950352236415      -0.189808191639     0.950352236415      -0.189808191639     0.0470545210396     0.119044788263      
3500000000.0        0.048464021124      0.122311366615      0.948789461072      -0.195159886689     0.948789461072      -0.195159886689     0.048464021124      0.122311366615      
3600000000.0        0.0499094118648     0.125558478881      0.947186348751      -0.200492437119     0.947186348751      -0.200492437119     0.0499094118648     0.125558478881      
3700000000.0        0.0513903789673     0.128785668407      0.945543208841      -0.205805394409     0.945543208841      -0.205805394409     0.0513903789673     0.128785668407      
3800000000.0        0.0529066000529     0.131992485277      0.943860358687      -0.211098316741     0.943860358687      -0.211098316741     0.0529066000529     0.131992485277      
3900000000.0        0.0544577449446     0.135178486445      0.942138123301      -0.216370769142     0.942138123301      -0.216370769142     0.0544577449446     0.135178486445      
4000000000.0        0.0560434759428     0.138343235869      0.940376835085      -0.221622323607     0.940376835085      -0.221622323607     0.0560434759428     0.138343235869      
4100000000.0        0.057663448091      0.14148630463       0.938576833571      -0.226852559228     0.938576833571      -0.226852559228     0.057663448091      0.14148630463       
4200000000.0        0.0593173094334     0.144607271049      0.936738465158      -0.232061062302     0.936738465158      -0.232061062302     0.0593173094334     0.144607271049      
4300000000.0        0.0610047012661     0.147705720796      0.934862082862      -0.237247426452     0.934862082862      -0.237247426452     0.0610047012661     0.147705720796      
4400000000.0        0.0627252583829     0.150781246998      0.93294804607       -0.242411252724     0.93294804607       -0.242411252724     0.0627252583829     0.150781246998      
4500000000.0        0.0644786093146     0.153833450331      0.930996720302      -0.247552149687     0.930996720302      -0.247552149687     0.0644786093146     0.153833450331      
4600000000.0        0.0662643765654     0.156861939121      0.929008476973      -0.252669733527     0.929008476973      -0.252669733527     0.0662643765654     0.156861939121      
4700000000.0        0.0680821768448     0.159866329421      0.926983693162      -0.257763628133     0.926983693162      -0.257763628133     0.0680821768448     0.159866329421      
4800000000.0        0.0699316212956     0.1628462451        0.92492275138       -0.26283346518      0.92492275138       -0.26283346518      0.0699316212956     0.1628462451        
4900000000.0        0.0718123157198     0.165801317913      0.92282603935       -0.2678788842       0.92282603935       -0.2678788842       0.0718123157198     0.165801317913      
5000000000.0        0.073723860801      0.168731187573      0.920693949781      -0.272899532657     0.920693949781      -0.272899532657     0.073723860801      0.168731187573      
5100000000.0        0.0756658523241     0.171635501817      0.918526880147      -0.277895066006     0.918526880147      -0.277895066006     0.0756658523241     0.171635501817      
5200000000.0        0.0776378813937     0.17451391646       0.916325232471      -0.282865147758     0.916325232471      -0.282865147758     0.0776378813937     0.17451391646       
5300000000.0        0.0796395346488     0.177366095451      0.91408941311       -0.287809449527     0.91408941311       -0.287809449527     0.0796395346488     0.177366095451      
5400000000.0        0.0816703944764     0.180191710921      0.911819832537      -0.292727651082     0.911819832537      -0.292727651082     0.0816703944764     0.180191710921      
5500000000.0        0.0837300392228     0.182990443225      0.909516905134      -0.297619440388     0.909516905134      -0.297619440388     0.0837300392228     0.182990443225      
5600000000.0        0.0858180434029     0.18576198098       0.907181048983      -0.302484513643     0.907181048983      -0.302484513643     0.0858180434029     0.18576198098       
5700000000.0        0.0879339779074     0.188506021096      0.904812685654      -0.307322575312     0.904812685654      -0.307322575312     0.0879339779074     0.188506021096      
5800000000.0        0.0900774102082     0.191222268803      0.902412240002      -0.312133338152     0.902412240002      -0.312133338152     0.0900774102082     0.191222268803      
5900000000.0        0.0922479045619     0.193910437676      0.899980139965      -0.316916523235     0.899980139965      -0.316916523235     0.0922479045619     0.193910437676      
6000000000.0        0.0944450222115     0.196570249647      0.897516816357      -0.321671859966     0.897516816357      -0.321671859966     0.0944450222115     0.196570249647      
6100000000.0        0.0966683215858     0.199201435022      0.895022702673      -0.326399086091     0.895022702673      -0.326399086091     0.0966683215858     0.199201435022      
6200000000.0        0.0989173584967     0.201803732486      0.892498234892      -0.331097947712     0.892498234892      -0.331097947712     0.0989173584967     0.201803732486      
6300000000.0        0.101191686335      0.204376889104      0.889943851275      -0.335768199281     0.889943851275      -0.335768199281     0.101191686335      0.204376889104      
6400000000.0        0.103490856265      0.206920660325      0.887359992176      -0.340409603602     0.887359992176      -0.340409603602     0.103490856265      0.206920660325      
6500000000.0        0.105814417412      0.209434809967      0.88474709985       -0.345021931827     0.88474709985       -0.345021931827     0.105814417412      0.209434809967      
6600000000.0        0.108161917058      0.211919110214      0.882105618263      -0.349604963438     0.882105618263      -0.349604963438     0.108161917058      0.211919110214      
6700000000.0        0.11053290082       0.214373341594      0.879435992902      -0.354158486239     0.879435992902      -0.354158486239     0.11053290082       0.214373341594      
6800000000.0        0.112926912845      0.216797292964      0.876738670596      -0.35868229633      0.876738670596      -0.35868229633      0.112926912845      0.216797292964      
6900000000.0        0.115343495981      0.219190761484      0.874014099327      -0.363176198086     0.874014099327      -0.363176198086     0.115343495981      0.219190761484      
7000000000.0        0.117782191967      0.221553552588      0.871262728054      -0.367640004127     0.871262728054      -0.367640004127     0.117782191967      0.221553552588      
7100000000.0        0.120242541604      0.223885479954      0.868485006533      -0.37207353529      0.868485006533      -0.37207353529      0.120242541604      0.223885479954      
7200000000.0        0.122724084933      0.226186365466      0.865681385143      -0.376476620586     0.865681385143      -0.376476620586     0.122724084933      0.226186365466      
7300000000.0        0.125226361406      0.228456039176      0.862852314712      -0.380849097164     0.862852314712      -0.380849097164     0.125226361406      0.228456039176      
7400000000.0        0.127748910056      0.23069433926       0.859998246348      -0.38519081027      0.859998246348      -0.38519081027      0.127748910056      0.23069433926       
7500000000.0        0.130291269663      0.232901111969      0.857119631271      -0.389501613191     0.857119631271      -0.389501613191     0.130291269663      0.232901111969      
7600000000.0        0.132852978922      0.235076211579      0.854216920647      -0.393781367215     0.854216920647      -0.393781367215     0.132852978922      0.235076211579      
7700000000.0        0.135433576601      0.23721950034       0.851290565431      -0.398029941566     0.851290565431      -0.398029941566     0.135433576601      0.23721950034       
7800000000.0        0.138032601699      0.239330848413      0.848341016199      -0.402247213354     0.848341016199      -0.402247213354     0.138032601699      0.239330848413      
7900000000.0        0.140649593606      0.241410133815      0.845368723001      -0.406433067512     0.845368723001      -0.406433067512     0.140649593606      0.241410133815      
8000000000.0        0.143284092253      0.24345724235       0.842374135203      -0.410587396728     0.842374135203      -0.410587396728     0.143284092253      0.24345724235       
8100000000.0        0.14593563826       0.245472067547      0.839357701335      -0.414710101385     0.839357701335      -0.414710101385     0.14593563826       0.245472067547      
8200000000.0        0.148603773089      0.247454510586      0.836319868949      -0.418801089485     0.836319868949      -0.418801089485     0.148603773089      0.247454510586      
8300000000.0        0.15128803918       0.24940448023       0.833261084471      -0.422860276578     0.833261084471      -0.422860276578     0.15128803918       0.24940448023       
8400000000.0        0.153987980098      0.251321892744      0.830181793058      -0.426887585691     0.830181793058      -0.426887585691     0.153987980098      0.251321892744      
8500000000.0        0.15670314067       0.253206671824      0.827082438464      -0.430882947241     0.827082438464      -0.430882947241     0.15670314067       0.253206671824      
8600000000.0        0.159433067114      0.255058748513      0.823963462904      -0.434846298965     0.823963462904      -0.434846298965     0.159433067114      0.255058748513      
8700000000.0        0.162177307179      0.256878061118      0.82082530692       -0.438777585827     0.82082530692       -0.438777585827     0.162177307179      0.256878061118      
8800000000.0        0.164935410264      0.258664555129      0.817668409253      -0.442676759942     0.817668409253      -0.442676759942     0.164935410264      0.258664555129      
8900000000.0        0.167706927552      0.260418183125      0.814493206721      -0.446543780482     0.814493206721      -0.446543780482     0.167706927552      0.260418183125      
9000000000.0        0.170491412124      0.262138904695      0.811300134091      -0.45037861359      0.811300134091      -0.45037861359      0.170491412124      0.262138904695      
9100000000.0        0.173288419082      0.263826686339      0.808089623964      -0.45418123229      0.808089623964      -0.45418123229      0.173288419082      0.263826686339      
9200000000.0        0.176097505663      0.265481501377      0.804862106658      -0.457951616389     0.804862106658      -0.457951616389     0.176097505663      0.265481501377      
9300000000.0        0.178918231351      0.26710332986       0.801618010095      -0.46168975239      0.801618010095      -0.46168975239      0.178918231351      0.26710332986       
9400000000.0        0.181750157988      0.268692158465      0.798357759692      -0.465395633385     0.798357759692      -0.465395633385     0.181750157988      0.268692158465      
9500000000.0        0.184592849873      0.270247980405      0.795081778257      -0.46906925897      0.795081778257      -0.46906925897      0.184592849873      0.270247980405      
9600000000.0        0.187445873872      0.271770795327      0.791790485881      -0.472710635133     0.791790485881      -0.472710635133     0.187445873872      0.271770795327      
9700000000.0        0.190308799512      0.273260609213      0.788484299844      -0.476319774163     0.788484299844      -0.476319774163     0.190308799512      0.273260609213      
9800000000.0        0.193181199081      0.274717434275      0.785163634516      -0.479896694542     0.785163634516      -0.479896694542     0.193181199081      0.274717434275      
9900000000.0        0.196062647714      0.276141288858      0.781828901264      -0.483441420847     0.781828901264      -0.483441420847     0.196062647714      0.276141288858      
10000000000.0       0.198952723489      0.277532197333      0.778480508361      -0.486953983641     0.778480508361      -0.486953983641     0.198952723489      0.277532197333      
