# Hz S RI R 50.00 
100000000.0         -4.61935688844e-05  -0.00673178878079   0.999940195035      -0.0068016552895    0.999940195035      -0.0068016552895    -4.6193568884e-05   -0.00673178878079   
200000000.0         -0.000190183778329  -0.0134610876918    0.99979610469       -0.0136008394804    0.99979610469       -0.0136008394804    -0.000190183778329  -0.0134610876918    
300000000.0         -0.000425616418511  -0.0201858160831    0.999560590483      -0.0203954813825    0.999560590483      -0.0203954813825    -0.00042561641851   -0.0201858160831    
400000000.0         -0.000752318826472  -0.0269039551126    0.999233813365      -0.0271835692476    0.999233813365      -0.0271835692476    -0.000752318826472  -0.0269039551126    
500000000.0         -0.00117006524703   -0.0336135230917    0.998815994598      -0.0339631272279    0.998815994598      -0.0339631272279    -0.00117006524703   -0.0336135230917    
600000000.0         -0.00167857590972   -0.040312567974     0.998307411664      -0.040732208257     0.998307411664      -0.040732208257     -0.00167857590972   -0.040312567974     
700000000.0         -0.00227751772856   -0.0469991643517    0.9977083963        -0.0474888912513    0.9977083963        -0.0474888912513    -0.00227751772856   -0.0469991643517    
800000000.0         -0.00296650529523   -0.0536714122865    0.997019333041      -0.0542312800642    0.997019333041      -0.0542312800642    -0.00296650529523   -0.0536714122865    
900000000.0         -0.00374510195067   -0.060327437046     0.996240657938      -0.060957503307     0.996240657938      -0.060957503307     -0.00374510195067   -0.060327437046     
1000000000.0        -0.00461282088965   -0.0669653893422    0.995372857358      -0.0676657146476    0.995372857358      -0.0676657146476    -0.00461282088965   -0.0669653893422    
1100000000.0        -0.00556912628694   -0.0735834458469    0.994416466792      -0.0743540933742    0.994416466792      -0.0743540933742    -0.00556912628694   -0.0735834458469    
1200000000.0        -0.00661343444512   -0.0801798098864    0.993372069678      -0.0810208451252    0.993372069678      -0.0810208451252    -0.00661343444512   -0.0801798098864    
1300000000.0        -0.00774511496431   -0.086752712235     0.992240296209      -0.0876642027145    0.992240296209      -0.0876642027145    -0.00774511496431   -0.086752712235     
1400000000.0        -0.00896349193482   -0.0933004119666    0.991021822124      -0.0942824270082    0.991021822124      -0.0942824270082    -0.00896349193482   -0.0933004119666    
1500000000.0        -0.0102678451531    -0.0998211973359    0.989717367486      -0.100873807828     0.989717367486      -0.100873807828     -0.0102678451531    -0.0998211973359    
1600000000.0        -0.0116574113612    -0.106313386667     0.988327695432      -0.107436664859     0.988327695432      -0.107436664859     -0.0116574113612    -0.106313386667     
1700000000.0        -0.0131313855096    -0.112775329241     0.98685361091       -0.113969348553     0.98685361091       -0.113969348553     -0.0131313855096    -0.112775329241     
1800000000.0        -0.0146889220414    -0.119205406159     0.985295959387      -0.120470241012     0.985295959387      -0.120470241012     -0.0146889220414    -0.119205406159     
1900000000.0        -0.0163291361988    -0.125602031194     0.983655625541      -0.126937756845     0.983655625541      -0.126937756845     -0.0163291361988    -0.125602031194     
2000000000.0        -0.0180511053488    -0.131963651599     0.981933531936      -0.133370343998     0.981933531936      -0.133370343998     -0.0180511053488    -0.131963651599     
2100000000.0        -0.0198538703276    -0.138288748896     0.980130637673      -0.139766484546     0.980130637673      -0.139766484546     -0.0198538703276    -0.138288748896     
2200000000.0        -0.0217364368019    -0.144575839614     0.978247937029      -0.14612469545      0.978247937029      -0.14612469545      -0.0217364368019    -0.144575839614     
2300000000.0        -0.0236977766452    -0.150823475995     0.976286458077      -0.152443529265     0.976286458077      -0.152443529265     -0.0236977766452    -0.150823475995     
2400000000.0        -0.0257368293277    -0.157030246654     0.9742472613        -0.158721574815     0.9742472613        -0.158721574815     -0.0257368293277    -0.157030246654     
2500000000.0        -0.0278525033176    -0.163194777198     0.972131438187      -0.164957457813     0.972131438187      -0.164957457813     -0.0278525033176    -0.163194777198     
2600000000.0        -0.030043677492     -0.169315730791     0.96994010982       -0.171149841446     0.96994010982       -0.171149841446     -0.030043677492     -0.169315730791     
2700000000.0        -0.0323092025551    -0.175391808684     0.967674425456      -0.177297426898     0.967674425456      -0.177297426898     -0.0323092025551    -0.175391808684     
2800000000.0        -0.0346479024628    -0.181421750686     0.965335561104      -0.183398953836     0.965335561104      -0.183398953836     -0.0346479024628    -0.181421750686     
2900000000.0        -0.0370585758501    -0.187404335595     0.962924718096      -0.189453200848     0.962924718096      -0.189453200848     -0.0370585758501    -0.187404335595     
3000000000.0        -0.039539997461     -0.193338381574     0.960443121658      -0.195458985823     0.960443121658      -0.195458985823     -0.039539997461     -0.193338381574     
3100000000.0        -0.042090919577     -0.199222746488     0.957892019476      -0.201415166286     0.957892019476      -0.201415166286     -0.042090919577     -0.199222746488     
3200000000.0        -0.0447100734446    -0.205056328176     0.955272680278      -0.207320639692     0.955272680278      -0.207320639692     -0.0447100734446    -0.205056328176     
3300000000.0        -0.0473961706973    -0.210838064692     0.952586392402      -0.213174343656     0.952586392402      -0.213174343656     -0.0473961706973    -0.210838064692     
3400000000.0        -0.0501479047721    -0.216566934487     0.949834462387      -0.218975256145     0.949834462387      -0.218975256145     -0.0501479047721    -0.216566934487     
3500000000.0        -0.0529639523179    -0.222241956545     0.947018213559      -0.224722395624     0.947018213559      -0.224722395624     -0.0529639523179    -0.222241956545     
3600000000.0        -0.0558429745934    -0.227862190475     0.944138984636      -0.230414821139     0.944138984636      -0.230414821139     -0.0558429745934    -0.227862190475     
3700000000.0        -0.0587836188538    -0.23342673655      0.941198128341      -0.236051632374     0.941198128341      -0.236051632374     -0.0587836188538    -0.23342673655      
3800000000.0        -0.0617845197237    -0.238934735707     0.938197010027      -0.241631969643     0.938197010027      -0.241631969643     -0.0617845197237    -0.238934735707     
3900000000.0        -0.0648443005542    -0.244385369497     0.935137006324      -0.247155013849     0.935137006324      -0.247155013849     -0.0648443005542    -0.244385369497     
4000000000.0        -0.0679615747646    -0.24977785999      0.932019503792      -0.252619986394     0.932019503792      -0.252619986394     -0.0679615747646    -0.24977785999      
4100000000.0        -0.0711349471637    -0.255111469645     0.928845897603      -0.258026149041     0.928845897603      -0.258026149041     -0.0711349471637    -0.255111469645     
4200000000.0        -0.0743630152522    -0.260385501123     0.925617590239      -0.263372803747     0.925617590239      -0.263372803747     -0.0743630152522    -0.260385501123     
4300000000.0        -0.0776443705036    -0.265599297077     0.922335990208      -0.268659292435     0.922335990208      -0.268659292435     -0.0776443705036    -0.265599297077     
4400000000.0        -0.0809775996215    -0.270752239885     0.919002510789      -0.273884996747     0.919002510789      -0.273884996747     -0.0809775996215    -0.270752239885     
4500000000.0        -0.0843612857737    -0.275843751356     0.915618568799      -0.279049337743     0.915618568799      -0.279049337743     -0.0843612857737    -0.275843751356     
4600000000.0        -0.0877940098001    -0.280873292395     0.912185583381      -0.28415177557      0.912185583381      -0.28415177557      -0.0877940098001    -0.280873292395     
4700000000.0        -0.091274351394     -0.285840362633     0.908704974827      -0.289191809089     0.908704974827      -0.289191809089     -0.091274351394     -0.285840362633     
4800000000.0        -0.0948008902568    -0.290744500019     0.90517816342       -0.29416897548      0.90517816342       -0.29416897548      -0.0948008902568    -0.290744500019     
4900000000.0        -0.0983722072223    -0.295585280384     0.901606568313      -0.299082849796     0.901606568313      -0.299082849796     -0.0983722072223    -0.295585280384     
5000000000.0        -0.101986885354     -0.300362316972     0.897991606427      -0.3039330445       0.897991606427      -0.3039330445       -0.101986885354     -0.300362316972     
5100000000.0        -0.105643511007     -0.305075259938     0.894334691393      -0.308719208969     0.894334691393      -0.308719208969     -0.105643511007     -0.305075259938     
5200000000.0        -0.109340674869     -0.309723795823     0.890637232512      -0.313441028959     0.890637232512      -0.313441028959     -0.109340674869     -0.309723795823     
5300000000.0        -0.113076972954     -0.314307646998     0.886900633755      -0.318098226061     0.886900633755      -0.318098226061     -0.113076972954     -0.314307646998     
5400000000.0        -0.116851007581     -0.318826571083     0.883126292794      -0.322690557117     0.883126292794      -0.322690557117     -0.116851007581     -0.318826571083     
5500000000.0        -0.120661388303     -0.323280360345     0.87931560006       -0.327217813614     0.87931560006       -0.327217813614     -0.120661388303     -0.323280360345     
5600000000.0        -0.124506732817     -0.32766884107      0.875469937845      -0.331679821068     0.875469937845      -0.331679821068     -0.124506732817     -0.32766884107      
5700000000.0        -0.128385667834     -0.331991872921     0.871590679429      -0.336076438369     0.871590679429      -0.336076438369     -0.128385667834     -0.331991872921     
5800000000.0        -0.132296829911     -0.336249348265     0.867679188241      -0.340407557124     0.867679188241      -0.340407557124     -0.132296829911     -0.336249348265     
5900000000.0        -0.136238866257     -0.340441191497     0.863736817063      -0.344673100966     0.863736817063      -0.344673100966     -0.136238866257     -0.340441191497     
6000000000.0        -0.140210435499     -0.344567358339     0.859764907257      -0.348873024865     0.859764907257      -0.348873024865     -0.140210435499     -0.344567358339     
6100000000.0        -0.144210208418     -0.348627835123     0.855764788031      -0.353007314409     0.855764788031      -0.353007314409     -0.144210208418     -0.348627835123     
6200000000.0        -0.148236868646     -0.352622638072     0.851737775745      -0.357075985081     0.851737775745      -0.357075985081     -0.148236868646     -0.352622638072     
6300000000.0        -0.152289113331     -0.356551812554     0.847685173238      -0.361079081519     0.847685173238      -0.361079081519     -0.152289113331     -0.356551812554     
6400000000.0        -0.156365653772     -0.360415432341     0.843608269205      -0.365016676772     0.843608269205      -0.365016676772     -0.156365653772     -0.360415432341     
6500000000.0        -0.160465216011     -0.364213598851     0.839508337592      -0.368888871542     0.839508337592      -0.368888871542     -0.160465216011     -0.364213598851     
6600000000.0        -0.164586541401     -0.367946440381     0.835386637038      -0.372695793422     0.835386637038      -0.372695793422     -0.164586541401     -0.367946440381     
6700000000.0        -0.168728387133     -0.371614111343     0.831244410343      -0.376437596126     0.831244410343      -0.376437596126     -0.168728387133     -0.371614111343     
6800000000.0        -0.172889526737     -0.375216791485     0.827082883969      -0.380114458715     0.827082883969      -0.380114458715     -0.172889526737     -0.375216791485     
6900000000.0        -0.177068750545     -0.378754685118     0.822903267576      -0.383726584821     0.822903267576      -0.383726584821     -0.177068750545     -0.378754685118     
7000000000.0        -0.181264866123     -0.382228020335     0.818706753588      -0.387274201869     0.818706753588      -0.387274201869     -0.181264866123     -0.382228020335     
7100000000.0        -0.185476698673     -0.38563704823      0.814494516796      -0.390757560292     0.814494516796      -0.390757560292     -0.185476698673     -0.38563704823      
7200000000.0        -0.189703091407     -0.388982042119     0.81026771398       -0.394176932759     0.81026771398       -0.394176932759     -0.189703091407     -0.388982042119     
7300000000.0        -0.193942905881     -0.392263296761     0.806027483577      -0.397532613387     0.806027483577      -0.397532613387     -0.193942905881     -0.392263296761     
7400000000.0        -0.198195022311     -0.395481127584     0.801774945363      -0.400824916976     0.801774945363      -0.400824916976     -0.198195022311     -0.395481127584     
7500000000.0        -0.202458339848     -0.398635869907     0.797511200178      -0.404054178225     0.797511200178      -0.404054178225     -0.202458339848     -0.398635869907     
7600000000.0        -0.206731776837     -0.401727878178     0.793237329673      -0.407220750974     0.793237329673      -0.407220750974     -0.206731776837     -0.401727878178     
7700000000.0        -0.211014271037     -0.404757525209     0.788954396079      -0.410325007432     0.788954396079      -0.410325007432     -0.211014271037     -0.404757525209     
7800000000.0        -0.215304779822     -0.407725201414     0.784663442018      -0.413367337427     0.784663442018      -0.413367337427     -0.215304779822     -0.407725201414     
7900000000.0        -0.219602280348     -0.410631314066     0.780365490324      -0.416348147652     0.780365490324      -0.416348147652     -0.219602280348     -0.410631314066     
8000000000.0        -0.223905769706     -0.413476286553     0.776061543903      -0.419267860925     0.776061543903      -0.419267860925     -0.223905769706     -0.413476286553     
8100000000.0        -0.228214265034     -0.416260557642     0.771752585607      -0.422126915453     0.771752585607      -0.422126915453     -0.228214265034     -0.416260557642     
8200000000.0        -0.232526803623     -0.418984580754     0.767439578141      -0.42492576411      0.767439578141      -0.42492576411      -0.232526803623     -0.418984580754     
8300000000.0        -0.236842442983     -0.421648823255     0.763123463987      -0.42766487372      0.763123463987      -0.42766487372      -0.236842442983     -0.421648823255     
8400000000.0        -0.241160260902     -0.424253765744     0.758805165354      -0.430344724354     0.758805165354      -0.430344724354     -0.241160260902     -0.424253765744     
8500000000.0        -0.245479355466     -0.426799901366     0.754485584146      -0.432965808635     0.754485584146      -0.432965808635     -0.245479355466     -0.426799901366     
8600000000.0        -0.24979884508      -0.429287735124     0.750165601954      -0.435528631059     0.750165601954      -0.435528631059     -0.24979884508      -0.429287735124     
8700000000.0        -0.254117868447     -0.431717783215     0.745846080071      -0.43803370732      0.745846080071      -0.43803370732      -0.254117868447     -0.431717783215     
8800000000.0        -0.258435584541     -0.434090572368     0.741527859514      -0.440481563656     0.741527859514      -0.440481563656     -0.258435584541     -0.434090572368     
8900000000.0        -0.26275117256      -0.436406639199     0.73721176108       -0.442872736201     0.73721176108       -0.442872736201     -0.26275117256      -0.436406639199     
9000000000.0        -0.26706383186      -0.438666529581     0.73289858541       -0.445207770357     0.73289858541       -0.445207770357     -0.26706383186      -0.438666529581     
9100000000.0        -0.271372781867     -0.440870798025     0.72858911307       -0.44748722017      0.72858911307       -0.44748722017      -0.271372781867     -0.440870798025     
9200000000.0        -0.275677261984     -0.443020007073     0.724284104653      -0.449711647727     0.724284104653      -0.449711647727     -0.275677261984     -0.443020007073     
9300000000.0        -0.279976531475     -0.445114726707     0.719984300889      -0.451881622566     0.719984300889      -0.451881622566     -0.279976531475     -0.445114726707     
9400000000.0        -0.284269869333     -0.447155533773     0.715690422781      -0.453997721096     0.715690422781      -0.453997721096     -0.284269869333     -0.447155533773     
9500000000.0        -0.288556574143     -0.449143011419     0.711403171737      -0.456060526035     0.711403171737      -0.456060526035     -0.288556574143     -0.449143011419     
9600000000.0        -0.292835963922     -0.451077748542     0.707123229737      -0.458070625863     0.707123229737      -0.458070625863     -0.292835963922     -0.451077748542     
9700000000.0        -0.297107375955     -0.452960339257     0.702851259489      -0.460028614283     0.702851259489      -0.460028614283     -0.297107375955     -0.452960339257     
9800000000.0        -0.301370166615     -0.454791382377     0.698587904618      -0.461935089706     0.698587904618      -0.461935089706     -0.301370166615     -0.454791382377     
9900000000.0        -0.30562371117      -0.456571480908     0.694333789847      -0.463790654741     0.694333789847      -0.463790654741     -0.30562371117      -0.456571480908     
10000000000.0       -0.30986740359      -0.458301241555     0.690089521206      -0.465595915709     0.690089521206      -0.465595915709     -0.30986740359      -0.458301241555     
