# Hz S RI R 50.00 
100000000.0         0.0316881884443     0.0030641818565     0.968307012801      -0.00502801362125   0.968307012801      -0.00502801362125   0.0316881884443     0.0030641818565     
200000000.0         0.0319380822658     0.00612457971691    0.96804942086       -0.0100522537723    0.96804942086       -0.0100522537723    0.0319380822658     0.00612457971691    
300000000.0         0.0321651485752     0.00918217923852    0.967810756316      -0.0150737177554    0.967810756316      -0.0150737177554    0.0321651485752     0.00918217923852    
400000000.0         0.0323961196543     0.0122370685069     0.967564286173      -0.0200925038047    0.967564286173      -0.0200925038047    0.0323961196543     0.0122370685069     
500000000.0         0.0326412851764     0.0152891274847     0.967299719992      -0.0251085012805    0.967299719992      -0.0251085012805    0.0326412851764     0.0152891274847     
600000000.0         0.0329058800919     0.018338144435      0.967011821989      -0.0301215073543    0.967011821989      -0.0301215073543    0.0329058800919     0.018338144435      
700000000.0         0.0331929812541     0.0213838577617     0.966697514392      -0.035131268982     0.966697514392      -0.035131268982     0.0331929812541     0.0213838577617     
800000000.0         0.0335045651236     0.0244259754492     0.966354819734      -0.0401375024232    0.966354819734      -0.0401375024232    0.0335045651236     0.0244259754492     
900000000.0         0.0338419789253     0.0274641855399     0.965982389693      -0.0451399037707    0.965982389693      -0.0451399037707    0.0338419789253     0.0274641855399     
1000000000.0        0.0342061795713     0.0304981623705     0.965579266166      -0.0501381552238    0.965579266166      -0.0501381552238    0.0342061795713     0.0304981623705     
1100000000.0        0.034597866531      0.0335275705661     0.965144748396      -0.0551319291086    0.965144748396      -0.0551319291086    0.034597866531      0.0335275705661     
1200000000.0        0.0350175610417     0.0365520677444     0.964678313763      -0.0601208906035    0.964678313763      -0.0601208906035    0.0350175610417     0.0365520677444     
1300000000.0        0.0354656559683     0.0395713064324     0.964179567922      -0.0651046996714    0.964179567922      -0.0651046996714    0.0354656559683     0.0395713064324     
1400000000.0        0.0359424485963     0.0425849354771     0.963648212012      -0.0700830124834    0.963648212012      -0.0700830124834    0.0359424485963     0.0425849354771     
1500000000.0        0.0364481629936     0.0455926011171     0.96308402029       -0.0750554825011    0.96308402029       -0.0750554825011    0.0364481629936     0.0455926011171     
1600000000.0        0.0369829657318     0.0485939478204     0.962486824415      -0.0800217613228    0.962486824415      -0.0800217613228    0.0369829657318     0.0485939478204     
1700000000.0        0.037546977229      0.0515886189551     0.961856502098      -0.0849814993618    0.961856502098      -0.0849814993618    0.037546977229      0.0515886189551     
1800000000.0        0.0381402801206     0.0545762573387     0.961192968739      -0.0899343464014    0.961192968739      -0.0899343464014    0.0381402801206     0.0545762573387     
1900000000.0        0.0387629255601     0.0575565056961     0.960496171121      -0.094879952059     0.960496171121      -0.094879952059     0.0387629255601     0.0575565056961     
2000000000.0        0.0394149380463     0.0605290070494     0.959766082584      -0.09981796618      0.959766082584      -0.09981796618      0.0394149380463     0.0605290070494     
2100000000.0        0.0400963191792     0.0634934050535     0.959002699269      -0.104748039178     0.959002699269      -0.104748039178     0.0400963191792     0.0634934050535     
2200000000.0        0.0408070506256     0.0664493442905     0.958206037155      -0.109669822331     0.958206037155      -0.109669822331     0.0408070506256     0.0664493442905     
2300000000.0        0.0415470964903     0.06939647053       0.957376129685      -0.114582968048     0.957376129685      -0.114582968048     0.0415470964903     0.06939647053       
2400000000.0        0.0423164052364     0.0723344309627     0.956513025845      -0.119487130101     0.956513025845      -0.119487130101     0.0423164052364     0.0723344309627     
2500000000.0        0.0431149112565     0.0752628744119     0.955616788596      -0.124381963846     0.955616788596      -0.124381963846     0.0431149112565     0.0752628744119     
2600000000.0        0.0439425361734     0.0781814515262     0.954687493573      -0.129267126408     0.954687493573      -0.129267126408     0.0439425361734     0.0781814515262     
2700000000.0        0.0447991899264     0.0810898149575     0.953725227995      -0.13414227687      0.953725227995      -0.13414227687      0.0447991899264     0.0810898149575     
2800000000.0        0.0456847716889     0.083987619525      0.952730089752      -0.139007076434     0.952730089752      -0.139007076434     0.0456847716889     0.083987619525      
2900000000.0        0.0465991706485     0.0868745223689     0.951702186622      -0.143861188579     0.951702186622      -0.143861188579     0.0465991706485     0.0868745223689     
3000000000.0        0.0475422666778     0.0897501830934     0.950641635603      -0.148704279202     0.950641635603      -0.148704279202     0.0475422666778     0.0897501830934     
3100000000.0        0.048513930916      0.0926142639024     0.949548562329      -0.153536016759     0.949548562329      -0.153536016759     0.048513930916      0.0926142639024     
3200000000.0        0.0495140262762     0.095466429726      0.948423100563      -0.158356072389     0.948423100563      -0.158356072389     0.0495140262762     0.095466429726      
3300000000.0        0.050542407893      0.098306348342      0.947265391751      -0.163164120041     0.947265391751      -0.163164120041     0.050542407893      0.098306348342      
3400000000.0        0.0515989235197     0.10113369049       0.946075584624      -0.167959836584     0.946075584624      -0.167959836584     0.0515989235197     0.10113369049       
3500000000.0        0.0526834138835     0.10394812998       0.944853834841      -0.172742901922     0.944853834841      -0.172742901922     0.0526834138835     0.10394812998       
3600000000.0        0.0537957130058     0.106749343797      0.943600304672      -0.177512999096     0.943600304672      -0.177512999096     0.0537957130058     0.106749343797      
3700000000.0        0.0549356484934     0.109537012201      0.942315162706      -0.182269814382     0.942315162706      -0.182269814382     0.0549356484934     0.109537012201      
3800000000.0        0.0561030418041     0.112310818819      0.940998583584      -0.187013037393     0.940998583584      -0.187013037393     0.0561030418041     0.112310818819      
3900000000.0        0.0572977084917     0.115070450738      0.939650747753      -0.191742361163     0.939650747753      -0.191742361163     0.0572977084917     0.115070450738      
4000000000.0        0.0585194584332     0.117815598592      0.938271841243      -0.196457482239     0.938271841243      -0.196457482239     0.0585194584332     0.117815598592      
4100000000.0        0.0597680960396     0.120545956643      0.936862055454      -0.201158100764     0.936862055454      -0.201158100764     0.0597680960396     0.120545956643      
4200000000.0        0.0610434204548     0.123261222861      0.935421586954      -0.205843920555     0.935421586954      -0.205843920555     0.0610434204548     0.123261222861      
4300000000.0        0.0623452257422     0.125961099002      0.933950637297      -0.210514649181     0.933950637297      -0.210514649181     0.0623452257422     0.125961099002      
4400000000.0        0.0636733010619     0.128645290679      0.932449412845      -0.215169998036     0.932449412845      -0.215169998036     0.0636733010619     0.128645290679      
4500000000.0        0.0650274308394     0.131313507431      0.930918124596      -0.219809682411     0.930918124596      -0.219809682411     0.0650274308394     0.131313507431      
4600000000.0        0.0664073949268     0.133965462793      0.929356988028      -0.224433421556     0.929356988028      -0.224433421556     0.0664073949268     0.133965462793      
4700000000.0        0.0678129687575     0.136600874353      0.927766222937      -0.229040938749     0.927766222937      -0.229040938749     0.0678129687575     0.136600874353      
4800000000.0        0.0692439234956     0.139219463821      0.926146053297      -0.233631961354     0.926146053297      -0.233631961354     0.0692439234956     0.139219463821      
4900000000.0        0.0707000261799     0.141820957078      0.924496707107      -0.238206220878     0.924496707107      -0.238206220878     0.0707000261799     0.141820957078      
5000000000.0        0.072181039864      0.144405084238      0.922818416255      -0.242763453031     0.922818416255      -0.242763453031     0.072181039864      0.144405084238      
5100000000.0        0.0736867237522     0.146971579695      0.921111416385      -0.247303397774     0.921111416385      -0.247303397774     0.0736867237522     0.146971579695      
5200000000.0        0.075216833332      0.149520182178      0.919375946756      -0.251825799369     0.919375946756      -0.251825799369     0.075216833332      0.149520182178      
5300000000.0        0.0767711205039     0.15205063479       0.917612250121      -0.256330406426     0.917612250121      -0.256330406426     0.0767711205039     0.15205063479       
5400000000.0        0.0783493337082     0.15456268506       0.915820572596      -0.260816971951     0.915820572596      -0.260816971951     0.0783493337082     0.15456268506       
5500000000.0        0.079951218049      0.157056084977      0.914001163535      -0.265285253382     0.914001163535      -0.265285253382     0.079951218049      0.157056084977      
5600000000.0        0.0815765154167     0.159530591036      0.912154275408      -0.26973501263      0.912154275408      -0.26973501263      0.0815765154167     0.159530591036      
5700000000.0        0.0832249646079     0.16198596427       0.910280163684      -0.27416601612      0.910280163684      -0.27416601612      0.0832249646079     0.16198596427       
5800000000.0        0.0848963014438     0.164421970283      0.908379086709      -0.278578034817     0.908379086709      -0.278578034817     0.0848963014438     0.164421970283      
5900000000.0        0.0865902588865     0.166838379286      0.906451305591      -0.282970844264     0.906451305591      -0.282970844264     0.0865902588865     0.166838379286      
6000000000.0        0.0883065671538     0.169234966121      0.904497084084      -0.287344224606     0.904497084084      -0.287344224606     0.0883065671538     0.169234966121      
6100000000.0        0.0900449538333     0.171611510291      0.902516688476      -0.291697960623     0.902516688476      -0.291697960623     0.0900449538333     0.171611510291      
6200000000.0        0.0918051439933     0.173967795981      0.900510387474      -0.296031841747     0.900510387474      -0.296031841747     0.0918051439933     0.173967795981      
6300000000.0        0.0935868602945     0.176303612085      0.898478452099      -0.300345662089     0.898478452099      -0.300345662089     0.0935868602945     0.176303612085      
6400000000.0        0.0953898230988     0.178618752217      0.896421155568      -0.304639220456     0.896421155568      -0.304639220456     0.0953898230988     0.178618752217      
6500000000.0        0.0972137505778     0.180913014738      0.894338773195      -0.308912320369     0.894338773195      -0.308912320369     0.0972137505778     0.180913014738      
6600000000.0        0.0990583588193     0.183186202764      0.892231582275      -0.313164770078     0.892231582275      -0.313164770078     0.0990583588193     0.183186202764      
6700000000.0        0.100923361934      0.185438124179      0.890099861984      -0.317396382575     0.890099861984      -0.317396382575     0.100923361934      0.185438124179      
6800000000.0        0.102808472159      0.187668591651      0.887943893273      -0.321606975602     0.887943893273      -0.321606975602     0.102808472159      0.187668591651      
6900000000.0        0.104713399962      0.189877422632      0.885763958763      -0.325796371663     0.885763958763      -0.325796371663     0.104713399962      0.189877422632      
7000000000.0        0.106637854146      0.192064439373      0.883560342643      -0.329964398029     0.883560342643      -0.329964398029     0.106637854146      0.192064439373      
7100000000.0        0.108581541944      0.194229468919      0.881333330568      -0.334110886738     0.881333330568      -0.334110886738     0.108581541944      0.194229468919      
7200000000.0        0.110544169129      0.196372343121      0.879083209558      -0.338235674604     0.879083209558      -0.338235674604     0.110544169129      0.196372343121      
7300000000.0        0.112525440105      0.198492898625      0.876810267901      -0.34233860321      0.876810267901      -0.34233860321      0.112525440105      0.198492898625      
7400000000.0        0.114525058009      0.200590976878      0.874514795054      -0.346419518911     0.874514795054      -0.346419518911     0.114525058009      0.200590976878      
7500000000.0        0.116542724806      0.202666424123      0.872197081541      -0.350478272826     0.872197081541      -0.350478272826     0.116542724806      0.202666424123      
7600000000.0        0.118578141388      0.204719091386      0.869857418865      -0.354514720834     0.869857418865      -0.354514720834     0.118578141388      0.204719091386      
7700000000.0        0.120631007666      0.206748834479      0.867496099407      -0.358528723568     0.867496099407      -0.358528723568     0.120631007666      0.206748834479      
7800000000.0        0.122701022666      0.208755513981      0.865113416333      -0.362520146398     0.865113416333      -0.362520146398     0.122701022666      0.208755513981      
7900000000.0        0.124787884617      0.210738995229      0.862709663503      -0.366488859429     0.862709663503      -0.366488859429     0.124787884617      0.210738995229      
8000000000.0        0.126891291049      0.21269914831       0.860285135379      -0.370434737477     0.860285135379      -0.370434737477     0.126891291049      0.21269914831       
8100000000.0        0.129010938878      0.214635848035      0.857840126933      -0.374357660064     0.857840126933      -0.374357660064     0.129010938878      0.214635848035      
8200000000.0        0.131146524498      0.216548973933      0.85537493356       -0.378257511393     0.85537493356       -0.378257511393     0.131146524498      0.216548973933      
8300000000.0        0.133297743865      0.218438410225      0.852889850986      -0.382134180333     0.852889850986      -0.382134180333     0.133297743865      0.218438410225      
8400000000.0        0.13546429259       0.220304045808      0.850385175187      -0.385987560397     0.850385175187      -0.385987560397     0.13546429259       0.220304045808      
8500000000.0        0.137645866019      0.222145774229      0.847861202297      -0.389817549722     0.847861202297      -0.389817549722     0.137645866019      0.222145774229      
8600000000.0        0.139842159318      0.223963493666      0.84531822853       -0.393624051043     0.84531822853       -0.393624051043     0.139842159318      0.223963493666      
8700000000.0        0.142052867559      0.2257571069        0.842756550091      -0.397406971671     0.842756550091      -0.397406971671     0.142052867559      0.2257571069        
8800000000.0        0.144277685799      0.22752652129       0.840176463097      -0.401166223461     0.840176463097      -0.401166223461     0.144277685799      0.22752652129       
8900000000.0        0.146516309159      0.229271648744      0.837578263495      -0.404901722791     0.837578263495      -0.404901722791     0.146516309159      0.229271648744      
9000000000.0        0.148768432908      0.23099240569       0.834962246986      -0.408613390525     0.834962246986      -0.408613390525     0.148768432908      0.23099240569       
9100000000.0        0.151033752536      0.232688713047      0.832328708942      -0.412301151989     0.832328708942      -0.412301151989     0.151033752536      0.232688713047      
9200000000.0        0.153311963832      0.23436049619       0.829677944333      -0.415964936933     0.829677944333      -0.415964936933     0.153311963832      0.23436049619       
9300000000.0        0.15560276296       0.236007684918      0.827010247651      -0.419604679503     0.827010247651      -0.419604679503     0.15560276296       0.236007684918      
9400000000.0        0.157905846531      0.23763021342       0.824325912832      -0.4232203182       0.824325912832      -0.4232203182       0.157905846531      0.23763021342       
9500000000.0        0.16022091168       0.23922802024       0.821625233192      -0.426811795851     0.821625233192      -0.426811795851     0.16022091168       0.23922802024       
9600000000.0        0.162547656129      0.240801048236      0.818908501345      -0.430379059564     0.818908501345      -0.430379059564     0.162547656129      0.240801048236      
9700000000.0        0.164885778263      0.242349244548      0.816176009141      -0.433922060698     0.816176009141      -0.433922060698     0.164885778263      0.242349244548      
9800000000.0        0.167234977198      0.243872560552      0.813428047594      -0.437440754816     0.813428047594      -0.437440754816     0.167234977198      0.243872560552      
9900000000.0        0.169594952844      0.245370951827      0.810664906817      -0.44093510165      0.810664906817      -0.44093510165      0.169594952844      0.245370951827      
10000000000.0       0.171965405974      0.246844378108      0.807886875952      -0.444405065057     0.807886875952      -0.444405065057     0.171965405974      0.246844378108      
