# Hz S RI R 50.00 
100000000.0         0.000106305914381   -0.000190718955617  0.999891995732      -0.000369026266485  0.999891995732      -0.000369026266485  0.000106305914381   -0.000190718955618  
200000000.0         0.000106544122318   -0.000381440347478  0.99989074583       -0.000738055570272  0.99989074583       -0.000738055570272  0.000106544122318   -0.000381440347478  
300000000.0         0.000106453774916   -0.000572165293749  0.999889511125      -0.0011070898085    0.999889511125      -0.0011070898085    0.000106453774916   -0.000572165293749  
400000000.0         0.000106127614284   -0.000762894676172  0.99988819885       -0.00147613038216   0.99988819885       -0.00147613038216   0.000106127614284   -0.000762894676172  
500000000.0         0.000105601286858   -0.000953629238077  0.999886773334      -0.00184517846029   0.999886773334      -0.00184517846029   0.000105601286858   -0.000953629238077  
600000000.0         0.000104892932828   -0.00114436963024   0.999885216404      -0.00221423506547   0.999885216404      -0.00221423506547   0.000104892932828   -0.00114436963024   
700000000.0         0.000104013241648   -0.00133511643339   0.999883517338      -0.00258330111383   0.999883517338      -0.00258330111383   0.000104013241648   -0.00133511643339   
800000000.0         0.000102969119431   -0.00152587017485   0.999881669191      -0.00295237744133   0.999881669191      -0.00295237744133   0.000102969119431   -0.00152587017485   
900000000.0         0.000101765320365   -0.00171663133734   0.999879667171      -0.00332146481855   0.999879667171      -0.00332146481855   0.000101765320365   -0.00171663133734   
1000000000.0        0.000100405272913   -0.00190740036635   0.999877507807      -0.00369056396207   0.999877507807      -0.00369056396207   0.000100405272913   -0.00190740036635   
1100000000.0        9.88915389428e-05   -0.00209817767513   0.999875188494      -0.00405967554223   0.999875188494      -0.00405967554223   9.88915389428e-05   -0.00209817767513   
1200000000.0        9.72260870529e-05   -0.00228896364882   0.999872707214      -0.00442880018952   0.999872707214      -0.00442880018952   9.72260870529e-05   -0.00228896364882   
1300000000.0        9.54104644513e-05   -0.00247975864779   0.999870062374      -0.00479793849942   0.999870062374      -0.00479793849942   9.54104644513e-05   -0.00247975864779   
1400000000.0        9.34459098012e-05   -0.00267056300982   0.999867252684      -0.00516709103592   0.999867252684      -0.00516709103592   9.3445909801e-05    -0.00267056300982   
1500000000.0        9.13334300903e-05   -0.00286137705293   0.999864277084      -0.00553625833534   0.999864277084      -0.00553625833534   9.13334300903e-05   -0.00286137705293   
1600000000.0        8.90738546044e-05   -0.00305220107642   0.999861134691      -0.00590544090824   0.999861134691      -0.00590544090824   8.90738546044e-05   -0.00305220107642   
1700000000.0        8.66678737288e-05   -0.00324303536257   0.999857824759      -0.00627463924179   0.999857824759      -0.00627463924179   8.66678737288e-05   -0.00324303536257   
1800000000.0        8.41160676059e-05   -0.003433880178     0.99985434665       -0.00664385380177   0.99985434665       -0.00664385380177   8.41160676062e-05   -0.003433880178     
1900000000.0        8.14189276259e-05   -0.0036247357748    0.999850699814      -0.00701308503413   0.999850699814      -0.00701308503413   8.14189276255e-05   -0.0036247357748    
2000000000.0        7.85768727887e-05   -0.00381560239157   0.999846883771      -0.00738233336651   0.999846883771      -0.00738233336651   7.85768727887e-05   -0.00381560239157   
2100000000.0        7.5590262443e-05    -0.00400648025391   0.999842898101      -0.0077515992091    0.999842898101      -0.0077515992091    7.5590262443e-05    -0.00400648025391   
2200000000.0        7.24594062909e-05   -0.00419736957554   0.99983874243       -0.00812088295607   0.99983874243       -0.00812088295607   7.24594062911e-05   -0.00419736957554   
2300000000.0        6.91845723189e-05   -0.0043882705589    0.999834416425      -0.00849018498648   0.999834416425      -0.00849018498648   6.91845723193e-05   -0.0043882705589    
2400000000.0        6.57659931853e-05   -0.00457918339559   0.999829919789      -0.00885950566499   0.999829919789      -0.00885950566499   6.57659931853e-05   -0.00457918339559   
2500000000.0        6.22038714349e-05   -0.00477010826717   0.999825252252      -0.0092288453428    0.999825252252      -0.0092288453428    6.22038714349e-05   -0.00477010826717   
2600000000.0        5.84983837195e-05   -0.00496104534533   0.999820413569      -0.00959820435816   0.999820413569      -0.00959820435816   5.84983837195e-05   -0.00496104534533   
2700000000.0        5.46496843528e-05   -0.00515199479256   0.999815403517      -0.00996758303712   0.999815403517      -0.00996758303712   5.46496843532e-05   -0.00515199479256   
2800000000.0        5.0657908202e-05    -0.00534295676269   0.999810221891      -0.0103369816943    0.999810221891      -0.0103369816943    5.06579082018e-05   -0.00534295676269   
2900000000.0        4.65231731579e-05   -0.0055339314008    0.999804868501      -0.0107064006329    0.999804868501      -0.0107064006329    4.65231731579e-05   -0.0055339314008    
3000000000.0        4.2245582218e-05    -0.00572491884413   0.999799343172      -0.0110758401457    0.999799343172      -0.0110758401457    4.2245582218e-05    -0.00572491884413   
3100000000.0        3.78252252278e-05   -0.00591591922198   0.999793645742      -0.0114453005154    0.999793645742      -0.0114453005154    3.78252252278e-05   -0.00591591922198   
3200000000.0        3.32621803956e-05   -0.00610693265624   0.999787776058      -0.0118147820147    0.999787776058      -0.0118147820147    3.32621803958e-05   -0.00610693265624   
3300000000.0        2.85565155773e-05   -0.00629795926142   0.999781733978      -0.0121842849069    0.999781733978      -0.0121842849069    2.85565155775e-05   -0.00629795926142   
3400000000.0        2.3708289405e-05    -0.00648899914525   0.999775519366      -0.0125538094467    0.999775519366      -0.0125538094467    2.37082894052e-05   -0.00648899914525   
3500000000.0        1.87175522286e-05   -0.00668005240865   0.999769132097      -0.0129233558796    0.999769132097      -0.0129233558796    1.87175522288e-05   -0.00668005240865   
3600000000.0        1.35843469793e-05   -0.00687111914602   0.999762572049      -0.013292924443     0.999762572049      -0.013292924443     1.35843469793e-05   -0.00687111914602   
3700000000.0        8.30870989521e-06   -0.0070621994455    0.999755839109      -0.0136625153661    0.999755839109      -0.0136625153661    8.30870989521e-06   -0.0070621994455    
3800000000.0        2.89067116999e-06   -0.00725329338919   0.999748933168      -0.0140321288704    0.999748933168      -0.0140321288704    2.89067116999e-06   -0.00725329338919   
3900000000.0        -2.66974448082e-06  -0.00744440105324   0.999741854122      -0.0144017651697    0.999741854122      -0.0144017651697    -2.66974448093e-06  -0.00744440105324   
4000000000.0        -8.37251731534e-06  -0.00763552250793   0.99973460187       -0.0147714244704    0.99973460187       -0.0147714244704    -8.37251731556e-06  -0.00763552250793   
4100000000.0        -1.42176321158e-05  -0.0078266578183    0.999727176317      -0.0151411069721    0.999727176317      -0.0151411069721    -1.42176321158e-05  -0.0078266578183    
4200000000.0        -2.02050777952e-05  -0.00801780704366   0.999719577371      -0.0155108128672    0.999719577371      -0.0155108128672    -2.02050777954e-05  -0.00801780704366   
4300000000.0        -2.63348470385e-05  -0.00820897023822   0.999711804942      -0.0158805423416    0.999711804942      -0.0158805423416    -2.63348470385e-05  -0.00820897023822   
4400000000.0        -3.26069359927e-05  -0.00840014745112   0.999703858944      -0.0162502955745    0.999703858944      -0.0162502955745    -3.26069359926e-05  -0.00840014745112   
4500000000.0        -3.90213439692e-05  -0.0085913387264    0.999695739294      -0.0166200727391    0.999695739294      -0.0166200727391    -3.90213439694e-05  -0.0085913387264    
4600000000.0        -4.55780731999e-05  -0.00878254410322   0.99968744591       -0.0169898740021    0.99968744591       -0.0169898740021    -4.55780731999e-05  -0.00878254410322   
4700000000.0        -5.22771285961e-05  -0.00897376361614   0.999678978714      -0.0173596995245    0.999678978714      -0.0173596995245    -5.22771285959e-05  -0.00897376361614   
4800000000.0        -5.91185175424e-05  -0.00916499729513   0.999670337627      -0.0177295494613    0.999670337627      -0.0177295494613    -5.91185175423e-05  -0.00916499729513   
4900000000.0        -6.61022497102e-05  -0.00935624516552   0.999661522576      -0.0180994239621    0.999661522576      -0.0180994239621    -6.61022497103e-05  -0.00935624516552   
5000000000.0        -7.32283368743e-05  -0.00954750724825   0.999652533487      -0.0184693231705    0.999652533487      -0.0184693231705    -7.32283368745e-05  -0.00954750724825   
5100000000.0        -8.04967927689e-05  -0.00973878356006   0.999643370288      -0.0188392472251    0.999643370288      -0.0188392472251    -8.04967927689e-05  -0.00973878356006   
5200000000.0        -8.79076329311e-05  -0.00993007411346   0.999634032908      -0.0192091962591    0.999634032908      -0.0192091962591    -8.79076329309e-05  -0.00993007411346   
5300000000.0        -9.54608745812e-05  -0.0101213789169    0.999624521278      -0.0195791704005    0.999624521278      -0.0195791704005    -9.54608745812e-05  -0.0101213789169    
5400000000.0        -0.000103156536489  -0.0103126979746    0.999614835331      -0.0199491697725    0.999614835331      -0.0199491697725    -0.000103156536489  -0.0103126979746    
5500000000.0        -0.000110994638879  -0.0105040312872    0.999604975         -0.0203191944931    0.999604975         -0.0203191944931    -0.00011099463888   -0.0105040312872    
5600000000.0        -0.000118975203314  -0.0106953788513    0.999594940219      -0.0206892446757    0.999594940219      -0.0206892446757    -0.000118975203314  -0.0106953788513    
5700000000.0        -0.000127098252611  -0.0108867406597    0.999584730922      -0.021059320429     0.999584730922      -0.021059320429     -0.000127098252611  -0.0108867406597    
5800000000.0        -0.000135363810746  -0.0110781167016    0.999574347048      -0.021429421857     0.999574347048      -0.021429421857     -0.000135363810746  -0.0110781167016    
5900000000.0        -0.000143771902787  -0.0112695069626    0.999563788532      -0.0217995490593    0.999563788532      -0.0217995490593    -0.000143771902787  -0.0112695069626    
6000000000.0        -0.000152322554804  -0.0114609114247    0.999553055312      -0.0221697021311    0.999553055312      -0.0221697021311    -0.000152322554804  -0.0114609114247    
6100000000.0        -0.000161015793812  -0.0116523300666    0.999542147326      -0.0225398811633    0.999542147326      -0.0225398811633    -0.000161015793812  -0.0116523300666    
6200000000.0        -0.000169851647702  -0.0118437628634    0.999531064515      -0.0229100862425    0.999531064515      -0.0229100862425    -0.000169851647702  -0.0118437628634    
6300000000.0        -0.000178830145183  -0.0120352097869    0.999519806817      -0.0232803174514    0.999519806817      -0.0232803174514    -0.000178830145183  -0.0120352097869    
6400000000.0        -0.000187951315727  -0.0122266708057    0.999508374174      -0.0236505748683    0.999508374174      -0.0236505748683    -0.000187951315727  -0.0122266708057    
6500000000.0        -0.000197215189514  -0.0124181458853    0.999496766526      -0.0240208585679    0.999496766526      -0.0240208585679    -0.000197215189514  -0.0124181458853    
6600000000.0        -0.000206621797388  -0.0126096349878    0.999484983814      -0.0243911686207    0.999484983814      -0.0243911686207    -0.000206621797389  -0.0126096349878    
6700000000.0        -0.000216171170813  -0.0128011380723    0.999473025981      -0.0247615050935    0.999473025981      -0.0247615050935    -0.000216171170813  -0.0128011380723    
6800000000.0        -0.00022586334182   -0.0129926550951    0.999460892969      -0.0251318680496    0.999460892969      -0.0251318680496    -0.00022586334182   -0.0129926550951    
6900000000.0        -0.00023569834298   -0.0131841860092    0.99944858472       -0.0255022575482    0.99944858472       -0.0255022575482    -0.00023569834298   -0.0131841860092    
7000000000.0        -0.000245676207362  -0.0133757307648    0.99943610118       -0.0258726736451    0.99943610118       -0.0258726736451    -0.000245676207362  -0.0133757307648    
7100000000.0        -0.000255796968495  -0.0135672893092    0.99942344229       -0.0262431163926    0.99942344229       -0.0262431163926    -0.000255796968495  -0.0135672893092    
7200000000.0        -0.000266060660341  -0.0137588615869    0.999410607995      -0.0266135858396    0.999410607995      -0.0266135858396    -0.000266060660341  -0.0137588615869    
7300000000.0        -0.000276467317255  -0.0139504475397    0.99939759824       -0.0269840820312    0.99939759824       -0.0269840820312    -0.000276467317255  -0.0139504475397    
7400000000.0        -0.000287016973967  -0.0141420471066    0.999384412969      -0.0273546050097    0.999384412969      -0.0273546050097    -0.000287016973967  -0.0141420471066    
7500000000.0        -0.000297709665544  -0.0143336602238    0.999371052128      -0.0277251548136    0.999371052128      -0.0277251548136    -0.000297709665544  -0.0143336602238    
7600000000.0        -0.00030854542737   -0.0145252868252    0.999357515661      -0.0280957314785    0.999357515661      -0.0280957314785    -0.00030854542737   -0.0145252868252    
7700000000.0        -0.000319524295116  -0.0147169268416    0.999343803515      -0.0284663350366    0.999343803515      -0.0284663350366    -0.000319524295116  -0.0147169268416    
7800000000.0        -0.000330646304726  -0.0149085802016    0.999329915636      -0.0288369655171    0.999329915636      -0.0288369655171    -0.000330646304726  -0.0149085802016    
7900000000.0        -0.000341911492381  -0.0151002468314    0.999315851969      -0.0292076229462    0.999315851969      -0.0292076229462    -0.000341911492381  -0.0151002468314    
8000000000.0        -0.000353319894492  -0.0152919266543    0.999301612462      -0.0295783073468    0.999301612462      -0.0295783073468    -0.000353319894492  -0.0152919266543    
8100000000.0        -0.000364871547667  -0.0154836195916    0.999287197061      -0.0299490187391    0.999287197061      -0.0299490187391    -0.000364871547667  -0.0154836195916    
8200000000.0        -0.000376566488701  -0.0156753255619    0.999272605714      -0.0303197571402    0.999272605714      -0.0303197571402    -0.000376566488701  -0.0156753255619    
8300000000.0        -0.000388404754555  -0.0158670444817    0.999257838366      -0.0306905225644    0.999257838366      -0.0306905225644    -0.000388404754555  -0.0158670444817    
8400000000.0        -0.000400386382336  -0.0160587762649    0.999242894967      -0.0310613150232    0.999242894967      -0.0310613150232    -0.000400386382336  -0.0160587762649    
8500000000.0        -0.000412511409286  -0.0162505208234    0.999227775464      -0.0314321345252    0.999227775464      -0.0314321345252    -0.000412511409286  -0.0162505208234    
8600000000.0        -0.000424779872759  -0.0164422780666    0.999212479804      -0.0318029810764    0.999212479804      -0.0318029810764    -0.000424779872758  -0.0164422780666    
8700000000.0        -0.000437191810212  -0.0166340479019    0.999197007936      -0.03217385468      0.999197007936      -0.03217385468      -0.000437191810212  -0.0166340479019    
8800000000.0        -0.000449747259189  -0.0168258302344    0.999181359809      -0.0325447553365    0.999181359809      -0.0325447553365    -0.000449747259189  -0.0168258302344    
8900000000.0        -0.000462446257305  -0.0170176249672    0.99916553537       -0.0329156830439    0.99916553537       -0.0329156830439    -0.000462446257305  -0.0170176249672    
9000000000.0        -0.000475288842235  -0.017209432001     0.999149534569      -0.0332866377975    0.999149534569      -0.0332866377975    -0.000475288842235  -0.017209432001     
9100000000.0        -0.000488275051698  -0.0174012512347    0.999133357355      -0.0336576195903    0.999133357355      -0.0336576195903    -0.000488275051698  -0.0174012512347    
9200000000.0        -0.000501404923456  -0.017593082565     0.999117003676      -0.0340286284125    0.999117003676      -0.0340286284125    -0.000501404923456  -0.017593082565     
9300000000.0        -0.000514678495281  -0.0177849258867    0.999100473483      -0.034399664252     0.999100473483      -0.034399664252     -0.000514678495281  -0.0177849258867    
9400000000.0        -0.000528095804968  -0.0179767810924    0.999083766724      -0.0347707270943    0.999083766724      -0.0347707270943    -0.000528095804968  -0.0179767810924    
9500000000.0        -0.000541656890305  -0.018168648073     0.99906688335       -0.0351418169224    0.99906688335       -0.0351418169224    -0.000541656890305  -0.018168648073     
9600000000.0        -0.000555361789074  -0.0183605267172    0.999049823311      -0.0355129337171    0.999049823311      -0.0355129337171    -0.000555361789074  -0.0183605267172    
9700000000.0        -0.000569210539039  -0.0185524169121    0.999032586556      -0.0358840774566    0.999032586556      -0.0358840774566    -0.000569210539039  -0.0185524169121    
9800000000.0        -0.000583203177931  -0.0187443185427    0.999015173036      -0.0362552481173    0.999015173036      -0.0362552481173    -0.000583203177931  -0.0187443185427    
9900000000.0        -0.000597339743448  -0.0189362314921    0.998997582702      -0.0366264456728    0.998997582702      -0.0366264456728    -0.000597339743448  -0.0189362314921    
10000000000.0       -0.000611620273234  -0.0191281556418    0.998979815504      -0.0369976700948    0.998979815504      -0.0369976700948    -0.000611620273234  -0.0191281556418    
