# Hz S RI R 50.00 
100000000.0         0.0028557350823     0.000299184617895   0.997143095099      -0.000466169895747  0.997143095099      -0.000466169895747  0.0028557350823     0.000299184617895   
200000000.0         0.00287491931606    0.000598340483014   0.997123713134      -0.000932311762899  0.997123713134      -0.000932311762899  0.00287491931606    0.000598340483014   
300000000.0         0.00288930236766    0.000897479228834   0.997109104437      -0.00139843763733   0.997109104437      -0.00139843763733   0.00288930236766    0.000897479228834   
400000000.0         0.0029013677223     0.0011966048115     0.997096785522      -0.0018645517881    0.997096785522      -0.0018645517881    0.0029013677223     0.0011966048115     
500000000.0         0.00291207361612    0.00149571939147    0.997085798152      -0.00233065664362   0.997085798152      -0.00233065664362   0.00291207361612    0.00149571939147    
600000000.0         0.00292190963066    0.00179482433036    0.997075652743      -0.00279675380456   0.997075652743      -0.00279675380456   0.00292190963066    0.00179482433036    
700000000.0         0.00293116549447    0.0020939205502     0.997066059565      -0.00326284441068   0.997066059565      -0.00326284441068   0.00293116549447    0.0020939205502     
800000000.0         0.00294002925526    0.00239300870017    0.997056830568      -0.00372892931271   0.997056830568      -0.00372892931271   0.00294002925526    0.00239300870017    
900000000.0         0.00294863102104    0.00269208924666    0.997047835644      -0.00419500916527   0.997047835644      -0.00419500916527   0.00294863102104    0.00269208924666    
1000000000.0        0.00295706514615    0.00299116252644    0.997038980435      -0.00466108448239   0.997038980435      -0.00466108448239   0.00295706514615    0.00299116252644    
1100000000.0        0.00296540257238    0.00329022878065    0.997030193997      -0.00512715567308   0.997030193997      -0.00512715567308   0.00296540257238    0.00329022878065    
1200000000.0        0.00297369818741    0.00358928817751    0.997021421442      -0.00559322306526   0.997021421442      -0.00559322306526   0.00297369818741    0.00358928817751    
1300000000.0        0.00298199545742    0.00388834082833    0.997012619301      -0.00605928692266   0.997012619301      -0.00605928692266   0.00298199545742    0.00388834082833    
1400000000.0        0.00299032947418    0.00418738679887    0.997003752479      -0.00652534745717   0.997003752479      -0.00652534745717   0.00299032947418    0.00418738679887    
1500000000.0        0.00299872903254    0.004486426118      0.996994792179      -0.00699140483794   0.996994792179      -0.00699140483794   0.00299872903254    0.004486426118      
1600000000.0        0.00300721809059    0.00478545878416    0.996985714441      -0.00745745919847   0.996985714441      -0.00745745919847   0.00300721809059    0.00478545878416    
1700000000.0        0.00301581682255    0.00508448477046    0.996976499089      -0.00792351064207   0.996976499089      -0.00792351064207   0.00301581682255    0.00508448477046    
1800000000.0        0.00302454239512    0.00538350402864    0.996967128953      -0.00838955924624   0.996967128953      -0.00838955924624   0.00302454239511    0.00538350402864    
1900000000.0        0.00303340955084    0.00568251649225    0.996957589287      -0.00885560506623   0.996957589287      -0.00885560506623   0.00303340955084    0.00568251649225    
2000000000.0        0.0030424310544     0.00598152207921    0.996947867325      -0.0093216481379    0.996947867325      -0.0093216481379    0.0030424310544     0.00598152207921    
2100000000.0        0.00305161803869    0.00628052069408    0.996937951931      -0.00978768848005   0.996937951931      -0.00978768848005   0.00305161803869    0.00628052069408    
2200000000.0        0.00306098027721    0.00657951222964    0.996927833329      -0.0102537260965    0.996927833329      -0.0102537260965    0.00306098027721    0.00657951222964    
2300000000.0        0.00307052640098    0.00687849656856    0.996917502884      -0.0107197609776    0.996917502884      -0.0107197609776    0.00307052640098    0.00687849656856    
2400000000.0        0.00308026407302    0.00717747358447    0.996906952931      -0.0111857931019    0.996906952931      -0.0111857931019    0.00308026407302    0.00717747358447    
2500000000.0        0.0030902001302     0.00747644314314    0.99689617663       -0.0116518224372    0.99689617663       -0.0116518224372    0.0030902001302     0.00747644314314    
2600000000.0        0.00310034069966    0.00777540510333    0.996885167851      -0.0121178489416    0.996885167851      -0.0121178489416    0.00310034069966    0.00777540510333    
2700000000.0        0.00311069129504    0.00807435931765    0.996873921077      -0.0125838725644    0.996873921077      -0.0125838725644    0.00311069129504    0.00807435931765    
2800000000.0        0.00312125689669    0.00837330563314    0.996862431325      -0.0130498932472    0.996862431325      -0.0130498932472    0.00312125689669    0.00837330563314    
2900000000.0        0.00313204201892    0.00867224389192    0.996850694076      -0.0135159109241    0.996850694076      -0.0135159109241    0.00313204201892    0.00867224389192    
3000000000.0        0.00314305076695    0.00897117393171    0.996838705223      -0.0139819255226    0.996838705223      -0.0139819255226    0.00314305076695    0.00897117393171    
3100000000.0        0.00315428688511    0.00927009558628    0.996826461019      -0.0144479369642    0.996826461019      -0.0144479369642    0.00315428688511    0.00927009558628    
3200000000.0        0.00316575379819    0.00956900868586    0.996813958034      -0.0149139451648    0.996813958034      -0.0149139451648    0.00316575379819    0.00956900868586    
3300000000.0        0.00317745464684    0.00986791305743    0.996801193125      -0.0153799500351    0.996801193125      -0.0153799500351    0.00317745464684    0.00986791305743    
3400000000.0        0.00318939231818    0.0101668085252     0.996788163401      -0.015845951481     0.996788163401      -0.015845951481     0.00318939231818    0.0101668085252     
3500000000.0        0.00320156947237    0.0104656949106     0.996774866199      -0.0163119494042    0.996774866199      -0.0163119494042    0.00320156947237    0.0104656949106     
3600000000.0        0.00321398856566    0.010764572033      0.99676129906       -0.0167779437019    0.99676129906       -0.0167779437019    0.00321398856566    0.010764572033      
3700000000.0        0.0032266518706     0.0110634397094     0.996747459706      -0.0172439342679    0.996747459706      -0.0172439342679    0.0032266518706     0.0110634397094     
3800000000.0        0.00323956149378    0.0113622977551     0.996733346027      -0.0177099209921    0.996733346027      -0.0177099209921    0.00323956149378    0.0113622977551     
3900000000.0        0.00325271939145    0.0116611459835     0.996718956065      -0.0181759037614    0.996718956065      -0.0181759037614    0.00325271939145    0.0116611459835     
4000000000.0        0.00326612738328    0.0119599842067     0.996704287994      -0.0186418824594    0.996704287994      -0.0186418824594    0.00326612738328    0.0119599842067     
4100000000.0        0.00327978716463    0.012258812235      0.996689340118      -0.0191078569668    0.996689340118      -0.0191078569668    0.00327978716463    0.012258812235      
4200000000.0        0.00329370031742    0.0125576298779     0.996674110849      -0.0195738271617    0.996674110849      -0.0195738271617    0.00329370031742    0.0125576298779     
4300000000.0        0.00330786831981    0.0128564369435     0.996658598705      -0.0200397929196    0.996658598705      -0.0200397929196    0.00330786831981    0.0128564369435     
4400000000.0        0.0033222925549     0.0131552332389     0.996642802301      -0.0205057541136    0.996642802301      -0.0205057541136    0.0033222925549     0.0131552332389     
4500000000.0        0.00333697431851    0.0134540185705     0.996626720336      -0.0209717106144    0.996626720336      -0.0209717106144    0.00333697431851    0.0134540185705     
4600000000.0        0.00335191482616    0.0137527927435     0.99661035159       -0.0214376622909    0.99661035159       -0.0214376622909    0.00335191482616    0.0137527927435     
4700000000.0        0.00336711521938    0.0140515555628     0.996593694919      -0.0219036090098    0.996593694919      -0.0219036090098    0.00336711521938    0.0140515555628     
4800000000.0        0.0033825765714     0.0143503068323     0.996576749245      -0.0223695506358    0.996576749245      -0.0223695506358    0.0033825765714     0.0143503068323     
4900000000.0        0.0033982998923     0.0146490463556     0.996559513554      -0.0228354870321    0.996559513554      -0.0228354870321    0.0033982998923     0.0146490463556     
5000000000.0        0.00341428613368    0.0149477739357     0.99654198689       -0.02330141806      0.99654198689       -0.02330141806      0.00341428613368    0.0149477739357     
5100000000.0        0.0034305361929     0.0152464893752     0.996524168352      -0.0237673435793    0.996524168352      -0.0237673435793    0.0034305361929     0.0152464893752     
5200000000.0        0.00344705091695    0.0155451924761     0.99650605709       -0.0242332634482    0.99650605709       -0.0242332634482    0.00344705091695    0.0155451924761     
5300000000.0        0.00346383110599    0.0158438830405     0.996487652298      -0.0246991775237    0.996487652298      -0.0246991775237    0.00346383110599    0.0158438830405     
5400000000.0        0.00348087751653    0.0161425608699     0.996468953216      -0.0251650856613    0.996468953216      -0.0251650856613    0.00348087751653    0.0161425608699     
5500000000.0        0.00349819086442    0.0164412257656     0.996449959124      -0.025630987715     0.996449959124      -0.025630987715     0.00349819086442    0.0164412257656     
5600000000.0        0.00351577182754    0.0167398775289     0.99643066934       -0.026096883538     0.99643066934       -0.026096883538     0.00351577182754    0.0167398775289     
5700000000.0        0.00353362104827    0.0170385159609     0.996411083217      -0.026562772982     0.996411083217      -0.026562772982     0.00353362104827    0.0170385159609     
5800000000.0        0.00355173913577    0.0173371408624     0.996391200142      -0.0270286558979    0.996391200142      -0.0270286558979    0.00355173913577    0.0173371408624     
5900000000.0        0.00357012666812    0.0176357520343     0.996371019533      -0.0274945321352    0.996371019533      -0.0274945321352    0.00357012666812    0.0176357520343     
6000000000.0        0.0035887841942     0.0179343492776     0.996350540836      -0.0279604015428    0.996350540836      -0.0279604015428    0.0035887841942     0.0179343492776     
6100000000.0        0.00360771223554    0.018232932393      0.996329763526      -0.0284262639683    0.996329763526      -0.0284262639683    0.00360771223554    0.018232932393      
6200000000.0        0.00362691128792    0.0185315011814     0.996308687102      -0.0288921192586    0.996308687102      -0.0288921192586    0.00362691128792    0.0185315011814     
6300000000.0        0.00364638182295    0.0188300554437     0.996287311089      -0.0293579672598    0.996287311089      -0.0293579672598    0.00364638182295    0.0188300554437     
6400000000.0        0.00366612428946    0.0191285949809     0.996265635032      -0.0298238078169    0.996265635032      -0.0298238078169    0.00366612428946    0.0191285949809     
6500000000.0        0.00368613911482    0.0194271195941     0.996243658502      -0.0302896407745    0.996243658502      -0.0302896407745    0.00368613911482    0.0194271195941     
6600000000.0        0.00370642670618    0.0197256290845     0.996221381085      -0.0307554659761    0.996221381085      -0.0307554659761    0.00370642670618    0.0197256290845     
6700000000.0        0.0037269874516     0.0200241232534     0.996198802389      -0.0312212832648    0.996198802389      -0.0312212832648    0.0037269874516     0.0200241232534     
6800000000.0        0.00374782172112    0.0203226019023     0.99617592204       -0.0316870924828    0.99617592204       -0.0316870924828    0.00374782172112    0.0203226019023     
6900000000.0        0.00376892986774    0.0206210648328     0.996152739681      -0.0321528934718    0.996152739681      -0.0321528934718    0.00376892986774    0.0206210648328     
7000000000.0        0.00379031222834    0.0209195118469     0.99612925497       -0.0326186860728    0.99612925497       -0.0326186860728    0.00379031222834    0.0209195118469     
7100000000.0        0.00381196912454    0.0212179427464     0.99610546758       -0.0330844701262    0.99610546758       -0.0330844701262    0.00381196912454    0.0212179427464     
7200000000.0        0.00383390086354    0.0215163573338     0.9960813772        -0.0335502454719    0.9960813772        -0.0335502454719    0.00383390086354    0.0215163573338     
7300000000.0        0.00385610773882    0.0218147554115     0.996056983533      -0.0340160119494    0.996056983533      -0.0340160119494    0.00385610773882    0.0218147554115     
7400000000.0        0.00387859003088    0.0221131367822     0.996032286292      -0.0344817693973    0.996032286292      -0.0344817693973    0.00387859003087    0.0221131367822     
7500000000.0        0.0039013480079     0.022411501249      0.996007285205      -0.0349475176541    0.996007285205      -0.0349475176541    0.0039013480079     0.022411501249      
7600000000.0        0.00392438192635    0.022709848615      0.995981980012      -0.0354132565577    0.995981980012      -0.0354132565577    0.00392438192635    0.022709848615      
7700000000.0        0.0039476920316     0.0230081786839     0.995956370461      -0.0358789859455    0.995956370461      -0.0358789859455    0.0039476920316     0.0230081786839     
7800000000.0        0.00397127855842    0.0233064912593     0.995930456314      -0.0363447056546    0.995930456314      -0.0363447056546    0.00397127855842    0.0233064912593     
7900000000.0        0.00399514173153    0.0236047861455     0.995904237341      -0.0368104155214    0.995904237341      -0.0368104155214    0.00399514173153    0.0236047861455     
8000000000.0        0.00401928176609    0.0239030631469     0.995877713323      -0.0372761153824    0.995877713323      -0.0372761153824    0.00401928176609    0.0239030631469     
8100000000.0        0.00404369886814    0.0242013220681     0.995850884048      -0.0377418050732    0.995850884048      -0.0377418050732    0.00404369886814    0.0242013220681     
8200000000.0        0.00406839323503    0.0244995627142     0.995823749315      -0.0382074844296    0.995823749315      -0.0382074844296    0.00406839323503    0.0244995627142     
8300000000.0        0.00409336505583    0.0247977848905     0.995796308929      -0.0386731532864    0.995796308929      -0.0386731532864    0.00409336505583    0.0247977848905     
8400000000.0        0.00411861451172    0.0250959884027     0.995768562706      -0.0391388114788    0.995768562706      -0.0391388114788    0.00411861451172    0.0250959884027     
8500000000.0        0.00414414177636    0.0253941730568     0.995740510466      -0.0396044588411    0.995740510466      -0.0396044588411    0.00414414177636    0.0253941730568     
8600000000.0        0.00416994701619    0.0256923386592     0.995712152038      -0.0400700952075    0.995712152038      -0.0400700952075    0.00416994701619    0.0256923386592     
8700000000.0        0.0041960303908     0.0259904850166     0.995683487258      -0.0405357204122    0.995683487258      -0.0405357204122    0.0041960303908     0.0259904850166     
8800000000.0        0.00422239205323    0.0262886119359     0.995654515968      -0.0410013342887    0.995654515968      -0.0410013342887    0.00422239205323    0.0262886119359     
8900000000.0        0.00424903215023    0.0265867192247     0.995625238017      -0.0414669366705    0.995625238017      -0.0414669366705    0.00424903215023    0.0265867192247     
9000000000.0        0.00427595082256    0.0268848066906     0.995595653258      -0.0419325273907    0.995595653258      -0.0419325273907    0.00427595082256    0.0268848066906     
9100000000.0        0.00430314820525    0.0271828741417     0.995565761553      -0.0423981062823    0.995565761553      -0.0423981062823    0.00430314820525    0.0271828741417     
9200000000.0        0.00433062442782    0.0274809213866     0.995535562766      -0.0428636731781    0.995535562766      -0.0428636731781    0.00433062442782    0.0274809213866     
9300000000.0        0.00435837961457    0.027778948234      0.99550505677       -0.0433292279104    0.99550505677       -0.0433292279104    0.00435837961457    0.027778948234      
9400000000.0        0.00438641388474    0.0280769544933     0.995474243438      -0.0437947703118    0.995474243438      -0.0437947703118    0.00438641388474    0.0280769544933     
9500000000.0        0.00441472735275    0.0283749399738     0.995443122653      -0.0442603002142    0.995443122653      -0.0442603002142    0.00441472735275    0.0283749399738     
9600000000.0        0.00444332012841    0.0286729044857     0.9954116943        -0.0447258174495    0.9954116943        -0.0447258174495    0.00444332012841    0.0286729044857     
9700000000.0        0.00447219231711    0.0289708478393     0.995379958268      -0.0451913218496    0.995379958268      -0.0451913218496    0.00447219231711    0.0289708478393     
9800000000.0        0.00450134401998    0.0292687698451     0.995347914451      -0.045656813246     0.995347914451      -0.045656813246     0.00450134401998    0.0292687698451     
9900000000.0        0.00453077533407    0.0295666703144     0.995315562748      -0.0461222914702    0.995315562748      -0.0461222914702    0.00453077533407    0.0295666703144     
10000000000.0       0.00456048635253    0.0298645490586     0.99528290306       -0.0465877563533    0.99528290306       -0.0465877563533    0.00456048635253    0.0298645490586     
