# Hz S RI R 50.00 
100000000.0         -0.000529698477536  -0.0229584590059    0.999419757539      -0.023139812761     0.999419757539      -0.023139812761     -0.000529698477536  -0.0229584590059    
200000000.0         -0.00214346709857   -0.0458403543331    0.997805594857      -0.0462030987528    0.997805594857      -0.0462030987528    -0.00214346709857   -0.0458403543331    
300000000.0         -0.00480623074528   -0.0685726350755    0.995142491202      -0.0691168262795    0.995142491202      -0.0691168262795    -0.00480623074528   -0.0685726350755    
400000000.0         -0.00850083471745   -0.0910839921504    0.991447557772      -0.0918097009925    0.991447557772      -0.0918097009925    -0.00850083471745   -0.0910839921504    
500000000.0         -0.0132038198785    -0.113305520696     0.986744236999      -0.114212830438     0.986744236999      -0.114212830438     -0.0132038198785    -0.113305520696     
600000000.0         -0.0188857886551    -0.135171373651     0.981061917945      -0.136260378391     0.981061917945      -0.136260378391     -0.0188857886551    -0.135171373651     
700000000.0         -0.025511858305     -0.156619361276     0.97443547832       -0.15789016476      0.97443547832       -0.15789016476      -0.025511858305     -0.156619361276     
800000000.0         -0.0330421845423    -0.177591479087     0.96690475914       -0.179044193755     0.96690475914       -0.179044193755     -0.0330421845423    -0.177591479087     
900000000.0         -0.0414325409286    -0.198034353603     0.958513984566      -0.199669099788     0.958513984566      -0.199669099788     -0.0414325409286    -0.198034353603     
1000000000.0        -0.0506349390508    -0.217899599416     0.949311141348      -0.219716504655     0.949311141348      -0.219716504655     -0.0506349390508    -0.217899599416     
1100000000.0        -0.0605982742926    -0.237144084407     0.939347332837      -0.239143282838     0.939347332837      -0.239143282838     -0.0605982742926    -0.237144084407     
1200000000.0        -0.0712689822928    -0.255730102921     0.928676122399      -0.257911734738     0.928676122399      -0.257911734738     -0.0712689822928    -0.255730102921     
1300000000.0        -0.0825916919496    -0.273625459294     0.917352880331      -0.275989670263     0.917352880331      -0.275989670263     -0.0825916919496    -0.273625459294     
1400000000.0        -0.0945098620323    -0.290803466477     0.905434147197      -0.293350407489     0.905434147197      -0.293350407489     -0.0945098620323    -0.290803466477     
1500000000.0        -0.106966389994     -0.307242866331     0.892977024985      -0.309972692996     0.892977024985      -0.309972692996     -0.106966389994     -0.307242866331     
1600000000.0        -0.119904183347     -0.322927679672     0.880038605697      -0.325840551942     0.880038605697      -0.325840551942     -0.119904183347     -0.322927679672     
1700000000.0        -0.13326668587      -0.337846995157     0.866675445134      -0.340943076982     0.866675445134      -0.340943076982     -0.13326668587      -0.337846995157     
1800000000.0        -0.146998352848     -0.35199470676      0.852943087637      -0.355274165759     0.852943087637      -0.355274165759     -0.146998352848     -0.35199470676      
1900000000.0        -0.161045071462     -0.365369209766     0.838895645689      -0.368832216932     0.838895645689      -0.368832216932     -0.161045071462     -0.365369209766     
2000000000.0        -0.175354524226     -0.377973065147     0.824585436474      -0.381619794563     0.824585436474      -0.381619794563     -0.175354524226     -0.377973065147     
2100000000.0        -0.189876494978     -0.389812641763     0.810062675872      -0.393643270341     0.810062675872      -0.393643270341     -0.189876494978     -0.389812641763     
2200000000.0        -0.204563118378     -0.400897745175     0.795375228969      -0.404912452409     0.795375228969      -0.404912452409     -0.204563118378     -0.400897745175     
2300000000.0        -0.219369075029     -0.411241241083     0.780568414919      -0.415440208822     0.780568414919      -0.415440208822     -0.219369075029     -0.411241241083     
2400000000.0        -0.234251735313     -0.420858680443     0.765684863116      -0.42524209267      0.765684863116      -0.42524209267      -0.234251735313     -0.420858680443     
2500000000.0        -0.249171255754     -0.429767932326     0.750764416824      -0.434335974961     0.750764416824      -0.434335974961     -0.249171255754     -0.429767932326     
2600000000.0        -0.264090632224     -0.437988829605     0.735844079966      -0.44274169031      0.735844079966      -0.44274169031      -0.264090632224     -0.437988829605     
2700000000.0        -0.278975714636     -0.445542831495     0.72095800244       -0.450480699501     0.72095800244       -0.450480699501     -0.278975714636     -0.445542831495     
2800000000.0        -0.293795187871     -0.452452706105     0.706137499178      -0.457575772039     0.706137499178      -0.457575772039     -0.293795187871     -0.452452706105     
2900000000.0        -0.308520523714     -0.458742235224     0.691411098218      -0.464050690957     0.691411098218      -0.464050690957     -0.308520523714     -0.458742235224     
3000000000.0        -0.323125908403     -0.464435942815     0.676804613151      -0.469929981314     0.676804613151      -0.469929981314     -0.323125908403     -0.464435942815     
3100000000.0        -0.337588150196     -0.469558847993     0.662341235552      -0.47523866318      0.662341235552      -0.47523866318      -0.337588150196     -0.469558847993     
3200000000.0        -0.351886571045     -0.474136242648     0.648041643308      -0.480002029273     0.648041643308      -0.480002029273     -0.351886571045     -0.474136242648     
3300000000.0        -0.366002886129     -0.478193493436     0.633924121085      -0.484245446956     0.633924121085      -0.484245446956     -0.366002886129     -0.478193493436     
3400000000.0        -0.379921074625     -0.481755867398     0.620004689551      -0.487994183864     0.620004689551      -0.487994183864     -0.379921074625     -0.481755867398     
3500000000.0        -0.393627244721     -0.484848380199     0.60629724037       -0.49127325615      0.60629724037       -0.49127325615      -0.393627244721     -0.484848380199     
3600000000.0        -0.407109495457     -0.487495665742     0.592813674355      -0.494107298104     0.592813674355      -0.494107298104     -0.407109495457     -0.487495665742     
3700000000.0        -0.420357777659     -0.489721865721     0.579564040539      -0.49652045172      0.579564040539      -0.49652045172      -0.420357777659     -0.489721865721     
3800000000.0        -0.43336375584      -0.491550537616     0.566556674267      -0.498536274686     0.566556674267      -0.498536274686     -0.43336375584      -0.491550537616     
3900000000.0        -0.44612067262      -0.493004579545     0.553798332782      -0.500177665253     0.553798332782      -0.500177665253     -0.44612067262      -0.493004579545     
4000000000.0        -0.458623216943     -0.494106170398     0.541294327005      -0.501466802367     0.541294327005      -0.501466802367     -0.458623216943     -0.494106170398     
4100000000.0        -0.47086739706      -0.4948767237       0.529048648552      -0.502425099542     0.529048648552      -0.502425099542     -0.47086739706      -0.4948767237       
4200000000.0        -0.482850419047     -0.495336853694     0.517064091214      -0.503073170945     0.517064091214      -0.503073170945     -0.482850419047     -0.495336853694     
4300000000.0        -0.494570571386     -0.495506352207     0.505342366382      -0.503430808268     0.505342366382      -0.503430808268     -0.494570571386     -0.495506352207     
4400000000.0        -0.506027115982     -0.495404174947     0.493884212022      -0.503516967032     0.493884212022      -0.503516967032     -0.506027115982     -0.495404174947     
4500000000.0        -0.517220185818     -0.495048435978     0.482689495026      -0.50334976106      0.482689495026      -0.50334976106      -0.517220185818     -0.495048435978     
4600000000.0        -0.528150689334     -0.494456409195     0.471757306829      -0.502946463966     0.471757306829      -0.502946463966     -0.528150689334     -0.494456409195     
4700000000.0        -0.538820221505     -0.493644535763     0.461086052334      -0.502323516588     0.461086052334      -0.502323516588     -0.538820221505     -0.493644535763     
4800000000.0        -0.549230981505     -0.492628436532     0.450673532246      -0.501496539409     0.450673532246      -0.501496539409     -0.549230981505     -0.492628436532     
4900000000.0        -0.559385696785     -0.491422928579     0.440517018994      -0.500480349111     0.440517018994      -0.500480349111     -0.559385696785     -0.491422928579     
5000000000.0        -0.569287553332     -0.490042045105     0.430613326471      -0.499288978464     0.430613326471      -0.499288978464     -0.569287553332     -0.490042045105     
5100000000.0        -0.578940131848     -0.488499057994     0.420958873859      -0.497935698893     0.420958873859      -0.497935698893     -0.578940131848     -0.488499057994     
5200000000.0        -0.588347349545     -0.486806502441     0.41154974383       -0.49643304511      0.41154974383       -0.49643304511      -0.588347349545     -0.486806502441     
5300000000.0        -0.597513407251     -0.48497620312      0.402381735439      -0.494792841285     0.402381735439      -0.494792841285     -0.597513407251     -0.48497620312      
5400000000.0        -0.606442741504     -0.483019301438     0.393450412034      -0.493026228298     0.393450412034      -0.493026228298     -0.606442741504     -0.483019301438     
5500000000.0        -0.615139981308     -0.480946283479     0.384751144499      -0.491143691692     0.384751144499      -0.491143691692     -0.615139981308     -0.480946283479     
5600000000.0        -0.623609909227     -0.478767008308     0.376279150158      -0.489155089976     0.376279150158      -0.489155089976     -0.623609909227     -0.478767008308     
5700000000.0        -0.631857426501     -0.476490736352     0.368029527658      -0.487069683005     0.368029527658      -0.487069683005     -0.631857426501     -0.476490736352     
5800000000.0        -0.639887521882     -0.474126157613     0.359997288137      -0.484896160204     0.359997288137      -0.484896160204     -0.639887521882     -0.474126157613     
5900000000.0        -0.647705243885     -0.471681419527     0.35217738297       -0.482642668419     0.35217738297       -0.482642668419     -0.647705243885     -0.471681419527     
6000000000.0        -0.65531567618      -0.469164154301     0.344564728379      -0.480316839263     0.344564728379      -0.480316839263     -0.65531567618      -0.469164154301     
6100000000.0        -0.662723915853     -0.4665815056       0.337154227171      -0.477925815802     0.337154227171      -0.477925815802     -0.662723915853     -0.4665815056       
6200000000.0        -0.669935054283     -0.463940154483     0.329940787856      -0.475476278492     0.329940787856      -0.475476278492     -0.669935054283     -0.463940154483     
6300000000.0        -0.676954160414     -0.461246344509     0.322919341386      -0.47297447029      0.322919341386      -0.47297447029      -0.676954160414     -0.461246344509     
6400000000.0        -0.683786266169     -0.458505905959     0.316084855729      -0.47042622087      0.316084855729      -0.47042622087      -0.683786266169     -0.458505905959     
6500000000.0        -0.690436353841     -0.455724279117     0.309432348489      -0.467836969916     0.309432348489      -0.467836969916     -0.690436353841     -0.455724279117     
6600000000.0        -0.696909345236     -0.452906536611     0.302956897754      -0.465211789455     0.302956897754      -0.465211789455     -0.696909345236     -0.452906536611     
6700000000.0        -0.703210092418     -0.450057404778     0.296653651355      -0.462555405228     0.296653651355      -0.462555405228     -0.703210092418     -0.450057404778     
6800000000.0        -0.709343369878     -0.447181284057     0.290517834698      -0.459872217083     0.290517834698      -0.459872217083     -0.709343369878     -0.447181284057     
6900000000.0        -0.715313867986     -0.444282268418     0.284544757308      -0.457166318406     0.284544757308      -0.457166318406     -0.715313867986     -0.444282268418     
7000000000.0        -0.721126187594     -0.441364163842     0.27872981823       -0.454441514597     0.27872981823       -0.454441514597     -0.721126187594     -0.441364163842     
7100000000.0        -0.726784835659     -0.438430505858     0.273068510405      -0.451701340618     0.273068510405      -0.451701340618     -0.726784835659     -0.438430505858     
7200000000.0        -0.732294221771     -0.435484576177     0.267556424139      -0.448949077616     0.267556424139      -0.448949077616     -0.732294221771     -0.435484576177     
7300000000.0        -0.737658655498     -0.432529418434     0.262189249764      -0.446187768676     0.262189249764      -0.446187768676     -0.737658655498     -0.432529418434     
7400000000.0        -0.742882344436     -0.429567853078     0.25696277958       -0.443420233705     0.25696277958       -0.443420233705     -0.742882344436     -0.429567853078     
7500000000.0        -0.747969392897     -0.426602491437     0.251872909176      -0.4406490835       0.251872909176      -0.4406490835       -0.747969392897     -0.426602491437     
7600000000.0        -0.752923801139     -0.423635748991     0.24691563819       -0.437876733022     0.24691563819       -0.437876733022     -0.752923801139     -0.423635748991     
7700000000.0        -0.757749465097     -0.420669857879     0.242087070588      -0.435105413905     0.242087070588      -0.435105413905     -0.757749465097     -0.420669857879     
7800000000.0        -0.76245017652      -0.417706878693     0.23738341452       -0.432337186244     0.23738341452       -0.432337186244     -0.76245017652      -0.417706878693     
7900000000.0        -0.767029623485     -0.414748711569     0.232800981807      -0.429573949697     0.232800981807      -0.429573949697     -0.767029623485     -0.414748711569     
8000000000.0        -0.771491391228     -0.411797106625     0.228336187113      -0.426817453914     0.228336187113      -0.426817453914     -0.771491391228     -0.411797106625     
8100000000.0        -0.77583896324      -0.408853673774     0.223985546848      -0.424069308354     0.223985546848      -0.424069308354     -0.77583896324      -0.408853673774     
8200000000.0        -0.780075722604     -0.405919891939     0.219745677827      -0.421330991502     0.219745677827      -0.421330991502     -0.780075722604     -0.405919891939     
8300000000.0        -0.784204953521     -0.402997117709     0.215613295749      -0.418603859523     0.215613295749      -0.418603859523     -0.784204953521     -0.402997117709     
8400000000.0        -0.788229843006     -0.400086593465     0.211585213501      -0.41588915439      0.211585213501      -0.41588915439      -0.788229843006     -0.400086593465     
8500000000.0        -0.792153482712     -0.397189455        0.207658339327      -0.413188011501     0.207658339327      -0.413188011501     -0.792153482712     -0.397189455        
8600000000.0        -0.795978870878     -0.394306738664     0.20382967489       -0.41050146683      0.20382967489       -0.41050146683      -0.795978870878     -0.394306738664     
8700000000.0        -0.799708914351     -0.391439388067     0.200096313241      -0.407830463624     0.200096313241      -0.407830463624     -0.799708914351     -0.391439388067     
8800000000.0        -0.803346430688     -0.388588260353     0.196455436725      -0.405175858682     0.196455436725      -0.405175858682     -0.803346430688     -0.388588260353     
8900000000.0        -0.806894150303     -0.385754132085     0.192904314827      -0.402538428236     0.192904314827      -0.402538428236     -0.806894150303     -0.385754132085     
9000000000.0        -0.81035471865      -0.382937704749     0.189440301992      -0.39991887346      0.189440301992      -0.39991887346      -0.81035471865      -0.382937704749     
9100000000.0        -0.813730698437     -0.380139609913     0.186060835412      -0.397317825624     0.186060835412      -0.397317825624     -0.813730698437     -0.380139609913     
9200000000.0        -0.817024571842     -0.377360414051     0.18276343281       -0.394735850921     0.18276343281       -0.394735850921     -0.817024571842     -0.377360414051     
9300000000.0        -0.820238742731     -0.374600623062     0.179545690217      -0.392173454987     0.179545690217      -0.392173454987     -0.820238742731     -0.374600623062     
9400000000.0        -0.823375538876     -0.371860686492     0.176405279762      -0.389631087122     0.176405279762      -0.389631087122     -0.823375538876     -0.371860686492     
9500000000.0        -0.826437214149     -0.36914100149      0.17333994747       -0.387109144244     0.17333994747       -0.387109144244     -0.826437214149     -0.36914100149      
9600000000.0        -0.829425950699     -0.366441916505     0.170347511094      -0.384607974586     0.170347511094      -0.384607974586     -0.829425950699     -0.366441916505     
9700000000.0        -0.8323438611       -0.363763734736     0.167425857957      -0.382127881153     0.167425857957      -0.382127881153     -0.8323438611       -0.363763734736     
9800000000.0        -0.835192990464     -0.361106717372     0.164572942845      -0.379669124954     0.164572942845      -0.379669124954     -0.835192990464     -0.361106717372     
9900000000.0        -0.837975318529     -0.358471086605     0.161786785918      -0.377231928017     0.161786785918      -0.377231928017     -0.837975318529     -0.358471086605     
10000000000.0       -0.840692761692     -0.355857028459     0.159065470678      -0.374816476219     0.159065470678      -0.374816476219     -0.840692761692     -0.355857028459     
