# Hz S RI R 50.00 
100000000.0         0.0109930511675     0.00156489295841    0.988993152139      -0.00575725371563   0.988993152139      -0.00575725371563   0.0109930511675     0.00156489295841    
200000000.0         0.011090980552      0.00312850442643    0.988864783894      -0.0115131705658    0.988864783894      -0.0115131705658    0.011090980552      0.00312850442643    
300000000.0         0.0111880253578     0.00469103923067    0.988719656749      -0.017267921984     0.988719656749      -0.017267921984     0.0111880253578     0.00469103923067    
400000000.0         0.011293622901      0.00625242209703    0.988548331989      -0.0230213965337    0.988548331989      -0.0230213965337    0.011293622901      0.00625242209703    
500000000.0         0.0114113994399     0.00781251310099    0.988347181764      -0.0287734167304    0.988347181764      -0.0287734167304    0.0114113994399     0.00781251310099    
600000000.0         0.0115431956651     0.00937114395313    0.988114363576      -0.0345237758056    0.988114363576      -0.0345237758056    0.0115431956651     0.00937114395313    
700000000.0         0.0116900900221     0.0109281310154     0.987848796943      -0.0402722509641    0.987848796943      -0.0402722509641    0.0116900900221     0.0109281310154     
800000000.0         0.0118527721784     0.0124832813397     0.98754978993       -0.0460186095659    0.98754978993       -0.0460186095659    0.0118527721784     0.0124832813397     
900000000.0         0.0120317092984     0.0140363959181     0.987216872873      -0.0517626124686    0.987216872873      -0.0517626124686    0.0120317092984     0.0140363959181     
1000000000.0        0.0122272303195     0.0155872716172     0.986849714105      -0.0575040160256    0.986849714105      -0.0575040160256    0.0122272303195     0.0155872716172     
1100000000.0        0.0124395727953     0.0171357024156     0.986448073109      -0.0632425733697    0.986448073109      -0.0632425733697    0.0124395727953     0.0171357024156     
1200000000.0        0.0126689108081     0.0186814802433     0.986011772616      -0.0689780352863    0.986011772616      -0.0689780352863    0.0126689108081     0.0186814802433     
1300000000.0        0.0129153725285     0.0202243955768     0.985540681036      -0.0747101508347    0.985540681036      -0.0747101508347    0.0129153725285     0.0202243955768     
1400000000.0        0.0131790517588     0.0217642378784     0.985034700927      -0.0804386678071    0.985034700927      -0.0804386678071    0.0131790517588     0.0217642378784     
1500000000.0        0.0134600157995     0.0233007959309     0.984493761122      -0.0861633330793    0.984493761122      -0.0861633330793    0.0134600157995     0.0233007959309     
1600000000.0        0.0137583109771     0.0248338581003     0.983917811209      -0.091883892886     0.983917811209      -0.091883892886     0.0137583109771     0.0248338581003     
1700000000.0        0.0140739666285     0.0263632125478     0.983306817543      -0.097600093042     0.983306817543      -0.097600093042     0.0140739666285     0.0263632125478     
1800000000.0        0.0144069980404     0.0278886474035     0.982660760314      -0.103311679125     0.982660760314      -0.103311679125     0.0144069980404     0.0278886474035     
1900000000.0        0.0147574086586     0.0294099509137     0.981979631337      -0.109018396627     0.981979631337      -0.109018396627     0.0147574086586     0.0294099509137     
2000000000.0        0.01512519178       0.0309269115661     0.98126343236       -0.114719991087     0.98126343236       -0.114719991087     0.01512519178       0.0309269115661     
2100000000.0        0.0155103318668     0.0324393181996     0.980512173754      -0.120416208204     0.980512173754      -0.120416208204     0.0155103318668     0.0324393181996     
2200000000.0        0.0159128055834     0.0339469601009     0.979725873476      -0.126106793935     0.979725873476      -0.126106793935     0.0159128055834     0.0339469601009     
2300000000.0        0.0163325826236     0.0354496270914     0.978904556247      -0.131791494585     0.978904556247      -0.131791494585     0.0163325826236     0.0354496270914     
2400000000.0        0.0167696263797     0.0369471096056     0.978048252881      -0.13747005689      0.978048252881      -0.13747005689      0.0167696263797     0.0369471096056     
2500000000.0        0.017223894489      0.0384391987638     0.977156999739      -0.143142228084     0.977156999739      -0.143142228084     0.017223894489      0.0384391987638     
2600000000.0        0.0176953392844     0.0399256864382     0.976230838286      -0.148807755974     0.976230838286      -0.148807755974     0.0176953392844     0.0399256864382     
2700000000.0        0.0181839081708     0.0414063653152     0.975269814709      -0.154466388995     0.975269814709      -0.154466388995     0.0181839081708     0.0414063653152     
2800000000.0        0.0186895439413     0.0428810289541     0.97427397961       -0.160117876273     0.97427397961       -0.160117876273     0.0186895439413     0.0428810289541     
2900000000.0        0.0192121850452     0.0443494718418     0.973243387731      -0.165761967679     0.973243387731      -0.165761967679     0.0192121850452     0.0443494718418     
3000000000.0        0.0197517658182     0.0458114894456     0.972178097734      -0.171398413879     0.972178097734      -0.171398413879     0.0197517658182     0.0458114894456     
3100000000.0        0.0203082166807     0.0472668782629     0.971078171997      -0.177026966384     0.971078171997      -0.177026966384     0.0203082166807     0.0472668782629     
3200000000.0        0.0208814643097     0.0487154358691     0.969943676449      -0.182647377598     0.969943676449      -0.182647377598     0.0208814643097     0.0487154358691     
3300000000.0        0.0214714317911     0.0501569609639     0.968774680417      -0.188259400859     0.968774680417      -0.188259400859     0.0214714317911     0.0501569609639     
3400000000.0        0.0220780387523     0.0515912534154     0.967571256493      -0.193862790487     0.967571256493      -0.193862790487     0.0220780387523     0.0515912534154     
3500000000.0        0.0227012014821     0.0530181143031     0.966333480421      -0.199457301821     0.966333480421      -0.199457301821     0.0227012014821     0.0530181143031     
3600000000.0        0.0233408330369     0.0544373459595     0.965061430987      -0.20504269126      0.965061430987      -0.20504269126      0.0233408330369     0.0544373459595     
3700000000.0        0.0239968433371     0.0558487520102     0.963755189927      -0.210618716302     0.963755189927      -0.210618716302     0.0239968433371     0.0558487520102     
3800000000.0        0.0246691392553     0.0572521374135     0.962414841839      -0.216185135581     0.962414841839      -0.216185135581     0.0246691392553     0.0572521374135     
3900000000.0        0.025357624696      0.0586473084979     0.961040474107      -0.221741708902     0.961040474107      -0.221741708902     0.025357624696      0.0586473084979     
4000000000.0        0.0260622006703     0.060034073         0.959632176825      -0.227288197277     0.959632176825      -0.227288197277     0.0260622006703     0.060034073         
4100000000.0        0.026782765364      0.0614122401        0.958190042733      -0.232824362958     0.958190042733      -0.232824362958     0.026782765364      0.0614122401        
4200000000.0        0.0275192142024     0.0627816204575     0.956714167152      -0.238349969471     0.956714167152      -0.238349969471     0.0275192142024     0.0627816204575     
4300000000.0        0.02827143991       0.0641420262457     0.955204647927      -0.243864781647     0.955204647927      -0.243864781647     0.02827143991       0.0641420262457     
4400000000.0        0.0290393325677     0.0654932711854     0.953661585371      -0.249368565652     0.953661585371      -0.249368565652     0.0290393325677     0.0654932711854     
4500000000.0        0.0298227796669     0.0668351705774     0.952085082213      -0.254861089022     0.952085082213      -0.254861089022     0.0298227796669     0.0668351705774     
4600000000.0        0.0306216661609     0.0681675413353     0.950475243547      -0.260342120685     0.950475243547      -0.260342120685     0.0306216661609     0.0681675413353     
4700000000.0        0.0314358745142     0.0694902020165     0.948832176786      -0.265811430998     0.948832176786      -0.265811430998     0.0314358745142     0.0694902020165     
4800000000.0        0.0322652847502     0.0708029728529     0.947155991613      -0.271268791768     0.947155991613      -0.271268791768     0.0322652847502     0.0708029728529     
4900000000.0        0.0331097744971     0.0721056757813     0.945446799943      -0.276713976283     0.945446799943      -0.276713976283     0.0331097744971     0.0721056757813     
5000000000.0        0.0339692190324     0.0733981344722     0.943704715871      -0.282146759338     0.943704715871      -0.282146759338     0.0339692190324     0.0733981344722     
5100000000.0        0.0348434913265     0.0746801743591     0.94192985564       -0.287566917259     0.94192985564       -0.287566917259     0.0348434913265     0.0746801743591     
5200000000.0        0.0357324620847     0.0759516226661     0.940122337592      -0.29297422793      0.940122337592      -0.29297422793      0.0357324620847     0.0759516226661     
5300000000.0        0.0366359997886     0.0772123084353     0.938282282134      -0.298368470817     0.938282282134      -0.298368470817     0.0366359997886     0.0772123084353     
5400000000.0        0.0375539707371     0.0784620625536     0.936409811696      -0.303749426991     0.936409811696      -0.303749426991     0.0375539707371     0.0784620625536     
5500000000.0        0.0384862390861     0.0797007177788     0.934505050696      -0.309116879152     0.934505050696      -0.309116879152     0.0384862390861     0.0797007177788     
5600000000.0        0.0394326668881     0.0809281087653     0.932568125498      -0.314470611649     0.932568125498      -0.314470611649     0.0394326668881     0.0809281087653     
5700000000.0        0.0403931141307     0.0821440720882     0.930599164378      -0.319810410506     0.930599164378      -0.319810410506     0.0403931141307     0.0821440720882     
5800000000.0        0.0413674387755     0.0833484462683     0.928598297486      -0.325136063438     0.928598297486      -0.325136063438     0.0413674387755     0.0833484462683     
5900000000.0        0.0423554967957     0.0845410717953     0.926565656812      -0.330447359876     0.926565656812      -0.330447359876     0.0423554967957     0.0845410717953     
6000000000.0        0.0433571422145     0.0857217911508     0.924501376147      -0.335744090983     0.924501376147      -0.335744090983     0.0433571422145     0.0857217911508     
6100000000.0        0.0443722271417     0.0868904488305     0.92240559105       -0.341026049677     0.92240559105       -0.341026049677     0.0443722271417     0.0868904488305     
6200000000.0        0.0454006018117     0.0880468913663     0.920278438809      -0.346293030645     0.920278438809      -0.346293030645     0.0454006018117     0.0880468913663     
6300000000.0        0.0464421146201     0.0891909673472     0.918120058412      -0.351544830364     0.918120058412      -0.351544830364     0.0464421146201     0.0891909673472     
6400000000.0        0.0474966121607     0.0903225274398     0.915930590506      -0.356781247117     0.915930590506      -0.356781247117     0.0474966121607     0.0903225274398     
6500000000.0        0.0485639392618     0.0914414244081     0.913710177366      -0.362002081011     0.913710177366      -0.362002081011     0.0485639392618     0.0914414244081     
6600000000.0        0.0496439390233     0.0925475131331     0.911458962858      -0.367207133991     0.911458962858      -0.367207133991     0.0496439390233     0.0925475131331     
6700000000.0        0.0507364528528     0.0936406506314     0.909177092409      -0.372396209856     0.909177092409      -0.372396209856     0.0507364528528     0.0936406506314     
6800000000.0        0.0518413205017     0.0947206960731     0.906864712965      -0.377569114276     0.906864712965      -0.377569114276     0.0518413205017     0.0947206960731     
6900000000.0        0.052958380102      0.0957875107996     0.904521972965      -0.382725654801     0.904521972965      -0.382725654801     0.052958380102      0.0957875107996     
7000000000.0        0.0540874682017     0.0968409583401     0.902149022303      -0.387865640879     0.902149022303      -0.387865640879     0.0540874682017     0.0968409583401     
7100000000.0        0.0552284198016     0.0978809044284     0.899746012292      -0.392988883869     0.899746012292      -0.392988883869     0.0552284198016     0.0978809044284     
7200000000.0        0.0563810683906     0.0989072170182     0.897313095637      -0.398095197049     0.897313095637      -0.398095197049     0.0563810683906     0.0989072170182     
7300000000.0        0.0575452459821     0.0999197662985     0.894850426392      -0.403184395633     0.894850426392      -0.403184395633     0.0575452459821     0.0999197662985     
7400000000.0        0.0587207831497     0.100918424708      0.892358159935      -0.408256296778     0.892358159935      -0.408256296778     0.0587207831497     0.100918424708      
7500000000.0        0.0599075090631     0.101903066949      0.889836452928      -0.413310719595     0.889836452928      -0.413310719595     0.0599075090631     0.101903066949      
7600000000.0        0.0611052515236     0.10287357          0.887285463288      -0.418347485162     0.887285463288      -0.418347485162     0.0611052515236     0.10287357          
7700000000.0        0.062313837         0.103829813131      0.88470535015       -0.423366416529     0.88470535015       -0.423366416529     0.062313837         0.103829813131      
7800000000.0        0.0635330906642     0.104771677913      0.882096273837      -0.42836733873      0.882096273837      -0.42836733873      0.0635330906642     0.104771677913      
7900000000.0        0.0647628364269     0.105699048229      0.879458395823      -0.43335007879      0.879458395823      -0.43335007879      0.0647628364269     0.105699048229      
8000000000.0        0.0660028969728     0.10661181029       0.876791878705      -0.43831446573      0.876791878705      -0.43831446573      0.0660028969728     0.10661181029       
8100000000.0        0.0672530937961     0.107509852639      0.874096886163      -0.443260330579     0.874096886163      -0.443260330579     0.0672530937961     0.107509852639      
8200000000.0        0.0685132472363     0.108393066166      0.871373582934      -0.448187506376     0.871373582934      -0.448187506376     0.0685132472363     0.108393066166      
8300000000.0        0.0697831765131     0.109261344113      0.868622134775      -0.453095828176     0.868622134775      -0.453095828176     0.0697831765131     0.109261344113      
8400000000.0        0.0710626997616     0.110114582087      0.865842708431      -0.457985133059     0.865842708431      -0.457985133059     0.0710626997616     0.110114582087      
8500000000.0        0.0723516340676     0.110952678065      0.863035471603      -0.462855260129     0.863035471603      -0.462855260129     0.0723516340676     0.110952678065      
8600000000.0        0.0736497955028     0.111775532404      0.860200592916      -0.467706050524     0.860200592916      -0.467706050524     0.0736497955028     0.111775532404      
8700000000.0        0.0749569991595     0.112583047846      0.857338241885      -0.472537347413     0.857338241885      -0.472537347413     0.0749569991595     0.112583047846      
8800000000.0        0.0762730591854     0.113375129525      0.854448588883      -0.477348996006     0.854448588883      -0.477348996006     0.0762730591854     0.113375129525      
8900000000.0        0.077597788819      0.114151684976      0.85153180511       -0.48214084355      0.85153180511       -0.48214084355      0.077597788819      0.114151684976      
9000000000.0        0.0789310004233     0.114912624133      0.848588062561      -0.486912739333     0.848588062561      -0.486912739333     0.0789310004233     0.114912624133      
9100000000.0        0.0802725055213     0.115657859345      0.845617533992      -0.491664534688     0.845617533992      -0.491664534688     0.0802725055213     0.115657859345      
9200000000.0        0.0816221148297     0.116387305369      0.842620392893      -0.49639608299      0.842620392893      -0.49639608299      0.0816221148297     0.116387305369      
9300000000.0        0.0829796382935     0.117100879383      0.839596813451      -0.501107239658     0.839596813451      -0.501107239658     0.0829796382935     0.117100879383      
9400000000.0        0.0843448851204     0.117798500982      0.83654697052       -0.505797862153     0.83654697052       -0.505797862153     0.0843448851204     0.117798500982      
9500000000.0        0.0857176638144     0.118480092186      0.833471039595      -0.510467809981     0.833471039595      -0.510467809981     0.0857176638144     0.118480092186      
9600000000.0        0.0870977822099     0.119145577441      0.830369196773      -0.515116944685     0.830369196773      -0.515116944685     0.0870977822099     0.119145577441      
9700000000.0        0.0884850475054     0.119794883619      0.827241618728      -0.519745129851     0.827241618728      -0.519745129851     0.0884850475054     0.119794883619      
9800000000.0        0.0898792662971     0.120427940022      0.824088482679      -0.5243522311       0.824088482679      -0.5243522311       0.0898792662971     0.120427940022      
9900000000.0        0.0912802446123     0.12104467838       0.820909966358      -0.528938116085     0.820909966358      -0.528938116085     0.0912802446123     0.12104467838       
10000000000.0       0.0926877879427     0.121645032855      0.817706247983      -0.533502654492     0.817706247983      -0.533502654492     0.0926877879427     0.121645032855      
