# Hz S RI R 50.00 
100000000.0         -0.00157174827382   -0.0393414302746    0.998378363453      -0.0395115067589    0.998378363453      -0.0395115067589    -0.00157174827382   -0.0393414302746    
200000000.0         -0.00625162866408   -0.0783080660443    0.993698098819      -0.0786482493598    0.993698098819      -0.0786482493598    -0.00625162866408   -0.0783080660443    
300000000.0         -0.0139281622869    -0.116544098184     0.98602123763       -0.117054434737     0.98602123763       -0.117054434737     -0.0139281622869    -0.116544098184     
400000000.0         -0.0244613670942    -0.153716236851     0.975487719029      -0.154396785476     0.975487719029      -0.154396785476     -0.0244613670942    -0.153716236851     
500000000.0         -0.0376648517954    -0.189522740494     0.962283917841      -0.190373570565     0.962283917841      -0.190373570565     -0.0376648517954    -0.189522740494     
600000000.0         -0.053313786523     -0.223700634131     0.946634655556      -0.224721824281     0.946634655556      -0.224721824281     -0.053313786523     -0.223700634131     
700000000.0         -0.0711539796755    -0.256030749589     0.928794118827      -0.257222386735     0.928794118827      -0.257222386735     -0.0711539796755    -0.256030749589     
800000000.0         -0.0909114182909    -0.28634047349      0.909036317406      -0.287702652054     0.909036317406      -0.287702652054     -0.0909114182909    -0.28634047349      
900000000.0         -0.112301667513     -0.314504286966     0.887645683923      -0.316037108214     0.887645683923      -0.316037108214     -0.112301667513     -0.314504286966     
1000000000.0        -0.135038614487     -0.340442339061     0.864908329606      -0.342145910541     0.864908329606      -0.342145910541     -0.135038614487     -0.340442339061     
1100000000.0        -0.158842166429     -0.364117405152     0.84110434601       -0.36599184019      0.84110434601       -0.36599184019      -0.158842166429     -0.364117405152     
1200000000.0        -0.18344465123      -0.385530639386     0.81650140428       -0.387576056639     0.81650140428       -0.387576056639     -0.18344465123      -0.385530639386     
1300000000.0        -0.208595803582     -0.404716540401     0.791349768949      -0.406933063455     0.791349768949      -0.406933063455     -0.208595803582     -0.404716540401     
1400000000.0        -0.234066336654     -0.421737521611     0.765878726209      -0.424125278614     0.765878726209      -0.424125278614     -0.234066336654     -0.421737521611     
1500000000.0        -0.259650190676     -0.436678422943     0.740294335294      -0.439237546266     0.740294335294      -0.439237546266     -0.259650190676     -0.436678422943     
1600000000.0        -0.285165612629     -0.449641232159     0.714778348767      -0.452371858083     0.714778348767      -0.452371858083     -0.285165612629     -0.449641232159     
1700000000.0        -0.310455256897     -0.460740211047     0.689488111845      -0.463642479481     0.689488111845      -0.463642479481     -0.310455256897     -0.460740211047     
1800000000.0        -0.33538550923      -0.470097552841     0.66455723843       -0.473171607048     0.66455723843       -0.473171607048     -0.33538550923      -0.470097552841     
1900000000.0        -0.359845231069     -0.477839637191     0.640096866767      -0.481085623543     0.640096866767      -0.481085623543     -0.359845231069     -0.477839637191     
2000000000.0        -0.383744103826     -0.484093900569     0.616197315166      -0.487511968314     0.616197315166      -0.487511968314     -0.383744103826     -0.484093900569     
2100000000.0        -0.4070107281       -0.488986303698     0.592929982769      -0.492576604743     0.592929982769      -0.492576604743     -0.4070107281       -0.488986303698     
2200000000.0        -0.429590605232     -0.492639352623     0.570349368001      -0.496402041334     0.570349368001      -0.496402041334     -0.429590605232     -0.492639352623     
2300000000.0        -0.451444101041     -0.495170614912     0.548495104826      -0.49910584792      0.548495104826      -0.49910584792      -0.451444101041     -0.495170614912     
2400000000.0        -0.472544466099     -0.496691665121     0.527393942465      -0.500799601149     0.527393942465      -0.500799601149     -0.472544466099     -0.496691665121     
2500000000.0        -0.492875964665     -0.497307392244     0.507061616472      -0.501588191941     0.507061616472      -0.501588191941     -0.492875964665     -0.497307392244     
2600000000.0        -0.512432145781     -0.497115604478     0.487504577621      -0.501569430261     0.487504577621      -0.501569430261     -0.512432145781     -0.497115604478     
2700000000.0        -0.531214275292     -0.496206871926     0.468721559897      -0.500833887836     0.468721559897      -0.500833887836     -0.531214275292     -0.496206871926     
2800000000.0        -0.549229936113     -0.494664554523     0.45070498022       -0.499464926093     0.45070498022       -0.499464926093     -0.549229936113     -0.494664554523     
2900000000.0        -0.566491795793     -0.492564969755     0.433442170884      -0.497538863876     0.433442170884      -0.497538863876     -0.566491795793     -0.492564969755     
3000000000.0        -0.583016534579     -0.4899776619       0.41691645149       -0.49512524671      0.41691645149       -0.49512524671      -0.583016534579     -0.4899776619       
3100000000.0        -0.598823923438     -0.486965741361     0.401108050925      -0.492287186129     0.401108050925      -0.492287186129     -0.598823923438     -0.486965741361     
3200000000.0        -0.613936039294     -0.483586268721     0.385994892123      -0.489081743747     0.385994892123      -0.489081743747     -0.613936039294     -0.483586268721     
3300000000.0        -0.62837660372      -0.479890663547     0.371553253372      -0.485560340063     0.371553253372      -0.485560340063     -0.62837660372      -0.479890663547     
3400000000.0        -0.642170431169     -0.475925122512     0.357758320086      -0.481769172596     0.357758320086      -0.481769172596     -0.642170431169     -0.475925122512     
3500000000.0        -0.655342973237     -0.471731035254     0.344584640539      -0.477749631744     0.344584640539      -0.477749631744     -0.655342973237     -0.471731035254     
3600000000.0        -0.667919946264     -0.467345389494     0.33200649826       -0.473538705913     0.33200649826       -0.473538705913     -0.667919946264     -0.467345389494     
3700000000.0        -0.679927030593     -0.462801159474     0.319998212784      -0.469169369956     0.319998212784      -0.469169369956     -0.679927030593     -0.462801159474     
3800000000.0        -0.691389630916     -0.458127673772     0.308534379292      -0.464670953        0.308534379292      -0.464670953        -0.691389630916     -0.458127673772     
3900000000.0        -0.702332688337     -0.453350960108     0.29759005656       -0.460069483249     0.29759005656       -0.460069483249     -0.702332688337     -0.453350960108     
4000000000.0        -0.712780535846     -0.448494065925     0.28714091148       -0.455388008577     0.28714091148       -0.455388008577     -0.712780535846     -0.448494065925     
4100000000.0        -0.722756790021     -0.443577354452     0.277163327356      -0.45064689259      0.277163327356      -0.45064689259      -0.722756790021     -0.443577354452     
4200000000.0        -0.732284272715     -0.438618776568     0.267634482219      -0.445864086498     0.267634482219      -0.445864086498     -0.732284272715     -0.438618776568     
4300000000.0        -0.741384957391     -0.433634119273     0.258532402491      -0.44105537759      0.258532402491      -0.44105537759      -0.741384957391     -0.433634119273     
4400000000.0        -0.75007993556      -0.428637231872     0.249835996547      -0.436234615419     0.249835996547      -0.436234615419     -0.75007993556      -0.428637231872     
4500000000.0        -0.758389399462     -0.42364023116      0.241525072036      -0.431413916995     0.241525072036      -0.431413916995     -0.758389399462     -0.42364023116      
4600000000.0        -0.766332637756     -0.418653687035     0.23358034019       -0.426603852396     0.23358034019       -0.426603852396     -0.766332637756     -0.418653687035     
4700000000.0        -0.773928041496     -0.413686789977     0.225983409842      -0.421813612255     0.225983409842      -0.421813612255     -0.773928041496     -0.413686789977     
4800000000.0        -0.781193118143     -0.40874750185      0.218716773424      -0.417051158564     0.218716773424      -0.417051158564     -0.781193118143     -0.40874750185      
4900000000.0        -0.788144511722     -0.403842691444     0.211763786802      -0.412323360218     0.211763786802      -0.412323360218     -0.788144511722     -0.403842691444     
5000000000.0        -0.794798027605     -0.398978256099     0.205108644497      -0.40763611464      0.205108644497      -0.40763611464      -0.794798027605     -0.398978256099     
5100000000.0        -0.801168660623     -0.394159230702     0.198736351571      -0.402994456787     0.198736351571      -0.402994456787     -0.801168660623     -0.394159230702     
5200000000.0        -0.807270625503     -0.389389885249     0.192632693191      -0.398402656706     0.192632693191      -0.398402656706     -0.807270625503     -0.389389885249     
5300000000.0        -0.813117388779     -0.384673812085     0.186784202718      -0.393864306783     0.186784202718      -0.393864306783     -0.813117388779     -0.384673812085     
5400000000.0        -0.818721701519     -0.380014003837     0.181178128979      -0.389382399676     0.181178128979      -0.389382399676     -0.818721701519     -0.380014003837     
5500000000.0        -0.824095632316     -0.375412922997     0.175802403277      -0.384959397899     0.175802403277      -0.384959397899     -0.824095632316     -0.375412922997     
5600000000.0        -0.82925060015      -0.370872563979     0.170645606527      -0.380597295883     0.170645606527      -0.380597295883     -0.82925060015      -0.370872563979     
5700000000.0        -0.834197406769     -0.366394508457     0.165696936878      -0.376297675312     0.165696936878      -0.376297675312     -0.834197406769     -0.366394508457     
5800000000.0        -0.838946268353     -0.361979974668     0.160946178046      -0.372061754433     0.160946178046      -0.372061754433     -0.838946268353     -0.361979974668     
5900000000.0        -0.843506846277     -0.357629861319     0.156383668553      -0.367890431961     0.156383668553      -0.367890431961     -0.843506846277     -0.357629861319     
6000000000.0        -0.847888276824     -0.353344786675     0.152000272014      -0.363784326169     0.152000272014      -0.363784326169     -0.847888276824     -0.353344786675     
6100000000.0        -0.852099199769     -0.34912512333      0.14778734855       -0.359743809664     0.14778734855       -0.359743809664     -0.852099199769     -0.34912512333      
6200000000.0        -0.85614778577      -0.344971029143     0.143736727402      -0.355769040315     0.143736727402      -0.355769040315     -0.85614778577      -0.344971029143     
6300000000.0        -0.860041762521     -0.340882474727     0.139840680772      -0.351859988755     0.139840680772      -0.351859988755     -0.860041762521     -0.340882474727     
6400000000.0        -0.863788439678     -0.336859267879     0.136091898903      -0.348016462806     0.136091898903      -0.348016462806     -0.863788439678     -0.336859267879     
6500000000.0        -0.867394732539     -0.332901075285     0.132483466394      -0.344238129182     0.132483466394      -0.344238129182     -0.867394732539     -0.332901075285     
6600000000.0        -0.870867184511     -0.329007441773     0.129008839736      -0.340524532753     0.129008839736      -0.340524532753     -0.870867184511     -0.329007441773     
6700000000.0        -0.874211988383     -0.325177807414     0.125661826038      -0.336875113633     0.125661826038      -0.336875113633     -0.874211988383     -0.325177807414     
6800000000.0        -0.877435006448     -0.321411522669     0.122436562903      -0.333289222342     0.122436562903      -0.333289222342     -0.877435006448     -0.321411522669     
6900000000.0        -0.880541789505     -0.317707861824     0.119327499431      -0.329766133232     0.119327499431      -0.329766133232     -0.880541789505     -0.317707861824     
7000000000.0        -0.883537594787     -0.314066034883     0.116329378286      -0.326305056386     0.116329378286      -0.326305056386     -0.883537594787     -0.314066034883     
7100000000.0        -0.88642740287      -0.310485198095     0.113437218789      -0.322905148141     0.113437218789      -0.322905148141     -0.88642740287      -0.310485198095     
7200000000.0        -0.889215933592     -0.306964463257     0.110646301         -0.319565520398     0.110646301         -0.319565520398     -0.889215933592     -0.306964463257     
7300000000.0        -0.89190766105      -0.303502905935     0.107952150716      -0.316285248838     0.107952150716      -0.316285248838     -0.89190766105      -0.303502905935     
7400000000.0        -0.89450682771      -0.300099572717     0.105350525371      -0.313063380177     0.105350525371      -0.313063380177     -0.89450682771      -0.300099572717     
7500000000.0        -0.897017457674     -0.296753487603     0.102837400758      -0.309898938558     0.102837400758      -0.309898938558     -0.897017457674     -0.296753487603     
7600000000.0        -0.899443369166     -0.293463657631     0.100408958549      -0.306790931177     0.100408958549      -0.306790931177     -0.899443369166     -0.293463657631     
7700000000.0        -0.901788186258     -0.290229077814     0.098061574567      -0.30373835322      0.098061574567      -0.30373835322      -0.901788186258     -0.290229077814     
7800000000.0        -0.904055349903     -0.28704873548      0.0957918077541     -0.300740192201     0.0957918077541     -0.300740192201     -0.904055349903     -0.28704873548      
7900000000.0        -0.906248128299     -0.28392161406      0.0935963898087     -0.297795431755     0.0935963898087     -0.297795431755     -0.906248128299     -0.28392161406      
8000000000.0        -0.908369626625     -0.2808466964       0.091472215446      -0.294903054948     0.091472215446      -0.294903054948     -0.908369626625     -0.2808466964       
8100000000.0        -0.910422796194     -0.277822967647     0.0894163332456     -0.292062047162     0.0894163332456     -0.292062047162     -0.910422796194     -0.277822967647     
8200000000.0        -0.912410443058     -0.274849417751     0.0874259370507     -0.289271398599     0.0874259370507     -0.289271398599     -0.912410443058     -0.274849417751     
8300000000.0        -0.914335236085     -0.271925043629     0.0854983578864     -0.286530106446     0.0854983578864     -0.286530106446     -0.914335236085     -0.271925043629     
8400000000.0        -0.916199714557     -0.26904885103      0.0836310563625     -0.283837176736     0.0836310563625     -0.283837176736     -0.916199714557     -0.26904885103      
8500000000.0        -0.91800629531      -0.266219856134     0.0818216155351     -0.281191625953     0.0818216155351     -0.281191625953     -0.91800629531      -0.266219856134     
8600000000.0        -0.919757279447     -0.263437086907     0.0800677341937     -0.278592482384     0.0800677341937     -0.278592482384     -0.919757279447     -0.263437086907     
8700000000.0        -0.921454858645     -0.26069958426      0.0783672205518     -0.276038787275     0.0783672205518     -0.276038787275     -0.921454858645     -0.26069958426      
8800000000.0        -0.923101121091     -0.258006403004     0.0767179863126     -0.273529595794     0.0767179863126     -0.273529595794     -0.923101121091     -0.258006403004     
8900000000.0        -0.924698057063     -0.255356612656     0.0751180410879     -0.27106397783      0.0751180410879     -0.27106397783      -0.924698057063     -0.255356612656     
9000000000.0        -0.92624756418      -0.252749298089     0.0735654871481     -0.268641018646     0.0735654871481     -0.268641018646     -0.92624756418      -0.252749298089     
9100000000.0        -0.927751452343     -0.250183560057     0.0720585144818     -0.266259819404     0.0720585144818     -0.266259819404     -0.927751452343     -0.250183560057     
9200000000.0        -0.92921144838      -0.247658515606     0.0705953961459     -0.263919497575     0.0705953961459     -0.263919497575     -0.92921144838      -0.247658515606     
9300000000.0        -0.930629200433     -0.245173298382     0.069174483889      -0.26161918725      0.069174483889      -0.26161918725      -0.930629200433     -0.245173298382     
9400000000.0        -0.932006282068     -0.242727058857     0.0677942040291     -0.259358039361     0.0677942040291     -0.259358039361     -0.932006282068     -0.242727058857     
9500000000.0        -0.933344196166     -0.240318964468     0.0664530535716     -0.257135221825     0.0664530535716     -0.257135221825     -0.933344196166     -0.240318964468     
9600000000.0        -0.934644378577     -0.2379481997       0.0651495965513     -0.254949919622     0.0651495965513     -0.254949919622     -0.934644378577     -0.2379481997       
9700000000.0        -0.935908201568     -0.235613966094     0.0638824605857     -0.252801334809     0.0638824605857     -0.252801334809     -0.935908201568     -0.235613966094     
9800000000.0        -0.937136977072     -0.233315482221     0.0626503336244     -0.25068868649      0.0626503336244     -0.25068868649      -0.937136977072     -0.233315482221     
9900000000.0        -0.938331959754     -0.231051983598     0.0614519608858     -0.248611210729     0.0614519608858     -0.248611210729     -0.938331959754     -0.231051983598     
10000000000.0       -0.9394943499       -0.228822722567     0.0602861419654     -0.246568160438     0.0602861419654     -0.246568160438     -0.9394943499       -0.228822722567     
