# Hz S RI R 50.00 
100000000.0         0.00586141361715    0.0021814822541     0.994131748229      -0.00477949092335   0.994131748229      -0.00477949092335   0.00586141361715    0.0021814822541     
200000000.0         0.00593049638389    0.00436221324024    0.994050063804      -0.00955827273925   0.994050063804      -0.00955827273925   0.00593049638389    0.00436221324024    
300000000.0         0.00601029264131    0.00654219135244    0.993950901377      -0.0143363705355    0.993950901377      -0.0143363705355    0.00601029264131    0.00654219135244    
400000000.0         0.00610585078339    0.00872127259565    0.993829211261      -0.0191136600894    0.993829211261      -0.0191136600894    0.00610585078339    0.00872127259565    
500000000.0         0.00621910809198    0.0108992800346     0.993683054605      -0.0238899807056    0.993683054605      -0.0238899807056    0.00621910809198    0.0108992800346     
600000000.0         0.00635104533904    0.0130760223195     0.993511448818      -0.0286651549374    0.993511448818      -0.0286651549374    0.00635104533904    0.0130760223195     
700000000.0         0.00650223444548    0.0152513003606     0.993313819917      -0.0334389958734    0.993313819917      -0.0334389958734    0.00650223444548    0.0152513003606     
800000000.0         0.00667303832898    0.0174249104399     0.993089802691      -0.038211310617     0.993089802691      -0.038211310617     0.00667303832898    0.0174249104399     
900000000.0         0.00686369987124    0.019596645896      0.99283915175       -0.0429819022151    0.99283915175       -0.0429819022151    0.00686369987124    0.019596645896      
1000000000.0        0.00707438700558    0.0217662981342     0.992561696439      -0.0477505708394    0.992561696439      -0.0477505708394    0.00707438700558    0.0217662981342     
1100000000.0        0.00730521777672    0.0239336572784     0.992257315788      -0.0525171145667    0.992257315788      -0.0525171145667    0.00730521777672    0.0239336572784     
1200000000.0        0.0075562752715     0.026098512618      0.991925923589      -0.0572813299226    0.991925923589      -0.0572813299226    0.0075562752715     0.026098512618      
1300000000.0        0.0078276170124     0.0282606529293     0.991567459007      -0.0620430122804    0.991567459007      -0.0620430122804    0.0078276170124     0.0282606529293     
1400000000.0        0.0081192811326     0.030419866716      0.991181880412      -0.066801956164     0.991181880412      -0.066801956164     0.0081192811326     0.030419866716      
1500000000.0        0.00843129058525    0.0325759423955     0.990769161173      -0.0715579554856    0.990769161173      -0.0715579554856    0.00843129058525    0.0325759423955     
1600000000.0        0.00876365610151    0.0347286684483     0.990329286703      -0.0763108037379    0.990329286703      -0.0763108037379    0.00876365610151    0.0347286684483     
1700000000.0        0.00911637832455    0.0368778335408     0.989862252332      -0.0810602941533    0.989862252332      -0.0810602941533    0.00911637832455    0.0368778335408     
1800000000.0        0.00948944938413    0.0390232266284     0.989368061737      -0.0858062198384    0.989368061737      -0.0858062198384    0.00948944938413    0.0390232266284     
1900000000.0        0.00988285408201    0.0411646370446     0.988846725755      -0.0905483738901    0.988846725755      -0.0905483738901    0.00988285408201    0.0411646370446     
2000000000.0        0.0102965708003     0.0433018545784     0.988298261483      -0.0952865494971    0.988298261483      -0.0952865494971    0.0102965708003     0.0433018545784     
2100000000.0        0.0107305722088     0.0454346695442     0.987722691572      -0.10002054003      0.987722691572      -0.10002054003      0.0107305722088     0.0454346695442     
2200000000.0        0.0111848258237     0.0475628728443     0.98712004367       -0.104750139123     0.98712004367       -0.104750139123     0.0111848258237     0.0475628728443     
2300000000.0        0.0116592944555     0.0496862560266     0.986490349977      -0.109475140747     0.986490349977      -0.109475140747     0.0116592944555     0.0496862560266     
2400000000.0        0.0121539365715     0.051804611337      0.985833646889      -0.114195339279     0.985833646889      -0.114195339279     0.0121539365715     0.051804611337      
2500000000.0        0.0126687065938     0.0539177317699     0.985149974697      -0.118910529564     0.985149974697      -0.118910529564     0.0126687065938     0.0539177317699     
2600000000.0        0.0132035551463     0.0560254111143     0.984439377344      -0.123620506974     0.984439377344      -0.123620506974     0.0132035551463     0.0560254111143     
2700000000.0        0.0137584292619     0.0581274439982     0.983701902223      -0.128325067463     0.983701902223      -0.128325067463     0.0137584292619     0.0581274439982     
2800000000.0        0.0143332725579     0.0602236259307     0.982937599999      -0.133024007622     0.982937599999      -0.133024007622     0.0143332725579     0.0602236259307     
2900000000.0        0.0149280253865     0.0623137533423     0.982146524463      -0.137717124724     0.982146524463      -0.137717124724     0.0149280253865     0.0623137533423     
3000000000.0        0.015542624964      0.064397623624      0.981328732405      -0.142404216775     0.981328732405      -0.142404216775     0.015542624964      0.064397623624      
3100000000.0        0.0161770054846     0.0664750351642     0.980484283501      -0.147085082556     0.980484283501      -0.147085082556     0.0161770054846     0.0664750351642     
3200000000.0        0.0168310982195     0.0685457873849     0.979613240216      -0.151759521671     0.979613240216      -0.151759521671     0.0168310982195     0.0685457873849     
3300000000.0        0.0175048316059     0.0706096807773     0.978715667716      -0.156427334585     0.978715667716      -0.156427334585     0.0175048316059     0.0706096807773     
3400000000.0        0.0181981313256     0.0726665169355     0.977791633791      -0.161088322665     0.977791633791      -0.161088322665     0.0181981313256     0.0726665169355     
3500000000.0        0.0189109203773     0.0747160985894     0.976841208785      -0.16574228822      0.976841208785      -0.16574228822      0.0189109203773     0.0747160985894     
3600000000.0        0.0196431191415     0.0767582296374     0.975864465533      -0.17038903454      0.975864465533      -0.17038903454      0.0196431191415     0.0767582296374     
3700000000.0        0.0203946454406     0.0787927151778     0.9748614793        -0.175028365927     0.9748614793        -0.175028365927     0.0203946454406     0.0787927151778     
3800000000.0        0.0211654145942     0.0808193615396     0.97383232773       -0.179660087739     0.97383232773       -0.179660087739     0.0211654145942     0.0808193615396     
3900000000.0        0.0219553394711     0.0828379763121     0.97277709079       -0.184284006417     0.97277709079       -0.184284006417     0.0219553394711     0.0828379763121     
4000000000.0        0.0227643305374     0.0848483683749     0.97169585073       -0.188899929521     0.97169585073       -0.188899929521     0.0227643305374     0.0848483683749     
4100000000.0        0.023592295903      0.0868503479263     0.970588692032      -0.193507665766     0.970588692032      -0.193507665766     0.023592295903      0.0868503479263     
4200000000.0        0.0244391413646     0.0888437265112     0.969455701373      -0.198107025047     0.969455701373      -0.198107025047     0.0244391413646     0.0888437265112     
4300000000.0        0.0253047704473     0.0908283170488     0.96829696758       -0.202697818478     0.96829696758       -0.202697818478     0.0253047704473     0.0908283170488     
4400000000.0        0.0261890844453     0.0928039338595     0.96711258159       -0.207279858414     0.96711258159       -0.207279858414     0.0261890844453     0.0928039338595     
4500000000.0        0.0270919824597     0.094770392691      0.965902636419      -0.211852958486     0.965902636419      -0.211852958486     0.0270919824597     0.094770392691      
4600000000.0        0.0280133614364     0.0967275107439     0.964667227119      -0.21641693363      0.964667227119      -0.21641693363      0.0280133614364     0.0967275107439     
4700000000.0        0.0289531162021     0.0986751066975     0.963406450745      -0.22097160011      0.963406450745      -0.22097160011      0.0289531162021     0.0986751066975     
4800000000.0        0.0299111395003     0.100613000733      0.962120406322      -0.225516775549     0.962120406322      -0.225516775549     0.0299111395003     0.100613000733      
4900000000.0        0.0308873220258     0.10254101456       0.960809194806      -0.230052278954     0.960809194806      -0.230052278954     0.0308873220258     0.10254101456       
5000000000.0        0.0318815524591     0.104458971436      0.959472919057      -0.234577930744     0.959472919057      -0.234577930744     0.0318815524591     0.104458971436      
5100000000.0        0.0328937174996     0.106366696194      0.958111683801      -0.239093552771     0.958111683801      -0.239093552771     0.0328937174996     0.106366696194      
5200000000.0        0.0339237018994     0.108264015262      0.956725595599      -0.24359896835      0.956725595599      -0.24359896835      0.0339237018994     0.108264015262      
5300000000.0        0.0349713884957     0.110150756683      0.955314762818      -0.248094002277     0.955314762818      -0.248094002277     0.0349713884957     0.110150756683      
5400000000.0        0.0360366582438     0.112026750143      0.953879295592      -0.252578480857     0.953879295592      -0.252578480857     0.0360366582438     0.112026750143      
5500000000.0        0.0371193902487     0.113891826984      0.952419305799      -0.257052231923     0.952419305799      -0.257052231923     0.0371193902487     0.113891826984      
5600000000.0        0.0382194617976     0.11574582023       0.950934907023      -0.261515084861     0.950934907023      -0.261515084861     0.0382194617976     0.11574582023       
5700000000.0        0.0393367483917     0.117588564601      0.949426214525      -0.265966870627     0.949426214525      -0.265966870627     0.0393367483917     0.117588564601      
5800000000.0        0.0404711237776     0.11941989654       0.947893345214      -0.270407421774     0.947893345214      -0.270407421774     0.0404711237776     0.11941989654       
5900000000.0        0.0416224599795     0.121239654224      0.946336417613      -0.274836572467     0.946336417613      -0.274836572467     0.0416224599795     0.121239654224      
6000000000.0        0.0427906273298     0.123047677585      0.944755551827      -0.279254158502     0.944755551827      -0.279254158502     0.0427906273298     0.123047677585      
6100000000.0        0.0439754945011     0.124843808332      0.943150869516      -0.283660017329     0.943150869516      -0.283660017329     0.0439754945011     0.124843808332      
6200000000.0        0.0451769285374     0.126627889957      0.941522493864      -0.288053988067     0.941522493864      -0.288053988067     0.0451769285374     0.126627889957      
6300000000.0        0.0463947948852     0.128399767765      0.939870549542      -0.292435911524     0.939870549542      -0.292435911524     0.0463947948852     0.128399767765      
6400000000.0        0.0476289574248     0.130159288879      0.938195162687      -0.29680563021      0.938195162687      -0.29680563021      0.0476289574248     0.130159288879      
6500000000.0        0.0488792785014     0.13190630226       0.936496460863      -0.301162988359     0.936496460863      -0.301162988359     0.0488792785014     0.13190630226       
6600000000.0        0.0501456189562     0.133640658723      0.934774573033      -0.30550783194      0.934774573033      -0.30550783194      0.0501456189562     0.133640658723      
6700000000.0        0.0514278381579     0.13536221095       0.933029629531      -0.309840008675     0.933029629531      -0.309840008675     0.0514278381579     0.13536221095       
6800000000.0        0.0527257940331     0.137070813502      0.931261762025      -0.314159368054     0.931261762025      -0.314159368054     0.0527257940331     0.137070813502      
6900000000.0        0.054039343098      0.138766322835      0.929471103495      -0.318465761345     0.929471103495      -0.318465761345     0.054039343098      0.138766322835      
7000000000.0        0.0553683404889     0.140448597312      0.927657788194      -0.322759041614     0.927657788194      -0.322759041614     0.0553683404889     0.140448597312      
7100000000.0        0.0567126399936     0.142117497213      0.925821951622      -0.327039063733     0.925821951622      -0.327039063733     0.0567126399936     0.142117497213      
7200000000.0        0.0580720940824     0.143772884752      0.923963730495      -0.331305684394     0.923963730495      -0.331305684394     0.0580720940824     0.143772884752      
7300000000.0        0.0594465539388     0.145414624083      0.922083262711      -0.33555876212      0.922083262711      -0.33555876212      0.0594465539388     0.145414624083      
7400000000.0        0.0608358694906     0.147042581311      0.920180687325      -0.33979815728      0.920180687325      -0.33979815728      0.0608358694906     0.147042581311      
7500000000.0        0.0622398894408     0.148656624507      0.918256144512      -0.344023732092     0.918256144512      -0.344023732092     0.0622398894408     0.148656624507      
7600000000.0        0.0636584612987     0.150256623712      0.916309775542      -0.348235350643     0.916309775542      -0.348235350643     0.0636584612987     0.150256623712      
7700000000.0        0.0650914314101     0.151842450949      0.914341722746      -0.352432878891     0.914341722746      -0.352432878891     0.0650914314101     0.151842450949      
7800000000.0        0.066538644989      0.153413980231      0.912352129487      -0.356616184674     0.912352129487      -0.356616184674     0.066538644989      0.153413980231      
7900000000.0        0.0679999461475     0.154971087568      0.910341140127      -0.360785137727     0.910341140127      -0.360785137727     0.0679999461475     0.154971087568      
8000000000.0        0.0694751779273     0.156513650978      0.908308899999      -0.364939609678     0.908308899999      -0.364939609678     0.0694751779273     0.156513650978      
8100000000.0        0.0709641823294     0.158041550489      0.906255555379      -0.369079474065     0.906255555379      -0.369079474065     0.0709641823294     0.158041550489      
8200000000.0        0.0724668003456     0.159554668149      0.904181253448      -0.373204606337     0.904181253448      -0.373204606337     0.0724668003457     0.159554668149      
8300000000.0        0.0739828719886     0.161052888033      0.902086142269      -0.377314883865     0.902086142269      -0.377314883865     0.0739828719886     0.161052888033      
8400000000.0        0.0755122363222     0.162536096244      0.899970370753      -0.381410185944     0.899970370753      -0.381410185944     0.0755122363222     0.162536096244      
8500000000.0        0.0770547314921     0.164004180923      0.89783408863       -0.385490393798     0.89783408863       -0.385490393798     0.0770547314921     0.164004180923      
8600000000.0        0.0786101947559     0.165457032249      0.895677446418      -0.389555390588     0.895677446418      -0.389555390588     0.0786101947559     0.165457032249      
8700000000.0        0.0801784625133     0.166894542449      0.893500595394      -0.393605061416     0.893500595394      -0.393605061416     0.0801784625133     0.166894542449      
8800000000.0        0.081759370336      0.168316605794      0.891303687565      -0.397639293325     0.891303687565      -0.397639293325     0.081759370336      0.168316605794      
8900000000.0        0.0833527529983     0.169723118609      0.889086875634      -0.401657975305     0.889086875634      -0.401657975305     0.0833527529983     0.169723118609      
9000000000.0        0.084958444506      0.171113979271      0.886850312976      -0.405660998295     0.886850312976      -0.405660998295     0.084958444506      0.171113979271      
9100000000.0        0.0865762781267     0.172489088214      0.884594153603      -0.409648255188     0.884594153603      -0.409648255188     0.0865762781267     0.172489088214      
9200000000.0        0.0882060864195     0.173848347928      0.882318552139      -0.413619640827     0.882318552139      -0.413619640827     0.0882060864195     0.173848347928      
9300000000.0        0.089847701264      0.175191662965      0.880023663787      -0.417575052011     0.880023663787      -0.417575052011     0.089847701264      0.175191662965      
9400000000.0        0.0915009538898     0.176518939933      0.877709644302      -0.421514387494     0.877709644302      -0.421514387494     0.0915009538898     0.176518939933      
9500000000.0        0.093165674906      0.1778300875        0.875376649962      -0.425437547986     0.875376649962      -0.425437547986     0.093165674906      0.1778300875        
9600000000.0        0.0948416943295     0.179125016397      0.873024837537      -0.429344436151     0.873024837537      -0.429344436151     0.0948416943295     0.179125016397      
9700000000.0        0.0965288416146     0.18040363941       0.870654364263      -0.433234956609     0.870654364263      -0.433234956609     0.0965288416146     0.18040363941       
9800000000.0        0.0982269456811     0.181665871387      0.86826538781       -0.437109015932     0.86826538781       -0.437109015932     0.0982269456811     0.181665871387      
9900000000.0        0.0999358349433     0.182911629228      0.865858066258      -0.440966522646     0.865858066258      -0.440966522646     0.0999358349433     0.182911629228      
10000000000.0       0.101655337338      0.184140831891      0.863432558062      -0.444807387226     0.863432558062      -0.444807387226     0.101655337338      0.184140831891      
