# Hz S RI R 50.00 
100000000.0         -0.0002312356841    -0.0153318107055    0.999722858579      -0.0155435809523    0.999722858579      -0.0155435809523    -0.0002312356841    -0.0153318107055    
200000000.0         -0.000960747089219  -0.0306400845703    0.998992967088      -0.0310636741269    0.998992967088      -0.0310636741269    -0.000960747089219  -0.0306400845703    
300000000.0         -0.00216411606087   -0.0459026302751    0.997789252194      -0.0465381134323    0.997789252194      -0.0465381134323    -0.00216411606087   -0.0459026302751    
400000000.0         -0.00383778879044   -0.0610975494903    0.996115228162      -0.0619450197157    0.996115228162      -0.0619450197157    -0.00383778879044   -0.0610975494903    
500000000.0         -0.00597689292732   -0.0762033062297    0.993975752135      -0.0772628730029    0.993975752135      -0.0772628730029    -0.00597689292732   -0.0762033062297    
600000000.0         -0.00857526719289   -0.0911988144796    0.991376977626      -0.0924706011424    0.991376977626      -0.0924706011424    -0.00857526719289   -0.0911988144796    
700000000.0         -0.0116255051385    -0.106063527121     0.98832630647       -0.10754766925      0.98832630647       -0.10754766925      -0.0116255051385    -0.106063527121     
800000000.0         -0.0151190079053    -0.120777521957     0.984832334512      -0.122474166052     0.984832334512      -0.122474166052     -0.0151190079053    -0.120777521957     
900000000.0         -0.0190460445528    -0.135321582913     0.980904790578      -0.137230885296     0.980904790578      -0.137230885296     -0.0190460445528    -0.135321582913     
1000000000.0        -0.0233958190279    -0.149677275224     0.976554469163      -0.151799401099     0.976554469163      -0.151799401099     -0.0233958190279    -0.149677275224     
1100000000.0        -0.0281565429091    -0.163827013794     0.971793157488      -0.166162136409     0.971793157488      -0.166162136409     -0.0281565429091    -0.163827013794     
1200000000.0        -0.0333155130524    -0.177754124119     0.966633557742      -0.18030242403      0.966633557742      -0.18030242403      -0.0333155130524    -0.177754124119     
1300000000.0        -0.0388591932361    -0.191442895352     0.961089205363      -0.194204559756     0.961089205363      -0.194204559756     -0.0388591932361    -0.191442895352     
1400000000.0        -0.0447732988898    -0.204878625227     0.955174384261      -0.207853847358     0.955174384261      -0.207853847358     -0.0447732988898    -0.204878625227     
1500000000.0        -0.0510428839918    -0.218047656699     0.948904039895      -0.221236635275     0.948904039895      -0.221236635275     -0.0510428839918    -0.218047656699     
1600000000.0        -0.0576524292315    -0.230937406262     0.942293691079      -0.234340344978     0.942293691079      -0.234340344978     -0.0576524292315    -0.230937406262     
1700000000.0        -0.0645859305597    -0.243536384036     0.935359341424      -0.247153491097     0.935359341424      -0.247153491097     -0.0645859305597    -0.243536384036     
1800000000.0        -0.0718269872919    -0.255834205806     0.928117391216      -0.259665693497     0.928117391216      -0.259665693497     -0.0718269872919    -0.255834205806     
1900000000.0        -0.0793588889761    -0.267821597299     0.920584550547      -0.271867681582     0.920584550547      -0.271867681582     -0.0793588889761    -0.267821597299     
2000000000.0        -0.0871647003004    -0.279490391036     0.912777754394      -0.283751291183     0.912777754394      -0.283751291183     -0.0871647003004    -0.279490391036     
2100000000.0        -0.0952273433794    -0.290833516212     0.904714080331      -0.295309454455     0.904714080331      -0.295309454455     -0.0952273433794    -0.290833516212     
2200000000.0        -0.103529676834     -0.301844982065     0.896410669446      -0.30653618328      0.896410669446      -0.30653618328      -0.103529676834     -0.301844982065     
2300000000.0        -0.112054571151     -0.31251985528      0.887884650974      -0.317426546686     0.887884650974      -0.317426546686     -0.112054571151     -0.31251985528      
2400000000.0        -0.120784979899     -0.322854231988     0.879153071087      -0.327976642868     0.879153071087      -0.327976642868     -0.120784979899     -0.322854231988     
2500000000.0        -0.129704006431     -0.332845204934     0.870232826177      -0.338183566379     0.870232826177      -0.338183566379     -0.129704006431     -0.332845204934     
2600000000.0        -0.13879496582      -0.342490826441     0.861140600934      -0.348045371105     0.861140600934      -0.348045371105     -0.13879496582      -0.342490826441     
2700000000.0        -0.148041441803     -0.351790067734     0.851892811386      -0.357561029611     0.851892811386      -0.357561029611     -0.148041441803     -0.351790067734     
2800000000.0        -0.157427338628     -0.36074277526      0.842505553061      -0.366730389475     0.842505553061      -0.366730389475     -0.157427338628     -0.36074277526      
2900000000.0        -0.166936927719     -0.369349624546     0.832994554317      -0.375554127158     0.832994554317      -0.375554127158     -0.166936927719     -0.369349624546     
3000000000.0        -0.176554889177     -0.377612072185     0.82337513484       -0.384033700009     0.82337513484       -0.384033700009     -0.176554889177     -0.377612072185     
3100000000.0        -0.186266348164     -0.38553230646      0.813662169263      -0.392171296898     0.813662169263      -0.392171296898     -0.186266348164     -0.38553230646      
3200000000.0        -0.196056906269     -0.393113197126     0.803870055794      -0.399969788007     0.803870055794      -0.399969788007     -0.196056906269     -0.393113197126     
3300000000.0        -0.205912668027     -0.400358244791     0.794012689702      -0.40743267423      0.794012689702      -0.40743267423      -0.205912668027     -0.400358244791     
3400000000.0        -0.215820262743     -0.407271530348     0.784103441488      -0.41456403661      0.784103441488      -0.41456403661      -0.215820262743     -0.407271530348     
3500000000.0        -0.225766861873     -0.413857664828     0.774155139506      -0.421368486202     0.774155139506      -0.421368486202     -0.225766861873     -0.413857664828     
3600000000.0        -0.235740192179     -0.420121740022     0.764180056811      -0.427851114711     0.764180056811      -0.427851114711     -0.235740192179     -0.420121740022     
3700000000.0        -0.245728544924     -0.426069280189     0.754189901954      -0.434017446197     0.754189901954      -0.434017446197     -0.245728544924     -0.426069280189     
3800000000.0        -0.255720781396     -0.431706195091     0.744195813469      -0.439873390131     0.744195813469      -0.439873390131     -0.255720781396     -0.431706195091     
3900000000.0        -0.265706335019     -0.437038734616     0.734208357756      -0.445425196016     0.734208357756      -0.445425196016     -0.265706335019     -0.437038734616     
4000000000.0        -0.275675210356     -0.442073445132     0.724237530077      -0.450679409757     0.724237530077      -0.450679409757     -0.275675210356     -0.442073445132     
4100000000.0        -0.285617979292     -0.446817127769     0.714292758376      -0.455642831942     0.714292758376      -0.455642831942     -0.285617979292     -0.446817127769     
4200000000.0        -0.295525774671     -0.451276798715     0.70438290964       -0.46032247815      0.70438290964       -0.46032247815      -0.295525774671     -0.451276798715     
4300000000.0        -0.305390281673     -0.455459651631     0.694516298523      -0.464725541368     0.694516298523      -0.464725541368     -0.305390281673     -0.455459651631     
4400000000.0        -0.315203727193     -0.45937302223      0.684700697964      -0.468859356583     0.684700697964      -0.468859356583     -0.315203727193     -0.45937302223      
4500000000.0        -0.324958867497     -0.463024355076     0.674943351536      -0.472731367578     0.674943351536      -0.472731367578     -0.324958867497     -0.463024355076     
4600000000.0        -0.334648974382     -0.466421172589     0.665250987281      -0.476349095945     0.665250987281      -0.476349095945     -0.334648974382     -0.466421172589     
4700000000.0        -0.34426782008      -0.469571046259     0.655629832809      -0.479720112309     0.655629832809      -0.479720112309     -0.34426782008      -0.469571046259     
4800000000.0        -0.353809661133     -0.472481570038     0.646085631421      -0.482852009717     0.646085631421      -0.482852009717     -0.353809661133     -0.472481570038     
4900000000.0        -0.363269221424     -0.475160335872     0.636623659081      -0.485752379181     0.636623659081      -0.485752379181     -0.363269221424     -0.475160335872     
5000000000.0        -0.372641674569     -0.477614911311     0.627248742017      -0.488428787285     0.627248742017      -0.488428787285     -0.372641674569     -0.477614911311     
5100000000.0        -0.381922625829     -0.479852819126     0.617965274818      -0.490888755811     0.617965274818      -0.490888755811     -0.381922625829     -0.479852819126     
5200000000.0        -0.39110809371      -0.481881518871     0.608777238829      -0.493139743303     0.608777238829      -0.493139743303     -0.39110809371      -0.481881518871     
5300000000.0        -0.400194491373     -0.483708390295     0.599688220739      -0.495189128483     0.599688220739      -0.495189128483     -0.400194491373     -0.483708390295     
5400000000.0        -0.409178608009     -0.485340718521     0.590701431211      -0.497044195433     0.590701431211      -0.497044195433     -0.409178608009     -0.485340718521     
5500000000.0        -0.418057590266     -0.486785680905     0.581819723451      -0.498712120454     0.581819723451      -0.498712120454     -0.418057590266     -0.486785680905     
5600000000.0        -0.426828923842     -0.488050335468     0.573045611617      -0.500199960507     0.573045611617      -0.500199960507     -0.426828923842     -0.488050335468     
5700000000.0        -0.435490415323     -0.489141610826     0.56438128898       -0.501514643137     0.56438128898       -0.501514643137     -0.435490415323     -0.489141610826     
5800000000.0        -0.444040174352     -0.490066297499     0.555828645756      -0.502662957793     0.555828645756      -0.502662957793     -0.444040174352     -0.490066297499     
5900000000.0        -0.452476596177     -0.490831040532     0.547389286555      -0.503651548446     0.547389286555      -0.503651548446     -0.452476596177     -0.490831040532     
6000000000.0        -0.460798344648     -0.491442333311     0.539064547389      -0.504486907407     0.539064547389      -0.504486907407     -0.460798344648     -0.491442333311     
6100000000.0        -0.469004335698     -0.491906512498     0.530855512187      -0.505175370266     0.530855512187      -0.505175370266     -0.469004335698     -0.491906512498     
6200000000.0        -0.477093721343     -0.492229753991     0.522763028793      -0.505723111855     0.522763028793      -0.505723111855     -0.477093721343     -0.492229753991     
6300000000.0        -0.485065874243     -0.492418069837     0.514787724415      -0.506136143159     0.514787724415      -0.506136143159     -0.485065874243     -0.492418069837     
6400000000.0        -0.49292037282      -0.492477305991     0.506930020492      -0.506420309077     0.506930020492      -0.506420309077     -0.49292037282      -0.492477305991     
6500000000.0        -0.500656986981     -0.492413140875     0.499190146985      -0.506581286986     0.499190146985      -0.506581286986     -0.500656986981     -0.492413140875     
6600000000.0        -0.508275664421     -0.49223108464      0.491568156064      -0.506624586002     0.491568156064      -0.506624586002     -0.508275664421     -0.49223108464      
6700000000.0        -0.515776517543     -0.491936479074     0.484063935194      -0.506555546886     0.484063935194      -0.506555546886     -0.515776517543     -0.491936479074     
6800000000.0        -0.523159810967     -0.491534498084     0.476677219623      -0.506379342534     0.476677219623      -0.506379342534     -0.523159810967     -0.491534498084     
6900000000.0        -0.530425949643     -0.491030148698     0.46940760427       -0.506100978975     0.46940760427       -0.506100978975     -0.530425949643     -0.491030148698     
7000000000.0        -0.537575467558     -0.490428272519     0.462254555017      -0.505725296827     0.462254555017      -0.505725296827     -0.537575467558     -0.490428272519     
7100000000.0        -0.544609017021     -0.48973354759      0.455217419426      -0.505256973162     0.455217419426      -0.505256973162     -0.544609017021     -0.48973354759      
7200000000.0        -0.551527358517     -0.488950490609     0.448295436883      -0.504700523727     0.448295436883      -0.504700523727     -0.551527358517     -0.488950490609     
7300000000.0        -0.558331351122     -0.488083459457     0.441487748182      -0.504060305463     0.441487748182      -0.504060305463     -0.558331351122     -0.488083459457     
7400000000.0        -0.565021943456     -0.487136655988     0.434793404576      -0.503340519305     0.434793404576      -0.503340519305     -0.565021943456     -0.487136655988     
7500000000.0        -0.571600165159     -0.48611412905      0.428211376297      -0.502545213199     0.428211376297      -0.502545213199     -0.571600165159     -0.48611412905      
7600000000.0        -0.578067118876     -0.485019777697     0.421740560575      -0.501678285316     0.421740560575      -0.501678285316     -0.578067118876     -0.485019777697     
7700000000.0        -0.584423972727     -0.483857354559     0.41537978916       -0.500743487422     0.41537978916       -0.500743487422     -0.584423972727     -0.483857354559     
7800000000.0        -0.590671953252     -0.482630469345     0.409127835389      -0.499744428378     0.409127835389      -0.499744428378     -0.590671953252     -0.482630469345     
7900000000.0        -0.596812338797     -0.48134259244      0.402983420788      -0.498684577745     0.402983420788      -0.498684577745     -0.596812338797     -0.48134259244      
8000000000.0        -0.602846453338     -0.479997058588     0.396945221257      -0.49756726946      0.396945221257      -0.49756726946      -0.602846453338     -0.479997058588     
8100000000.0        -0.60877566071      -0.478597070627     0.391011872836      -0.496395705577     0.391011872836      -0.496395705577     -0.60877566071      -0.478597070627     
8200000000.0        -0.614601359234     -0.477145703258     0.385181977078      -0.495172960031     0.385181977078      -0.495172960031     -0.614601359234     -0.477145703258     
8300000000.0        -0.62032497671      -0.475645906838     0.37945410606       -0.493901982434     0.37945410606       -0.493901982434     -0.62032497671      -0.475645906838     
8400000000.0        -0.625947965769     -0.474100511165     0.373826807026      -0.492585601862     0.373826807026      -0.492585601862     -0.625947965769     -0.474100511165     
8500000000.0        -0.631471799555     -0.472512229264     0.368298606707      -0.491226530636     0.368298606707      -0.491226530636     -0.631471799555     -0.472512229264     
8600000000.0        -0.636897967732     -0.470883661135     0.362868015316      -0.489827368075     0.362868015316      -0.489827368075     -0.636897967732     -0.470883661135     
8700000000.0        -0.642227972784     -0.469217297476     0.357533530246      -0.488390604218     0.357533530246      -0.488390604218     -0.642227972784     -0.469217297476     
8800000000.0        -0.647463326602     -0.467515523356     0.35229363948       -0.486918623495     0.35229363948       -0.486918623495     -0.647463326602     -0.467515523356     
8900000000.0        -0.65260554734      -0.465780621841     0.347146824744      -0.485413708353     0.347146824744      -0.485413708353     -0.65260554734      -0.465780621841     
9000000000.0        -0.657656156516     -0.464014777548     0.342091564393      -0.483878042814     0.342091564393      -0.483878042814     -0.657656156516     -0.464014777548     
9100000000.0        -0.662616676358     -0.462220080146     0.337126336078      -0.482313715971     0.337126336078      -0.482313715971     -0.662616676358     -0.462220080146     
9200000000.0        -0.667488627365     -0.460398527779     0.332249619174      -0.480722725416     0.332249619174      -0.480722725416     -0.667488627365     -0.460398527779     
9300000000.0        -0.672273526082     -0.458552030415     0.327459897015      -0.479106980583     0.327459897015      -0.479106980583     -0.672273526082     -0.458552030415     
9400000000.0        -0.676972883067     -0.456682413117     0.322755658919      -0.477468306024     0.322755658919      -0.477468306024     -0.676972883067     -0.456682413117     
9500000000.0        -0.68158820104      -0.454791419229     0.318135402041      -0.475808444593     0.318135402041      -0.475808444593     -0.68158820104      -0.454791419229     
9600000000.0        -0.686120973208     -0.452880713486     0.313597633051      -0.474129060555     0.313597633051      -0.474129060555     -0.686120973208     -0.452880713486     
9700000000.0        -0.690572681745     -0.450951885031     0.309140869652      -0.472431742604     0.309140869652      -0.472431742604     -0.690572681745     -0.450951885031     
9800000000.0        -0.694944796423     -0.44900645035      0.304763641948      -0.470718006799     0.304763641948      -0.470718006799     -0.694944796423     -0.44900645035      
9900000000.0        -0.699238773379     -0.447045856121     0.300464493677      -0.468989299411     0.300464493677      -0.468989299411     -0.699238773379     -0.447045856121     
10000000000.0       -0.703456054018     -0.445071481975     0.296241983311      -0.467246999684     0.296241983311      -0.467246999684     -0.703456054018     -0.445071481975     
