# Hz S RI R 50.00 
100000000.0         0.0408246220606     0.00446908676886    0.959171813096      -0.00598560596299   0.959171813096      -0.00598560596299   0.0408246220606     0.00446908676886    
200000000.0         0.0411664675728     0.00893165047286    0.958825069753      -0.0119647088485    0.958825069753      -0.0119647088485    0.0411664675728     0.00893165047286    
300000000.0         0.0414941896754     0.0133891005353     0.958490116216      -0.0179387342875    0.958490116216      -0.0179387342875    0.0414941896754     0.0133891005353     
400000000.0         0.0418418666725     0.0178413529641     0.958132873585      -0.023907612538     0.958132873585      -0.023907612538     0.0418418666725     0.0178413529641     
500000000.0         0.0422225817814     0.0222879782672     0.957740258007      -0.0298709273698    0.957740258007      -0.0298709273698    0.0422225817814     0.0222879782672     
600000000.0         0.0426429578365     0.026728395559      0.957305645951      -0.0358281105106    0.957305645951      -0.0358281105106    0.0426429578365     0.026728395559      
700000000.0         0.0431068541094     0.031161942494      0.956825177387      -0.041778511754     0.956825177387      -0.041778511754     0.0431068541094     0.031161942494      
800000000.0         0.0436167161086     0.0355879079022     0.956296405975      -0.0477214316984    0.956296405975      -0.0477214316984    0.0436167161086     0.0355879079022     
900000000.0         0.0441741768196     0.0400055494964     0.955717697828      -0.0536561395238    0.955717697828      -0.0536561395238    0.0441741768196     0.0400055494964     
1000000000.0        0.0447803615917     0.0444141045185     0.955087926621      -0.0595818836857    0.955087926621      -0.0595818836857    0.0447803615917     0.0444141045185     
1100000000.0        0.0454360577111     0.0488127966456     0.954406304017      -0.0654978988572    0.954406304017      -0.0654978988572    0.0454360577111     0.0488127966456     
1200000000.0        0.0461418155193     0.0532008407478     0.953672278552      -0.0714034107146    0.953672278552      -0.0714034107146    0.0461418155193     0.0532008407478     
1300000000.0        0.0468980120995     0.0575774463296     0.952885471943      -0.0772976393997    0.952885471943      -0.0772976393997    0.0468980120995     0.0575774463296     
1400000000.0        0.0477048932026     0.0619418201251     0.952045637167      -0.0831798021327    0.952045637167      -0.0831798021327    0.0477048932026     0.0619418201251     
1500000000.0        0.0485626018798     0.0662931681241     0.951152629823      -0.0890491152531    0.951152629823      -0.0890491152531    0.0485626018798     0.0662931681241     
1600000000.0        0.0494711986571     0.0706306972045     0.950206387963      -0.094904795863     0.950206387963      -0.094904795863     0.0494711986571     0.0706306972045     
1700000000.0        0.0504306761364     0.0749536164805     0.949206917489      -0.100746063186     0.949206917489      -0.100746063186     0.0504306761364     0.0749536164805     
1800000000.0        0.0514409698181     0.0792611384441     0.94815428133       -0.106572139719     0.94815428133       -0.106572139719     0.0514409698181     0.0792611384441     
1900000000.0        0.052501966294      0.0835524799484     0.947048591247      -0.112382252218     0.947048591247      -0.112382252218     0.052501966294      0.0835524799484     
2000000000.0        0.0536135095705     0.0878268630705     0.945890001517      -0.118175632575     0.945890001517      -0.118175632575     0.0536135095705     0.0878268630705     
2100000000.0        0.0547754060369     0.0920835158795     0.944678703957      -0.123951518586     0.944678703957      -0.123951518586     0.0547754060369     0.0920835158795     
2200000000.0        0.0559874284331     0.096321673127      0.943414923961      -0.129709154647     0.943414923961      -0.129709154647     0.0559874284331     0.096321673127      
2300000000.0        0.0572493190697     0.100540576876      0.94209891728       -0.135447792392     0.94209891728       -0.135447792392     0.0572493190697     0.100540576876      
2400000000.0        0.0585607924804     0.104739477075      0.940730967367      -0.141166691267     0.940730967367      -0.141166691267     0.0585607924804     0.104739477075      
2500000000.0        0.0599215376378     0.108917632094      0.939311383164      -0.146865119069     0.939311383164      -0.146865119069     0.0599215376378     0.108917632094      
2600000000.0        0.0613312198307     0.113074309212      0.937840497225      -0.152542352444     0.937840497225      -0.152542352444     0.0613312198307     0.113074309212      
2700000000.0        0.0627894822761     0.117208785082      0.936318664102      -0.158197677344     0.936318664102      -0.158197677344     0.0627894822761     0.117208785082      
2800000000.0        0.0642959475211     0.121320346158      0.934746258944      -0.163830389468     0.934746258944      -0.163830389468     0.0642959475211     0.121320346158      
2900000000.0        0.0658502186767     0.125408289099      0.933123676265      -0.169439794661     0.933123676265      -0.169439794661     0.0658502186767     0.125408289099      
3000000000.0        0.0674518805176     0.129471921148      0.931451328842      -0.175025209299     0.931451328842      -0.175025209299     0.0674518805176     0.129471921148      
3100000000.0        0.0691005004727     0.133510560486      0.929729646727      -0.180585960643     0.929729646727      -0.180585960643     0.0691005004727     0.133510560486      
3200000000.0        0.0707956295265     0.13752353657       0.927959076344      -0.186121387181     0.927959076344      -0.186121387181     0.0707956295265     0.13752353657       
3300000000.0        0.0725368030482     0.141510190442      0.926140079658      -0.191630838941     0.926140079658      -0.191630838941     0.0725368030482     0.141510190442      
3400000000.0        0.0743235415604     0.145469875031      0.924273133413      -0.197113677787     0.924273133413      -0.197113677787     0.0743235415604     0.145469875031      
3500000000.0        0.0761553514579     0.149401955425      0.922358728407      -0.202569277703     0.922358728407      -0.202569277703     0.0761553514579     0.149401955425      
3600000000.0        0.0780317256852     0.153305809135      0.920397368815      -0.207997025049     0.920397368815      -0.207997025049     0.0780317256852     0.153305809135      
3700000000.0        0.0799521443791     0.157180826335      0.918389571551      -0.21339631881      0.918389571551      -0.21339631881      0.0799521443791     0.157180826335      
3800000000.0        0.0819160754813     0.161026410092      0.916335865651      -0.218766570825     0.916335865651      -0.218766570825     0.0819160754813     0.161026410092      
3900000000.0        0.0839229753265     0.164841976575      0.914236791686      -0.224107205995     0.914236791686      -0.224107205995     0.0839229753265     0.164841976575      
4000000000.0        0.0859722892086     0.168626955252      0.912092901199      -0.229417662483     0.912092901199      -0.229417662483     0.0859722892086     0.168626955252      
4100000000.0        0.0880634519288     0.17238078907       0.909904756151      -0.234697391895     0.909904756151      -0.234697391895     0.0880634519288     0.17238078907       
4200000000.0        0.0901958883266     0.17610293462       0.907672928396      -0.239945859448     0.907672928396      -0.239945859448     0.0901958883266     0.17610293462       
4300000000.0        0.0923690137983     0.179792862289      0.905397999158      -0.245162544122     0.905397999158      -0.245162544122     0.0923690137983     0.179792862289      
4400000000.0        0.0945822348008     0.183450056399      0.903080558529      -0.250346938797     0.903080558529      -0.250346938797     0.0945822348008     0.183450056399      
4500000000.0        0.096834949346      0.187074015325      0.900721204977      -0.255498550377     0.900721204977      -0.255498550377     0.096834949346      0.187074015325      
4600000000.0        0.0991265474838     0.190664251611      0.898320544857      -0.260616899903     0.898320544857      -0.260616899903     0.0991265474838     0.190664251611      
4700000000.0        0.101456411777      0.19422029206       0.895879191943      -0.265701522646     0.895879191943      -0.265701522646     0.101456411777      0.19422029206       
4800000000.0        0.103823917764      0.197741677822      0.89339776696       -0.270751968195     0.89339776696       -0.270751968195     0.103823917764      0.197741677822      
4900000000.0        0.106228434421      0.20122796446       0.890876897125      -0.275767800525     0.890876897125      -0.275767800525     0.106228434421      0.20122796446       
5000000000.0        0.108669324606      0.204678722007      0.8883172157        -0.280748598055     0.8883172157        -0.280748598055     0.108669324606      0.204678722007      
5100000000.0        0.111145945507      0.208093535016      0.885719361549      -0.285693953693     0.885719361549      -0.285693953693     0.111145945507      0.208093535016      
5200000000.0        0.113657649069      0.211472002584      0.883083978701      -0.290603474872     0.883083978701      -0.290603474872     0.113657649069      0.211472002584      
5300000000.0        0.116203782433      0.214813738381      0.880411715925      -0.295476783568     0.880411715925      -0.295476783568     0.116203782433      0.214813738381      
5400000000.0        0.118783688346      0.218118370652      0.877703226305      -0.300313516311     0.877703226305      -0.300313516311     0.118783688346      0.218118370652      
5500000000.0        0.121396705584      0.221385542219      0.87495916683       -0.305113324182     0.87495916683       -0.305113324182     0.121396705584      0.221385542219      
5600000000.0        0.124042169358      0.224614910463      0.87218019798       -0.309875872801     0.87218019798       -0.309875872801     0.124042169358      0.224614910463      
5700000000.0        0.126719411712      0.227806147303      0.869366983328      -0.314600842302     0.869366983328      -0.314600842302     0.126719411712      0.227806147303      
5800000000.0        0.12942776192       0.230958939159      0.866520189147      -0.319287927299     0.866520189147      -0.319287927299     0.12942776192       0.230958939159      
5900000000.0        0.132166546877      0.234072986903      0.863640484019      -0.323936836837     0.863640484019      -0.323936836837     0.132166546877      0.234072986903      
6000000000.0        0.134935091473      0.237148005809      0.860728538453      -0.328547294342     0.860728538453      -0.328547294342     0.134935091473      0.237148005809      
6100000000.0        0.137732718972      0.240183725483      0.857785024515      -0.333119037552     0.857785024515      -0.333119037552     0.137732718972      0.240183725483      
6200000000.0        0.140558751381      0.243179889787      0.854810615458      -0.337651818445     0.854810615458      -0.337651818445     0.140558751381      0.243179889787      
6300000000.0        0.143412509802      0.24613625676       0.851805985362      -0.342145403151     0.851805985362      -0.342145403151     0.143412509802      0.24613625676       
6400000000.0        0.146293314795      0.249052598516      0.848771808779      -0.346599571862     0.848771808779      -0.346599571862     0.146293314795      0.249052598516      
6500000000.0        0.149200486718      0.25192870115       0.84570876039       -0.35101411873      0.84570876039       -0.35101411873      0.149200486718      0.25192870115       
6600000000.0        0.152133346066      0.254764364623      0.842617514667      -0.355388851758     0.842617514667      -0.355388851758     0.152133346066      0.254764364623      
6700000000.0        0.155091213803      0.257559402645      0.839498745536      -0.359723592677     0.839498745536      -0.359723592677     0.155091213803      0.257559402645      
6800000000.0        0.158073411686      0.260313642545      0.836353126059      -0.364018176827     0.836353126059      -0.364018176827     0.158073411686      0.260313642545      
6900000000.0        0.161079262581      0.263026925147      0.833181328115      -0.36827245302      0.833181328115      -0.36827245302      0.161079262581      0.263026925147      
7000000000.0        0.164108090773      0.265699104616      0.829984022094      -0.372486283398     0.829984022094      -0.372486283398     0.164108090773      0.265699104616      
7100000000.0        0.167159222262      0.268330048323      0.826761876589      -0.376659543291     0.826761876589      -0.376659543291     0.167159222262      0.268330048323      
7200000000.0        0.170231985062      0.270919636683      0.823515558112      -0.38079212106      0.823515558112      -0.38079212106      0.170231985062      0.270919636683      
7300000000.0        0.173325709481      0.273467762997      0.820245730802      -0.384883917937     0.820245730802      -0.384883917937     0.173325709481      0.273467762997      
7400000000.0        0.176439728405      0.275974333286      0.81695305615       -0.388934847859     0.81695305615       -0.388934847859     0.176439728405      0.275974333286      
7500000000.0        0.179573377559      0.278439266121      0.813638192728      -0.392944837299     0.813638192728      -0.392944837299     0.179573377559      0.278439266121      
7600000000.0        0.182725995777      0.280862492444      0.810301795928      -0.396913825089     0.810301795928      -0.396913825089     0.182725995777      0.280862492444      
7700000000.0        0.185896925248      0.283243955385      0.806944517709      -0.400841762237     0.806944517709      -0.400841762237     0.185896925248      0.283243955385      
7800000000.0        0.189085511769      0.28558361008       0.80356700635       -0.40472861174      0.80356700635       -0.40472861174      0.189085511769      0.28558361008       
7900000000.0        0.192291104974      0.287881423474      0.800169906213      -0.408574348396     0.800169906213      -0.408574348396     0.192291104974      0.287881423474      
8000000000.0        0.195513058574      0.290137374133      0.796753857512      -0.412378958608     0.796753857512      -0.412378958608     0.195513058574      0.290137374133      
8100000000.0        0.198750730568      0.29235145204       0.793319496092      -0.416142440188     0.793319496092      -0.416142440188     0.198750730568      0.29235145204       
8200000000.0        0.202003483463      0.294523658393      0.789867453216      -0.419864802149     0.789867453216      -0.419864802149     0.202003483463      0.294523658393      
8300000000.0        0.205270684479      0.296654005404      0.786398355358      -0.423546064508     0.786398355358      -0.423546064508     0.205270684479      0.296654005404      
8400000000.0        0.208551705745      0.298742516084      0.782912824005      -0.42718625807      0.782912824005      -0.42718625807      0.208551705745      0.298742516084      
8500000000.0        0.211845924489      0.300789224039      0.779411475469      -0.430785424223     0.779411475469      -0.430785424223     0.211845924489      0.300789224039      
8600000000.0        0.21515272322       0.302794173252      0.7758949207        -0.434343614722     0.7758949207        -0.434343614722     0.21515272322       0.302794173252      
8700000000.0        0.218471489903      0.304757417868      0.772363765119      -0.437860891477     0.772363765119      -0.437860891477     0.218471489903      0.304757417868      
8800000000.0        0.221801618123      0.306679021977      0.768818608446      -0.44133732633      0.768818608446      -0.44133732633      0.221801618123      0.306679021977      
8900000000.0        0.225142507247      0.308559059398      0.76526004454       -0.444773000842     0.76526004454       -0.444773000842     0.225142507247      0.308559059398      
9000000000.0        0.228493562573      0.310397613453      0.761688661255      -0.44816800607      0.761688661255      -0.44816800607      0.228493562573      0.310397613453      
9100000000.0        0.231854195472      0.31219477675       0.758105040287      -0.451522442347     0.758105040287      -0.451522442347     0.231854195472      0.31219477675       
9200000000.0        0.235223823526      0.313950650959      0.754509757045      -0.454836419057     0.754509757045      -0.454836419057     0.235223823526      0.313950650959      
9300000000.0        0.238601870656      0.315665346587      0.750903380519      -0.458110054418     0.750903380519      -0.458110054418     0.238601870656      0.315665346587      
9400000000.0        0.241987767245      0.31733898276       0.747286473159      -0.461343475251     0.747286473159      -0.461343475251     0.241987767245      0.31733898276       
9500000000.0        0.245380950248      0.318971686992      0.743659590758      -0.464536816764     0.743659590758      -0.464536816764     0.245380950248      0.318971686992      
9600000000.0        0.248780863302      0.320563594968      0.74002328235       -0.467690222324     0.74002328235       -0.467690222324     0.248780863302      0.320563594968      
9700000000.0        0.252186956828      0.322114850315      0.736378090105      -0.470803843232     0.736378090105      -0.470803843232     0.252186956828      0.322114850315      
9800000000.0        0.255598688118      0.323625604384      0.732724549237      -0.473877838507     0.732724549237      -0.473877838507     0.255598688118      0.323625604384      
9900000000.0        0.259015521429      0.325096016021      0.729063187916      -0.476912374657     0.729063187916      -0.476912374657     0.259015521429      0.325096016021      
10000000000.0       0.262436928057      0.326526251352      0.725394527192      -0.479907625458     0.725394527192      -0.479907625458     0.262436928057      0.326526251352      
