# Hz S RI R 50.00 
100000000.0         0.00123592090477    0.000568033688576   0.998758492047      -0.00279585490495   0.998758492047      -0.00279585490495   0.00123592090477    0.000568033688576   
200000000.0         0.00124791286793    0.00113598864685    0.998736947368      -0.00559168666144   0.998736947368      -0.00559168666144   0.00124791286793    0.00113598864685    
300000000.0         0.00126091682678    0.00170386420674    0.99870942425       -0.0083875234166    0.99870942425       -0.0083875234166    0.00126091682678    0.00170386420674    
400000000.0         0.0012760029201     0.00227164670117    0.998674851545      -0.0111833713895    0.998674851545      -0.0111833713895    0.0012760029201     0.00227164670117    
500000000.0         0.00129358265588    0.00283931994731    0.998632816545      -0.0139792296955    0.998632816545      -0.0139792296955    0.00129358265588    0.00283931994731    
600000000.0         0.00131386545702    0.0034068668864     0.998583108463      -0.0167750935231    0.998583108463      -0.0167750935231    0.00131386545702    0.0034068668864     
700000000.0         0.0013369746644     0.00397427013064    0.998525602448      -0.0195709554719    0.998525602448      -0.0195709554719    0.0013369746644     0.00397427013064    
800000000.0         0.00136298985528    0.00454151219618    0.998460217285      -0.022366806262     0.998460217285      -0.022366806262     0.00136298985528    0.00454151219618    
900000000.0         0.00139196567756    0.00510857561605    0.998386896573      -0.0251626351641    0.998386896573      -0.0251626351641    0.00139196567756    0.00510857561605    
1000000000.0        0.00142394139264    0.0056754429991     0.998305599189      -0.0279584302841    0.998305599189      -0.0279584302841    0.00142394139264    0.0056754429991     
1100000000.0        0.00145894617823    0.00624209706196    0.998216294003      -0.0307541787617    0.998216294003      -0.0307541787617    0.00145894617822    0.00624209706196    
1200000000.0        0.00149700228712    0.00680852064646    0.998118956719      -0.0335498669178    0.998118956719      -0.0335498669178    0.00149700228712    0.00680852064646    
1300000000.0        0.00153812703413    0.00737469672866    0.998013567898      -0.0363454803653    0.998013567898      -0.0363454803653    0.00153812703413    0.00737469672866    
1400000000.0        0.00158233410173    0.00794060842306    0.99790011166       -0.0391410040972    0.99790011166       -0.0391410040972    0.00158233410173    0.00794060842306    
1500000000.0        0.00162963442977    0.00850623898372    0.997778574802      -0.0419364225571    0.997778574802      -0.0419364225571    0.00162963442977    0.00850623898372    
1600000000.0        0.0016800368403     0.00907157180365    0.997648946173      -0.0447317196956    0.997648946173      -0.0447317196956    0.0016800368403     0.00907157180365    
1700000000.0        0.00173354848798    0.0096365904129     0.997511216232      -0.0475268790193    0.997511216232      -0.0475268790193    0.00173354848798    0.0096365904129     
1800000000.0        0.00179017519198    0.0102012784761     0.997365376721      -0.0503218836302    0.997365376721      -0.0503218836302    0.00179017519198    0.0102012784761     
1900000000.0        0.00184992168542    0.0107656197894     0.997211420421      -0.0531167162605    0.997211420421      -0.0531167162605    0.00184992168542    0.0107656197894     
2000000000.0        0.00191279180613    0.0113295982772     0.997049340959      -0.0559113593021    0.997049340959      -0.0559113593021    0.00191279180613    0.0113295982772     
2100000000.0        0.00197878864466    0.0118931979889     0.996879132672      -0.0587057948325    0.996879132672      -0.0587057948325    0.00197878864466    0.0118931979889     
2200000000.0        0.00204791466079    0.0124564030954     0.996700790487      -0.0615000046375    0.996700790487      -0.0615000046375    0.00204791466079    0.0124564030954     
2300000000.0        0.00212017177637    0.0130191978857     0.996514309835      -0.0642939702311    0.996514309835      -0.0642939702311    0.00212017177637    0.0130191978857     
2400000000.0        0.00219556145007    0.0135815667637     0.996319686581      -0.0670876728736    0.996319686581      -0.0670876728736    0.00219556145007    0.0135815667637     
2500000000.0        0.00227408473822    0.0141434942444     0.996116916959      -0.0698810935871    0.996116916959      -0.0698810935871    0.00227408473822    0.0141434942444     
2600000000.0        0.00235574234484    0.0147049649515     0.995905997533      -0.0726742131706    0.995905997533      -0.0726742131706    0.00235574234484    0.0147049649515     
2700000000.0        0.00244053466302    0.0152659636134     0.995686925153      -0.0754670122123    0.995686925153      -0.0754670122123    0.00244053466302    0.0152659636134     
2800000000.0        0.00252846180952    0.0158264750608     0.995459696924      -0.0782594711018    0.995459696924      -0.0782594711018    0.00252846180952    0.0158264750608     
2900000000.0        0.00261952365382    0.0163864842237     0.99522431018       -0.081051570041     0.99522431018       -0.081051570041     0.00261952365382    0.0163864842237     
3000000000.0        0.00271371984281    0.016945976128      0.994980762461      -0.0838432890535    0.994980762461      -0.0838432890535    0.00271371984281    0.016945976128      
3100000000.0        0.00281104982173    0.0175049358937     0.994729051494      -0.0866346079943    0.994729051494      -0.0866346079943    0.00281104982173    0.0175049358937     
3200000000.0        0.00291151285224    0.0180633487312     0.994469175177      -0.0894255065575    0.994469175177      -0.0894255065575    0.00291151285224    0.0180633487312     
3300000000.0        0.00301510802784    0.0186211999398     0.994201131566      -0.0922159642846    0.994201131566      -0.0922159642846    0.00301510802784    0.0186211999398     
3400000000.0        0.00312183428743    0.0191784749043     0.993924918862      -0.0950059605714    0.993924918862      -0.0950059605714    0.00312183428743    0.0191784749043     
3500000000.0        0.00323169042693    0.0197351590935     0.993640535403      -0.0977954746746    0.993640535403      -0.0977954746746    0.00323169042693    0.0197351590935     
3600000000.0        0.00334467510959    0.0202912380571     0.993347979654      -0.100584485718     0.993347979654      -0.100584485718     0.00334467510959    0.0202912380571     
3700000000.0        0.00346078687497    0.0208466974241     0.993047250199      -0.103372972699     0.993047250199      -0.103372972699     0.00346078687497    0.0208466974241     
3800000000.0        0.00358002414688    0.0214015229004     0.992738345735      -0.106160914493     0.992738345735      -0.106160914493     0.00358002414688    0.0214015229004     
3900000000.0        0.00370238524046    0.0219557002666     0.99242126507       -0.108948289858     0.99242126507       -0.108948289858     0.00370238524046    0.0219557002666     
4000000000.0        0.00382786836839    0.0225092153766     0.992096007111      -0.111735077442     0.992096007111      -0.111735077442     0.00382786836839    0.0225092153766     
4100000000.0        0.00395647164652    0.0230620541548     0.991762570867      -0.114521255784     0.991762570867      -0.114521255784     0.00395647164652    0.0230620541548     
4200000000.0        0.00408819309884    0.0236142025951     0.991420955439      -0.117306803321     0.991420955439      -0.117306803321     0.00408819309884    0.0236142025951     
4300000000.0        0.004223030662      0.0241656467585     0.991071160023      -0.120091698391     0.991071160023      -0.120091698391     0.004223030662      0.0241656467585     
4400000000.0        0.00436098218935    0.0247163727719     0.990713183901      -0.122875919237     0.990713183901      -0.122875919237     0.00436098218935    0.0247163727719     
4500000000.0        0.00450204545458    0.0252663668257     0.990347026442      -0.125659444007     0.990347026442      -0.125659444007     0.00450204545458    0.0252663668257     
4600000000.0        0.00464621815507    0.0258156151729     0.989972687101      -0.128442250766     0.989972687101      -0.128442250766     0.00464621815507    0.0258156151729     
4700000000.0        0.00479349791488    0.0263641041271     0.989590165414      -0.131224317489     0.989590165414      -0.131224317488     0.00479349791488    0.0263641041271     
4800000000.0        0.00494388228747    0.0269118200614     0.989199460996      -0.134005622071     0.989199460996      -0.134005622071     0.00494388228747    0.0269118200614     
4900000000.0        0.00509736875826    0.0274587494062     0.988800573543      -0.136786142327     0.988800573543      -0.136786142327     0.00509736875826    0.0274587494062     
5000000000.0        0.00525395474685    0.0280048786485     0.988393502827      -0.139565855997     0.988393502827      -0.139565855997     0.00525395474685    0.0280048786485     
5100000000.0        0.00541363760918    0.0285501943301     0.987978248698      -0.142344740745     0.987978248698      -0.142344740745     0.00541363760918    0.0285501943301     
5200000000.0        0.00557641463941    0.0290946830466     0.98755481108       -0.145122774163     0.98755481108       -0.145122774163     0.00557641463941    0.0290946830466     
5300000000.0        0.00574228307175    0.0296383314457     0.987123189972      -0.147899933777     0.987123189972      -0.147899933777     0.00574228307175    0.0296383314457     
5400000000.0        0.00591124008201    0.0301811262261     0.986683385446      -0.150676197043     0.986683385446      -0.150676197043     0.00591124008201    0.0301811262261     
5500000000.0        0.00608328278921    0.0307230541365     0.986235397647      -0.153451541353     0.986235397647      -0.153451541353     0.00608328278921    0.0307230541365     
5600000000.0        0.00625840825689    0.031264101974      0.985779226794      -0.156225944036     0.985779226794      -0.156225944036     0.00625840825689    0.031264101974      
5700000000.0        0.00643661349448    0.0318042565833     0.985314873175      -0.158999382363     0.985314873175      -0.158999382363     0.00643661349448    0.0318042565833     
5800000000.0        0.00661789545841    0.0323435048554     0.984842337149      -0.161771833542     0.984842337149      -0.161771833542     0.00661789545841    0.0323435048554     
5900000000.0        0.00680225105333    0.0328818337265     0.984361619149      -0.164543274726     0.984361619149      -0.164543274726     0.00680225105333    0.0328818337265     
6000000000.0        0.00698967713305    0.033419230177      0.983872719675      -0.167313683013     0.983872719675      -0.167313683013     0.00698967713305    0.033419230177      
6100000000.0        0.00718017050156    0.0339556812305     0.983375639298      -0.170083035446     0.983375639298      -0.170083035446     0.00718017050156    0.0339556812305     
6200000000.0        0.00737372791394    0.0344911739527     0.982870378659      -0.172851309017     0.982870378659      -0.172851309017     0.00737372791394    0.0344911739527     
6300000000.0        0.00757034607712    0.0350256954506     0.982356938469      -0.175618480667     0.982356938469      -0.175618480667     0.00757034607712    0.0350256954506     
6400000000.0        0.00777002165075    0.0355592328711     0.981835319506      -0.178384527288     0.981835319506      -0.178384527288     0.00777002165075    0.0355592328711     
6500000000.0        0.00797275124789    0.0360917734008     0.981305522621      -0.181149425724     0.981305522621      -0.181149425724     0.00797275124789    0.0360917734008     
6600000000.0        0.00817853143569    0.0366233042644     0.980767548729      -0.183913152772     0.980767548729      -0.183913152772     0.00817853143569    0.0366233042644     
6700000000.0        0.00838735873601    0.0371538127242     0.980221398819      -0.186675685184     0.980221398819      -0.186675685184     0.00838735873601    0.0371538127242     
6800000000.0        0.00859922962608    0.0376832860793     0.979667073943      -0.18943699967      0.979667073943      -0.18943699967      0.00859922962608    0.0376832860793     
6900000000.0        0.00881414053898    0.0382117116643     0.979104575227      -0.192197072895     0.979104575227      -0.192197072895     0.00881414053898    0.0382117116643     
7000000000.0        0.0090320878642     0.0387390768492     0.978533903863      -0.194955881484     0.978533903863      -0.194955881484     0.0090320878642     0.0387390768492     
7100000000.0        0.00925306794815    0.0392653690379     0.977955061111      -0.197713402021     0.977955061111      -0.197713402021     0.00925306794815    0.0392653690379     
7200000000.0        0.00947707709455    0.0397905756679     0.977368048301      -0.20046961105      0.977368048301      -0.20046961105      0.00947707709455    0.0397905756679     
7300000000.0        0.00970411156493    0.0403146842094     0.976772866831      -0.203224485077     0.976772866831      -0.203224485077     0.00970411156493    0.0403146842094     
7400000000.0        0.00993416757896    0.0408376821645     0.976169518166      -0.205978000572     0.976169518166      -0.205978000572     0.00993416757896    0.0408376821645     
7500000000.0        0.0101672413149     0.0413595570666     0.975558003844      -0.208730133968     0.975558003844      -0.208730133968     0.0101672413149     0.0413595570666     
7600000000.0        0.0104033289098     0.0418802964796     0.974938325466      -0.21148086166      0.974938325466      -0.21148086166      0.0104033289098     0.0418802964796     
7700000000.0        0.0106424264601     0.0423998879971     0.974310484705      -0.214230160013     0.974310484705      -0.214230160013     0.0106424264601     0.0423998879971     
7800000000.0        0.0108845300216     0.0429183192421     0.973674483303      -0.216978005355     0.973674483303      -0.216978005355     0.0108845300216     0.0429183192421     
7900000000.0        0.01112963561       0.043435577866      0.973030323069      -0.219724373982     0.973030323069      -0.219724373982     0.01112963561       0.043435577866      
8000000000.0        0.0113777392009     0.0439516515481     0.972378005882      -0.222469242157     0.972378005882      -0.222469242157     0.0113777392009     0.0439516515481     
8100000000.0        0.0116288367305     0.044466527995      0.971717533689      -0.225212586115     0.971717533689      -0.225212586115     0.0116288367305     0.044466527995      
8200000000.0        0.0118829240952     0.0449801949399     0.971048908509      -0.227954382058     0.971048908509      -0.227954382058     0.0118829240952     0.0449801949399     
8300000000.0        0.0121399971523     0.0454926401421     0.970372132425      -0.230694606157     0.970372132425      -0.230694606157     0.0121399971523     0.0454926401421     
8400000000.0        0.0124000517199     0.0460038513862     0.969687207595      -0.233433234557     0.969687207595      -0.233433234557     0.0124000517199     0.0460038513862     
8500000000.0        0.0126630835775     0.0465138164819     0.968994136242      -0.236170243372     0.968994136242      -0.236170243372     0.0126630835775     0.0465138164819     
8600000000.0        0.0129290884654     0.0470225232632     0.96829292066       -0.238905608689     0.96829292066       -0.238905608689     0.0129290884654     0.0470225232632     
8700000000.0        0.0131980620857     0.0475299595877     0.967583563214      -0.24163930657      0.967583563214      -0.24163930657      0.0131980620857     0.0475299595877     
8800000000.0        0.0134700001017     0.0480361133364     0.966866066336      -0.244371313048     0.966866066336      -0.244371313048     0.0134700001017     0.0480361133364     
8900000000.0        0.0137448981387     0.0485409724131     0.966140432532      -0.247101604132     0.966140432532      -0.247101604132     0.0137448981387     0.0485409724131     
9000000000.0        0.0140227517833     0.0490445247437     0.965406664373      -0.249830155803     0.965406664373      -0.249830155803     0.0140227517833     0.0490445247437     
9100000000.0        0.0143035565843     0.0495467582757     0.964664764504      -0.25255694402      0.964664764504      -0.25255694402      0.0143035565843     0.0495467582757     
9200000000.0        0.0145873080523     0.050047660978      0.96391473564       -0.255281944717     0.96391473564       -0.255281944717     0.0145873080523     0.050047660978      
9300000000.0        0.0148740016599     0.0505472208403     0.963156580564      -0.258005133804     0.963156580564      -0.258005133804     0.0148740016599     0.0505472208403     
9400000000.0        0.0151636328416     0.0510454258724     0.962390302132      -0.260726487169     0.962390302132      -0.260726487169     0.0151636328416     0.0510454258724     
9500000000.0        0.0154561969942     0.0515422641038     0.961615903271      -0.263445980677     0.961615903271      -0.263445980677     0.0154561969942     0.0515422641038     
9600000000.0        0.0157516894765     0.0520377235837     0.960833386977      -0.26616359017      0.960833386977      -0.26616359017      0.0157516894765     0.0520377235837     
9700000000.0        0.0160501056095     0.05253179238       0.960042756319      -0.268879291469     0.960042756319      -0.268879291469     0.0160501056095     0.05253179238       
9800000000.0        0.0163514406763     0.053024458579      0.959244014438      -0.271593060375     0.959244014438      -0.271593060375     0.0163514406763     0.053024458579      
9900000000.0        0.0166556899221     0.0535157102852     0.958437164544      -0.274304872668     0.958437164544      -0.274304872668     0.0166556899221     0.0535157102852     
10000000000.0       0.0169628485545     0.0540055356207     0.95762220992       -0.277014704105     0.95762220992       -0.277014704105     0.0169628485545     0.0540055356207     
