# Hz S RI R 50.00 
100000000.0         0.00402022668201    0.000480436256814   0.995978268955      -0.000916336922284  0.995978268955      -0.000916336922284  0.00402022668201    0.000480436256814   
200000000.0         0.00404789656748    0.000960796805301   0.995949904435      -0.00183259943458   0.995949904435      -0.00183259943458   0.00404789656748    0.000960796805301   
300000000.0         0.0040693232265     0.00144111003733    0.995927592862      -0.0027488167881    0.995927592862      -0.0027488167881    0.0040693232265     0.00144111003733    
400000000.0         0.00408799531243    0.00192138471613    0.995907845575      -0.00366499841498   0.995907845575      -0.00366499841498   0.00408799531243    0.00192138471613    
500000000.0         0.00410525824058    0.00240162503789    0.995889317151      -0.00458114908515   0.995889317151      -0.00458114908515   0.00410525824058    0.00240162503789    
600000000.0         0.00412179907314    0.00288183317597    0.995871320519      -0.005497271484     0.995871320519      -0.005497271484     0.00412179907314    0.00288183317597    
700000000.0         0.0041380241993     0.00336201019452    0.995853449281      -0.006413367143     0.995853449281      -0.006413367143     0.0041380241993     0.00336201019452    
800000000.0         0.00415419724553    0.00384215647213    0.995835439801      -0.00732943687362   0.995835439801      -0.00732943687362   0.00415419724553    0.00384215647213    
900000000.0         0.00417050050976    0.0043222719294     0.995817109769      -0.00824548100136   0.995817109769      -0.00824548100136   0.00417050050976    0.0043222719294     
1000000000.0        0.00418706611584    0.0048023561636     0.995798327052      -0.00916149950504   0.995798327052      -0.00916149950504   0.00418706611584    0.0048023561636     
1100000000.0        0.00420399334003    0.00528240853384    0.99577899236       -0.0100774921058    0.99577899236       -0.0100774921058    0.00420399334003    0.00528240853384    
1200000000.0        0.00422135893992    0.00576242821849    0.995759028924      -0.0109934583268    0.995759028924      -0.0109934583268    0.00422135893992    0.00576242821849    
1300000000.0        0.00423922365605    0.00624241425496    0.995738375991      -0.0119093975352    0.995738375991      -0.0119093975352    0.00423922365605    0.00624241425496    
1400000000.0        0.00425763648716    0.0067223655685     0.995716984548      -0.0128253089722    0.995716984548      -0.0128253089722    0.00425763648716    0.0067223655685     
1500000000.0        0.00427663760487    0.00720228099346    0.995694814411      -0.0137411917765    0.995694814411      -0.0137411917765    0.00427663760487    0.00720228099346    
1600000000.0        0.00429626040157    0.00768215928956    0.995671832171      -0.0146570450008    0.995671832171      -0.0146570450008    0.00429626040157    0.00768215928956    
1700000000.0        0.00431653296698    0.00816199915441    0.995648009724      -0.015572867626     0.995648009724      -0.015572867626     0.00431653296698    0.00816199915441    
1800000000.0        0.00433747917647    0.00864179923338    0.995623323179      -0.0164886585712    0.995623323179      -0.0164886585712    0.00433747917647    0.00864179923338    
1900000000.0        0.004359119509      0.00912155812751    0.995597752042      -0.0174044167028    0.995597752042      -0.0174044167028    0.004359119509      0.00912155812751    
2000000000.0        0.00438147167234    0.00960127439987    0.995571278588      -0.0183201408413    0.995571278588      -0.0183201408413    0.00438147167234    0.00960127439987    
2100000000.0        0.00440455108812    0.0100809465809     0.995543887378      -0.0192358297672    0.995543887378      -0.0192358297672    0.00440455108812    0.0100809465809     
2200000000.0        0.0044283712735     0.0105605731727     0.995515564878      -0.0201514822256    0.995515564878      -0.0201514822256    0.0044283712735     0.0105605731727     
2300000000.0        0.00445294414476    0.0110401526524     0.995486299154      -0.0210670969303    0.995486299154      -0.0210670969303    0.00445294414476    0.0110401526524     
2400000000.0        0.00447828026177    0.0115196834759     0.995456079627      -0.0219826725673    0.995456079627      -0.0219826725673    0.00447828026177    0.0115196834759     
2500000000.0        0.00450438902656    0.0119991640796     0.995424896877      -0.022898207798     0.995424896877      -0.022898207798     0.00450438902656    0.0119991640796     
2600000000.0        0.00453127884627    0.0124785928834     0.995392742478      -0.023813701261     0.995392742478      -0.023813701261     0.00453127884627    0.0124785928834     
2700000000.0        0.00455895726776    0.0129579682919     0.995359608862      -0.024729151575     0.995359608862      -0.024729151575     0.00455895726776    0.0129579682919     
2800000000.0        0.00458743108989    0.0134372886968     0.995325489211      -0.0256445573404    0.995325489211      -0.0256445573404    0.00458743108989    0.0134372886968     
2900000000.0        0.0046167064576     0.0139165524777     0.99529037736       -0.0265599171409    0.99529037736       -0.0265599171409    0.0046167064576     0.0139165524777     
3000000000.0        0.00464678894149    0.0143957580037     0.995254267717      -0.027475229545     0.995254267717      -0.027475229545     0.00464678894149    0.0143957580037     
3100000000.0        0.00467768360527    0.0148749036344     0.995217155197      -0.0283904931076    0.995217155197      -0.0283904931076    0.00467768360527    0.0148749036344     
3200000000.0        0.00470939506351    0.015353987721      0.995179035165      -0.0293057063707    0.995179035165      -0.0293057063707    0.00470939506351    0.015353987721      
3300000000.0        0.00474192753118    0.015833008607      0.995139903382      -0.0302208678648    0.995139903382      -0.0302208678648    0.00474192753118    0.015833008607      
3400000000.0        0.00477528486637    0.0163119646289     0.995099755969      -0.0311359761095    0.995099755969      -0.0311359761095    0.00477528486637    0.0163119646289     
3500000000.0        0.00480947060739    0.0167908541173     0.995058589365      -0.0320510296146    0.995058589365      -0.0320510296146    0.00480947060739    0.0167908541173     
3600000000.0        0.00484448800503    0.0172696753972     0.995016400296      -0.0329660268807    0.995016400296      -0.0329660268807    0.00484448800503    0.0172696753972     
3700000000.0        0.00488034005072    0.0177484267883     0.994973185746      -0.0338809664001    0.994973185746      -0.0338809664001    0.00488034005072    0.0177484267883     
3800000000.0        0.00491702950133    0.0182271066061     0.994928942936      -0.034795846657     0.994928942936      -0.034795846657     0.00491702950133    0.0182271066061     
3900000000.0        0.00495455890094    0.018705713162      0.994883669297      -0.0357106661283    0.994883669297      -0.0357106661283    0.00495455890094    0.018705713162      
4000000000.0        0.00499293060007    0.0191842447637     0.994837362453      -0.0366254232844    0.994837362453      -0.0366254232844    0.00499293060007    0.0191842447637     
4100000000.0        0.00503214677278    0.0196626997157     0.994790020207      -0.037540116589     0.994790020207      -0.037540116589     0.00503214677279    0.0196626997157     
4200000000.0        0.00507220943183    0.0201410763195     0.99474164052       -0.0384547445001    0.99474164052       -0.0384547445001    0.00507220943183    0.0201410763195     
4300000000.0        0.0051131204422     0.0206193728739     0.994692221501      -0.0393693054702    0.994692221501      -0.0393693054702    0.0051131204422     0.0206193728739     
4400000000.0        0.00515488153319    0.0210975876755     0.994641761397      -0.0402837979466    0.994641761397      -0.0402837979466    0.00515488153318    0.0210975876755     
4500000000.0        0.00519749430926    0.0215757190187     0.994590258575      -0.0411982203719    0.994590258575      -0.0411982203719    0.00519749430926    0.0215757190187     
4600000000.0        0.00524096025982    0.0220537651963     0.99453771152       -0.042112571184     0.99453771152       -0.042112571184     0.00524096025982    0.0220537651963     
4700000000.0        0.00528528076793    0.0225317244991     0.994484118822      -0.0430268488168    0.994484118822      -0.0430268488168    0.00528528076793    0.0225317244991     
4800000000.0        0.00533045711829    0.0230095952167     0.99442947917       -0.0439410517002    0.99442947917       -0.0439410517002    0.00533045711829    0.0230095952167     
4900000000.0        0.00537649050438    0.0234873756374     0.994373791343      -0.0448551782604    0.994373791343      -0.0448551782604    0.00537649050438    0.0234873756374     
5000000000.0        0.00542338203499    0.0239650640485     0.994317054204      -0.04576922692      0.994317054204      -0.04576922692      0.00542338203499    0.0239650640485     
5100000000.0        0.0054711327401     0.0244426587363     0.994259266695      -0.0466831960987    0.994259266695      -0.0466831960987    0.0054711327401     0.0244426587363     
5200000000.0        0.00551974357628    0.0249201579863     0.994200427831      -0.0475970842127    0.994200427831      -0.0475970842127    0.00551974357628    0.0249201579863     
5300000000.0        0.00556921543158    0.0253975600835     0.994140536697      -0.0485108896758    0.994140536697      -0.0485108896758    0.00556921543158    0.0253975600835     
5400000000.0        0.00561954913002    0.0258748633124     0.994079592438      -0.0494246108987    0.994079592438      -0.0494246108987    0.00561954913002    0.0258748633124     
5500000000.0        0.00567074543567    0.0263520659569     0.994017594262      -0.05033824629      0.994017594262      -0.05033824629      0.00567074543567    0.0263520659569     
5600000000.0        0.00572280505647    0.0268291663008     0.993954541431      -0.0512517942556    0.993954541431      -0.0512517942556    0.00572280505647    0.0268291663008     
5700000000.0        0.0057757286476     0.0273061626279     0.993890433261      -0.0521652531994    0.993890433261      -0.0521652531994    0.0057757286476     0.0273061626279     
5800000000.0        0.00582951681469    0.0277830532215     0.993825269117      -0.0530786215233    0.993825269117      -0.0530786215233    0.00582951681469    0.0277830532215     
5900000000.0        0.00588417011676    0.0282598363653     0.993759048407      -0.053991897627     0.993759048407      -0.053991897627     0.00588417011676    0.0282598363653     
6000000000.0        0.00593968906888    0.028736510343      0.993691770589      -0.0549050799085    0.993691770589      -0.0549050799085    0.00593968906888    0.028736510343      
6100000000.0        0.00599607414469    0.0292130734384     0.993623435156      -0.0558181667643    0.993623435156      -0.0558181667643    0.00599607414469    0.0292130734384     
6200000000.0        0.00605332577865    0.0296895239355     0.993554041643      -0.0567311565891    0.993554041643      -0.0567311565891    0.00605332577865    0.0296895239355     
6300000000.0        0.00611144436822    0.030165860119      0.993483589622      -0.0576440477762    0.993483589622      -0.0576440477762    0.00611144436822    0.030165860119      
6400000000.0        0.00617043027581    0.0306420802736     0.993412078699      -0.0585568387175    0.993412078699      -0.0585568387175    0.00617043027581    0.0306420802736     
6500000000.0        0.00623028383061    0.0311181826846     0.993339508513      -0.0594695278037    0.993339508513      -0.0594695278037    0.00623028383061    0.0311181826846     
6600000000.0        0.00629100533029    0.0315941656379     0.993265878733      -0.0603821134242    0.993265878733      -0.0603821134242    0.00629100533029    0.0315941656379     
6700000000.0        0.0063525950426     0.0320700274199     0.993191189061      -0.0612945939673    0.993191189061      -0.0612945939673    0.0063525950426     0.0320700274199     
6800000000.0        0.0064150532068     0.0325457663175     0.993115439225      -0.0622069678204    0.993115439225      -0.0622069678204    0.0064150532068     0.0325457663175     
6900000000.0        0.00647838003508    0.0330213806186     0.993038628978      -0.06311923337      0.993038628978      -0.06311923337      0.00647838003508    0.0330213806186     
7000000000.0        0.00654257571383    0.0334968686115     0.992960758103      -0.0640313890014    0.992960758103      -0.0640313890014    0.00654257571383    0.0334968686115     
7100000000.0        0.00660764040481    0.0339722285855     0.992881826404      -0.0649434330995    0.992881826404      -0.0649434330995    0.00660764040481    0.0339722285855     
7200000000.0        0.00667357424628    0.0344474588307     0.99280183371       -0.0658553640484    0.99280183371       -0.0658553640484    0.00667357424628    0.0344474588307     
7300000000.0        0.00674037735407    0.0349225576378     0.99272077987       -0.0667671802312    0.99272077987       -0.0667671802312    0.00674037735407    0.0349225576378     
7400000000.0        0.00680804982253    0.0353975232987     0.992638664757      -0.0676788800308    0.992638664757      -0.0676788800308    0.00680804982253    0.0353975232987     
7500000000.0        0.00687659172546    0.0358723541061     0.992555488262      -0.0685904618295    0.992555488262      -0.0685904618295    0.00687659172546    0.0358723541061     
7600000000.0        0.00694600311699    0.0363470483536     0.992471250298      -0.0695019240089    0.992471250298      -0.0695019240089    0.00694600311699    0.0363470483536     
7700000000.0        0.00701628403233    0.0368216043361     0.992385950795      -0.0704132649505    0.992385950795      -0.0704132649505    0.00701628403233    0.0368216043361     
7800000000.0        0.00708743448861    0.0372960203491     0.9922995897        -0.0713244830351    0.9922995897        -0.0713244830351    0.00708743448861    0.0372960203491     
7900000000.0        0.00715945448553    0.0377702946894     0.992212166978      -0.0722355766435    0.992212166978      -0.0722355766435    0.00715945448553    0.0377702946894     
8000000000.0        0.00723234400607    0.038244425655      0.992123682613      -0.073146544156     0.992123682613      -0.073146544156     0.00723234400607    0.038244425655      
8100000000.0        0.00730610301712    0.0387184115448     0.9920341366        -0.0740573839528    0.9920341366        -0.0740573839528    0.00730610301712    0.0387184115448     
8200000000.0        0.00738073147004    0.039192250659      0.991943528954      -0.0749680944138    0.991943528954      -0.0749680944138    0.00738073147004    0.039192250659      
8300000000.0        0.00745622930129    0.0396659412988     0.991851859702      -0.075878673919     0.991851859702      -0.075878673919     0.00745622930129    0.0396659412988     
8400000000.0        0.00753259643291    0.0401394817668     0.991759128886      -0.0767891208482    0.991759128886      -0.0767891208482    0.00753259643291    0.0401394817668     
8500000000.0        0.00760983277302    0.0406128703667     0.991665336561      -0.0776994335811    0.991665336561      -0.0776994335811    0.00760983277302    0.0406128703667     
8600000000.0        0.00768793821634    0.0410861054035     0.991570482797      -0.0786096104975    0.991570482797      -0.0786096104975    0.00768793821634    0.0410861054035     
8700000000.0        0.00776691264459    0.0415591851835     0.991474567674      -0.0795196499771    0.991474567674      -0.0795196499771    0.00776691264459    0.0415591851835     
8800000000.0        0.00784675592697    0.0420321080141     0.991377591288      -0.0804295503999    0.991377591288      -0.0804295503999    0.00784675592697    0.0420321080141     
8900000000.0        0.00792746792049    0.0425048722043     0.991279553743      -0.0813393101457    0.991279553743      -0.0813393101457    0.00792746792049    0.0425048722043     
9000000000.0        0.00800904847041    0.0429774760641     0.991180455157      -0.0822489275948    0.991180455157      -0.0822489275948    0.00800904847041    0.0429774760641     
9100000000.0        0.00809149741059    0.0434499179052     0.99108029566       -0.0831584011274    0.99108029566       -0.0831584011274    0.00809149741059    0.0434499179052     
9200000000.0        0.00817481456382    0.0439221960404     0.99097907539       -0.0840677291241    0.99097907539       -0.0840677291241    0.00817481456382    0.0439221960404     
9300000000.0        0.00825899974216    0.0443943087839     0.990876794498      -0.0849769099657    0.990876794498      -0.0849769099657    0.00825899974216    0.0443943087839     
9400000000.0        0.00834405274722    0.0448662544515     0.990773453143      -0.0858859420332    0.990773453143      -0.0858859420332    0.00834405274722    0.0448662544515     
9500000000.0        0.00842997337051    0.0453380313602     0.990669051497      -0.086794823708     0.990669051497      -0.086794823708     0.00842997337051    0.0453380313602     
9600000000.0        0.00851676139366    0.0458096378286     0.99056358974       -0.0877035533717    0.99056358974       -0.0877035533717    0.00851676139366    0.0458096378286     
9700000000.0        0.00860441658873    0.0462810721765     0.99045706806       -0.0886121294066    0.99045706806       -0.0886121294066    0.00860441658873    0.0462810721765     
9800000000.0        0.00869293871844    0.0467523327255     0.990349486656      -0.089520550195     0.990349486656      -0.089520550195     0.00869293871844    0.0467523327255     
9900000000.0        0.00878232753641    0.0472234177985     0.990240845737      -0.0904288141199    0.990240845737      -0.0904288141199    0.00878232753641    0.0472234177985     
10000000000.0       0.00887258278741    0.0476943257198     0.990131145517      -0.0913369195646    0.990131145517      -0.0913369195646    0.00887258278741    0.0476943257198     
