# Hz S RI R 50.00 
100000000.0         0.0150278143895     0.00111125489243    0.984970529286      -0.00165680633636   0.984970529286      -0.00165680633636   0.0150278143895     0.00111125489243    
200000000.0         0.0151308849329     0.00222194619094    0.984866503254      -0.00331305048945   0.984866503254      -0.00331305048945   0.0151308849329     0.00222194619094    
300000000.0         0.0152112238523     0.00333228257996    0.984784909656      -0.00496894224624   0.984784909656      -0.00496894224624   0.0152112238523     0.00333228257996    
400000000.0         0.0152817530188     0.00444232716668    0.984712826602      -0.0066245456099    0.984712826602      -0.0066245456099    0.0152817530188     0.00444232716668    
500000000.0         0.0153474597742     0.00555210918109    0.984645266729      -0.0082798906034    0.984645266729      -0.0082798906034    0.0153474597742     0.00555210918109    
600000000.0         0.0154108928394     0.00666164284473    0.984579681296      -0.00993499217454   0.984579681296      -0.00993499217454   0.0154108928394     0.00666164284473    
700000000.0         0.0154735607425     0.00777093414745    0.984514561754      -0.011589856991     0.984514561754      -0.011589856991     0.0154735607425     0.00777093414745    
800000000.0         0.0155364426408     0.00887998399002    0.984448928925      -0.0132444865942    0.984448928925      -0.0132444865942    0.0155364426408     0.00887998399002    
900000000.0         0.0156002159524     0.00998878987165    0.984382105369      -0.0148988790935    0.984382105369      -0.0148988790935    0.0156002159524     0.00998878987165    
1000000000.0        0.0156653718324     0.0110973468887     0.984313599906      -0.0165530301709    0.984313599906      -0.0165530301709    0.0156653718324     0.0110973468887     
1100000000.0        0.0157322794157     0.012205648369      0.984243043379      -0.018206933718     0.984243043379      -0.018206933718     0.0157322794157     0.012205648369      
1200000000.0        0.0158012241278     0.0133136862958     0.984170150335      -0.0198605822636    0.984170150335      -0.0198605822636    0.0158012241278     0.0133136862958     
1300000000.0        0.0158724318075     0.0144214516044     0.984094694909      -0.0215139672724    0.984094694909      -0.0215139672724    0.0158724318075     0.0144214516044     
1400000000.0        0.0159460845741     0.0155289343961     0.984016494956      -0.0231670793601    0.984016494956      -0.0231670793601    0.0159460845741     0.0155289343961     
1500000000.0        0.0160223316493     0.0166361240965     0.983935401224      -0.0248199084541    0.983935401224      -0.0248199084541    0.0160223316493     0.0166361240965     
1600000000.0        0.0161012969623     0.0177430095766     0.983851289754      -0.0264724439151    0.983851289754      -0.0264724439151    0.0161012969623     0.0177430095766     
1700000000.0        0.0161830846362     0.0188495792458     0.983764056393      -0.0281246746318    0.983764056393      -0.0281246746318    0.0161830846362     0.0188495792458     
1800000000.0        0.0162677830317     0.0199558211262     0.983673612749      -0.0297765890951    0.983673612749      -0.0297765890951    0.0162677830317     0.0199558211262     
1900000000.0        0.0163554677889     0.0210617229114     0.983579883147      -0.0314281754586    0.983579883147      -0.0314281754586    0.0163554677889     0.0210617229114     
2000000000.0        0.0164462041513     0.0221672720145     0.983482802311      -0.0330794215867    0.983482802311      -0.0330794215867    0.0164462041513     0.0221672720145     
2100000000.0        0.0165400487713     0.0232724556074     0.983382313553      -0.0347303150948    0.983382313553      -0.0347303150948    0.0165400487713     0.0232724556074     
2200000000.0        0.01663705113       0.0243772606538     0.983278367356      -0.0363808433823    0.983278367356      -0.0363808433823    0.01663705113       0.0243772606538     
2300000000.0        0.0167372546671     0.0254816739363     0.983170920242      -0.0380309936607    0.983170920242      -0.0380309936607    0.0167372546671     0.0254816739363     
2400000000.0        0.0168406976921     0.0265856820796     0.983059933865      -0.039680752977     0.983059933865      -0.039680752977     0.0168406976921     0.0265856820796     
2500000000.0        0.0169474141231     0.0276892715705     0.982945374265      -0.041330108234     0.982945374265      -0.041330108234     0.0169474141231     0.0276892715705     
2600000000.0        0.0170574340948     0.0287924287747     0.982827211269      -0.0429790462074    0.982827211269      -0.0429790462074    0.0170574340948     0.0287924287747     
2700000000.0        0.0171707844599     0.0298951399514     0.982705417982      -0.0446275535608    0.982705417982      -0.0446275535608    0.0171707844599     0.0298951399514     
2800000000.0        0.0172874892081     0.0309973912664     0.982579970371      -0.046275616859     0.982579970371      -0.046275616859     0.0172874892081     0.0309973912664     
2900000000.0        0.017407569817      0.0320991688028     0.982450846916      -0.0479232225791    0.982450846916      -0.0479232225791    0.017407569817      0.0320991688028     
3000000000.0        0.0175310455488     0.0332004585712     0.98231802831       -0.0495703571205    0.98231802831       -0.0495703571205    0.0175310455488     0.0332004585712     
3100000000.0        0.017657933703      0.0343012465183     0.982181497208      -0.0512170068142    0.982181497208      -0.0512170068142    0.017657933703      0.0343012465183     
3200000000.0        0.0177882498313     0.0354015185346     0.982041238011      -0.0528631579305    0.982041238011      -0.0528631579305    0.0177882498313     0.0354015185346     
3300000000.0        0.0179220079229     0.0365012604612     0.981897236682      -0.0545087966859    0.981897236682      -0.0545087966859    0.0179220079229     0.0365012604612     
3400000000.0        0.0180592205649     0.0376004580965     0.981749480586      -0.0561539092498    0.981749480586      -0.0561539092498    0.0180592205649     0.0376004580965     
3500000000.0        0.0181998990801     0.0386990972008     0.98159795835       -0.0577984817501    0.98159795835       -0.0577984817501    0.0181998990801     0.0386990972008     
3600000000.0        0.0183440536484     0.0397971635025     0.981442659744      -0.0594425002782    0.981442659744      -0.0594425002782    0.0183440536484     0.0397971635025     
3700000000.0        0.0184916934123     0.0408946427017     0.981283575574      -0.0610859508939    0.981283575574      -0.0610859508939    0.0184916934123     0.0408946427017     
3800000000.0        0.0186428265693     0.0419915204752     0.981120697589      -0.0627288196298    0.981120697589      -0.0627288196298    0.0186428265693     0.0419915204752     
3900000000.0        0.0187974604539     0.0430877824794     0.980954018401      -0.0643710924949    0.980954018401      -0.0643710924949    0.0187974604539     0.0430877824794     
4000000000.0        0.01895560161       0.0441834143548     0.980783531413      -0.0660127554785    0.980783531413      -0.0660127554785    0.01895560161       0.0441834143548     
4100000000.0        0.0191172558545     0.0452784017282     0.980609230751      -0.0676537945534    0.980609230751      -0.0676537945534    0.0191172558545     0.0452784017282     
4200000000.0        0.0192824283346     0.0463727302167     0.980431111212      -0.0692941956789    0.980431111212      -0.0692941956789    0.0192824283346     0.0463727302167     
4300000000.0        0.0194511235786     0.0474663854294     0.98024916821       -0.0709339448037    0.98024916821       -0.0709339448037    0.0194511235786     0.0474663854294     
4400000000.0        0.0196233455415     0.0485593529708     0.980063397731      -0.0725730278687    0.980063397731      -0.0725730278687    0.0196233455415     0.0485593529708     
4500000000.0        0.0197990976458     0.0496516184426     0.979873796295      -0.0742114308089    0.979873796295      -0.0742114308089    0.0197990976458     0.0496516184426     
4600000000.0        0.0199783828182     0.0507431674463     0.979680360913      -0.0758491395565    0.979680360913      -0.0758491395565    0.0199783828182     0.0507431674463     
4700000000.0        0.0201612035228     0.051833985585      0.979483089061      -0.0774861400422    0.979483089061      -0.0774861400422    0.0201612035228     0.051833985585      
4800000000.0        0.0203475617908     0.0529240584654     0.979281978646      -0.0791224181979    0.979281978646      -0.0791224181979    0.0203475617908     0.0529240584654     
4900000000.0        0.0205374592483     0.0540133716998     0.979077027977      -0.0807579599581    0.979077027977      -0.0807579599581    0.0205374592483     0.0540133716998     
5000000000.0        0.0207308971399     0.0551019109073     0.978868235748      -0.0823927512621    0.978868235748      -0.0823927512621    0.0207308971399     0.0551019109073     
5100000000.0        0.0209278763521     0.0561896617162     0.978655601005      -0.0840267780551    0.978655601005      -0.0840267780551    0.0209278763521     0.0561896617162     
5200000000.0        0.0211283974331     0.0572766097648     0.978439123136      -0.0856600262903    0.978439123136      -0.0856600262903    0.0211283974331     0.0572766097648     
5300000000.0        0.0213324606116     0.0583627407033     0.978218801844      -0.0872924819304    0.978218801844      -0.0872924819304    0.0213324606116     0.0583627407033     
5400000000.0        0.0215400658142     0.0594480401949     0.977994637137      -0.0889241309486    0.977994637137      -0.0889241309486    0.0215400658142     0.0594480401949     
5500000000.0        0.0217512126804     0.0605324939174     0.977766629304      -0.0905549593302    0.977766629304      -0.0905549593302    0.0217512126804     0.0605324939174     
5600000000.0        0.0219659005775     0.061616087564      0.977534778911      -0.0921849530741    0.977534778911      -0.0921849530741    0.0219659005775     0.061616087564      
5700000000.0        0.0221841286137     0.062698806845      0.977299086778      -0.0938140981937    0.977299086778      -0.0938140981937    0.0221841286137     0.062698806845      
5800000000.0        0.0224058956501     0.0637806374886     0.977059553973      -0.0954423807183    0.977059553973      -0.0954423807183    0.0224058956501     0.0637806374886     
5900000000.0        0.0226312003121     0.0648615652421     0.976816181799      -0.0970697866941    0.976816181799      -0.0970697866941    0.0226312003121     0.0648615652421     
6000000000.0        0.0228600409998     0.0659415758728     0.976568971782      -0.0986963021853    0.976568971782      -0.0986963021853    0.0228600409998     0.0659415758728     
6100000000.0        0.0230924158975     0.0670206551693     0.976317925665      -0.100321913275     0.976317925665      -0.100321913275     0.0230924158975     0.0670206551693     
6200000000.0        0.0233283229827     0.0680987889423     0.976063045396      -0.101946606067     0.976063045396      -0.101946606067     0.0233283229827     0.0680987889423     
6300000000.0        0.0235677600343     0.0691759630254     0.975804333119      -0.103570366686     0.975804333119      -0.103570366686     0.0235677600343     0.0691759630254     
6400000000.0        0.0238107246403     0.0702521632761     0.97554179117       -0.105193181278     0.97554179117       -0.105193181278     0.0238107246403     0.0702521632761     
6500000000.0        0.024057214205      0.0713273755768     0.975275422069      -0.106815036012     0.975275422069      -0.106815036012     0.024057214205      0.0713273755768     
6600000000.0        0.0243072259558     0.0724015858354     0.975005228508      -0.108435917082     0.975005228508      -0.108435917082     0.0243072259558     0.0724015858354     
6700000000.0        0.0245607569492     0.0734747799863     0.974731213354      -0.110055810705     0.974731213354      -0.110055810705     0.0245607569492     0.0734747799863     
6800000000.0        0.0248178040766     0.0745469439911     0.974453379634      -0.111674703124     0.974453379634      -0.111674703124     0.0248178040766     0.0745469439911     
6900000000.0        0.0250783640701     0.0756180638393     0.974171730535      -0.113292580608     0.974171730535      -0.113292580608     0.0250783640701     0.0756180638393     
7000000000.0        0.0253424335072     0.0766881255492     0.9738862694        -0.114909429454     0.9738862694        -0.114909429454     0.0253424335072     0.0766881255492     
7100000000.0        0.0256100088158     0.0777571151684     0.973596999717      -0.116525235985     0.973596999717      -0.116525235985     0.0256100088158     0.0777571151684     
7200000000.0        0.0258810862787     0.0788250187746     0.97330392512       -0.118139986554     0.97330392512       -0.118139986554     0.0258810862787     0.0788250187746     
7300000000.0        0.0261556620378     0.0798918224766     0.973007049384      -0.119753667543     0.973007049384      -0.119753667543     0.0261556620378     0.0798918224766     
7400000000.0        0.026433732098      0.0809575124142     0.972706376419      -0.121366265361     0.972706376419      -0.121366265361     0.026433732098      0.0809575124142     
7500000000.0        0.0267152923311     0.0820220747597     0.972401910266      -0.122977766452     0.972401910266      -0.122977766452     0.0267152923311     0.0820220747597     
7600000000.0        0.0270003384793     0.0830854957179     0.972093655098      -0.124588157289     0.972093655098      -0.124588157289     0.0270003384793     0.0830854957179     
7700000000.0        0.0272888661585     0.084147761527      0.971781615212      -0.126197424375     0.971781615212      -0.126197424375     0.0272888661585     0.084147761527      
7800000000.0        0.0275808708613     0.0852088584591     0.971465795025      -0.127805554247     0.971465795025      -0.127805554247     0.0275808708613     0.0852088584591     
7900000000.0        0.0278763479606     0.0862687728209     0.971146199077      -0.129412533477     0.971146199077      -0.129412533477     0.0278763479606     0.0862687728209     
8000000000.0        0.0281752927116     0.0873274909542     0.970822832023      -0.131018348668     0.970822832023      -0.131018348668     0.0281752927116     0.0873274909542     
8100000000.0        0.0284777002553     0.0883849992365     0.97049569863       -0.132622986457     0.97049569863       -0.132622986457     0.0284777002553     0.0883849992365     
8200000000.0        0.0287835656203     0.0894412840813     0.970164803779      -0.134226433518     0.970164803779      -0.134226433518     0.0287835656203     0.0894412840813     
8300000000.0        0.0290928837261     0.0904963319392     0.969830152458      -0.135828676557     0.969830152458      -0.135828676557     0.0290928837261     0.0904963319392     
8400000000.0        0.0294056493845     0.0915501292977     0.969491749762      -0.13742970232      0.969491749762      -0.13742970232      0.0294056493845     0.0915501292977     
8500000000.0        0.0297218573025     0.0926026626824     0.969149600891      -0.139029497586     0.969149600891      -0.139029497586     0.0297218573025     0.0926026626824     
8600000000.0        0.0300415020841     0.093653918657      0.968803711145      -0.140628049172     0.968803711145      -0.140628049172     0.0300415020841     0.093653918657      
8700000000.0        0.0303645782325     0.0947038838242     0.968454085926      -0.142225343933     0.968454085926      -0.142225343933     0.0303645782325     0.0947038838242     
8800000000.0        0.0306910801517     0.0957525448259     0.968100730734      -0.143821368762     0.968100730734      -0.143821368762     0.0306910801517     0.0957525448259     
8900000000.0        0.0310210021488     0.0967998883436     0.967743651165      -0.145416110589     0.967743651165      -0.145416110589     0.0310210021488     0.0967998883436     
9000000000.0        0.0313543384352     0.0978459010994     0.967382852908      -0.147009556385     0.967382852908      -0.147009556385     0.0313543384352     0.0978459010994     
9100000000.0        0.0316910831289     0.0988905698559     0.967018341749      -0.148601693158     0.967018341749      -0.148601693158     0.0316910831289     0.0988905698559     
9200000000.0        0.0320312302557     0.0999338814167     0.966650123561      -0.150192507958     0.966650123561      -0.150192507958     0.0320312302557     0.0999338814167     
9300000000.0        0.0323747737509     0.100975822627      0.966278204309      -0.151781987875     0.966278204309      -0.151781987875     0.0323747737509     0.100975822627      
9400000000.0        0.0327217074609     0.102016380375      0.965902590046      -0.153370120039     0.965902590046      -0.153370120039     0.0327217074609     0.102016380375      
9500000000.0        0.0330720251443     0.103055541591      0.965523286911      -0.154956891621     0.965523286911      -0.154956891621     0.0330720251443     0.103055541591      
9600000000.0        0.0334257204738     0.104093293246      0.965140301129      -0.156542289836     0.965140301129      -0.156542289836     0.0334257204738     0.104093293246      
9700000000.0        0.033782787037      0.105129622358      0.96475363901       -0.158126301937     0.96475363901       -0.158126301937     0.033782787037      0.105129622358      
9800000000.0        0.0341432183384     0.106164515986      0.964363306944      -0.159708915225     0.964363306944      -0.159708915225     0.0341432183384     0.106164515986      
9900000000.0        0.0345070077997     0.107197961234      0.963969311405      -0.161290117038     0.963969311405      -0.161290117038     0.0345070077997     0.107197961234      
10000000000.0       0.034874148762      0.108229945251      0.963571658946      -0.162869894763     0.963571658946      -0.162869894763     0.034874148762      0.108229945251      
