# Hz S RI R 50.00 
100000000.0         0.00311594977306    0.000865603981437   0.996881881901      -0.00172786168163   0.996881881901      -0.00172786168163   0.00311594977306    0.000865603981437   
200000000.0         0.00314074094262    0.00173109033827    0.996855178114      -0.00345560971115   0.996855178114      -0.00345560971115   0.00314074094262    0.00173109033827    
300000000.0         0.00316303471481    0.00259649086879    0.9968302274        -0.00518327863934   0.9968302274        -0.00518327863934   0.00316303471481    0.00259649086879    
400000000.0         0.00318553092656    0.00346180915454    0.996804329881      -0.00691087417473   0.996804329881      -0.00691087417473   0.00318553092656    0.00346180915454    
500000000.0         0.003209269539      0.00432704221987    0.996776445548      -0.00863839515431   0.996776445548      -0.00863839515431   0.003209269539      0.00432704221987    
600000000.0         0.00323478093684    0.00519218418954    0.996746043965      -0.0103658373104    0.996746043965      -0.0103658373104    0.00323478093684    0.00519218418954    
700000000.0         0.00326237836829    0.0060572276019     0.996712811826      -0.0120931946396    0.996712811826      -0.0120931946396    0.00326237836829    0.0060572276019     
800000000.0         0.00329226468231    0.006922164018      0.996676546217      -0.0138204600447    0.996676546217      -0.0138204600447    0.00329226468231    0.006922164018      
900000000.0         0.00332457985548    0.00778698434817    0.996637107094      -0.015547625684     0.996637107094      -0.015547625684     0.00332457985548    0.00778698434817    
1000000000.0        0.00335942508326    0.00865167904566    0.996594393187      -0.0172746831796    0.996594393187      -0.0172746831796    0.00335942508326    0.00865167904566    
1100000000.0        0.00339687617231    0.00951623822929    0.996548328612      -0.0190016237519    0.996548328612      -0.0190016237519    0.00339687617231    0.00951623822929    
1200000000.0        0.0034369915208     0.0103806517657     0.996498854888      -0.0207284383103    0.996498854888      -0.0207284383103    0.0034369915208     0.0103806517657     
1300000000.0        0.00347981713925    0.0112449093265     0.996445925915      -0.0224551175174    0.996445925915      -0.0224551175174    0.00347981713925    0.0112449093265     
1400000000.0        0.0035253899507     0.0121090004302     0.996389504679      -0.024181651836     0.996389504679      -0.024181651836     0.0035253899507     0.0121090004302     
1500000000.0        0.00357374003959    0.0129729144721     0.996329560999      -0.0259080315641    0.996329560999      -0.0259080315641    0.00357374003959    0.0129729144721     
1600000000.0        0.00362489223111    0.0138366407484     0.99626606995       -0.0276342468623    0.99626606995       -0.0276342468623    0.00362489223111    0.0138366407484     
1700000000.0        0.00367886722943    0.0147001684741     0.996199010722      -0.0293602877749    0.996199010722      -0.0293602877749    0.00367886722943    0.0147001684741     
1800000000.0        0.00373568245625    0.0155634867972     0.996128365787      -0.031086144247     0.996128365787      -0.031086144247     0.00373568245625    0.0155634867972     
1900000000.0        0.00379535268074    0.0164265848101     0.996054120262      -0.0328118061382    0.996054120262      -0.0328118061382    0.00379535268074    0.0164265848101     
2000000000.0        0.00385789050084    0.0172894515593     0.995976261433      -0.0345372632344    0.995976261433      -0.0345372632344    0.00385789050084    0.0172894515593     
2100000000.0        0.00392330671653    0.0181520760528     0.995894778381      -0.0362625052564    0.995894778381      -0.0362625052564    0.00392330671653    0.0181520760528     
2200000000.0        0.00399161062324    0.0190144472662     0.995809661686      -0.0379875218689    0.995809661686      -0.0379875218689    0.00399161062324    0.0190144472662     
2300000000.0        0.00406281024538    0.0198765541488     0.995720903197      -0.0397123026866    0.995720903197      -0.0397123026866    0.00406281024538    0.0198765541488     
2400000000.0        0.00413691252409    0.0207383856276     0.995628495843      -0.0414368372801    0.995628495843      -0.0414368372801    0.00413691252409    0.0207383856276     
2500000000.0        0.00421392346981    0.0215999306111     0.99553243348       -0.0431611151812    0.99553243348       -0.0431611151812    0.00421392346981    0.0215999306111     
2600000000.0        0.00429384828734    0.0224611779933     0.995432710764      -0.0448851258869    0.995432710764      -0.0448851258869    0.00429384828734    0.0224611779933     
2700000000.0        0.00437669147917    0.0233221166557     0.995329323054      -0.0466088588638    0.995329323054      -0.0466088588638    0.00437669147917    0.0233221166557     
2800000000.0        0.00446245693162    0.0241827354706     0.995222266319      -0.048332303551     0.995222266319      -0.048332303551     0.00446245693162    0.0241827354706     
2900000000.0        0.00455114798694    0.0250430233032     0.995111537069      -0.0500554493632    0.995111537069      -0.0500554493632    0.00455114798694    0.0250430233032     
3000000000.0        0.00464276750434    0.0259029690132     0.994997132296      -0.0517782856938    0.994997132296      -0.0517782856938    0.00464276750434    0.0259029690132     
3100000000.0        0.00473731791168    0.026762561457      0.994879049418      -0.0535008019168    0.994879049418      -0.0535008019168    0.00473731791168    0.026762561457      
3200000000.0        0.00483480124969    0.027621789489      0.994757286238      -0.0552229873895    0.994757286238      -0.0552229873895    0.00483480124969    0.027621789489      
3300000000.0        0.00493521920991    0.0284806419632     0.994631840906      -0.056944831454     0.994631840906      -0.056944831454     0.00493521920991    0.0284806419632     
3400000000.0        0.00503857316741    0.0293391077344     0.994502711883      -0.0586663234396    0.994502711883      -0.0586663234396    0.00503857316741    0.0293391077344     
3500000000.0        0.0051448642092     0.0301971756595     0.994369897919      -0.060387452664     0.994369897919      -0.060387452664     0.0051448642092     0.0301971756595     
3600000000.0        0.00525409315886    0.0310548345983     0.99423339802       -0.0621082084349    0.99423339802       -0.0621082084349    0.00525409315886    0.0310548345983     
3700000000.0        0.00536626059819    0.0319120734148     0.994093211434      -0.0638285800517    0.994093211434      -0.0638285800517    0.00536626059819    0.0319120734148     
3800000000.0        0.0054813668861     0.0327688809779     0.993949337629      -0.0655485568066    0.993949337629      -0.0655485568066    0.0054813668861     0.0327688809779     
3900000000.0        0.00559941217531    0.0336252461623     0.993801776275      -0.0672681279857    0.993801776275      -0.0672681279857    0.00559941217531    0.0336252461623     
4000000000.0        0.00572039642708    0.0344811578493     0.993650527232      -0.0689872828705    0.993650527232      -0.0689872828705    0.00572039642708    0.0344811578493     
4100000000.0        0.00584431942426    0.0353366049274     0.993495590536      -0.0707060107387    0.993495590536      -0.0707060107387    0.00584431942426    0.0353366049274     
4200000000.0        0.00597118078294    0.0361915762932     0.993336966384      -0.0724243008652    0.993336966384      -0.0724243008652    0.00597118078294    0.0361915762932     
4300000000.0        0.00610097996278    0.0370460608518     0.993174655131      -0.0741421425232    0.993174655131      -0.0741421425232    0.00610097996278    0.0370460608518     
4400000000.0        0.00623371627631    0.0379000475177     0.993008657274      -0.075859524985     0.993008657274      -0.075859524985     0.00623371627631    0.0379000475177     
4500000000.0        0.00636938889722    0.0387535252149     0.992838973447      -0.0775764375228    0.992838973447      -0.0775764375228    0.00636938889722    0.0387535252149     
4600000000.0        0.00650799686784    0.0396064828779     0.992665604412      -0.0792928694095    0.992665604412      -0.0792928694095    0.00650799686784    0.0396064828779     
4700000000.0        0.00664953910592    0.040458909452      0.992488551055      -0.0810088099196    0.992488551055      -0.0810088099196    0.00664953910592    0.040458909452      
4800000000.0        0.00679401441067    0.0413107938937     0.992307814376      -0.0827242483298    0.992307814376      -0.0827242483298    0.00679401441067    0.0413107938937     
4900000000.0        0.00694142146833    0.0421621251713     0.992123395486      -0.0844391739197    0.992123395486      -0.0844391739197    0.00694142146833    0.0421621251713     
5000000000.0        0.00709175885716    0.0430128922654     0.991935295603      -0.0861535759723    0.991935295603      -0.0861535759723    0.00709175885716    0.0430128922654     
5100000000.0        0.00724502505197    0.0438630841691     0.991743516044      -0.0878674437752    0.991743516044      -0.0878674437752    0.00724502505197    0.0438630841691     
5200000000.0        0.00740121842835    0.0447126898887     0.991548058224      -0.0895807666205    0.991548058224      -0.0895807666205    0.00740121842835    0.0447126898887     
5300000000.0        0.00756033726641    0.0455616984438     0.991348923652      -0.0912935338058    0.991348923652      -0.0912935338058    0.00756033726641    0.0455616984438     
5400000000.0        0.00772237975429    0.0464100988678     0.991146113923      -0.0930057346346    0.991146113923      -0.0930057346346    0.00772237975429    0.0464100988678     
5500000000.0        0.00788734399133    0.0472578802082     0.990939630723      -0.094717358417     0.990939630723      -0.094717358417     0.00788734399133    0.0472578802082     
5600000000.0        0.00805522799101    0.0481050315274     0.990729475819      -0.0964283944701    0.990729475819      -0.0964283944701    0.00805522799101    0.0481050315274     
5700000000.0        0.00822602968368    0.0489515419023     0.99051565106       -0.0981388321184    0.99051565106       -0.0981388321184    0.00822602968368    0.0489515419023     
5800000000.0        0.008399746919      0.0497974004251     0.990298158372      -0.0998486606947    0.990298158372      -0.0998486606947    0.008399746919      0.0497974004251     
5900000000.0        0.00857637746828    0.0506425962036     0.990076999758      -0.10155786954      0.990076999758      -0.10155786954      0.00857637746828    0.0506425962036     
6000000000.0        0.00875591902659    0.0514871183615     0.989852177296      -0.103266448004     0.989852177296      -0.103266448004     0.00875591902659    0.0514871183615     
6100000000.0        0.00893836921474    0.0523309560385     0.989623693134      -0.104974385448     0.989623693134      -0.104974385448     0.00893836921474    0.0523309560385     
6200000000.0        0.00912372558112    0.0531740983911     0.989391549492      -0.106681671239     0.989391549492      -0.106681671239     0.00912372558112    0.0531740983911     
6300000000.0        0.00931198560341    0.0540165345921     0.989155748658      -0.108388294758     0.989155748658      -0.108388294758     0.00931198560341    0.0540165345921     
6400000000.0        0.00950314669014    0.0548582538318     0.988916292987      -0.110094245395     0.988916292987      -0.110094245395     0.00950314669014    0.0548582538318     
6500000000.0        0.00969720618222    0.0556992453175     0.988673184899      -0.111799512551     0.988673184899      -0.111799512551     0.00969720618222    0.0556992453175     
6600000000.0        0.00989416135429    0.0565394982744     0.988426426879      -0.11350408564      0.988426426879      -0.11350408564      0.00989416135429    0.0565394982744     
6700000000.0        0.010094009416      0.0573790019455     0.988176021475      -0.115207954086     0.988176021475      -0.115207954086     0.010094009416      0.0573790019455     
6800000000.0        0.0102967475134     0.0582177455918     0.987921971295      -0.116911107327     0.987921971295      -0.116911107327     0.0102967475134     0.0582177455918     
6900000000.0        0.0105023727296     0.059055718493      0.98766427901       -0.118613534812     0.98766427901       -0.118613534812     0.0105023727296     0.059055718493      
7000000000.0        0.0107108820867     0.0598929099474     0.987402947349      -0.120315226004     0.987402947349      -0.120315226004     0.0107108820867     0.0598929099474     
7100000000.0        0.0109222725458     0.0607293092722     0.9871379791        -0.122016170379     0.9871379791        -0.122016170379     0.0109222725458     0.0607293092722     
7200000000.0        0.0111365410086     0.0615649058039     0.986869377107      -0.123716357427     0.986869377107      -0.123716357427     0.0111365410086     0.0615649058039     
7300000000.0        0.0113536843184     0.0623996888983     0.986597144274      -0.125415776652     0.986597144274      -0.125415776652     0.0113536843184     0.0623996888983     
7400000000.0        0.0115736992603     0.0632336479311     0.986321283557      -0.127114417571     0.986321283557      -0.127114417571     0.0115736992603     0.0632336479311     
7500000000.0        0.0117965825626     0.0640667722978     0.986041797971      -0.128812269719     0.986041797971      -0.128812269719     0.0117965825626     0.0640667722978     
7600000000.0        0.0120223308974     0.0648990514142     0.985758690581      -0.130509322642     0.985758690581      -0.130509322642     0.0120223308974     0.0648990514141     
7700000000.0        0.0122509408812     0.0657304747163     0.98547196451       -0.132205565905     0.98547196451       -0.132205565905     0.0122509408812     0.0657304747163     
7800000000.0        0.0124824090757     0.0665610316612     0.98518162293       -0.133900989087     0.98518162293       -0.133900989087     0.0124824090757     0.0665610316612     
7900000000.0        0.0127167319886     0.0673907117264     0.984887669068      -0.135595581782     0.984887669068      -0.135595581782     0.0127167319886     0.0673907117264     
8000000000.0        0.012953906074      0.0682195044108     0.984590106202      -0.137289333603     0.984590106202      -0.137289333603     0.012953906074      0.0682195044108     
8100000000.0        0.0131939277328     0.0690473992347     0.984288937659      -0.138982234176     0.984288937659      -0.138982234176     0.0131939277328     0.0690473992347     
8200000000.0        0.0134367933141     0.0698743857398     0.98398416682       -0.140674273147     0.98398416682       -0.140674273147     0.0134367933141     0.0698743857398     
8300000000.0        0.0136824991148     0.0707004534896     0.983675797114      -0.142365440178     0.983675797114      -0.142365440178     0.0136824991148     0.0707004534896     
8400000000.0        0.0139310413806     0.0715255920698     0.983363832018      -0.144055724949     0.983363832018      -0.144055724949     0.0139310413806     0.0715255920698     
8500000000.0        0.0141824163065     0.0723497910881     0.983048275061      -0.145745117156     0.983048275061      -0.145745117156     0.0141824163065     0.0723497910881     
8600000000.0        0.0144366200373     0.0731730401749     0.982729129818      -0.147433606516     0.982729129818      -0.147433606516     0.0144366200373     0.0731730401749     
8700000000.0        0.014693648668      0.0739953289831     0.982406399914      -0.149121182762     0.982406399914      -0.149121182762     0.014693648668      0.0739953289831     
8800000000.0        0.014953498244      0.0748166471886     0.98208008902       -0.150807835647     0.98208008902       -0.150807835647     0.014953498244      0.0748166471886     
8900000000.0        0.0152161647622     0.0756369844901     0.981750200854      -0.15249355494      0.981750200854      -0.15249355494      0.0152161647622     0.0756369844901     
9000000000.0        0.0154816441707     0.07645633061       0.981416739183      -0.154178330434     0.981416739183      -0.154178330434     0.0154816441707     0.07645633061       
9100000000.0        0.0157499323696     0.0772746752939     0.981079707817      -0.155862151938     0.981079707817      -0.155862151938     0.0157499323696     0.0772746752939     
9200000000.0        0.0160210252114     0.0780920083114     0.980739110615      -0.15754500928      0.980739110615      -0.15754500928      0.0160210252114     0.0780920083114     
9300000000.0        0.0162949185014     0.0789083194556     0.98039495148       -0.159226892311     0.98039495148       -0.159226892311     0.0162949185014     0.0789083194556     
9400000000.0        0.0165716079977     0.0797235985442     0.98004723436       -0.1609077909       0.98004723436       -0.1609077909       0.0165716079977     0.0797235985442     
9500000000.0        0.016851089412      0.0805378354188     0.979695963248      -0.162587694936     0.979695963248      -0.162587694936     0.016851089412      0.0805378354188     
9600000000.0        0.0171333584099     0.0813510199458     0.979341142183      -0.164266594331     0.979341142183      -0.164266594331     0.0171333584099     0.0813510199458     
9700000000.0        0.017418410611      0.0821631420161     0.978982775246      -0.165944479017     0.978982775246      -0.165944479017     0.017418410611      0.0821631420161     
9800000000.0        0.0177062415895     0.0829741915457     0.978620866563      -0.167621338944     0.978620866563      -0.167621338944     0.0177062415895     0.0829741915457     
9900000000.0        0.0179968468743     0.0837841584755     0.978255420303      -0.169297164089     0.978255420303      -0.169297164089     0.0179968468743     0.0837841584755     
10000000000.0       0.0182902219495     0.0845930327719     0.977886440678      -0.170971944447     0.977886440678      -0.170971944447     0.0182902219495     0.0845930327719     
