# Hz S RI R 50.00 
100000000.0         0.000102198825598   -0.01155967104      0.999564573021      -0.013253095391     0.999564573021      -0.013253095391     0.000102198825598   -0.01155967104      
200000000.0         -0.000367602501114  -0.0231082425529    0.999086825107      -0.0264951988302    0.999086825107      -0.0264951988302    -0.000367602501114  -0.0231082425529    
300000000.0         -0.00114333005114   -0.0346348890051    0.998301204461      -0.039715564877     0.998301204461      -0.039715564877     -0.00114333005114   -0.0346348890051    
400000000.0         -0.0022234805722    -0.0461287588895    0.997208750345      -0.0529034082607    0.997208750345      -0.0529034082607    -0.0022234805722    -0.0461287588895    
500000000.0         -0.00360618235736   -0.0575790457956    0.995811155027      -0.0660479827151    0.995811155027      -0.0660479827151    -0.00360618235736   -0.0575790457956    
600000000.0         -0.00528910030873   -0.0689750332177    0.99411066105       -0.0791386280706    0.99411066105       -0.0791386280706    -0.00528910030873   -0.0689750332177    
700000000.0         -0.00726941788339   -0.0803061318255    0.992110029127      -0.0921648086287    0.992110029127      -0.0921648086287    -0.00726941788339   -0.0803061318255    
800000000.0         -0.00954383761648   -0.0915619130666    0.989812519353      -0.105116147406     0.989812519353      -0.105116147406     -0.00954383761648   -0.0915619130666    
900000000.0         -0.012108589077     -0.102732140352     0.987221875127      -0.117982457735     0.987221875127      -0.117982457735     -0.012108589077     -0.102732140352     
1000000000.0        -0.0149594409842    -0.113806798293     0.984342306935      -0.130753772791     0.984342306935      -0.130753772791     -0.0149594409842    -0.113806798293     
1100000000.0        -0.018091716217     -0.124776120147     0.981178475059      -0.14342037325      0.981178475059      -0.14342037325      -0.018091716217     -0.124776120147     
1200000000.0        -0.0215003091007    -0.135630613522     0.977735470938      -0.155972813152     0.977735470938      -0.155972813152     -0.0215003091007    -0.135630613522     
1300000000.0        -0.0251797045956    -0.146361084296     0.974018797136      -0.168401943951     0.974018797136      -0.168401943951     -0.0251797045956    -0.146361084296     
1400000000.0        -0.029123999118     -0.15695865874      0.97003434596       -0.180698936735     0.97003434596       -0.180698936735     -0.029123999118     -0.15695865874      
1500000000.0        -0.0333269227668    -0.167414803751     0.965788376858      -0.192855302552     0.965788376858      -0.192855302552     -0.0333269227668    -0.167414803751     
1600000000.0        -0.0377818627528    -0.17772134519      0.961287492725      -0.204862910806     0.961287492725      -0.204862910806     -0.0377818627528    -0.17772134519      
1700000000.0        -0.0424818878376    -0.187870484242     0.956538615276      -0.216714005688     0.956538615276      -0.216714005688     -0.0424818878376    -0.187870484242     
1800000000.0        -0.0474197735956    -0.197854811799     0.951548959643      -0.228401220604     0.951548959643      -0.228401220604     -0.0474197735956    -0.197854811799     
1900000000.0        -0.0525880283174    -0.207667320831     0.946326008369      -0.239917590594     0.946326008369      -0.239917590594     -0.0525880283174    -0.207667320831     
2000000000.0        -0.0579789193777    -0.217301416741     0.940877484961      -0.251256562724     0.940877484961      -0.251256562724     -0.0579789193777    -0.217301416741     
2100000000.0        -0.0635844998943    -0.226750925718     0.935211327168      -0.262412004476     0.935211327168      -0.262412004476     -0.0635844998943    -0.226750925718     
2200000000.0        -0.0693966355119    -0.236010101112     0.929335660151      -0.273378210153     0.929335660151      -0.273378210153     -0.0693966355119    -0.236010101112     
2300000000.0        -0.0754070311507    -0.245073627855     0.923258769696      -0.28414990533      0.923258769696      -0.28414990533      -0.0754070311507    -0.245073627855     
2400000000.0        -0.0816072575652    -0.253936624992     0.916989075625      -0.294722249409     0.916989075625      -0.294722249409     -0.0816072575652    -0.253936624992     
2500000000.0        -0.0879887775708    -0.262594646369     0.910535105544      -0.30509083633      0.910535105544      -0.30509083633      -0.0879887775708    -0.262594646369     
2600000000.0        -0.0945429718021    -0.271043679555     0.903905469063      -0.315251693517     0.903905469063      -0.315251693517     -0.0945429718021    -0.271043679555     
2700000000.0        -0.101261163877     -0.279280143079     0.897108832618      -0.325201279131     0.897108832618      -0.325201279131     -0.101261163877     -0.279280143079     
2800000000.0        -0.108134644852     -0.287300882066     0.890153894999      -0.334936477725     0.890153894999      -0.334936477725     -0.108134644852     -0.287300882066     
2900000000.0        -0.115154696871     -0.295103162365     0.883049363693      -0.344454594394     0.883049363693      -0.344454594394     -0.115154696871     -0.295103162365     
3000000000.0        -0.122312615901     -0.302684663285     0.875803932131      -0.353753347521     0.875803932131      -0.353753347521     -0.122312615901     -0.302684663285     
3100000000.0        -0.12959973349      -0.310043469026     0.868426257928      -0.362830860224     0.868426257928      -0.362830860224     -0.12959973349      -0.310043469026     
3200000000.0        -0.137007437471     -0.317178058927     0.860924942168      -0.371685650619     0.860924942168      -0.371685650619     -0.137007437471     -0.317178058927     
3300000000.0        -0.144527191551     -0.324087296636     0.853308509811      -0.380316621005     0.853308509811      -0.380316621005     -0.144527191551     -0.324087296636     
3400000000.0        -0.152150553742     -0.330770418323     0.845585391249      -0.388723046082     0.845585391249      -0.388723046082     -0.152150553742     -0.330770418323     
3500000000.0        -0.159869193604     -0.337227020032     0.83776390507       -0.396904560325     0.83776390507       -0.396904560325     -0.159869193604     -0.337227020032     
3600000000.0        -0.167674908258     -0.343457044305     0.829852242026      -0.404861144612     0.829852242026      -0.404861144612     -0.167674908258     -0.343457044305     
3700000000.0        -0.175559637175     -0.349460766173     0.82185845025       -0.412593112227     0.82185845025       -0.412593112227     -0.175559637175     -0.349460766173     
3800000000.0        -0.183515475716     -0.355238778619     0.813790421704      -0.420101094335     0.813790421704      -0.420101094335     -0.183515475716     -0.355238778619     
3900000000.0        -0.191534687445     -0.360791977636     0.80565587987       -0.427386025047     0.80565587987       -0.427386025047     -0.191534687445     -0.360791977636     
4000000000.0        -0.199609715202     -0.36612154695      0.797462368668      -0.434449126155     0.797462368668      -0.434449126155     -0.199609715202     -0.36612154695      
4100000000.0        -0.207733190978     -0.371228942528     0.789217242576      -0.441291891645     0.789217242576      -0.441291891645     -0.207733190978     -0.371228942528     
4200000000.0        -0.215897944603     -0.376115876952     0.780927657945      -0.447916072084     0.780927657945      -0.447916072084     -0.215897944603     -0.376115876952     
4300000000.0        -0.224097011279     -0.380784303736     0.772600565457      -0.454323658944     0.772600565457      -0.454323658944     -0.224097011279     -0.380784303736     
4400000000.0        -0.232323638003     -0.385236401679     0.7642427037        -0.460516868957     0.7642427037        -0.460516868957     -0.232323638003     -0.385236401679     
4500000000.0        -0.240571288907     -0.389474559312     0.755860593826      -0.466498128581     0.755860593826      -0.466498128581     -0.240571288907     -0.389474559312     
4600000000.0        -0.248833649573     -0.393501359518     0.747460535235      -0.472270058616     0.747460535235      -0.472270058616     -0.248833649573     -0.393501359518     
4700000000.0        -0.25710463036      -0.39731956438      0.73904860224       -0.477835459065     0.73904860224       -0.477835459065     -0.25710463036      -0.39731956438      
4800000000.0        -0.265378368796     -0.40093210031      0.730630641674      -0.483197294271     0.730630641674      -0.483197294271     -0.265378368796     -0.40093210031      
4900000000.0        -0.273649231097     -0.404342043514     0.722212271369      -0.488358678385     0.722212271369      -0.488358678385     -0.273649231097     -0.404342043514     
5000000000.0        -0.281911812847     -0.40755260583      0.713798879474      -0.493322861211     0.713798879474      -0.493322861211     -0.281911812847     -0.40755260583      
5100000000.0        -0.290160938908     -0.410567120981     0.705395624536      -0.498093214468     0.705395624536      -0.498093214468     -0.290160938908     -0.410567120981     
5200000000.0        -0.298391662612     -0.413389031272     0.697007436313      -0.502673218489     0.697007436313      -0.502673218489     -0.298391662612     -0.413389031272     
5300000000.0        -0.306599264286     -0.41602187476      0.688639017242      -0.507066449403     0.688639017242      -0.507066449403     -0.306599264286     -0.41602187476      
5400000000.0        -0.314779249159     -0.418469272918     0.680294844524      -0.511276566799     0.680294844524      -0.511276566799     -0.314779249159     -0.418469272918     
5500000000.0        -0.322927344721     -0.420734918812     0.671979172773      -0.515307301908     0.671979172773      -0.515307301908     -0.322927344721     -0.420734918812     
5600000000.0        -0.331039497566     -0.4228225658       0.66369603716       -0.519162446316     0.66369603716       -0.519162446316     -0.331039497566     -0.4228225658       
5700000000.0        -0.339111869778     -0.424736016766     0.655449257026      -0.522845841193     0.655449257026      -0.522845841193     -0.339111869778     -0.424736016766     
5800000000.0        -0.347140834916     -0.426479113896     0.647242439898      -0.526361367083     0.647242439898      -0.526361367083     -0.347140834916     -0.426479113896     
5900000000.0        -0.355122973627     -0.428055728991     0.639078985866      -0.529712934214     0.639078985866      -0.529712934214     -0.355122973627     -0.428055728991     
6000000000.0        -0.363055068949     -0.429469754324     0.630962092283      -0.532904473367     0.630962092283      -0.532904473367     -0.363055068949     -0.429469754324     
6100000000.0        -0.370934101337     -0.430725094028     0.62289475873       -0.535939927265     0.62289475873       -0.535939927265     -0.370934101337     -0.430725094028     
6200000000.0        -0.378757243458     -0.431825656019     0.61487979222       -0.538823242503     0.61487979222       -0.538823242503     -0.378757243458     -0.431825656019     
6300000000.0        -0.386521854782     -0.432775344437     0.606919812604      -0.541558361993     0.606919812604      -0.541558361993     -0.386521854782     -0.432775344437     
6400000000.0        -0.394225476027     -0.433578052601     0.599017258122      -0.54414921792      0.599017258122      -0.54414921792      -0.394225476027     -0.433578052601     
6500000000.0        -0.401865823462     -0.434237656453     0.591174391093      -0.546599725199     0.591174391093      -0.546599725199     -0.401865823462     -0.434237656453     
6600000000.0        -0.409440783128     -0.434758008499     0.583393303695      -0.548913775413     0.583393303695      -0.548913775413     -0.409440783128     -0.434758008499     
6700000000.0        -0.416948404985     -0.435142932212     0.575675923811      -0.551095231223     0.575675923811      -0.551095231223     -0.416948404985     -0.435142932212     
6800000000.0        -0.424386897025     -0.435396216888     0.568024020914      -0.55314792123      0.568024020914      -0.55314792123      -0.424386897025     -0.435396216888     
6900000000.0        -0.431754619363     -0.435521612943     0.560439211966      -0.555075635274     0.560439211966      -0.555075635274     -0.431754619363     -0.435521612943     
7000000000.0        -0.439050078348     -0.435522827627     0.552922967316      -0.556882120152     0.552922967316      -0.556882120152     -0.439050078348     -0.435522827627     
7100000000.0        -0.446271920686     -0.435403521142     0.545476616554      -0.558571075742     0.545476616554      -0.558571075742     -0.446271920686     -0.435403521142     
7200000000.0        -0.453418927628     -0.435167303137     0.538101354338      -0.560146151503     0.538101354338      -0.560146151503     -0.453418927628     -0.435167303137     
7300000000.0        -0.460490009202     -0.43481772958      0.530798246142      -0.561610943347     0.530798246142      -0.561610943347     -0.460490009202     -0.43481772958      
7400000000.0        -0.46748419854      -0.434358299966     0.523568233932      -0.562968990855     0.523568233932      -0.562968990855     -0.46748419854      -0.434358299966     
7500000000.0        -0.474400646287     -0.433792454862     0.516412141756      -0.564223774822     0.516412141756      -0.564223774822     -0.474400646287     -0.433792454862     
7600000000.0        -0.481238615112     -0.433123573755     0.509330681216      -0.565378715118     0.509330681216      -0.565378715118     -0.481238615112     -0.433123573755     
7700000000.0        -0.487997474337     -0.432354973206     0.502324456848      -0.566437168831     0.502324456848      -0.566437168831     -0.487997474337     -0.432354973206     
7800000000.0        -0.494676694683     -0.431489905261     0.495393971362      -0.567402428697     0.495393971362      -0.567402428697     -0.494676694683     -0.431489905261     
7900000000.0        -0.501275843145     -0.430531556143     0.488539630765      -0.568277721784     0.488539630765      -0.568277721784     -0.501275843145     -0.430531556143     
8000000000.0        -0.507794578005     -0.429483045166     0.481761749343      -0.569066208418     0.481761749343      -0.569066208418     -0.507794578005     -0.429483045166     
8100000000.0        -0.51423264398      -0.428347423887     0.475060554509      -0.569770981334     0.475060554509      -0.569770981334     -0.51423264398      -0.428347423887     
8200000000.0        -0.520589867514     -0.427127675465     0.4684361915        -0.570395065043     0.4684361915        -0.570395065043     -0.520589867514     -0.427127675465     
8300000000.0        -0.526866152221     -0.425826714217     0.461888727937      -0.570941415385     0.461888727937      -0.570941415385     -0.526866152221     -0.425826714217     
8400000000.0        -0.533061474472     -0.424447385353     0.455418158228      -0.571412919274     0.455418158228      -0.571412919274     -0.533061474472     -0.424447385353     
8500000000.0        -0.539175879133     -0.422992464877     0.449024407824      -0.571812394601     0.449024407824      -0.571812394601     -0.539175879133     -0.422992464877     
8600000000.0        -0.545209475453     -0.421464659649     0.442707337325      -0.572142590295     0.442707337325      -0.572142590295     -0.545209475453     -0.421464659649     
8700000000.0        -0.551162433104     -0.419866607578     0.436466746437      -0.572406186527     0.436466746437      -0.572406186527     -0.551162433104     -0.419866607578     
8800000000.0        -0.557034978369     -0.418200877954     0.430302377775      -0.572605795042     0.430302377775      -0.572605795042     -0.557034978369     -0.418200877954     
8900000000.0        -0.56282739048      -0.416469971893     0.424213920522      -0.572743959606     0.424213920522      -0.572743959606     -0.56282739048      -0.416469971893     
9000000000.0        -0.5685399981       -0.414676322889     0.418201013935      -0.572823156562     0.418201013935      -0.572823156562     -0.5685399981       -0.414676322889     
9100000000.0        -0.574173175957     -0.412822297465     0.412263250716      -0.572845795488     0.412263250716      -0.572845795488     -0.574173175957     -0.412822297465     
9200000000.0        -0.579727341611     -0.41091019591      0.406400180225      -0.572814219934     0.406400180225      -0.572814219934     -0.579727341611     -0.41091019591      
9300000000.0        -0.585202952367     -0.408942253097     0.400611311569      -0.572730708241     0.400611311569      -0.572730708241     -0.585202952367     -0.408942253097     
9400000000.0        -0.590600502325     -0.406920639363     0.394896116544      -0.572597474433     0.394896116544      -0.572597474433     -0.590600502325     -0.406920639363     
9500000000.0        -0.595920519563     -0.404847461462     0.389254032445      -0.572416669164     0.389254032445      -0.572416669164     -0.595920519563     -0.404847461462     
9600000000.0        -0.601163563447     -0.402724763563     0.383684464747      -0.572190380725     0.383684464747      -0.572190380725     -0.601163563447     -0.402724763563     
9700000000.0        -0.606330222073     -0.4005545283       0.378186789657      -0.571920636096     0.378186789657      -0.571920636096     -0.606330222073     -0.4005545283       
9800000000.0        -0.611421109834     -0.398338677859     0.372760356544      -0.571609402036     0.372760356544      -0.571609402036     -0.611421109834     -0.398338677859     
9900000000.0        -0.616436865096     -0.396079075107     0.367404490249      -0.571258586215     0.367404490249      -0.571258586215     -0.616436865096     -0.396079075107     
10000000000.0       -0.621378148005     -0.393777524739     0.362118493276      -0.570870038364     0.362118493276      -0.570870038364     -0.621378148005     -0.393777524739     
