# Hz S RI R 50.00 
100000000.0         9.49383413795e-06   -0.000494710515566  0.999987875864      -0.000581905131431  0.999987875864      -0.000581905131431  9.49383413773e-06   -0.000494710515566  
200000000.0         8.177952876e-06     -0.000989456700536  0.999986402067      -0.00116385177631   0.999986402067      -0.00116385177631   8.17795287578e-06   -0.000989456700536  
300000000.0         6.26720786867e-06   -0.00148425654539   0.999984363327      -0.00174586094169   0.999984363327      -0.00174586094169   6.26720786867e-06   -0.00148425654539   
400000000.0         3.77064695556e-06   -0.00197912333316   0.999981750045      -0.00232794822745   0.999981750045      -0.00232794822745   3.77064695556e-06   -0.00197912333316   
500000000.0         6.91526748975e-07   -0.00247406788515   0.999978558323      -0.00291012642029   0.999978558323      -0.00291012642029   6.91526748975e-07   -0.00247406788515   
600000000.0         -2.96869403427e-06  -0.00296909935894   0.999974785978      -0.00349240641322   0.999974785978      -0.00349240641322   -2.96869403427e-06  -0.00296909935894   
700000000.0         -7.2093378245e-06   -0.00346422566917   0.999970431546      -0.00407479768816   0.999970431546      -0.00407479768816   -7.2093378245e-06   -0.00346422566917   
800000000.0         -1.20301352812e-05  -0.00395945373178   0.999965493909      -0.00465730859724   0.999965493909      -0.00465730859724   -1.20301352808e-05  -0.00395945373178   
900000000.0         -1.74310577288e-05  -0.00445478963895   0.99995997214       -0.00523994656207   0.99995997214       -0.00523994656207   -1.7431057729e-05   -0.00445478963895   
1000000000.0        -2.34122310405e-05  -0.00495023877489   0.999953865423      -0.00582271820679   0.999953865423      -0.00582271820679   -2.34122310405e-05  -0.00495023877489   
1100000000.0        -2.99738869454e-05  -0.0054458059091    0.999947173007      -0.006405629464     0.999947173007      -0.006405629464     -2.99738869456e-05  -0.0054458059091    
1200000000.0        -3.71163331656e-05  -0.00594149526469   0.999939894184      -0.00698868565282   0.999939894184      -0.00698868565282   -3.71163331658e-05  -0.00594149526469   
1300000000.0        -4.4839934092e-05   -0.00643731057586   0.999932028273      -0.00757189154404   0.999932028273      -0.00757189154404   -4.4839934092e-05   -0.00643731057586   
1400000000.0        -5.31450974993e-05  -0.00693325513601   0.99992357461       -0.00815525141446   0.99992357461       -0.00815525141446   -5.31450974993e-05  -0.00693325513601   
1500000000.0        -6.20322651234e-05  -0.00742933183401   0.999914532543      -0.00873876908828   0.999914532543      -0.00873876908828   -6.20322651232e-05  -0.00742933183401   
1600000000.0        -7.15019056049e-05  -0.00792554318931   0.999904901428      -0.00932244797643   0.999904901428      -0.00932244797643   -7.15019056048e-05  -0.00792554318931   
1700000000.0        -8.15545091684e-05  -0.00842189138023   0.999894680626      -0.00990629110864   0.999894680626      -0.00990629110864   -8.15545091684e-05  -0.00842189138023   
1800000000.0        -9.21905833478e-05  -0.00891837826813   0.999883869504      -0.0104903011606    0.999883869504      -0.0104903011606    -9.21905833479e-05  -0.00891837826813   
1900000000.0        -0.00010341064961   -0.00941500542108   0.999872467429      -0.0110744804804    0.999872467429      -0.0110744804804    -0.00010341064961   -0.00941500542108   
2000000000.0        -0.000115215240509  -0.00991177413287   0.999860473774      -0.01165883111      0.999860473774      -0.01165883111      -0.000115215240509  -0.00991177413287   
2100000000.0        -0.000127604897343  -0.0104086854404    0.999847887914      -0.0122433548046    0.999847887914      -0.0122433548046    -0.000127604897343  -0.0104086854404    
2200000000.0        -0.000140580168135  -0.0109057401408    0.999834709225      -0.012828053052     0.999834709225      -0.012828053052     -0.000140580168135  -0.0109057401408    
2300000000.0        -0.000154141605869  -0.0114029388047    0.999820937088      -0.013412927087     0.999820937088      -0.013412927087     -0.00015414160587   -0.0114029388047    
2400000000.0        -0.000168289766994  -0.0119002817909    0.999806570886      -0.0139979779078    0.999806570886      -0.0139979779078    -0.000168289766993  -0.0119002817909    
2500000000.0        -0.000183025210056  -0.0123977692583    0.999791610005      -0.01458320629      0.999791610005      -0.01458320629      -0.000183025210056  -0.0123977692583    
2600000000.0        -0.000198348494492  -0.0128954011766    0.999776053838      -0.0151686127973    0.999776053838      -0.0151686127973    -0.000198348494493  -0.0128954011766    
2700000000.0        -0.000214260179558  -0.0133931773372    0.999759901778      -0.0157541977948    0.999759901778      -0.0157541977948    -0.000214260179558  -0.0133931773372    
2800000000.0        -0.000230760823353  -0.0138910973635    0.999743153226      -0.0163399614595    0.999743153226      -0.0163399614595    -0.000230760823353  -0.0138910973635    
2900000000.0        -0.000247850981936  -0.0143891607192    0.999725807587      -0.0169259037901    0.999725807587      -0.0169259037901    -0.000247850981936  -0.0143891607192    
3000000000.0        -0.000265531208515  -0.0148873667176    0.99970786427       -0.0175120246169    0.99970786427       -0.0175120246169    -0.000265531208516  -0.0148873667176    
3100000000.0        -0.000283802052703  -0.0153857145288    0.999689322694      -0.01809832361      0.999689322694      -0.01809832361      -0.000283802052703  -0.0153857145288    
3200000000.0        -0.000302664059854  -0.0158842031879    0.999670182279      -0.0186848002884    0.999670182279      -0.0186848002884    -0.000302664059854  -0.0158842031879    
3300000000.0        -0.000322117770425  -0.0163828316014    0.999650442456      -0.0192714540269    0.999650442456      -0.0192714540269    -0.000322117770425  -0.0163828316014    
3400000000.0        -0.000342163719406  -0.0168815985545    0.999630102661      -0.0198582840642    0.999630102661      -0.0198582840642    -0.000342163719406  -0.0168815985545    
3500000000.0        -0.000362802435796  -0.017380502717     0.999609162337      -0.0204452895096    0.999609162337      -0.0204452895096    -0.000362802435796  -0.017380502717     
3600000000.0        -0.000384034442085  -0.0178795426491    0.999587620938      -0.021032469349     0.999587620938      -0.021032469349     -0.000384034442086  -0.0178795426491    
3700000000.0        -0.000405860253843  -0.0183787168077    0.999565477921      -0.0216198224523    0.999565477921      -0.0216198224523    -0.000405860253843  -0.0183787168077    
3800000000.0        -0.00042828037925   -0.0188780235506    0.999542732756      -0.022207347578     0.999542732756      -0.022207347578     -0.00042828037925   -0.0188780235506    
3900000000.0        -0.000451295318738  -0.0193774611427    0.999519384918      -0.0227950433794    0.999519384918      -0.0227950433794    -0.000451295318738  -0.0193774611427    
4000000000.0        -0.000474905564617  -0.0198770277602    0.999495433894      -0.0233829084099    0.999495433894      -0.0233829084099    -0.000474905564617  -0.0198770277602    
4100000000.0        -0.000499111600739  -0.0203767214953    0.999470879178      -0.0239709411281    0.999470879178      -0.0239709411281    -0.000499111600739  -0.0203767214953    
4200000000.0        -0.000523913902185  -0.0208765403603    0.999445720275      -0.0245591399021    0.999445720275      -0.0245591399021    -0.000523913902185  -0.0208765403603    
4300000000.0        -0.000549312934985  -0.0213764822922    0.999419956698      -0.0251475030146    0.999419956698      -0.0251475030146    -0.000549312934985  -0.0213764822922    
4400000000.0        -0.000575309155838  -0.0218765451564    0.999393587971      -0.0257360286669    0.999393587971      -0.0257360286669    -0.000575309155838  -0.0218765451564    
4500000000.0        -0.000601903011876  -0.0223767267503    0.999366613628      -0.026324714983     0.999366613628      -0.026324714983     -0.000601903011876  -0.0223767267503    
4600000000.0        -0.000629094940423  -0.022877024807     0.999339033212      -0.026913560014     0.999339033212      -0.026913560014     -0.000629094940423  -0.022877024807     
4700000000.0        -0.000656885368797  -0.0233774369988    0.999310846278      -0.0275025617412    0.999310846278      -0.0275025617412    -0.000656885368797  -0.0233774369988    
4800000000.0        -0.000685274714107  -0.0238779609404    0.999282052391      -0.02809171808      0.999282052391      -0.02809171808      -0.000685274714107  -0.0238779609404    
4900000000.0        -0.00071426338308   -0.0243785941922    0.999252651126      -0.0286810268838    0.999252651126      -0.0286810268838    -0.00071426338308   -0.0243785941922    
5000000000.0        -0.000743851771878  -0.0248793342625    0.99922264207       -0.0292704859461    0.99922264207       -0.0292704859461    -0.000743851771878  -0.0248793342625    
5100000000.0        -0.000774040265983  -0.0253801786118    0.999192024821      -0.029860093005     0.999192024821      -0.029860093005     -0.000774040265983  -0.0253801786118    
5200000000.0        -0.000804829240023  -0.025881124654     0.999160798986      -0.0304498457452    0.999160798986      -0.0304498457452    -0.000804829240023  -0.025881124654     
5300000000.0        -0.000836219057661  -0.0263821697597    0.999128964186      -0.0310397418011    0.999128964186      -0.0310397418011    -0.000836219057661  -0.0263821697597    
5400000000.0        -0.000868210071495  -0.0268833112592    0.999096520052      -0.0316297787601    0.999096520052      -0.0316297787601    -0.000868210071495  -0.0268833112592    
5500000000.0        -0.000900802622921  -0.0273845464436    0.999063466225      -0.0322199541641    0.999063466225      -0.0322199541641    -0.000900802622921  -0.0273845464436    
5600000000.0        -0.000933997042064  -0.0278858725681    0.999029802359      -0.0328102655131    0.999029802359      -0.0328102655131    -0.000933997042064  -0.0278858725681    
5700000000.0        -0.000967793647705  -0.0283872868542    0.998995528121      -0.0334007102672    0.998995528121      -0.0334007102672    -0.000967793647705  -0.0283872868542    
5800000000.0        -0.00100219274718   -0.0288887864909    0.998960643186      -0.0339912858486    0.998960643186      -0.0339912858486    -0.00100219274717   -0.0288887864909    
5900000000.0        -0.00103719463631   -0.0293903686375    0.998925147242      -0.0345819896441    0.998925147242      -0.0345819896441    -0.00103719463631   -0.0293903686375    
6000000000.0        -0.00107279959939   -0.0298920304256    0.998889039992      -0.0351728190074    0.998889039992      -0.0351728190074    -0.00107279959939   -0.0298920304256    
6100000000.0        -0.0011090079091    -0.0303937689602    0.998852321145      -0.0357637712605    0.998852321145      -0.0357637712605    -0.0011090079091    -0.0303937689602    
6200000000.0        -0.00114581982647   -0.0308955813218    0.998814990425      -0.0363548436963    0.998814990425      -0.0363548436963    -0.00114581982647   -0.0308955813218    
6300000000.0        -0.00118323560084   -0.0313974645687    0.998777047569      -0.0369460335802    0.998777047569      -0.0369460335802    -0.00118323560084   -0.0313974645687    
6400000000.0        -0.00122125546986   -0.0318994157375    0.998738492322      -0.0375373381517    0.998738492322      -0.0375373381517    -0.00122125546986   -0.0318994157375    
6500000000.0        -0.00125987965941   -0.0324014318453    0.998699324444      -0.0381287546262    0.998699324444      -0.0381287546262    -0.00125987965941   -0.0324014318453    
6600000000.0        -0.00129910838366   -0.0329035098914    0.998659543706      -0.0387202801968    0.998659543706      -0.0387202801968    -0.00129910838366   -0.0329035098914    
6700000000.0        -0.00133894184498   -0.0334056468579    0.99861914989       -0.0393119120355    0.99861914989       -0.0393119120355    -0.00133894184498   -0.0334056468579    
6800000000.0        -0.00137938023402   -0.033907839712     0.998578142791      -0.0399036472954    0.998578142791      -0.0399036472954    -0.00137938023402   -0.033907839712     
6900000000.0        -0.00142042372963   -0.0344100854066    0.998536522214      -0.0404954831112    0.998536522214      -0.0404954831112    -0.00142042372963   -0.0344100854066    
7000000000.0        -0.00146207249889   -0.0349123808817    0.998494287977      -0.0410874166012    0.998494287977      -0.0410874166012    -0.00146207249889   -0.0349123808817    
7100000000.0        -0.00150432669714   -0.035414723066     0.998451439912      -0.0416794448684    0.998451439912      -0.0416794448684    -0.00150432669714   -0.035414723066     
7200000000.0        -0.00154718646798   -0.0359171088772    0.998407977858      -0.0422715650018    0.998407977858      -0.0422715650018    -0.00154718646798   -0.0359171088772    
7300000000.0        -0.00159065194326   -0.0364195352242    0.998363901669      -0.0428637740778    0.998363901669      -0.0428637740778    -0.00159065194326   -0.0364195352242    
7400000000.0        -0.00163472324315   -0.0369219990071    0.998319211211      -0.0434560691609    0.998319211211      -0.0434560691609    -0.00163472324315   -0.0369219990071    
7500000000.0        -0.00167940047612   -0.0374244971188    0.998273906359      -0.0440484473053    0.998273906359      -0.0440484473053    -0.00167940047612   -0.0374244971188    
7600000000.0        -0.00172468373899   -0.0379270264459    0.998227987003      -0.0446409055556    0.998227987003      -0.0446409055556    -0.00172468373899   -0.0379270264459    
7700000000.0        -0.00177057311695   -0.0384295838694    0.998181453042      -0.045233440948     0.998181453042      -0.045233440948     -0.00177057311695   -0.0384295838694    
7800000000.0        -0.00181706868359   -0.0389321662657    0.998134304388      -0.0458260505112    0.998134304388      -0.0458260505112    -0.00181706868359   -0.0389321662657    
7900000000.0        -0.00186417050096   -0.0394347705076    0.998086540964      -0.0464187312675    0.998086540964      -0.0464187312675    -0.00186417050096   -0.0394347705076    
8000000000.0        -0.00191187861956   -0.0399373934648    0.998038162706      -0.0470114802333    0.998038162706      -0.0470114802333    -0.00191187861956   -0.0399373934648    
8100000000.0        -0.00196019307845   -0.0404400320049    0.997989169558      -0.0476042944206    0.997989169558      -0.0476042944206    -0.00196019307845   -0.0404400320049    
8200000000.0        -0.00200911390522   -0.040942682994     0.997939561479      -0.048197170837     0.997939561479      -0.048197170837     -0.00200911390522   -0.040942682994     
8300000000.0        -0.00205864111608   -0.0414453432974    0.997889338438      -0.0487901064872    0.997889338438      -0.0487901064872    -0.00205864111608   -0.0414453432974    
8400000000.0        -0.00210877471588   -0.0419480097807    0.997838500415      -0.0493830983735    0.997838500415      -0.0493830983735    -0.00210877471588   -0.0419480097807    
8500000000.0        -0.00215951469821   -0.0424506793096    0.997787047402      -0.0499761434962    0.997787047402      -0.0499761434962    -0.00215951469821   -0.0424506793096    
8600000000.0        -0.00221086104539   -0.0429533487514    0.997734979401      -0.0505692388548    0.997734979401      -0.0505692388548    -0.00221086104539   -0.0429533487514    
8700000000.0        -0.00226281372854   -0.0434560149748    0.997682296428      -0.0511623814484    0.997682296428      -0.0511623814484    -0.00226281372854   -0.0434560149748    
8800000000.0        -0.00231537270765   -0.0439586748514    0.997628998506      -0.0517555682764    0.997628998506      -0.0517555682764    -0.00231537270765   -0.0439586748514    
8900000000.0        -0.00236853793164   -0.0444613252551    0.997575085673      -0.0523487963389    0.997575085673      -0.0523487963389    -0.00236853793164   -0.0444613252551    
9000000000.0        -0.00242230933837   -0.0449639630637    0.997520557975      -0.0529420626376    0.997520557975      -0.0529420626376    -0.00242230933837   -0.0449639630637    
9100000000.0        -0.00247668685476   -0.0454665851585    0.997465415472      -0.0535353641761    0.997465415472      -0.0535353641761    -0.00247668685476   -0.0454665851585    
9200000000.0        -0.00253167039681   -0.0459691884256    0.997409658231      -0.0541286979604    0.997409658231      -0.0541286979604    -0.00253167039681   -0.0459691884256    
9300000000.0        -0.00258725986966   -0.0464717697556    0.997353286334      -0.0547220609999    0.997353286334      -0.0547220609999    -0.00258725986966   -0.0464717697556    
9400000000.0        -0.00264345516767   -0.0469743260444    0.99729629987       -0.055315450307     0.99729629987       -0.055315450307     -0.00264345516767   -0.0469743260444    
9500000000.0        -0.00270025617446   -0.0474768541936    0.997238698942      -0.0559088628984    0.997238698942      -0.0559088628984    -0.00270025617446   -0.0474768541936    
9600000000.0        -0.00275766276301   -0.0479793511111    0.997180483661      -0.056502295795     0.997180483661      -0.056502295795     -0.00275766276301   -0.0479793511111    
9700000000.0        -0.00281567479567   -0.0484818137107    0.997121654151      -0.0570957460227    0.997121654151      -0.0570957460227    -0.00281567479567   -0.0484818137107    
9800000000.0        -0.00287429212427   -0.0489842389134    0.997062210544      -0.0576892106123    0.997062210544      -0.0576892106123    -0.00287429212427   -0.0489842389134    
9900000000.0        -0.00293351459015   -0.0494866236472    0.997002152984      -0.0582826866005    0.997002152984      -0.0582826866005    -0.00293351459015   -0.0494866236472    
10000000000.0       -0.00299334202426   -0.0499889648476    0.996941481625      -0.0588761710298    0.996941481625      -0.0588761710298    -0.00299334202426   -0.0499889648476    
