# Hz S RI R 50.00 
100000000.0         0.000383565555049   -0.00554846391816   0.99950527038       -0.00835577182508   0.99950527038       -0.00835577182508   0.00038356555505    -0.00554846391816   
200000000.0         0.00024068887038    -0.0110953117457    0.99934464241       -0.0167100415217    0.99934464241       -0.0167100415217    0.00024068887038    -0.0110953117457    
300000000.0         4.37614565674e-06   -0.01663887027      0.999084201842      -0.0250612349718    0.999084201842      -0.0250612349718    4.37614565718e-06   -0.01663887027      
400000000.0         -0.00032490974321   -0.0221774165672    0.998723653436      -0.0334077053046    0.998723653436      -0.0334077053046    -0.00032490974321   -0.0221774165672    
500000000.0         -0.000746897991525  -0.0277092025674    0.998262973966      -0.0417477713147    0.998262973966      -0.0417477713147    -0.000746897991526  -0.0277092025674    
600000000.0         -0.00126134740563   -0.0332324652186    0.997702252214      -0.0500797312868    0.997702252214      -0.0500797312868    -0.00126134740563   -0.0332324652186    
700000000.0         -0.00186800468378   -0.0387454324617    0.99704164885       -0.0584018706674    0.99704164885       -0.0584018706674    -0.00186800468378   -0.0387454324617    
800000000.0         -0.00256658897121   -0.0442463274153    0.996281382067      -0.0667124672104    0.996281382067      -0.0667124672104    -0.00256658897121   -0.0442463274153    
900000000.0         -0.00335678488558   -0.0497333716409    0.995421721307      -0.0750097948507    0.995421721307      -0.0750097948507    -0.00335678488558   -0.0497333716409    
1000000000.0        -0.00423823896293   -0.0552047878731    0.994462984114      -0.083292126851     0.994462984114      -0.083292126851     -0.00423823896293   -0.0552047878731    
1100000000.0        -0.00521055771782   -0.0606588024127    0.99340553436       -0.0915577384956    0.99340553436       -0.0915577384956    -0.00521055771782   -0.0606588024127    
1200000000.0        -0.00627330656282   -0.0660936472932    0.992249781118      -0.0998049094818    0.992249781118      -0.0998049094818    -0.00627330656282   -0.0660936472932    
1300000000.0        -0.00742600923396   -0.0715075622838    0.990996177852      -0.108031926098     0.990996177852      -0.108031926098     -0.00742600923396   -0.0715075622838    
1400000000.0        -0.00866814754108   -0.0768987967699    0.98964522176       -0.116237083241     0.98964522176       -0.116237083241     -0.00866814754108   -0.0768987967699    
1500000000.0        -0.00999916134382   -0.0822656115367    0.988197453185      -0.124418686317     0.988197453185      -0.124418686317     -0.00999916134382   -0.0822656115367    
1600000000.0        -0.0114184486949    -0.0876062804726    0.986653455037      -0.13257505303      0.986653455037      -0.13257505303      -0.0114184486949    -0.0876062804726    
1700000000.0        -0.0129253661149    -0.0929190922046    0.985013852213      -0.140704515103     0.985013852213      -0.140704515103     -0.0129253661149    -0.0929190922046    
1800000000.0        -0.0145192289753    -0.098202351671     0.983279310988      -0.148805419909     0.983279310988      -0.148805419909     -0.0145192289753    -0.098202351671     
1900000000.0        -0.0161993119737    -0.103454381639     0.981450538366      -0.156876132051     0.981450538366      -0.156876132051     -0.0161993119737    -0.103454381639     
2000000000.0        -0.0179648496903    -0.10867352417      0.979528281398      -0.164915034871     0.979528281398      -0.164915034871     -0.0179648496903    -0.10867352417      
2100000000.0        -0.0198150372166    -0.113858142031     0.977513326454      -0.172920531906     0.977513326454      -0.172920531906     -0.0198150372166    -0.113858142031     
2200000000.0        -0.0217490308506    -0.119006620058     0.97540649845       -0.180891048289     0.97540649845       -0.180891048289     -0.0217490308506    -0.119006620058     
2300000000.0        -0.023765948852     -0.124117366473     0.973208660029      -0.188825032098     0.973208660029      -0.188825032098     -0.023765948852     -0.124117366473     
2400000000.0        -0.025864872254     -0.129188814146     0.970920710702      -0.196720955647     0.970920710702      -0.196720955647     -0.025864872254     -0.129188814146     
2500000000.0        -0.0280448457268    -0.134219421813     0.968543585942      -0.204577316729     0.968543585942      -0.204577316729     -0.0280448457268    -0.134219421813     
2600000000.0        -0.0303048784894    -0.139207675242     0.966078256241      -0.212392639807     0.966078256241      -0.212392639807     -0.0303048784894    -0.139207675242     
2700000000.0        -0.0326439452669    -0.144152088349     0.963525726126      -0.220165477151     0.963525726126      -0.220165477151     -0.0326439452669    -0.144152088349     
2800000000.0        -0.0350609872892    -0.149051204265     0.960887033135      -0.227894409922     0.960887033135      -0.227894409922     -0.0350609872892    -0.149051204265     
2900000000.0        -0.0375549133291    -0.153903596351     0.958163246762      -0.235578049205     0.958163246762      -0.235578049205     -0.0375549133291    -0.153903596351     
3000000000.0        -0.0401246007751    -0.15870786916      0.955355467366      -0.243215036986     0.955355467366      -0.243215036986     -0.0401246007751    -0.15870786916      
3100000000.0        -0.042768896739     -0.163462659347     0.95246482505       -0.25080404708      0.95246482505       -0.25080404708      -0.042768896739     -0.163462659347     
3200000000.0        -0.0454866191917    -0.168166636533     0.949492478513      -0.258343786        0.949492478513      -0.258343786        -0.0454866191917    -0.168166636533     
3300000000.0        -0.048276558128     -0.172818504102     0.946439613876      -0.265832993774     0.946439613876      -0.265832993774     -0.048276558128     -0.172818504102     
3400000000.0        -0.0511374767552    -0.177416999959     0.943307443478      -0.273270444708     0.943307443478      -0.273270444708     -0.0511374767552    -0.177416999959     
3500000000.0        -0.0540681127036    -0.181960897225     0.940097204666      -0.280654948093     0.940097204666      -0.280654948093     -0.0540681127036    -0.181960897225     
3600000000.0        -0.0570671792566    -0.186449004882     0.936810158547      -0.287985348861     0.936810158547      -0.287985348861     -0.0570671792566    -0.186449004882     
3700000000.0        -0.0601333665971    -0.190880168359     0.933447588744      -0.295260528176     0.933447588744      -0.295260528176     -0.0601333665971    -0.190880168359     
3800000000.0        -0.0632653430681    -0.195253270073     0.930010800122      -0.302479403983     0.930010800122      -0.302479403983     -0.0632653430681    -0.195253270073     
3900000000.0        -0.0664617564446    -0.199567229907     0.926501117513      -0.309640931496     0.926501117513      -0.309640931496     -0.0664617564446    -0.199567229907     
4000000000.0        -0.0697212352141    -0.20382100564      0.922919884429      -0.316744103629     0.922919884429      -0.316744103629     -0.0697212352141    -0.20382100564      
4100000000.0        -0.0730423898641    -0.208013593316     0.919268461771      -0.323787951379     0.919268461771      -0.323787951379     -0.0730423898641    -0.208013593316     
4200000000.0        -0.0764238141727    -0.212144027573     0.915548226528      -0.330771544151     0.915548226528      -0.330771544151     -0.0764238141727    -0.212144027573     
4300000000.0        -0.0798640865012    -0.216211381906     0.911760570487      -0.337693990032     0.911760570487      -0.337693990032     -0.0798640865012    -0.216211381906     
4400000000.0        -0.0833617710865    -0.220214768883     0.90790689893       -0.344554436011     0.90790689893       -0.344554436011     -0.0833617710865    -0.220214768883     
4500000000.0        -0.0869154193287    -0.224153340315     0.903988629343      -0.351352068151     0.903988629343      -0.351352068151     -0.0869154193287    -0.224153340315     
4600000000.0        -0.0905235710754    -0.228026287366     0.900007190129      -0.358086111705     0.900007190129      -0.358086111705     -0.0905235710754    -0.228026287366     
4700000000.0        -0.0941847558975    -0.231832840621     0.895964019325      -0.364755831184     0.895964019325      -0.364755831184     -0.0941847558975    -0.231832840621     
4800000000.0        -0.0978974943552    -0.2355722701       0.891860563334      -0.371360530378     0.891860563334      -0.371360530378     -0.0978974943552    -0.2355722701       
4900000000.0        -0.101660299254     -0.23924388523      0.887698275663      -0.377899552328     0.887698275663      -0.377899552328     -0.101660299254     -0.23924388523      
5000000000.0        -0.105471676885     -0.242847034762     0.883478615678      -0.384372279249     0.883478615678      -0.384372279249     -0.105471676885     -0.242847034762     
5100000000.0        -0.109330128253     -0.246381106655     0.879203047373      -0.39077813241      0.879203047373      -0.39077813241      -0.109330128253     -0.246381106655     
5200000000.0        -0.113234150285     -0.249845527904     0.874873038158      -0.397116571969     0.874873038158      -0.397116571969     -0.113234150285     -0.249845527904     
5300000000.0        -0.11718223702      -0.25323976433      0.870490057659      -0.403387096765     0.870490057659      -0.403387096765     -0.11718223702      -0.25323976433      
5400000000.0        -0.121172880783     -0.256563320331     0.866055576547      -0.409589244067     0.866055576547      -0.409589244067     -0.121172880783     -0.256563320331     
5500000000.0        -0.125204573331     -0.259815738591     0.861571065384      -0.415722589285     0.861571065384      -0.415722589285     -0.125204573331     -0.259815738591     
5600000000.0        -0.129275806979     -0.262996599748     0.857037993491      -0.421786745641     0.857037993491      -0.421786745641     -0.129275806979     -0.262996599748     
5700000000.0        -0.133385075705     -0.266105522028     0.852457827842      -0.427781363803     0.852457827842      -0.427781363803     -0.133385075705     -0.266105522028     
5800000000.0        -0.137530876222     -0.269142160845     0.847832031983      -0.433706131484     0.847832031983      -0.433706131484     -0.137530876222     -0.269142160845     
5900000000.0        -0.141711709029     -0.272106208363     0.843162064981      -0.439560773005     0.843162064981      -0.439560773005     -0.141711709029     -0.272106208363     
6000000000.0        -0.145926079434     -0.274997393027     0.838449380392      -0.445345048831     0.838449380392      -0.445345048831     -0.145926079434     -0.274997393027     
6100000000.0        -0.150172498544     -0.277815479069     0.83369542527       -0.451058755065     0.83369542527       -0.451058755065     -0.150172498544     -0.277815479069     
6200000000.0        -0.154449484232     -0.280560265973     0.828901639193      -0.456701722926     0.828901639193      -0.456701722926     -0.154449484232     -0.280560265973     
6300000000.0        -0.158755562069     -0.283231587926     0.824069453326      -0.462273818193     0.824069453326      -0.462273818193     -0.158755562069     -0.283231587926     
6400000000.0        -0.163089266226     -0.285829313231     0.819200289515      -0.467774940619     0.819200289515      -0.467774940619     -0.163089266226     -0.285829313231     
6500000000.0        -0.167449140344     -0.28835334371      0.814295559409      -0.473205023329     0.814295559409      -0.473205023329     -0.167449140344     -0.28835334371      
6600000000.0        -0.171833738376     -0.290803614068     0.80935666362       -0.478564032193     0.80935666362       -0.478564032193     -0.171833738376     -0.290803614068     
6700000000.0        -0.176241625391     -0.29318009125      0.804384990904      -0.483851965171     0.804384990904      -0.483851965171     -0.176241625391     -0.29318009125      
6800000000.0        -0.180671378349     -0.295482773774     0.799381917388      -0.48906885165      0.799381917388      -0.48906885165      -0.180671378349     -0.295482773774     
6900000000.0        -0.185121586843     -0.297711691041     0.79434880582       -0.494214751755     0.79434880582       -0.494214751755     -0.185121586843     -0.297711691041     
7000000000.0        -0.189590853805     -0.299866902639     0.78928700486       -0.499289755646     0.78928700486       -0.499289755646     -0.189590853805     -0.299866902639     
7100000000.0        -0.194077796181     -0.301948497625     0.784197848392      -0.504293982803     0.784197848392      -0.504293982803     -0.194077796181     -0.301948497625     
7200000000.0        -0.198581045576     -0.303956593799     0.779082654885      -0.509227581295     0.779082654885      -0.509227581295     -0.198581045576     -0.303956593799     
7300000000.0        -0.203099248856     -0.30589133696      0.773942726774      -0.514090727036     0.773942726774      -0.514090727036     -0.203099248856     -0.30589133696      
7400000000.0        -0.207631068729     -0.307752900161     0.768779349882      -0.518883623038     0.768779349882      -0.518883623038     -0.207631068729     -0.307752900161     
7500000000.0        -0.212175184283     -0.309541482951     0.763593792867      -0.523606498646     0.763593792867      -0.523606498646     -0.212175184283     -0.309541482951     
7600000000.0        -0.216730291501     -0.311257310605     0.758387306713      -0.528259608776     0.758387306713      -0.528259608776     -0.216730291501     -0.311257310605     
7700000000.0        -0.22129510373      -0.312900633358     0.753161124243      -0.532843233135     0.753161124243      -0.532843233135     -0.22129510373      -0.312900633358     
7800000000.0        -0.225868352136     -0.31447172563      0.747916459666      -0.537357675449     0.747916459666      -0.537357675449     -0.225868352136     -0.31447172563      
7900000000.0        -0.23044878611      -0.315970885245     0.742654508162      -0.541803262682     0.742654508162      -0.541803262682     -0.23044878611      -0.315970885245     
8000000000.0        -0.235035173652     -0.317398432654     0.737376445488      -0.546180344248     0.737376445488      -0.546180344248     -0.235035173652     -0.317398432654     
8100000000.0        -0.239626301727     -0.318754710153     0.732083427624      -0.550489291233     0.732083427624      -0.550489291233     -0.239626301727     -0.318754710153     
8200000000.0        -0.244220976581     -0.320040081104     0.726776590444      -0.554730495611     0.726776590444      -0.554730495611     -0.244220976581     -0.320040081104     
8300000000.0        -0.248818024033     -0.321254929157     0.721457049416      -0.558904369458     0.721457049416      -0.558904369458     -0.248818024033     -0.321254929157     
8400000000.0        -0.253416289743     -0.322399657475     0.716125899335      -0.563011344181     0.716125899335      -0.563011344181     -0.253416289743     -0.322399657475     
8500000000.0        -0.258014639441     -0.323474687959     0.710784214081      -0.567051869735     0.710784214081      -0.567051869735     -0.258014639441     -0.323474687959     
8600000000.0        -0.262611959135     -0.324480460487     0.705433046404      -0.571026413857     0.705433046404      -0.571026413857     -0.262611959135     -0.324480460487     
8700000000.0        -0.267207155292     -0.325417432148     0.700073427741      -0.5749354613       0.700073427741      -0.5749354613       -0.267207155292     -0.325417432148     
8800000000.0        -0.271799154988     -0.326286076489     0.694706368052      -0.578779513072     0.694706368052      -0.578779513072     -0.271799154988     -0.326286076489     
8900000000.0        -0.276386906039     -0.327086882769     0.689332855688      -0.582559085687     0.689332855688      -0.582559085687     -0.276386906039     -0.327086882769     
9000000000.0        -0.280969377102     -0.327820355216     0.683953857282      -0.58627471042      0.683953857282      -0.58627471042      -0.280969377102     -0.327820355216     
9100000000.0        -0.285545557752     -0.3284870123       0.678570317659      -0.589926932573     0.678570317659      -0.589926932573     -0.285545557752     -0.3284870123       
9200000000.0        -0.290114458539     -0.329087386012     0.673183159778      -0.593516310747     0.673183159778      -0.593516310747     -0.290114458539     -0.329087386012     
9300000000.0        -0.29467511102      -0.329622021151     0.667793284691      -0.597043416131     0.667793284691      -0.597043416131     -0.29467511102      -0.329622021151     
9400000000.0        -0.299226567768     -0.330091474626     0.662401571523      -0.600508831791     0.662401571523      -0.600508831791     -0.299226567768     -0.330091474626     
9500000000.0        -0.303767902366     -0.330496314766     0.657008877475      -0.603913151981     0.657008877475      -0.603913151981     -0.303767902366     -0.330496314766     
9600000000.0        -0.30829820937      -0.330837120645     0.651616037848      -0.60725698146      0.651616037848      -0.60725698146      -0.30829820937      -0.330837120645     
9700000000.0        -0.312816604264     -0.331114481415     0.646223866087      -0.610540934821     0.646223866087      -0.610540934821     -0.312816604264     -0.331114481415     
9800000000.0        -0.31732222339      -0.331328995658     0.640833153835      -0.613765635831     0.640833153835      -0.613765635831     -0.31732222339      -0.331328995658     
9900000000.0        -0.32181422386      -0.331481270741     0.635444671019      -0.616931716793     0.635444671019      -0.616931716793     -0.32181422386      -0.331481270741     
10000000000.0       -0.326291783457     -0.331571922198     0.630059165939      -0.620039817906     0.630059165939      -0.620039817906     -0.326291783457     -0.331571922198     
