# Hz S RI R 50.00 
100000000.0         0.0112346291227     0.0012798280773     0.988759485175      -0.00360314991855   0.988759485175      -0.00360314991855   0.0112346291227     0.0012798280773     
200000000.0         0.0113214248202     0.00255885797341    0.988662385188      -0.00720549168133   0.988662385188      -0.00720549168133   0.0113214248202     0.00255885797341    
300000000.0         0.011397882369      0.00383730943686    0.988570204427      -0.0108072424811    0.988570204427      -0.0108072424811    0.011397882369      0.00383730943686    
400000000.0         0.0114736641022     0.00511521093816    0.98847328024       -0.0144084275783    0.98847328024       -0.0144084275783    0.0114736641022     0.00511521093816    
500000000.0         0.0115524914992     0.00639254664477    0.98836789081       -0.0180090276035    0.98836789081       -0.0180090276035    0.0115524914992     0.00639254664477    
600000000.0         0.0116362615311     0.00766928118556    0.988252138795      -0.021609003436     0.988252138795      -0.021609003436     0.0116362615311     0.00766928118556    
700000000.0         0.0117260933295     0.00894536852951    0.988124904657      -0.0252083051407    0.988124904657      -0.0252083051407    0.0117260933295     0.00894536852951    
800000000.0         0.011822710262      0.0102207560973     0.987985464579      -0.0288068761144    0.987985464579      -0.0288068761144    0.011822710262      0.0102207560973     
900000000.0         0.0119266100829     0.0114953869673     0.987833320321      -0.0324046553138    0.987833320321      -0.0324046553138    0.0119266100829     0.0114953869673     
1000000000.0        0.0120381511912     0.0127692011804     0.987668112951      -0.0360015785767    0.987668112951      -0.0360015785767    0.0120381511912     0.0127692011804     
1100000000.0        0.0121576005888     0.0140421365688     0.987489574893      -0.039597579462     0.987489574893      -0.039597579462     0.0121576005888     0.0140421365688     
1200000000.0        0.0122851624602     0.0153141293115     0.987297501347      -0.0431925898136    0.987297501347      -0.0431925898136    0.0122851624602     0.0153141293115     
1300000000.0        0.0124209961568     0.016585114323      0.987091732299      -0.046786540156     0.987091732299      -0.046786540156     0.0124209961568     0.016585114323      
1400000000.0        0.0125652280183     0.017855025534      0.986872140706      -0.0503793599809    0.986872140706      -0.0503793599809    0.0125652280183     0.017855025534      
1500000000.0        0.0127179594302     0.0191237961019     0.986638624434      -0.0539709779611    0.986638624434      -0.0539709779611    0.0127179594302     0.0191237961019     
1600000000.0        0.0128792724829     0.0203913585707     0.986391100601      -0.0575613221145    0.986391100601      -0.0575613221145    0.0128792724829     0.0203913585707     
1700000000.0        0.0130492340508     0.0216576449965     0.986129501495      -0.0611503199322    0.986129501495      -0.0611503199322    0.0130492340509     0.0216576449965     
1800000000.0        0.0132278987985     0.0229225870473     0.985853771575      -0.0647378984811    0.985853771575      -0.0647378984811    0.0132278987985     0.0229225870473     
1900000000.0        0.0134153114388     0.0241861160835     0.985563865202      -0.0683239844863    0.985563865202      -0.0683239844863    0.0134153114388     0.0241861160835     
2000000000.0        0.0136115084595     0.0254481632248     0.985259744923      -0.0719085043996    0.985259744923      -0.0719085043996    0.0136115084595     0.0254481632248     
2100000000.0        0.013816519462      0.026708659405      0.984941380127      -0.0754913844561    0.984941380127      -0.0754913844561    0.013816519462      0.026708659405      
2200000000.0        0.0140303682144     0.0279675354195     0.984608745992      -0.0790725507227    0.984608745992      -0.0790725507227    0.0140303682144     0.0279675354195     
2300000000.0        0.0142530734904     0.0292247219647     0.984261822647      -0.0826519291389    0.984261822647      -0.0826519291389    0.0142530734904     0.0292247219647     
2400000000.0        0.0144846497434     0.030480149673      0.983900594498      -0.0862294455524    0.983900594498      -0.0862294455524    0.0144846497434     0.030480149673      
2500000000.0        0.0147251076554     0.0317337491427     0.983525049681      -0.0898050257502    0.983525049681      -0.0898050257502    0.0147251076554     0.0317337491427     
2600000000.0        0.0149744545869     0.0329854509646     0.983135179609      -0.0933785954857    0.983135179609      -0.0933785954857    0.0149744545869     0.0329854509646     
2700000000.0        0.0152326949488     0.034235185746      0.982730978602      -0.0969500805034    0.982730978602      -0.0969500805034    0.0152326949488     0.034235185746      
2800000000.0        0.0154998305136     0.0354828841313     0.982312443575      -0.10051940656      0.982312443575      -0.10051940656      0.0154998305136     0.0354828841313     
2900000000.0        0.0157758606752     0.0367284768219     0.981879573779      -0.104086499445     0.981879573779      -0.104086499445     0.0157758606752     0.0367284768219     
3000000000.0        0.0160607826702     0.0379718945928     0.981432370581      -0.107651284998     0.981432370581      -0.107651284998     0.0160607826702     0.0379718945928     
3100000000.0        0.0163545917646     0.0392130683093     0.980970837275      -0.111213689123     0.980970837275      -0.111213689123     0.0163545917646     0.0392130683093     
3200000000.0        0.0166572814152     0.0404519289413     0.980494978922      -0.114773637808     0.980494978922      -0.114773637808     0.0166572814152     0.0404519289413     
3300000000.0        0.0169688434069     0.041688407577      0.980004802212      -0.118331057134     0.980004802212      -0.118331057134     0.0169688434069     0.041688407577      
3400000000.0        0.017289267973      0.0429224354356     0.979500315344      -0.121885873293     0.979500315344      -0.121885873293     0.017289267973      0.0429224354356     
3500000000.0        0.0176185438986     0.0441539438796     0.978981527926      -0.125438012595     0.978981527926      -0.125438012595     0.0176185438986     0.0441539438796     
3600000000.0        0.0179566586119     0.0453828644254     0.978448450877      -0.128987401482     0.978448450877      -0.128987401482     0.0179566586119     0.0453828644254     
3700000000.0        0.0183035982635     0.0466091287543     0.977901096354      -0.132533966539     0.977901096354      -0.132533966539     0.0183035982635     0.0466091287543     
3800000000.0        0.0186593477972     0.0478326687224     0.977339477678      -0.136077634503     0.977339477678      -0.136077634503     0.0186593477972     0.0478326687224     
3900000000.0        0.0190238910118     0.0490534163703     0.976763609274      -0.139618332274     0.976763609274      -0.139618332274     0.0190238910118     0.0490534163703     
4000000000.0        0.0193972106168     0.0502713039322     0.976173506613      -0.143155986922     0.976173506613      -0.143155986922     0.0193972106168     0.0502713039322     
4100000000.0        0.0197792882817     0.0514862638445     0.975569186167      -0.146690525699     0.975569186167      -0.146690525699     0.0197792882817     0.0514862638445     
4200000000.0        0.0201701046801     0.0526982287545     0.974950665359      -0.150221876043     0.974950665359      -0.150221876043     0.0201701046801     0.0526982287545     
4300000000.0        0.0205696395301     0.0539071315282     0.97431796253       -0.153749965591     0.97431796253       -0.153749965591     0.0205696395301     0.0539071315282     
4400000000.0        0.0209778716294     0.0551129052583     0.973671096897      -0.157274722183     0.973671096897      -0.157274722183     0.0209778716294     0.0551129052583     
4500000000.0        0.021394778889      0.0563154832718     0.973010088524      -0.160796073872     0.973010088524      -0.160796073872     0.021394778889      0.0563154832718     
4600000000.0        0.0218203383618     0.0575147991372     0.97233495829       -0.164313948931     0.97233495829       -0.164313948931     0.0218203383618     0.0575147991372     
4700000000.0        0.0222545262705     0.0587107866715     0.971645727867      -0.167828275856     0.971645727867      -0.167828275856     0.0222545262705     0.0587107866715     
4800000000.0        0.0226973180317     0.0599033799477     0.970942419687      -0.171338983379     0.970942419687      -0.171338983379     0.0226973180317     0.0599033799477     
4900000000.0        0.0231486882795     0.0610925133006     0.970225056927      -0.174846000471     0.970225056927      -0.174846000471     0.0231486882795     0.0610925133006     
5000000000.0        0.0236086108855     0.0622781213342     0.969493663486      -0.17834925635      0.969493663486      -0.17834925635      0.0236086108855     0.0622781213342     
5100000000.0        0.0240770589793     0.0634601389275     0.968748263962      -0.181848680485     0.968748263962      -0.181848680485     0.0240770589793     0.0634601389275     
5200000000.0        0.0245540049658     0.0646385012411     0.967988883638      -0.185344202604     0.967988883638      -0.185344202604     0.0245540049658     0.0646385012411     
5300000000.0        0.0250394205422     0.0658131437233     0.967215548465      -0.1888357527       0.967215548465      -0.1888357527       0.0250394205422     0.0658131437233     
5400000000.0        0.025533276714      0.0669840021156     0.966428285045      -0.192323261037     0.966428285045      -0.192323261037     0.025533276714      0.0669840021156     
5500000000.0        0.0260355438091     0.0681510124593     0.965627120614      -0.195806658153     0.965627120614      -0.195806658153     0.0260355438091     0.0681510124593     
5600000000.0        0.0265461914925     0.0693141111004     0.964812083036      -0.199285874871     0.964812083036      -0.199285874871     0.0265461914925     0.0693141111004     
5700000000.0        0.0270651887785     0.0704732346959     0.963983200781      -0.202760842298     0.963983200781      -0.202760842298     0.0270651887785     0.0704732346959     
5800000000.0        0.0275925040436     0.0716283202188     0.963140502918      -0.206231491835     0.963140502918      -0.206231491835     0.0275925040436     0.0716283202188     
5900000000.0        0.0281281050379     0.0727793049638     0.962284019103      -0.209697755181     0.962284019103      -0.209697755181     0.0281281050379     0.0727793049638     
6000000000.0        0.0286719588964     0.0739261265524     0.961413779566      -0.213159564336     0.961413779566      -0.213159564336     0.0286719588964     0.0739261265524     
6100000000.0        0.0292240321497     0.075068722938      0.960529815103      -0.216616851611     0.960529815103      -0.216616851611     0.0292240321497     0.075068722938      
6200000000.0        0.0297842907338     0.0762070324114     0.959632157062      -0.220069549626     0.959632157062      -0.220069549626     0.0297842907338     0.0762070324114     
6300000000.0        0.0303527000001     0.0773409936054     0.958720837339      -0.223517591322     0.958720837339      -0.223517591322     0.0303527000001     0.0773409936054     
6400000000.0        0.0309292247248     0.0784705454997     0.957795888362      -0.226960909959     0.957795888362      -0.226960909959     0.0309292247248     0.0784705454997     
6500000000.0        0.0315138291178     0.0795956274261     0.956857343089      -0.230399439126     0.956857343089      -0.230399439126     0.0315138291178     0.0795956274261     
6600000000.0        0.0321064768314     0.0807161790727     0.955905234994      -0.233833112743     0.955905234994      -0.233833112743     0.0321064768314     0.0807161790727     
6700000000.0        0.0327071309688     0.081832140489      0.954939598061      -0.237261865066     0.954939598061      -0.237261865066     0.0327071309688     0.081832140489      
6800000000.0        0.0333157540921     0.0829434520904     0.953960466776      -0.24068563069      0.953960466776      -0.24068563069      0.0333157540921     0.0829434520904     
6900000000.0        0.0339323082305     0.0840500546622     0.952967876118      -0.244104344557     0.952967876118      -0.244104344557     0.0339323082305     0.0840500546622     
7000000000.0        0.0345567548878     0.0851518893648     0.951961861552      -0.247517941955     0.951961861552      -0.247517941955     0.0345567548878     0.0851518893648     
7100000000.0        0.03518905505       0.0862488977372     0.950942459022      -0.250926358526     0.950942459022      -0.250926358526     0.03518905505       0.0862488977372     
7200000000.0        0.0358291691927     0.0873410217021     0.949909704944      -0.254329530268     0.949909704944      -0.254329530268     0.0358291691927     0.0873410217021     
7300000000.0        0.0364770572883     0.0884282035691     0.948863636196      -0.257727393542     0.948863636196      -0.257727393542     0.0364770572883     0.0884282035691     
7400000000.0        0.0371326788131     0.0895103860399     0.947804290116      -0.261119885071     0.947804290116      -0.261119885071     0.0371326788131     0.0895103860399     
7500000000.0        0.0377959927541     0.0905875122112     0.94673170449       -0.264506941948     0.94673170449       -0.264506941948     0.0377959927541     0.0905875122112     
7600000000.0        0.0384669576159     0.0916595255796     0.945645917548      -0.267888501638     0.945645917548      -0.267888501638     0.0384669576159     0.0916595255796     
7700000000.0        0.0391455314273     0.0927263700447     0.944546967958      -0.27126450198      0.944546967958      -0.27126450198      0.0391455314273     0.0927263700447     
7800000000.0        0.0398316717482     0.0937879899137     0.943434894818      -0.274634881196     0.943434894818      -0.274634881196     0.0398316717482     0.0937879899137     
7900000000.0        0.0405253356758     0.0948443299042     0.942309737648      -0.277999577887     0.942309737648      -0.277999577887     0.0405253356758     0.0948443299042     
8000000000.0        0.0412264798511     0.0958953351488     0.94117153639       -0.281358531043     0.94117153639       -0.281358531043     0.0412264798511     0.0958953351488     
8100000000.0        0.0419350604653     0.096940951198      0.940020331392      -0.284711680042     0.940020331392      -0.284711680042     0.0419350604653     0.096940951198      
8200000000.0        0.0426510332662     0.0979811240239     0.938856163412      -0.288058964655     0.938856163412      -0.288058964655     0.0426510332662     0.0979811240239     
8300000000.0        0.0433743535641     0.0990158000238     0.937679073603      -0.291400325051     0.937679073603      -0.291400325051     0.0433743535641     0.0990158000238     
8400000000.0        0.0441049762383     0.100044926023      0.936489103513      -0.294735701795     0.936489103513      -0.294735701795     0.0441049762383     0.100044926023      
8500000000.0        0.0448428557429     0.10106844928       0.935286295078      -0.298065035856     0.935286295078      -0.298065035856     0.0448428557429     0.10106844928       
8600000000.0        0.0455879461134     0.102086317487      0.934070690613      -0.30138826861      0.934070690613      -0.30138826861      0.0455879461134     0.102086317487      
8700000000.0        0.0463402009719     0.103098478775      0.932842332807      -0.304705341838     0.932842332807      -0.304705341838     0.0463402009719     0.103098478775      
8800000000.0        0.0470995735337     0.104104881715      0.93160126472       -0.308016197733     0.93160126472       -0.308016197733     0.0470995735337     0.104104881715      
8900000000.0        0.0478660166133     0.105105475324      0.930347529776      -0.311320778902     0.930347529776      -0.311320778902     0.0478660166133     0.105105475324      
9000000000.0        0.0486394826296     0.106100209065      0.929081171753      -0.31461902837      0.929081171753      -0.31461902837      0.0486394826296     0.106100209065      
9100000000.0        0.0494199236127     0.107089032853      0.927802234784      -0.317910889578     0.927802234784      -0.317910889578     0.0494199236127     0.107089032853      
9200000000.0        0.0502072912089     0.108071897053      0.926510763345      -0.32119630639      0.926510763345      -0.32119630639      0.0502072912089     0.108071897053      
9300000000.0        0.0510015366871     0.109048752488      0.925206802255      -0.324475223096     0.925206802255      -0.324475223096     0.0510015366871     0.109048752488      
9400000000.0        0.0518026109444     0.11001955044       0.923890396665      -0.327747584409     0.923890396665      -0.327747584409     0.0518026109444     0.11001955044       
9500000000.0        0.0526104645116     0.11098424265       0.922561592055      -0.331013335474     0.922561592055      -0.331013335474     0.0526104645116     0.11098424265       
9600000000.0        0.0534250475594     0.111942781323      0.92122043423       -0.334272421865     0.92122043423       -0.334272421865     0.0534250475594     0.111942781323      
9700000000.0        0.0542463099038     0.112895119131      0.919866969309      -0.33752478959      0.919866969309      -0.33752478959      0.0542463099038     0.112895119131      
9800000000.0        0.0550742010119     0.113841209214      0.918501243725      -0.340770385094     0.918501243725      -0.340770385094     0.0550742010119     0.113841209214      
9900000000.0        0.0559086700077     0.114781005183      0.917123304218      -0.344009155258     0.917123304218      -0.344009155258     0.0559086700077     0.114781005183      
10000000000.0       0.0567496656774     0.115714461122      0.915733197826      -0.347241047403     0.915733197826      -0.347241047403     0.0567496656774     0.115714461122      
