# Hz S RI R 50.00 
100000000.0         -0.000454514101763  -0.022058729837     0.999403762527      -0.0227721327005    0.999403762527      -0.0227721327005    -0.000454514101763  -0.022058729837     
200000000.0         -0.00198090544036   -0.0440488416701    0.997875642805      -0.0454757906553    0.997875642805      -0.0454757906553    -0.00198090544036   -0.0440488416701    
300000000.0         -0.00450052012275   -0.0659041068521    0.995354033066      -0.0680448242535    0.995354033066      -0.0680448242535    -0.00450052012275   -0.0659041068521    
400000000.0         -0.00799849721339   -0.087559545433     0.991853671764      -0.0904143157801    0.991853671764      -0.0904143157801    -0.00799849721339   -0.087559545433     
500000000.0         -0.0124544431314    -0.108952078162     0.987394904958      -0.112521239588     0.987394904958      -0.112521239588     -0.0124544431314    -0.108952078162     
600000000.0         -0.017842693289     -0.130021119914     0.982003372571      -0.134305058364     0.982003372571      -0.134305058364     -0.017842693289     -0.130021119914     
700000000.0         -0.0241326648078    -0.150709118258     0.975709642469      -0.155708263153     0.975709642469      -0.155708263153     -0.0241326648078    -0.150709118258     
800000000.0         -0.0312892750713    -0.170962030898     0.9685487871        -0.176676851673     0.9685487871        -0.176676851673     -0.0312892750713    -0.170962030898     
900000000.0         -0.0392734123016    -0.190729735636     0.960559910788      -0.197160738876     0.960559910788      -0.197160738876     -0.0392734123016    -0.190729735636     
1000000000.0        -0.0480424456746    -0.20996636804      0.95178563854       -0.217114095024     0.95178563854       -0.217114095024     -0.0480424456746    -0.20996636804      
1100000000.0        -0.0575507626504    -0.228630583876     0.942271578123      -0.236495608452     0.942271578123      -0.236495608452     -0.0575507626504    -0.228630583876     
1200000000.0        -0.0677503213987    -0.246685745437     0.932065767284      -0.255268672132     0.932065767284      -0.255268672132     -0.0677503213987    -0.246685745437     
1300000000.0        -0.078591206682     -0.264100032837     0.921218117651      -0.273401495175     0.921218117651      -0.273401495175     -0.078591206682     -0.264100032837     
1400000000.0        -0.0900221783413    -0.28084648315      0.909779866098      -0.290867142131     0.909779866098      -0.290867142131     -0.0900221783413    -0.28084648315      
1500000000.0        -0.101991202581     -0.296902961836     0.897803043372      -0.307643504559     0.897803043372      -0.307643504559     -0.101991202581     -0.296902961836     
1600000000.0        -0.114445957509     -0.312252072198     0.885339968479      -0.323713210602     0.885339968479      -0.323713210602     -0.114445957509     -0.312252072198     
1700000000.0        -0.127334305789     -0.32688100959      0.872442775989      -0.339063479296     0.872442775989      -0.339063479296     -0.127334305789     -0.32688100959      
1800000000.0        -0.140604728729     -0.340781367772     0.85916298191       -0.353685927024     0.85916298191       -0.353685927024     -0.140604728729     -0.340781367772     
1900000000.0        -0.154206717631     -0.35394890522      0.845551092313      -0.367576333904     0.845551092313      -0.367576333904     -0.154206717631     -0.35394890522      
2000000000.0        -0.168091119637     -0.366383279263     0.831656257472      -0.380734378001     0.831656257472      -0.380734378001     -0.168091119637     -0.366383279263     
2100000000.0        -0.18221043668      -0.378087755823     0.817525972893      -0.393163345132     0.817525972893      -0.393163345132     -0.18221043668      -0.378087755823     
2200000000.0        -0.196519077336     -0.389068902154     0.803205827451      -0.404869821672     0.803205827451      -0.404869821672     -0.196519077336     -0.389068902154     
2300000000.0        -0.210973562466     -0.399336269498     0.788739297747      -0.415863377258     0.788739297747      -0.415863377258     -0.210973562466     -0.399336269498     
2400000000.0        -0.225532686393     -0.40890207192      0.774167586914      -0.426156243678     0.774167586914      -0.426156243678     -0.225532686393     -0.40890207192      
2500000000.0        -0.240157636123     -0.417780866877     0.759529505397      -0.435762995494     0.759529505397      -0.435762995494     -0.240157636123     -0.417780866877     
2600000000.0        -0.25481207163      -0.425989242322     0.744861390665      -0.44470023718      0.744861390665      -0.44470023718      -0.25481207163      -0.425989242322     
2700000000.0        -0.26946217064      -0.433545514357     0.730197062417      -0.452986300823     0.730197062417      -0.452986300823     -0.26946217064      -0.433545514357     
2800000000.0        -0.284076641591     -0.440469438686     0.715567809626      -0.460640957609     0.715567809626      -0.460640957609     -0.284076641591     -0.440469438686     
2900000000.0        -0.298626708536     -0.446781938406     0.701002405632      -0.467685145659     0.701002405632      -0.467685145659     -0.298626708536     -0.446781938406     
3000000000.0        -0.31308607178      -0.452504849992     0.6865271475        -0.474140716034     0.6865271475        -0.474140716034     -0.31308607178      -0.452504849992     
3100000000.0        -0.327430847954     -0.457660688697     0.672165915949      -0.480030198179     0.672165915949      -0.480030198179     -0.327430847954     -0.457660688697     
3200000000.0        -0.341639493033     -0.462272434103     0.65794025233       -0.485376585496     0.65794025233       -0.485376585496     -0.341639493033     -0.462272434103     
3300000000.0        -0.355692711626     -0.46636333602      0.643869449337      -0.490203141272     0.643869449337      -0.490203141272     -0.355692711626     -0.46636333602      
3400000000.0        -0.36957335558      -0.469956740589     0.629970652397      -0.494533224812     0.629970652397      -0.494533224812     -0.36957335558      -0.469956740589     
3500000000.0        -0.383266314677     -0.473075936098     0.616258968979      -0.498390137275     0.616258968979      -0.498390137275     -0.383266314677     -0.473075936098     
3600000000.0        -0.396758401889     -0.475744017759     0.602747583334      -0.501796986475     0.602747583334      -0.501796986475     -0.396758401889     -0.475744017759     
3700000000.0        -0.410038235385     -0.477983770499     0.589447874491      -0.504776569696     0.589447874491      -0.504776569696     -0.410038235385     -0.477983770499     
3800000000.0        -0.423096119163     -0.479817568688     0.576369535616      -0.507351273441     0.576369535616      -0.507351273441     -0.423096119163     -0.479817568688     
3900000000.0        -0.435923923941     -0.481267291603     0.563520693132      -0.509542988913     0.563520693132      -0.509542988913     -0.435923923941     -0.481267291603     
4000000000.0        -0.448514969642     -0.4823542534       0.550908024226      -0.511373042004     0.550908024226      -0.511373042004     -0.448514969642     -0.4823542534       
4100000000.0        -0.460863910585     -0.48309914632      0.538536871656      -0.512862136528     0.538536871656      -0.512862136528     -0.460863910585     -0.48309914632      
4200000000.0        -0.472966624291     -0.483521995888     0.526411354952      -0.514030309421     0.526411354952      -0.514030309421     -0.472966624291     -0.483521995888     
4300000000.0        -0.484820104577     -0.483642126858     0.514534477317      -0.514896896718     0.514534477317      -0.514896896718     -0.484820104577     -0.483642126858     
4400000000.0        -0.496422359473     -0.483478138744     0.502908227706      -0.515480509087     0.502908227706      -0.515480509087     -0.496422359473     -0.483478138744     
4500000000.0        -0.507772314335     -0.483047889796     0.491533677719      -0.515799015825     0.491533677719      -0.515799015825     -0.507772314335     -0.483047889796     
4600000000.0        -0.518869720383     -0.48236848838      0.480411073061      -0.515869536251     0.480411073061      -0.515869536251     -0.518869720383     -0.48236848838      
4700000000.0        -0.529715068795     -0.481456290774     0.469539919442      -0.51570843751      0.469539919442      -0.51570843751      -0.529715068795     -0.481456290774     
4800000000.0        -0.540309510405     -0.480326904475     0.458919062885      -0.515331337898     0.458919062885      -0.515331337898     -0.540309510405     -0.480326904475     
4900000000.0        -0.550654780944     -0.478995196194     0.448546764484      -0.514753114863     0.448546764484      -0.514753114863     -0.550654780944     -0.478995196194     
5000000000.0        -0.560753131731     -0.477475303785     0.438420769708      -0.51398791695      0.438420769708      -0.51398791695      -0.560753131731     -0.477475303785     
5100000000.0        -0.570607265658     -0.475780651432     0.428538372417      -0.513049178995     0.428538372417      -0.513049178995     -0.570607265658     -0.475780651432     
5200000000.0        -0.580220278288     -0.473923967497     0.41889647377       -0.51194963998      0.41889647377       -0.51194963998      -0.580220278288     -0.473923967497     
5300000000.0        -0.58959560382      -0.471917304474     0.409491636249      -0.510701363002     0.409491636249      -0.510701363002     -0.58959560382      -0.471917304474     
5400000000.0        -0.598736965714     -0.469772060595     0.400320133037      -0.509315756887     0.400320133037      -0.509315756887     -0.598736965714     -0.469772060595     
5500000000.0        -0.607648331704     -0.467499002663     0.391377993013      -0.507803599024     0.391377993013      -0.507803599024     -0.607648331704     -0.467499002663     
5600000000.0        -0.616333872936     -0.465108289746     0.3826610416        -0.506175059074     0.3826610416        -0.506175059074     -0.616333872936     -0.465108289746     
5700000000.0        -0.624797926991     -0.462609497425     0.37416493775       -0.504439723226     0.37416493775       -0.504439723226     -0.624797926991     -0.462609497425     
5800000000.0        -0.633044964506     -0.460011642331     0.36588520732       -0.502606618733     0.36588520732       -0.502606618733     -0.633044964506     -0.460011642331     
5900000000.0        -0.641079559159     -0.457323206731     0.357817273086      -0.500684238514     0.357817273086      -0.500684238514     -0.641079559159     -0.457323206731     
6000000000.0        -0.648906360759     -0.454552162984     0.349956481653      -0.498680565613     0.349956481653      -0.498680565613     -0.648906360759     -0.454552162984     
6100000000.0        -0.656530071204     -0.451705997702     0.342298127496      -0.496603097361     0.342298127496      -0.496603097361     -0.656530071204     -0.451705997702     
6200000000.0        -0.66395542308      -0.448791735473     0.334837474361      -0.49445886911      0.334837474361      -0.49445886911      -0.66395542308      -0.448791735473     
6300000000.0        -0.671187160686     -0.445815962056     0.327569774239      -0.492254477438     0.327569774239      -0.492254477438     -0.671187160686     -0.445815962056     
6400000000.0        -0.678230023271     -0.442784846959     0.320490284128      -0.489996102718     0.320490284128      -0.489996102718     -0.678230023271     -0.442784846959     
6500000000.0        -0.685088730296     -0.439704165315     0.313594280768      -0.487689531013     0.313594280768      -0.487689531013     -0.685088730296     -0.439704165315     
6600000000.0        -0.691767968547     -0.436579319035     0.306877073535      -0.485340175226     0.306877073535      -0.485340175226     -0.691767968547     -0.436579319035     
6700000000.0        -0.698272380913     -0.433415357178     0.300334015652      -0.482953095477     0.300334015652      -0.482953095477     -0.698272380913     -0.433415357178     
6800000000.0        -0.704606556691     -0.430216995527     0.293960513892      -0.480533018681     0.293960513892      -0.480533018681     -0.704606556691     -0.430216995527     
6900000000.0        -0.710775023251     -0.426988635354     0.287752036907      -0.47808435732      0.287752036907      -0.47808435732      -0.710775023251     -0.426988635354     
7000000000.0        -0.716782238955     -0.423734381365     0.28170412231       -0.475611227392     0.28170412231       -0.475611227392     -0.716782238955     -0.423734381365     
7100000000.0        -0.722632587179     -0.42045805884      0.275812382652      -0.473117465549     0.275812382652      -0.473117465549     -0.722632587179     -0.42045805884      
7200000000.0        -0.728330371342     -0.417163229956     0.270072510394      -0.47060664543      0.270072510394      -0.47060664543      -0.728330371342     -0.417163229956     
7300000000.0        -0.733879810826     -0.413853209325     0.264480281983      -0.468082093199     0.264480281983      -0.468082093199     -0.733879810826     -0.413853209325     
7400000000.0        -0.739285037703     -0.410531078757     0.259031561126      -0.465546902314     0.259031561126      -0.465546902314     -0.739285037703     -0.410531078757     
7500000000.0        -0.744550094175     -0.407199701266     0.25372230135       -0.463003947528     0.25372230135       -0.463003947528     -0.744550094175     -0.407199701266     
7600000000.0        -0.749678930647     -0.403861734341     0.248548547927      -0.460455898176     0.248548547927      -0.460455898176     -0.749678930647     -0.403861734341     
7700000000.0        -0.754675404364     -0.400519642517     0.243506439237      -0.457905230737     0.243506439237      -0.457905230737     -0.754675404364     -0.400519642517     
7800000000.0        -0.759543278545     -0.397175709259     0.238592207632      -0.455354240725     0.238592207632      -0.455354240725     -0.759543278545     -0.397175709259     
7900000000.0        -0.764286221957     -0.393832048191     0.233802179861      -0.452805053923     0.233802179861      -0.452805053923     -0.764286221957     -0.393832048191     
8000000000.0        -0.768907808871     -0.3904906137       0.229132777118      -0.450259636985     0.229132777118      -0.450259636985     -0.768907808871     -0.3904906137       
8100000000.0        -0.773411519354     -0.387153210937     0.224580514739      -0.447719807443     0.224580514739      -0.447719807443     -0.773411519354     -0.387153210937     
8200000000.0        -0.777800739856     -0.383821505248     0.220142001627      -0.445187243137     0.220142001627      -0.445187243137     -0.777800739856     -0.383821505248     
8300000000.0        -0.782078764048     -0.380497031058     0.215813939402      -0.442663491103     0.215813939402      -0.442663491103     -0.782078764048     -0.380497031058     
8400000000.0        -0.786248793874     -0.377181200234     0.211593121355      -0.440149975938     0.211593121355      -0.440149975938     -0.786248793874     -0.377181200234     
8500000000.0        -0.790313940798     -0.373875309957     0.207476431196      -0.437648007676     0.207476431196      -0.437648007676     -0.790313940798     -0.373875309957     
8600000000.0        -0.794277227199     -0.370580550127     0.203460841663      -0.435158789189     0.203460841663      -0.435158789189     -0.794277227199     -0.370580550127     
8700000000.0        -0.798141587902     -0.367298010325     0.199543412983      -0.432683423155     0.199543412983      -0.432683423155     -0.798141587902     -0.367298010325     
8800000000.0        -0.801909871822     -0.364028686348     0.195721291234      -0.430222918599     0.195721291234      -0.430222918599     -0.801909871822     -0.364028686348     
8900000000.0        -0.805584843689     -0.360773486362     0.191991706615      -0.427778197039     0.191991706615      -0.427778197039     -0.805584843689     -0.360773486362     
9000000000.0        -0.809169185854     -0.357533236668     0.188351971641      -0.425350098257     0.188351971641      -0.425350098257     -0.809169185854     -0.357533236668     
9100000000.0        -0.812665500141     -0.354308687118     0.184799479288      -0.422939385721     0.184799479288      -0.422939385721     -0.812665500141     -0.354308687118     
9200000000.0        -0.816076309751     -0.351100516198     0.181331701092      -0.420546751665     0.181331701092      -0.420546751665     -0.816076309751     -0.351100516198     
9300000000.0        -0.819404061182     -0.347909335801     0.177946185222      -0.418172821865     0.177946185222      -0.418172821865     -0.819404061182     -0.347909335801     
9400000000.0        -0.822651126183     -0.344735695696     0.174640554531      -0.415818160107     0.174640554531      -0.415818160107     -0.822651126183     -0.344735695696     
9500000000.0        -0.825819803702     -0.34158008772      0.171412504604      -0.413483272387     0.171412504604      -0.413483272387     -0.825819803702     -0.34158008772      
9600000000.0        -0.828912321843     -0.338442949715     0.168259801799      -0.411168610843     0.168259801799      -0.411168610843     -0.828912321843     -0.338442949715     
9700000000.0        -0.831930839813     -0.335324669209     0.165180281302      -0.40887457744      0.165180281302      -0.40887457744      -0.831930839813     -0.335324669209     
9800000000.0        -0.83487744986      -0.332225586869     0.162171845185      -0.406601527427     0.162171845185      -0.406601527427     -0.83487744986      -0.332225586869     
9900000000.0        -0.837754179185     -0.32914599974      0.159232460497      -0.404349772569     0.159232460497      -0.404349772569     -0.837754179185     -0.32914599974      
10000000000.0       -0.840562991836     -0.326086164269     0.156360157363      -0.402119584185     0.156360157363      -0.402119584185     -0.840562991836     -0.326086164269     
