# Hz S RI R 50.00 
100000000.0         0.0288896930938     0.00195468914284    0.971108319637      -0.00270614719596   0.971108319637      -0.00270614719596   0.0288896930938     0.00195468914284    
200000000.0         0.029090582907      0.00390753138595    0.970905872173      -0.00541045369125   0.970905872173      -0.00541045369125   0.029090582907      0.00390753138595    
300000000.0         0.0292521020167     0.00585917869258    0.970742224931      -0.00811357555237   0.970742224931      -0.00811357555237   0.0292521020167     0.00585917869258    
400000000.0         0.0293987615355     0.00780981077676    0.970592866714      -0.0108156958354    0.970592866714      -0.0108156958354    0.0293987615355     0.00780981077676    
500000000.0         0.0295400217254     0.00975949737758    0.970448337173      -0.0135168872391    0.970448337173      -0.0135168872391    0.0295400217254     0.00975949737758    
600000000.0         0.029680716159      0.0117082595021     0.970303802646      -0.0162171734808    0.970303802646      -0.0162171734808    0.029680716159      0.0117082595021     
700000000.0         0.0298237044153     0.0136560914346     0.97015640346       -0.018916551373     0.97015640346       -0.018916551373     0.0298237044153     0.0136560914346     
800000000.0         0.0299708411474     0.0156029709512     0.970004284866      -0.0216150010784    0.970004284866      -0.0216150010784    0.0299708411474     0.0156029709512     
900000000.0         0.0301234079515     0.0175488648086     0.969846165163      -0.0243124916255    0.969846165163      -0.0243124916255    0.0301234079515     0.0175488648086     
1000000000.0        0.0302823324645     0.0194937319965     0.969681116608      -0.0270089841801    0.969681116608      -0.0270089841801    0.0302823324645     0.0194937319965     
1100000000.0        0.0304483102623     0.0214375258058     0.969508443509      -0.029704434126     0.969508443509      -0.029704434126     0.0304483102623     0.0214375258058     
1200000000.0        0.0306218775571     0.0233801952136     0.969327609538      -0.032398792462     0.969327609538      -0.032398792462     0.0306218775571     0.0233801952136     
1300000000.0        0.0308034569734     0.025321685854      0.969138191943      -0.0350920067798    0.969138191943      -0.0350920067798    0.0308034569734     0.025321685854      
1400000000.0        0.030993387661      0.0272619407186     0.968939851447      -0.0377840219718    0.968939851447      -0.0377840219718    0.030993387661      0.0272619407186     
1500000000.0        0.0311919458316     0.0292009006793     0.968732311701      -0.0404747807592    0.968732311701      -0.0404747807592    0.0311919458316     0.0292009006793     
1600000000.0        0.031399359195      0.0311385048865     0.968515344856      -0.0431642240947    0.968515344856      -0.0431642240947    0.031399359195      0.0311385048865     
1700000000.0        0.0316158173699     0.0330746910791     0.968288761146      -0.0458522914762    0.968288761146      -0.0458522914762    0.0316158173699     0.0330746910791     
1800000000.0        0.0318414795622     0.0350093958303     0.968052401216      -0.0485389211961    0.968052401216      -0.0485389211961    0.0318414795622     0.0350093958303     
1900000000.0        0.0320764803369     0.0369425547459     0.967806130342      -0.051224050542     0.967806130342      -0.051224050542     0.0320764803369     0.0369425547459     
2000000000.0        0.0323209340324     0.0388741026251     0.967549834026      -0.0539076159608    0.967549834026      -0.0539076159608    0.0323209340324     0.0388741026251     
2100000000.0        0.0325749381874     0.0408039735954     0.967283414561      -0.0565895531947    0.967283414561      -0.0565895531947    0.0325749381874     0.0408039735954     
2200000000.0        0.0328385762371     0.0427321012235     0.967006788341      -0.059269797395     0.967006788341      -0.059269797395     0.0328385762371     0.0427321012235     
2300000000.0        0.033111919661      0.0446584186108     0.966719883709      -0.0619482832183    0.966719883709      -0.0619482832183    0.033111919661      0.0446584186108     
2400000000.0        0.0333950297116     0.0465828584737     0.96642263923       -0.0646249449094    0.96642263923       -0.0646249449094    0.0333950297116     0.0465828584737     
2500000000.0        0.0336879588213     0.0485053532138     0.966115002285      -0.0672997163721    0.966115002285      -0.0672997163721    0.0336879588213     0.0485053532138     
2600000000.0        0.0339907517562     0.0504258349781     0.965796927916      -0.0699725312307    0.965796927916      -0.0699725312307    0.0339907517562     0.0504258349781     
2700000000.0        0.0343034465711     0.0523442357122     0.965468377872      -0.0726433228847    0.965468377872      -0.0726433228847    0.0343034465711     0.0523442357122     
2800000000.0        0.0346260754059     0.0542604872072     0.96512931981       -0.0753120245567    0.96512931981       -0.0753120245567    0.0346260754059     0.0542604872072     
2900000000.0        0.034958665155      0.0561745211409     0.964779726632      -0.0779785693341    0.964779726632      -0.0779785693341    0.034958665155      0.0561745211409     
3000000000.0        0.0353012380324     0.0580862691154     0.964419575911      -0.0806428902081    0.964419575911      -0.0806428902081    0.0353012380324     0.0580862691154     
3100000000.0        0.0356538120528     0.0599956626905     0.964048849416      -0.0833049201073    0.964048849416      -0.0833049201073    0.0356538120528     0.0599956626905     
3200000000.0        0.0360164014437     0.0619026334134     0.963667532701      -0.085964591929     0.963667532701      -0.085964591929     0.0360164014437     0.0619026334134     
3300000000.0        0.0363890169988     0.0638071128469     0.963275614747      -0.0886218385672    0.963275614747      -0.0886218385672    0.0363890169988     0.0638071128469     
3400000000.0        0.0367716663847     0.0657090325939     0.962873087657      -0.0912765929383    0.962873087657      -0.0912765929383    0.0367716663847     0.0657090325939     
3500000000.0        0.0371643544067     0.0676083243211     0.962459946392      -0.0939287880052    0.962459946392      -0.0939287880052    0.0371643544067     0.0676083243211     
3600000000.0        0.0375670832407     0.0695049197795     0.962036188537      -0.0965783567983    0.962036188537      -0.0965783567983    0.0375670832407     0.0695049197795     
3700000000.0        0.0379798526369     0.0713987508248     0.961601814101      -0.0992252324368    0.961601814101      -0.0992252324368    0.0379798526369     0.0713987508248     
3800000000.0        0.0384026600987     0.0732897494353     0.961156825331      -0.101869348146     0.961156825331      -0.101869348146     0.0384026600987     0.0732897494353     
3900000000.0        0.0388355010411     0.0751778477293     0.960701226562      -0.104510637278     0.960701226562      -0.104510637278     0.0388355010411     0.0751778477293     
4000000000.0        0.0392783689309     0.0770629779808     0.96023502407       -0.107149033323     0.96023502407       -0.107149033323     0.0392783689309     0.0770629779808     
4100000000.0        0.0397312554113     0.0789450726349     0.959758225953      -0.10978446993      0.959758225953      -0.10978446993      0.0397312554113     0.0789450726349     
4200000000.0        0.0401941504142     0.0808240643216     0.959270842012      -0.112416880918     0.959270842012      -0.112416880918     0.0401941504142     0.0808240643216     
4300000000.0        0.0406670422597     0.0826998858696     0.958772883661      -0.115046200291     0.958772883661      -0.115046200291     0.0406670422597     0.0826998858696     
4400000000.0        0.0411499177459     0.0845724703186     0.958264363827      -0.117672362252     0.958264363827      -0.117672362252     0.0411499177459     0.0845724703186     
4500000000.0        0.0416427622304     0.086441750932      0.957745296876      -0.120295301213     0.957745296876      -0.120295301213     0.0416427622304     0.086441750932      
4600000000.0        0.0421455597037     0.0883076612075     0.957215698536      -0.122914951808     0.957215698536      -0.122914951808     0.0421455597037     0.0883076612075     
4700000000.0        0.0426582928555     0.0901701348889     0.956675585833      -0.125531248907     0.956675585833      -0.125531248907     0.0426582928555     0.0901701348889     
4800000000.0        0.0431809431354     0.0920291059762     0.956124977026      -0.12814412762      0.956124977026      -0.12814412762      0.0431809431354     0.0920291059762     
4900000000.0        0.0437134908087     0.0938845087357     0.955563891558      -0.130753523316     0.955563891558      -0.130753523316     0.0437134908087     0.0938845087357     
5000000000.0        0.0442559150066     0.0957362777097     0.954992349999      -0.133359371626     0.954992349999      -0.133359371626     0.0442559150066     0.0957362777097     
5100000000.0        0.0448081937728     0.0975843477256     0.954410374005      -0.135961608455     0.954410374005      -0.135961608455     0.0448081937728     0.0975843477256     
5200000000.0        0.0453703041066     0.0994286539051     0.953817986271      -0.138560169992     0.953817986271      -0.138560169992     0.0453703041066     0.0994286539051     
5300000000.0        0.0459422220021     0.101269131673      0.953215210494      -0.141154992716     0.953215210494      -0.141154992716     0.0459422220021     0.101269131673      
5400000000.0        0.046523922485      0.103105716764      0.952602071334      -0.143746013411     0.952602071334      -0.143746013411     0.046523922485      0.103105716764      
5500000000.0        0.0471153796464     0.104938345233      0.951978594383      -0.146333169164     0.951978594383      -0.146333169164     0.0471153796464     0.104938345233      
5600000000.0        0.0477165666745     0.106766953461      0.951344806133      -0.148916397383     0.951344806133      -0.148916397383     0.0477165666745     0.106766953461      
5700000000.0        0.0483274558838     0.108591478164      0.950700733943      -0.151495635799     0.950700733943      -0.151495635799     0.0483274558838     0.108591478164      
5800000000.0        0.048948018743      0.1104118564        0.950046406018      -0.154070822473     0.950046406018      -0.154070822473     0.048948018743      0.1104118564        
5900000000.0        0.0495782259003     0.112228025573      0.949381851375      -0.156641895808     0.949381851375      -0.156641895808     0.0495782259003     0.112228025573      
6000000000.0        0.0502180472082     0.114039923445      0.948707099827      -0.159208794552     0.948707099827      -0.159208794552     0.0502180472082     0.114039923445      
6100000000.0        0.0508674517456     0.115847488141      0.948022181955      -0.161771457805     0.948022181955      -0.161771457805     0.0508674517456     0.115847488141      
6200000000.0        0.05152640784       0.11765065815       0.947327129088      -0.164329825026     0.947327129088      -0.164329825026     0.05152640784       0.11765065815       
6300000000.0        0.0521948830874     0.11944937234       0.946621973282      -0.166883836043     0.946621973282      -0.166883836043     0.0521948830874     0.11944937234       
6400000000.0        0.0528728443717     0.121243569959      0.945906747304      -0.169433431052     0.945906747304      -0.169433431052     0.0528728443717     0.121243569959      
6500000000.0        0.0535602578834     0.123033190639      0.945181484607      -0.17197855063      0.945181484607      -0.17197855063      0.0535602578834     0.123033190639      
6600000000.0        0.0542570891362     0.124818174409      0.94444621932       -0.174519135737     0.94444621932       -0.174519135737     0.0542570891362     0.124818174409      
6700000000.0        0.0549633029847     0.126598461691      0.943700986227      -0.177055127722     0.943700986227      -0.177055127722     0.0549633029847     0.126598461691      
6800000000.0        0.0556788636395     0.128373993315      0.942945820752      -0.17958646833      0.942945820752      -0.17958646833      0.0556788636395     0.128373993315      
6900000000.0        0.0564037346828     0.130144710517      0.942180758944      -0.182113099708     0.942180758944      -0.182113099708     0.0564037346828     0.130144710517      
7000000000.0        0.0571378790831     0.131910554947      0.941405837462      -0.184634964406     0.941405837462      -0.184634964406     0.0571378790831     0.131910554947      
7100000000.0        0.057881259209      0.133671468675      0.940621093561      -0.187152005387     0.940621093561      -0.187152005387     0.057881259209      0.133671468675      
7200000000.0        0.058633836843      0.135427394194      0.93982656508       -0.18966416603      0.93982656508       -0.18966416603      0.058633836843      0.135427394194      
7300000000.0        0.0593955731943     0.137178274425      0.939022290426      -0.192171390134     0.939022290426      -0.192171390134     0.0593955731943     0.137178274425      
7400000000.0        0.060166428912      0.138924052723      0.938208308564      -0.194673621925     0.938208308564      -0.194673621925     0.060166428912      0.138924052723      
7500000000.0        0.0609463640964     0.14066467288       0.937384659003      -0.197170806057     0.937384659003      -0.197170806057     0.0609463640964     0.14066467288       
7600000000.0        0.061735338312      0.14240007913       0.936551381787      -0.199662887621     0.936551381787      -0.199662887621     0.061735338312      0.14240007913       
7700000000.0        0.062533310598      0.144130216154      0.935708517479      -0.202149812144     0.935708517479      -0.202149812144     0.062533310598      0.144130216154      
7800000000.0        0.0633402394801     0.14585502908       0.934856107154      -0.2046315256       0.934856107154      -0.2046315256       0.0633402394801     0.14585502908       
7900000000.0        0.0641560829813     0.147574463494      0.933994192385      -0.207107974408     0.933994192385      -0.207107974408     0.0641560829813     0.147574463494      
8000000000.0        0.0649807986323     0.149288465438      0.933122815234      -0.209579105437     0.933122815234      -0.209579105437     0.0649807986323     0.149288465438      
8100000000.0        0.0658143434823     0.150996981416      0.932242018242      -0.212044866012     0.932242018242      -0.212044866012     0.0658143434823     0.150996981416      
8200000000.0        0.0666566741086     0.152699958397      0.931351844419      -0.214505203919     0.931351844419      -0.214505203919     0.0666566741086     0.152699958397      
8300000000.0        0.0675077466273     0.154397343821      0.930452337231      -0.216960067404     0.930452337231      -0.216960067404     0.0675077466273     0.154397343821      
8400000000.0        0.068367516702      0.156089085598      0.929543540596      -0.219409405179     0.929543540596      -0.219409405179     0.068367516702      0.156089085598      
8500000000.0        0.0692359395544     0.157775132114      0.928625498867      -0.221853166425     0.928625498867      -0.221853166425     0.0692359395544     0.157775132114      
8600000000.0        0.0701129699729     0.159455432237      0.92769825683       -0.224291300798     0.92769825683       -0.224291300798     0.0701129699729     0.159455432237      
8700000000.0        0.0709985623222     0.161129935312      0.92676185969       -0.226723758428     0.92676185969       -0.226723758428     0.0709985623222     0.161129935312      
8800000000.0        0.0718926705519     0.162798591173      0.925816353065      -0.229150489923     0.925816353065      -0.229150489923     0.0718926705519     0.162798591173      
8900000000.0        0.0727952482062     0.164461350141      0.924861782974      -0.231571446375     0.924861782974      -0.231571446375     0.0727952482062     0.164461350141      
9000000000.0        0.0737062484317     0.166118163027      0.92389819583       -0.233986579358     0.92389819583       -0.233986579358     0.0737062484317     0.166118163027      
9100000000.0        0.0746256239867     0.167768981135      0.922925638433      -0.236395840938     0.922925638433      -0.236395840938     0.0746256239867     0.167768981135      
9200000000.0        0.0755533272495     0.169413756268      0.921944157958      -0.238799183666     0.921944157958      -0.238799183666     0.0755533272495     0.169413756268      
9300000000.0        0.0764893102267     0.171052440724      0.92095380195       -0.24119656059      0.92095380195       -0.24119656059      0.0764893102267     0.171052440724      
9400000000.0        0.0774335245618     0.172684987303      0.919954618313      -0.24358792525      0.919954618313      -0.24358792525      0.0774335245618     0.172684987303      
9500000000.0        0.078385921543      0.174311349311      0.918946655303      -0.245973231685     0.918946655303      -0.245973231685     0.078385921543      0.174311349311      
9600000000.0        0.0793464521114     0.175931480555      0.91792996152       -0.248352434436     0.91792996152       -0.248352434436     0.0793464521114     0.175931480555      
9700000000.0        0.0803150668693     0.177545335353      0.916904585901      -0.250725488542     0.916904585901      -0.250725488542     0.0803150668693     0.177545335353      
9800000000.0        0.0812917160877     0.179152868531      0.915870577709      -0.253092349549     0.915870577709      -0.253092349549     0.0812917160877     0.179152868531      
9900000000.0        0.0822763497144     0.180754035429      0.91482798653       -0.255452973508     0.91482798653       -0.255452973508     0.0822763497144     0.180754035429      
10000000000.0       0.0832689173818     0.182348791896      0.913776862258      -0.25780731698      0.913776862258      -0.25780731698      0.0832689173818     0.182348791896      
