# Hz S RI R 50.00 
100000000.0         0.113140842056      0.00257831625726    0.886855906722      -0.00394626716694   0.886855906722      -0.00394626716694   0.113140842056      0.00257831625726    
200000000.0         0.113832481178      0.00514663628517    0.886160064441      -0.007882541206     0.886160064441      -0.007882541206     0.113832481178      0.00514663628517    
300000000.0         0.114366087795      0.00770874398926    0.885620301731      -0.0118126112382    0.885620301731      -0.0118126112382    0.114366087795      0.00770874398926    
400000000.0         0.114829718306      0.010265806381      0.885148561464      -0.0157376491255    0.885148561464      -0.0157376491255    0.114829718306      0.010265806381      
500000000.0         0.115257374462      0.0128183812373     0.884710841258      -0.0196582173128    0.884710841258      -0.0196582173128    0.115257374462      0.0128183812373     
600000000.0         0.115666433843      0.0153667564627     0.884289762955      -0.0235746082544    0.884289762955      -0.0235746082544    0.115666433843      0.0153667564627     
700000000.0         0.116067178204      0.0179110720377     0.883875044239      -0.027486966395     0.883875044239      -0.027486966395     0.116067178204      0.0179110720377     
800000000.0         0.116466275328      0.0204513766092     0.883460016776      -0.0313953447799    0.883460016776      -0.0313953447799    0.116466275328      0.0204513766092     
900000000.0         0.116868331147      0.0229876579042     0.883040074081      -0.0352997354805    0.883040074081      -0.0352997354805    0.116868331147      0.0229876579042     
1000000000.0        0.117276677359      0.0255198607517     0.88261188389       -0.0392000876264    0.88261188389       -0.0392000876264    0.117276677359      0.0255198607517     
1100000000.0        0.117693809738      0.0280478985422     0.882172949851      -0.0430963188709    0.882172949851      -0.0430963188709    0.117693809738      0.0280478985422     
1200000000.0        0.118121649589      0.0305716609141     0.881721350065      -0.0469883230826    0.881721350065      -0.0469883230826    0.118121649589      0.0305716609141     
1300000000.0        0.118561708413      0.0330910191332     0.881255572413      -0.0508759757283    0.881255572413      -0.0508759757283    0.118561708413      0.0330910191332     
1400000000.0        0.119015196257      0.0356058299881     0.88077440621       -0.0547591377729    0.88077440621       -0.0547591377729    0.119015196257      0.0356058299881     
1500000000.0        0.119483095621      0.0381159386947     0.880276868291      -0.0586376585845    0.880276868291      -0.0586376585845    0.119483095621      0.0381159386947     
1600000000.0        0.11996621342       0.0406211811127     0.879762151053      -0.0625113781549    0.879762151053      -0.0625113781549    0.11996621342       0.0406211811127     
1700000000.0        0.120465218475      0.0431213854753     0.87922958496       -0.0663801288299    0.87922958496       -0.0663801288299    0.120465218475      0.0431213854753     
1800000000.0        0.120980669157      0.045616373762      0.878678610895      -0.0702437366846    0.878678610895      -0.0702437366846    0.120980669157      0.045616373762      
1900000000.0        0.121513034187      0.0481059628079     0.878108759365      -0.0741020226327    0.878108759365      -0.0741020226327    0.121513034187      0.0481059628079     
2000000000.0        0.122062708544      0.0505899652105     0.877519634591      -0.0779548033358    0.877519634591      -0.0779548033358    0.122062708544      0.0505899652105     
2100000000.0        0.122630025816      0.0530681900837     0.87691090215       -0.0818018919575    0.87691090215       -0.0818018919575    0.122630025816      0.0530681900837     
2200000000.0        0.123215267929      0.0555404436897     0.876282279255      -0.0856430987966    0.876282279255      -0.0856430987966    0.123215267929      0.0555404436897     
2300000000.0        0.123818672898      0.0580065299759     0.875633526997      -0.0894782318246    0.875633526997      -0.0894782318246    0.123818672898      0.0580065299759     
2400000000.0        0.124440441069      0.0604662510347     0.874964444104      -0.0933070971461    0.874964444104      -0.0933070971461    0.124440441069      0.0604662510347     
2500000000.0        0.125080740207      0.0629194075015     0.874274861857      -0.0971294993979    0.874274861857      -0.0971294993979    0.125080740207      0.0629194075015     
2600000000.0        0.125739709667      0.065365798902      0.873564639909      -0.100945242096     0.873564639909      -0.100945242096     0.125739709667      0.065365798902      
2700000000.0        0.126417463855      0.067805223957      0.872833662835      -0.104754127942     0.872833662835      -0.104754127942     0.126417463855      0.067805223957      
2800000000.0        0.127114095117      0.0702374808529     0.872081837233      -0.108555959092     0.872081837233      -0.108555959092     0.127114095117      0.0702374808529     
2900000000.0        0.127829676172      0.0726623674824     0.8713090893        -0.112350537401     0.8713090893        -0.112350537401     0.127829676172      0.0726623674824     
3000000000.0        0.128564262165      0.0750796816612     0.870515362769      -0.116137664638     0.870515362769      -0.116137664638     0.128564262165      0.0750796816612     
3100000000.0        0.129317892424      0.0774892213223     0.869700617161      -0.119917142679     0.869700617161      -0.119917142679     0.129317892424      0.0774892213223     
3200000000.0        0.130090591966      0.0798907846935     0.868864826269      -0.123688773688     0.868864826269      -0.123688773688     0.130090591966      0.0798907846935     
3300000000.0        0.130882372796      0.0822841704585     0.868007976872      -0.127452360277     0.868007976872      -0.127452360277     0.130882372796      0.0822841704585     
3400000000.0        0.131693235029      0.0846691779048     0.867130067599      -0.131207705652     0.867130067599      -0.131207705652     0.131693235029      0.0846691779048     
3500000000.0        0.132523167876      0.0870456070593     0.86623110795       -0.134954613755     0.86623110795       -0.134954613755     0.132523167876      0.0870456070593     
3600000000.0        0.133372150504      0.0894132588144     0.865311117439      -0.138692889383     0.865311117439      -0.138692889383     0.133372150504      0.0894132588144     
3700000000.0        0.13424015279       0.0917719350436     0.864370124832      -0.142422338308     0.864370124832      -0.142422338308     0.13424015279       0.0917719350436     
3800000000.0        0.135127135994      0.0941214387103     0.863408167478      -0.146142767385     0.863408167478      -0.146142767385     0.135127135994      0.0941214387103     
3900000000.0        0.136033053357      0.0964615739679     0.862425290713      -0.149853984653     0.862425290713      -0.149853984653     0.136033053357      0.0964615739679     
4000000000.0        0.136957850625      0.0987921462548     0.86142154733       -0.153555799428     0.86142154733       -0.153555799428     0.136957850625      0.0987921462548     
4100000000.0        0.137901466534      0.101112962382      0.8603969971        -0.157248022394     0.8603969971        -0.157248022394     0.137901466534      0.101112962382      
4200000000.0        0.138863833234      0.103423830618      0.859351706345      -0.160930465685     0.859351706345      -0.160930465685     0.138863833234      0.103423830618      
4300000000.0        0.139844876675      0.105724560763      0.85828574755       -0.164602942963     0.85828574755       -0.164602942963     0.139844876675      0.105724560763      
4400000000.0        0.140844516965      0.108014964228      0.857199199012      -0.16826526949      0.857199199012      -0.16826526949      0.140844516965      0.108014964228      
4500000000.0        0.141862668683      0.110294854098      0.856092144517      -0.171917262202     0.856092144517      -0.171917262202     0.141862668683      0.110294854098      
4600000000.0        0.142899241173      0.112564045204      0.854964673053      -0.175558739771     0.854964673053      -0.175558739771     0.142899241173      0.112564045204      
4700000000.0        0.143954138819      0.114822354181      0.853816878533      -0.17918952267      0.853816878533      -0.17918952267      0.143954138819      0.114822354181      
4800000000.0        0.145027261282      0.117069599529      0.852648859558      -0.18280943323      0.852648859558      -0.18280943323      0.145027261282      0.117069599529      
4900000000.0        0.146118503737      0.119305601666      0.851460719178      -0.186418295695     0.851460719178      -0.186418295695     0.146118503737      0.119305601666      
5000000000.0        0.14722775708       0.121530182986      0.85025256469       -0.190015936279     0.85025256469       -0.190015936279     0.14722775708       0.121530182986      
5100000000.0        0.148354908126      0.123743167905      0.849024507433      -0.193602183215     0.849024507433      -0.193602183215     0.148354908126      0.123743167905      
5200000000.0        0.149499839794      0.12594438291       0.847776662609      -0.197176866798     0.847776662609      -0.197176866798     0.149499839794      0.12594438291       
5300000000.0        0.150662431278      0.128133656604      0.846509149107      -0.200739819439     0.846509149107      -0.200739819439     0.150662431278      0.128133656604      
5400000000.0        0.151842558209      0.130310819751      0.845222089345      -0.2042908757       0.845222089345      -0.2042908757       0.151842558209      0.130310819751      
5500000000.0        0.153040092808      0.132475705314      0.843915609117      -0.207829872339     0.843915609117      -0.207829872339     0.153040092808      0.132475705314      
5600000000.0        0.154254904028      0.134628148496      0.842589837445      -0.211356648348     0.842589837445      -0.211356648348     0.154254904028      0.134628148496      
5700000000.0        0.155486857693      0.136767986773      0.841244906447      -0.21487104499      0.841244906447      -0.21487104499      0.155486857693      0.136767986773      
5800000000.0        0.156735816625      0.138895059933      0.839880951207      -0.218372905834     0.839880951207      -0.218372905834     0.156735816625      0.138895059933      
5900000000.0        0.158001640768      0.141009210109      0.838498109649      -0.221862076785     0.838498109649      -0.221862076785     0.158001640768      0.141009210109      
6000000000.0        0.159284187306      0.143110281804      0.837096522424      -0.22533840612      0.837096522424      -0.22533840612      0.159284187306      0.143110281804      
6100000000.0        0.160583310776      0.145198121927      0.835676332792      -0.228801744511     0.835676332792      -0.228801744511     0.160583310776      0.145198121927      
6200000000.0        0.161898863174      0.147272579817      0.834237686517      -0.232251945061     0.834237686517      -0.232251945061     0.161898863174      0.147272579817      
6300000000.0        0.163230694058      0.149333507272      0.832780731766      -0.235688863322     0.832780731766      -0.235688863322     0.163230694058      0.149333507272      
6400000000.0        0.164578650654      0.151380758568      0.831305619001      -0.239112357323     0.831305619001      -0.239112357323     0.164578650654      0.151380758568      
6500000000.0        0.165942577944      0.153414190487      0.829812500893      -0.242522287593     0.829812500893      -0.242522287593     0.165942577944      0.153414190487      
6600000000.0        0.167322318763      0.155433662337      0.828301532221      -0.245918517182     0.828301532221      -0.245918517182     0.167322318763      0.155433662337      
6700000000.0        0.16871771389       0.15743903597       0.826772869786      -0.249300911681     0.826772869786      -0.249300911681     0.16871771389       0.15743903597       
6800000000.0        0.170128602131      0.159430175802      0.825226672322      -0.252669339238     0.825226672322      -0.252669339238     0.170128602131      0.159430175802      
6900000000.0        0.171554820409      0.161406948831      0.823663100413      -0.256023670579     0.823663100413      -0.256023670579     0.171554820409      0.161406948831      
7000000000.0        0.172996203842      0.163369224648      0.82208231641       -0.259363779022     0.82208231641       -0.259363779022     0.172996203842      0.163369224648      
7100000000.0        0.174452585823      0.165316875457      0.82048448435       -0.26268954049      0.82048448435       -0.26268954049      0.174452585823      0.165316875457      
7200000000.0        0.175923798102      0.167249776087      0.818869769879      -0.266000833524     0.818869769879      -0.266000833524     0.175923798102      0.167249776087      
7300000000.0        0.177409670857      0.169167803998      0.817238340177      -0.269297539298     0.817238340177      -0.269297539298     0.177409670857      0.169167803998      
7400000000.0        0.17891003277       0.171070839298      0.815590363881      -0.272579541626     0.815590363881      -0.272579541626     0.17891003277       0.171070839298      
7500000000.0        0.180424711101      0.172958764751      0.813926011015      -0.275846726971     0.813926011015      -0.275846726971     0.180424711101      0.172958764751      
7600000000.0        0.181953531757      0.174831465782      0.812245452919      -0.279098984457     0.812245452919      -0.279098984457     0.181953531757      0.174831465782      
7700000000.0        0.18349631936       0.176688830486      0.810548862178      -0.282336205872     0.810548862178      -0.282336205872     0.18349631936       0.176688830486      
7800000000.0        0.185052897319      0.178530749634      0.808836412556      -0.285558285673     0.808836412556      -0.285558285673     0.185052897319      0.178530749634      
7900000000.0        0.186623087892      0.180357116675      0.807108278929      -0.288765120994     0.807108278929      -0.288765120994     0.186623087892      0.180357116675      
8000000000.0        0.188206712252      0.182167827743      0.805364637218      -0.291956611648     0.805364637218      -0.291956611648     0.188206712252      0.182167827743      
8100000000.0        0.189803590554      0.183962781657      0.803605664328      -0.295132660129     0.803605664328      -0.295132660129     0.189803590554      0.183962781657      
8200000000.0        0.191413541993      0.185741879924      0.801831538084      -0.298293171612     0.801831538084      -0.298293171612     0.191413541993      0.185741879924      
8300000000.0        0.19303638487       0.187505026735      0.80004243717       -0.301438053955     0.80004243717       -0.301438053955     0.19303638487       0.187505026735      
8400000000.0        0.194671936647      0.189252128969      0.798238541066      -0.304567217698     0.798238541066      -0.304567217698     0.194671936647      0.189252128969      
8500000000.0        0.196320014012      0.19098309619       0.796420029993      -0.307680576061     0.796420029993      -0.307680576061     0.196320014012      0.19098309619       
8600000000.0        0.197980432933      0.192697840643      0.794587084852      -0.310778044941     0.794587084852      -0.310778044941     0.197980432933      0.192697840643      
8700000000.0        0.199653008714      0.194396277251      0.792739887168      -0.313859542906     0.792739887168      -0.313859542906     0.199653008714      0.194396277251      
8800000000.0        0.201337556058      0.196078323608      0.790878619031      -0.316924991195     0.790878619031      -0.316924991195     0.201337556058      0.196078323608      
8900000000.0        0.203033889114      0.197743899979      0.789003463047      -0.319974313711     0.789003463047      -0.319974313711     0.203033889114      0.197743899979      
9000000000.0        0.204741821536      0.199392929287      0.787114602276      -0.323007437008     0.787114602276      -0.323007437008     0.204741821536      0.199392929287      
9100000000.0        0.206461166535      0.20102533711       0.785212220186      -0.326024290295     0.785212220186      -0.326024290295     0.206461166535      0.20102533711       
9200000000.0        0.20819173693       0.202641051671      0.783296500593      -0.329024805418     0.783296500593      -0.329024805418     0.20819173693       0.202641051671      
9300000000.0        0.209933345202      0.204240003828      0.781367627618      -0.332008916855     0.781367627618      -0.332008916855     0.209933345202      0.204240003828      
9400000000.0        0.211685803543      0.205822127067      0.779425785629      -0.334976561705     0.779425785629      -0.334976561705     0.211685803543      0.205822127067      
9500000000.0        0.213448923905      0.207387357489      0.777471159196      -0.33792767968      0.777471159196      -0.33792767968      0.213448923905      0.207387357489      
9600000000.0        0.215222518048      0.208935633798      0.77550393304       -0.340862213089     0.77550393304       -0.340862213089     0.215222518048      0.208935633798      
9700000000.0        0.217006397593      0.210466897291      0.773524291985      -0.343780106828     0.773524291985      -0.343780106828     0.217006397593      0.210466897291      
9800000000.0        0.218800374062      0.211981091842      0.771532420913      -0.346681308368     0.771532420913      -0.346681308368     0.218800374062      0.211981091842      
9900000000.0        0.22060425893       0.213478163891      0.769528504715      -0.349565767739     0.769528504715      -0.349565767739     0.22060425893       0.213478163891      
10000000000.0       0.222417863664      0.214958062429      0.767512728246      -0.352433437518     0.767512728246      -0.352433437518     0.222417863664      0.214958062429      
