# Hz S RI R 50.00 
100000000.0         0.000169739217791   -0.00735424105399   0.999690581756      -0.00834642027315   0.999690581756      -0.00834642027315   0.000169739217791   -0.00735424105399   
200000000.0         -2.04729592633e-05  -0.0147056484408    0.999495648449      -0.0166900364575    0.999495648449      -0.0166900364575    -2.04729592632e-05  -0.0147056484408    
300000000.0         -0.00033372036226   -0.0220515064458    0.999177524366      -0.0250281569261    0.999177524366      -0.0250281569261    -0.00033372036226   -0.0220515064458    
400000000.0         -0.000769595519576  -0.0293890761525    0.998736203758      -0.0333580617591    0.998736203758      -0.0333580617591    -0.000769595519576  -0.0293890761525    
500000000.0         -0.00132773662042   -0.0367156125104    0.998171889606      -0.0416770228034    0.998171889606      -0.0416770228034    -0.00132773662042   -0.0367156125104    
600000000.0         -0.0020077389875    -0.0440283724554    0.99748490563       -0.0499823126112    0.99748490563       -0.0499823126112    -0.0020077389875    -0.0440283724554    
700000000.0         -0.0028091327606    -0.0513246205813    0.996675673809      -0.0582712104948    0.996675673809      -0.0582712104948    -0.0028091327606    -0.0513246205813    
800000000.0         -0.00373137507563   -0.058601633765     0.99574470588       -0.0665410073712    0.99574470588       -0.0665410073712    -0.00373137507563   -0.058601633765     
900000000.0         -0.00477384699102   -0.0658567052419    0.994692599149      -0.0747890099767    0.994692599149      -0.0747890099767    -0.00477384699102   -0.0658567052419    
1000000000.0        -0.00593585239421   -0.0730871483416    0.993520033918      -0.083012544699     0.993520033918      -0.083012544699     -0.00593585239421   -0.0730871483416    
1100000000.0        -0.00721661789681   -0.0802902999927    0.992227771548      -0.0912089611511    0.992227771548      -0.0912089611511    -0.00721661789681   -0.0802902999927    
1200000000.0        -0.00861529330177   -0.0874635240491    0.99081665278       -0.0993756355507    0.99081665278       -0.0993756355507    -0.00861529330177   -0.0874635240491    
1300000000.0        -0.0101309524459    -0.0946042144705    0.989287596134      -0.10750997394      0.989287596134      -0.10750997394      -0.0101309524459    -0.0946042144705    
1400000000.0        -0.0117625943149    -0.101709798372     0.98764159629       -0.115609415271     0.98764159629       -0.115609415271     -0.0117625943149    -0.101709798372     
1500000000.0        -0.0135091443719    -0.108777738954     0.985879722425      -0.123671434357     0.985879722425      -0.123671434357     -0.0135091443719    -0.108777738954     
1600000000.0        -0.0153694560645    -0.115805538317     0.984003116462      -0.131693544713     0.984003116462      -0.131693544713     -0.0153694560645    -0.115805538317     
1700000000.0        -0.0173423124854    -0.122790740158     0.982012991244      -0.13967330127      0.982012991244      -0.13967330127      -0.0173423124854    -0.122790740158     
1800000000.0        -0.0194264281684    -0.12973093236      0.979910628609      -0.147608302981     0.979910628609      -0.147608302981     -0.0194264281684    -0.12973093236      
1900000000.0        -0.0216204510083    -0.136623749457     0.977697377375      -0.155496195296     0.977697377375      -0.155496195296     -0.0216204510083    -0.136623749457     
2000000000.0        -0.0239229642907    -0.143466874993     0.975374651241      -0.163334672535     0.975374651241      -0.163334672535     -0.0239229642907    -0.143466874993     
2100000000.0        -0.0263324888238    -0.150258043751     0.972943926599      -0.17112148013      0.972943926599      -0.17112148013      -0.0263324888238    -0.150258043751     
2200000000.0        -0.0288474851624    -0.156995043869     0.970406740265      -0.178854416746     0.970406740265      -0.178854416746     -0.0288474851624    -0.156995043869     
2300000000.0        -0.0314663559147    -0.16367571883      0.967764687138      -0.186531336281     0.967764687138      -0.186531336281     -0.0314663559147    -0.16367571883      
2400000000.0        -0.0341874481262    -0.170297969329     0.96501941779       -0.194150149741     0.96501941779       -0.194150149741     -0.0341874481262    -0.170297969329     
2500000000.0        -0.0370090557297    -0.176859755014     0.962172635993      -0.201708826983     0.962172635993      -0.201708826983     -0.0370090557297    -0.176859755014     
2600000000.0        -0.0399294220559    -0.183359096091     0.959226096188      -0.209205398337     0.959226096188      -0.209205398337     -0.0399294220559    -0.183359096091     
2700000000.0        -0.0429467423965    -0.189794074818     0.95618160091       -0.21663795609      0.95618160091       -0.21663795609      -0.0429467423965    -0.189794074818     
2800000000.0        -0.0460591666118    -0.196162836849     0.953040998164      -0.224004655848     0.953040998164      -0.224004655848     -0.0460591666118    -0.196162836849     
2900000000.0        -0.0492648017757    -0.202463592462     0.949806178775      -0.231303717762     0.949806178775      -0.231303717762     -0.0492648017757    -0.202463592462     
3000000000.0        -0.0525617148515    -0.208694617651     0.946479073698      -0.238533427628     0.946479073698      -0.238533427628     -0.0525617148515    -0.208694617651     
3100000000.0        -0.0559479353899    -0.214854255091     0.943061651314      -0.245692137851     0.943061651314      -0.245692137851     -0.0559479353899    -0.214854255091     
3200000000.0        -0.0594214582443    -0.220940914969     0.939555914713      -0.252778268286     0.939555914713      -0.252778268286     -0.0594214582443    -0.220940914969     
3300000000.0        -0.0629802462946    -0.226953075694     0.935963898956      -0.259790306943     0.935963898956      -0.259790306943     -0.0629802462946    -0.226953075694     
3400000000.0        -0.0666222331736    -0.232889284474     0.932287668353      -0.266726810577     0.932287668353      -0.266726810577     -0.0666222331736    -0.232889284474     
3500000000.0        -0.0703453259905    -0.238748157768     0.928529313728      -0.273586405134     0.928529313728      -0.273586405134     -0.0703453259905    -0.238748157768     
3600000000.0        -0.074147408043     -0.24452838162      0.92469094971       -0.280367786096     0.92469094971       -0.280367786096     -0.074147408043     -0.24452838162      
3700000000.0        -0.0780263415143    -0.250228711865     0.920774712027      -0.287069718681     0.920774712027      -0.287069718681     -0.0780263415143    -0.250228711865     
3800000000.0        -0.0819799701479    -0.255847974222     0.916782754834      -0.293691037947     0.916782754834      -0.293691037947     -0.0819799701479    -0.255847974222     
3900000000.0        -0.0860061218942    -0.261385064268     0.912717248057      -0.300230648761     0.912717248057      -0.300230648761     -0.0860061218942    -0.261385064268     
4000000000.0        -0.090102611525     -0.266838947303     0.908580374786      -0.306687525671     0.908580374786      -0.306687525671     -0.090102611525     -0.266838947303     
4100000000.0        -0.0942672432094    -0.272208658097     0.904374328688      -0.313060712655     0.904374328688      -0.313060712655     -0.0942672432094    -0.272208658097     
4200000000.0        -0.0984978130476    -0.277493300547     0.900101311478      -0.319349322776     0.900101311478      -0.319349322776     -0.0984978130476    -0.277493300547     
4300000000.0        -0.102792111556     -0.282692047215     0.895763530429      -0.325552537727     0.895763530429      -0.325552537727     -0.102792111556     -0.282692047215     
4400000000.0        -0.107147926104     -0.28780413878      0.891363195936      -0.331669607278     0.891363195936      -0.331669607278     -0.107147926104     -0.28780413878      
4500000000.0        -0.111563043289     -0.292828883391     0.886902519136      -0.337699848641     0.886902519136      -0.337699848641     -0.111563043289     -0.292828883391     
4600000000.0        -0.116035251261     -0.297765655928     0.88238370959       -0.343642645723     0.88238370959       -0.343642645723     -0.116035251261     -0.297765655928     
4700000000.0        -0.120562341977     -0.302613897188     0.877808973018      -0.349497448318     0.877808973018      -0.349497448318     -0.120562341977     -0.302613897188     
4800000000.0        -0.125142113393     -0.307373112975     0.873180509113      -0.355263771197     0.873180509113      -0.355263771197     -0.125142113393     -0.307373112975     
4900000000.0        -0.129772371592     -0.312042873125     0.868500509412      -0.360941193139     0.868500509412      -0.360941193139     -0.129772371592     -0.312042873125     
5000000000.0        -0.134450932832     -0.316622810457     0.863771155243      -0.366529355876     0.863771155243      -0.366529355876     -0.134450932832     -0.316622810457     
5100000000.0        -0.139175625527     -0.321112619653     0.858994615747      -0.372027962978     0.858994615747      -0.372027962978     -0.139175625527     -0.321112619653     
5200000000.0        -0.143944292157     -0.325512056077     0.854173045965      -0.377436778677     0.854173045965      -0.377436778677     -0.143944292157     -0.325512056077     
5300000000.0        -0.148754791094     -0.329820934538     0.849308585014      -0.382755626625     0.849308585014      -0.382755626625     -0.148754791094     -0.329820934538     
5400000000.0        -0.153604998353     -0.334039127998     0.844403354334      -0.387984388606     0.844403354334      -0.387984388606     -0.153604998353     -0.334039127998     
5500000000.0        -0.158492809271     -0.33816656623      0.839459456008      -0.393123003196     0.839459456008      -0.393123003196     -0.158492809271     -0.33816656623      
5600000000.0        -0.163416140092     -0.342203234434     0.834478971178      -0.39817146438      0.834478971178      -0.39817146438      -0.163416140092     -0.342203234434     
5700000000.0        -0.168372929491     -0.346149171812     0.829463958518      -0.403129820124     0.829463958518      -0.403129820124     -0.168372929491     -0.346149171812     
5800000000.0        -0.173361140002     -0.350004470105     0.824416452811      -0.407998170921     0.824416452811      -0.407998170921     -0.173361140002     -0.350004470105     
5900000000.0        -0.178378759372     -0.353769272105     0.819338463587      -0.412776668295     0.819338463587      -0.412776668295     -0.178378759372     -0.353769272105     
6000000000.0        -0.183423801839     -0.357443770132     0.814231973851      -0.417465513289     0.814231973851      -0.417465513289     -0.183423801839     -0.357443770132     
6100000000.0        -0.188494309323     -0.361028204496     0.80909893889       -0.422064954916     0.80909893889       -0.422064954916     -0.188494309323     -0.361028204496     
6200000000.0        -0.193588352541     -0.364522861935     0.803941285153      -0.42657528861      0.803941285153      -0.42657528861      -0.193588352541     -0.364522861935     
6300000000.0        -0.198704032048     -0.367928074038     0.798760909218      -0.430996854642     0.798760909218      -0.430996854642     -0.198704032048     -0.367928074038     
6400000000.0        -0.203839479192     -0.371244215661     0.79355967683       -0.435330036539     0.79355967683       -0.435330036539     -0.203839479192     -0.371244215661     
6500000000.0        -0.208992857001     -0.374471703331     0.788339422018      -0.43957525949      0.788339422018      -0.43957525949      -0.208992857001     -0.374471703331     
6600000000.0        -0.214162360991     -0.377610993647     0.783101946282      -0.443732988747     0.783101946282      -0.443732988747     -0.214162360991     -0.377610993647     
6700000000.0        -0.219346219901     -0.380662581681     0.777849017862      -0.447803728026     0.777849017862      -0.447803728026     -0.219346219901     -0.380662581681     
6800000000.0        -0.224542696357     -0.383626999381     0.772582371074      -0.451788017912     0.772582371074      -0.451788017912     -0.224542696357     -0.383626999381     
6900000000.0        -0.229750087463     -0.386504813977     0.767303705712      -0.455686434267     0.767303705712      -0.455686434267     -0.229750087463     -0.386504813977     
7000000000.0        -0.23496672533      -0.3892966264       0.76201468653       -0.459499586646     0.76201468653       -0.459499586646     -0.23496672533      -0.3892966264       
7100000000.0        -0.240190977529     -0.392003069707     0.756716942779      -0.463228116728     0.756716942779      -0.463228116728     -0.240190977529     -0.392003069707     
7200000000.0        -0.245421247485     -0.394624807522     0.751412067815      -0.46687269675      0.751412067815      -0.46687269675      -0.245421247485     -0.394624807522     
7300000000.0        -0.250655974809     -0.397162532491     0.746101618769      -0.470434027973     0.746101618769      -0.470434027973     -0.250655974809     -0.397162532491     
7400000000.0        -0.255893635568     -0.399616964757     0.740787116277      -0.473912839149     0.740787116277      -0.473912839149     -0.255893635568     -0.399616964757     
7500000000.0        -0.261132742492     -0.401988850455     0.735470044271      -0.47730988502      0.735470044271      -0.47730988502      -0.261132742492     -0.401988850455     
7600000000.0        -0.266371845133     -0.404278960227     0.730151849819      -0.480625944835     0.730151849819      -0.480625944835     -0.266371845133     -0.404278960227     
7700000000.0        -0.27160952996      -0.40648808776      0.72483394303       -0.483861820886     0.72483394303       -0.483861820886     -0.27160952996      -0.40648808776      
7800000000.0        -0.276844420411     -0.408617048356     0.719517697006      -0.487018337081     0.719517697006      -0.487018337081     -0.276844420411     -0.408617048356     
7900000000.0        -0.282075176892     -0.41066667752      0.714204447837      -0.490096337529     0.714204447837      -0.490096337529     -0.282075176892     -0.41066667752      
8000000000.0        -0.287300496722     -0.412637829581     0.708895494659      -0.49309668517      0.708895494659      -0.49309668517      -0.287300496722     -0.412637829581     
8100000000.0        -0.292519114043     -0.414531376345     0.703592099743      -0.496020260417     0.703592099743      -0.496020260417     -0.292519114043     -0.414531376345     
8200000000.0        -0.297729799681     -0.416348205772     0.698295488633      -0.498867959841     0.698295488633      -0.498867959841     -0.297729799681     -0.416348205772     
8300000000.0        -0.302931360964     -0.418089220689     0.693006850327      -0.501640694885     0.693006850327      -0.501640694885     -0.302931360964     -0.418089220689     
8400000000.0        -0.30812264151      -0.419755337534     0.687727337496      -0.504339390604     0.687727337496      -0.504339390604     -0.30812264151      -0.419755337534     
8500000000.0        -0.313302520964     -0.421347485134     0.682458066732      -0.506964984449     0.682458066732      -0.506964984449     -0.313302520964     -0.421347485134     
8600000000.0        -0.31846991472      -0.422866603515     0.677200118844      -0.509518425071     0.677200118844      -0.509518425071     -0.31846991472      -0.422866603515     
8700000000.0        -0.323623773588     -0.424313642745     0.671954539174      -0.512000671174     0.671954539174      -0.512000671174     -0.323623773588     -0.424313642745     
8800000000.0        -0.328763083453     -0.425689561818     0.666722337951      -0.514412690387     0.666722337951      -0.514412690387     -0.328763083453     -0.425689561818     
8900000000.0        -0.333886864887     -0.426995327563     0.661504490667      -0.516755458186     0.661504490667      -0.516755458186     -0.333886864887     -0.426995327563     
9000000000.0        -0.338994172748     -0.428231913595     0.656301938488      -0.519029956838     0.656301938488      -0.519029956838     -0.338994172748     -0.428231913595     
9100000000.0        -0.344084095745     -0.429400299301     0.651115588682      -0.521237174387     0.651115588682      -0.521237174387     -0.344084095745     -0.429400299301     
9200000000.0        -0.349155755992     -0.430501468853     0.64594631507       -0.523378103676     0.64594631507       -0.523378103676     -0.349155755992     -0.430501468853     
9300000000.0        -0.354208308526     -0.431536410269     0.640794958502      -0.525453741397     0.640794958502      -0.525453741397     -0.354208308526     -0.431536410269     
9400000000.0        -0.35924094082      -0.432506114497     0.635662327347      -0.527465087184     0.635662327347      -0.527465087184     -0.35924094082      -0.432506114497     
9500000000.0        -0.364252872271     -0.433411574542     0.630549198004      -0.529413142736     0.630549198004      -0.529413142736     -0.364252872271     -0.433411574542     
9600000000.0        -0.369243353677     -0.434253784619     0.625456315429      -0.531298910972     0.625456315429      -0.531298910972     -0.369243353677     -0.434253784619     
9700000000.0        -0.374211666693     -0.43503373935      0.620384393667      -0.533123395229     0.620384393667      -0.533123395229     -0.374211666693     -0.43503373935      
9800000000.0        -0.379157123285     -0.435752432985     0.615334116412      -0.534887598485     0.615334116412      -0.534887598485     -0.379157123285     -0.435752432985     
9900000000.0        -0.384079065166     -0.436410858666     0.610306137562      -0.536592522617     0.610306137562      -0.536592522617     -0.384079065166     -0.436410858666     
10000000000.0       -0.388976863221     -0.437010007711     0.605301081796      -0.538239167695     0.605301081796      -0.538239167695     -0.388976863221     -0.437010007711     
