# Hz S RI R 50.00 
100000000.0         -0.000224038213216  -0.019363959395     0.99941735312       -0.0197919522311    0.99941735312       -0.0197919522311    -0.000224038213216  -0.019363959395     
200000000.0         -0.00139063100741   -0.0386815532315    0.998248044341      -0.0395375498805    0.998248044341      -0.0395375498805    -0.00139063100741   -0.0386815532315    
300000000.0         -0.00331718597512   -0.0579082937184    0.99631920797       -0.0591923143895    0.99631920797       -0.0591923143895    -0.00331718597512   -0.0579082937184    
400000000.0         -0.00599476690412   -0.077000384372     0.993639471488      -0.0787124568641    0.993639471488      -0.0787124568641    -0.00599476690412   -0.077000384372     
500000000.0         -0.00941121364886   -0.0959150426056    0.990220876627      -0.0980552016313    0.990220876627      -0.0980552016313    -0.00941121364886   -0.0959150426056    
600000000.0         -0.0135512114171    -0.114610807262     0.986078678011      -0.117179094035     0.986078678011      -0.117179094035     -0.0135512114171    -0.114610807262     
700000000.0         -0.0183964425466    -0.13304782593      0.981231157877      -0.136044287876     0.981231157877      -0.136044287876     -0.0183964425466    -0.13304782593      
800000000.0         -0.0239257787421    -0.15118811791      0.975699421636      -0.154612808446     0.975699421636      -0.154612808446     -0.0239257787421    -0.15118811791      
900000000.0         -0.0301155025862    -0.168995809422     0.969507170933      -0.172848787788     0.969507170933      -0.172848787788     -0.0301155025862    -0.168995809422     
1000000000.0        -0.0369395519549    -0.18643733835      0.962680456492      -0.19071866946      0.962680456492      -0.19071866946      -0.0369395519549    -0.18643733835      
1100000000.0        -0.0443697820194    -0.203481626545     0.95524741459       -0.208191380867     0.95524741459       -0.208191380867     -0.0443697820194    -0.203481626545     
1200000000.0        -0.0523762398189    -0.220100218485     0.94723799158       -0.225238471944     0.94723799158       -0.225238471944     -0.0523762398189    -0.220100218485     
1300000000.0        -0.0609274465458    -0.236267385821     0.938683661036      -0.241834219701     0.938683661036      -0.241834219701     -0.0609274465458    -0.236267385821     
1400000000.0        -0.0699906828729    -0.251960198011     0.929617138055      -0.257955698879     0.929617138055      -0.257955698879     -0.0699906828729    -0.251960198011     
1500000000.0        -0.0795322729135    -0.26715855996      0.920072095039      -0.273582819592     0.920072095039      -0.273582819592     -0.0795322729135    -0.26715855996      
1600000000.0        -0.0895178627413    -0.281845218096     0.910082883004      -0.288698333415     0.910082883004      -0.288698333415     -0.0895178627413    -0.281845218096     
1700000000.0        -0.0999126898007    -0.296005736873     0.899684262036      -0.303287809888     0.899684262036      -0.303287809888     -0.0999126898007    -0.296005736873     
1800000000.0        -0.110681839994     -0.309628448055     0.88891114411       -0.31733958581      0.88891114411       -0.31733958581      -0.110681839994     -0.309628448055     
1900000000.0        -0.121790489728     -0.322704375501     0.877798350979      -0.330844690024     0.877798350979      -0.330844690024     -0.121790489728     -0.322704375501     
2000000000.0        -0.133204130708     -0.335227138342     0.866380389319      -0.343796746601     0.866380389319      -0.343796746601     -0.133204130708     -0.335227138342     
2100000000.0        -0.14488877578      -0.347192835635     0.85469124485       -0.356191859495     0.85469124485       -0.356191859495     -0.14488877578      -0.347192835635     
2200000000.0        -0.156811144636     -0.35859991557      0.842764196596      -0.368028481755     0.842764196596      -0.368028481755     -0.156811144636     -0.35859991557      
2300000000.0        -0.168938828631     -0.369449032333     0.830631652042      -0.37930727239      0.830631652042      -0.37930727239      -0.168938828631     -0.369449032333     
2400000000.0        -0.18124043446      -0.379742893591     0.818325003437      -0.390030943854     0.818325003437      -0.390030943854     -0.18124043446      -0.379742893591     
2500000000.0        -0.193685706771     -0.389486101453     0.805874505168      -0.400204103013     0.805874505168      -0.400204103013     -0.193685706771     -0.389486101453     
2600000000.0        -0.206245630182     -0.398684989542     0.793309171718      -0.409833088218     0.793309171718      -0.409833088218     -0.206245630182     -0.398684989542     
2700000000.0        -0.218892511454     -0.407347458602     0.780656695495      -0.418925804911     0.780656695495      -0.418925804911     -0.218892511454     -0.407347458602     
2800000000.0        -0.231600042788     -0.415482812817     0.767943383517      -0.427491561948     0.767943383517      -0.427491561948     -0.231600042788     -0.415482812817     
2900000000.0        -0.244343347448     -0.423101598735     0.755194111784      -0.435540910527     0.755194111784      -0.435540910527     -0.244343347448     -0.423101598735     
3000000000.0        -0.257099009015     -0.43021544846      0.742432296018      -0.443085487374     0.742432296018      -0.443085487374     -0.257099009015     -0.43021544846      
3100000000.0        -0.269845085691     -0.436836928468     0.72967987735       -0.450137863568     0.72967987735       -0.450137863568     -0.269845085691     -0.436836928468     
3200000000.0        -0.282561111129     -0.442979395183     0.716957321491      -0.456711400114     0.716957321491      -0.456711400114     -0.282561111129     -0.442979395183     
3300000000.0        -0.295228083276     -0.448656858194     0.70428362988       -0.462820111162     0.70428362988       -0.462820111162     -0.295228083276     -0.448656858194     
3400000000.0        -0.307828442707     -0.45388385175      0.691676361346      -0.468478535506     0.691676361346      -0.468478535506     -0.307828442707     -0.45388385175      
3500000000.0        -0.320346041892     -0.458675315011     0.679151662844      -0.473701616828     0.679151662844      -0.473701616828     -0.320346041892     -0.458675315011     
3600000000.0        -0.332766106775     -0.463046481291     0.666724307864      -0.478504592953     0.666724307864      -0.478504592953     -0.332766106775     -0.463046481291     
3700000000.0        -0.345075191983     -0.467012776427     0.654407741232      -0.482902894208     0.654407741232      -0.482902894208     -0.345075191983     -0.467012776427     
3800000000.0        -0.357261130857     -0.470589726215     0.642214129064      -0.486912050867     0.642214129064      -0.486912050867     -0.357261130857     -0.470589726215     
3900000000.0        -0.369312981471     -0.473792872778     0.630154412754      -0.490547609518     0.630154412754      -0.490547609518     -0.369312981471     -0.473792872778     
4000000000.0        -0.381220969619     -0.476637699614     0.618238365982      -0.493825058106     0.618238365982      -0.493825058106     -0.381220969619     -0.476637699614     
4100000000.0        -0.392976429728     -0.479139564981     0.6064746538        -0.496759759328     0.6064746538        -0.496759759328     -0.392976429728     -0.479139564981     
4200000000.0        -0.404571744496     -0.481313643255     0.594870892994      -0.499366891984     0.594870892994      -0.499366891984     -0.404571744496     -0.481313643255     
4300000000.0        -0.416000283992     -0.483174873803     0.583433712982      -0.501661399856     0.583433712982      -0.501661399856     -0.416000283992     -0.483174873803     
4400000000.0        -0.427256344834     -0.484737916925     0.572168816634      -0.503657947646     0.572168816634      -0.503657947646     -0.427256344834     -0.484737916925     
4500000000.0        -0.438335089991     -0.486017116364     0.56108104047       -0.50537088349      0.56108104047       -0.50537088349      -0.438335089991     -0.486017116364     
4600000000.0        -0.449232489665     -0.487026467899     0.55017441378       -0.506814207551     0.55017441378       -0.506814207551     -0.449232489665     -0.487026467899     
4700000000.0        -0.459945263621     -0.487779593533     0.539452216287      -0.508001546207     0.539452216287      -0.508001546207     -0.459945263621     -0.487779593533     
4800000000.0        -0.470470825284     -0.488289720773     0.528917034054      -0.508946131331     0.528917034054      -0.508946131331     -0.470470825284     -0.488289720773     
4900000000.0        -0.480807227838     -0.488569666542     0.518570813387      -0.509660784204     0.518570813387      -0.509660784204     -0.480807227838     -0.488569666542     
5000000000.0        -0.490953112513     -0.488631825262     0.508414912539      -0.510157903601     0.508414912539      -0.510157903601     -0.490953112513     -0.488631825262     
5100000000.0        -0.500907659204     -0.488488160677     0.498450151098      -0.510449457609     0.498450151098      -0.510449457609     -0.500907659204     -0.488488160677     
5200000000.0        -0.510670539512     -0.488150200989     0.488676856943      -0.510546978769     0.488676856943      -0.510546978769     -0.510670539512     -0.488150200989     
5300000000.0        -0.52024187225      -0.487629036949     0.479094910739      -0.510461562165     0.479094910739      -0.510461562165     -0.52024187225      -0.487629036949     
5400000000.0        -0.52962218145      -0.486935322511     0.469703787923      -0.510203866079     0.469703787923      -0.510203866079     -0.52962218145      -0.486935322511     
5500000000.0        -0.53881235686      -0.486079277738     0.460502598219      -0.509784114896     0.460502598219      -0.509784114896     -0.53881235686      -0.486079277738     
5600000000.0        -0.547813616893     -0.485070693644     0.451490122675      -0.509212103947     0.451490122675      -0.509212103947     -0.547813616893     -0.485070693644     
5700000000.0        -0.556627473995     -0.483918938686     0.442664848308      -0.508497206003     0.442664848308      -0.508497206003     -0.556627473995     -0.483918938686     
5800000000.0        -0.565255702348     -0.482632966657     0.434025000389      -0.507648379171     0.434025000389      -0.507648379171     -0.565255702348     -0.482632966657     
5900000000.0        -0.573700307849     -0.481221325754     0.425568572472      -0.506674175953     0.425568572472      -0.506674175953     -0.573700307849     -0.481221325754     
6000000000.0        -0.58196350027      -0.479692168587     0.417293354226      -0.505582753263     0.417293354226      -0.505582753263     -0.58196350027      -0.479692168587     
6100000000.0        -0.590047667511     -0.478053262972     0.409196957194      -0.504381883221     0.409196957194      -0.504381883221     -0.590047667511     -0.478053262972     
6200000000.0        -0.597955351837     -0.476312003316     0.401276838541      -0.503078964536     0.401276838541      -0.503078964536     -0.597955351837     -0.476312003316     
6300000000.0        -0.605689228017     -0.474475422465     0.393530322925      -0.50168103435      0.393530322925      -0.50168103435      -0.605689228017     -0.474475422465     
6400000000.0        -0.613252083251     -0.472550203867     0.38595462257       -0.500194780411     0.38595462257       -0.500194780411     -0.613252083251     -0.472550203867     
6500000000.0        -0.620646798775     -0.470542693944     0.378546855652      -0.498626553437     0.378546855652      -0.498626553437     -0.620646798775     -0.470542693944     
6600000000.0        -0.627876333071     -0.468458914573     0.371304063098      -0.496982379603     0.371304063098      -0.496982379603     -0.627876333071     -0.468458914573     
6700000000.0        -0.634943706548     -0.46630457559      0.364223223902      -0.49526797304      0.364223223902      -0.49526797304      -0.634943706548     -0.46630457559      
6800000000.0        -0.641851987624     -0.464085087229     0.357301269039      -0.493488748281     0.357301269039      -0.493488748281     -0.641851987624     -0.464085087229     
6900000000.0        -0.648604280103     -0.461805572456     0.350535094095      -0.491649832588     0.350535094095      -0.491649832588     -0.648604280103     -0.461805572456     
7000000000.0        -0.655203711759     -0.459470879118     0.343921570677      -0.489756078106     0.343921570677      -0.489756078106     -0.655203711759     -0.459470879118     
7100000000.0        -0.661653424041     -0.457085591883     0.337457556709      -0.487812073804     0.337457556709      -0.487812073804     -0.661653424041     -0.457085591883     
7200000000.0        -0.667956562818     -0.454654043919     0.331139905691      -0.485822157151     0.331139905691      -0.485822157151     -0.667956562818     -0.454654043919     
7300000000.0        -0.674116270084     -0.452180328289     0.324965474989      -0.483790425514     0.324965474989      -0.483790425514     -0.674116270084     -0.452180328289     
7400000000.0        -0.680135676548     -0.44966830904      0.318931133245      -0.481720747246     0.318931133245      -0.481720747246     -0.680135676548     -0.44966830904      
7500000000.0        -0.686017895043     -0.447121631957     0.313033766973      -0.479616772438     0.313033766973      -0.479616772438     -0.686017895043     -0.447121631957     
7600000000.0        -0.691766014684     -0.444543734976     0.307270286393      -0.47748194334      0.307270286393      -0.47748194334      -0.691766014684     -0.444543734976     
7700000000.0        -0.69738309572      -0.441937858248     0.301637630588      -0.475319504416     0.301637630588      -0.475319504416     -0.69738309572      -0.441937858248     
7800000000.0        -0.702872165007     -0.439307053841     0.296132772023      -0.473132512052     0.296132772023      -0.473132512052     -0.702872165007     -0.439307053841     
7900000000.0        -0.708236212073     -0.43665419508      0.290752720484      -0.470923843896     0.290752720484      -0.470923843896     -0.708236212073     -0.43665419508      
8000000000.0        -0.713478185699     -0.433981985525     0.285494526499      -0.468696207832     0.285494526499      -0.468696207832     -0.713478185699     -0.433981985525     
8100000000.0        -0.718600990982     -0.431292967588     0.280355284267      -0.466452150606     0.280355284267      -0.466452150606     -0.718600990982     -0.431292967588     
8200000000.0        -0.723607486846     -0.428589530797     0.275332134155      -0.464194066077     0.275332134155      -0.464194066077     -0.723607486846     -0.428589530797     
8300000000.0        -0.728500483936     -0.425873919698     0.270422264799      -0.461924203136     0.270422264799      -0.461924203136     -0.728500483936     -0.425873919698     
8400000000.0        -0.733282742882     -0.423148241427     0.265622914846      -0.459644673261     0.265622914846      -0.459644673261     -0.733282742882     -0.423148241427     
8500000000.0        -0.737956972883     -0.420414472929     0.260931374359      -0.457357457749     0.260931374359      -0.457357457749     -0.737956972883     -0.420414472929     
8600000000.0        -0.742525830592     -0.41767446786      0.256344985944      -0.455064414616     0.256344985944      -0.455064414616     -0.742525830592     -0.41767446786      
8700000000.0        -0.746991919257     -0.414929963166     0.251861145601      -0.452767285168     0.251861145601      -0.452767285168     -0.746991919257     -0.414929963166     
8800000000.0        -0.751357788111     -0.412182585348     0.247477303339      -0.450467700277     0.247477303339      -0.450467700277     -0.751357788111     -0.412182585348     
8900000000.0        -0.755625931965     -0.409433856435     0.243190963577      -0.448167186351     0.243190963577      -0.448167186351     -0.755625931965     -0.409433856435     
9000000000.0        -0.759798790999     -0.406685199663     0.238999685359      -0.445867171007     0.238999685359      -0.445867171007     -0.759798790999     -0.406685199663     
9100000000.0        -0.763878750722     -0.403937944877     0.234901082389      -0.443568988483     0.234901082389      -0.443568988483     -0.763878750722     -0.403937944877     
9200000000.0        -0.767868142086     -0.401193333666     0.230892822921      -0.441273884767     0.230892822921      -0.441273884767     -0.767868142086     -0.401193333666     
9300000000.0        -0.771769241726     -0.39845252424      0.226972629516      -0.438983022475     0.226972629516      -0.438983022475     -0.771769241726     -0.39845252424      
9400000000.0        -0.77558427233      -0.39571659606      0.223138278675      -0.436697485483     0.223138278675      -0.436697485483     -0.77558427233      -0.39571659606      
9500000000.0        -0.779315403103     -0.392986554233     0.219387600369      -0.434418283322     0.219387600369      -0.434418283322     -0.779315403103     -0.392986554233     
9600000000.0        -0.782964750331     -0.390263333684     0.215718477483      -0.432146355349     0.215718477483      -0.432146355349     -0.782964750331     -0.390263333684     
9700000000.0        -0.786534378018     -0.387547803103     0.212128845172      -0.429882574694     0.212128845172      -0.429882574694     -0.786534378018     -0.387547803103     
9800000000.0        -0.790026298594     -0.384840768695     0.208616690158      -0.427627752015     0.208616690158      -0.427627752015     -0.790026298594     -0.384840768695     
9900000000.0        -0.793442473683     -0.382142977731     0.205180049958      -0.425382639041     0.205180049958      -0.425382639041     -0.793442473683     -0.382142977731     
10000000000.0       -0.796784814915     -0.379455121912     0.201817012073      -0.423147931943     0.201817012073      -0.423147931943     -0.796784814915     -0.379455121912     
