# Hz S RI R 50.00 
100000000.0         -9.34792653029e-06  -0.00428136185025   0.999961701556      -0.00444182738233   0.999961701556      -0.00444182738233   -9.34792653051e-06  -0.00428136185025   
200000000.0         -7.05984372723e-05  -0.00856225641726   0.999900215501      -0.00888321773217   0.999900215501      -0.00888321773217   -7.05984372723e-05  -0.00856225641726   
300000000.0         -0.000169896526609  -0.0128422386908    0.999800706095      -0.0133237414089    0.999800706095      -0.0133237414089    -0.000169896526609  -0.0128422386908    
400000000.0         -0.000307212930452  -0.0171208499118    0.999663177658      -0.0177629512693    0.999663177658      -0.0177629512693    -0.000307212930452  -0.0171208499118    
500000000.0         -0.000482518549428  -0.0213976240401    0.999487649704      -0.022200390935     0.999487649704      -0.022200390935     -0.000482518549428  -0.0213976240401    
600000000.0         -0.000695778895199  -0.0256720902127    0.99927415183       -0.0266355978869    0.99927415183       -0.0266355978869    -0.000695778895199  -0.0256720902127    
700000000.0         -0.000946952577579  -0.0299437741239    0.999022722531      -0.0310681051722    0.999022722531      -0.0310681051722    -0.000946952577579  -0.0299437741239    
800000000.0         -0.00123599069069   -0.0342121989582    0.998733408825      -0.0354974425348    0.998733408825      -0.0354974425348    -0.00123599069069   -0.0342121989582    
900000000.0         -0.00156283650042   -0.0384768860867    0.99840626613       -0.0399231372456    0.99840626613       -0.0399231372456    -0.00156283650042   -0.0384768860867    
1000000000.0        -0.00192742526171   -0.0427373556331    0.998041358226      -0.0443447147625    0.998041358226      -0.0443447147625    -0.00192742526171   -0.0427373556331    
1100000000.0        -0.00232968410293   -0.0469931269531    0.997638757249      -0.0487616992829    0.997638757249      -0.0487616992829    -0.00232968410293   -0.0469931269531    
1200000000.0        -0.00276953195053   -0.0512437190584    0.99719854369       -0.0531736142232    0.99719854369       -0.0531736142232    -0.00276953195053   -0.0512437190584    
1300000000.0        -0.00324687948075   -0.0554886509997    0.996720806401      -0.0575799826472    0.996720806401      -0.0575799826472    -0.00324687948075   -0.0554886509997    
1400000000.0        -0.00376162909181   -0.0597274422215    0.99620564259       -0.0619803276595    0.99620564259       -0.0619803276595    -0.00376162909181   -0.0597274422215    
1500000000.0        -0.00431367489173   -0.0639596128912    0.995653157816      -0.066374172765     0.995653157816      -0.066374172765     -0.00431367489173   -0.0639596128912    
1600000000.0        -0.00490290270034   -0.0681846842136    0.995063465973      -0.0707610422119    0.995063465973      -0.0707610422119    -0.00490290270034   -0.0681846842136    
1700000000.0        -0.00552919006258   -0.0724021787262    0.994436689263      -0.0751404613105    0.994436689263      -0.0751404613105    -0.00552919006258   -0.0724021787262    
1800000000.0        -0.00619240627291   -0.0766116205854    0.993772958166      -0.0795119567401    0.993772958166      -0.0795119567401    -0.00619240627291   -0.0766116205854    
1900000000.0        -0.00689241240937   -0.0808125358399    0.993072411402      -0.0838750568417    0.993072411402      -0.0838750568417    -0.00689241240937   -0.0808125358399    
2000000000.0        -0.00762906137656   -0.0850044526937    0.99233519588       -0.0882292918973    0.99233519588       -0.0882292918973    -0.00762906137656   -0.0850044526937    
2100000000.0        -0.00840219795746   -0.089186901762     0.991561466649      -0.0925741944014    0.991561466649      -0.0925741944014    -0.00840219795746   -0.089186901762     
2200000000.0        -0.00921165887297   -0.093359416317     0.990751386829      -0.0969092993206    0.990751386829      -0.0969092993206    -0.00921165887297   -0.093359416317     
2300000000.0        -0.0100572728491    -0.097521532527     0.989905127547      -0.101234144345     0.989905127547      -0.101234144345     -0.0100572728491    -0.097521532527     
2400000000.0        -0.0109388606917    -0.101672789688     0.989022867857      -0.105548270133     0.989022867857      -0.105548270133     -0.0109388606917    -0.101672789688     
2500000000.0        -0.0118562353673    -0.105812730447     0.988104794662      -0.109851220542     0.988104794662      -0.109851220542     -0.0118562353673    -0.105812730447     
2600000000.0        -0.0128092020916    -0.109940901022     0.98715110262       -0.114142542863     0.98715110262       -0.114142542863     -0.0128092020916    -0.109940901022     
2700000000.0        -0.0137975584229    -0.114056851411     0.986161994053      -0.118421788035     0.986161994053      -0.118421788035     -0.0137975584229    -0.114056851411     
2800000000.0        -0.0148210943627    -0.118160135597     0.985137678845      -0.122688510859     0.985137678845      -0.122688510859     -0.0148210943627    -0.118160135597     
2900000000.0        -0.0158795924612    -0.122250311745     0.984078374334      -0.126942270207     0.984078374334      -0.126942270207     -0.0158795924612    -0.122250311745     
3000000000.0        -0.0169728279283    -0.126326942398     0.982984305203      -0.13118262922      0.982984305203      -0.13118262922      -0.0169728279283    -0.126326942398     
3100000000.0        -0.0181005687498    -0.130389594655     0.981855703361      -0.135409155499     0.981855703361      -0.135409155499     -0.0181005687498    -0.130389594655     
3200000000.0        -0.0192625758089    -0.13443784036      0.980692807826      -0.13962142129      0.980692807826      -0.13962142129      -0.0192625758089    -0.13443784036      
3300000000.0        -0.0204586030113    -0.138471256265     0.979495864593      -0.14381900367      0.979495864593      -0.14381900367      -0.0204586030113    -0.138471256265     
3400000000.0        -0.0216883974159    -0.142489424206     0.978265126507      -0.148001484712     0.978265126507      -0.148001484712     -0.0216883974159    -0.142489424206     
3500000000.0        -0.0229516993688    -0.146491931259     0.977000853127      -0.152168451656     0.977000853127      -0.152168451656     -0.0229516993688    -0.146491931259     
3600000000.0        -0.0242482426415    -0.150478369895     0.975703310592      -0.156319497067     0.975703310592      -0.156319497067     -0.0242482426415    -0.150478369895     
3700000000.0        -0.0255777545727    -0.154448338132     0.974372771472      -0.160454218992     0.974372771472      -0.160454218992     -0.0255777545727    -0.154448338132     
3800000000.0        -0.0269399562138    -0.158401439674     0.973009514628      -0.164572221102     0.973009514628      -0.164572221102     -0.0269399562138    -0.158401439674     
3900000000.0        -0.0283345624771    -0.162337284054     0.971613825062      -0.16867311284      0.971613825062      -0.16867311284      -0.0283345624771    -0.162337284054     
4000000000.0        -0.029761282288     -0.166255486756     0.970185993762      -0.172756509551     0.970185993762      -0.172756509551     -0.029761282288     -0.166255486756     
4100000000.0        -0.0312198187384    -0.17015566935      0.968726317553      -0.176822032611     0.968726317553      -0.176822032611     -0.0312198187384    -0.17015566935      
4200000000.0        -0.0327098692448    -0.174037459604     0.967235098937      -0.180869309555     0.967235098937      -0.180869309555     -0.0327098692448    -0.174037459604     
4300000000.0        -0.0342311257065    -0.177900491601     0.965712645933      -0.184897974186     0.965712645933      -0.184897974186     -0.0342311257065    -0.177900491601     
4400000000.0        -0.035783274668     -0.181744405845     0.964159271917      -0.188907666692     0.964159271917      -0.188907666692     -0.035783274668     -0.181744405845     
4500000000.0        -0.037365997482     -0.185568849363     0.962575295457      -0.19289803375      0.962575295457      -0.19289803375      -0.037365997482     -0.185568849363     
4600000000.0        -0.0389789704746    -0.189373475802     0.960961040151      -0.196868728619     0.960961040151      -0.196868728619     -0.0389789704746    -0.189373475802     
4700000000.0        -0.0406218651124    -0.193157945517     0.959316834455      -0.200819411242     0.959316834455      -0.200819411242     -0.0406218651124    -0.193157945517     
4800000000.0        -0.0422943481708    -0.19692192566      0.957643011517      -0.204749748325     0.957643011517      -0.204749748325     -0.0422943481708    -0.19692192566      
4900000000.0        -0.0439960819031    -0.200665090252     0.955939909011      -0.208659413423     0.955939909011      -0.208659413423     -0.0439960819031    -0.200665090252     
5000000000.0        -0.0457267242112    -0.204387120265     0.954207868959      -0.212548087014     0.954207868959      -0.212548087014     -0.0457267242112    -0.204387120265     
5100000000.0        -0.0474859288167    -0.208087703682     0.952447237569      -0.216415456569     0.952447237569      -0.216415456569     -0.0474859288167    -0.208087703682     
5200000000.0        -0.0492733454331    -0.211766535564     0.950658365055      -0.220261216617     0.950658365055      -0.220261216617     -0.0492733454331    -0.211766535564     
5300000000.0        -0.0510886199383    -0.215423318106     0.948841605466      -0.224085068803     0.948841605466      -0.224085068803     -0.0510886199383    -0.215423318106     
5400000000.0        -0.0529313945473    -0.219057760688     0.946997316519      -0.227886721943     0.946997316519      -0.227886721943     -0.0529313945473    -0.219057760688     
5500000000.0        -0.054801307985     -0.222669579922     0.945125859419      -0.23166589207      0.945125859419      -0.23166589207      -0.054801307985     -0.222669579922     
5600000000.0        -0.0566979956595    -0.226258499694     0.943227598687      -0.235422302477     0.943227598687      -0.235422302477     -0.0566979956595    -0.226258499694     
5700000000.0        -0.058621089835     -0.229824251199     0.941302901993      -0.239155683758     0.941302901993      -0.239155683758     -0.058621089835     -0.229824251199     
5800000000.0        -0.0605702198038    -0.233366572972     0.939352139977      -0.242865773834     0.939352139977      -0.242865773834     -0.0605702198038    -0.233366572972     
5900000000.0        -0.0625450120593    -0.236885210913     0.937375686077      -0.246552317986     0.937375686077      -0.246552317986     -0.0625450120593    -0.236885210913     
6000000000.0        -0.0645450904665    -0.240379918312     0.935373916364      -0.250215068876     0.935373916364      -0.250215068876     -0.0645450904665    -0.240379918312     
6100000000.0        -0.0665700764337    -0.24385045586      0.933347209362      -0.253853786561     0.933347209362      -0.253853786561     -0.0665700764337    -0.24385045586      
6200000000.0        -0.0686195890819    -0.247296591667     0.931295945887      -0.25746823851      0.931295945887      -0.25746823851      -0.0686195890819    -0.247296591667     
6300000000.0        -0.0706932454139    -0.250718101261     0.92922050887       -0.26105819961      0.92922050887       -0.26105819961      -0.0706932454139    -0.250718101261     
6400000000.0        -0.0727906604825    -0.254114767599     0.927121283196      -0.264623452171     0.927121283196      -0.264623452171     -0.0727906604825    -0.254114767599     
6500000000.0        -0.0749114475563    -0.257486381057     0.924998655533      -0.26816378592      0.924998655533      -0.26816378592      -0.0749114475563    -0.257486381057     
6600000000.0        -0.0770552182859    -0.26083273943      0.922853014166      -0.271678998002     0.922853014166      -0.271678998002     -0.0770552182859    -0.26083273943      
6700000000.0        -0.0792215828669    -0.264153647917     0.920684748839      -0.275168892964     0.920684748839      -0.275168892964     -0.0792215828669    -0.264153647917     
6800000000.0        -0.0814101502028    -0.267448919108     0.918494250587      -0.278633282746     0.918494250587      -0.278633282746     -0.0814101502028    -0.267448919108     
6900000000.0        -0.0836205280651    -0.270718372965     0.916281911576      -0.282071986659     0.916281911576      -0.282071986659     -0.0836205280651    -0.270718372965     
7000000000.0        -0.0858523232522    -0.2739618368       0.914048124947      -0.285484831364     0.914048124947      -0.285484831364     -0.0858523232522    -0.2739618368       
7100000000.0        -0.0881051417466    -0.277179145243     0.911793284659      -0.288871650845     0.911793284659      -0.288871650845     -0.0881051417466    -0.277179145243     
7200000000.0        -0.0903785888692    -0.28037014022      0.909517785329      -0.292232286381     0.909517785329      -0.292232286381     -0.0903785888692    -0.28037014022      
7300000000.0        -0.092672269433     -0.283534670911     0.907222022087      -0.29556658651      0.907222022087      -0.29556658651      -0.092672269433     -0.283534670911     
7400000000.0        -0.0949857878933    -0.286672593716     0.904906390417      -0.298874406992     0.904906390417      -0.298874406992     -0.0949857878933    -0.286672593716     
7500000000.0        -0.0973187484964    -0.289783772214     0.902571286015      -0.302155610769     0.902571286015      -0.302155610769     -0.0973187484964    -0.289783772214     
7600000000.0        -0.0996707554263    -0.292868077117     0.900217104639      -0.30541006792      0.900217104639      -0.30541006792      -0.0996707554263    -0.292868077117     
7700000000.0        -0.102041412948     -0.295925386221     0.897844241966      -0.308637655613     0.897844241966      -0.308637655613     -0.102041412948     -0.295925386221     
7800000000.0        -0.104430325549     -0.298955584358     0.895453093451      -0.311838258058     0.895453093451      -0.311838258058     -0.104430325549     -0.298955584358     
7900000000.0        -0.10683709808      -0.301958563339     0.893044054187      -0.315011766445     0.893044054187      -0.315011766445     -0.10683709808      -0.301958563339     
8000000000.0        -0.109261335889     -0.304934221899     0.89061751877       -0.318158078897     0.89061751877       -0.318158078897     -0.109261335889     -0.304934221899     
8100000000.0        -0.111702644957     -0.307882465637     0.888173881162      -0.321277100405     0.888173881162      -0.321277100405     -0.111702644957     -0.307882465637     
8200000000.0        -0.114160632027     -0.310803206951     0.885713534564      -0.324368742763     0.885713534564      -0.324368742763     -0.114160632027     -0.310803206951     
8300000000.0        -0.116634904736     -0.313696364978     0.883236871283      -0.327432924512     0.883236871283      -0.327432924512     -0.116634904736     -0.313696364978     
8400000000.0        -0.11912507174      -0.316561865519     0.880744282609      -0.330469570862     0.880744282609      -0.330469570862     -0.11912507174      -0.316561865519     
8500000000.0        -0.121630742833     -0.319399640977     0.878236158691      -0.333478613631     0.878236158691      -0.333478613631     -0.121630742833     -0.319399640977     
8600000000.0        -0.124151529074     -0.322209630278     0.875712888418      -0.336459991168     0.875712888418      -0.336459991168     -0.124151529074     -0.322209630278     
8700000000.0        -0.1266870429       -0.3249917788       0.873174859298      -0.339413648278     0.873174859298      -0.339413648278     -0.1266870429       -0.3249917788       
8800000000.0        -0.129236898241     -0.327746038296     0.870622457346      -0.342339536149     0.870622457346      -0.342339536149     -0.129236898241     -0.327746038296     
8900000000.0        -0.131800710634     -0.330472366815     0.868056066973      -0.345237612271     0.868056066973      -0.345237612271     -0.131800710634     -0.330472366815     
9000000000.0        -0.134378097329     -0.33317072862      0.865476070873      -0.348107840356     0.865476070873      -0.348107840356     -0.134378097329     -0.33317072862      
9100000000.0        -0.136968677397     -0.33584109411      0.862882849923      -0.350950190258     0.862882849923      -0.350950190258     -0.136968677397     -0.33584109411      
9200000000.0        -0.139572071834     -0.338483439733     0.860276783075      -0.353764637886     0.860276783075      -0.353764637886     -0.139572071834     -0.338483439733     
9300000000.0        -0.142187903658     -0.341097747898     0.857658247257      -0.356551165119     0.857658247257      -0.356551165119     -0.142187903658     -0.341097747898     
9400000000.0        -0.144815798008     -0.343684006894     0.855027617278      -0.359309759721     0.855027617278      -0.359309759721     -0.144815798008     -0.343684006894     
9500000000.0        -0.14745538224      -0.3462422108       0.852385265731      -0.362040415253     0.852385265731      -0.362040415253     -0.14745538224      -0.3462422108       
9600000000.0        -0.150106286013     -0.34877235939      0.849731562902      -0.364743130982     0.849731562902      -0.364743130982     -0.150106286013     -0.34877235939      
9700000000.0        -0.152768141383     -0.35127445805      0.847066876685      -0.367417911789     0.847066876685      -0.367417911789     -0.152768141383     -0.35127445805      
9800000000.0        -0.155440582887     -0.353748517682     0.844391572492      -0.37006476808      0.844391572492      -0.37006476808      -0.155440582887     -0.353748517682     
9900000000.0        -0.158123247623     -0.356194554612     0.841706013172      -0.372683715692     0.841706013172      -0.372683715692     -0.158123247623     -0.356194554612     
10000000000.0       -0.160815775331     -0.358612590494     0.839010558935      -0.375274775798     0.839010558935      -0.375274775798     -0.160815775331     -0.358612590494     
