# Hz S RI R 50.00 
100000000.0         0.0162190840295     0.00179579401846    0.983778639938      -0.00271160227073   0.983778639938      -0.00271160227073   0.0162190840295     0.00179579401846    
200000000.0         0.0163390704631     0.00359055791218    0.983656534076      -0.00542217940115   0.983656534076      -0.00542217940115   0.0163390704631     0.00359055791218    
300000000.0         0.0164405021748     0.00538461882771    0.983552139451      -0.0081320622993    0.983552139451      -0.0081320622993    0.0164405021748     0.00538461882771    
400000000.0         0.0165372898832     0.00717804817079    0.983451545258      -0.0108413254603    0.983451545258      -0.0108413254603    0.0165372898832     0.00717804817079    
500000000.0         0.0166347979091     0.00897085787803    0.983349387087      -0.0135499835733    0.983349387087      -0.0135499835733    0.0166347979091     0.00897085787803    
600000000.0         0.0167357645063     0.0107630335688     0.983242926589      -0.0162580247906    0.983242926589      -0.0162580247906    0.0167357645063     0.0107630335688     
700000000.0         0.0168418079107     0.0125545464522     0.983130545426      -0.0189654226948    0.983130545426      -0.0189654226948    0.0168418079107     0.0125545464522     
800000000.0         0.016953976341      0.0143453588508     0.983011195268      -0.0216721418578    0.983011195268      -0.0216721418578    0.016953976341      0.0143453588508     
900000000.0         0.0170729930313     0.0161354271672     0.982884152764      -0.0243781408316    0.982884152764      -0.0243781408316    0.0170729930313     0.0161354271672     
1000000000.0        0.0171993805027     0.0179247036425     0.982748895268      -0.0270833739222    0.982748895268      -0.0270833739222    0.0171993805027     0.0179247036425     
1100000000.0        0.0173335296833     0.0197131374727     0.982605031717      -0.0297877923196    0.982605031717      -0.0297877923196    0.0173335296833     0.0197131374727     
1200000000.0        0.0174757411159     0.021500675559      0.982452261428      -0.0324913448559    0.982452261428      -0.0324913448559    0.0174757411159     0.021500675559      
1300000000.0        0.0176262508988     0.0232872630309     0.982290348154      -0.0351939785368    0.982290348154      -0.0351939785368    0.0176262508988     0.0232872630309     
1400000000.0        0.0177852477447     0.0250728436269     0.982119103025      -0.0378956389273    0.982119103025      -0.0378956389273    0.0177852477447     0.0250728436269     
1500000000.0        0.0179528846116     0.0268573599762     0.981938372919      -0.0405962704392    0.981938372919      -0.0405962704392    0.0179528846116     0.0268573599762     
1600000000.0        0.0181292868758     0.0286407538157     0.981748032287      -0.0432958165512    0.981748032287      -0.0432958165512    0.0181292868758     0.0286407538157     
1700000000.0        0.0183145582244     0.0304229661579     0.981547977264      -0.0459942199802    0.981547977264      -0.0459942199802    0.0183145582244     0.0304229661579     
1800000000.0        0.0185087850002     0.0322039374248     0.981338121318      -0.0486914228189    0.981338121318      -0.0486914228189    0.0185087850002     0.0322039374248     
1900000000.0        0.0187120394668     0.0339836075558     0.981118391991      -0.0513873666454    0.981118391991      -0.0513873666454    0.0187120394668     0.0339836075558     
2000000000.0        0.0189243823047     0.0357619160966     0.980888728402      -0.0540819926142    0.980888728402      -0.0540819926142    0.0189243823047     0.0357619160966     
2100000000.0        0.0191458645486     0.0375388022721     0.980649079307      -0.056775241532     0.980649079307      -0.056775241532     0.0191458645486     0.0375388022721     
2200000000.0        0.0193765291119     0.0393142050486     0.980399401574      -0.0594670539203    0.980399401574      -0.0594670539203    0.0193765291119     0.0393142050486     
2300000000.0        0.0196164120001     0.0410880631863     0.980139658976      -0.0621573700699    0.980139658976      -0.0621573700699    0.0196164120001     0.0410880631863     
2400000000.0        0.0198655432875     0.0428603152837     0.979869821207      -0.0648461300873    0.979869821207      -0.0648461300873    0.0198655432875     0.0428603152837     
2500000000.0        0.0201239479117     0.0446308998174     0.979589863091      -0.0675332739344    0.979589863091      -0.0675332739344    0.0201239479117     0.0446308998174     
2600000000.0        0.0203916463253     0.0463997551757     0.97929976393       -0.0702187414645    0.97929976393       -0.0702187414645    0.0203916463253     0.0463997551757     
2700000000.0        0.0206686550353     0.048166819689      0.978999506966      -0.0729024724525    0.978999506966      -0.0729024724525    0.0206686550353     0.048166819689      
2800000000.0        0.0209549870526     0.0499320316561     0.978689078929      -0.0755844066233    0.978689078929      -0.0755844066233    0.0209549870526     0.0499320316561     
2900000000.0        0.0212506522697     0.0516953293687     0.97836846966       -0.078264483676     0.97836846966       -0.078264483676     0.0212506522697     0.0516953293687     
3000000000.0        0.0215556577802     0.0534566511322     0.978037671793      -0.0809426433062    0.978037671793      -0.0809426433062    0.0215556577802     0.0534566511322     
3100000000.0        0.0218700081497     0.0552159352861     0.977696680483      -0.0836188252267    0.977696680483      -0.0836188252267    0.0218700081497     0.0552159352861     
3200000000.0        0.022193705649      0.0569731202208     0.977345493172      -0.0862929691854    0.977345493172      -0.0862929691854    0.022193705649      0.0569731202208     
3300000000.0        0.0225267504535     0.0587281443949     0.976984109393      -0.0889650149826    0.976984109393      -0.0889650149826    0.0225267504535     0.0587281443949     
3400000000.0        0.0228691408163     0.0604809463496     0.976612530592      -0.0916349024864    0.976612530592      -0.0916349024864    0.0228691408163     0.0604809463496     
3500000000.0        0.023220873218      0.062231464723      0.976230759983      -0.0943025716474    0.976230759983      -0.0943025716474    0.023220873218      0.062231464723      
3600000000.0        0.0235819424986     0.0639796382629     0.975838802412      -0.0969679625119    0.975838802412      -0.0969679625119    0.0235819424986     0.0639796382629     
3700000000.0        0.0239523419717     0.0657254058391     0.975436664247      -0.0996310152347    0.975436664247      -0.0996310152347    0.0239523419717     0.0657254058391     
3800000000.0        0.0243320635263     0.0674687064547     0.975024353272      -0.102291670091     0.975024353272      -0.102291670091     0.0243320635263     0.0674687064547     
3900000000.0        0.0247210977161     0.0692094792567     0.974601878602      -0.104949867487     0.974601878602      -0.104949867487     0.0247210977161     0.0692094792567     
4000000000.0        0.0251194338391     0.0709476635466     0.974169250599      -0.107605547971     0.974169250599      -0.107605547971     0.0251194338391     0.0709476635466     
4100000000.0        0.0255270600083     0.0726831987896     0.973726480805      -0.110258652244     0.973726480805      -0.110258652244     0.0255270600083     0.0726831987896     
4200000000.0        0.0259439632149     0.0744160246239     0.973273581877      -0.112909121168     0.973273581877      -0.112909121168     0.0259439632149     0.0744160246239     
4300000000.0        0.0263701293855     0.0761460808695     0.972810567531      -0.115556895774     0.972810567531      -0.115556895774     0.0263701293855     0.0761460808695     
4400000000.0        0.0268055434328     0.0778733075365     0.97233745249       -0.118201917273     0.97233745249       -0.118201917273     0.0268055434328     0.0778733075365     
4500000000.0        0.027250189302      0.0795976448329     0.971854252437      -0.120844127066     0.971854252437      -0.120844127066     0.027250189302      0.0795976448329     
4600000000.0        0.027704050013      0.0813190331729     0.971360983976      -0.123483466746     0.971360983976      -0.123483466746     0.027704050013      0.0813190331729     
4700000000.0        0.0281671076978     0.0830374131835     0.970857664592      -0.126119878109     0.970857664592      -0.126119878109     0.0281671076978     0.0830374131835     
4800000000.0        0.0286393436358     0.0847527257122     0.970344312615      -0.128753303165     0.970344312615      -0.128753303165     0.0286393436358     0.0847527257122     
4900000000.0        0.0291207382854     0.0864649118339     0.969820947193      -0.131383684137     0.969820947193      -0.131383684137     0.0291207382854     0.0864649118339     
5000000000.0        0.0296112713133     0.0881739128569     0.969287588256      -0.134010963475     0.969287588256      -0.134010963475     0.0296112713133     0.0881739128569     
5100000000.0        0.0301109216211     0.0898796703304     0.968744256495      -0.136635083861     0.968744256495      -0.136635083861     0.0301109216211     0.0898796703304     
5200000000.0        0.0306196673701     0.0915821260497     0.968190973336      -0.139255988212     0.968190973336      -0.139255988212     0.0306196673701     0.0915821260497     
5300000000.0        0.0311374860045     0.0932812220631     0.967627760914      -0.14187361969      0.967627760914      -0.14187361969      0.0311374860045     0.0932812220631     
5400000000.0        0.0316643542726     0.0949769006773     0.967054642055      -0.144487921708     0.967054642055      -0.144487921708     0.0316643542726     0.0949769006773     
5500000000.0        0.0322002482466     0.0966691044634     0.966471640254      -0.147098837932     0.966471640254      -0.147098837932     0.0322002482466     0.0966691044634     
5600000000.0        0.0327451433411     0.0983577762623     0.965878779659      -0.149706312293     0.965878779659      -0.149706312293     0.0327451433411     0.0983577762623     
5700000000.0        0.0332990143302     0.10004285919       0.965276085053      -0.152310288987     0.965276085053      -0.152310288987     0.0332990143302     0.10004285919       
5800000000.0        0.0338618353646     0.101724296644      0.964663581834      -0.154910712482     0.964663581834      -0.154910712482     0.0338618353646     0.101724296644      
5900000000.0        0.0344335799858     0.103402032307      0.964041296004      -0.157507527527     0.964041296004      -0.157507527527     0.0344335799858     0.103402032307      
6000000000.0        0.0350142211414     0.105076010151      0.963409254156      -0.160100679152     0.963409254156      -0.160100679152     0.0350142211414     0.105076010151      
6100000000.0        0.0356037311985     0.106746174448      0.962767483454      -0.162690112675     0.962767483454      -0.162690112675     0.0356037311985     0.106746174448      
6200000000.0        0.0362020819567     0.108412469765      0.962116011624      -0.165275773708     0.962116011624      -0.165275773708     0.0362020819567     0.108412469765      
6300000000.0        0.0368092446601     0.11007484098       0.961454866944      -0.16785760816      0.961454866944      -0.16785760816      0.0368092446601     0.11007484098       
6400000000.0        0.0374251900097     0.111733233276      0.960784078228      -0.170435562245     0.960784078228      -0.170435562245     0.0374251900097     0.111733233276      
6500000000.0        0.038049888174      0.113387592153      0.960103674815      -0.173009582482     0.960103674815      -0.173009582482     0.038049888174      0.113387592153      
6600000000.0        0.0386833088003     0.11503786343       0.959413686561      -0.175579615703     0.959413686561      -0.175579615703     0.0386833088003     0.11503786343       
6700000000.0        0.0393254210244     0.116683993247      0.95871414383       -0.178145609056     0.95871414383       -0.178145609056     0.0393254210244     0.116683993247      
6800000000.0        0.0399761934811     0.118325928073      0.958005077476      -0.180707510009     0.958005077476      -0.180707510009     0.0399761934811     0.118325928073      
6900000000.0        0.0406355943134     0.119963614709      0.957286518843      -0.183265266357     0.957286518843      -0.183265266357     0.0406355943134     0.119963614709      
7000000000.0        0.0413035911817     0.121597000289      0.956558499752      -0.185818826221     0.956558499752      -0.185818826221     0.0413035911817     0.121597000289      
7100000000.0        0.041980151273      0.123226032288      0.955821052489      -0.188368138056     0.955821052489      -0.188368138056     0.041980151273      0.123226032288      
7200000000.0        0.0426652413092     0.124850658523      0.955074209801      -0.190913150655     0.955074209801      -0.190913150655     0.0426652413092     0.124850658523      
7300000000.0        0.0433588275557     0.126470827159      0.954318004886      -0.19345381315      0.954318004886      -0.19345381315      0.0433588275557     0.126470827159      
7400000000.0        0.0440608758295     0.128086486711      0.953552471384      -0.195990075019     0.953552471384      -0.195990075019     0.0440608758295     0.128086486711      
7500000000.0        0.0447713515072     0.129697586048      0.952777643371      -0.198521886087     0.952777643371      -0.198521886087     0.0447713515072     0.129697586048      
7600000000.0        0.0454902195326     0.131304074396      0.951993555349      -0.201049196531     0.951993555349      -0.201049196531     0.0454902195326     0.131304074396      
7700000000.0        0.0462174444241     0.132905901345      0.95120024224       -0.203571956884     0.95120024224       -0.203571956884     0.0462174444241     0.132905901345      
7800000000.0        0.0469529902828     0.134503016845      0.950397739378      -0.206090118036     0.950397739378      -0.206090118036     0.0469529902828     0.134503016845      
7900000000.0        0.0476968207988     0.136095371217      0.949586082502      -0.208603631241     0.949586082502      -0.208603631241     0.0476968207988     0.136095371217      
8000000000.0        0.0484488992591     0.137682915152      0.948765307749      -0.211112448117     0.948765307749      -0.211112448117     0.0484488992591     0.137682915152      
8100000000.0        0.0492091885539     0.139265599713      0.947935451646      -0.213616520651     0.947935451646      -0.213616520651     0.0492091885539     0.139265599713      
8200000000.0        0.0499776511841     0.140843376344      0.947096551105      -0.216115801201     0.947096551105      -0.216115801201     0.0499776511841     0.140843376344      
8300000000.0        0.0507542492674     0.142416196864      0.946248643416      -0.218610242499     0.946248643416      -0.218610242499     0.0507542492674     0.142416196864      
8400000000.0        0.0515389445456     0.143984013479      0.945391766239      -0.221099797657     0.945391766239      -0.221099797657     0.0515389445456     0.143984013479      
8500000000.0        0.0523316983903     0.145546778779      0.944525957596      -0.223584420166     0.944525957596      -0.223584420166     0.0523316983903     0.145546778779      
8600000000.0        0.0531324718103     0.147104445742      0.943651255871      -0.226064063899     0.943651255871      -0.226064063899     0.0531324718103     0.147104445742      
8700000000.0        0.0539412254571     0.148656967738      0.942767699796      -0.228538683117     0.942767699796      -0.228538683117     0.0539412254571     0.148656967738      
8800000000.0        0.0547579196318     0.15020429853       0.941875328451      -0.231008232469     0.941875328451      -0.231008232469     0.0547579196318     0.15020429853       
8900000000.0        0.055582514291      0.151746392276      0.940974181251      -0.233472666994     0.940974181251      -0.233472666994     0.055582514291      0.151746392276      
9000000000.0        0.056414969053      0.153283203536      0.940064297947      -0.235931942126     0.940064297947      -0.235931942126     0.056414969053      0.153283203536      
9100000000.0        0.057255243204      0.154814687268      0.939145718617      -0.238386013696     0.939145718617      -0.238386013696     0.057255243204      0.154814687268      
9200000000.0        0.058103295704      0.156340798835      0.938218483656      -0.240834837932     0.938218483656      -0.240834837932     0.058103295704      0.156340798835      
9300000000.0        0.0589590851927     0.157861494003      0.937282633779      -0.243278371463     0.937282633779      -0.243278371463     0.0589590851927     0.157861494003      
9400000000.0        0.0598225699958     0.15937672895       0.936338210005      -0.245716571322     0.936338210005      -0.245716571322     0.0598225699958     0.15937672895       
9500000000.0        0.0606937081302     0.16088646026       0.935385253658      -0.248149394946     0.935385253658      -0.248149394946     0.0606937081302     0.16088646026       
9600000000.0        0.0615724573105     0.162390644931      0.93442380636       -0.25057680018      0.93442380636       -0.25057680018      0.0615724573105     0.162390644931      
9700000000.0        0.0624587749545     0.163889240374      0.933453910024      -0.252998745279     0.933453910024      -0.252998745279     0.0624587749545     0.163889240374      
9800000000.0        0.0633526181889     0.165382204416      0.932475606847      -0.255415188908     0.932475606847      -0.255415188908     0.0633526181889     0.165382204416      
9900000000.0        0.0642539438549     0.166869495301      0.931488939307      -0.257826090147     0.931488939307      -0.257826090147     0.0642539438549     0.166869495301      
10000000000.0       0.065162708514      0.168351071694      0.930493950158      -0.260231408488     0.930493950158      -0.260231408488     0.065162708514      0.168351071694      
