# Hz S RI R 50.00 
100000000.0         3.86295325032e-05   -0.002668121194     0.999937838297      -0.00313940428154   0.999937838297      -0.00313940428154   3.86295325032e-05   -0.002668121194     
200000000.0         1.10048066102e-05   -0.00533632311354   0.999909197634      -0.00627892914119   0.999909197634      -0.00627892914119   1.100480661e-05     -0.00533632311354   
300000000.0         -3.34672842939e-05  -0.00800459023651   0.999863662015      -0.00941858022884   0.999863662015      -0.00941858022884   -3.34672842938e-05  -0.00800459023651   
400000000.0         -9.47485589109e-05  -0.0106728744182    0.999801182681      -0.0125583256519    0.999801182681      -0.0125583256519    -9.47485589106e-05  -0.0106728744182    
500000000.0         -0.000172827799641  -0.0133411102533    0.999721737393      -0.0156981138108    0.999721737393      -0.0156981138108    -0.000172827799641  -0.0133411102533    
600000000.0         -0.00026770187162   -0.0160092205718    0.999625312195      -0.0188378797416    0.999625312195      -0.0188378797416    -0.000267701871621  -0.0160092205718    
700000000.0         -0.000379370778936  -0.0186771192958    0.999511896935      -0.0219775484027    0.999511896935      -0.0219775484027    -0.000379370778936  -0.0186771192958    
800000000.0         -0.00050783576433   -0.0213447131864    0.99938148374       -0.0251170366776    0.99938148374       -0.0251170366776    -0.00050783576433   -0.0213447131864    
900000000.0         -0.000653098394512  -0.0240119030239    0.999234066402      -0.0282562547253    0.999234066402      -0.0282562547253    -0.000653098394511  -0.0240119030239    
1000000000.0        -0.000815160045082  -0.0266785844613    0.999069640123      -0.0313951069525    0.999069640123      -0.0313951069525    -0.000815160045082  -0.0266785844613    
1100000000.0        -0.000994021574365  -0.0293446486739    0.998888201415      -0.0345334927516    0.998888201415      -0.0345334927516    -0.000994021574365  -0.0293446486739    
1200000000.0        -0.00118968309741   -0.0320099828723    0.998689748069      -0.0376713070817    0.998689748069      -0.0376713070817    -0.00118968309741   -0.0320099828723    
1300000000.0        -0.00140214381823   -0.0346744707217    0.998474279167      -0.0408084409415    0.998474279167      -0.0408084409415    -0.00140214381823   -0.0346744707217    
1400000000.0        -0.00163140189852   -0.0373379926917    0.998241795106      -0.0439447817624    0.998241795106      -0.0439447817624    -0.00163140189852   -0.0373379926917    
1500000000.0        -0.001877454351     -0.0400004263567    0.997992297635      -0.0470802137447    0.997992297635      -0.0470802137447    -0.001877454351     -0.0400004263567    
1600000000.0        -0.00214029694982   -0.0426616466556    0.997725789895      -0.0502146181478    0.997725789895      -0.0502146181478    -0.00214029694982   -0.0426616466556    
1700000000.0        -0.00241992415408   -0.0453215261219    0.997442276459      -0.0533478735456    0.997442276459      -0.0533478735456    -0.00241992415408   -0.0453215261219    
1800000000.0        -0.00271632904118   -0.047979935089     0.997141763374      -0.0564798560544    0.997141763374      -0.0564798560544    -0.00271632904118   -0.047979935089     
1900000000.0        -0.00302950324817   -0.0506367418762    0.996824258198      -0.0596104395378    0.996824258198      -0.0596104395378    -0.00302950324817   -0.0506367418762    
2000000000.0        -0.00335943691981   -0.0532918129578    0.99648977004       -0.0627394957934    0.99648977004       -0.0627394957934    -0.00335943691981   -0.0532918129578    
2100000000.0        -0.00370611866214   -0.0559450131194    0.996138309595      -0.0658668947232    0.996138309595      -0.0658668947232    -0.00370611866214   -0.0559450131194    
2200000000.0        -0.00406953550093   -0.0585962056016    0.995769889171      -0.0689925044921    0.995769889171      -0.0689925044921    -0.00406953550093   -0.0585962056016    
2300000000.0        -0.00444967284445   -0.061245252235     0.995384522727      -0.0721161916738    0.995384522727      -0.0721161916738    -0.00444967284445   -0.061245252235     
2400000000.0        -0.00484651445002   -0.0638920135656    0.994982225897      -0.0752378213884    0.994982225897      -0.0752378213884    -0.00484651445002   -0.0638920135656    
2500000000.0        -0.00526004239401   -0.0665363489741    0.994563016014      -0.0783572574305    0.994563016014      -0.0783572574305    -0.00526004239401   -0.0665363489741    
2600000000.0        -0.0056902370451    -0.0691781167872    0.994126912138      -0.0814743623907    0.994126912138      -0.0814743623907    -0.0056902370451    -0.0691781167872    
2700000000.0        -0.00613707704027   -0.0718171743843    0.99367393507       -0.08458899777      0.99367393507       -0.08458899777      -0.00613707704027   -0.0718171743843    
2800000000.0        -0.0066005392637    -0.0744533782986    0.993204107379      -0.0877010240887    0.993204107379      -0.0877010240887    -0.0066005392637    -0.0744533782986    
2900000000.0        -0.00708059882802   -0.0770865843129    0.992717453411      -0.09081030099      0.992717453411      -0.09081030099      -0.00708059882802   -0.0770865843129    
3000000000.0        -0.00757722905804   -0.0797166475527    0.992213999308      -0.0939166873389    0.992213999308      -0.0939166873389    -0.00757722905804   -0.0797166475527    
3100000000.0        -0.00809040147658   -0.0823434225737    0.99169377302       -0.0970200413163    0.99169377302       -0.0970200413163    -0.00809040147658   -0.0823434225737    
3200000000.0        -0.00862008579255   -0.0849667634471    0.991156804316      -0.10012022051      0.991156804316      -0.10012022051      -0.00862008579255   -0.0849667634471    
3300000000.0        -0.00916624989087   -0.0875865238409    0.990603124791      -0.103217082001     0.990603124791      -0.103217082001     -0.00916624989087   -0.0875865238409    
3400000000.0        -0.00972885982437   -0.0902025570985    0.990032767876      -0.106310482448     0.990032767876      -0.106310482448     -0.00972885982437   -0.0902025570985    
3500000000.0        -0.0103078798074    -0.0928147163144    0.989445768842      -0.109400278167     0.989445768842      -0.109400278167     -0.0103078798074    -0.0928147163144    
3600000000.0        -0.0109032722114    -0.0954228544071    0.988842164805      -0.112486325209     0.988842164805      -0.112486325209     -0.0109032722114    -0.0954228544071    
3700000000.0        -0.0115149975615    -0.09802682419      0.988221994725      -0.115568479434     0.988221994725      -0.115568479434     -0.0115149975615    -0.09802682419      
3800000000.0        -0.0121430145355    -0.100626478439     0.987585299415      -0.118646596586     0.987585299415      -0.118646596586     -0.0121430145355    -0.100626478439     
3900000000.0        -0.0127872799637    -0.103221669961     0.98693212153       -0.121720532359     0.98693212153       -0.121720532359     -0.0127872799637    -0.103221669961     
4000000000.0        -0.0134477488304    -0.105812251652     0.986262505575      -0.124790142467     0.986262505575      -0.124790142467     -0.0134477488304    -0.105812251652     
4100000000.0        -0.0141243742767    -0.108398076567     0.985576497895      -0.127855282709     0.985576497895      -0.127855282709     -0.0141243742767    -0.108398076567     
4200000000.0        -0.0148171076047    -0.110978997973     0.984874146673      -0.13091580903      0.984874146673      -0.13091580903      -0.0148171076047    -0.110978997973     
4300000000.0        -0.0155258982829    -0.113554869414     0.984155501927      -0.133971577585     0.984155501927      -0.133971577585     -0.0155258982829    -0.113554869414     
4400000000.0        -0.0162506939528    -0.116125544759     0.983420615497      -0.137022444799     0.983420615497      -0.137022444799     -0.0162506939528    -0.116125544759     
4500000000.0        -0.0169914404367    -0.118690878266     0.982669541043      -0.14006826742      0.982669541043      -0.14006826742      -0.0169914404367    -0.118690878266     
4600000000.0        -0.0177480817465    -0.121250724629     0.981902334035      -0.14310890258      0.981902334035      -0.14310890258      -0.0177480817465    -0.121250724629     
4700000000.0        -0.0185205600936    -0.123804939031     0.981119051738      -0.146144207845     0.981119051738      -0.146144207845     -0.0185205600936    -0.123804939031     
4800000000.0        -0.0193088159       -0.126353377196     0.980319753208      -0.14917404127      0.980319753208      -0.14917404127      -0.0193088159       -0.126353377196     
4900000000.0        -0.02011278781      -0.128895895435     0.979504499275      -0.15219826145      0.979504499275      -0.15219826145      -0.02011278781      -0.128895895435     
5000000000.0        -0.0209324127034    -0.131432350697     0.978673352531      -0.155216727567     0.978673352531      -0.155216727567     -0.0209324127034    -0.131432350697     
5100000000.0        -0.021767625709     -0.13396260061      0.977826377319      -0.158229299439     0.977826377319      -0.158229299439     -0.021767625709     -0.13396260061      
5200000000.0        -0.0226183602196    -0.13648650353      0.976963639713      -0.16123583757      0.976963639713      -0.16123583757      -0.0226183602196    -0.13648650353      
5300000000.0        -0.0234845479068    -0.139003918581     0.976085207509      -0.164236203187     0.976085207509      -0.164236203187     -0.0234845479068    -0.139003918581     
5400000000.0        -0.0243661187383    -0.1415147057       0.975191150202      -0.167230258293     0.975191150202      -0.167230258293     -0.0243661187383    -0.1415147057       
5500000000.0        -0.0252630009939    -0.144018725675     0.974281538974      -0.170217865703     0.974281538974      -0.170217865703     -0.0252630009939    -0.144018725675     
5600000000.0        -0.0261751212839    -0.146515840186     0.973356446673      -0.173198889087     0.973356446673      -0.173198889087     -0.0261751212839    -0.146515840186     
5700000000.0        -0.0271024045677    -0.149005911844     0.972415947796      -0.17617319301      0.972415947796      -0.17617319301      -0.0271024045677    -0.149005911844     
5800000000.0        -0.0280447741724    -0.151488804224     0.971460118471      -0.179140642971     0.971460118471      -0.179140642971     -0.0280447741724    -0.151488804224     
5900000000.0        -0.029002151813     -0.153964381909     0.970489036434      -0.182101105441     0.970489036434      -0.182101105441     -0.029002151813     -0.153964381909     
6000000000.0        -0.0299744576128    -0.156432510517     0.969502781011      -0.185054447896     0.969502781011      -0.185054447896     -0.0299744576128    -0.156432510517     
6100000000.0        -0.030961610124     -0.158893056739     0.968501433095      -0.188000538857     0.968501433095      -0.188000538857     -0.030961610124     -0.158893056739     
6200000000.0        -0.03196352635      -0.161345888371     0.967485075128      -0.190939247918     0.967485075128      -0.190939247918     -0.03196352635      -0.161345888371     
6300000000.0        -0.0329801217666    -0.163790874344     0.966453791075      -0.193870445785     0.966453791075      -0.193870445785     -0.0329801217666    -0.163790874344     
6400000000.0        -0.0340113103455    -0.16622788476      0.965407666403      -0.196794004304     0.965407666403      -0.196794004304     -0.0340113103455    -0.16622788476      
6500000000.0        -0.0350570045766    -0.168656790913     0.964346788058      -0.199709796492     0.964346788058      -0.199709796492     -0.0350570045766    -0.168656790913     
6600000000.0        -0.036117115492     -0.171077465327     0.963271244442      -0.20261769657      0.963271244442      -0.20261769657      -0.036117115492     -0.171077465327     
6700000000.0        -0.0371915526898    -0.173489781778     0.962181125388      -0.205517579985     0.962181125388      -0.205517579985     -0.0371915526898    -0.173489781778     
6800000000.0        -0.0382802243586    -0.175893615319     0.961076522134      -0.208409323445     0.961076522134      -0.208409323445     -0.0382802243586    -0.175893615319     
6900000000.0        -0.0393830373022    -0.178288842314     0.959957527303      -0.211292804941     0.959957527303      -0.211292804941     -0.0393830373022    -0.178288842314     
7000000000.0        -0.0404998969645    -0.180675340455     0.958824234874      -0.214167903774     0.958824234874      -0.214167903774     -0.0404998969645    -0.180675340455     
7100000000.0        -0.0416307074556    -0.183052988787     0.957676740157      -0.217034500579     0.957676740157      -0.217034500579     -0.0416307074556    -0.183052988787     
7200000000.0        -0.042775371577     -0.185421667735     0.956515139767      -0.219892477351     0.956515139767      -0.219892477351     -0.042775371577     -0.185421667735     
7300000000.0        -0.043933790848     -0.187781259123     0.955339531601      -0.222741717465     0.955339531601      -0.222741717465     -0.043933790848     -0.187781259123     
7400000000.0        -0.045105865532     -0.190131646197     0.954150014807      -0.2255821057       0.954150014807      -0.2255821057       -0.045105865532     -0.190131646197     
7500000000.0        -0.0462914946632    -0.192472713643     0.952946689761      -0.228413528259     0.952946689761      -0.228413528259     -0.0462914946632    -0.192472713643     
7600000000.0        -0.0474905760735    -0.194804347607     0.951729658036      -0.23123587279      0.951729658036      -0.23123587279      -0.0474905760735    -0.194804347607     
7700000000.0        -0.0487030064198    -0.197126435717     0.950499022381      -0.234049028403     0.950499022381      -0.234049028403     -0.0487030064198    -0.197126435717     
7800000000.0        -0.0499286812108    -0.199438867097     0.949254886687      -0.236852885692     0.949254886687      -0.236852885692     -0.0499286812108    -0.199438867097     
7900000000.0        -0.0511674948351    -0.201741532385     0.947997355965      -0.23964733675      0.947997355965      -0.23964733675      -0.0511674948351    -0.201741532385     
8000000000.0        -0.0524193405886    -0.204034323751     0.946726536314      -0.242432275186     0.946726536314      -0.242432275186     -0.0524193405886    -0.204034323751     
8100000000.0        -0.0536841107025    -0.206317134909     0.945442534897      -0.245207596142     0.945442534897      -0.245207596142     -0.0536841107025    -0.206317134909     
8200000000.0        -0.054961696371     -0.208589861136     0.944145459909      -0.247973196308     0.944145459909      -0.247973196308     -0.054961696371     -0.208589861136     
8300000000.0        -0.0562519877797    -0.210852399282     0.942835420553      -0.250728973934     0.942835420553      -0.250728973934     -0.0562519877797    -0.210852399282     
8400000000.0        -0.0575548741337    -0.213104647785     0.941512527008      -0.253474828847     0.941512527008      -0.253474828847     -0.0575548741337    -0.213104647785     
8500000000.0        -0.0588702436858    -0.215346506683     0.940176890403      -0.256210662461     0.940176890403      -0.256210662461     -0.0588702436858    -0.215346506683     
8600000000.0        -0.0601979837649    -0.217577877626     0.938828622789      -0.258936377792     0.938828622789      -0.258936377792     -0.0601979837649    -0.217577877626     
8700000000.0        -0.0615379808046    -0.219798663886     0.937467837108      -0.261651879465     0.937467837108      -0.261651879465     -0.0615379808046    -0.219798663886     
8800000000.0        -0.0628901203715    -0.222008770367     0.936094647169      -0.264357073729     0.936094647169      -0.264357073729     -0.0628901203715    -0.222008770367     
8900000000.0        -0.0642542871935    -0.224208103618     0.934709167614      -0.267051868462     0.934709167614      -0.267051868462     -0.0642542871935    -0.224208103618     
9000000000.0        -0.0656303651888    -0.226396571835     0.933311513892      -0.269736173187     0.933311513892      -0.269736173187     -0.0656303651888    -0.226396571835     
9100000000.0        -0.0670182374938    -0.228574084875     0.931901802234      -0.272409899071     0.931901802234      -0.272409899071     -0.0670182374938    -0.228574084875     
9200000000.0        -0.0684177864921    -0.230740554261     0.930480149618      -0.275072958943     0.930480149618      -0.275072958943     -0.0684177864921    -0.230740554261     
9300000000.0        -0.0698288938427    -0.23289589319      0.929046673745      -0.277725267293     0.929046673745      -0.277725267293     -0.0698288938427    -0.23289589319      
9400000000.0        -0.0712514405086    -0.235040016536     0.92760149301       -0.280366740281     0.92760149301       -0.280366740281     -0.0712514405086    -0.235040016536     
9500000000.0        -0.0726853067848    -0.237172840859     0.926144726471      -0.282997295744     0.926144726471      -0.282997295744     -0.0726853067848    -0.237172840859     
9600000000.0        -0.0741303723269    -0.239294284409     0.924676493825      -0.2856168532       0.924676493825      -0.2856168532       -0.0741303723269    -0.239294284409     
9700000000.0        -0.0755865161796    -0.241404267128     0.923196915375      -0.288225333852     0.923196915375      -0.288225333852     -0.0755865161796    -0.241404267128     
9800000000.0        -0.077053616804     -0.243502710656     0.921706112007      -0.290822660591     0.921706112007      -0.290822660591     -0.077053616804     -0.243502710656     
9900000000.0        -0.0785315521066    -0.245589538332     0.920204205158      -0.293408758004     0.920204205158      -0.293408758004     -0.0785315521066    -0.245589538332     
10000000000.0       -0.0800201994664    -0.247664675199     0.918691316788      -0.295983552368     0.918691316788      -0.295983552368     -0.0800201994664    -0.247664675199     
