# Hz S RI R 50.00 
100000000.0         0.00487633519004    0.00167396325744    0.995120856472      -0.00286045345364   0.995120856472      -0.00286045345364   0.00487633519004    0.00167396325744    
200000000.0         0.00492251381409    0.0033475756918     0.995071459355      -0.00572057133043   0.995071459355      -0.00572057133043   0.00492251381409    0.0033475756918     
300000000.0         0.00496973084593    0.00502089374894    0.995019613532      -0.00858041955266   0.995019613532      -0.00858041955266   0.00496973084593    0.00502089374894    
400000000.0         0.00502220089115    0.00669389629783    0.994961104222      -0.0114399844207    0.994961104222      -0.0114399844207    0.00502220089115    0.00669389629783    
500000000.0         0.0050815463127     0.00836654410748    0.994894308859      -0.0142992330962    0.994894308859      -0.0142992330962    0.0050815463127     0.00836654410748    
600000000.0         0.00514859339813    0.0100387899329     0.994818400924      -0.0171581240428    0.994818400924      -0.0171581240428    0.00514859339813    0.0100387899329     
700000000.0         0.00522382899835    0.0117105821494     0.994732893305      -0.0200166108418    0.994732893305      -0.0200166108418    0.00522382899835    0.0117105821494     
800000000.0         0.00530756719358    0.0133818664441     0.994637471638      -0.0228746439926    0.994637471638      -0.0228746439926    0.00530756719358    0.0133818664441     
900000000.0         0.00540002350314    0.0150525867276     0.994531920095      -0.0257321718965    0.994531920095      -0.0257321718965    0.00540002350314    0.0150525867276     
1000000000.0        0.00550135250113    0.0167226856766     0.994416083769      -0.0285891414497    0.994416083769      -0.0285891414497    0.00550135250113    0.0167226856766     
1100000000.0        0.0056116687264     0.0183921050799     0.994289847767      -0.0314454984276    0.994289847767      -0.0314454984276    0.0056116687264     0.0183921050799     
1200000000.0        0.00573105914199    0.0200607860719     0.99415312475       -0.0343011877467    0.99415312475       -0.0343011877467    0.00573105914199    0.0200607860719     
1300000000.0        0.00585959097393    0.0217286692972     0.994005847095      -0.0371561536521    0.994005847095      -0.0371561536521    0.00585959097393    0.0217286692972     
1400000000.0        0.00599731686354    0.0233956950301     0.993847961746      -0.0400103398555    0.993847961746      -0.0400103398555    0.00599731686354    0.0233956950301     
1500000000.0        0.00614427837833    0.0250618032648     0.993679426697      -0.0428636896405    0.993679426697      -0.0428636896405    0.00614427837832    0.0250618032648     
1600000000.0        0.00630050847784    0.0267269337848     0.993500208535      -0.0457161459445    0.993500208535      -0.0457161459445    0.00630050847784    0.0267269337848     
1700000000.0        0.00646603329081    0.0283910262177     0.993310280658      -0.0485676514247    0.993310280658      -0.0485676514247    0.00646603329081    0.0283910262177     
1800000000.0        0.00664087342468    0.0300540200789     0.993109621969      -0.0514181485108    0.993109621969      -0.0514181485108    0.00664087342468    0.0300540200789     
1900000000.0        0.00682504494944    0.031715854808      0.992898215888      -0.0542675794493    0.992898215888      -0.0542675794493    0.00682504494944    0.031715854808      
2000000000.0        0.0070185601495     0.0333764697986     0.992676049606      -0.0571158863406    0.992676049606      -0.0571158863406    0.0070185601495     0.0333764697986     
2100000000.0        0.00722142810717    0.0350358044236     0.9924431135        -0.0599630111703    0.9924431135        -0.0599630111703    0.00722142810717    0.0350358044236     
2200000000.0        0.00743365516143    0.0366937980567     0.992199400674      -0.0628088958363    0.992199400674      -0.0628088958363    0.00743365516143    0.0366937980567     
2300000000.0        0.00765524527331    0.0383503900915     0.991944906592      -0.0656534821729    0.991944906592      -0.0656534821729    0.00765524527331    0.0383503900915     
2400000000.0        0.00788620032001    0.0400055199576     0.991679628789      -0.0684967119712    0.991679628789      -0.0684967119712    0.00788620032001    0.0400055199576     
2500000000.0        0.00812652033403    0.0416591271354     0.991403566629      -0.0713385269978    0.991403566629      -0.0713385269978    0.00812652033403    0.0416591271354     
2600000000.0        0.00837620369956    0.043311151169      0.991116721109      -0.0741788690119    0.991116721109      -0.0741788690119    0.00837620369956    0.043311151169      
2700000000.0        0.00863524731497    0.0449615316781     0.990819094698      -0.0770176797796    0.990819094698      -0.0770176797796    0.00863524731497    0.0449615316781     
2800000000.0        0.00890364672847    0.0466102083685     0.9905106912        -0.0798549010886    0.9905106912        -0.0798549010886    0.00890364672847    0.0466102083685     
2900000000.0        0.00918139625212    0.048257121042      0.990191515642      -0.0826904747601    0.990191515642      -0.0826904747601    0.00918139625212    0.048257121042      
3000000000.0        0.00946848905837    0.0499022096058     0.989861574178      -0.0855243426606    0.989861574178      -0.0855243426606    0.00946848905837    0.0499022096058     
3100000000.0        0.00976491726229    0.0515454140804     0.989520874004      -0.0883564467131    0.989520874004      -0.0883564467131    0.00976491726229    0.0515454140804     
3200000000.0        0.0100706719921     0.0531866746078     0.98916942329       -0.0911867289069    0.98916942329       -0.0911867289069    0.0100706719921     0.0531866746078     
3300000000.0        0.0103857434501     0.054825931459      0.98880723112       -0.0940151313073    0.98880723112       -0.0940151313073    0.0103857434501     0.054825931459      
3400000000.0        0.010710120965      0.0564631250409     0.988434307438      -0.0968415960642    0.988434307438      -0.0968415960642    0.010710120965      0.0564631250409     
3500000000.0        0.0110437930385     0.0580981959029     0.988050663004      -0.099666065421     0.988050663004      -0.099666065421     0.0110437930385     0.0580981959029     
3600000000.0        0.0113867473852     0.0597310847434     0.98765630935       -0.102488481722     0.98765630935       -0.102488481722     0.0113867473852     0.0597310847434     
3700000000.0        0.0117389709681     0.0613617324157     0.987251258749      -0.105308787422     0.987251258749      -0.105308787422     0.0117389709681     0.0613617324157     
3800000000.0        0.0121004500303     0.0629900799341     0.986835524184      -0.108126925091     0.986835524184      -0.108126925091     0.0121004500303     0.0629900799341     
3900000000.0        0.0124711701225     0.0646160684792     0.986409119315      -0.110942837421     0.986409119315      -0.110942837421     0.0124711701225     0.0646160684792     
4000000000.0        0.0128511161285     0.0662396394035     0.985972058459      -0.113756467237     0.985972058459      -0.113756467237     0.0128511161285     0.0662396394035     
4100000000.0        0.013240272287      0.0678607342368     0.985524356566      -0.116567757499     0.985524356566      -0.116567757499     0.013240272287      0.0678607342368     
4200000000.0        0.0136386222124     0.0694792946908     0.985066029202      -0.119376651311     0.985066029202      -0.119376651311     0.0136386222124     0.0694792946908     
4300000000.0        0.0140461489126     0.0710952626646     0.984597092524      -0.122183091924     0.984597092524      -0.122183091924     0.0140461489126     0.0710952626646     
4400000000.0        0.0144628348058     0.0727085802491     0.98411756327       -0.124987022745     0.98411756327       -0.124987022745     0.0144628348058     0.0727085802491     
4500000000.0        0.0148886617357     0.0743191897317     0.983627458742      -0.127788387343     0.983627458742      -0.127788387343     0.0148886617357     0.0743191897317     
4600000000.0        0.0153236109853     0.0759270336012     0.983126796791      -0.130587129451     0.983126796791      -0.130587129451     0.0153236109853     0.0759270336012     
4700000000.0        0.0157676632899     0.0775320545519     0.982615595807      -0.133383192974     0.982615595807      -0.133383192974     0.0157676632899     0.0775320545519     
4800000000.0        0.0162207988485     0.0791341954883     0.982093874703      -0.136176521995     0.982093874703      -0.136176521995     0.0162207988485     0.0791341954883     
4900000000.0        0.0166829973354     0.0807333995289     0.98156165291       -0.138967060778     0.98156165291       -0.138967060778     0.0166829973354     0.0807333995289     
5000000000.0        0.0171542379097     0.0823296100108     0.981018950359      -0.141754753772     0.981018950359      -0.141754753772     0.0171542379097     0.0823296100108     
5100000000.0        0.0176344992255     0.0839227704937     0.980465787482      -0.144539545622     0.980465787482      -0.144539545622     0.0176344992255     0.0839227704937     
5200000000.0        0.0181237594404     0.0855128247638     0.979902185194      -0.147321381165     0.979902185194      -0.147321381165     0.0181237594404     0.0855128247638     
5300000000.0        0.0186219962242     0.087099716838      0.979328164888      -0.150100205443     0.979328164888      -0.150100205443     0.0186219962242     0.087099716838      
5400000000.0        0.0191291867666     0.0886833909675     0.978743748428      -0.152875963701     0.978743748428      -0.152875963701     0.0191291867666     0.0886833909675     
5500000000.0        0.0196453077851     0.0902637916417     0.978148958142      -0.155648601395     0.978148958142      -0.155648601395     0.0196453077851     0.0902637916417     
5600000000.0        0.0201703355319     0.091840863592      0.977543816811      -0.158418064197     0.977543816811      -0.158418064197     0.0201703355319     0.091840863592      
5700000000.0        0.020704245801      0.0934145517955     0.976928347668      -0.161184297995     0.976928347668      -0.161184297995     0.020704245801      0.0934145517955     
5800000000.0        0.0212470139345     0.0949848014787     0.976302574387      -0.163947248902     0.976302574387      -0.163947248902     0.0212470139345     0.0949848014787     
5900000000.0        0.021798614829      0.0965515581207     0.975666521077      -0.166706863259     0.975666521077      -0.166706863259     0.021798614829      0.0965515581207     
6000000000.0        0.0223590229419     0.0981147674571     0.97502021228       -0.169463087636     0.97502021228       -0.169463087636     0.0223590229419     0.0981147674571     
6100000000.0        0.0229282122969     0.0996743754834     0.974363672961      -0.17221586884      0.974363672961      -0.17221586884      0.0229282122969     0.0996743754834     
6200000000.0        0.0235061564898     0.101230328458      0.973696928504      -0.174965153916     0.973696928504      -0.174965153916     0.0235061564898     0.101230328458      
6300000000.0        0.0240928286941     0.102782572906      0.973020004707      -0.177710890152     0.973020004707      -0.177710890152     0.0240928286941     0.102782572906      
6400000000.0        0.0246882016661     0.104331055623      0.972332927777      -0.180453025084     0.972332927777      -0.180453025084     0.0246882016661     0.104331055623      
6500000000.0        0.0252922477505     0.105875723676      0.971635724323      -0.183191506496     0.971635724323      -0.183191506496     0.0252922477505     0.105875723676      
6600000000.0        0.0259049388851     0.10741652441       0.970928421352      -0.185926282428     0.970928421352      -0.185926282428     0.0259049388851     0.10741652441       
6700000000.0        0.0265262466057     0.108953405448      0.970211046267      -0.188657301177     0.970211046267      -0.188657301177     0.0265262466057     0.108953405448      
6800000000.0        0.0271561420516     0.110486314696      0.969483626855      -0.1913845113       0.969483626855      -0.1913845113       0.0271561420516     0.110486314696      
6900000000.0        0.0277945959697     0.112015200346      0.968746191291      -0.194107861619     0.968746191291      -0.194107861619     0.0277945959697     0.112015200346      
7000000000.0        0.0284415787194     0.113540010879      0.967998768127      -0.196827301225     0.967998768127      -0.196827301225     0.0284415787194     0.113540010879      
7100000000.0        0.0290970602776     0.115060695064      0.967241386291      -0.199542779479     0.967241386291      -0.199542779479     0.0290970602776     0.115060695064      
7200000000.0        0.0297610102425     0.116577201968      0.966474075079      -0.202254246016     0.966474075079      -0.202254246016     0.0297610102425     0.116577201968      
7300000000.0        0.0304333978388     0.118089480954      0.965696864156      -0.204961650749     0.965696864156      -0.204961650749     0.0304333978388     0.118089480954      
7400000000.0        0.031114191922      0.119597481684      0.964909783545      -0.207664943871     0.964909783545      -0.207664943871     0.031114191922      0.119597481684      
7500000000.0        0.0318033609825     0.121101154124      0.964112863628      -0.210364075859     0.964112863628      -0.210364075859     0.0318033609825     0.121101154124      
7600000000.0        0.0325008731502     0.122600448545      0.963306135139      -0.213058997478     0.963306135139      -0.213058997478     0.0325008731502     0.122600448545      
7700000000.0        0.0332066961987     0.124095315524      0.962489629161      -0.215749659781     0.962489629161      -0.215749659781     0.0332066961987     0.124095315524      
7800000000.0        0.0339207975498     0.125585705951      0.961663377121      -0.218436014114     0.961663377121      -0.218436014114     0.0339207975498     0.125585705951      
7900000000.0        0.0346431442774     0.127071571028      0.960827410786      -0.221118012119     0.960827410786      -0.221118012119     0.0346431442774     0.127071571028      
8000000000.0        0.0353737031121     0.128552862274      0.959981762259      -0.223795605734     0.959981762259      -0.223795605734     0.0353737031121     0.128552862274      
8100000000.0        0.0361124404452     0.130029531525      0.959126463973      -0.226468747202     0.959126463973      -0.226468747202     0.0361124404452     0.130029531525      
8200000000.0        0.0368593223326     0.131501530936      0.958261548693      -0.229137389065     0.958261548693      -0.229137389065     0.0368593223326     0.131501530936      
8300000000.0        0.0376143144997     0.132968812987      0.957387049503      -0.231801484174     0.957387049503      -0.231801484174     0.0376143144997     0.132968812987      
8400000000.0        0.0383773823447     0.134431330484      0.956502999808      -0.234460985689     0.956502999808      -0.234460985689     0.0383773823447     0.134431330484      
8500000000.0        0.0391484909432     0.135889036557      0.955609433329      -0.237115847078     0.955609433329      -0.237115847078     0.0391484909432     0.135889036557      
8600000000.0        0.0399276050523     0.137341884669      0.954706384099      -0.239766022128     0.954706384099      -0.239766022128     0.0399276050523     0.137341884669      
8700000000.0        0.0407146891144     0.138789828612      0.953793886455      -0.242411464937     0.953793886455      -0.242411464937     0.0407146891144     0.138789828612      
8800000000.0        0.0415097072615     0.140232822516      0.952871975042      -0.245052129924     0.952871975042      -0.245052129924     0.0415097072615     0.140232822516      
8900000000.0        0.0423126233194     0.141670820843      0.9519406848        -0.247687971829     0.9519406848        -0.247687971829     0.0423126233194     0.141670820843      
9000000000.0        0.0431234008114     0.143103778395      0.951000050967      -0.250318945715     0.951000050967      -0.250318945715     0.0431234008114     0.143103778395      
9100000000.0        0.0439420029624     0.144531650314      0.95005010907       -0.252945006969     0.95005010907       -0.252945006969     0.0439420029624     0.144531650314      
9200000000.0        0.0447683927033     0.145954392084      0.949090894926      -0.255566111307     0.949090894926      -0.255566111307     0.0447683927033     0.145954392084      
9300000000.0        0.0456025326747     0.147371959532      0.948122444632      -0.258182214772     0.948122444632      -0.258182214772     0.0456025326747     0.147371959532      
9400000000.0        0.0464443852309     0.148784308833      0.947144794568      -0.260793273743     0.947144794568      -0.260793273743     0.0464443852309     0.148784308833      
9500000000.0        0.0472939124441     0.150191396508      0.946157981386      -0.263399244928     0.946157981386      -0.263399244928     0.0472939124441     0.150191396508      
9600000000.0        0.0481510761084     0.151593179427      0.945162042011      -0.266000085372     0.945162042011      -0.266000085372     0.0481510761084     0.151593179427      
9700000000.0        0.0490158377435     0.152989614813      0.944157013635      -0.26859575246      0.944157013635      -0.26859575246      0.0490158377435     0.152989614813      
9800000000.0        0.0498881585993     0.154380660241      0.943142933714      -0.271186203912     0.943142933714      -0.271186203912     0.0498881585993     0.154380660241      
9900000000.0        0.0507679996592     0.155766273638      0.942119839961      -0.273771397792     0.942119839961      -0.273771397792     0.0507679996592     0.155766273638      
10000000000.0       0.0516553216446     0.157146413292      0.941087770349      -0.276351292506     0.941087770349      -0.276351292506     0.0516553216446     0.157146413292      
