# Hz S RI R 50.00 
100000000.0         -0.000151093232643  -0.0118226538364    0.999846617049      -0.011835369515     0.999846617049      -0.011835369515     -0.000151093232643  -0.0118226538364    
200000000.0         -0.000582358592695  -0.0236326692843    0.999415335787      -0.0236581064595    0.999415335787      -0.0236581064595    -0.000582358592695  -0.0236326692843    
300000000.0         -0.00129220078286   -0.0354191180048    0.998705481467      -0.0354572853291    0.998705481467      -0.0354572853291    -0.00129220078286   -0.0354191180048    
400000000.0         -0.00227912539201   -0.0471714538229    0.997718546533      -0.0472223619684    0.997718546533      -0.0472223619684    -0.00227912539201   -0.0471714538229    
500000000.0         -0.00354113296588   -0.0588794141745    0.996456529686      -0.0589430753666    0.996456529686      -0.0589430753666    -0.00354113296588   -0.0588794141745    
600000000.0         -0.00507574150331   -0.0705330013616    0.994921912544      -0.0706094290416    0.994921912544      -0.0706094290416    -0.00507574150331   -0.0705330013616    
700000000.0         -0.00688000798604   -0.082122483471     0.993117637902      -0.0822116920296    0.993117637902      -0.0822116920296    -0.00688000798604   -0.082122483471     
800000000.0         -0.00895054966529   -0.0936384022186    0.991047088362      -0.0937404067749    0.991047088362      -0.0937404067749    -0.00895054966529   -0.0936384022186    
900000000.0         -0.0112835654592    -0.105071583669     0.988714064906      -0.105186399885     0.988714064906      -0.105186399885     -0.0112835654592    -0.105071583669     
1000000000.0        -0.0138748575697    -0.116413149782     0.986122765262      -0.116540793703     0.986122765262      -0.116540793703     -0.0138748575697    -0.116413149782     
1100000000.0        -0.0167198533837    -0.127654530019     0.983277761987      -0.127795017937     0.983277761987      -0.127795017937     -0.0167198533837    -0.127654530019     
1200000000.0        -0.0198136276381    -0.138787472439     0.980183980305      -0.138940820777     0.980183980305      -0.138940820777     -0.0198136276381    -0.138787472439     
1300000000.0        -0.0231509248309    -0.149804054079     0.976846675683      -0.149970279286     0.976846675683      -0.149970279286     -0.0231509248309    -0.149804054079     
1400000000.0        -0.0267261818252    -0.160696690373     0.973271411233      -0.160875808843     0.973271411233      -0.160875808843     -0.0267261818252    -0.160696690373     
1500000000.0        -0.030533550598     -0.171458143577     0.969464034956      -0.171650171572     0.969464034956      -0.171650171572     -0.030533550598     -0.171458143577     
1600000000.0        -0.0345669210737    -0.182081530089     0.96543065691       -0.182286483675     0.96543065691       -0.182286483675     -0.0345669210737    -0.182081530089     
1700000000.0        -0.0388199439758    -0.192560326628     0.961177626357      -0.192778221627     0.961177626357      -0.192778221627     -0.0388199439758    -0.192560326628     
1800000000.0        -0.0432860536353    -0.202888375267     0.956711508953      -0.203119227212     0.956711508953      -0.203119227212     -0.0432860536353    -0.202888375267     
1900000000.0        -0.0479584906784    -0.213059887271     0.952039064061      -0.213303711371     0.952039064061      -0.213303711371     -0.0479584906784    -0.213059887271     
2000000000.0        -0.052830324532     -0.223069445767     0.947167222245      -0.223326256876     0.947167222245      -0.223326256876     -0.052830324532     -0.223069445767     
2100000000.0        -0.0578944756715    -0.232912007239     0.942103063021      -0.233181819838     0.942103063021      -0.233181819838     -0.0578944756715    -0.232912007239     
2200000000.0        -0.0631437375387    -0.242582901855     0.936853792941      -0.242865730032     0.936853792941      -0.242865730032     -0.0631437375387    -0.242582901855     
2300000000.0        -0.0685707980702    -0.252077832671     0.931426724062      -0.252373690108     0.931426724062      -0.252373690108     -0.0685707980702    -0.252077832671     
2400000000.0        -0.074168260755     -0.261392873706     0.925829252889      -0.261701773675     0.925829252889      -0.261701773675     -0.074168260755     -0.261392873706     
2500000000.0        -0.0799286651678    -0.270524466954     0.920068839843      -0.270846422307     0.920068839843      -0.270846422307     -0.0799286651678    -0.270524466954     
2600000000.0        -0.0858445069146    -0.279469418362     0.914152989313      -0.279804441533     0.914152989313      -0.279804441533     -0.0858445069146    -0.279469418362     
2700000000.0        -0.0919082569288    -0.288224892812     0.908089230363      -0.288572995814     0.908089230363      -0.288572995814     -0.0919082569288    -0.288224892812     
2800000000.0        -0.0981123800712    -0.296788408176     0.901885098128      -0.297149602609     0.901885098128      -0.297149602609     -0.0981123800712    -0.296788408176     
2900000000.0        -0.104449352978     -0.305157828484     0.895548115968      -0.305532125535     0.895548115968      -0.305532125535     -0.104449352978     -0.305157828484     
3000000000.0        -0.110911681129     -0.313331356282     0.889085778402      -0.313718766734     0.889085778402      -0.313718766734     -0.110911681129     -0.313331356282     
3100000000.0        -0.117491915077     -0.321307524225     0.882505534874      -0.321708058464     0.882505534874      -0.321708058464     -0.117491915077     -0.321307524225     
3200000000.0        -0.124182665831     -0.329085185977     0.875814774372      -0.329498854002     0.875814774372      -0.329498854002     -0.124182665831     -0.329085185977     
3300000000.0        -0.13097661935      -0.336663506503     0.869020810935      -0.33709031793      0.869020810935      -0.33709031793      -0.13097661935      -0.336663506503     
3400000000.0        -0.137866550138     -0.344041951781     0.86213087006       -0.344481915862     0.86213087006       -0.344481915862     -0.137866550138     -0.344041951781     
3500000000.0        -0.144845333918     -0.351220278049     0.855152076017      -0.351673403674     0.855152076017      -0.351673403674     -0.144845333918     -0.351220278049     
3600000000.0        -0.151905959394     -0.358198520619     0.848091440105      -0.358664816332     0.848091440105      -0.358664816332     -0.151905959394     -0.358198520619     
3700000000.0        -0.159041539076     -0.364976982347     0.840955849811      -0.365456456355     0.840955849811      -0.365456456355     -0.159041539076     -0.364976982347     
3800000000.0        -0.166245319183     -0.371556221811     0.833752058914      -0.372048881996     0.833752058914      -0.372048881996     -0.166245319183     -0.371556221811     
3900000000.0        -0.173510688642     -0.377937041279     0.826486678487      -0.378442895208     0.826486678487      -0.378442895208     -0.173510688642     -0.377937041279     
4000000000.0        -0.18083118717      -0.384120474506     0.819166168811      -0.384639529445     0.819166168811      -0.384639529445     -0.18083118717      -0.384120474506     
4100000000.0        -0.188200512481     -0.390107774445     0.811796832172      -0.390640037366     0.811796832172      -0.390640037366     -0.188200512481     -0.390107774445     
4200000000.0        -0.195612526622     -0.395900400904     0.804384806521      -0.396445878501     0.804384806521      -0.396445878501     -0.195612526622     -0.395900400904     
4300000000.0        -0.203061261472     -0.401500008226     0.796936059978      -0.402058706922     0.796936059978      -0.402058706922     -0.203061261472     -0.401500008226     
4400000000.0        -0.210540923425     -0.406908433025     0.78945638615       -0.407480358983     0.78945638615       -0.407480358983     -0.210540923425     -0.406908433025     
4500000000.0        -0.218045897287     -0.41212768203      0.781951400228      -0.412712841165     0.781951400228      -0.412712841165     -0.218045897287     -0.41212768203      
4600000000.0        -0.225570749428     -0.417159920085     0.774426535844      -0.417758318073     0.774426535844      -0.417758318073     -0.225570749428     -0.417159920085     
4700000000.0        -0.233110230209     -0.422007458341     0.766887042634      -0.422619100628     0.766887042634      -0.422619100628     -0.233110230209     -0.422007458341     
4800000000.0        -0.240659275734     -0.426672742669     0.759337984495      -0.427297634484     0.759337984495      -0.427297634484     -0.240659275734     -0.426672742669     
4900000000.0        -0.248213008946     -0.431158342343     0.751784238482      -0.431796488701     0.751784238482      -0.431796488701     -0.248213008946     -0.431158342343     
5000000000.0        -0.255766740131     -0.435466938999     0.74423049431       -0.436118344717     0.74423049431       -0.436118344717     -0.255766740131     -0.435466938999     
5100000000.0        -0.263315966838     -0.439601315921     0.736681254429      -0.440265985621     0.736681254429      -0.440265985621     -0.263315966838     -0.439601315921     
5200000000.0        -0.270856373272     -0.443564347648     0.729140834634      -0.444242285769     0.729140834634      -0.444242285769     -0.270856373272     -0.443564347648     
5300000000.0        -0.278383829198     -0.447358989943     0.721613365159      -0.448050200747     0.721613365159      -0.448050200747     -0.278383829198     -0.447358989943     
5400000000.0        -0.285894388381     -0.450988270129     0.714102792239      -0.451692757707     0.714102792239      -0.451692757707     -0.285894388381     -0.450988270129     
5500000000.0        -0.293384286618     -0.454455277798     0.706612880077      -0.455173046082     0.706612880077      -0.455173046082     -0.293384286618     -0.454455277798     
5600000000.0        -0.300849939373     -0.457763155919     0.699147213207      -0.458494208687     0.699147213207      -0.458494208687     -0.300849939373     -0.457763155919     
5700000000.0        -0.308287939086     -0.460915092338     0.691709199191      -0.461659433217     0.691709199191      -0.461659433217     -0.308287939086     -0.460915092338     
5800000000.0        -0.315695052148     -0.46391431167      0.684302071637      -0.464671944149     0.684302071637      -0.464671944149     -0.315695052148     -0.46391431167      
5900000000.0        -0.323068215616     -0.466764067606     0.676928893488      -0.467534995039     0.676928893488      -0.467534995039     -0.323068215616     -0.466764067606     
6000000000.0        -0.330404533669     -0.469467635615     0.669592560565      -0.470251861224     0.669592560565      -0.470251861224     -0.330404533669     -0.469467635615     
6100000000.0        -0.337701273852     -0.472028306039     0.662295805321      -0.472825832926     0.662295805321      -0.472825832926     -0.337701273852     -0.472028306039     
6200000000.0        -0.344955863137     -0.474449377595     0.655041200786      -0.475260208743     0.655041200786      -0.475260208743     -0.344955863137     -0.474449377595     
6300000000.0        -0.352165883819     -0.476734151258     0.647831164663      -0.477558289538     0.647831164663      -0.477558289538     -0.352165883819     -0.476734151258     
6400000000.0        -0.359329069282     -0.47888592453      0.64066796357       -0.479723372703     0.64066796357       -0.479723372703     -0.359329069282     -0.47888592453      
6500000000.0        -0.366443299656     -0.48090798608      0.633553717376      -0.481758746809     0.633553717376      -0.481758746809     -0.366443299656     -0.48090798608      
6600000000.0        -0.373506597387     -0.482803610759     0.626490403633      -0.483667686604     0.626490403633      -0.483667686604     -0.373506597387     -0.482803610759     
6700000000.0        -0.380517122748     -0.484576054958     0.619479862071      -0.485453448389     0.619479862071      -0.485453448389     -0.380517122748     -0.484576054958     
6800000000.0        -0.387473169298     -0.48622855232      0.61252379913       -0.487119265715     0.61252379913       -0.487119265715     -0.387473169298     -0.48622855232      
6900000000.0        -0.394373159324     -0.487764309781     0.605623792521      -0.488668345433     0.605623792521      -0.488668345433     -0.394373159324     -0.487764309781     
7000000000.0        -0.40121563927      -0.489186503934     0.598781295802      -0.490103864055     0.598781295802      -0.490103864055     -0.40121563927      -0.489186503934     
7100000000.0        -0.407999275174     -0.490498277701     0.591997642935      -0.491428964423     0.591997642935      -0.491428964423     -0.407999275174     -0.490498277701     
7200000000.0        -0.414722848125     -0.491702737301     0.585274052829      -0.492646752683     0.585274052829      -0.492646752683     -0.414722848125     -0.491702737301     
7300000000.0        -0.421385249759     -0.492802949507     0.57861163385       -0.493760295536     0.57861163385       -0.493760295536     -0.421385249759     -0.492802949507     
7400000000.0        -0.427985477798     -0.493801939165     0.572011388276      -0.49477261776      0.572011388276      -0.49477261776      -0.427985477798     -0.493801939165     
7500000000.0        -0.434522631641     -0.494702686976     0.565474216706      -0.495686699991     0.565474216706      -0.495686699991     -0.434522631641     -0.494702686976     
7600000000.0        -0.440995908033     -0.495508127527     0.559000922397      -0.496505476752     0.559000922397      -0.496505476752     -0.440995908033     -0.495508127527     
7700000000.0        -0.447404596796     -0.496221147545     0.552592215525      -0.497231834713     0.552592215525      -0.497231834713     -0.447404596796     -0.496221147545     
7800000000.0        -0.453748076648     -0.496844584378     0.546248717374      -0.497868611164     0.546248717374      -0.497868611164     -0.453748076648     -0.496844584378     
7900000000.0        -0.460025811109     -0.497381224683     0.539970964423      -0.498418592706     0.539970964423      -0.498418592706     -0.460025811109     -0.497381224683     
8000000000.0        -0.466237344497     -0.497833803305     0.533759412354      -0.498884514134     0.533759412354      -0.498884514134     -0.466237344497     -0.497833803305     
8100000000.0        -0.472382298025     -0.498205002341     0.527614439954      -0.499269057494     0.527614439954      -0.499269057494     -0.472382298025     -0.498205002341     
8200000000.0        -0.478460366002     -0.498497450383     0.521536352914      -0.499574851332     0.521536352914      -0.499574851332     -0.478460366002     -0.498497450383     
8300000000.0        -0.484471312129     -0.498713721912     0.515525387534      -0.499804470082     0.515525387534      -0.499804470082     -0.484471312129     -0.498713721912     
8400000000.0        -0.490414965909     -0.498856336846     0.509581714309      -0.499960433619     0.509581714309      -0.499960433619     -0.490414965909     -0.498856336846     
8500000000.0        -0.49629121917      -0.498927760232     0.503705441413      -0.500045206948     0.503705441413      -0.500045206948     -0.49629121917      -0.498927760232     
8600000000.0        -0.502100022685     -0.498930402061     0.497896618072      -0.500061200021     0.497896618072      -0.500061200021     -0.502100022685     -0.498930402061     
8700000000.0        -0.507841382916     -0.498866617207     0.492155237825      -0.500010767674     0.492155237825      -0.500010767674     -0.507841382916     -0.498866617207     
8800000000.0        -0.513515358859     -0.498738705478     0.486481241675      -0.499896209678     0.486481241675      -0.499896209678     -0.513515358859     -0.498738705478     
8900000000.0        -0.519122059003     -0.498548911767     0.480874521132      -0.499719770891     0.480874521132      -0.499719770891     -0.519122059003     -0.498548911767     
9000000000.0        -0.524661638407     -0.498299426299     0.47533492114       -0.499483641505     0.47533492114       -0.499483641505     -0.524661638407     -0.498299426299     
9100000000.0        -0.530134295868     -0.49799238496      0.469862242899      -0.499189957375     0.469862242899      -0.499189957375     -0.530134295868     -0.49799238496      
9200000000.0        -0.53554027122      -0.497629869712     0.464456246577      -0.498840800431     0.464456246577      -0.498840800431     -0.53554027122      -0.497629869712     
9300000000.0        -0.540879842716     -0.497213909071     0.45911665392       -0.498438199161     0.45911665392       -0.498438199161     -0.540879842716     -0.497213909071     
9400000000.0        -0.546153324539     -0.496746478655     0.453843150746      -0.497984129155     0.453843150746      -0.497984129155     -0.546153324539     -0.496746478655     
9500000000.0        -0.551361064393     -0.49622950179      0.44863538935       -0.497480513711     0.44863538935       -0.497480513711     -0.551361064393     -0.49622950179      
9600000000.0        -0.556503441214     -0.495664850164     0.443492990796      -0.496929224494     0.443492990796      -0.496929224494     -0.556503441214     -0.495664850164     
9700000000.0        -0.56158086297      -0.495054344535     0.438415547118      -0.496332082236     0.438415547118      -0.496332082236     -0.56158086297      -0.495054344535     
9800000000.0        -0.566593764555     -0.494399755471     0.43340262342       -0.495690857481     0.43340262342       -0.495690857481     -0.566593764555     -0.494399755471     
9900000000.0        -0.571542605789     -0.493702804135     0.428453759882      -0.49500727137      0.428453759882      -0.49500727137      -0.571542605789     -0.493702804135     
10000000000.0       -0.576427869497     -0.492965163094     0.42356847368       -0.49428299645      0.42356847368       -0.49428299645      -0.576427869497     -0.492965163094     
