# Hz S RI R 50.00 
100000000.0         -0.00124643507614   -0.0349240722614    0.998723198063      -0.0350682031194    0.998723198063      -0.0350682031194    -0.00124643507614   -0.0349240722614    
200000000.0         -0.00494102113048   -0.0695832834619    0.995028373402      -0.0698715896758    0.995028373402      -0.0698715896758    -0.00494102113048   -0.0695832834619    
300000000.0         -0.011014140724     -0.103726052959     0.98895504654       -0.104158601729     0.98895504654       -0.104158601729     -0.011014140724     -0.103726052959     
400000000.0         -0.0193771460981    -0.137113825495     0.980591839102      -0.137690701103     0.980591839102      -0.137690701103     -0.0193771460981    -0.137113825495     
500000000.0         -0.0299110768277    -0.169526175828     0.97005770147       -0.170247476621     0.97005770147       -0.170247476621     -0.0299110768277    -0.169526175828     
600000000.0         -0.0424708003127    -0.200765171404     0.957497761119      -0.201631007695     0.957497761119      -0.201631007695     -0.0424708003127    -0.200765171404     
700000000.0         -0.0568898177002    -0.230658729587     0.943078513863      -0.231669222036     0.943078513863      -0.231669222036     -0.0568898177002    -0.230658729587     
800000000.0         -0.0729854572831    -0.259062864432     0.926982629427      -0.260218142724     0.926982629427      -0.260218142724     -0.0729854572831    -0.259062864432     
900000000.0         -0.0905641784362    -0.285862809573     0.909403647048      -0.287163011296     0.909403647048      -0.287163011296     -0.0905641784362    -0.285862809573     
1000000000.0        -0.109426731627     -0.310973077772     0.89054081524       -0.312418347441     0.89054081524       -0.312418347441     -0.109426731627     -0.310973077772     
1100000000.0        -0.129372959523     -0.334336575322     0.870594290554      -0.335927063521     0.870594290554      -0.335927063521     -0.129372959523     -0.334336575322     
1200000000.0        -0.150206074337     -0.355922929239     0.849760860158      -0.357658791855     0.849760860158      -0.357658791855     -0.150206074337     -0.355922929239     
1300000000.0        -0.171736300889     -0.375726206765     0.828230298727      -0.3776076043       0.828230298727      -0.3776076043       -0.171736300889     -0.375726206765     
1400000000.0        -0.193783827758     -0.393762211625     0.806182417261      -0.395789308575     0.806182417261      -0.395789308575     -0.193783827758     -0.393762211625     
1500000000.0        -0.216181056038     -0.410065532677     0.783784814308      -0.412238496965     0.783784814308      -0.412238496965     -0.216181056038     -0.410065532677     
1600000000.0        -0.238774173859     -0.424686501674     0.761191301427      -0.427005504141     0.761191301427      -0.427005504141     -0.238774173859     -0.424686501674     
1700000000.0        -0.261424113618     -0.437688191578     0.738540945948      -0.440153405513     0.738540945948      -0.440153405513     -0.261424113618     -0.437688191578     
1800000000.0        -0.284006967899     -0.449143558763     0.715957655043      -0.451755159481     0.715957655043      -0.451755159481     -0.284006967899     -0.449143558763     
1900000000.0        -0.306413950139     -0.459132804289     0.693550215054      -0.46189096874      0.693550215054      -0.46189096874      -0.306413950139     -0.459132804289     
2000000000.0        -0.328550988764     -0.467741003345     0.671412697356      -0.470645909764     0.671412697356      -0.470645909764     -0.328550988764     -0.467741003345     
2100000000.0        -0.350338040452     -0.475056029321     0.649625145086      -0.478107856904     0.649625145086      -0.478107856904     -0.350338040452     -0.475056029321     
2200000000.0        -0.371708201152     -0.481166780344     0.628254462124      -0.484365708955     0.628254462124      -0.484365708955     -0.371708201152     -0.481166780344     
2300000000.0        -0.392606683967     -0.48616170175      0.607355435208      -0.48950791166      0.607355435208      -0.48950791166      -0.392606683967     -0.48616170175      
2400000000.0        -0.412989722374     -0.490127587608     0.586971830713      -0.493621259248     0.586971830713      -0.493621259248     -0.412989722374     -0.490127587608     
2500000000.0        -0.432823446408     -0.493148637494     0.567137518461      -0.496789951244     0.567137518461      -0.496789951244     -0.432823446408     -0.493148637494     
2600000000.0        -0.452082769172     -0.495305740842     0.547877585217      -0.49909487683      0.547877585217      -0.49909487683      -0.452082769172     -0.495305740842     
2700000000.0        -0.470750311672     -0.496675959561     0.529209409848      -0.50061309749      0.529209409848      -0.50061309749      -0.470750311672     -0.496675959561     
2800000000.0        -0.488815385919     -0.497332179763     0.511143680222      -0.50141749875      0.511143680222      -0.50141749875      -0.488815385919     -0.497332179763     
2900000000.0        -0.506273049414     -0.497342904804     0.493685338723      -0.501576583241     0.493685338723      -0.501576583241     -0.506273049414     -0.497342904804     
3000000000.0        -0.523123238616     -0.496772164021     0.476834448781      -0.50115437945      0.476834448781      -0.50115437945      -0.523123238616     -0.496772164021     
3100000000.0        -0.539369984657     -0.495679514146     0.460586979156      -0.500210443147     0.460586979156      -0.500210443147     -0.539369984657     -0.495679514146     
3200000000.0        -0.555020711278     -0.494120113194     0.444935506005      -0.498799931288     0.444935506005      -0.498799931288     -0.555020711278     -0.494120113194     
3300000000.0        -0.570085612533     -0.49214484944      0.429869835175      -0.496973731005     0.429869835175      -0.496973731005     -0.570085612533     -0.49214484944      
3400000000.0        -0.584577106177     -0.489800510781     0.415377548817      -0.494778628978     0.415377548817      -0.494778628978     -0.584577106177     -0.489800510781     
3500000000.0        -0.598509357544     -0.48712998225      0.4014444815        -0.49225750896      0.4014444815        -0.49225750896      -0.598509357544     -0.48712998225      
3600000000.0        -0.611897868154     -0.484172461684     0.388055131617      -0.489449567457     0.388055131617      -0.489449567457     -0.611897868154     -0.484172461684     
3700000000.0        -0.624759122996     -0.480963685519     0.375193014091      -0.486390539527     0.375193014091      -0.486390539527     -0.624759122996     -0.480963685519     
3800000000.0        -0.637110290466     -0.477536158337     0.362840960439      -0.483112928341     0.362840960439      -0.483112928341     -0.637110290466     -0.477536158337     
3900000000.0        -0.64896896912      -0.47391938127      0.350981372025      -0.479646233591     0.350981372025      -0.479646233591     -0.64896896912      -0.47391938127      
4000000000.0        -0.660352975705     -0.470140075534     0.339596432019      -0.476017175031     0.339596432019      -0.476017175031     -0.660352975705     -0.470140075534     
4100000000.0        -0.671280169345     -0.46622239837      0.328668281219      -0.472249908429     0.328668281219      -0.472249908429     -0.671280169345     -0.46622239837      
4200000000.0        -0.681768307158     -0.462188149488     0.31817916243       -0.468366232007     0.31817916243       -0.468366232007     -0.681768307158     -0.462188149488     
4300000000.0        -0.691834927051     -0.458056966717     0.30811153767       -0.464385782108     0.30811153767       -0.464385782108     -0.691834927051     -0.458056966717     
4400000000.0        -0.70149725387      -0.453846510144     0.298448182019      -0.460326217332     0.298448182019      -0.460326217332     -0.70149725387      -0.453846510144     
4500000000.0        -0.710772125501     -0.449572634359     0.289172257519      -0.456203390786     0.289172257519      -0.456203390786     -0.710772125501     -0.449572634359     
4600000000.0        -0.719675935936     -0.445249548772     0.280267370107      -0.452031510408     0.280267370107      -0.452031510408     -0.719675935936     -0.445249548772     
4700000000.0        -0.728224592662     -0.440889966187     0.271717612227      -0.447823287544     0.271717612227      -0.447823287544     -0.728224592662     -0.440889966187     
4800000000.0        -0.736433486095     -0.436505239986     0.263507593396      -0.443590074135     0.263507593396      -0.443590074135     -0.736433486095     -0.436505239986     
4900000000.0        -0.744317469058     -0.432105490395     0.255622460722      -0.439341988981     0.255622460722      -0.439341988981     -0.744317469058     -0.432105490395     
5000000000.0        -0.751890844602     -0.427699720373     0.24804791109       -0.435088033641     0.24804791109       -0.435088033641     -0.751890844602     -0.427699720373     
5100000000.0        -0.759167360682     -0.42329592174      0.240770196478      -0.430836198559     0.240770196478      -0.430836198559     -0.759167360682     -0.42329592174      
5200000000.0        -0.766160210444     -0.418901172159     0.233776123678      -0.426593560043     0.233776123678      -0.426593560043     -0.766160210444     -0.418901172159     
5300000000.0        -0.77288203703      -0.41452172359      0.227053049486      -0.422366368734     0.227053049486      -0.422366368734     -0.77288203703      -0.41452172359      
5400000000.0        -0.779344942001     -0.410163082863     0.220588872276      -0.418160130167     0.220588872276      -0.418160130167     -0.779344942001     -0.410163082863     
5500000000.0        -0.785560496614     -0.40583008495      0.214372020733      -0.41397967805      0.214372020733      -0.41397967805      -0.785560496614     -0.40583008495      
5600000000.0        -0.791539755278     -0.401526959526     0.208391440385      -0.40982924083      0.208391440385      -0.40982924083      -0.791539755278     -0.401526959526     
5700000000.0        -0.797293270684     -0.397257391377     0.202636578482      -0.405712502092     0.202636578482      -0.405712502092     -0.797293270684     -0.397257391377     
5800000000.0        -0.802831110116     -0.393024575159     0.197097367681      -0.401632655331     0.197097367681      -0.401632655331     -0.802831110116     -0.393024575159     
5900000000.0        -0.808162872599     -0.38883126501      0.191764208898      -0.397592453555     0.191764208898      -0.397592453555     -0.808162872599     -0.38883126501      
6000000000.0        -0.813297706556     -0.384679819455     0.18662795365       -0.393594254196     0.18662795365       -0.393594254196     -0.813297706556     -0.384679819455     
6100000000.0        -0.818244327728     -0.380572242037     0.181679886142      -0.389640059738     0.181679886142      -0.389640059738     -0.818244327728     -0.380572242037     
6200000000.0        -0.823011037141     -0.376510218045     0.176911705289      -0.385731554449     0.176911705289      -0.385731554449     -0.823011037141     -0.376510218045     
6300000000.0        -0.827605738967     -0.372495147712     0.172315506861      -0.381870137576     0.172315506861      -0.381870137576     -0.827605738967     -0.372495147712     
6400000000.0        -0.832035958139     -0.368528176198     0.167883765871      -0.378056953329     0.167883765871      -0.378056953329     -0.832035958139     -0.368528176198     
6500000000.0        -0.836308857606     -0.364610220662     0.16360931931       -0.374292917955     0.16360931931       -0.374292917955     -0.836308857606     -0.364610220662     
6600000000.0        -0.840431255176     -0.360741994702     0.159485349319      -0.370578744175     0.159485349319      -0.370578744175     -0.840431255176     -0.360741994702     
6700000000.0        -0.844409639846     -0.356924030393     0.155505366842      -0.366914963224     0.155505366842      -0.366914963224     -0.844409639846     -0.356924030393     
6800000000.0        -0.848250187616     -0.353156698179     0.151663195825      -0.363301944742     0.151663195825      -0.363301944742     -0.848250187616     -0.353156698179     
6900000000.0        -0.851958776723     -0.349440224795     0.147952957974      -0.359739914697     0.147952957974      -0.359739914697     -0.851958776723     -0.349440224795     
7000000000.0        -0.8555410023       -0.34577470943      0.144369058104      -0.356228971544     0.144369058104      -0.356228971544     -0.8555410023       -0.34577470943      
7100000000.0        -0.859002190428     -0.342160138282     0.140906170076      -0.352769100787     0.140906170076      -0.352769100787     -0.859002190428     -0.342160138282     
7200000000.0        -0.862347411602     -0.338596397679     0.137559223342      -0.349360188091     0.137559223342      -0.349360188091     -0.862347411602     -0.338596397679     
7300000000.0        -0.865581493592     -0.335083285884     0.134323390076      -0.346002031092     0.134323390076      -0.346002031092     -0.865581493592     -0.335083285884     
7400000000.0        -0.868709033719     -0.331620523725     0.131194072902      -0.342694350025     0.131194072902      -0.342694350025     -0.868709033719     -0.331620523725     
7500000000.0        -0.871734410557     -0.328207764156     0.128166893194      -0.339436797289     0.128166893194      -0.339436797289     -0.871734410557     -0.328207764156     
7600000000.0        -0.874661795067     -0.324844600867     0.125237679932      -0.336228966046     0.125237679932      -0.336228966046     -0.874661795067     -0.324844600867     
7700000000.0        -0.877495161196     -0.321530576006     0.122402459117      -0.333070397954     0.122402459117      -0.333070397954     -0.877495161196     -0.321530576006     
7800000000.0        -0.880238295937     -0.318265187136     0.1196574437        -0.329960590115     0.1196574437        -0.329960590115     -0.880238295937     -0.318265187136     
7900000000.0        -0.882894808891     -0.315047893468     0.116999024027      -0.326899001315     0.116999024027      -0.326899001315     -0.882894808891     -0.315047893468     
8000000000.0        -0.885468141331     -0.311878121467     0.114423758767      -0.323885057623     0.114423758767      -0.323885057623     -0.885468141331     -0.311878121467     
8100000000.0        -0.887961574809     -0.30875526987      0.111928366313      -0.320918157411     0.111928366313      -0.320918157411     -0.887961574809     -0.30875526987      
8200000000.0        -0.89037823931      -0.305678714193     0.109509716626      -0.317997675861     0.109509716626      -0.317997675861     -0.89037823931      -0.305678714193     
8300000000.0        -0.892721120973     -0.302647810759     0.107164823511      -0.315122968991     0.107164823511      -0.315122968991     -0.892721120973     -0.302647810759     
8400000000.0        -0.894993069419     -0.299661900305     0.104890837291      -0.312293377266     0.104890837291      -0.312293377266     -0.894993069419     -0.299661900305     
8500000000.0        -0.897196804677     -0.296720311209     0.102685037881      -0.309508228818     0.102685037881      -0.309508228818     -0.897196804677     -0.296720311209     
8600000000.0        -0.899334923753     -0.293822362369     0.100544828219      -0.306766842326     0.100544828219      -0.306766842326     -0.899334923753     -0.293822362369     
8700000000.0        -0.901409906842     -0.290967365764     0.0984677280535     -0.304068529582     0.0984677280535     -0.304068529582     -0.901409906842     -0.290967365764     
8800000000.0        -0.903424123207     -0.288154628746     0.0964513680637     -0.301412597774     0.0964513680637     -0.301412597774     -0.903424123207     -0.288154628746     
8900000000.0        -0.905379836754     -0.285383456068     0.0944934842876     -0.298798351522     0.0944934842876     -0.298798351522     -0.905379836754     -0.285383456068     
9000000000.0        -0.907279211296     -0.282653151689     0.0925919128547     -0.296225094673     0.0925919128547     -0.296225094673     -0.907279211296     -0.282653151689     
9100000000.0        -0.909124315542     -0.279963020366     0.0907445849983     -0.293692131904     0.0907445849983     -0.293692131904     -0.909124315542     -0.279963020366     
9200000000.0        -0.910917127817     -0.277312369069     0.088949522335      -0.291198770127     0.088949522335      -0.291198770127     -0.910917127817     -0.277312369069     
9300000000.0        -0.912659540531     -0.274700508223     0.0872048323973     -0.288744319731     0.0872048323973     -0.288744319731     -0.912659540531     -0.274700508223     
9400000000.0        -0.914353364404     -0.272126752796     0.0855087044047     -0.286328095676     0.0855087044047     -0.286328095676     -0.914353364404     -0.272126752796     
9500000000.0        -0.916000332476     -0.269590423256     0.0838594052607     -0.283949418447     0.0838594052607     -0.283949418447     -0.916000332476     -0.269590423256     
9600000000.0        -0.917602103888     -0.267090846408     0.0822552757632     -0.281607614885     0.0822552757632     -0.281607614885     -0.917602103888     -0.267090846408     
9700000000.0        -0.919160267477     -0.264627356112     0.0806947270166     -0.279302018909     0.0806947270166     -0.279302018909     -0.919160267477     -0.264627356112     
9800000000.0        -0.920676345168     -0.262199293905     0.0791762370341     -0.277031972143     0.0791762370341     -0.277031972143     -0.920676345168     -0.262199293905     
9900000000.0        -0.922151795196     -0.259806009543     0.0776983475201     -0.274796824444     0.0776983475201     -0.274796824444     -0.922151795196     -0.259806009543     
10000000000.0       -0.923588015153     -0.257446861447     0.0762596608225     -0.272595934362     0.0762596608225     -0.272595934362     -0.923588015153     -0.257446861447     
