# Hz S RI R 50.00 
100000000.0         0.000598225613167   0.000178330535691   0.999398246067      -0.00167604486648   0.999398246067      -0.00167604486648   0.000598225613167   0.000178330535691   
200000000.0         0.000602437967928   0.000356638041293   0.999389261621      -0.00335210053028   0.999389261621      -0.00335210053028   0.000602437967929   0.000356638041294   
300000000.0         0.000606197424757   0.000534922336495   0.99937848601       -0.00502818465171   0.99937848601       -0.00502818465171   0.000606197424757   0.000534922336495   
400000000.0         0.000610022760585   0.000713180484329   0.999365400077      -0.00670430716318   0.999365400077      -0.00670430716318   0.000610022760585   0.000713180484329   
500000000.0         0.000614113452155   0.000891409251098   0.999349803897      -0.00838047515492   0.999349803897      -0.00838047515492   0.000614113452155   0.000891409251098   
600000000.0         0.000618571047024   0.00106960542298    0.999331595416      -0.0100566940497    0.999331595416      -0.0100566940497    0.000618571047024   0.00106960542298    
700000000.0         0.000623455402986   0.00124776588952    0.999310714216      -0.0117329681263    0.999310714216      -0.0117329681263    0.000623455402986   0.00124776588952    
800000000.0         0.000628805201689   0.0014258876675     0.999287121008      -0.0134093008099    0.999287121008      -0.0134093008099    0.000628805201688   0.0014258876675     
900000000.0         0.000634647077299   0.00160396790579    0.999260788512      -0.0150856948523    0.999260788512      -0.0150856948523    0.000634647077299   0.00160396790579    
1000000000.0        0.000641000241223   0.00178200388275    0.99923169683       -0.0167621524548    0.99923169683       -0.0167621524548    0.000641000241223   0.00178200388275    
1100000000.0        0.000647879051674   0.00195999300117    0.999199830884      -0.0184386753557    0.999199830884      -0.0184386753557    0.000647879051674   0.00195999300117    
1200000000.0        0.000655294544132   0.00213793278223    0.999165178888      -0.0201152648959    0.999165178888      -0.0201152648959    0.000655294544133   0.00213793278223    
1300000000.0        0.000663255393868   0.0023158208594     0.999127731386      -0.0217919220698    0.999127731386      -0.0217919220698    0.000663255393868   0.0023158208594     
1400000000.0        0.000671768548384   0.00249365497266    0.999087480625      -0.0234686475651    0.999087480625      -0.0234686475651    0.000671768548384   0.00249365497266    
1500000000.0        0.000680839658281   0.00267143296291    0.999044420124      -0.0251454417957    0.999044420124      -0.0251454417957    0.000680839658282   0.00267143296291    
1600000000.0        0.000690473379814   0.00284915276689    0.998998544375      -0.0268223049285    0.998998544375      -0.0268223049285    0.000690473379815   0.00284915276689    
1700000000.0        0.000700673592914   0.00302681241241    0.998949848625      -0.0284992369056    0.998949848625      -0.0284992369056    0.000700673592914   0.00302681241241    
1800000000.0        0.000711443561833   0.00320441001393    0.998898328718      -0.0301762374644    0.998898328718      -0.0301762374644    0.000711443561833   0.00320441001393    
1900000000.0        0.00072278605584    0.00338194376855    0.998843980977      -0.0318533061528    0.998843980977      -0.0318533061528    0.00072278605584    0.00338194376855    
2000000000.0        0.000734703441467   0.00355941195221    0.99878680211       -0.0335304423446    0.99878680211       -0.0335304423446    0.000734703441467   0.00355941195221    
2100000000.0        0.000747197754086   0.00373681291615    0.998726789144      -0.0352076452514    0.998726789144      -0.0352076452514    0.000747197754086   0.00373681291615    
2200000000.0        0.000760270754218   0.00391414508371    0.998663939367      -0.0368849139338    0.998663939367      -0.0368849139338    0.000760270754218   0.00391414508371    
2300000000.0        0.000773923972364   0.00409140694726    0.998598250284      -0.038562247311     0.998598250284      -0.038562247311     0.000773923972364   0.00409140694726    
2400000000.0        0.000788158745103   0.00426859706538    0.998529719586      -0.0402396441701    0.998529719586      -0.0402396441701    0.000788158745103   0.00426859706538    
2500000000.0        0.000802976244458   0.00444571406014    0.998458345115      -0.0419171031733    0.998458345115      -0.0419171031733    0.000802976244458   0.00444571406014    
2600000000.0        0.000818377501991   0.00462275661464    0.998384124848      -0.0435946228655    0.998384124848      -0.0435946228655    0.00081837750199    0.00462275661464    
2700000000.0        0.000834363428755   0.00479972347068    0.998307056873      -0.0452722016805    0.998307056873      -0.0452722016805    0.000834363428755   0.00479972347068    
2800000000.0        0.000850934831938   0.00497661342643    0.998227139376      -0.0469498379471    0.998227139376      -0.0469498379471    0.000850934831939   0.00497661342643    
2900000000.0        0.000868092428857   0.00515342533443    0.998144370626      -0.0486275298943    0.998144370626      -0.0486275298943    0.000868092428857   0.00515342533443    
3000000000.0        0.000885836858783   0.00533015809957    0.998058748966      -0.0503052756563    0.998058748966      -0.0503052756563    0.000885836858783   0.00533015809957    
3100000000.0        0.000904168693025   0.00550681067716    0.997970272801      -0.0519830732771    0.997970272801      -0.0519830732771    0.000904168693025   0.00550681067716    
3200000000.0        0.000923088443552   0.00568338207118    0.997878940593      -0.0536609207147    0.997878940593      -0.0536609207147    0.000923088443551   0.00568338207118    
3300000000.0        0.000942596570424   0.00585987133256    0.997784750852      -0.055338815845     0.997784750852      -0.055338815845     0.000942596570424   0.00585987133256    
3400000000.0        0.000962693488225   0.00603627755754    0.997687702132      -0.0570167564654    0.997687702132      -0.0570167564654    0.000962693488225   0.00603627755754    
3500000000.0        0.000983379571645   0.00621259988615    0.997587793025      -0.0586947402982    0.997587793025      -0.0586947402982    0.000983379571645   0.00621259988615    
3600000000.0        0.00100465516038    0.00638883750066    0.997485022156      -0.0603727649937    0.997485022156      -0.0603727649937    0.00100465516038    0.00638883750066    
3700000000.0        0.00102652056339    0.00656498962428    0.997379388182      -0.0620508281333    0.997379388182      -0.0620508281333    0.00102652056339    0.00656498962428    
3800000000.0        0.00104897606272    0.00674105551964    0.997270889785      -0.0637289272322    0.997270889785      -0.0637289272322    0.00104897606272    0.00674105551964    
3900000000.0        0.0010720219168     0.00691703448765    0.997159525674      -0.0654070597418    0.997159525674      -0.0654070597418    0.0010720219168     0.00691703448765    
4000000000.0        0.00109565836342    0.00709292586612    0.997045294576      -0.0670852230524    0.997045294576      -0.0670852230524    0.00109565836342    0.00709292586612    
4100000000.0        0.00111988562237    0.00726872902867    0.996928195241      -0.0687634144952    0.996928195241      -0.0687634144952    0.00111988562237    0.00726872902867    
4200000000.0        0.00114470389781    0.00744444338351    0.996808226436      -0.070441631345     0.996808226436      -0.070441631345     0.00114470389781    0.00744444338351    
4300000000.0        0.00117011338039    0.00762006837231    0.996685386943      -0.0721198708216    0.996685386943      -0.0721198708216    0.00117011338039    0.00762006837231    
4400000000.0        0.00119611424913    0.00779560346922    0.99655967556       -0.0737981300922    0.99655967556       -0.0737981300922    0.00119611424913    0.00779560346922    
4500000000.0        0.00122270667314    0.00797104817977    0.996431091097      -0.075476406273     0.996431091097      -0.075476406273     0.00122270667314    0.00797104817977    
4600000000.0        0.00124989081319    0.00814640203992    0.996299632377      -0.0771546964309    0.996299632377      -0.0771546964309    0.00124989081319    0.00814640203992    
4700000000.0        0.00127766682312    0.00832166461505    0.996165298235      -0.0788329975855    0.996165298235      -0.0788329975855    0.00127766682312    0.00832166461505    
4800000000.0        0.00130603485108    0.0084968354991     0.996028087515      -0.0805113067103    0.996028087515      -0.0805113067103    0.00130603485108    0.0084968354991     
4900000000.0        0.00133499504074    0.00867191431364    0.995887999072      -0.0821896207343    0.995887999072      -0.0821896207343    0.00133499504074    0.00867191431364    
5000000000.0        0.00136454753233    0.00884690070703    0.995745031767      -0.0838679365433    0.995745031767      -0.0838679365433    0.00136454753233    0.00884690070703    
5100000000.0        0.00139469246362    0.00902179435356    0.995599184473      -0.0855462509816    0.995599184473      -0.0855462509816    0.00139469246362    0.00902179435356    
5200000000.0        0.00142542997082    0.00919659495266    0.995450456067      -0.0872245608529    0.995450456067      -0.0872245608529    0.00142542997082    0.00919659495266    
5300000000.0        0.00145676018939    0.00937130222812    0.995298845436      -0.0889028629218    0.995298845436      -0.0889028629218    0.00145676018939    0.00937130222812    
5400000000.0        0.00148868325479    0.00954591592733    0.995144351471      -0.0905811539149    0.995144351471      -0.0905811539149    0.00148868325479    0.00954591592733    
5500000000.0        0.00152119930322    0.00972043582054    0.994986973073      -0.0922594305216    0.994986973073      -0.0922594305216    0.00152119930322    0.00972043582054    
5600000000.0        0.00155430847221    0.00989486170018    0.994826709144      -0.0939376893959    0.994826709144      -0.0939376893959    0.00155430847221    0.00989486170018    
5700000000.0        0.00158801090125    0.0100691933801     0.994663558595      -0.0956159271565    0.994663558595      -0.0956159271565    0.00158801090125    0.0100691933801     
5800000000.0        0.00162230673234    0.010243430695      0.994497520342      -0.0972941403886    0.994497520342      -0.0972941403886    0.00162230673234    0.010243430695      
5900000000.0        0.00165719611048    0.0104175734997     0.994328593305      -0.0989723256444    0.994328593305      -0.0989723256444    0.00165719611048    0.0104175734997     
6000000000.0        0.0016926791842     0.0105916216685     0.994156776409      -0.100650479444     0.994156776409      -0.100650479444     0.0016926791842     0.0105916216685     
6100000000.0        0.00172875610594    0.0107655750947     0.993982068583      -0.102328598277     0.993982068583      -0.102328598277     0.00172875610594    0.0107655750947     
6200000000.0        0.00176542703253    0.0109394336899     0.993804468763      -0.104006678601     0.993804468763      -0.104006678601     0.00176542703253    0.0109394336899     
6300000000.0        0.00180269212552    0.0111131973832     0.993623975885      -0.105684716846     0.993623975885      -0.105684716846     0.00180269212552    0.0111131973832     
6400000000.0        0.00184055155159    0.0112868661211     0.993440588893      -0.107362709412     0.993440588893      -0.107362709412     0.00184055155159    0.0112868661211     
6500000000.0        0.00187900548286    0.0114604398668     0.993254306733      -0.109040652672     0.993254306733      -0.109040652672     0.00187900548286    0.0114604398668     
6600000000.0        0.00191805409722    0.0116339185992     0.993065128355      -0.110718542971     0.993065128355      -0.110718542971     0.00191805409722    0.0116339185992     
6700000000.0        0.00195769757863    0.0118073023131     0.992873052712      -0.112396376628     0.992873052712      -0.112396376628     0.00195769757863    0.0118073023131     
6800000000.0        0.00199793611738    0.0119805910182     0.992678078764      -0.114074149934     0.992678078764      -0.114074149934     0.00199793611738    0.0119805910182     
6900000000.0        0.0020387699104     0.0121537847388     0.992480205469      -0.115751859157     0.992480205469      -0.115751859157     0.0020387699104     0.0121537847388     
7000000000.0        0.00208019916145    0.0123268835132     0.992279431794      -0.117429500539     0.992279431794      -0.117429500539     0.00208019916145    0.0123268835132     
7100000000.0        0.0021222240814     0.0124998873935     0.992075756705      -0.119107070299     0.992075756705      -0.119107070299     0.0021222240814     0.0124998873935     
7200000000.0        0.00216484488844    0.0126727964447     0.991869179175      -0.12078456463      0.991869179175      -0.12078456463      0.00216484488843    0.0126727964447     
7300000000.0        0.00220806180824    0.0128456107446     0.991659698178      -0.122461979705     0.991659698178      -0.122461979705     0.00220806180824    0.0128456107446     
7400000000.0        0.00225187507424    0.0130183303833     0.991447312691      -0.124139311671     0.991447312691      -0.124139311671     0.00225187507424    0.0130183303833     
7500000000.0        0.00229628492775    0.0131909554627     0.991232021696      -0.125816556656     0.991232021696      -0.125816556656     0.00229628492775    0.0131909554627     
7600000000.0        0.00234129161815    0.013363486096      0.991013824177      -0.127493710765     0.991013824177      -0.127493710765     0.00234129161815    0.013363486096      
7700000000.0        0.00238689540308    0.0135359224076     0.990792719122      -0.129170770081     0.990792719122      -0.129170770081     0.00238689540308    0.0135359224076     
7800000000.0        0.00243309654856    0.0137082645325     0.990568705521      -0.130847730668     0.990568705521      -0.130847730668     0.00243309654856    0.0137082645325     
7900000000.0        0.00247989532917    0.0138805126156     0.990341782368      -0.132524588569     0.990341782368      -0.132524588569     0.00247989532917    0.0138805126156     
8000000000.0        0.00252729202816    0.0140526668121     0.99011194866       -0.134201339807     0.99011194866       -0.134201339807     0.00252729202816    0.0140526668121     
8100000000.0        0.00257528693761    0.0142247272864     0.989879203397      -0.135877980384     0.989879203397      -0.135877980384     0.00257528693761    0.0142247272864     
8200000000.0        0.00262388035854    0.0143966942119     0.989643545582      -0.137554506286     0.989643545582      -0.137554506286     0.00262388035854    0.0143966942119     
8300000000.0        0.00267307260102    0.0145685677709     0.989404974222      -0.139230913479     0.989404974222      -0.139230913479     0.00267307260102    0.0145685677709     
8400000000.0        0.00272286398431    0.0147403481542     0.989163488325      -0.140907197909     0.989163488325      -0.140907197909     0.00272286398431    0.0147403481542     
8500000000.0        0.00277325483694    0.0149120355605     0.988919086904      -0.142583355507     0.988919086904      -0.142583355507     0.00277325483694    0.0149120355605     
8600000000.0        0.00282424549682    0.0150836301961     0.988671768975      -0.144259382182     0.988671768975      -0.144259382182     0.00282424549682    0.0150836301961     
8700000000.0        0.00287583631136    0.0152551322749     0.988421533557      -0.145935273831     0.988421533557      -0.145935273831     0.00287583631136    0.0152551322749     
8800000000.0        0.0029280276375     0.0154265420177     0.988168379671      -0.147611026329     0.988168379671      -0.147611026329     0.0029280276375     0.0154265420177     
8900000000.0        0.00298081984186    0.0155978596522     0.987912306342      -0.149286635538     0.987912306342      -0.149286635538     0.00298081984186    0.0155978596522     
9000000000.0        0.00303421330079    0.0157690854123     0.987653312599      -0.1509620973       0.987653312599      -0.1509620973       0.00303421330079    0.0157690854123     
9100000000.0        0.00308820840045    0.0159402195383     0.987391397473      -0.152637407444     0.987391397473      -0.152637407444     0.00308820840045    0.0159402195383     
9200000000.0        0.00314280553689    0.0161112622762     0.987126559999      -0.154312561782     0.987126559999      -0.154312561782     0.00314280553689    0.0161112622762     
9300000000.0        0.0031980051161     0.0162822138774     0.986858799213      -0.155987556109     0.986858799213      -0.155987556109     0.0031980051161     0.0162822138774     
9400000000.0        0.00325380755409    0.0164530745987     0.986588114158      -0.157662386205     0.986588114158      -0.157662386205     0.00325380755409    0.0164530745987     
9500000000.0        0.00331021327698    0.0166238447019     0.986314503877      -0.159337047836     0.986314503877      -0.159337047836     0.00331021327698    0.0166238447019     
9600000000.0        0.00336722272098    0.0167945244533     0.986037967417      -0.161011536753     0.986037967417      -0.161011536753     0.00336722272098    0.0167945244533     
9700000000.0        0.00342483633253    0.0169651141238     0.98575850383       -0.162685848691     0.98575850383       -0.162685848691     0.00342483633253    0.0169651141238     
9800000000.0        0.00348305456829    0.0171356139883     0.98547611217       -0.16435997937      0.98547611217       -0.16435997937      0.00348305456829    0.0171356139883     
9900000000.0        0.00354187789523    0.0173060243256     0.985190791493      -0.166033924497     0.985190791493      -0.166033924497     0.00354187789523    0.0173060243256     
10000000000.0       0.00360130679065    0.0174763454181     0.984902540861      -0.167707679765     0.984902540861      -0.167707679765     0.00360130679065    0.0174763454181     
