# Hz S RI R 50.00 
100000000.0         -0.000204030460773  -0.0138113900418    0.999793444494      -0.0138278905732    0.999793444494      -0.0138278905732    -0.000204030460773  -0.0138113900418    
200000000.0         -0.000790225821681  -0.0276032856278    0.999207231455      -0.0276362954401    0.999207231455      -0.0276362954401    -0.000790225821681  -0.0276032856278    
300000000.0         -0.00175612142077   -0.041358556781     0.998241322244      -0.0414080888377    0.998241322244      -0.0414080888377    -0.00175612142077   -0.041358556781     
400000000.0         -0.0030990366608    -0.0550606585752    0.996898395287      -0.0551267287898    0.996898395287      -0.0551267287898    -0.0030990366608    -0.0550606585752    
500000000.0         -0.00481537575267   -0.0686935190297    0.995182045542      -0.0687761455346    0.995182045542      -0.0687761455346    -0.00481537575267   -0.0686935190297    
600000000.0         -0.00690067206853   -0.0822415332562    0.993096739215      -0.0823407358707    0.993096739215      -0.0823407358707    -0.00690067206853   -0.0822415332562    
700000000.0         -0.00934963206258   -0.0956895822508    0.990647769604      -0.0958053820611    0.990647769604      -0.0958053820611    -0.00934963206258   -0.0956895822508    
800000000.0         -0.0121561798723    -0.109023059463     0.98784121241       -0.109155478478     0.98784121241       -0.109155478478     -0.0121561798723    -0.109023059463     
900000000.0         -0.0153135029771    -0.122227899341     0.984683880044      -0.122376960203     0.984683880044      -0.122376960203     -0.0153135029771    -0.122227899341     
1000000000.0        -0.0188140989668    -0.135290605308     0.981183274835      -0.135456331052     0.981183274835      -0.135456331052     -0.0188140989668    -0.135290605308     
1100000000.0        -0.022649823345     -0.148198275994     0.977347541221      -0.148380689841     0.977347541221      -0.148380689841     -0.022649823345     -0.148198275994     
1200000000.0        -0.0268119381984    -0.160938629032     0.973185417068      -0.161137754219     0.973185417068      -0.161137754219     -0.0268119381984    -0.160938629032     
1300000000.0        -0.0312911615397    -0.17350002205      0.968706184328      -0.173715881681     0.968706184328      -0.173715881681     -0.0312911615397    -0.17350002205      
1400000000.0        -0.0360777171005    -0.185871470628     0.963919619239      -0.186104087558     0.963919619239      -0.186104087558     -0.0360777171005    -0.185871470628     
1500000000.0        -0.0411613843502    -0.198042663133     0.958835942308      -0.198292059863     0.958835942308      -0.198292059863     -0.0411613843502    -0.198042663133     
1600000000.0        -0.0465315484859    -0.210003972296     0.953465768319      -0.210270170897     0.953465768319      -0.210270170897     -0.0465315484859    -0.210003972296     
1700000000.0        -0.052177250168     -0.221746463597     0.947820056593      -0.22202948564      0.947820056593      -0.22202948564      -0.052177250168     -0.221746463597     
1800000000.0        -0.0580872347548    -0.23326190042      0.941910061758      -0.233561766929     0.941910061758      -0.233561766929     -0.0580872347548    -0.23326190042      
1900000000.0        -0.0642500007903    -0.244542746041     0.935747285258      -0.244859477451     0.935747285258      -0.244859477451     -0.0642500007903    -0.244542746041     
2000000000.0        -0.0706538475408    -0.255582162556     0.929343427816      -0.255915778683     0.929343427816      -0.255915778683     -0.0706538475408    -0.255582162556     
2100000000.0        -0.0772869213325    -0.266374006805     0.922710343098      -0.266724526828     0.922710343098      -0.266724526828     -0.0772869213325    -0.266374006805     
2200000000.0        -0.0841372605113    -0.276912823464     0.915859992748      -0.277280265912     0.915859992748      -0.277280265912     -0.0841372605113    -0.276912823464     
2300000000.0        -0.0911928388181    -0.287193835423     0.908804403019      -0.287578218171     0.908804403019      -0.287578218171     -0.0911928388181    -0.287193835423     
2400000000.0        -0.0984416070152    -0.297212931625     0.901555623143      -0.297614271887     0.901555623143      -0.297614271887     -0.0984416070152    -0.297212931625     
2500000000.0        -0.105871532608     -0.306966652537     0.894125685609      -0.307384966878     0.894125685609      -0.307384966878     -0.105871532608     -0.306966652537     
2600000000.0        -0.113470637527     -0.316452173457     0.886526568481      -0.316887477796     0.886526568481      -0.316887477796     -0.113470637527     -0.316452173457     
2700000000.0        -0.121227033661     -0.325667285843     0.878770159866      -0.326119595465     0.878770159866      -0.326119595465     -0.121227033661     -0.325667285843     
2800000000.0        -0.129128956147     -0.334610376881     0.870868224623      -0.335079706449     0.870868224623      -0.335079706449     -0.129128956147     -0.334610376881     
2900000000.0        -0.137164794353     -0.343280407501     0.86283237338       -0.343766771073     0.86283237338       -0.343766771073     -0.137164794353     -0.343280407501     
3000000000.0        -0.145323120497     -0.351676889046     0.854674033918      -0.352180300091     0.854674033918      -0.352180300091     -0.145323120497     -0.351676889046     
3100000000.0        -0.153592715876     -0.35979985882      0.846404424934      -0.360320330236     0.846404424934      -0.360320330236     -0.153592715876     -0.35979985882      
3200000000.0        -0.161962594718     -0.367649854713     0.838034532199      -0.368187398845     0.838034532199      -0.368187398845     -0.161962594718     -0.367649854713     
3300000000.0        -0.170422025625     -0.3752278891       0.829575087109      -0.37578251776      0.829575087109      -0.37578251776      -0.170422025625     -0.3752278891       
3400000000.0        -0.178960550679     -0.382535422229     0.82103654758       -0.383107146715     0.82103654758       -0.383107146715     -0.178960550679     -0.382535422229     
3500000000.0        -0.187568002231     -0.389574335264     0.812429081258      -0.39016316638      0.812429081258      -0.39016316638      -0.187568002231     -0.389574335264     
3600000000.0        -0.196234517438     -0.39634690317      0.803762550985      -0.396952851244     0.803762550985      -0.396952851244     -0.196234517438     -0.39634690317      
3700000000.0        -0.204950550611     -0.402855767605     0.795046502447      -0.403478842512     0.795046502447      -0.403478842512     -0.204950550611     -0.402855767605     
3800000000.0        -0.213706883478     -0.409103909971     0.786290153916      -0.409744121148     0.786290153916      -0.409744121148     -0.213706883478     -0.409103909971     
3900000000.0        -0.222494633425     -0.415094624757     0.777502388005      -0.415751981226     0.777502388005      -0.415751981226     -0.222494633425     -0.415094624757     
4000000000.0        -0.231305259833     -0.420831493321     0.768691745331      -0.421506003702     0.768691745331      -0.421506003702     -0.231305259833     -0.420831493321     
4100000000.0        -0.240130568612     -0.426318358199     0.759866419983      -0.427010030733     0.759866419983      -0.427010030733     -0.240130568612     -0.426318358199     
4200000000.0        -0.24896271504      -0.431559298066     0.751034256681      -0.432268140629     0.751034256681      -0.432268140629     -0.24896271504      -0.431559298066     
4300000000.0        -0.257794205019     -0.436558603425     0.742202749523      -0.437284623546     0.742202749523      -0.437284623546     -0.257794205019     -0.436558603425     
4400000000.0        -0.266617894867     -0.4413207531       0.733379042191      -0.442063957977     0.733379042191      -0.442063957977     -0.266617894867     -0.4413207531       
4500000000.0        -0.275426989755     -0.445850391603     0.724569929511      -0.446610788118     0.724569929511      -0.446610788118     -0.275426989755     -0.445850391603     
4600000000.0        -0.28421504091      -0.450152307417     0.715781860258      -0.450929902153     0.715781860258      -0.450929902153     -0.28421504091      -0.450152307417     
4700000000.0        -0.292975941692     -0.454231412252     0.707020941068      -0.455026211504     0.707020941068      -0.455026211504     -0.292975941692     -0.454231412252     
4800000000.0        -0.301703922663     -0.458092721286     0.698292941381      -0.458904731077     0.698292941381      -0.458904731077     -0.301703922663     -0.458092721286     
4900000000.0        -0.310393545743     -0.461741334421     0.689603299276      -0.462570560515     0.689603299276      -0.462570560515     -0.310393545743     -0.461741334421     
5000000000.0        -0.319039697572     -0.46518241858      0.680957128112      -0.466028866494     0.680957128112      -0.466028866494     -0.319039697572     -0.46518241858      
5100000000.0        -0.327637582166     -0.468421191015     0.672359223873      -0.469284866031     0.672359223873      -0.469284866031     -0.327637582166     -0.468421191015     
5200000000.0        -0.336182712971     -0.471462903667     0.663814073111      -0.472343810844     0.663814073111      -0.472343810844     -0.336182712971     -0.471462903667     
5300000000.0        -0.344670904397     -0.474312828528     0.655325861418      -0.475210972712     0.655325861418      -0.475210972712     -0.344670904397     -0.474312828528     
5400000000.0        -0.353098262923     -0.47697624402      0.646898482313      -0.477891629857     0.646898482313      -0.477891629857     -0.353098262923     -0.47697624402      
5500000000.0        -0.361461177847     -0.479458422355     0.638535546497      -0.480391054298     0.638535546497      -0.480391054298     -0.361461177847     -0.479458422355     
5600000000.0        -0.369756311766     -0.481764617859     0.630240391375      -0.482714500178     0.630240391375      -0.482714500178     -0.369756311766     -0.481764617859     
5700000000.0        -0.377980590837     -0.483900056226     0.622016090789      -0.484867193018     0.622016090789      -0.484867193018     -0.377980590837     -0.483900056226     
5800000000.0        -0.386131194898     -0.485869924676     0.613865464898      -0.486854319873     0.613865464898      -0.486854319873     -0.386131194898     -0.485869924676     
5900000000.0        -0.394205547506     -0.487679362987     0.605791090149      -0.488681020365     0.605791090149      -0.488681020365     -0.394205547506     -0.487679362987     
6000000000.0        -0.402201305926     -0.489333455353     0.597795309274      -0.490352378538     0.597795309274      -0.490352378538     -0.402201305926     -0.489333455353     
6100000000.0        -0.41011635115      -0.490837223046     0.589880241282      -0.491873415524     0.589880241282      -0.491873415524     -0.41011635115      -0.490837223046     
6200000000.0        -0.417948777958     -0.492195617836     0.582047791392      -0.493249082955     0.582047791392      -0.493249082955     -0.417948777958     -0.492195617836     
6300000000.0        -0.42569688508      -0.493413516125     0.574299660874      -0.49448425711      0.574299660874      -0.49448425711      -0.42569688508      -0.493413516125     
6400000000.0        -0.433359165485     -0.494495713779     0.56663735676       -0.495583733729     0.56663735676       -0.495583733729     -0.433359165485     -0.494495713779     
6500000000.0        -0.440934296829     -0.495446921586     0.559062201392      -0.496552223486     0.559062201392      -0.496552223486     -0.440934296829     -0.495446921586     
6600000000.0        -0.448421132081     -0.496271761332     0.551575341802      -0.497394348058     0.551575341802      -0.497394348058     -0.448421132081     -0.496271761332     
6700000000.0        -0.455818690365     -0.496974762439     0.544177758866      -0.498114636761     0.544177758866      -0.498114636761     -0.455818690365     -0.496974762439     
6800000000.0        -0.463126148018     -0.497560359135     0.536870276247      -0.498717523723     0.536870276247      -0.498717523723     -0.463126148018     -0.497560359135     
6900000000.0        -0.470342829894     -0.498032888116     0.529653569089      -0.499207345548     0.529653569089      -0.499207345548     -0.470342829894     -0.498032888116     
7000000000.0        -0.477468200922     -0.498396586673     0.522528172466      -0.499588339436     0.522528172466      -0.499588339436     -0.477468200922     -0.498396586673     
7100000000.0        -0.484501857923     -0.498655591237     0.515494489554      -0.499864641733     0.515494489554      -0.499864641733     -0.484501857923     -0.498655591237     
7200000000.0        -0.491443521705     -0.498813936323     0.508552799547      -0.500040286871     0.508552799547      -0.500040286871     -0.491443521705     -0.498813936323     
7300000000.0        -0.498293029437     -0.49887555383      0.501703265275      -0.500119206673     0.501703265275      -0.500119206673     -0.498293029437     -0.49887555383      
7400000000.0        -0.505050327292     -0.498844272676     0.494945940565      -0.500105229983     0.494945940565      -0.500105229983     -0.505050327292     -0.498844272676     
7500000000.0        -0.511715463391     -0.498723818734     0.488280777297      -0.500002082604     0.488280777297      -0.500002082604     -0.511715463391     -0.498723818734     
7600000000.0        -0.518288581016     -0.498517815047     0.481707632188      -0.499813387513     0.481707632188      -0.499813387513     -0.518288581016     -0.498517815047     
7700000000.0        -0.524769912115     -0.498229782285     0.475226273289      -0.499542665317     0.475226273289      -0.499542665317     -0.524769912115     -0.498229782285     
7800000000.0        -0.531159771084     -0.49786313944      0.468836386205      -0.499193334948     0.468836386205      -0.499193334948     -0.531159771084     -0.49786313944      
7900000000.0        -0.537458548823     -0.497421204713     0.462537580037      -0.498768714548     0.462537580037      -0.498768714548     -0.537458548823     -0.497421204713     
8000000000.0        -0.54366670707      -0.49690719659      0.456329393046      -0.498272022549     0.456329393046      -0.498272022549     -0.54366670707      -0.49690719659      
8100000000.0        -0.549784772999     -0.496324235072     0.450211298057      -0.497706378902     0.450211298057      -0.497706378902     -0.549784772999     -0.496324235072     
8200000000.0        -0.555813334085     -0.495675343058     0.444182707598      -0.497074806455     0.444182707598      -0.497074806455     -0.555813334085     -0.495675343058     
8300000000.0        -0.561753033214     -0.494963447846     0.43824297878       -0.496380232459     0.43824297878       -0.496380232459     -0.561753033214     -0.494963447846     
8400000000.0        -0.567604564052     -0.494191382744     0.432391417937      -0.495625490177     0.432391417937      -0.495625490177     -0.567604564052     -0.494191382744     
8500000000.0        -0.573368666653     -0.493361888777     0.426627285017      -0.494813320594     0.426627285017      -0.494813320594     -0.573368666653     -0.493361888777     
8600000000.0        -0.579046123296     -0.492477616476     0.42094979774       -0.493946374196     0.42094979774       -0.493946374196     -0.579046123296     -0.492477616476     
8700000000.0        -0.584637754551     -0.491541127726     0.415358135536      -0.493027212834     0.415358135536      -0.493027212834     -0.584637754551     -0.491541127726     
8800000000.0        -0.590144415567     -0.49055489768      0.409851443256      -0.492058311622     0.409851443256      -0.492058311622     -0.590144415567     -0.49055489768      
8900000000.0        -0.595566992562     -0.489521316712     0.404428834681      -0.4910420609       0.404428834681      -0.4910420609       -0.595566992562     -0.489521316712     
9000000000.0        -0.600906399525     -0.488442692406     0.399089395824      -0.489980768217     0.399089395824      -0.489980768217     -0.600906399525     -0.488442692406     
9100000000.0        -0.606163575102     -0.487321251568     0.393832188039      -0.488876660349     0.393832188039      -0.488876660349     -0.606163575102     -0.487321251568     
9200000000.0        -0.611339479673     -0.486159142259     0.388656250943      -0.487731885328     0.388656250943      -0.487731885328     -0.611339479673     -0.486159142259     
9300000000.0        -0.616435092613     -0.484958435838     0.383560605164      -0.486548514482     0.383560605164      -0.486548514482     -0.616435092613     -0.484958435838     
9400000000.0        -0.621451409709     -0.483721129004     0.378544254915      -0.485328544483     0.378544254915      -0.485328544483     -0.621451409709     -0.483721129004     
9500000000.0        -0.626389440753     -0.482449145838     0.373606190403      -0.484073899389     0.373606190403      -0.484073899389     -0.626389440753     -0.482449145838     
9600000000.0        -0.631250207284     -0.48114433984      0.368745390089      -0.482786432671     0.368745390089      -0.482786432671     -0.631250207284     -0.48114433984      
9700000000.0        -0.636034740478     -0.479808495941     0.363960822796      -0.481467929241     0.363960822796      -0.481467929241     -0.636034740478     -0.479808495941     
9800000000.0        -0.64074407918      -0.478443332513     0.359251449681      -0.480120107445     0.359251449681      -0.480120107445     -0.64074407918      -0.478443332513     
9900000000.0        -0.645379268071     -0.477050503342     0.354616226063      -0.47874462105      0.354616226063      -0.47874462105      -0.645379268071     -0.477050503342     
10000000000.0       -0.649941355956     -0.475631599588     0.350054103136      -0.477343061195     0.350054103136      -0.477343061195     -0.649941355956     -0.475631599588     
