# Hz S RI R 50.00 
100000000.0         0.00614556041857    0.00112726013512    0.99385299059       -0.00152971299245   0.99385299059       -0.00152971299245   0.00614556041857    0.00112726013512    
200000000.0         0.00619107108632    0.00225429406353    0.993806868616      -0.00305920327161   0.993806868616      -0.00305920327161   0.00619107108632    0.00225429406353    
300000000.0         0.00622918215536    0.00338117742361    0.993767983914      -0.00458854847887   0.993767983914      -0.00458854847887   0.00622918215536    0.00338117742361    
400000000.0         0.00626521372638    0.00450792854195    0.993731016367      -0.0061177685109    0.993731016367      -0.0061177685109    0.00626521372638    0.00450792854195    
500000000.0         0.00630121724051    0.00563455235574    0.993693914518      -0.00764686965631   0.993693914518      -0.00764686965631   0.00630121724051    0.00563455235574    
600000000.0         0.0063382400833     0.00676104785574    0.993655630967      -0.00917585211391   0.993655630967      -0.00917585211391   0.0063382400833     0.00676104785574    
700000000.0         0.00637690157402    0.00788741076598    0.993615546373      -0.0107047127108    0.993615546373      -0.0107047127108    0.00637690157402    0.00788741076598    
800000000.0         0.00641760328363    0.00901363478932    0.993573259148      -0.0122334461708    0.993573259148      -0.0122334461708    0.00641760328363    0.00901363478932    
900000000.0         0.00646062272164    0.0101397122777     0.993528491759      -0.0137620458       0.993528491759      -0.0137620458       0.00646062272164    0.0101397122777     
1000000000.0        0.006506160845      0.0112656346296     0.993481043229      -0.0152905038952    0.993481043229      -0.0152905038952    0.006506160845      0.0112656346296     
1100000000.0        0.00655436847908    0.0123913925432     0.993430762707      -0.0168188120042    0.993430762707      -0.0168188120042    0.00655436847908    0.0123913925432     
1200000000.0        0.00660536206787    0.0135169761858     0.993377533726      -0.0183469611021    0.993377533726      -0.0183469611021    0.00660536206787    0.0135169761858     
1300000000.0        0.00665923358741    0.0146423753127     0.993321264283      -0.0198749417142    0.993321264283      -0.0198749417142    0.00665923358741    0.0146423753127     
1400000000.0        0.00671605706448    0.0157675793527     0.993261880325      -0.021402744006     0.993261880325      -0.021402744006     0.00671605706448    0.0157675793527     
1500000000.0        0.00677589302042    0.0168925774722     0.993199321303      -0.0229303578498    0.993199321303      -0.0229303578498    0.00677589302042    0.0168925774722     
1600000000.0        0.00683879159344    0.0180173586237     0.99313353705       -0.0244577728764    0.99313353705       -0.0244577728764    0.00683879159344    0.0180173586237     
1700000000.0        0.00690479478964    0.0191419115832     0.99306448553       -0.0259849785144    0.99306448553       -0.0259849785144    0.00690479478964    0.0191419115832     
1800000000.0        0.00697393814214    0.0202662249807     0.992992131179      -0.0275119640225    0.992992131179      -0.0275119640225    0.00697393814214    0.0202662249807     
1900000000.0        0.00704625195803    0.0213902873235     0.992916443659      -0.0290387185149    0.992916443659      -0.0290387185149    0.00704625195803    0.0213902873235     
2000000000.0        0.00712176227132    0.0225140870161     0.992837396903      -0.030565230982     0.992837396903      -0.030565230982     0.00712176227132    0.0225140870161     
2100000000.0        0.00720049158255    0.0236376123758     0.992754968379      -0.0320914903079    0.992754968379      -0.0320914903079    0.00720049158255    0.0236376123758     
2200000000.0        0.00728245944027    0.0247608516462     0.992669138502      -0.0336174852848    0.992669138502      -0.0336174852848    0.00728245944027    0.0247608516462     
2300000000.0        0.00736768290407    0.0258837930086     0.992579890179      -0.035143204625     0.992579890179      -0.035143204625     0.00736768290407    0.0258837930086     
2400000000.0        0.00745617691704    0.0270064245911     0.992487208431      -0.0366686369714    0.992487208431      -0.0366686369714    0.00745617691704    0.0270064245911     
2500000000.0        0.00754795460859    0.0281287344767     0.992391080092      -0.0381937709065    0.992391080092      -0.0381937709065    0.00754795460859    0.0281287344767     
2600000000.0        0.0076430275427     0.0292507107106     0.992291493562      -0.0397185949598    0.992291493562      -0.0397185949598    0.0076430275427     0.0292507107106     
2700000000.0        0.00774140592326    0.030372341306      0.992188438599      -0.0412430976149    0.992188438599      -0.0412430976149    0.00774140592326    0.030372341306      
2800000000.0        0.00784309876513    0.0314936142492     0.99208190615       -0.042767267315     0.99208190615       -0.042767267315     0.00784309876513    0.0314936142492     
2900000000.0        0.00794811403765    0.0326145175044     0.991971888207      -0.044291092468     0.991971888207      -0.044291092468     0.00794811403765    0.0326145175044     
3000000000.0        0.0080564587859     0.0337350390178     0.991858377684      -0.0458145614516    0.991858377684      -0.0458145614516    0.0080564587859     0.0337350390178     
3100000000.0        0.00816813923367    0.0348551667209     0.991741368319      -0.0473376626169    0.991741368319      -0.0473376626169    0.00816813923367    0.0348551667209     
3200000000.0        0.00828316087147    0.0359748885343     0.991620854579      -0.0488603842921    0.991620854579      -0.0488603842921    0.00828316087147    0.0359748885343     
3300000000.0        0.00840152853206    0.0370941923696     0.99149683159       -0.0503827147859    0.99149683159       -0.0503827147859    0.00840152853206    0.0370941923696     
3400000000.0        0.00852324645579    0.0382130661331     0.991369295071      -0.0519046423906    0.991369295071      -0.0519046423906    0.00852324645579    0.0382130661331     
3500000000.0        0.00864831834706    0.0393314977272     0.991238241273      -0.0534261553843    0.991238241273      -0.0534261553843    0.00864831834706    0.0393314977272     
3600000000.0        0.00877674742365    0.0404494750529     0.991103666938      -0.0549472420339    0.991103666938      -0.0549472420339    0.00877674742365    0.0404494750529     
3700000000.0        0.00890853645976    0.0415669860118     0.990965569245      -0.0564678905969    0.990965569245      -0.0564678905969    0.00890853645976    0.0415669860118     
3800000000.0        0.00904368782386    0.0426840185077     0.990823945784      -0.0579880893237    0.990823945784      -0.0579880893237    0.00904368782386    0.0426840185077     
3900000000.0        0.00918220351196    0.0438005604481     0.990678794514      -0.0595078264593    0.990678794514      -0.0595078264593    0.00918220351196    0.0438005604481     
4000000000.0        0.00932408517708    0.0449165997458     0.990530113736      -0.0610270902451    0.990530113736      -0.0610270902451    0.00932408517708    0.0449165997458     
4100000000.0        0.00946933415537    0.0460321243203     0.990377902069      -0.0625458689207    0.990377902069      -0.0625458689207    0.00946933415537    0.0460321243203     
4200000000.0        0.00961795148937    0.047147122099      0.990222158424      -0.0640641507249    0.990222158424      -0.0640641507249    0.00961795148937    0.047147122099      
4300000000.0        0.00976993794871    0.0482615810183     0.990062881986      -0.0655819238976    0.990062881986      -0.0655819238976    0.00976993794871    0.0482615810183     
4400000000.0        0.00992529404868    0.0493754890245     0.989900072192      -0.0670991766809    0.989900072192      -0.0670991766809    0.00992529404868    0.0493754890245     
4500000000.0        0.0100840200669     0.0504888340755     0.989733728718      -0.0686158973202    0.989733728718      -0.0686158973202    0.0100840200669     0.0504888340755     
4600000000.0        0.0102461160583     0.0516016041407     0.98956385146       -0.0701320740652    0.98956385146       -0.0701320740652    0.0102461160583     0.0516016041407     
4700000000.0        0.0104115818687     0.052713787203      0.989390440526      -0.0716476951716    0.989390440526      -0.0716476951716    0.0104115818687     0.052713787203      
4800000000.0        0.0105804171468     0.0538253712585     0.989213496217      -0.0731627489013    0.989213496217      -0.0731627489013    0.0105804171468     0.0538253712585     
4900000000.0        0.0107526213555     0.0549363443183     0.989033019023      -0.0746772235239    0.989033019023      -0.0746772235239    0.0107526213555     0.0549363443183     
5000000000.0        0.0109281937819     0.0560466944085     0.988849009607      -0.0761911073173    0.988849009607      -0.0761911073173    0.0109281937819     0.0560466944085     
5100000000.0        0.0111071335463     0.0571564095713     0.988661468799      -0.0777043885688    0.988661468799      -0.0777043885688    0.0111071335463     0.0571564095713     
5200000000.0        0.0112894396107     0.0582654778655     0.988470397588      -0.0792170555756    0.988470397588      -0.0792170555756    0.0112894396107     0.0582654778655     
5300000000.0        0.0114751107865     0.059373887367      0.988275797111      -0.0807290966459    0.988275797111      -0.0807290966459    0.0114751107865     0.059373887367      
5400000000.0        0.0116641457411     0.0604816261698     0.988077668651      -0.0822405000992    0.988077668651      -0.0822405000992    0.0116641457411     0.0604816261698     
5500000000.0        0.0118565430049     0.0615886823862     0.987876013628      -0.0837512542675    0.987876013628      -0.0837512542675    0.0118565430049     0.0615886823862     
5600000000.0        0.0120523009765     0.0626950441473     0.98767083359       -0.0852613474956    0.98767083359       -0.0852613474956    0.0120523009765     0.0626950441473     
5700000000.0        0.0122514179287     0.0638006996038     0.987462130214      -0.0867707681418    0.987462130214      -0.0867707681418    0.0122514179287     0.0638006996038     
5800000000.0        0.0124538920132     0.0649056369265     0.987249905297      -0.0882795045787    0.987249905297      -0.0882795045787    0.0124538920132     0.0649056369265     
5900000000.0        0.0126597212652     0.0660098443065     0.987034160751      -0.0897875451935    0.987034160751      -0.0897875451935    0.0126597212652     0.0660098443065     
6000000000.0        0.012868903608      0.0671133099557     0.986814898601      -0.0912948783888    0.986814898601      -0.0912948783888    0.012868903608      0.0671133099557     
6100000000.0        0.0130814368563     0.0682160221074     0.98659212098       -0.092801492583     0.98659212098       -0.092801492583     0.0130814368563     0.0682160221074     
6200000000.0        0.0132973187206     0.0693179690168     0.986365830124      -0.0943073762109    0.986365830124      -0.0943073762109    0.0132973187206     0.0693179690168     
6300000000.0        0.0135165468102     0.0704191389611     0.986136028371      -0.0958125177242    0.986136028371      -0.0958125177242    0.0135165468102     0.0704191389611     
6400000000.0        0.0137391186363     0.0715195202402     0.985902718158      -0.097316905592     0.985902718158      -0.097316905592     0.0137391186363     0.0715195202402     
6500000000.0        0.0139650316155     0.0726191011768     0.985665902013      -0.0988205283012    0.985665902013      -0.0988205283012    0.0139650316155     0.0726191011768     
6600000000.0        0.0141942830718     0.0737178701171     0.985425582559      -0.100323374357     0.985425582559      -0.100323374357     0.0141942830718     0.0737178701171     
6700000000.0        0.0144268702398     0.0748158154307     0.985181762508      -0.101825432283     0.985181762508      -0.101825432283     0.0144268702398     0.0748158154307     
6800000000.0        0.0146627902668     0.0759129255115     0.984934444659      -0.103326690623     0.984934444659      -0.103326690623     0.0146627902668     0.0759129255115     
6900000000.0        0.0149020402154     0.0770091887777     0.984683631894      -0.104827137939     0.984683631894      -0.104827137939     0.0149020402154     0.0770091887777     
7000000000.0        0.015144617065      0.078104593672      0.98442932718       -0.106326762814     0.98442932718       -0.106326762814     0.015144617065      0.078104593672      
7100000000.0        0.0153905177146     0.0791991286625     0.984171533563      -0.107825553852     0.984171533563      -0.107825553852     0.0153905177146     0.0791991286625     
7200000000.0        0.0156397389841     0.0802927822422     0.983910254168      -0.109323499675     0.983910254168      -0.109323499675     0.0156397389841     0.0802927822422     
7300000000.0        0.0158922776163     0.0813855429301     0.983645492198      -0.110820588929     0.983645492198      -0.110820588929     0.0158922776163     0.0813855429301     
7400000000.0        0.0161481302785     0.0824773992708     0.98337725093       -0.112316810281     0.98337725093       -0.112316810281     0.0161481302785     0.0824773992708     
7500000000.0        0.0164072935643     0.0835683398355     0.983105533715      -0.113812152419     0.983105533715      -0.113812152419     0.0164072935643     0.0835683398355     
7600000000.0        0.0166697639948     0.0846583532215     0.982830343978      -0.115306604054     0.982830343978      -0.115306604054     0.0166697639948     0.0846583532215     
7700000000.0        0.0169355380203     0.0857474280532     0.982551685211      -0.116800153918     0.982551685211      -0.116800153918     0.0169355380203     0.0857474280532     
7800000000.0        0.0172046120212     0.0868355529819     0.982269560979      -0.118292790768     0.982269560979      -0.118292790768     0.0172046120212     0.0868355529819     
7900000000.0        0.0174769823099     0.0879227166863     0.981983974914      -0.119784503384     0.981983974914      -0.119784503384     0.0174769823099     0.0879227166863     
8000000000.0        0.0177526451317     0.0890089078726     0.981694930715      -0.121275280568     0.981694930715      -0.121275280568     0.0177526451317     0.0890089078726     
8100000000.0        0.0180315966657     0.0900941152749     0.981402432145      -0.122765111146     0.981402432145      -0.122765111146     0.0180315966657     0.0900941152749     
8200000000.0        0.0183138330264     0.0911783276555     0.981106483035      -0.124253983971     0.981106483035      -0.124253983971     0.0183138330264     0.0911783276555     
8300000000.0        0.0185993502646     0.0922615338047     0.980807087278      -0.125741887916     0.980807087278      -0.125741887916     0.0185993502646     0.0922615338047     
8400000000.0        0.018888144368      0.0933437225418     0.980504248829      -0.127228811883     0.980504248829      -0.127228811883     0.018888144368      0.0933437225418     
8500000000.0        0.0191802112627     0.0944248827147     0.980197971707      -0.128714744796     0.980197971707      -0.128714744796     0.0191802112627     0.0944248827147     
8600000000.0        0.019475546814      0.0955050032003     0.979888259988      -0.130199675605     0.979888259988      -0.130199675605     0.019475546814      0.0955050032003     
8700000000.0        0.019774146827      0.0965840729049     0.979575117811      -0.131683593287     0.979575117811      -0.131683593287     0.019774146827      0.0965840729049     
8800000000.0        0.0200760070478     0.0976620807643     0.979258549374      -0.133166486844     0.979258549374      -0.133166486844     0.0200760070478     0.0976620807643     
8900000000.0        0.0203811231641     0.0987390157439     0.978938558933      -0.134648345304     0.978938558933      -0.134648345304     0.0203811231641     0.0987390157439     
9000000000.0        0.0206894908059     0.0998148668392     0.978615150799      -0.13612915772      0.978615150799      -0.13612915772      0.0206894908059     0.0998148668392     
9100000000.0        0.0210011055467     0.100889623076      0.978288329344      -0.137608913175     0.978288329344      -0.137608913175     0.0210011055467     0.100889623076      
9200000000.0        0.0213159629037     0.10196327351       0.977958098992      -0.139087600776     0.977958098992      -0.139087600776     0.0213159629037     0.10196327351       
9300000000.0        0.0216340583386     0.103035807227      0.977624464225      -0.140565209659     0.977624464225      -0.140565209659     0.0216340583386     0.103035807227      
9400000000.0        0.0219553872588     0.104107213346      0.977287429579      -0.142041728985     0.977287429579      -0.142041728985     0.0219553872588     0.104107213346      
9500000000.0        0.0222799450173     0.105177481015      0.976946999643      -0.143517147945     0.976946999643      -0.143517147945     0.0222799450173     0.105177481015      
9600000000.0        0.0226077269137     0.106246599412      0.976603179061      -0.144991455758     0.976603179061      -0.144991455758     0.0226077269137     0.106246599412      
9700000000.0        0.0229387281951     0.10731455775       0.97625597253       -0.14646464167      0.97625597253       -0.14646464167      0.0229387281951     0.10731455775       
9800000000.0        0.023272944056      0.10838134527       0.975905384796      -0.147936694954     0.975905384796      -0.147936694954     0.023272944056      0.10838134527       
9900000000.0        0.0236103696395     0.109446951247      0.975551420659      -0.149407604915     0.975551420659      -0.149407604915     0.0236103696395     0.109446951247      
10000000000.0       0.0239510000375     0.110511364987      0.975194084972      -0.150877360884     0.975194084972      -0.150877360884     0.0239510000375     0.110511364987      
