# Hz S RI R 50.00 
100000000.0         0.00262582436925    0.000163746439609   0.997373077684      -0.000262698900693  0.997373077684      -0.000262698900693  0.00262582436925    0.000163746439609   
200000000.0         0.00264318732649    0.000327478230006   0.997355606979      -0.000525383450679  0.997355606979      -0.000525383450679  0.00264318732649    0.000327478230006   
300000000.0         0.00265594868946    0.000491201423765   0.997342728068      -0.000788059866708  0.997342728068      -0.000788059866708  0.00265594868946    0.000491201423765   
400000000.0         0.00266639552813    0.000654918141756   0.997332153878      -0.00105073039741   0.997332153878      -0.00105073039741   0.00266639552813    0.000654918141756   
500000000.0         0.0026754108653     0.000818629585551   0.997323001389      -0.00131339635388   0.997323001389      -0.00131339635388   0.0026754108653     0.000818629585551   
600000000.0         0.00268344614063    0.000982336547839   0.997314819159      -0.00157605862663   0.997314819159      -0.00157605862663   0.00268344614063    0.000982336547839   
700000000.0         0.0026907686808     0.00114603959621    0.997307339861      -0.00183871787252   0.997307339861      -0.00183871787252   0.0026907686808     0.00114603959621    
800000000.0         0.00269755210497    0.00130973915858    0.997300389876      -0.0021013746022    0.997300389876      -0.0021013746022    0.00269755210497    0.00130973915858    
900000000.0         0.00270391661651    0.00147343556918    0.997293849         -0.00236402922729   0.997293849         -0.00236402922729   0.00270391661651    0.00147343556918    
1000000000.0        0.00270994944464    0.00163712909581    0.997287630003      -0.0026266820886    0.997287630003      -0.0026266820886    0.00270994944464    0.00163712909581    
1100000000.0        0.00271571621796    0.00180081995715    0.997281667255      -0.00288933347411   0.997281667255      -0.00288933347411   0.00271571621796    0.00180081995715    
1200000000.0        0.00272126774806    0.00196450833444    0.997275909946      -0.00315198363109   0.997275909946      -0.00315198363109   0.00272126774806    0.00196450833444    
1300000000.0        0.00272664430114    0.00212819437964    0.997270317808      -0.00341463277461   0.997270317808      -0.00341463277461   0.00272664430114    0.00212819437964    
1400000000.0        0.0027318784084     0.0022918782212     0.997264858309      -0.00367728109382   0.997264858309      -0.00367728109382   0.0027318784084     0.0022918782212     
1500000000.0        0.00273699678276    0.00245555996855    0.997259504736      -0.00393992875649   0.997259504736      -0.00393992875649   0.00273699678276    0.00245555996855    
1600000000.0        0.0027420216663     0.00261923971538    0.997254234846      -0.00420257591257   0.997254234846      -0.00420257591257   0.0027420216663     0.00261923971538    
1700000000.0        0.00274697180213    0.00278291754221    0.997249029895      -0.00446522269701   0.997249029895      -0.00446522269701   0.00274697180213    0.00278291754221    
1800000000.0        0.00275186315123    0.00294659351844    0.997243873923      -0.00472786923185   0.997243873923      -0.00472786923185   0.00275186315123    0.00294659351844    
1900000000.0        0.00275670943126    0.00311026770395    0.997238753209      -0.00499051562815   0.997238753209      -0.00499051562815   0.00275670943126    0.00311026770395    
2000000000.0        0.00276152252863    0.00327394015061    0.997233655868      -0.00525316198712   0.997233655868      -0.00525316198712   0.00276152252863    0.00327394015061    
2100000000.0        0.00276631281869    0.00343761090303    0.997228571524      -0.00551580840172   0.997228571524      -0.00551580840172   0.00276631281869    0.00343761090303    
2200000000.0        0.00277108941712    0.00360127999976    0.997223491059      -0.00577845495734   0.997223491059      -0.00577845495734   0.00277108941712    0.00360127999976    
2300000000.0        0.0027758603807     0.00376494747395    0.997218406417      -0.00604110173274   0.997218406417      -0.00604110173274   0.0027758603807     0.00376494747395    
2400000000.0        0.00278063286861    0.0039286133539     0.997213310437      -0.00630374880083   0.997213310437      -0.00630374880083   0.00278063286861    0.0039286133539     
2500000000.0        0.00278541327368    0.00409227766375    0.997208196726      -0.00656639622913   0.997208196726      -0.00656639622913   0.00278541327368    0.00409227766375    
2600000000.0        0.00279020733002    0.00425594042393    0.997203059549      -0.00682904408036   0.997203059549      -0.00682904408036   0.00279020733002    0.00425594042393    
2700000000.0        0.00279502020228    0.00441960165139    0.997197893741      -0.00709169241298   0.997197893741      -0.00709169241298   0.00279502020228    0.00441960165139    
2800000000.0        0.00279985655971    0.00458326136018    0.997192694632      -0.00735434128146   0.997192694632      -0.00735434128146   0.00279985655971    0.00458326136018    
2900000000.0        0.00280472063858    0.00474691956158    0.997187457984      -0.00761699073667   0.997187457984      -0.00761699073667   0.00280472063859    0.00474691956158    
3000000000.0        0.00280961629489    0.00491057626446    0.997182179941      -0.00787964082623   0.997182179941      -0.00787964082623   0.00280961629489    0.00491057626446    
3100000000.0        0.002814547049      0.00507423147552    0.997176856982      -0.00814229159467   0.997176856982      -0.00814229159467   0.002814547049      0.00507423147552    
3200000000.0        0.00281951612402    0.00523788519939    0.997171485882      -0.00840494308384   0.997171485882      -0.00840494308384   0.00281951612402    0.00523788519939    
3300000000.0        0.00282452647862    0.00540153743897    0.997166063683      -0.00866759533295   0.997166063683      -0.00866759533295   0.00282452647862    0.00540153743897    
3400000000.0        0.0028295808354     0.00556518819545    0.99716058766       -0.00893024837888   0.99716058766       -0.00893024837888   0.0028295808354     0.00556518819545    
3500000000.0        0.00283468170552    0.00572883746858    0.997155055301      -0.0091929022563    0.997155055301      -0.0091929022563    0.00283468170552    0.00572883746858    
3600000000.0        0.00283983141015    0.00589248525669    0.997149464285      -0.00945555699782   0.997149464285      -0.00945555699782   0.00283983141015    0.00589248525669    
3700000000.0        0.0028450320992     0.00605613155689    0.997143812461      -0.00971821263419   0.997143812461      -0.00971821263419   0.0028450320992     0.00605613155689    
3800000000.0        0.00285028576778    0.00621977636514    0.997138097833      -0.00998086919439   0.997138097833      -0.00998086919439   0.00285028576778    0.00621977636514    
3900000000.0        0.0028555942707     0.00638341967635    0.997132318545      -0.0102435267057    0.997132318545      -0.0102435267057    0.0028555942707     0.00638341967635    
4000000000.0        0.00286095933532    0.00654706148447    0.997126472869      -0.0105061851939    0.997126472869      -0.0105061851939    0.00286095933532    0.00654706148447    
4100000000.0        0.0028663825729     0.00671070178259    0.997120559192      -0.0107688446832    0.997120559192      -0.0107688446832    0.0028663825729     0.00671070178259    
4200000000.0        0.00287186548867    0.00687434056295    0.997114576009      -0.0110315051967    0.997114576009      -0.0110315051967    0.00287186548867    0.00687434056295    
4300000000.0        0.00287740949094    0.00703797781709    0.99710852191       -0.011294166756     0.99710852191       -0.011294166756     0.00287740949094    0.00703797781709    
4400000000.0        0.00288301589908    0.00720161353588    0.997102395574      -0.0115568293816    0.997102395574      -0.0115568293816    0.00288301589908    0.00720161353588    
4500000000.0        0.00288868595087    0.00736524770949    0.997096195764      -0.0118194930928    0.997096195764      -0.0118194930928    0.00288868595087    0.00736524770949    
4600000000.0        0.00289442080887    0.00752888032762    0.997089921315      -0.0120821579078    0.997089921315      -0.0120821579078    0.00289442080887    0.00752888032762    
4700000000.0        0.00290022156641    0.00769251137936    0.997083571134      -0.012344823844     0.997083571134      -0.012344823844     0.00290022156641    0.00769251137936    
4800000000.0        0.00290608925282    0.00785614085337    0.99707714419       -0.0126074909176    0.99707714419       -0.0126074909176    0.00290608925282    0.00785614085337    
4900000000.0        0.00291202483827    0.00801976873779    0.997070639511      -0.0128701591439    0.997070639511      -0.0128701591439    0.00291202483827    0.00801976873779    
5000000000.0        0.00291802923809    0.00818339502045    0.997064056181      -0.0131328285377    0.997064056181      -0.0131328285377    0.00291802923809    0.00818339502045    
5100000000.0        0.00292410331675    0.00834701968875    0.997057393336      -0.0133954991125    0.997057393336      -0.0133954991125    0.00292410331675    0.00834701968875    
5200000000.0        0.00293024789144    0.00851064272975    0.997050650156      -0.0136581708814    0.997050650156      -0.0136581708814    0.00293024789144    0.00851064272975    
5300000000.0        0.00293646373539    0.00867426413019    0.997043825868      -0.0139208438565    0.997043825868      -0.0139208438565    0.00293646373539    0.00867426413019    
5400000000.0        0.00294275158085    0.00883788387655    0.997036919738      -0.0141835180494    0.997036919738      -0.0141835180494    0.00294275158085    0.00883788387655    
5500000000.0        0.00294911212186    0.00900150195505    0.99702993107       -0.014446193471     0.99702993107       -0.014446193471     0.00294911212186    0.00900150195505    
5600000000.0        0.00295554601677    0.00916511835162    0.997022859207      -0.0147088701316    0.997022859207      -0.0147088701316    0.00295554601677    0.00916511835162    
5700000000.0        0.00296205389054    0.00932873305203    0.997015703521      -0.0149715480407    0.997015703521      -0.0149715480407    0.00296205389054    0.00932873305203    
5800000000.0        0.00296863633688    0.00949234604184    0.997008463418      -0.0152342272074    0.997008463418      -0.0152342272074    0.00296863633688    0.00949234604184    
5900000000.0        0.00297529392025    0.00965595730642    0.997001138332      -0.0154969076404    0.997001138332      -0.0154969076404    0.00297529392025    0.00965595730642    
6000000000.0        0.00298202717761    0.00981956683101    0.996993727725      -0.0157595893475    0.996993727725      -0.0157595893475    0.00298202717761    0.00981956683101    
6100000000.0        0.00298883662016    0.00998317460066    0.996986231085      -0.0160222723363    0.996986231085      -0.0160222723363    0.00298883662016    0.00998317460066    
6200000000.0        0.00299572273482    0.0101467806003     0.996978647925      -0.0162849566139    0.996978647925      -0.0162849566139    0.00299572273482    0.0101467806003     
6300000000.0        0.00300268598573    0.0103103848149     0.996970977777      -0.0165476421868    0.996970977777      -0.0165476421868    0.00300268598573    0.0103103848149     
6400000000.0        0.00300972681553    0.010473987229      0.9969632202        -0.0168103290612    0.9969632202        -0.0168103290612    0.00300972681553    0.010473987229      
6500000000.0        0.00301684564662    0.0106375878274     0.996955374769      -0.0170730172429    0.996955374769      -0.0170730172429    0.00301684564662    0.0106375878274     
6600000000.0        0.00302404288231    0.0108011865947     0.996947441081      -0.0173357067372    0.996947441081      -0.0173357067372    0.00302404288231    0.0108011865947     
6700000000.0        0.00303131890788    0.0109647835153     0.996939418747      -0.017598397549     0.996939418747      -0.017598397549     0.00303131890788    0.0109647835153     
6800000000.0        0.00303867409155    0.0111283785737     0.9969313074        -0.017861089683     0.9969313074        -0.017861089683     0.00303867409155    0.0111283785737     
6900000000.0        0.00304610878546    0.0112919717544     0.996923106686      -0.0181237831434    0.996923106686      -0.0181237831434    0.00304610878546    0.0112919717544     
7000000000.0        0.00305362332649    0.0114555630417     0.996914816266      -0.0183864779342    0.996914816266      -0.0183864779342    0.00305362332649    0.0114555630417     
7100000000.0        0.0030612180371     0.01161915242       0.996906435818      -0.018649174059     0.996906435818      -0.018649174059     0.0030612180371     0.01161915242       
7200000000.0        0.00306889322606    0.0117827398737     0.996897965031      -0.018911871521     0.996897965031      -0.018911871521     0.00306889322606    0.0117827398737     
7300000000.0        0.00307664918917    0.0119463253871     0.996889403609      -0.0191745703232    0.996889403609      -0.0191745703232    0.00307664918917    0.0119463253871     
7400000000.0        0.00308448620994    0.0121099089445     0.996880751266      -0.0194372704685    0.996880751266      -0.0194372704685    0.00308448620994    0.0121099089445     
7500000000.0        0.00309240456017    0.0122734905304     0.99687200773       -0.0196999719591    0.99687200773       -0.0196999719591    0.00309240456017    0.0122734905304     
7600000000.0        0.00310040450057    0.012437070129      0.996863172738      -0.0199626747974    0.996863172738      -0.0199626747974    0.00310040450057    0.012437070129      
7700000000.0        0.00310848628131    0.0126006477248     0.99685424604       -0.0202253789851    0.99685424604       -0.0202253789851    0.00310848628131    0.0126006477248     
7800000000.0        0.00311665014251    0.0127642233021     0.996845227395      -0.0204880845242    0.996845227395      -0.0204880845242    0.00311665014251    0.0127642233021     
7900000000.0        0.00312489631473    0.0129277968454     0.996836116569      -0.0207507914159    0.996836116569      -0.0207507914159    0.00312489631473    0.0129277968454     
8000000000.0        0.00313322501944    0.0130913683392     0.996826913341      -0.0210134996616    0.996826913341      -0.0210134996616    0.00313322501944    0.0130913683392     
8100000000.0        0.00314163646945    0.013254937768      0.996817617497      -0.0212762092622    0.996817617497      -0.0212762092622    0.00314163646945    0.013254937768      
8200000000.0        0.00315013086931    0.0134185051164     0.996808228831      -0.0215389202187    0.996808228831      -0.0215389202187    0.00315013086931    0.0134185051164     
8300000000.0        0.00315870841567    0.0135820703689     0.996798747145      -0.0218016325315    0.996798747145      -0.0218016325315    0.00315870841567    0.0135820703689     
8400000000.0        0.00316736929769    0.0137456335102     0.996789172248      -0.0220643462011    0.996789172248      -0.0220643462011    0.00316736929769    0.0137456335102     
8500000000.0        0.00317611369733    0.0139091945251     0.996779503958      -0.0223270612278    0.996779503958      -0.0223270612278    0.00317611369733    0.0139091945251     
8600000000.0        0.00318494178972    0.0140727533983     0.996769742098      -0.0225897776117    0.996769742098      -0.0225897776117    0.00318494178972    0.0140727533983     
8700000000.0        0.00319385374341    0.0142363101147     0.996759886498      -0.0228524953526    0.996759886498      -0.0228524953526    0.00319385374341    0.0142363101147     
8800000000.0        0.00320284972072    0.0143998646592     0.996749936995      -0.0231152144503    0.996749936995      -0.0231152144503    0.00320284972072    0.0143998646592     
8900000000.0        0.00321192987797    0.0145634170169     0.996739893432      -0.0233779349043    0.996739893432      -0.0233779349043    0.00321192987796    0.0145634170169     
9000000000.0        0.00322109436574    0.0147269671726     0.996729755655      -0.0236406567141    0.996729755655      -0.0236406567141    0.00322109436574    0.0147269671726     
9100000000.0        0.00323034332916    0.0148905151117     0.99671952352       -0.023903379879     0.99671952352       -0.023903379879     0.00323034332916    0.0148905151117     
9200000000.0        0.00323967690808    0.0150540608192     0.996709196884      -0.024166104398     0.996709196884      -0.024166104398     0.00323967690808    0.0150540608192     
9300000000.0        0.00324909523734    0.0152176042806     0.996698775613      -0.0244288302703    0.996698775613      -0.0244288302703    0.00324909523734    0.0152176042806     
9400000000.0        0.00325859844696    0.0153811454812     0.996688259573      -0.0246915574946    0.996688259573      -0.0246915574946    0.00325859844696    0.0153811454812     
9500000000.0        0.00326818666233    0.0155446844065     0.99667764864       -0.0249542860696    0.99667764864       -0.0249542860696    0.00326818666233    0.0155446844065     
9600000000.0        0.00327786000444    0.015708221042      0.99666694269       -0.0252170159941    0.99666694269       -0.0252170159941    0.00327786000444    0.015708221042      
9700000000.0        0.00328761859001    0.0158717553734     0.996656141606      -0.0254797472665    0.996656141606      -0.0254797472665    0.00328761859001    0.0158717553734     
9800000000.0        0.00329746253169    0.0160352873864     0.996645245273      -0.0257424798852    0.996645245273      -0.0257424798852    0.00329746253169    0.0160352873864     
9900000000.0        0.00330739193822    0.0161988170669     0.996634253582      -0.0260052138485    0.996634253582      -0.0260052138485    0.00330739193822    0.0161988170669     
10000000000.0       0.00331740691459    0.0163623444008     0.996623166427      -0.0262679491545    0.996623166427      -0.0262679491545    0.00331740691459    0.0163623444008     
