# Hz S RI R 50.00 
100000000.0         -8.2877848525e-05   -0.00863690925795   0.999915253174      -0.00864765155076   0.999915253174      -0.00864765155076   -8.28778485247e-05  -0.00863690925795   
200000000.0         -0.000315425549983  -0.0172675592398    0.999682692523      -0.01728905043      0.999682692523      -0.01728905043      -0.000315425549984  -0.0172675592398    
300000000.0         -0.000696843332004  -0.0258870817069    0.999301264889      -0.0259193316016    0.999301264889      -0.0259193316016    -0.000696843332004  -0.0258870817069    
400000000.0         -0.00122657593043   -0.0344909302343    0.998771523929      -0.0345339509057    0.998771523929      -0.0345339509057    -0.00122657593043   -0.0344909302343    
500000000.0         -0.00190390375399   -0.0430747614762    0.998094188621      -0.043128566722     0.998094188621      -0.043128566722     -0.00190390375399   -0.0430747614762    
600000000.0         -0.00272795444508   -0.0516343951911    0.997270131008      -0.0516990001434    0.997270131008      -0.0516990001434    -0.00272795444508   -0.0516343951911    
700000000.0         -0.00369771269203   -0.0601657943665    0.996300366219      -0.0602412151817    0.996300366219      -0.0602412151817    -0.00369771269203   -0.0601657943665    
800000000.0         -0.00481202885721   -0.0686650532982    0.995186043774      -0.0687513069014    0.995186043774      -0.0687513069014    -0.00481202885721   -0.0686650532982    
900000000.0         -0.00606962673817   -0.0771283896366    0.993928439792      -0.0772254935072    0.993928439792      -0.0772254935072    -0.00606962673817   -0.0771283896366    
1000000000.0        -0.00746911065058   -0.0855521386489    0.992528949899      -0.0856601106378    0.992528949899      -0.0856601106378    -0.00746911065058   -0.0855521386489    
1100000000.0        -0.00900897194245   -0.0939327487849    0.990989082704      -0.094051606959     0.990989082704      -0.094051606959     -0.00900897194245   -0.0939327487849    
1200000000.0        -0.0106875950407    -0.102266778214     0.989310453745      -0.102396540723     0.989310453745      -0.102396540723     -0.0106875950407    -0.102266778214     
1300000000.0        -0.012503263095     -0.110550892014     0.987494779846      -0.110691576978     0.987494779846      -0.110691576978     -0.012503263095     -0.110550892014     
1400000000.0        -0.0144541632845    -0.118781859915     0.985543873806      -0.118933485329     0.985543873806      -0.118933485329     -0.0144541632845    -0.118781859915     
1500000000.0        -0.0165383918384    -0.126956554464     0.983459639379      -0.127119138115     0.983459639379      -0.127119138115     -0.0165383918384    -0.126956554464     
1600000000.0        -0.018753958817     -0.135071949555     0.98124406649       -0.13524550896      0.98124406649       -0.13524550896      -0.018753958817     -0.135071949555     
1700000000.0        -0.0210987926969    -0.143125119282     0.978899226649      -0.143309671627     0.978899226649      -0.143309671627     -0.0210987926969    -0.143125119282     
1800000000.0        -0.0235707447942    -0.151113237046     0.97642726853       -0.151308799145     0.97642726853       -0.151308799145     -0.0235707447942    -0.151113237046     
1900000000.0        -0.026167593558     -0.159033574893     0.973830413676      -0.159240163151     0.973830413676      -0.159240163151     -0.026167593558     -0.159033574893     
2000000000.0        -0.0288870487636    -0.166883503042     0.971110952304      -0.167101133429     0.971110952304      -0.167101133429     -0.0288870487636    -0.166883503042     
2100000000.0        -0.0317267556189    -0.174660489556     0.968271239198      -0.174889177584     0.968271239198      -0.174889177584     -0.0317267556189    -0.174660489556     
2200000000.0        -0.0346842988166    -0.182362100152     0.965313689661      -0.182601860859     0.965313689661      -0.182601860859     -0.0346842988166    -0.182362100152     
2300000000.0        -0.037757206529     -0.189985998071     0.962240775515      -0.190236846017     0.962240775515      -0.190236846017     -0.037757206529     -0.189985998071     
2400000000.0        -0.0409429543727    -0.197529944041     0.959055021138      -0.197791893294     0.959055021138      -0.197791893294     -0.0409429543727    -0.197529944041     
2500000000.0        -0.0442389693389    -0.204991796247     0.955758999537      -0.205264860389     0.955758999537      -0.205264860389     -0.0442389693389    -0.204991796247     
2600000000.0        -0.0476426337012    -0.212369510325     0.952355328433      -0.212653702452     0.952355328433      -0.212653702452     -0.0476426337012    -0.212369510325     
2700000000.0        -0.0511512889027    -0.219661139347     0.948846666381      -0.21995647207      0.948846666381      -0.21995647207      -0.0511512889027    -0.219661139347     
2800000000.0        -0.0547622394171    -0.22686483376      0.945235708903      -0.227171319216     0.945235708903      -0.227171319216     -0.0547622394171    -0.22686483376      
2900000000.0        -0.0584727565912    -0.233978841285     0.941525184651      -0.234296491142     0.941525184651      -0.234296491142     -0.0584727565912    -0.233978841285     
3000000000.0        -0.0622800824599    -0.241001506751     0.937717851587      -0.24133033222      0.937717851587      -0.24133033222      -0.0622800824599    -0.241001506751     
3100000000.0        -0.0661814335325    -0.24793127185      0.9338164932        -0.248271283696     0.9338164932        -0.248271283696     -0.0661814335325    -0.24793127185      
3200000000.0        -0.0701740045422    -0.254766674802     0.929823914755      -0.255117883353     0.929823914755      -0.255117883353     -0.0701740045422    -0.254766674802     
3300000000.0        -0.0742549721597    -0.261506349924     0.92574293958       -0.26186876509      0.92574293958       -0.26186876509      -0.0742549721597    -0.261506349924     
3400000000.0        -0.0784214986576    -0.268149027101     0.921576405399      -0.26852265838      0.921576405399      -0.26852265838      -0.0784214986576    -0.268149027101     
3500000000.0        -0.0826707355236    -0.274693531135     0.917327160725      -0.275078387632     0.917327160725      -0.275078387632     -0.0826707355236    -0.274693531135     
3600000000.0        -0.0869998270112    -0.28113878099      0.912998061303      -0.281534871427     0.912998061303      -0.281534871427     -0.0869998270112    -0.28113878099      
3700000000.0        -0.0914059136306    -0.287483788924     0.908591966621      -0.287891121655     0.908591966621      -0.287891121655     -0.0914059136306    -0.287483788924     
3800000000.0        -0.0958861355625    -0.2937276595       0.904111736497      -0.294146242526     0.904111736497      -0.294146242526     -0.0958861355625    -0.2937276595       
3900000000.0        -0.100437635993     -0.299869588481     0.899560227744      -0.300299429463     0.899560227744      -0.300299429463     -0.100437635993     -0.299869588481     
4000000000.0        -0.105057564364     -0.305908861616     0.89494029092       -0.306349967887     0.89494029092       -0.306349967887     -0.105057564364     -0.305908861616     
4100000000.0        -0.109743079536     -0.311844853319     0.890254767162      -0.312297231899     0.890254767162      -0.312297231899     -0.109743079536     -0.311844853319     
4200000000.0        -0.114491352849     -0.317677025225     0.885506485132      -0.318140682833     0.885506485132      -0.318140682833     -0.114491352849     -0.317677025225     
4300000000.0        -0.119299571082     -0.32340492466      0.880698258048      -0.323879867727     0.880698258048      -0.323879867727     -0.119299571082     -0.32340492466      
4400000000.0        -0.124164939313     -0.329028183004     0.875832880831      -0.329514417685     0.875832880831      -0.329514417685     -0.124164939313     -0.329028183004     
4500000000.0        -0.129084683665     -0.334546513961     0.87091312736       -0.335044046147     0.87091312736       -0.335044046147     -0.129084683665     -0.334546513961     
4600000000.0        -0.134056053931     -0.339959711741     0.86594174784       -0.340468547072     0.86594174784       -0.340468547072     -0.134056053931     -0.339959711741     
4700000000.0        -0.139076326098     -0.345267649169     0.860921466284      -0.345787793041     0.860921466284      -0.345787793041     -0.139076326098     -0.345267649169     
4800000000.0        -0.144142804732     -0.350470275704     0.855854978123      -0.351001733284     0.855854978123      -0.351001733284     -0.144142804732     -0.350470275704     
4900000000.0        -0.149252825266     -0.355567615405     0.850744947928      -0.35611039164      0.850744947928      -0.35611039164      -0.149252825266     -0.355567615405     
5000000000.0        -0.154403756137     -0.360559764827     0.845594007258      -0.361113864452     0.845594007258      -0.361113864452     -0.154403756137     -0.360559764827     
5100000000.0        -0.159593000823     -0.365446890862     0.840404752636      -0.366012318413     0.840404752636      -0.366012318413     -0.159593000823     -0.365446890862     
5200000000.0        -0.164817999742     -0.370229228534     0.835179743644      -0.370805988355     0.835179743644      -0.370805988355     -0.164817999742     -0.370229228534     
5300000000.0        -0.17007623203      -0.374907078757     0.829921501145      -0.375495175008     0.829921501145      -0.375495175008     -0.17007623203      -0.374907078757     
5400000000.0        -0.175365217196     -0.379480806049     0.82463250563       -0.380080242716     0.82463250563       -0.380080242716     -0.175365217196     -0.379480806049     
5500000000.0        -0.180682516652     -0.383950836226     0.819315195688      -0.38456161713      0.819315195688      -0.38456161713      -0.180682516652     -0.383950836226     
5600000000.0        -0.186025735117     -0.388317654072     0.813971966598      -0.388939782873     0.813971966598      -0.388939782873     -0.186025735117     -0.388317654072     
5700000000.0        -0.191392521908     -0.39258180099      0.808605169042      -0.393215281198     0.808605169042      -0.393215281198     -0.191392521908     -0.39258180099      
5800000000.0        -0.196780572108     -0.396743872654     0.80321710794       -0.397388707634     0.80321710794       -0.397388707634     -0.196780572108     -0.396743872654     
5900000000.0        -0.202187627611     -0.400804516644     0.797810041396      -0.401460709623     0.797810041396      -0.401460709623     -0.202187627611     -0.400804516644     
6000000000.0        -0.207611478061     -0.404764430095     0.792386179765      -0.405431984169     0.792386179765      -0.405431984169     -0.207611478061     -0.404764430095     
6100000000.0        -0.213049961677     -0.408624357346     0.78694768483       -0.409303275487     0.78694768483       -0.409303275487     -0.213049961677     -0.408624357346     
6200000000.0        -0.218500965963     -0.412385087608     0.781496669084      -0.413075372667     0.781496669084      -0.413075372667     -0.218500965963     -0.412385087608     
6300000000.0        -0.223962428324     -0.416047452641     0.776035195125      -0.416749107354     0.776035195125      -0.416749107354     -0.223962428324     -0.416047452641     
6400000000.0        -0.229432336561     -0.419612324461     0.770565275149      -0.420325351458     0.770565275149      -0.420325351458     -0.229432336561     -0.419612324461     
6500000000.0        -0.23490872929      -0.423080613069     0.765088870543      -0.423805014876     0.765088870543      -0.423805014876     -0.23490872929      -0.423080613069     
6600000000.0        -0.240389696242     -0.426453264213     0.759607891573      -0.427189043254     0.759607891573      -0.427189043254     -0.240389696242     -0.426453264213     
6700000000.0        -0.24587337849      -0.429731257176     0.754124197168      -0.430478415785     0.754124197168      -0.430478415785     -0.24587337849      -0.429731257176     
6800000000.0        -0.251357968574     -0.432915602611     0.748639594786      -0.43367414303      0.748639594786      -0.43367414303      -0.251357968574     -0.432915602611     
6900000000.0        -0.256841710553     -0.436007340412     0.74315584037       -0.436777264797     0.74315584037       -0.436777264797     -0.256841710553     -0.436007340412     
7000000000.0        -0.262322899964     -0.439007537624     0.737674638382      -0.439788848049     0.737674638382      -0.439788848049     -0.262322899964     -0.439007537624     
7100000000.0        -0.267799883718     -0.441917286401     0.732197641911      -0.442709984863     0.732197641911      -0.442709984863     -0.267799883718     -0.441917286401     
7200000000.0        -0.273271059911     -0.444737702016     0.726726452862      -0.445541790437     0.726726452862      -0.445541790437     -0.273271059911     -0.444737702016     
7300000000.0        -0.278734877574     -0.447469920912     0.721262622202      -0.448285401144     0.721262622202      -0.448285401144     -0.278734877574     -0.447469920912     
7400000000.0        -0.284189836357     -0.450115098814     0.715807650281      -0.450941972638     0.715807650281      -0.450941972638     -0.284189836357     -0.450115098814     
7500000000.0        -0.28963448615      -0.452674408878     0.71036298721       -0.453512678015     0.71036298721       -0.453512678015     -0.28963448615      -0.452674408878     
7600000000.0        -0.295067426646     -0.455149039916     0.704930033297      -0.455998706021     0.704930033297      -0.455998706021     -0.295067426646     -0.455149039916     
7700000000.0        -0.300487306855     -0.457540194654     0.699510139531      -0.458401259324     0.699510139531      -0.458401259324     -0.300487306855     -0.457540194654     
7800000000.0        -0.305892824561     -0.459849088059     0.694104608126      -0.460721552836     0.694104608126      -0.460721552836     -0.305892824561     -0.459849088059     
7900000000.0        -0.311282725743     -0.462076945719     0.688714693106      -0.462960812091     0.688714693106      -0.462960812091     -0.311282725743     -0.462076945719     
8000000000.0        -0.316655803944     -0.464225002278     0.683341600927      -0.46512027168      0.683341600927      -0.46512027168      -0.316655803944     -0.464225002278     
8100000000.0        -0.322010899605     -0.466294499929     0.677986491148      -0.467201173749     0.677986491148      -0.467201173749     -0.322010899605     -0.466294499929     
8200000000.0        -0.327346899362     -0.468286686964     0.672650477133      -0.469204766541     0.672650477133      -0.469204766541     -0.327346899362     -0.468286686964     
8300000000.0        -0.332662735314     -0.47020281638      0.667334626782      -0.471132303009     0.667334626782      -0.471132303009     -0.332662735314     -0.47020281638      
8400000000.0        -0.337957384257     -0.472044144542     0.6620399633        -0.472985039477     0.6620399633        -0.472985039477     -0.337957384257     -0.472044144542     
8500000000.0        -0.343229866891     -0.473811929905     0.656767465988      -0.474764234356     0.656767465988      -0.474764234356     -0.343229866891     -0.473811929905     
8600000000.0        -0.34847924701      -0.475507431786     0.65151807105       -0.476471146926     0.65151807105       -0.476471146926     -0.34847924701      -0.475507431786     
8700000000.0        -0.353704630664     -0.477131909195     0.646292672437      -0.47810703616      0.646292672437      -0.47810703616      -0.353704630664     -0.477131909195     
8800000000.0        -0.358905165307     -0.478686619721     0.641092122696      -0.479673159608     0.641092122696      -0.479673159608     -0.358905165307     -0.478686619721     
8900000000.0        -0.364080038929     -0.480172818466     0.635917233834      -0.481170772343     0.635917233834      -0.481170772343     -0.364080038929     -0.480172818466     
9000000000.0        -0.369228479175     -0.481591757043     0.63076877821       -0.482601125941     0.63076877821       -0.482601125941     -0.369228479175     -0.481591757043     
9100000000.0        -0.37434975245      -0.482944682611     0.625647489416      -0.483965467532     0.625647489416      -0.483965467532     -0.37434975245      -0.482944682611     
9200000000.0        -0.379443163023     -0.484232836972     0.620554063184      -0.485265038887     0.620554063184      -0.485265038887     -0.379443163023     -0.484232836972     
9300000000.0        -0.384508052116     -0.485457455715     0.615489158292      -0.486501075567     0.615489158292      -0.486501075567     -0.384508052116     -0.485457455715     
9400000000.0        -0.389543796995     -0.486619767402     0.610453397474      -0.487674806107     0.610453397474      -0.487674806107     -0.389543796995     -0.486619767402     
9500000000.0        -0.394549810056     -0.487720992811     0.605447368336      -0.488787451258     0.605447368336      -0.488787451258     -0.394549810056     -0.487720992811     
9600000000.0        -0.399525537906     -0.488762344218     0.600471624267      -0.489840223273     0.600471624267      -0.489840223273     -0.399525537906     -0.488762344218     
9700000000.0        -0.404470460458     -0.489745024727     0.595526685358      -0.490834325229     0.595526685358      -0.490834325229     -0.404470460458     -0.489745024727     
9800000000.0        -0.40938409001      -0.490670227642     0.590613039308      -0.491770950408     0.590613039308      -0.491770950408     -0.40938409001      -0.490670227642     
9900000000.0        -0.414265970344     -0.491539135878     0.585731142337      -0.492651281706     0.585731142337      -0.492651281706     -0.414265970344     -0.491539135878     
10000000000.0       -0.419115675821     -0.492352921424     0.580881420083      -0.493476491087     0.580881420083      -0.493476491087     -0.419115675821     -0.492352921424     
