# Hz S RI R 50.00 
100000000.0         0.022141826877      0.00200204398978    0.977855371228      -0.00318177353081   0.977855371228      -0.00318177353081   0.022141826877      0.00200204398978    
200000000.0         0.0223040016575     0.00400246979868    0.977689992125      -0.00636193213043   0.977689992125      -0.00636193213043   0.0223040016575     0.00400246979868    
300000000.0         0.0224405770886     0.00600179269483    0.977548809772      -0.00954099471131   0.977548809772      -0.00954099471131   0.0224405770886     0.00600179269483    
400000000.0         0.0225704352019     0.00800012639932    0.97741294199       -0.0127190781067    0.97741294199       -0.0127190781067    0.0225704352019     0.00800012639932    
500000000.0         0.0227008568661     0.00999749134833    0.977275107756      -0.0158962055993    0.977275107756      -0.0158962055993    0.0227008568661     0.00999749134833    
600000000.0         0.0228355579378     0.0119938667322     0.977131591057      -0.0190723590533    0.977131591057      -0.0190723590533    0.0228355579378     0.0119938667322     
700000000.0         0.0229767336157     0.0139892091795     0.976980196523      -0.0222474976458    0.976980196523      -0.0222474976458    0.0229767336157     0.0139892091795     
800000000.0         0.0231258050482     0.0159834614206     0.976819502827      -0.0254215665596    0.976819502827      -0.0254215665596    0.0231258050482     0.0159834614206     
900000000.0         0.0232837519652     0.0179765569422     0.976648530044      -0.028594501655     0.976648530044      -0.028594501655     0.0232837519652     0.0179765569422     
1000000000.0        0.0234512813801     0.0199684227437     0.976466570956      -0.0317662322402    0.976466570956      -0.0317662322402    0.0234512813801     0.0199684227437     
1100000000.0        0.0236289214238     0.0219589810898     0.976273097211      -0.034936682833     0.976273097211      -0.034936682833     0.0236289214238     0.0219589810898     
1200000000.0        0.0238170772878     0.0239481506865     0.976067703385      -0.0381057743444    0.976067703385      -0.0381057743444    0.0238170772878     0.0239481506865     
1300000000.0        0.0240160664411     0.0259358475036     0.975850071759      -0.0412734249067    0.975850071759      -0.0412734249067    0.0240160664411     0.0259358475036     
1400000000.0        0.0242261417908     0.0279219853719     0.975619949166      -0.0444395504753    0.975619949166      -0.0444395504753    0.0242261417908     0.0279219853719     
1500000000.0        0.024447507472      0.0299064764278     0.975377131194      -0.0476040652769    0.975377131194      -0.0476040652769    0.024447507472      0.0299064764278     
1600000000.0        0.0246803299453     0.0318892314538     0.975121451092      -0.0507668821536    0.975121451092      -0.0507668821536    0.0246803299453     0.0318892314538     
1700000000.0        0.0249247459976     0.0338701601446     0.974852771768      -0.0539279128308    0.974852771768      -0.0539279128308    0.0249247459976     0.0338701601446     
1800000000.0        0.0251808686411     0.0358491713185     0.974570979891      -0.0570870681319    0.974570979891      -0.0570870681319    0.0251808686411     0.0358491713185     
1900000000.0        0.0254487915481     0.0378261730891     0.974275981455      -0.060244258151     0.974275981455      -0.060244258151     0.0254487915481     0.0378261730891     
2000000000.0        0.0257285924402     0.0398010730062     0.973967698392      -0.063399392396     0.973967698392      -0.063399392396     0.0257285924402     0.0398010730062     
2100000000.0        0.0260203357209     0.0417737781727     0.973646065935      -0.0665523799068    0.973646065935      -0.0665523799068    0.0260203357209     0.0417737781727     
2200000000.0        0.0263240745452     0.0437441953444     0.973311030553      -0.0697031293562    0.973311030553      -0.0697031293562    0.0263240745452     0.0437441953444     
2300000000.0        0.0266398524694     0.0457122310137     0.9729625483        -0.0728515491353    0.9729625483        -0.0728515491353    0.0266398524694     0.0457122310137     
2400000000.0        0.0269677047781     0.0476777914829     0.972600583486      -0.0759975474273    0.972600583486      -0.0759975474273    0.0269677047781     0.0476777914829     
2500000000.0        0.0273076595649     0.0496407829276     0.972225107599      -0.079141032272     0.972225107599      -0.079141032272     0.0273076595649     0.0496407829276     
2600000000.0        0.0276597386183     0.0516011114525     0.971836098417      -0.0822819116223    0.971836098417      -0.0822819116223    0.0276597386183     0.0516011114525     
2700000000.0        0.0280239581562     0.0535586831406     0.971433539274      -0.0854200933946    0.971433539274      -0.0854200933946    0.0280239581562     0.0535586831406     
2800000000.0        0.0284003294375     0.0555134040979     0.97101741845       -0.0885554855134    0.97101741845       -0.0885554855134    0.0284003294375     0.0555134040979     
2900000000.0        0.0287888592772     0.0574651804925     0.970587728655      -0.0916879959519    0.970587728655      -0.0916879959519    0.0287888592772     0.0574651804925     
3000000000.0        0.0291895504812     0.0594139185911     0.970144466592      -0.0948175327684    0.970144466592      -0.0948175327684    0.0291895504812     0.0594139185911     
3100000000.0        0.0296024022179     0.0613595247917     0.96968763259       -0.09794400414      0.96968763259       -0.09794400414      0.0296024022179     0.0613595247917     
3200000000.0        0.0300274103345     0.0633019056539     0.969217230284      -0.101067318393     0.969217230284      -0.101067318393     0.0300274103345     0.0633019056539     
3300000000.0        0.0304645676317     0.0652409679266     0.96873326634       -0.104187384031     0.96873326634       -0.104187384031     0.0304645676317     0.0652409679266     
3400000000.0        0.0309138640999     0.0671766185737     0.968235750222      -0.107304109762     0.968235750222      -0.107304109762     0.0309138640999     0.0671766185737     
3500000000.0        0.0313752871255     0.0691087647986     0.967724693984      -0.110417404521     0.967724693984      -0.110417404521     0.0313752871255     0.0691087647986     
3600000000.0        0.0318488216714     0.071037314066      0.96720011209       -0.113527177495     0.96720011209       -0.113527177495     0.0318488216714     0.071037314066      
3700000000.0        0.0323344504353     0.0729621741238     0.966662021253      -0.116633338144     0.966662021253      -0.116633338144     0.0323344504353     0.0729621741238     
3800000000.0        0.0328321539901     0.0748832530226     0.966110440299      -0.119735796219     0.966110440299      -0.119735796219     0.0328321539901     0.0748832530226     
3900000000.0        0.0333419109072     0.0768004591349     0.965545390041      -0.122834461786     0.965545390041      -0.122834461786     0.0333419109072     0.0768004591349     
4000000000.0        0.0338636978674     0.0787137011725     0.964966893169      -0.125929245238     0.964966893169      -0.125929245238     0.0338636978674     0.0787137011725     
4100000000.0        0.0343974897597     0.0806228882042     0.964374974149      -0.129020057318     0.964374974149      -0.129020057318     0.0343974897597     0.0806228882042     
4200000000.0        0.0349432597696     0.0825279296718     0.963769659141      -0.132106809131     0.963769659141      -0.132106809131     0.0349432597696     0.0825279296718     
4300000000.0        0.0355009794592     0.0844287354056     0.96315097591       -0.135189412164     0.96315097591       -0.135189412164     0.0355009794592     0.0844287354056     
4400000000.0        0.0360706188392     0.0863252156397     0.96251895376       -0.138267778297     0.96251895376       -0.138267778297     0.0360706188392     0.0863252156397     
4500000000.0        0.0366521464347     0.0882172810259     0.961873623469      -0.141341819822     0.961873623469      -0.141341819822     0.0366521464347     0.0882172810259     
4600000000.0        0.0372455293444     0.090104842648      0.961215017225      -0.144411449453     0.961215017225      -0.144411449453     0.0372455293444     0.090104842648      
4700000000.0        0.0378507332961     0.0919878120349     0.960543168574      -0.147476580341     0.960543168574      -0.147476580341     0.0378507332961     0.0919878120349     
4800000000.0        0.038467722696      0.0938661011732     0.95985811237       -0.150537126088     0.95985811237       -0.150537126088     0.038467722696      0.0938661011732     
4900000000.0        0.0390964606751     0.0957396225204     0.959159884729      -0.153593000759     0.959159884729      -0.153593000759     0.0390964606751     0.0957396225204     
5000000000.0        0.0397369091321     0.0976082890163     0.958448522985      -0.156644118895     0.958448522985      -0.156644118895     0.0397369091321     0.0976082890163     
5100000000.0        0.0403890287726     0.0994720140946     0.957724065651      -0.15969039552      0.957724065651      -0.15969039552      0.0403890287726     0.0994720140946     
5200000000.0        0.041052779146      0.101330711695      0.956986552383      -0.162731746161     0.956986552383      -0.162731746161     0.041052779146      0.101330711695      
5300000000.0        0.04172811868       0.103184296273      0.956236023946      -0.165768086852     0.956236023946      -0.165768086852     0.04172811868       0.103184296273      
5400000000.0        0.0424150047123     0.105032682811      0.955472522178      -0.168799334147     0.955472522178      -0.168799334147     0.0424150047123     0.105032682811      
5500000000.0        0.0431133935213     0.106875786831      0.954696089968      -0.171825405131     0.954696089968      -0.171825405131     0.0431133935213     0.106875786831      
5600000000.0        0.043823240354      0.108713524399      0.953906771218      -0.174846217431     0.953906771218      -0.174846217431     0.043823240354      0.108713524399      
5700000000.0        0.0445444994534     0.110545812141      0.953104610824      -0.177861689224     0.953104610824      -0.177861689224     0.0445444994534     0.110545812141      
5800000000.0        0.0452771240833     0.112372567248      0.952289654643      -0.180871739245     0.952289654643      -0.180871739245     0.0452771240833     0.112372567248      
5900000000.0        0.0460210665531     0.114193707489      0.951461949478      -0.183876286802     0.951461949478      -0.183876286802     0.0460210665531     0.114193707489      
6000000000.0        0.0467762782405     0.116009151216      0.950621543048      -0.186875251782     0.950621543048      -0.186875251782     0.0467762782405     0.116009151216      
6100000000.0        0.0475427096134     0.117818817376      0.949768483966      -0.189868554656     0.949768483966      -0.189868554656     0.0475427096134     0.117818817376      
6200000000.0        0.0483203102513     0.119622625518      0.948902821722      -0.192856116494     0.948902821722      -0.192856116494     0.0483203102513     0.119622625518      
6300000000.0        0.0491090288653     0.121420495802      0.948024606663      -0.19583785897      0.948024606663      -0.19583785897      0.0491090288653     0.121420495802      
6400000000.0        0.0499088133177     0.123212349007      0.947133889966      -0.198813704372     0.947133889966      -0.198813704372     0.0499088133177     0.123212349007      
6500000000.0        0.0507196106405     0.124998106536      0.94623072363       -0.201783575607     0.94623072363       -0.201783575607     0.0507196106405     0.124998106536      
6600000000.0        0.0515413670539     0.126777690429      0.945315160449      -0.204747396211     0.945315160449      -0.204747396211     0.0515413670539     0.126777690429      
6700000000.0        0.0523740279837     0.128551023367      0.944387253998      -0.207705090357     0.944387253998      -0.207705090357     0.0523740279837     0.128551023367      
6800000000.0        0.0532175380784     0.13031802868       0.943447058617      -0.210656582859     0.943447058617      -0.210656582859     0.0532175380784     0.13031802868       
6900000000.0        0.0540718412257     0.132078630353      0.942494629393      -0.213601799183     0.942494629393      -0.213601799183     0.0540718412257     0.132078630353      
7000000000.0        0.0549368805687     0.133832753035      0.941530022144      -0.216540665453     0.941530022144      -0.216540665453     0.0549368805687     0.133832753035      
7100000000.0        0.0558125985215     0.135580322043      0.940553293403      -0.219473108455     0.940553293403      -0.219473108455     0.0558125985215     0.135580322043      
7200000000.0        0.0566989367851     0.137321263371      0.939564500403      -0.222399055647     0.939564500403      -0.222399055647     0.0566989367851     0.137321263371      
7300000000.0        0.0575958363616     0.139055503695      0.938563701063      -0.225318435163     0.938563701063      -0.225318435163     0.0575958363616     0.139055503695      
7400000000.0        0.0585032375699     0.140782970379      0.937550953969      -0.228231175821     0.937550953969      -0.228231175821     0.0585032375699     0.140782970379      
7500000000.0        0.0594210800592     0.14250359148       0.936526318368      -0.231137207126     0.936526318368      -0.231137207126     0.0594210800592     0.14250359148       
7600000000.0        0.0603493028242     0.144217295756      0.935489854142      -0.23403645928      0.935489854142      -0.23403645928      0.0603493028242     0.144217295756      
7700000000.0        0.0612878442181     0.145924012671      0.934441621807      -0.236928863182     0.934441621807      -0.236928863182     0.0612878442181     0.145924012671      
7800000000.0        0.062236641967      0.147623672398      0.933381682488      -0.239814350441     0.933381682488      -0.239814350441     0.062236641967      0.147623672398      
7900000000.0        0.0631956331834     0.149316205827      0.932310097912      -0.242692853373     0.932310097912      -0.242692853373     0.0631956331834     0.149316205827      
8000000000.0        0.0641647543793     0.151001544568      0.931226930393      -0.245564305011     0.931226930393      -0.245564305011     0.0641647543793     0.151001544568      
8100000000.0        0.0651439414792     0.152679620957      0.930132242819      -0.24842863911      0.930132242819      -0.24842863911      0.0651439414792     0.152679620957      
8200000000.0        0.0661331298338     0.15435036806       0.929026098637      -0.251285790147     0.929026098637      -0.251285790147     0.0661331298338     0.15435036806       
8300000000.0        0.0671322542321     0.156013719678      0.927908561845      -0.254135693334     0.927908561845      -0.254135693334     0.0671322542321     0.156013719678      
8400000000.0        0.0681412489148     0.157669610352      0.926779696972      -0.256978284612     0.926779696972      -0.256978284612     0.0681412489148     0.157669610352      
8500000000.0        0.0691600475864     0.159317975364      0.925639569073      -0.259813500663     0.925639569073      -0.259813500663     0.0691600475864     0.159317975364      
8600000000.0        0.0701885834275     0.160958750744      0.924488243712      -0.262641278913     0.924488243712      -0.262641278913     0.0701885834275     0.160958750744      
8700000000.0        0.071226789108      0.162591873275      0.923325786949      -0.26546155753      0.923325786949      -0.26546155753      0.071226789108      0.162591873275      
8800000000.0        0.0722745967982     0.164217280491      0.922152265332      -0.268274275436     0.922152265332      -0.268274275436     0.0722745967982     0.164217280491      
8900000000.0        0.0733319381819     0.165834910687      0.920967745881      -0.271079372303     0.920967745881      -0.271079372303     0.0733319381819     0.165834910687      
9000000000.0        0.0743987444676     0.167444702918      0.919772296079      -0.273876788563     0.919772296079      -0.273876788563     0.0743987444676     0.167444702918      
9100000000.0        0.0754749464012     0.169046597004      0.918565983855      -0.276666465405     0.918565983855      -0.276666465405     0.0754749464012     0.169046597004      
9200000000.0        0.0765604742771     0.170640533531      0.917348877579      -0.279448344783     0.917348877579      -0.279448344783     0.0765604742771     0.170640533531      
9300000000.0        0.0776552579504     0.172226453858      0.916121046045      -0.282222369415     0.916121046045      -0.282222369415     0.0776552579504     0.172226453858      
9400000000.0        0.0787592268484     0.173804300114      0.914882558463      -0.284988482788     0.914882558463      -0.284988482788     0.0787592268484     0.173804300114      
9500000000.0        0.0798723099821     0.175374015206      0.913633484444      -0.287746629162     0.913633484444      -0.287746629162     0.0798723099821     0.175374015206      
9600000000.0        0.0809944359578     0.176935542818      0.91237389399       -0.290496753568     0.91237389399       -0.290496753568     0.0809944359578     0.176935542818      
9700000000.0        0.0821255329886     0.178488827412      0.911103857484      -0.293238801812     0.911103857484      -0.293238801812     0.0821255329886     0.178488827412      
9800000000.0        0.0832655289054     0.180033814236      0.909823445677      -0.29597272048      0.909823445677      -0.29597272048      0.0832655289054     0.180033814236      
9900000000.0        0.0844143511685     0.181570449318      0.908532729676      -0.298698456935     0.908532729676      -0.298698456935     0.0844143511685     0.181570449318      
10000000000.0       0.0855719268785     0.183098679475      0.907231780935      -0.301415959325     0.907231780935      -0.301415959325     0.0855719268785     0.183098679475      
