# Hz S RI R 50.00 
100000000.0         -0.0116995400166    -0.107062589858     0.988259117892      -0.107185186765     0.988259117892      -0.107185186765     -0.0116995400166    -0.107062589858     
200000000.0         -0.0450624611043    -0.206864671471     0.954895891048      -0.207109886892     0.954895891048      -0.207109886892     -0.0450624611043    -0.206864671471     
300000000.0         -0.0958570772055    -0.293740231549     0.904101024802      -0.294108098888     0.904101024802      -0.294108098888     -0.0958570772055    -0.293740231549     
400000000.0         -0.158473581237     -0.36445888151      0.841484290709      -0.364949443444     0.841484290709      -0.364949443444     -0.158473581237     -0.36445888151      
500000000.0         -0.227241453745     -0.418256630184     0.772716194602      -0.418869937335     0.772716194602      -0.418869937335     -0.227241453745     -0.418256630184     
600000000.0         -0.297382863971     -0.456247117631     0.702574560317      -0.456983227644     0.702574560317      -0.456983227644     -0.297382863971     -0.456247117631     
700000000.0         -0.365424507513     -0.480624418333     0.634532688176      -0.481483395171     0.634532688176      -0.481483395171     -0.365424507513     -0.480624418333     
800000000.0         -0.429181234523     -0.493969963451     0.570775725387      -0.494951876819     0.570775725387      -0.494951876819     -0.429181234523     -0.493969963451     
900000000.0         -0.487514360347     -0.498790320137     0.512442354776      -0.499895244995     0.512442354776      -0.499895244995     -0.487514360347     -0.498790320137     
1000000000.0        -0.540030308716     -0.497277002008     0.459926151289      -0.498505018142     0.459926151289      -0.498505018142     -0.540030308716     -0.497277002008     
1100000000.0        -0.586811349797     -0.491224021839     0.413144843758      -0.49257521349      0.413144843758      -0.49257521349      -0.586811349797     -0.491224021839     
1200000000.0        -0.62821106556      -0.482036317861     0.371744849434      -0.483510773386     0.371744849434      -0.483510773386     -0.62821106556      -0.482036317861     
1300000000.0        -0.664714426302     -0.470780086164     0.335241197401      -0.472377897727     0.335241197401      -0.472377897727     -0.664714426302     -0.470780086164     
1400000000.0        -0.696849570173     -0.458245589385     0.303105749         -0.459966852684     0.303105749         -0.459966852684     -0.696849570173     -0.458245589385     
1500000000.0        -0.725136377218     -0.445007465913     0.274818623765      -0.446852279925     0.274818623765      -0.446852279925     -0.725136377218     -0.445007465913     
1600000000.0        -0.75005928676      -0.431476403571     0.249895382017      -0.433444870317     0.249895382017      -0.433444870317     -0.75005928676      -0.431476403571     
1700000000.0        -0.772055159738     -0.417940744656     0.227899162509      -0.420032968986     0.227899162509      -0.420032968986     -0.772055159738     -0.417940744656     
1800000000.0        -0.791509966275     -0.404598750751     0.208443994852      -0.40681484015      0.208443994852      -0.40681484015      -0.791509966275     -0.404598750751     
1900000000.0        -0.808760317743     -0.391583035293     0.191193267437      -0.393923099695     0.191193267437      -0.393923099695     -0.808760317743     -0.391583035293     
2000000000.0        -0.824097404293     -0.378978779486     0.175855789906      -0.381442931108     0.175855789906      -0.381442931108     -0.824097404293     -0.378978779486     
2100000000.0        -0.8377719038       -0.366837173152     0.162180884195      -0.369425526339     0.162180884195      -0.369425526339     -0.8377719038       -0.366837173152     
2200000000.0        -0.849999058257     -0.35518526217      0.149953308137      -0.35789793325      0.149953308137      -0.35789793325      -0.849999058257     -0.35518526217      
2300000000.0        -0.860963496309     -0.344033126692     0.138988432934      -0.346870233848     0.138988432934      -0.346870233848     -0.860963496309     -0.344033126692     
2400000000.0        -0.870823605975     -0.333379093021     0.12912787042       -0.336340756169     0.12912787042       -0.336340756169     -0.870823605975     -0.333379093021     
2500000000.0        -0.879715389783     -0.323213504437     0.120235617934      -0.326299845114     0.120235617934      -0.326299845114     -0.879715389783     -0.323213504437     
2600000000.0        -0.887755803894     -0.313521439321     0.112194719186      -0.316732580583     0.112194719186      -0.316732580583     -0.887755803894     -0.313521439321     
2700000000.0        -0.895045617584     -0.304284661792     0.104904404784      -0.307620728124     0.104904404784      -0.307620728124     -0.895045617584     -0.304284661792     
2800000000.0        -0.901671844233     -0.295483013484     0.0982776612346     -0.298944130712     0.0982776612346     -0.298944130712     -0.901671844233     -0.295483013484     
2900000000.0        -0.907709798814     -0.287095398766     0.0922391734589     -0.290681693983     0.0922391734589     -0.290681693983     -0.907709798814     -0.287095398766     
3000000000.0        -0.913224834835     -0.27910047452      0.0867235878468     -0.282812076011     0.0867235878468     -0.282812076011     -0.913224834835     -0.27910047452      
3100000000.0        -0.918273809001     -0.271477125494     0.0816740475943     -0.275314162679     0.0816740475943     -0.275314162679     -0.918273809001     -0.271477125494     
3200000000.0        -0.922906316098     -0.264204784382     0.0770409578212     -0.268167387755     0.0770409578212     -0.268167387755     -0.922906316098     -0.264204784382     
3300000000.0        -0.927165730758     -0.257263639774     0.0727809438048     -0.261351940852     0.0727809438048     -0.261351940852     -0.927165730758     -0.257263639774     
3400000000.0        -0.931090087301     -0.250634763531     0.0688559711368     -0.254848894813     0.0688559711368     -0.254848894813     -0.931090087301     -0.250634763531     
3500000000.0        -0.934712823961     -0.244300180612     0.0652326014967     -0.248640275532     0.0652326014967     -0.248640275532     -0.934712823961     -0.244300180612     
3600000000.0        -0.938063413544     -0.238242898181     0.0618813619936     -0.24270909108      0.0618813619936     -0.24270909108      -0.938063413544     -0.238242898181     
3700000000.0        -0.941167898937     -0.2324469063       0.0587762096588     -0.237039332388     0.0587762096588     -0.237039332388     -0.941167898937     -0.2324469063       
3800000000.0        -0.944049348812     -0.226897159144     0.0558940757404     -0.23161595448      0.0558940757404     -0.23161595448      -0.944049348812     -0.226897159144     
3900000000.0        -0.946728246305     -0.221579543272     0.0532144770217     -0.226424844738     0.0532144770217     -0.226424844738     -0.946728246305     -0.221579543272     
4000000000.0        -0.949222821317     -0.216480837657     0.0507191835245     -0.22145278294      0.0507191835245     -0.22145278294      -0.949222821317     -0.216480837657     
4100000000.0        -0.951549335281     -0.211588668879     0.0483919337383     -0.216687396457     0.0483919337383     -0.216687396457     -0.951549335281     -0.211588668879     
4200000000.0        -0.953722325795     -0.206891463909     0.0462181899895     -0.212117113038     0.0462181899895     -0.212117113038     -0.953722325795     -0.206891463909     
4300000000.0        -0.955754817275     -0.202378402195     0.0441849277853     -0.2077311129       0.0441849277853     -0.2077311129       -0.955754817275     -0.202378402195     
4400000000.0        -0.957658502795     -0.198039368247     0.0422804539783     -0.203519281315     0.0422804539783     -0.203519281315     -0.957658502795     -0.198039368247     
4500000000.0        -0.959443901412     -0.193864905513     0.0404942494363     -0.199472162492     0.0404942494363     -0.199472162492     -0.959443901412     -0.193864905513     
4600000000.0        -0.961120494618     -0.189846172096     0.0388168325935     -0.195580915293     0.0388168325935     -0.195580915293     -0.961120494618     -0.189846172096     
4700000000.0        -0.962696844951     -0.18597489862      0.0372396408387     -0.1918372711       0.0372396408387     -0.1918372711       -0.962696844951     -0.18597489862      
4800000000.0        -0.964180699336     -0.182243348431     0.0357549271744     -0.188233494023     0.0357549271744     -0.188233494023     -0.964180699336     -0.182243348431     
4900000000.0        -0.965579079319     -0.1786442802       0.0343556699792     -0.184762343501     0.0343556699792     -0.184762343501     -0.965579079319     -0.1786442802       
5000000000.0        -0.966898360041     -0.175170912948     0.0330354940403     -0.181417039329     0.0330354940403     -0.181417039329     -0.966898360041     -0.175170912948     
5100000000.0        -0.968144339487     -0.171816893412     0.0317886013001     -0.178191229029     0.0317886013001     -0.178191229029     -0.968144339487     -0.171816893412     
5200000000.0        -0.969322299347     -0.168576265708     0.0306097099955     -0.17507895751      0.0306097099955     -0.17507895751      -0.969322299347     -0.168576265708     
5300000000.0        -0.970437058611     -0.165443443147     0.0294940010626     -0.172074638887     0.0294940010626     -0.172074638887     -0.970437058611     -0.165443443147     
5400000000.0        -0.97149302086      -0.162413182115     0.0284370708469     -0.169173030366     0.0284370708469     -0.169173030366     -0.97149302086      -0.162413182115     
5500000000.0        -0.972494216077     -0.159480557886     0.0274348892929     -0.16636920805      0.0274348892929     -0.16636920805      -0.972494216077     -0.159480557886     
5600000000.0        -0.973444337677     -0.156640942234     0.0264837629118     -0.16365854456      0.0264837629118     -0.16365854456      -0.973444337677     -0.156640942234     
5700000000.0        -0.974346775372     -0.153889982729     0.0255803019165     -0.16103668833      0.0255803019165     -0.16103668833      -0.974346775372     -0.153889982729     
5800000000.0        -0.97520464439      -0.151223583599     0.0247213910055     -0.158499544466     0.0247213910055     -0.158499544466     -0.97520464439      -0.151223583599     
5900000000.0        -0.976020811491     -0.148637888035     0.0239041633422     -0.156043257055     0.0239041633422     -0.156043257055     -0.976020811491     -0.148637888035     
6000000000.0        -0.976797918186     -0.146129261836     0.0231259773425     -0.15366419281      0.0231259773425     -0.15366419281      -0.976797918186     -0.146129261836     
6100000000.0        -0.977538401474     -0.143694278286     0.0223843959305     -0.151358925952     0.0223843959305     -0.151358925952     -0.977538401474     -0.143694278286     
6200000000.0        -0.978244512414     -0.141329704182     0.0216771679719     -0.149124224227     0.0216771679719     -0.149124224227     -0.978244512414     -0.141329704182     
6300000000.0        -0.978918332766     -0.139032486895     0.0210022116284     -0.146957035982     0.0210022116284     -0.146957035982     -0.978918332766     -0.139032486895     
6400000000.0        -0.979561789942     -0.136799742414     0.0203575994118     -0.1448544782       0.0203575994118     -0.1448544782       -0.979561789942     -0.136799742414     
6500000000.0        -0.980176670441     -0.134628744273     0.0197415447438     -0.142813825428     0.0197415447438     -0.142813825428     -0.980176670441     -0.134628744273     
6600000000.0        -0.980764631958     -0.132516913302     0.0191523898519     -0.140832499532     0.0191523898519     -0.140832499532     -0.980764631958     -0.132516913302     
6700000000.0        -0.981327214297     -0.130461808126     0.0185885948527     -0.138908060194     0.0185885948527     -0.138908060194     -0.981327214297     -0.130461808126     
6800000000.0        -0.981865849231     -0.128461116367     0.018048727893      -0.137038196117     0.018048727893      -0.137038196117     -0.981865849231     -0.128461116367     
6900000000.0        -0.982381869418     -0.126512646484     0.0175314562328     -0.135220716859     0.0175314562328     -0.135220716859     -0.982381869418     -0.126512646484     
7000000000.0        -0.982876516479     -0.124614320193     0.0170355381704     -0.133453545262     0.0170355381704     -0.133453545262     -0.982876516479     -0.124614320193     
7100000000.0        -0.983350948318     -0.122764165445     0.0165598157202     -0.13173471042      0.0165598157202     -0.13173471042      -0.983350948318     -0.122764165445     
7200000000.0        -0.983806245768     -0.120960309888     0.0161032079643     -0.130062341152     0.0161032079643     -0.130062341152     -0.983806245768     -0.120960309888     
7300000000.0        -0.984243418641     -0.119200974803     0.0156647050087     -0.128434659929     0.0156647050087     -0.128434659929     -0.984243418641     -0.119200974803     
7400000000.0        -0.98466341122      -0.117484469453     0.0152433624827     -0.126849977229     0.0152433624827     -0.126849977229     -0.98466341122      -0.117484469453     
7500000000.0        -0.985067107282     -0.115809185832     0.0148382965259     -0.125306686283     0.0148382965259     -0.125306686283     -0.985067107282     -0.115809185832     
7600000000.0        -0.985455334662     -0.114173593775     0.0144486792148     -0.123803258185     0.0144486792148     -0.123803258185     -0.985455334662     -0.114173593775     
7700000000.0        -0.985828869437     -0.112576236394     0.0140737343863     -0.122338237332     0.0140737343863     -0.122338237332     -0.985828869437     -0.112576236394     
7800000000.0        -0.986188439739     -0.111015725837     0.0137127338179     -0.120910237176     0.0137127338179     -0.120910237176     -0.986188439739     -0.111015725837     
7900000000.0        -0.986534729256     -0.109490739313     0.0133649937322     -0.119517936257     0.0133649937322     -0.119517936257     -0.986534729256     -0.109490739313     
8000000000.0        -0.986868380435     -0.108000015402     0.0130298715929     -0.118160074506     0.0130298715929     -0.118160074506     -0.986868380435     -0.108000015402     
8100000000.0        -0.987189997416     -0.10654235059      0.012706763167      -0.116835449783     0.012706763167      -0.116835449783     -0.987189997416     -0.10654235059      
8200000000.0        -0.987500148734     -0.105116596043     0.0123950998263     -0.115542914653     0.0123950998263     -0.115542914653     -0.987500148734     -0.105116596043     
8300000000.0        -0.987799369798     -0.103721654583     0.0120943460677     -0.114281373361     0.0120943460677     -0.114281373361     -0.987799369798     -0.103721654583     
8400000000.0        -0.988088165173     -0.102356477866     0.0118039972319     -0.113049779003     0.0118039972319     -0.113049779003     -0.988088165173     -0.102356477866     
8500000000.0        -0.988367010679     -0.101020063727     0.0115235774025     -0.111847130884     0.0115235774025     -0.111847130884     -0.988367010679     -0.101020063727     
8600000000.0        -0.988636355328     -0.0997114537086    0.0112526374695     -0.110672472034     0.0112526374695     -0.110672472034     -0.988636355328     -0.0997114537086    
8700000000.0        -0.988896623112     -0.0984297307297    0.0109907533431     -0.109524886885     0.0109907533431     -0.109524886885     -0.988896623112     -0.0984297307297    
8800000000.0        -0.98914821465      -0.0971740169095    0.0107375243038     -0.10840349909      0.0107375243038     -0.10840349909      -0.98914821465      -0.0971740169095    
8900000000.0        -0.989391508714     -0.0959434715192    0.0104925714781     -0.107307469479     0.0104925714781     -0.107307469479     -0.989391508714     -0.0959434715192    
9000000000.0        -0.989626863641     -0.0947372890611    0.0102555364286     -0.106235994134     0.0102555364286     -0.106235994134     -0.989626863641     -0.0947372890611    
9100000000.0        -0.989854618633     -0.0935546974634    0.0100260798482     -0.105188302585     0.0100260798482     -0.105188302585     -0.989854618633     -0.0935546974634    
9200000000.0        -0.990075094971     -0.0923949563827    0.00980388035114    -0.104163656113     0.00980388035114    -0.104163656113     -0.990075094971     -0.0923949563827    
9300000000.0        -0.990288597135     -0.0912573556082    0.00958863335112    -0.103161346155     0.00958863335112    -0.103161346155     -0.990288597135     -0.0912573556082    
9400000000.0        -0.990495413845     -0.0901412135593    0.00938005002107    -0.102180692799     0.00938005002107    -0.102180692799     -0.990495413845     -0.0901412135593    
9500000000.0        -0.990695819027     -0.0890458758707    0.00917785632653    -0.101221043371     0.00917785632653    -0.101221043371     -0.990695819027     -0.0890458758707    
9600000000.0        -0.990890072711     -0.0879707140604    0.00898179212751    -0.100281771104     0.00898179212751    -0.100281771104     -0.990890072711     -0.0879707140604    
9700000000.0        -0.991078421865     -0.0869151242734    0.0087916103432     -0.0993622738764    0.0087916103432     -0.0993622738764    -0.991078421865     -0.0869151242734    
9800000000.0        -0.991261101176     -0.0858785260967    0.00860707617443    -0.0984619730343    0.00860707617443    -0.0984619730343    -0.991261101176     -0.0858785260967    
9900000000.0        -0.991438333771     -0.0848603614424    0.00842796637954    -0.0975803122685    0.00842796637954    -0.0975803122685    -0.991438333771     -0.0848603614424    
10000000000.0       -0.991610331893     -0.0838600934919    0.00825406859943    -0.0967167565616    0.00825406859943    -0.0967167565616    -0.991610331893     -0.0838600934919    
