# Hz S RI R 50.00 
100000000.0         -0.000904097882912  -0.0309348603843    0.998905512027      -0.0312564618342    0.998905512027      -0.0312564618342    -0.000904097882912  -0.0309348603843    
200000000.0         -0.00382646614552   -0.0616857743       0.995981689528      -0.0623289946731    0.995981689528      -0.0623289946731    -0.00382646614552   -0.0616857743       
300000000.0         -0.00863943335892   -0.0920763510322    0.991167491652      -0.0930412190865    0.991167491652      -0.0930412190865    -0.00863943335892   -0.0920763510322    
400000000.0         -0.0152880253065    -0.121937094808     0.984517728824      -0.123223648604     0.984517728824      -0.123223648604     -0.0152880253065    -0.121937094808     
500000000.0         -0.0236977886033    -0.151108418181     0.976106791621      -0.152716704144     0.976106791621      -0.152716704144     -0.0236977886033    -0.151108418181     
600000000.0         -0.033776794764     -0.179443287879     0.966026576612      -0.181373360191     0.966026576612      -0.181373360191     -0.033776794764     -0.179443287879     
700000000.0         -0.0454180621171    -0.206809407926     0.954384046671      -0.209061328093     0.954384046671      -0.209061328093     -0.0454180621171    -0.206809407926     
800000000.0         -0.0585022599606    -0.233090881545     0.941298520347      -0.235664718055     0.941298520347      -0.235664718055     -0.0585022599606    -0.233090881545     
900000000.0         -0.072900570203     -0.258189324891     0.926898807345      -0.26108515294      0.926898807345      -0.26108515294      -0.072900570203     -0.258189324891     
1000000000.0        -0.0884775870247    -0.282024435429     0.911320307412      -0.285242336692     0.911320307412      -0.285242336692     -0.0884775870247    -0.282024435429     
1100000000.0        -0.105094145489     -0.304534043988     0.894702180919      -0.308074106419     0.894702180919      -0.308074106419     -0.105094145489     -0.304534043988     
1200000000.0        -0.122609985488     -0.325673700951     0.877184684436      -0.329536018612     0.877184684436      -0.329536018612     -0.122609985488     -0.325673700951     
1300000000.0        -0.140886176366     -0.34541586266      0.858906745801      -0.34960053557      0.858906745801      -0.34960053557      -0.140886176366     -0.34541586266      
1400000000.0        -0.159787248232     -0.363748753676     0.84000383262       -0.368255887674     0.84000383262       -0.368255887674     -0.159787248232     -0.363748753676     
1500000000.0        -0.179182996554     -0.380674984337     0.820606147534      -0.385504690955     0.820606147534      -0.385504690955     -0.179182996554     -0.380674984337     
1600000000.0        -0.198949945782     -0.396210001815     0.800837164496      -0.401362398169     0.800837164496      -0.401362398169     -0.198949945782     -0.396210001815     
1700000000.0        -0.218972474433     -0.410380447603     0.78081250363       -0.415855656288     0.78081250363       -0.415855656288     -0.218972474433     -0.410380447603     
1800000000.0        -0.239143617565     -0.42322248615      0.760639128697      -0.429020635145     0.760639128697      -0.429020635145     -0.239143617565     -0.42322248615      
1900000000.0        -0.259365572782     -0.434780159379     0.740414841061      -0.440901381957     0.740414841061      -0.440901381957     -0.259365572782     -0.434780159379     
2000000000.0        -0.279549942791     -0.445103811026     0.720228037095      -0.451548245674     0.720228037095      -0.451548245674     -0.279549942791     -0.445103811026     
2100000000.0        -0.299617751425     -0.454248613994     0.700157692145      -0.461016404331     0.700157692145      -0.461016404331     -0.299617751425     -0.454248613994     
2200000000.0        -0.319499271364     -0.462273223783     0.680273532783      -0.469364518493     0.680273532783      -0.469364518493     -0.319499271364     -0.462273223783     
2300000000.0        -0.339133701101     -0.469238572108     0.660636359837      -0.476653524868     0.660636359837      -0.476653524868     -0.339133701101     -0.469238572108     
2400000000.0        -0.358468726452     -0.475206807102     0.641298486862      -0.482945576517     0.641298486862      -0.482945576517     -0.358468726452     -0.475206807102     
2500000000.0        -0.377459998646     -0.480240380281     0.622304262044      -0.488303129828     0.622304262044      -0.488303129828     -0.377459998646     -0.480240380281     
2600000000.0        -0.396070557183     -0.484401275625     0.603690645335      -0.492788173589     0.603690645335      -0.492788173589     -0.396070557183     -0.484401275625     
2700000000.0        -0.41427022147      -0.48775037256      0.585487816813      -0.496461591983     0.585487816813      -0.496461591983     -0.41427022147      -0.48775037256      
2800000000.0        -0.432034971183     -0.490346932281     0.56771979631       -0.49938265091      0.56771979631       -0.49938265091      -0.432034971183     -0.490346932281     
2900000000.0        -0.449346331346     -0.492248195414     0.550405058334      -0.50160859565      0.550405058334      -0.50160859565      -0.449346331346     -0.492248195414     
3000000000.0        -0.466190774552     -0.493509078366     0.533557129841      -0.503194347218     0.533557129841      -0.503194347218     -0.466190774552     -0.493509078366     
3100000000.0        -0.482559149595     -0.494181955713     0.517185161604      -0.504192284752     0.517185161604      -0.504192284752     -0.482559149595     -0.494181955713     
3200000000.0        -0.498446143012     -0.494316516376     0.501294466663      -0.504652101695     0.501294466663      -0.504652101695     -0.498446143012     -0.494316516376     
3300000000.0        -0.513849777795     -0.493959682068     0.485887021615      -0.50462072424      0.485887021615      -0.50462072424      -0.513849777795     -0.493959682068     
3400000000.0        -0.528770951599     -0.49315557744      0.470961928402      -0.504142281476     0.470961928402      -0.504142281476     -0.528770951599     -0.49315557744      
3500000000.0        -0.543213015328     -0.491945542381     0.456515835727      -0.503258117695     0.456515835727      -0.503258117695     -0.543213015328     -0.491945542381     
3600000000.0        -0.557181391788     -0.490368178026     0.442543320397      -0.502006838402     0.442543320397      -0.502006838402     -0.557181391788     -0.490368178026     
3700000000.0        -0.570683233245     -0.488459419093     0.429037229759      -0.500424382648     0.429037229759      -0.500424382648     -0.570683233245     -0.488459419093     
3800000000.0        -0.58372711611      -0.486252626192     0.415988987024      -0.498544115343     0.415988987024      -0.498544115343     -0.58372711611      -0.486252626192     
3900000000.0        -0.59632277053      -0.483778692703     0.403388861669      -0.496396934137     0.403388861669      -0.496396934137     -0.59632277053      -0.483778692703     
4000000000.0        -0.608480842427     -0.481066161703     0.391226207397      -0.494011386349     0.391226207397      -0.494011386349     -0.608480842427     -0.481066161703     
4100000000.0        -0.620212685386     -0.478141349191     0.379489670248      -0.491413792189     0.379489670248      -0.491413792189     -0.620212685386     -0.478141349191     
4200000000.0        -0.631530179768     -0.475028470549     0.368167369492      -0.488628371225     0.368167369492      -0.488628371225     -0.631530179768     -0.475028470549     
4300000000.0        -0.642445576448     -0.471749767783     0.357247053878      -0.485677369622     0.357247053878      -0.485677369622     -0.642445576448     -0.471749767783     
4400000000.0        -0.652971362696     -0.468325635595     0.346716235765      -0.482581186215     0.346716235765      -0.482581186215     -0.652971362696     -0.468325635595     
4500000000.0        -0.663120147833     -0.464774744779     0.33656230546       -0.47935849591      0.33656230546       -0.47935849591      -0.663120147833     -0.464774744779     
4600000000.0        -0.672904566441     -0.461114161812     0.326772628006      -0.476026369273     0.326772628006      -0.476026369273     -0.672904566441     -0.461114161812     
4700000000.0        -0.682337197101     -0.457359463794     0.317334624444      -0.47260038747      0.317334624444      -0.47260038747      -0.682337197101     -0.457359463794     
4800000000.0        -0.691430494769     -0.453524848172     0.308235839444      -0.469094751996     0.308235839444      -0.469094751996     -0.691430494769     -0.453524848172     
4900000000.0        -0.700196735089     -0.449623236872     0.299463996979      -0.465522388801     0.299463996979      -0.465522388801     -0.700196735089     -0.449623236872     
5000000000.0        -0.708647969117     -0.445666374624     0.291007045615      -0.461895046628     0.291007045615      -0.461895046628     -0.708647969117     -0.445666374624     
5100000000.0        -0.716795987057     -0.441664921429     0.282853194759      -0.458223389467     0.282853194759      -0.458223389467     -0.716795987057     -0.441664921429     
5200000000.0        -0.724652289802     -0.437628539168     0.274990943133      -0.454517083174     0.274990943133      -0.454517083174     -0.724652289802     -0.437628539168     
5300000000.0        -0.732228067157     -0.433565972482     0.267409100542      -0.450784876348     0.267409100542      -0.450784876348     -0.732228067157     -0.433565972482     
5400000000.0        -0.739534181804     -0.429485124081     0.260096803909      -0.447034675644     0.260096803909      -0.447034675644     -0.739534181804     -0.429485124081     
5500000000.0        -0.746581158141     -0.425393124698     0.253043528439      -0.443273615726     0.253043528439      -0.443273615726     -0.746581158141     -0.425393124698     
5600000000.0        -0.753379175257     -0.421296397925     0.246239094644      -0.439508124101     0.246239094644      -0.439508124101     -0.753379175257     -0.421296397925     
5700000000.0        -0.759938063377     -0.417200720183     0.239673671894      -0.435743981097     0.239673671894      -0.435743981097     -0.759938063377     -0.417200720183     
5800000000.0        -0.766267303221     -0.41311127612      0.233337779061      -0.431986375252     0.233337779061      -0.431986375252     -0.766267303221     -0.41311127612      
5900000000.0        -0.772376027783     -0.409032709678     0.227222282739      -0.428239954392     0.227222282739      -0.428239954392     -0.772376027783     -0.409032709678     
6000000000.0        -0.778273026086     -0.404969171134     0.22131839349       -0.424508872666     0.22131839349       -0.424508872666     -0.778273026086     -0.404969171134     
6100000000.0        -0.78396674856      -0.400924360366     0.215617660463      -0.420796833812     0.215617660463      -0.420796833812     -0.78396674856      -0.400924360366     
6200000000.0        -0.789465313718     -0.396901566604     0.210111964721      -0.417107130917     0.210111964721      -0.417107130917     -0.789465313718     -0.396901566604     
6300000000.0        -0.794776515863     -0.392903704929     0.204793511532      -0.413442682906     0.204793511532      -0.413442682906     -0.794776515863     -0.392903704929     
6400000000.0        -0.799907833585     -0.38893334975      0.199654821873      -0.409806068028     0.199654821873      -0.409806068028     -0.799907833585     -0.38893334975      
6500000000.0        -0.804866438855     -0.384992765483     0.194688723336      -0.40619955453      0.194688723336      -0.40619955453      -0.804866438855     -0.384992765483     
6600000000.0        -0.809659206554     -0.381083934661     0.189888340599      -0.40262512877      0.189888340599      -0.40262512877      -0.809659206554     -0.381083934661     
6700000000.0        -0.814292724283     -0.377208583658     0.185247085612      -0.399084520945     0.185247085612      -0.399084520945     -0.814292724283     -0.377208583658     
6800000000.0        -0.818773302344     -0.37336820623      0.180758647621      -0.395579228626     0.180758647621      -0.395579228626     -0.818773302344     -0.37336820623      
6900000000.0        -0.823106983798     -0.369564085043     0.176416983111      -0.39211053829      0.176416983111      -0.39211053829      -0.823106983798     -0.369564085043     
7000000000.0        -0.8272995545       -0.365797311346     0.172216305764      -0.388679544996     0.172216305764      -0.388679544996     -0.8272995545       -0.365797311346     
7100000000.0        -0.831356553061     -0.362068802956     0.168151076502      -0.385287170366     0.168151076502      -0.385287170366     -0.831356553061     -0.362068802956     
7200000000.0        -0.835283280679     -0.358379320676     0.164215993658      -0.381934179006     0.164215993658      -0.381934179006     -0.835283280679     -0.358379320676     
7300000000.0        -0.83908481078      -0.354729483291     0.160405983327      -0.378621193503     0.160405983327      -0.378621193503     -0.83908481078      -0.354729483291     
7400000000.0        -0.842765998459     -0.351119781255     0.156716189932      -0.375348708112     0.156716189932      -0.375348708112     -0.842765998459     -0.351119781255     
7500000000.0        -0.846331489672     -0.347550589181     0.153141967034      -0.372117101246     0.153141967034      -0.372117101246     -0.846331489672     -0.347550589181     
7600000000.0        -0.849785730162     -0.344022177232     0.149678868393      -0.368926646869     0.149678868393      -0.368926646869     -0.849785730162     -0.344022177232     
7700000000.0        -0.853132974124     -0.340534721515     0.146322639321      -0.365777524886     0.146322639321      -0.365777524886     -0.853132974124     -0.340534721515     
7800000000.0        -0.856377292562     -0.337088313548     0.143069208307      -0.36266983062      0.143069208307      -0.36266983062      -0.856377292562     -0.337088313548     
7900000000.0        -0.859522581371     -0.333682968901     0.139914678951      -0.359603583443     0.139914678951      -0.359603583443     -0.859522581371     -0.333682968901     
8000000000.0        -0.862572569106     -0.330318635062     0.136855322181      -0.356578734647     0.136855322181      -0.356578734647     -0.862572569106     -0.330318635062     
8100000000.0        -0.865530824468     -0.326995198602     0.133887568779      -0.353595174613     0.133887568779      -0.353595174613     -0.865530824468     -0.326995198602     
8200000000.0        -0.86840076348      -0.323712491703     0.131008002195      -0.350652739335     0.131008002195      -0.350652739335     -0.86840076348      -0.323712491703     
8300000000.0        -0.871185656382     -0.320470298101     0.128213351659      -0.347751216363     0.128213351659      -0.347751216363     -0.871185656382     -0.320470298101     
8400000000.0        -0.873888634233     -0.317268358496     0.125500485577      -0.344890350216     0.125500485577      -0.344890350216     -0.873888634233     -0.317268358496     
8500000000.0        -0.87651269523      -0.314106375468     0.122866405207      -0.342069847299     0.122866405207      -0.342069847299     -0.87651269523      -0.314106375468     
8600000000.0        -0.879060710757     -0.310984017955     0.120308238618      -0.339289380377     0.120308238618      -0.339289380377     -0.879060710757     -0.310984017955     
8700000000.0        -0.881535431169     -0.307900925318     0.117823234901      -0.336548592647     0.117823234901      -0.336548592647     -0.881535431169     -0.307900925318     
8800000000.0        -0.883939491309     -0.304856711039     0.115408758653      -0.333847101433     0.115408758653      -0.333847101433     -0.883939491309     -0.304856711039     
8900000000.0        -0.886275415784     -0.301850966078     0.1130622847        -0.33118450154      0.1130622847        -0.33118450154      -0.886275415784     -0.301850966078     
9000000000.0        -0.888545623996     -0.29888326192      0.110781393068      -0.328560368308     0.110781393068      -0.328560368308     -0.888545623996     -0.29888326192      
9100000000.0        -0.890752434947     -0.295953153337     0.108563764178      -0.325974260372     0.108563764178      -0.325974260372     -0.890752434947     -0.295953153337     
9200000000.0        -0.89289807181      -0.293060180899     0.106407174272      -0.32342572217      0.106407174272      -0.32342572217      -0.89289807181      -0.293060180899     
9300000000.0        -0.894984666296     -0.290203873241     0.104309491046      -0.320914286217     0.104309491046      -0.320914286217     -0.894984666296     -0.290203873241     
9400000000.0        -0.897014262816     -0.287383749124     0.102268669496      -0.318439475158     0.102268669496      -0.318439475158     -0.897014262816     -0.287383749124     
9500000000.0        -0.898988822438     -0.284599319287     0.100282747946      -0.31600080363      0.100282747946      -0.31600080363      -0.898988822438     -0.284599319287     
9600000000.0        -0.900910226668     -0.281850088136     0.0983498442833     -0.313597779945     0.0983498442833     -0.313597779945     -0.900910226668     -0.281850088136     
9700000000.0        -0.902780281043     -0.279135555256     0.0964681523537     -0.311229907603     0.0964681523537     -0.311229907603     -0.902780281043     -0.279135555256     
9800000000.0        -0.904600718556     -0.276455216783     0.0946359385415     -0.308896686666     0.0946359385415     -0.308896686666     -0.904600718556     -0.276455216783     
9900000000.0        -0.906373202917     -0.273808566634     0.092851538506      -0.306597614989     0.092851538506      -0.306597614989     -0.906373202917     -0.273808566634     
10000000000.0       -0.908099331662     -0.271195097616     0.0911133540762     -0.304332189329     0.0911133540762     -0.304332189329     -0.908099331662     -0.271195097616     
