# Hz S RI R 50.00 
100000000.0         -0.00189314621513   -0.0432352699792    0.998042940863      -0.0434324674761    0.998042940863      -0.0434324674761    -0.00189314621513   -0.0432352699792    
200000000.0         -0.00753692985407   -0.0859750007676    0.992398662123      -0.0863694248163    0.992398662123      -0.0863694248163    -0.00753692985407   -0.0859750007676    
300000000.0         -0.0167738303533    -0.127750645034     0.983161337232      -0.128342340454     0.983161337232      -0.128342340454     -0.0167738303533    -0.127750645034     
400000000.0         -0.0294022267428    -0.168129060823     0.970532532194      -0.168918084808     0.970532532194      -0.168918084808     -0.0294022267428    -0.168129060823     
500000000.0         -0.0451560226987    -0.20672638191      0.954778322247      -0.20771280228      0.954778322247      -0.20771280228      -0.0451560226987    -0.20672638191      
600000000.0         -0.063718091207     -0.243218451584     0.936215823674      -0.244402345611     0.936215823674      -0.244402345611     -0.063718091207     -0.243218451584     
700000000.0         -0.0847352340897    -0.277347307126     0.915198228323      -0.278728760649     0.915198228323      -0.278728760649     -0.0847352340897    -0.277347307126     
800000000.0         -0.107833434676     -0.308923670089     0.892099548756      -0.310502776807     0.892099548756      -0.310502776807     -0.107833434676     -0.308923670089     
900000000.0         -0.132632319478     -0.337825775579     0.867300155612      -0.339602636457     0.867300155612      -0.339602636457     -0.132632319478     -0.337825775579     
1000000000.0        -0.158757981455     -0.363995149391     0.841173953861      -0.365969872153     0.841173953861      -0.365969872153     -0.158757981455     -0.363995149391     
1100000000.0        -0.185853604692     -0.387430099373     0.814077757843      -0.389602798055     0.814077757843      -0.389602798055     -0.185853604692     -0.387430099373     
1200000000.0        -0.213587619573     -0.408177731019     0.786343135949      -0.410548525567     0.786343135949      -0.410548525567     -0.213587619573     -0.408177731019     
1300000000.0        -0.241659370963     -0.426325247925     0.758270742323      -0.428894263839     0.758270742323      -0.428894263839     -0.241659370963     -0.426325247925     
1400000000.0        -0.269802477306     -0.44199118469      0.73012695771       -0.444758552696     0.73012695771       -0.444758552696     -0.269802477306     -0.44199118469      
1500000000.0        -0.297786187861     -0.455317073476     0.70214253217       -0.458282929222     0.70214253217       -0.458282929222     -0.297786187861     -0.455317073476     
1600000000.0        -0.325415112421     -0.466459891897     0.674512855329      -0.46962437568      0.674512855329      -0.46962437568      -0.325415112421     -0.466459891897     
1700000000.0        -0.35252771368      -0.47558549812      0.647399463987      -0.478948754625     0.647399463987      -0.478948754625     -0.35252771368      -0.47558549812      
1800000000.0        -0.37899393085      -0.48286314037      0.620932418489      -0.48642531843      0.620932418489      -0.48642531843      -0.37899393085      -0.48286314037      
1900000000.0        -0.4047122582       -0.488461037104     0.595213224168      -0.492222289483     0.595213224168      -0.492222289483     -0.4047122582       -0.488461037104     
2000000000.0        -0.42960654574      -0.492542960842     0.570318030657      -0.496503444018     0.570318030657      -0.496503444018     -0.42960654574      -0.492542960842     
2100000000.0        -0.453622730335     -0.495265719626     0.546300900766      -0.4994255936       0.546300900766      -0.4994255936       -0.453622730335     -0.495265719626     
2200000000.0        -0.476725650156     -0.496777410787     0.523196996022      -0.501136838898     0.523196996022      -0.501136838898     -0.476725650156     -0.496777410787     
2300000000.0        -0.49889604706      -0.497216316914     0.501025574292      -0.501775465667     0.501025574292      -0.501775465667     -0.49889604706      -0.497216316914     
2400000000.0        -0.520127821711     -0.496710319147     0.479792734648      -0.501469358048     0.479792734648      -0.501469358048     -0.520127821711     -0.496710319147     
2500000000.0        -0.540425575172     -0.49537671422      0.459493875783      -0.500335815625     0.459493875783      -0.500335815625     -0.540425575172     -0.49537671422      
2600000000.0        -0.559802447569     -0.49332233613      0.440115857339      -0.498481675101     0.440115857339      -0.498481675101     -0.559802447569     -0.49332233613      
2700000000.0        -0.578278248132     -0.490643898774     0.421638869861      -0.496003652946     0.421638869861      -0.496003652946     -0.578278248132     -0.490643898774     
2800000000.0        -0.595877860222     -0.487428490936     0.404038029776      -0.492988840384     0.404038029776      -0.492988840384     -0.595877860222     -0.487428490936     
2900000000.0        -0.612629898479     -0.483754168813     0.38728472224       -0.489515295936     0.38728472224       -0.489515295936     -0.612629898479     -0.483754168813     
3000000000.0        -0.628565592066     -0.479690603427     0.371347717889      -0.485652692833     0.371347717889      -0.485652692833     -0.628565592066     -0.479690603427     
3100000000.0        -0.643717867027     -0.475299750535     0.356194090488      -0.481462988935     0.356194090488      -0.481462988935     -0.643717867027     -0.475299750535     
3200000000.0        -0.658120601391     -0.470636519198     0.34178996182       -0.477001095306     0.34178996182       -0.477001095306     -0.658120601391     -0.470636519198     
3300000000.0        -0.671808028263     -0.465749422046     0.328101098594      -0.472315526485     0.328101098594      -0.472315526485     -0.671808028263     -0.465749422046     
3400000000.0        -0.684814264268     -0.460681195696     0.31509338401       -0.46744902091      0.31509338401       -0.46744902091      -0.684814264268     -0.460681195696     
3500000000.0        -0.697172943114     -0.455469384013     0.30273318418       -0.462439124182     0.30273318418       -0.462439124182     -0.697172943114     -0.455469384013     
3600000000.0        -0.708916936526     -0.450146880069     0.290987627207      -0.457318731034     0.290987627207      -0.457318731034     -0.708916936526     -0.450146880069     
3700000000.0        -0.720078147112     -0.44474242504      0.279824810313      -0.452116584226     0.279824810313      -0.452116584226     -0.720078147112     -0.44474242504      
3800000000.0        -0.730687359989     -0.439281063976     0.269213948211      -0.446857730329     0.269213948211      -0.446857730329     -0.730687359989     -0.439281063976     
3900000000.0        -0.74077414196      -0.433784559575     0.259125473931      -0.441563933494     0.259125473931      -0.441563933494     -0.74077414196      -0.433784559575     
4000000000.0        -0.750366778823     -0.428271765888     0.249531101512      -0.436254049167     0.249531101512      -0.436254049167     -0.750366778823     -0.428271765888     
4100000000.0        -0.75949224295      -0.422758964376     0.240403858417      -0.430944360148     0.240403858417      -0.430944360148     -0.75949224295      -0.422758964376     
4200000000.0        -0.768176184627     -0.417260165022     0.231718094197      -0.425648877708     0.231718094197      -0.425648877708     -0.768176184627     -0.417260165022     
4300000000.0        -0.776442941779     -0.411787375314     0.223449470766      -0.420379610574     0.223449470766      -0.420379610574     -0.776442941779     -0.411787375314     
4400000000.0        -0.784315563692     -0.406350839901     0.215574938679      -0.415146804591     0.215574938679      -0.415146804591     -0.784315563692     -0.406350839901     
4500000000.0        -0.79181584516      -0.400959253661     0.208072702982      -0.409959155791     0.208072702982      -0.409959155791     -0.79181584516      -0.400959253661     
4600000000.0        -0.798964368181     -0.39561995078      0.200922181517      -0.404823999475     0.200922181517      -0.404823999475     -0.798964368181     -0.39561995078      
4700000000.0        -0.805780548872     -0.390339072274     0.194103958009      -0.399747477743     0.194103958009      -0.399747477743     -0.805780548872     -0.390339072274     
4800000000.0        -0.812282687777     -0.385121714225     0.187599731757      -0.394734687723     0.187599731757      -0.394734687723     -0.812282687777     -0.385121714225     
4900000000.0        -0.818488022098     -0.379972058775     0.181392265401      -0.38978981258      0.181392265401      -0.38978981258      -0.818488022098     -0.379972058775     
5000000000.0        -0.824412778727     -0.3748934898       0.175465331891      -0.384916237182     0.175465331891      -0.384916237182     -0.824412778727     -0.3748934898       
5100000000.0        -0.830072227183     -0.369888694935     0.169803661553      -0.380116650135     0.169803661553      -0.380116650135     -0.830072227183     -0.369888694935     
5200000000.0        -0.835480731801     -0.364959755518     0.164392889891      -0.375393133724     0.164392889891      -0.375393133724     -0.835480731801     -0.364959755518     
5300000000.0        -0.840651802671     -0.36010822581      0.159219506662      -0.370747243139     0.159219506662      -0.370747243139     -0.840651802671     -0.36010822581      
5400000000.0        -0.84559814495      -0.355335202738     0.154270806551      -0.366180076218     0.154270806551      -0.366180076218     -0.84559814495      -0.355335202738     
5500000000.0        -0.850331706314     -0.350641387253     0.149534841723      -0.36169233481      0.149534841723      -0.36169233481      -0.850331706314     -0.350641387253     
5600000000.0        -0.854863722369     -0.346027138282     0.145000376418      -0.357284378725     0.145000376418      -0.357284378725     -0.854863722369     -0.346027138282     
5700000000.0        -0.85920475992      -0.341492520152     0.14065684367       -0.352956273162     0.14065684367       -0.352956273162     -0.85920475992      -0.341492520152     
5800000000.0        -0.863364758061     -0.337037344234     0.136494304229      -0.348707830354     0.136494304229      -0.348707830354     -0.863364758061     -0.337037344234     
5900000000.0        -0.867353067067     -0.33266120551      0.132503407662      -0.344538646139     0.132503407662      -0.344538646139     -0.867353067067     -0.33266120551      
6000000000.0        -0.87117848512      -0.328363514654     0.128675355628      -0.34044813204      0.128675355628      -0.34044813204      -0.87117848512      -0.328363514654     
6100000000.0        -0.874849292921     -0.32414352616      0.125001867269      -0.336435543394     0.125001867269      -0.336435543394     -0.874849292921     -0.32414352616      
6200000000.0        -0.878373286236     -0.32000036299      0.121475146657      -0.332500004006     0.121475146657      -0.332500004006     -0.878373286236     -0.32000036299      
6300000000.0        -0.881757806477     -0.315933038157     0.118087852222      -0.328640527725     0.118087852222      -0.328640527725     -0.881757806477     -0.315933038157     
6400000000.0        -0.88500976938      -0.311940473597     0.114833068067      -0.324856037328     0.114833068067      -0.324856037328     -0.88500976938      -0.311940473597     
6500000000.0        -0.888135691883     -0.308021516675     0.111704277092      -0.32114538102      0.111704277092      -0.32114538102      -0.888135691883     -0.308021516675     
6600000000.0        -0.891141717298     -0.304174954586     0.108695335826      -0.317507346837     0.108695335826      -0.317507346837     -0.891141717298     -0.304174954586     
6700000000.0        -0.894033638849     -0.300399526919     0.105800450881      -0.313940675211     0.105800450881      -0.313940675211     -0.894033638849     -0.300399526919     
6800000000.0        -0.896816921702     -0.296693936587     0.103014156927      -0.310444069906     0.103014156927      -0.310444069906     -0.896816921702     -0.296693936587     
6900000000.0        -0.899496723545     -0.293056859342     0.100331296115      -0.307016207526     0.100331296115      -0.307016207526     -0.899496723545     -0.293056859342     
7000000000.0        -0.902077913823     -0.289486952019     0.097746998834      -0.303655745766     0.097746998834      -0.303655745766     -0.902077913823     -0.289486952019     
7100000000.0        -0.904565091703     -0.285982859685     0.0952566657512     -0.30036133056      0.0952566657512     -0.30036133056      -0.904565091703     -0.285982859685     
7200000000.0        -0.906962602864     -0.282543221805     0.0928559510231     -0.297131602246     0.0928559510231     -0.297131602246     -0.906962602864     -0.282543221805     
7300000000.0        -0.909274555163     -0.279166677556     0.0905407466232     -0.293965200885     0.0905407466232     -0.293965200885     -0.909274555163     -0.279166677556     
7400000000.0        -0.911504833283     -0.275851870393     0.0883071677038     -0.290860770825     0.0883071677038     -0.290860770825     -0.911504833283     -0.275851870393     
7500000000.0        -0.913657112392     -0.272597451945     0.086151538925      -0.287816964596     0.086151538925      -0.287816964596     -0.913657112392     -0.272597451945     
7600000000.0        -0.915734870922     -0.269402085339     0.0840703816864     -0.284832446239     0.0840703816864     -0.284832446239     -0.915734870922     -0.269402085339     
7700000000.0        -0.917741402489     -0.266264448008     0.0820604022011     -0.28190589411      0.0820604022011     -0.28190589411      -0.917741402489     -0.266264448008     
7800000000.0        -0.919679827035     -0.263183234052     0.0801184803543     -0.279036003246     0.0801184803543     -0.279036003246     -0.919679827035     -0.263183234052     
7900000000.0        -0.92155310124      -0.260157156214     0.0782416592935     -0.276221487338     0.0782416592935     -0.276221487338     -0.92155310124      -0.260157156214     
8000000000.0        -0.923364028249     -0.257184947501     0.0764271357001     -0.273461080355     0.0764271357001     -0.273461080355     -0.923364028249     -0.257184947501     
8100000000.0        -0.925115266764     -0.254265362514     0.0746722506954     -0.270753537874     0.0746722506954     -0.270753537874     -0.925115266764     -0.254265362514     
8200000000.0        -0.92680933955      -0.251397178515     0.0729744813383     -0.268097638143     0.0729744813383     -0.268097638143     -0.92680933955      -0.251397178515     
8300000000.0        -0.928448641385     -0.248579196252     0.0713314326739     -0.265492182917     0.0713314326739     -0.265492182917     -0.928448641385     -0.248579196252     
8400000000.0        -0.930035446497     -0.245810240606     0.0697408302942     -0.262935998093     0.0697408302942     -0.262935998093     -0.930035446497     -0.245810240606     
8500000000.0        -0.931571915529     -0.243089161042     0.0682005133771     -0.260427934169     0.0682005133771     -0.260427934169     -0.931571915529     -0.243089161042     
8600000000.0        -0.93306010205      -0.240414831924     0.0667084281698     -0.257966866559     0.0667084281698     -0.257966866559     -0.93306010205      -0.240414831924     
8700000000.0        -0.934501958664     -0.237786152691     0.0652626218877     -0.255551695766     0.0652626218877     -0.255551695766     -0.934501958664     -0.237786152691     
8800000000.0        -0.935899342718     -0.235202047927     0.0638612369986     -0.253181347455     0.0638612369986     -0.253181347455     -0.935899342718     -0.235202047927     
8900000000.0        -0.937254021661     -0.232661467325     0.0625025058668     -0.250854772416     0.0625025058668     -0.250854772416     -0.937254021661     -0.232661467325     
9000000000.0        -0.938567678067     -0.230163385574     0.0611847457334     -0.248570946453     0.0611847457334     -0.248570946453     -0.938567678067     -0.230163385574     
9100000000.0        -0.939841914335     -0.227706802175     0.0599063540087     -0.246328870195     0.0599063540087     -0.246328870195     -0.939841914335     -0.227706802175     
9200000000.0        -0.941078257112     -0.22529074119      0.0586658038566     -0.244127568855     0.0586658038566     -0.244127568855     -0.941078257112     -0.22529074119      
9300000000.0        -0.942278161433     -0.222914250946     0.0574616400506     -0.241966091925     0.0574616400506     -0.241966091925     -0.942278161433     -0.222914250946     
9400000000.0        -0.943443014611     -0.220576403695     0.0562924750842     -0.239843512838     0.0562924750842     -0.239843512838     -0.943443014611     -0.220576403695     
9500000000.0        -0.944574139891     -0.218276295232     0.0551569855178     -0.237758928591     0.0551569855178     -0.237758928591     -0.944574139891     -0.218276295232     
9600000000.0        -0.945672799881     -0.216013044495     0.0540539085466     -0.235711459343     0.0540539085466     -0.235711459343     -0.945672799881     -0.216013044495     
9700000000.0        -0.946740199778     -0.213785793132     0.0529820387756     -0.233700247975     0.0529820387756     -0.233700247975     -0.946740199778     -0.213785793132     
9800000000.0        -0.947777490402     -0.211593705051     0.0519402251868     -0.231724459653     0.0519402251868     -0.231724459653     -0.947777490402     -0.211593705051     
9900000000.0        -0.948785771043     -0.209435965958     0.0509273682872     -0.229783281355     0.0509273682872     -0.229783281355     -0.948785771043     -0.209435965958     
10000000000.0       -0.949766092149     -0.207311782882     0.0499424174253     -0.227875921404     0.0499424174253     -0.227875921404     -0.949766092149     -0.207311782882     
