# Hz S RI R 50.00 
100000000.0         -7.6450004123e-05   -0.0115644128323    0.999765017488      -0.0123863201049    0.999765017488      -0.0123863201049    -7.64500041229e-05  -0.0115644128323    
200000000.0         -0.000517282444021  -0.0231190577918    0.999322095459      -0.0247629956954    0.999322095459      -0.0247629956954    -0.000517282444021  -0.0231190577918    
300000000.0         -0.00124393422231   -0.0346542569195    0.998592950739      -0.0371204165607    0.998592950739      -0.0371204165607    -0.00124393422231   -0.0346542569195    
400000000.0         -0.00225525426856   -0.0461602534163    0.99757859743       -0.0494488788872    0.99757859743       -0.0494488788872    -0.00225525426856   -0.0461602534163    
500000000.0         -0.00354968651772   -0.0576272966291    0.99628053851       -0.0617386775409    0.99628053851       -0.0617386775409    -0.00354968651772   -0.0576272966291    
600000000.0         -0.005125241429     -0.069045689156     0.994700736032      -0.0739801556837    0.994700736032      -0.0739801556837    -0.005125241429     -0.069045689156     
700000000.0         -0.00697949245893   -0.0804058235992    0.992841599869      -0.0861637428068    0.992841599869      -0.0861637428068    -0.00697949245893   -0.0804058235992    
800000000.0         -0.00910957980917   -0.0916982146383    0.990705978589      -0.0982799875743    0.990705978589      -0.0982799875743    -0.00910957980917   -0.0916982146383    
900000000.0         -0.0115122179185    -0.102913528313     0.988297149572      -0.110319587618     0.988297149572      -0.110319587618     -0.0115122179185    -0.102913528313     
1000000000.0        -0.0141837055781    -0.114042609271     0.985618807694      -0.12227341715      0.985618807694      -0.12227341715      -0.0141837055781    -0.114042609271     
1100000000.0        -0.0171199381786    -0.125076506296     0.982675052411      -0.13413255276      0.982675052411      -0.13413255276      -0.0171199381786    -0.125076506296     
1200000000.0        -0.0203164218026    -0.136006496237     0.97947037327       -0.145888297559     0.97947037327       -0.145888297559     -0.0203164218026    -0.136006496237     
1300000000.0        -0.0237682889586    -0.146824106377     0.976009633931      -0.157532203717     0.976009633931      -0.157532203717     -0.0237682889586    -0.146824106377     
1400000000.0        -0.0274703157803    -0.157521135227     0.972298054805      -0.169056093392     0.972298054805      -0.169056093392     -0.0274703157803    -0.157521135227     
1500000000.0        -0.0314169405315    -0.168089671706     0.96834119444       -0.18045207803      0.96834119444       -0.18045207803      -0.0314169405315    -0.168089671706     
1600000000.0        -0.0356022832604    -0.178522112689     0.964144929793      -0.19171257601      0.964144929793      -0.19171257601      -0.0356022832604    -0.178522112689     
1700000000.0        -0.04002016645      -0.188811178863     0.959715435527      -0.202830328586     0.959715435527      -0.202830328586     -0.04002016645      -0.188811178863     
1800000000.0        -0.0446641365109    -0.198949928875     0.955059162473      -0.213798414109     0.955059162473      -0.213798414109     -0.0446641365109    -0.198949928875     
1900000000.0        -0.0495274859652    -0.208931771751     0.950182815427      -0.224610260511     0.950182815427      -0.224610260511     -0.0495274859652    -0.208931771751     
2000000000.0        -0.0546032761697    -0.218750477558     0.945093330395      -0.235259656028     0.945093330395      -0.235259656028     -0.0546032761697    -0.218750477558     
2100000000.0        -0.0598843604307    -0.228400186321     0.939797851469      -0.245740758168     0.939797851469      -0.245740758168     -0.0598843604307    -0.228400186321     
2200000000.0        -0.0653634073635    -0.237875415203     0.934303707454      -0.256048100939     0.934303707454      -0.256048100939     -0.0653634073635    -0.237875415203     
2300000000.0        -0.0710329243559    -0.247171063959     0.928618388391      -0.266176600346     0.928618388391      -0.266176600346     -0.0710329243559    -0.247171063959     
2400000000.0        -0.0768852809994    -0.256282418706     0.922749522121      -0.276121558204     0.922749522121      -0.276121558204     -0.0768852809994    -0.256282418706     
2500000000.0        -0.0829127323569    -0.265205154046     0.916704851012      -0.28587866429      0.916704851012      -0.28587866429      -0.0829127323569    -0.265205154046     
2600000000.0        -0.0891074419443    -0.27393533359      0.91049220897       -0.29544399691      0.91049220897       -0.29544399691      -0.0891074419443    -0.27393533359      
2700000000.0        -0.0954615043103    -0.282469408956     0.904119498857      -0.304814021922     0.904119498857      -0.304814021922     -0.0954615043103    -0.282469408956     
2800000000.0        -0.101966967105     -0.29080421729      0.897594670419      -0.313985590285     0.897594670419      -0.313985590285     -0.101966967105     -0.29080421729      
2900000000.0        -0.108615852545     -0.298936977402     0.89092569882       -0.322955934227     0.89092569882       -0.322955934227     -0.108615852545     -0.298936977402     
3000000000.0        -0.11540017817      -0.306865284593     0.884120563877      -0.331722662095     0.884120563877      -0.331722662095     -0.11540017817      -0.306865284593     
3100000000.0        -0.12231197684      -0.314587104256     0.877187230072      -0.340283751978     0.877187230072      -0.340283751978     -0.12231197684      -0.314587104256     
3200000000.0        -0.129343315865     -0.322100764348     0.870133627412      -0.3486375442       0.870133627412      -0.3486375442       -0.129343315865     -0.322100764348     
3300000000.0        -0.136486315239     -0.329404946818     0.862967633194      -0.356782732773     0.862967633194      -0.356782732773     -0.136486315239     -0.329404946818     
3400000000.0        -0.143733164916     -0.336498678094     0.855697054736      -0.364718355901     0.855697054736      -0.364718355901     -0.143733164916     -0.336498678094     
3500000000.0        -0.151076141075     -0.343381318724     0.848329613102      -0.372443785638     0.848329613102      -0.372443785638     -0.151076141075     -0.343381318724     
3600000000.0        -0.158507621367     -0.350052552265     0.84087292786       -0.379958716795     0.84087292786       -0.379958716795     -0.158507621367     -0.350052552265     
3700000000.0        -0.166020099092     -0.356512373511     0.8333345029        -0.387263155187     0.8333345029        -0.387263155187     -0.166020099092     -0.356512373511     
3800000000.0        -0.173606196321     -0.362761076174     0.825721713318      -0.394357405323     0.825721713318      -0.394357405323     -0.173606196321     -0.362761076174     
3900000000.0        -0.181258675927     -0.368799240078     0.818041793379      -0.401242057623     0.818041793379      -0.401242057623     -0.181258675927     -0.368799240078     
4000000000.0        -0.18897045255      -0.374627717993     0.810301825551      -0.407917975258     0.810301825551      -0.407917975258     -0.18897045255      -0.374627717993     
4100000000.0        -0.196734602492     -0.380247622158     0.802508730615      -0.414386280689     0.802508730615      -0.414386280689     -0.196734602492     -0.380247622158     
4200000000.0        -0.204544372555     -0.38566031061      0.794669258823      -0.42064834201      0.794669258823      -0.42064834201      -0.204544372555     -0.38566031061      
4300000000.0        -0.212393187849     -0.390867373364     0.786789982088      -0.426705759136     0.786789982088      -0.426705759136     -0.212393187849     -0.390867373364     
4400000000.0        -0.220274658588     -0.395870618547     0.778877287193      -0.43256034995      0.778877287193      -0.43256034995      -0.220274658588     -0.395870618547     
4500000000.0        -0.228182585913     -0.400672058533     0.770937369962      -0.43821413645      0.770937369962      -0.43821413645      -0.228182585913     -0.400672058533     
4600000000.0        -0.236110966765     -0.405273896158     0.76297623039       -0.443669330969     0.76297623039       -0.443669330969     -0.236110966765     -0.405273896158     
4700000000.0        -0.244053997851     -0.40967851106      0.754999668677      -0.448928322529     0.754999668677      -0.448928322529     -0.244053997851     -0.40967851106      
4800000000.0        -0.252006078749     -0.413888446211     0.747013282123      -0.453993663381     0.747013282123      -0.453993663381     -0.252006078749     -0.413888446211     
4900000000.0        -0.259961814175     -0.417906394683     0.739022462855      -0.458868055778     0.739022462855      -0.458868055778     -0.259961814175     -0.417906394683     
5000000000.0        -0.267916015484     -0.421735186689     0.731032396334      -0.463554339025     0.731032396334      -0.463554339025     -0.267916015484     -0.421735186689     
5100000000.0        -0.275863701423     -0.425377776948     0.723048060599      -0.468055476848     0.723048060599      -0.468055476848     -0.275863701423     -0.425377776948     
5200000000.0        -0.283800098203     -0.42883723239      0.715074226189      -0.472374545114     0.715074226189      -0.472374545114     -0.283800098203     -0.42883723239      
5300000000.0        -0.291720638923     -0.432116720254     0.707115456729      -0.47651471993      0.707115456729      -0.47651471993      -0.291720638923     -0.432116720254     
5400000000.0        -0.299620962399     -0.435219496583     0.699176110089      -0.480479266145     0.699176110089      -0.480479266145     -0.299620962399     -0.435219496583     
5500000000.0        -0.307496911447     -0.438148895147     0.691260340112      -0.484271526279     0.691260340112      -0.484271526279     -0.307496911447     -0.438148895147     
5600000000.0        -0.315344530659     -0.440908316807     0.683372098832      -0.487894909895     0.683372098832      -0.487894909895     -0.315344530659     -0.440908316807     
5700000000.0        -0.323160063718     -0.443501219338     0.675515139156      -0.491352883427     0.675515139156      -0.491352883427     -0.323160063718     -0.443501219338     
5800000000.0        -0.330939950301     -0.445931107709     0.667693017967      -0.494648960464     0.667693017967      -0.494648960464     -0.330939950301     -0.445931107709     
5900000000.0        -0.33868082261      -0.448201524839     0.659909099588      -0.497786692511     0.659909099588      -0.497786692511     -0.33868082261      -0.448201524839     
6000000000.0        -0.34637950157      -0.450316042828     0.652166559586      -0.500769660225     0.652166559586      -0.500769660225     -0.34637950157      -0.450316042828     
6100000000.0        -0.354032992731     -0.452278254648     0.644468388869      -0.503601465115     0.644468388869      -0.503601465115     -0.354032992731     -0.452278254648     
6200000000.0        -0.361638481923     -0.454091766325     0.636817398031      -0.506285721719     0.636817398031      -0.506285721719     -0.361638481923     -0.454091766325     
6300000000.0        -0.369193330682     -0.455760189568     0.629216221924      -0.508826050246     0.629216221924      -0.508826050246     -0.369193330682     -0.455760189568     
6400000000.0        -0.376695071502     -0.457287134872     0.621667324408      -0.511226069678     0.621667324408      -0.511226069678     -0.376695071502     -0.457287134872     
6500000000.0        -0.384141402923     -0.458676205062     0.614173003262      -0.513489391319     0.614173003262      -0.513489391319     -0.384141402923     -0.458676205062     
6600000000.0        -0.391530184503     -0.459930989289     0.60673539521       -0.515619612794     0.60673539521       -0.515619612794     -0.391530184503     -0.459930989289     
6700000000.0        -0.398859431689     -0.461055057445     0.599356481051      -0.517620312469     0.599356481051      -0.517620312469     -0.398859431689     -0.461055057445     
6800000000.0        -0.406127310624     -0.462051955003     0.592038090853      -0.519495044294     0.592038090853      -0.519495044294     -0.406127310624     -0.462051955003     
6900000000.0        -0.413332132906     -0.462925198264     0.584781909192      -0.521247333048     0.584781909192      -0.521247333048     -0.413332132906     -0.462925198264     
7000000000.0        -0.420472350321     -0.463678269984     0.577589480415      -0.52288066998      0.577589480415      -0.52288066998      -0.420472350321     -0.463678269984     
7100000000.0        -0.427546549581     -0.464314615391     0.570462213912      -0.524398508816     0.570462213912      -0.524398508816     -0.427546549581     -0.464314615391     
7200000000.0        -0.434553447067     -0.464837638551     0.56340138936       -0.525804262134     0.56340138936       -0.525804262134     -0.434553447067     -0.464837638551     
7300000000.0        -0.441491883616     -0.465250699085     0.556408161944      -0.527101298084     0.556408161944      -0.527101298084     -0.441491883616     -0.465250699085     
7400000000.0        -0.448360819351     -0.465557109213     0.549483567525      -0.528292937434     0.549483567525      -0.528292937434     -0.448360819351     -0.465557109213     
7500000000.0        -0.455159328568     -0.465760131116     0.54262852775       -0.529382450933     0.54262852775       -0.529382450933     -0.455159328568     -0.465760131116     
7600000000.0        -0.461886594707     -0.465862974591     0.535843855083      -0.530373056968     0.535843855083      -0.530373056968     -0.461886594707     -0.465862974591     
7700000000.0        -0.4685419054       -0.465868794991     0.529130257757      -0.531267919507     0.529130257757      -0.531267919507     -0.4685419054       -0.465868794991     
7800000000.0        -0.475124647615     -0.465780691432     0.522488344626      -0.532070146305     0.522488344626      -0.532070146305     -0.475124647615     -0.465780691432     
7900000000.0        -0.481634302908     -0.465601705248     0.51591862992       -0.53278278737      0.51591862992       -0.53278278737      -0.481634302908     -0.465601705248     
8000000000.0        -0.48807044277      -0.46533481869      0.509421537886      -0.533408833651     0.509421537886      -0.533408833651     -0.48807044277      -0.46533481869      
8100000000.0        -0.49443272411      -0.464982953839     0.502997407318      -0.533951215962     0.502997407318      -0.533951215962     -0.49443272411      -0.464982953839     
8200000000.0        -0.500720884837     -0.464548971732     0.496646495961      -0.534412804104     0.496646495961      -0.534412804104     -0.500720884837     -0.464548971732     
8300000000.0        -0.506934739585     -0.464035671677     0.490368984797      -0.534796406187     0.490368984797      -0.534796406187     -0.506934739585     -0.464035671677     
8400000000.0        -0.513074175552     -0.463445790757     0.484164982201      -0.535104768129     0.484164982201      -0.535104768129     -0.513074175552     -0.463445790757     
8500000000.0        -0.519139148474     -0.46278200349      0.478034527963      -0.535340573326     0.478034527963      -0.535340573326     -0.519139148474     -0.46278200349      
8600000000.0        -0.525129678732     -0.462046921657     0.471977597188      -0.53550644247      0.471977597188      -0.53550644247      -0.525129678732     -0.462046921657     
8700000000.0        -0.531045847587     -0.461243094261     0.465994104054      -0.53560493352      0.465994104054      -0.53560493352      -0.531045847587     -0.461243094261     
8800000000.0        -0.536887793552     -0.460373007631     0.460083905441      -0.535638541801     0.460083905441      -0.535638541801     -0.536887793552     -0.460373007631     
8900000000.0        -0.542655708893     -0.459439085635     0.454246804434      -0.53560970022      0.454246804434      -0.53560970022      -0.542655708893     -0.459439085635     
9000000000.0        -0.548349836266     -0.458443690016     0.448482553681      -0.535520779602     0.448482553681      -0.535520779602     -0.548349836266     -0.458443690016     
9100000000.0        -0.553970465477     -0.457389120817     0.44279085863       -0.535374089118     0.44279085863       -0.535374089118     -0.553970465477     -0.457389120817     
9200000000.0        -0.559517930382     -0.456277616909     0.437171380638      -0.535171876814     0.437171380638      -0.535171876814     -0.559517930382     -0.456277616909     
9300000000.0        -0.564992605904     -0.455111356595     0.431623739942      -0.534916330213     0.431623739942      -0.534916330213     -0.564992605904     -0.455111356595     
9400000000.0        -0.570394905185     -0.453892458295     0.426147518517      -0.534609577004     0.426147518517      -0.534609577004     -0.570394905185     -0.453892458295     
9500000000.0        -0.57572527685      -0.452622981291     0.420742262804      -0.534253685785     0.420742262804      -0.534253685785     -0.57572527685      -0.452622981291     
9600000000.0        -0.580984202403     -0.451304926537     0.415407486316      -0.53385066688      0.415407486316      -0.53385066688      -0.580984202403     -0.451304926537     
9700000000.0        -0.586172193731     -0.449940237525     0.410142672133      -0.533402473196     0.410142672133      -0.533402473196     -0.586172193731     -0.449940237525     
9800000000.0        -0.59128979073      -0.448530801187     0.40494727528       -0.532911001135     0.40494727528       -0.532911001135     -0.59128979073      -0.448530801187     
9900000000.0        -0.596337559037     -0.447078448848     0.399820724987      -0.532378091544     0.399820724987      -0.532378091544     -0.596337559037     -0.447078448848     
10000000000.0       -0.601316087871     -0.445584957211     0.39476242685       -0.531805530697     0.39476242685       -0.531805530697     -0.601316087871     -0.445584957211     
