# Hz S RI R 50.00 
100000000.0         -0.000263840194724  -0.0159248697057    0.999720666734      -0.0160216590039    0.999720666734      -0.0160216590039    -0.000263840194724  -0.0159248697057    
200000000.0         -0.00104432721556   -0.0318220992773    0.998940059926      -0.0320157214921    0.998940059926      -0.0320157214921    -0.00104432721556   -0.0318220992773    
300000000.0         -0.00233156534414   -0.0476663380643    0.997652719278      -0.0479568585046    0.997652719278      -0.0479568585046    -0.00233156534414   -0.0476663380643    
400000000.0         -0.00412120060308   -0.0634328206233    0.995862985426      -0.0638203205446    0.995862985426      -0.0638203205446    -0.00412120060308   -0.0634328206233    
500000000.0         -0.00640731383478   -0.0790973624446    0.993576772396      -0.0795819359073    0.993576772396      -0.0795819359073    -0.00640731383478   -0.0790973624446    
600000000.0         -0.00918248097132   -0.0946364335046    0.990801501634      -0.0952181851659    0.990801501634      -0.0952181851659    -0.00918248097132   -0.0946364335046    
700000000.0         -0.0124378422252    -0.110027246664     0.98754603137       -0.110706290061     0.98754603137       -0.110706290061     -0.0124378422252    -0.110027246664     
800000000.0         -0.016163179182     -0.125247847156     0.983820578998      -0.1260243033       0.983820578998      -0.1260243033       -0.016163179182     -0.125247847156     
900000000.0         -0.0203469991525    -0.140277197849     0.979636636494      -0.141151194034     0.979636636494      -0.141151194034     -0.0203469991525    -0.140277197849     
1000000000.0        -0.0249766259688    -0.155095257681     0.975006879499      -0.15606692645      0.975006879499      -0.15606692645      -0.0249766259688    -0.155095257681     
1100000000.0        -0.0300382962484    -0.16968305176      0.96994507099       -0.170752530008     0.96994507099       -0.170752530008     -0.0300382962484    -0.16968305176      
1200000000.0        -0.0355172600631    -0.184022732239     0.964465960574      -0.185190160412     0.964465960574      -0.185190160412     -0.0355172600631    -0.184022732239     
1300000000.0        -0.0413978849003    -0.198097629417     0.958585180499      -0.199363150807     0.958585180499      -0.199363150807     -0.0413978849003    -0.198097629417     
1400000000.0        -0.0476637617884    -0.211892292809     0.952319139518      -0.213256052924     0.952319139518      -0.213256052924     -0.0476637617884    -0.211892292809     
1500000000.0        -0.0542978124715    -0.225392522113     0.945684915699      -0.226854668108     0.945684915699      -0.226854668108     -0.0542978124715    -0.225392522113     
1600000000.0        -0.0612823965609    -0.238585388184     0.938700149269      -0.240146068365     0.938700149269      -0.240146068365     -0.0612823965609    -0.238585388184     
1700000000.0        -0.0685994176363    -0.251459244292     0.931382936504      -0.253118607659     0.931382936504      -0.253118607659     -0.0685994176363    -0.251459244292     
1800000000.0        -0.0762304273493    -0.264003728016     0.923751725625      -0.265761923866     0.923751725625      -0.265761923866     -0.0762304273493    -0.264003728016     
1900000000.0        -0.0841567266548    -0.276209754291     0.915825215564      -0.278066931858     0.915825215564      -0.278066931858     -0.0841567266548    -0.276209754291     
2000000000.0        -0.092359463396     -0.288069500156     0.907622258373      -0.290025808294     0.907622258373      -0.290025808294     -0.092359463396     -0.288069500156     
2100000000.0        -0.100819725556     -0.299576381862     0.899161765974      -0.301631968758     0.899161765974      -0.301631968758     -0.100819725556     -0.299576381862     
2200000000.0        -0.109518629597     -0.310725025019     0.890462621817      -0.31288003795      0.890462621817      -0.31288003795      -0.109518629597     -0.310725025019     
2300000000.0        -0.118437403409     -0.321511228524     0.881543597931      -0.323765813633     0.881543597931      -0.323765813633     -0.118437403409     -0.321511228524     
2400000000.0        -0.127557463486     -0.331931923011     0.872423277747      -0.334286225114     0.872423277747      -0.334286225114     -0.127557463486     -0.331931923011     
2500000000.0        -0.136860486053     -0.341985124579     0.86311998497       -0.344439287        0.86311998497       -0.344439287        -0.136860486053     -0.341985124579     
2600000000.0        -0.146328471949     -0.35166988456      0.853651718694      -0.354224048985     0.853651718694      -0.354224048985     -0.146328471949     -0.35166988456      
2700000000.0        -0.15594380518      -0.360986236052     0.84403609485       -0.363640542403     0.84403609485       -0.363640542403     -0.15594380518      -0.360986236052     
2800000000.0        -0.165689305115     -0.369935137935     0.834290294013      -0.372689724265     0.834290294013      -0.372689724265     -0.165689305115     -0.369935137935     
2900000000.0        -0.175548272378     -0.378518417039     0.824431015501      -0.381373419443     0.824431015501      -0.381373419443     -0.175548272378     -0.378518417039     
3000000000.0        -0.185504528571     -0.386738709109     0.81447443766       -0.389694261651     0.81447443766       -0.389694261651     -0.185504528571     -0.386738709109     
3100000000.0        -0.19554244999      -0.394599399158     0.804436184146      -0.397655633811     0.804436184146      -0.397655633811     -0.19554244999      -0.394599399158     
3200000000.0        -0.205646995569     -0.40210456174      0.794331295976      -0.405261608336     0.794331295976      -0.405261608336     -0.205646995569     -0.40210456174      
3300000000.0        -0.215803729328     -0.409258901648     0.784174209085      -0.412516887846     0.784174209085      -0.412516887846     -0.215803729328     -0.409258901648     
3400000000.0        -0.225998837604     -0.416067695469     0.773978737092      -0.419426746729     0.773978737092      -0.419426746729     -0.225998837604     -0.416067695469     
3500000000.0        -0.236219141414     -0.422536734389     0.763758058941      -0.425996973952     0.763758058941      -0.425996973952     -0.236219141414     -0.422536734389     
3600000000.0        -0.246452104269     -0.428672268569     0.75352471108       -0.432233817453     0.75352471108       -0.432233817453     -0.246452104269     -0.428672268569     
3700000000.0        -0.256685835817     -0.434480953398     0.743290583824      -0.438143930394     0.743290583824      -0.438143930394     -0.256685835817     -0.434480953398     
3800000000.0        -0.266909091652     -0.439969797836     0.733066921544      -0.443734319514     0.733066921544      -0.443734319514     -0.266909091652     -0.439969797836     
3900000000.0        -0.277111269661     -0.445146115055     0.722864326316      -0.449012295776     0.722864326316      -0.449012295776     -0.277111269661     -0.445146115055     
4000000000.0        -0.287282403269     -0.450017475519     0.712692764685      -0.453985427452     0.712692764685      -0.453985427452     -0.287282403269     -0.450017475519     
4100000000.0        -0.297413151905     -0.45459166261      0.702561577188      -0.45866149575      0.702561577188      -0.45866149575      -0.297413151905     -0.45459166261      
4200000000.0        -0.307494789059     -0.458876630871     0.692479490306      -0.463048453067     0.692479490306      -0.463048453067     -0.307494789059     -0.458876630871     
4300000000.0        -0.31751918822      -0.462880466918     0.682454630519      -0.467154383898     0.682454630519      -0.467154383898     -0.31751918822      -0.462880466918     
4400000000.0        -0.32747880702      -0.46661135301      0.672494540169      -0.470987468415     0.672494540169      -0.470987468415     -0.32747880702      -0.46661135301      
4500000000.0        -0.337366669859     -0.470077533284     0.662606194828      -0.474555948701     0.662606194828      -0.474555948701     -0.337366669859     -0.470077533284     
4600000000.0        -0.347176349291     -0.473287282608     0.652796021914      -0.477868097603     0.652796021914      -0.477868097603     -0.347176349291     -0.473287282608     
4700000000.0        -0.356901946413     -0.476248877989     0.643069920308      -0.480932190148     0.643069920308      -0.480932190148     -0.356901946413     -0.476248877989     
4800000000.0        -0.366538070481     -0.478970572483     0.633433280727      -0.483756477451     0.633433280727      -0.483756477451     -0.366538070481     -0.478970572483     
4900000000.0        -0.37607981798      -0.481460571504     0.623891006664      -0.486349163022     0.623891006664      -0.486349163022     -0.37607981798      -0.481460571504     
5000000000.0        -0.385522751318     -0.483727011447     0.614447535688      -0.488718381397     0.614447535688      -0.488718381397     -0.385522751318     -0.483727011447     
5100000000.0        -0.394862877329     -0.485777940518     0.605106860943      -0.490872178961     0.605106860943      -0.490872178961     -0.394862877329     -0.485777940518     
5200000000.0        -0.404096625731     -0.487621301658     0.59587255269       -0.492818496883     0.59587255269       -0.492818496883     -0.404096625731     -0.487621301658     
5300000000.0        -0.413220827678     -0.489264917461     0.586747779755      -0.494565156021     0.586747779755      -0.494565156021     -0.413220827678     -0.489264917461     
5400000000.0        -0.422232694518     -0.490716476949     0.577735330768      -0.496119843708     0.577735330768      -0.496119843708     -0.422232694518     -0.490716476949     
5500000000.0        -0.43112979687      -0.491983524108     0.568837635091      -0.497490102282     0.568837635091      -0.497490102282     -0.43112979687      -0.491983524108     
5600000000.0        -0.439910044101     -0.493073448048     0.560056783341      -0.498683319251     0.560056783341      -0.498683319251     -0.439910044101     -0.493073448048     
5700000000.0        -0.448571664276     -0.493993474697     0.551394547433      -0.499706718982     0.551394547433      -0.499706718982     -0.448571664276     -0.493993474697     
5800000000.0        -0.45711318465      -0.49475065989      0.542852400093      -0.500567355789     0.542852400093      -0.500567355789     -0.45711318465      -0.49475065989      
5900000000.0        -0.46553341275      -0.495351883759     0.534431533778      -0.501272108331     0.534431533778      -0.501272108331     -0.46553341275      -0.495351883759     
6000000000.0        -0.47383141809      -0.495803846316     0.526132878959      -0.501827675184     0.526132878959      -0.501827675184     -0.47383141809      -0.495803846316     
6100000000.0        -0.482006514539     -0.496113064128     0.517957121748      -0.502240571522     0.517957121748      -0.502240571522     -0.482006514539     -0.496113064128     
6200000000.0        -0.490058243384     -0.496285867974     0.509904720842      -0.50251712677      0.509904720842      -0.50251712677      -0.490058243384     -0.496285867974     
6300000000.0        -0.497986357089     -0.496328401412     0.501975923764      -0.502663483176     0.501975923764      -0.502663483176     -0.497986357089     -0.496328401412     
6400000000.0        -0.505790803761     -0.496246620158     0.494170782389      -0.502685595181     0.494170782389      -0.502685595181     -0.505790803761     -0.496246620158     
6500000000.0        -0.513471712331     -0.496046292185     0.486489167772      -0.502589229525     0.486489167772      -0.502589229525     -0.513471712331     -0.496046292185     
6600000000.0        -0.52102937845      -0.495732998489     0.47893078425       -0.502379966004     0.47893078425       -0.502379966004     -0.52102937845      -0.495732998489     
6700000000.0        -0.528464251074     -0.495312134418     0.471495182849      -0.50206319881      0.471495182849      -0.50206319881      -0.528464251074     -0.495312134418     
6800000000.0        -0.535776919763     -0.494788911533     0.464181773996      -0.501644138377     0.464181773996      -0.501644138377     -0.535776919763     -0.494788911533     
6900000000.0        -0.542968102647     -0.494168359898     0.456989839549      -0.501127813684     0.456989839549      -0.501127813684     -0.542968102647     -0.494168359898     
7000000000.0        -0.550038635057     -0.493455330781     0.449918544161      -0.500519074947     0.449918544161      -0.500519074947     -0.550038635057     -0.493455330781     
7100000000.0        -0.556989458816     -0.492654499684     0.442966946         -0.499822596645     0.442966946         -0.499822596645     -0.556989458816     -0.492654499684     
7200000000.0        -0.563821612137     -0.491770369658     0.436134006835      -0.499042880848     0.436134006835      -0.499042880848     -0.563821612137     -0.491770369658     
7300000000.0        -0.570536220149     -0.490807274879     0.429418601527      -0.498184260774     0.429418601527      -0.498184260774     -0.570536220149     -0.490807274879     
7400000000.0        -0.577134485991     -0.489769384406     0.422819526924      -0.497250904563     0.422819526924      -0.497250904563     -0.577134485991     -0.489769384406     
7500000000.0        -0.583617682474     -0.488660706126     0.416335510202      -0.496246819211     0.416335510202      -0.496246819211     -0.583617682474     -0.488660706126     
7600000000.0        -0.589987144282     -0.487485090817     0.409965216666      -0.495175854633     0.409965216666      -0.495175854633     -0.589987144282     -0.487485090817     
7700000000.0        -0.596244260685     -0.486246236319     0.403707257033      -0.494041707839     0.403707257033      -0.494041707839     -0.596244260685     -0.486246236319     
7800000000.0        -0.602390468743     -0.484947691777     0.39756019423       -0.492847927169     0.39756019423       -0.492847927169     -0.602390468743     -0.484947691777     
7900000000.0        -0.608427246985     -0.483592861936     0.391522549719      -0.491597916594     0.391522549719      -0.491597916594     -0.608427246985     -0.483592861936     
8000000000.0        -0.614356109518     -0.482185011463     0.385592809378      -0.49029494003      0.385592809378      -0.49029494003      -0.614356109518     -0.482185011463     
8100000000.0        -0.620178600575     -0.480727269271     0.379769428965      -0.488942125669     0.379769428965      -0.488942125669     -0.620178600575     -0.480727269271     
8200000000.0        -0.625896289449     -0.479222632843     0.374050839175      -0.487542470295     0.374050839175      -0.487542470295     -0.625896289449     -0.479222632843     
8300000000.0        -0.631510765814     -0.477673972523     0.368435450322      -0.48609884358      0.368435450322      -0.48609884358      -0.631510765814     -0.477673972523     
8400000000.0        -0.637023635396     -0.476084035771     0.362921656669      -0.484613992338     0.362921656669      -0.484613992338     -0.637023635396     -0.476084035771     
8500000000.0        -0.642436515987     -0.474455451373     0.357507840413      -0.483090544725     0.357507840413      -0.483090544725     -0.642436515987     -0.474455451373     
8600000000.0        -0.647751033771     -0.472790733577     0.352192375359      -0.48153101439      0.352192375359      -0.48153101439      -0.647751033771     -0.472790733577     
8700000000.0        -0.652968819951     -0.471092286179     0.346973630292      -0.479937804547     0.346973630292      -0.479937804547     -0.652968819951     -0.471092286179     
8800000000.0        -0.658091507655     -0.469362406516     0.341849972074      -0.478313211973     0.341849972074      -0.478313211973     -0.658091507655     -0.469362406516     
8900000000.0        -0.663120729103     -0.467603289384     0.336819768474      -0.476659430928     0.336819768474      -0.476659430928     -0.663120729103     -0.467603289384     
9000000000.0        -0.66805811302      -0.46581703087      0.331881390755      -0.474978556979     0.331881390755      -0.474978556979     -0.66805811302      -0.46581703087      
9100000000.0        -0.672905282286     -0.464005632088     0.327033216028      -0.473272590741     0.327033216028      -0.473272590741     -0.672905282286     -0.464005632088     
9200000000.0        -0.67766385179      -0.462171002821     0.322273629393      -0.471543441519     0.322273629393      -0.471543441519     -0.67766385179      -0.462171002821     
9300000000.0        -0.682335426491     -0.46031496507      0.317601025878      -0.46979293085      0.317601025878      -0.46979293085      -0.682335426491     -0.46031496507      
9400000000.0        -0.68692159967      -0.458439256494     0.313013812193      -0.468022795952     0.313013812193      -0.468022795952     -0.68692159967      -0.458439256494     
9500000000.0        -0.691423951347     -0.456545533762     0.308510408308      -0.466234693067     0.308510408308      -0.466234693067     -0.691423951347     -0.456545533762     
9600000000.0        -0.695844046869     -0.454635375794     0.304089248864      -0.464430200705     0.304089248864      -0.464430200705     -0.695844046869     -0.454635375794     
9700000000.0        -0.700183435643     -0.452710286903     0.299748784443      -0.462610822788     0.299748784443      -0.462610822788     -0.700183435643     -0.452710286903     
9800000000.0        -0.704443650014     -0.450771699844     0.295487482691      -0.460777991692     0.295487482691      -0.460777991692     -0.704443650014     -0.450771699844     
9900000000.0        -0.708626204267     -0.448820978748     0.29130382931       -0.458933071187     0.29130382931       -0.458933071187     -0.708626204267     -0.448820978748     
10000000000.0       -0.712732593758     -0.446859421972     0.287196328936      -0.457077359282     0.287196328936      -0.457077359282     -0.712732593758     -0.446859421972     
