# Hz S RI R 50.00 
100000000.0         -1.95049050956e-05  -0.00481788240643   0.999962138215      -0.00485196243305   0.999962138215      -0.00485196243305   -1.95049050955e-05  -0.00481788240643   
200000000.0         -9.43694056006e-05  -0.00963489772083   0.999887146855      -0.0097030604627    0.999887146855      -0.0097030604627    -9.43694056003e-05  -0.00963489772083   
300000000.0         -0.000215967870579  -0.014450319328     0.999765452035      -0.0145525688655    0.999765452035      -0.0145525688655    -0.000215967870579  -0.014450319328     
400000000.0         -0.000384252025243  -0.019263432849     0.999597086237      -0.019399774335     0.999597086237      -0.019399774335     -0.000384252025243  -0.019263432849     
500000000.0         -0.000599164252042  -0.0240735308734    0.999382101027      -0.0242439703719    0.999382101027      -0.0242439703719    -0.000599164252042  -0.0240735308734    
600000000.0         -0.000860634416013  -0.0288799113589    0.999120563467      -0.0290844557391    0.999120563467      -0.0290844557391    -0.000860634416013  -0.0288799113589    
700000000.0         -0.00116857917467   -0.0336818769543    0.998812555094      -0.0339205338119    0.998812555094      -0.0339205338119    -0.00116857917467   -0.0336818769543    
800000000.0         -0.00152290181363   -0.0384787347588    0.998458171458      -0.0387515123545    0.998458171458      -0.0387515123545    -0.00152290181363   -0.0384787347588    
900000000.0         -0.00192349225176   -0.0432697962461    0.99805752184       -0.0435767034551    0.99805752184       -0.0435767034551    -0.00192349225176   -0.0432697962461    
1000000000.0        -0.00237022711217   -0.0480543773274    0.997610729039      -0.048395423596     0.997610729039      -0.048395423596     -0.00237022711217   -0.0480543773274    
1100000000.0        -0.00286296982506   -0.0528317984613    0.997117929195      -0.0532069937703    0.997117929195      -0.0532069937703    -0.00286296982506   -0.0528317984613    
1200000000.0        -0.0034015707511    -0.0576013848261    0.996579271616      -0.0580107396573    0.996579271616      -0.0580107396573    -0.0034015707511    -0.0576013848261    
1300000000.0        -0.00398586731557   -0.0623624664976    0.995994918617      -0.0628059918048    0.995994918617      -0.0628059918048    -0.00398586731557   -0.0623624664976    
1400000000.0        -0.00461568415444   -0.0671143786693    0.995365045352      -0.067592085851     0.995365045352      -0.067592085851     -0.00461568415444   -0.0671143786693    
1500000000.0        -0.00529083326754   -0.0718564618652    0.994689839652      -0.0723683627406    0.994689839652      -0.0723683627406    -0.00529083326754   -0.0718564618652    
1600000000.0        -0.00601111417974   -0.0765880621679    0.99396950185       -0.0771341689544    0.99396950185       -0.0771341689544    -0.00601111417974   -0.0765880621679    
1700000000.0        -0.00677631411001   -0.0813085314552    0.99320424461       -0.0818888567473    0.99320424461       -0.0818888567473    -0.00677631411001   -0.0813085314552    
1800000000.0        -0.00758620814605   -0.0860172276291    0.992394292744      -0.0866317843791    0.992394292744      -0.0866317843791    -0.00758620814605   -0.0860172276291    
1900000000.0        -0.00844055942716   -0.0907135148558    0.991539883028      -0.0913623163552    0.991539883028      -0.0913623163552    -0.00844055942716   -0.0907135148558    
2000000000.0        -0.0093391193317    -0.0953967637942    0.990641264011      -0.0960798236567    0.990641264011      -0.0960798236567    -0.0093391193317    -0.0953967637942    
2100000000.0        -0.0102816276721    -0.10006635183      0.989698695816      -0.100783683975     0.989698695816      -0.100783683975     -0.0102816276721    -0.10006635183      
2200000000.0        -0.0112678128955    -0.104721663303     0.988712449941      -0.105473281942     0.988712449941      -0.105473281942     -0.0112678128955    -0.104721663303     
2300000000.0        -0.0122973922897    -0.109362089733     0.987682809049      -0.110148009351     0.987682809049      -0.110148009351     -0.0122973922897    -0.109362089733     
2400000000.0        -0.0133700721954    -0.113987030035     0.986610066757      -0.114807265381     0.986610066757      -0.114807265381     -0.0133700721954    -0.113987030035     
2500000000.0        -0.0144855482233    -0.118595890741     0.985494527415      -0.119450456812     0.985494527415      -0.119450456812     -0.0144855482233    -0.118595890741     
2600000000.0        -0.0156435054764    -0.123188086203     0.984336505887      -0.124076998232     0.984336505887      -0.124076998232     -0.0156435054764    -0.123188086203     
2700000000.0        -0.0168436187776    -0.127763038799     0.983136327318      -0.128686312244     0.983136327318      -0.128686312244     -0.0168436187776    -0.127763038799     
2800000000.0        -0.0180855529018    -0.132320179135     0.981894326907      -0.133277829664     0.981894326907      -0.133277829664     -0.0180855529018    -0.132320179135     
2900000000.0        -0.0193689628119    -0.136858946226     0.980610849666      -0.137850989711     0.980610849666      -0.137850989711     -0.0193689628119    -0.136858946226     
3000000000.0        -0.0206934938998    -0.14137878769      0.97928625018       -0.142405240193     0.97928625018       -0.142405240193     -0.0206934938998    -0.14137878769      
3100000000.0        -0.0220587822308    -0.145879159921     0.977920892363      -0.146940037682     0.977920892363      -0.146940037682     -0.0220587822308    -0.145879159921     
3200000000.0        -0.0234644547921    -0.150359528259     0.97651514921       -0.151454847691     0.97651514921       -0.151454847691     -0.0234644547921    -0.150359528259     
3300000000.0        -0.0249101297443    -0.154819367159     0.975069402542      -0.155949144833     0.975069402542      -0.155949144833     -0.0249101297443    -0.154819367159     
3400000000.0        -0.0263954166765    -0.159258160338     0.973584042756      -0.160422412979     0.973584042756      -0.160422412979     -0.0263954166765    -0.159258160338     
3500000000.0        -0.0279199168636    -0.16367540093      0.972059468561      -0.164874145404     0.972059468561      -0.164874145404     -0.0279199168636    -0.16367540093      
3600000000.0        -0.0294832235272    -0.168070591627     0.970496086722      -0.169303844935     0.970496086722      -0.169303844935     -0.0294832235272    -0.168070591627     
3700000000.0        -0.0310849220983    -0.172443244807     0.968894311797      -0.173711024076     0.968894311797      -0.173711024076     -0.0310849220983    -0.172443244807     
3800000000.0        -0.0327245904819    -0.176792882668     0.967254565868      -0.178095205141     0.967254565868      -0.178095205141     -0.0327245904819    -0.176792882668     
3900000000.0        -0.034401799324     -0.181119037337     0.96557727828       -0.18245592037      0.96557727828       -0.18245592037      -0.034401799324     -0.181119037337     
4000000000.0        -0.0361161122798    -0.185421250986     0.963862885367      -0.186792712037     0.963862885367      -0.186792712037     -0.0361161122798    -0.185421250986     
4100000000.0        -0.0378670862831    -0.189699075934     0.962111830185      -0.191105132555     0.962111830185      -0.191105132555     -0.0378670862831    -0.189699075934     
4200000000.0        -0.0396542718175    -0.193952074738     0.960324562243      -0.19539274457      0.960324562243      -0.19539274457      -0.0396542718175    -0.193952074738     
4300000000.0        -0.0414772131875    -0.198179820282     0.958501537229      -0.199655121051     0.958501537229      -0.199655121051     -0.0414772131875    -0.198179820282     
4400000000.0        -0.0433354487902    -0.202381895859     0.956643216736      -0.203891845363     0.956643216736      -0.203891845363     -0.0433354487902    -0.202381895859     
4500000000.0        -0.0452285113883    -0.206557895235     0.954750067997      -0.208102511343     0.954750067997      -0.208102511343     -0.0452285113883    -0.206557895235     
4600000000.0        -0.0471559283819    -0.21070742272      0.952822563602      -0.212286723362     0.952822563602      -0.212286723362     -0.0471559283819    -0.21070742272      
4700000000.0        -0.0491172220809    -0.214830093217     0.950861181238      -0.216444096384     0.950861181238      -0.216444096384     -0.0491172220809    -0.214830093217     
4800000000.0        -0.0511119099762    -0.218925532277     0.948866403405      -0.220574256009     0.948866403405      -0.220574256009     -0.0511119099762    -0.218925532277     
4900000000.0        -0.0531395050114    -0.222993376134     0.946838717156      -0.224676838517     0.946838717156      -0.224676838517     -0.0531395050114    -0.222993376134     
5000000000.0        -0.0551995158523    -0.22703327174      0.944778613819      -0.228751490903     0.944778613819      -0.228751490903     -0.0551995158523    -0.22703327174      
5100000000.0        -0.057291447156     -0.231044876793     0.942686588731      -0.2327978709       0.942686588731      -0.2327978709       -0.057291447156     -0.231044876793     
5200000000.0        -0.0594147998384    -0.235027859753     0.940563140973      -0.236815646998     0.940563140973      -0.236815646998     -0.0594147998384    -0.235027859753     
5300000000.0        -0.0615690713402    -0.238981899854     0.938408773098      -0.240804498457     0.938408773098      -0.240804498457     -0.0615690713402    -0.238981899854     
5400000000.0        -0.0637537558914    -0.242906687109     0.936223990873      -0.244764115313     0.936223990873      -0.244764115313     -0.0637537558914    -0.242906687109     
5500000000.0        -0.0659683447728    -0.246801922304     0.934009303011      -0.248694198368     0.934009303011      -0.248694198368     -0.0659683447728    -0.246801922304     
5600000000.0        -0.0682123265767    -0.250667316995     0.931765220918      -0.252594459191     0.931765220918      -0.252594459191     -0.0682123265767    -0.250667316995     
5700000000.0        -0.0704851874639    -0.254502593485     0.929492258428      -0.256464620093     0.929492258428      -0.256464620093     -0.0704851874639    -0.254502593485     
5800000000.0        -0.0727864114196    -0.258307484805     0.927190931552      -0.260304414111     0.927190931552      -0.260304414111     -0.0727864114196    -0.258307484805     
5900000000.0        -0.0751154805047    -0.262081734683     0.924861758226      -0.264113584973     0.924861758226      -0.264113584973     -0.0751154805047    -0.262081734683     
6000000000.0        -0.077471875106     -0.26582509751      0.92250525806       -0.267891887067     0.92250525806       -0.267891887067     -0.077471875106     -0.26582509751      
6100000000.0        -0.0798550741822    -0.269537338298     0.920121952091      -0.271639085397     0.920121952091      -0.271639085397     -0.0798550741822    -0.269537338298     
6200000000.0        -0.0822645555072    -0.273218232629     0.917712362544      -0.275354955537     0.917712362544      -0.275354955537     -0.0822645555072    -0.273218232629     
6300000000.0        -0.0846997959093    -0.276867566606     0.915277012585      -0.279039283576     0.915277012585      -0.279039283576     -0.0846997959093    -0.276867566606     
6400000000.0        -0.0871602715083    -0.280485136792     0.912816426093      -0.282691866059     0.912816426093      -0.282691866059     -0.0871602715083    -0.280485136792     
6500000000.0        -0.0896454579471    -0.284070750144     0.910331127423      -0.286312509925     0.910331127423      -0.286312509925     -0.0896454579471    -0.284070750144     
6600000000.0        -0.0921548306211    -0.287624223945     0.907821641175      -0.289901032432     0.907821641175      -0.289901032432     -0.0921548306211    -0.287624223945     
6700000000.0        -0.0946878649029    -0.291145385725     0.905288491974      -0.293457261086     0.905288491974      -0.293457261086     -0.0946878649029    -0.291145385725     
6800000000.0        -0.0972440363629    -0.294634073186     0.902732204249      -0.29698103356      0.902732204249      -0.29698103356      -0.0972440363629    -0.294634073186     
6900000000.0        -0.0998228209864    -0.298090134112     0.90015330201       -0.300472197607     0.90015330201       -0.300472197607     -0.0998228209864    -0.298090134112     
7000000000.0        -0.102423695386     -0.301513426282     0.897552308644      -0.303930610971     0.897552308644      -0.303930610971     -0.102423695386     -0.301513426282     
7100000000.0        -0.105046137009     -0.304903817375     0.894929746699      -0.307356141295     0.894929746699      -0.307356141295     -0.105046137009     -0.304903817375     
7200000000.0        -0.107689624342     -0.308261184869     0.892286137688      -0.31074866602      0.892286137688      -0.31074866602      -0.107689624342     -0.308261184869     
7300000000.0        -0.110353637111     -0.311585415943     0.889622001882      -0.314108072282     0.889622001882      -0.314108072282     -0.110353637111     -0.311585415943     
7400000000.0        -0.113037656475     -0.314876407364     0.886937858121      -0.317434256806     0.886937858121      -0.317434256806     -0.113037656475     -0.314876407364     
7500000000.0        -0.115741165215     -0.318134065383     0.88423422362       -0.320727125796     0.88423422362       -0.320727125796     -0.115741165215     -0.318134065383     
7600000000.0        -0.118463647922     -0.321358305616     0.881511613788      -0.323986594822     0.881511613788      -0.323986594822     -0.118463647922     -0.321358305616     
7700000000.0        -0.121204591177     -0.324549052926     0.878770542042      -0.327212588698     0.878770542042      -0.327212588698     -0.121204591177     -0.324549052926     
7800000000.0        -0.123963483725     -0.327706241307     0.876011519634      -0.330405041366     0.876011519634      -0.330405041366     -0.123963483725     -0.327706241307     
7900000000.0        -0.126739816648     -0.330829813756     0.873235055479      -0.33356389577      0.873235055479      -0.33356389577      -0.126739816648     -0.330829813756     
8000000000.0        -0.129533083534     -0.333919722146     0.870441655991      -0.336689103728     0.870441655991      -0.336689103728     -0.129533083534     -0.333919722146     
8100000000.0        -0.132342780631     -0.336975927098     0.867631824917      -0.339780625806     0.867631824917      -0.339780625806     -0.132342780631     -0.336975927098     
8200000000.0        -0.135168407012     -0.339998397848     0.864806063183      -0.34283843118      0.864806063183      -0.34283843118      -0.135168407012     -0.339998397848     
8300000000.0        -0.138009464721     -0.342987112112     0.861964868744      -0.345862497509     0.861964868744      -0.345862497509     -0.138009464721     -0.342987112112     
8400000000.0        -0.140865458922     -0.345942055951     0.859108736433      -0.348852810791     0.859108736433      -0.348852810791     -0.140865458922     -0.345942055951     
8500000000.0        -0.143735898043     -0.34886322363      0.856238157822      -0.35180936523      0.856238157822      -0.35180936523      -0.143735898043     -0.34886322363      
8600000000.0        -0.146620293908     -0.351750617477     0.853353621085      -0.354732163089     0.853353621085      -0.354732163089     -0.146620293908     -0.351750617477     
8700000000.0        -0.149518161873     -0.354604247743     0.850455610864      -0.357621214555     0.850455610864      -0.357621214555     -0.149518161873     -0.354604247743     
8800000000.0        -0.152429020953     -0.357424132453     0.847544608144      -0.360476537589     0.847544608144      -0.360476537589     -0.152429020953     -0.357424132453     
8900000000.0        -0.155352393942     -0.360210297268     0.844621090127      -0.363298157781     0.844621090127      -0.363298157781     -0.155352393942     -0.360210297268     
9000000000.0        -0.158287807535     -0.362962775329     0.841685530118      -0.366086108207     0.841685530118      -0.366086108207     -0.158287807535     -0.362962775329     
9100000000.0        -0.161234792436     -0.365681607117     0.838738397413      -0.368840429277     0.838738397413      -0.368840429277     -0.161234792436     -0.365681607117     
9200000000.0        -0.164192883468     -0.3683668403       0.835780157185      -0.37156116859      0.835780157185      -0.37156116859      -0.164192883468     -0.3683668403       
9300000000.0        -0.167161619678     -0.371018529582     0.832811270386      -0.374248380778     0.832811270386      -0.374248380778     -0.167161619678     -0.371018529582     
9400000000.0        -0.170140544434     -0.373636736556     0.829832193649      -0.376902127363     0.829832193649      -0.376902127363     -0.170140544434     -0.373636736556     
9500000000.0        -0.173129205517     -0.376221529551     0.82684337919       -0.379522476601     0.82684337919       -0.379522476601     -0.173129205517     -0.376221529551     
9600000000.0        -0.176127155214     -0.37877298348      0.823845274721      -0.382109503332     0.823845274721      -0.382109503332     -0.176127155214     -0.37877298348      
9700000000.0        -0.179133950401     -0.38129117969      0.820838323365      -0.384663288827     0.820838323365      -0.384663288827     -0.179133950401     -0.38129117969      
9800000000.0        -0.182149152622     -0.383776205808     0.817822963576      -0.38718392064      0.817822963576      -0.38718392064      -0.182149152622     -0.383776205808     
9900000000.0        -0.185172328168     -0.386228155589     0.814799629063      -0.389671492451     0.814799629063      -0.389671492451     -0.185172328168     -0.386228155589     
10000000000.0       -0.188203048145     -0.388647128768     0.811768748718      -0.392126103917     0.811768748718      -0.392126103917     -0.188203048145     -0.388647128768     
