# Hz S RI R 50.00 
100000000.0         0.00596566628253    0.00109000421204    0.994032030314      -0.00201632069195   0.994032030314      -0.00201632069195   0.00596566628253    0.00109000421204    
200000000.0         0.00601123888392    0.00217974518187    0.993984294481      -0.00403238516181   0.993984294481      -0.00403238516181   0.00601123888392    0.00217974518187    
300000000.0         0.00605070242079    0.00326930261668    0.993941807819      -0.00604827763306   0.993941807819      -0.00604827763306   0.00605070242079    0.00326930261668    
400000000.0         0.00608921821522    0.00435869137935    0.993899408933      -0.00806401648964   0.993899408933      -0.00806401648964   0.00608921821522    0.00435869137935    
500000000.0         0.00612877563397    0.00544791123635    0.993855108376      -0.0100796045183    0.993855108376      -0.0100796045183    0.00612877563397    0.00544791123635    
600000000.0         0.00617038987263    0.00653695526869    0.99380789086       -0.0120950374933    0.99380789086       -0.0120950374933    0.00617038987263    0.00653695526869    
700000000.0         0.00621466086163    0.00762581289461    0.993757156354      -0.0141103072873    0.993757156354      -0.0141103072873    0.00621466086163    0.00762581289461    
800000000.0         0.00626197731599    0.00871447127248    0.993702516033      -0.0161254033276    0.993702516033      -0.0161254033276    0.00626197731599    0.00871447127248    
900000000.0         0.00631260761668    0.00980291605437    0.993643701398      -0.0181403133842    0.993643701398      -0.0181403133842    0.00631260761668    0.00980291605437    
1000000000.0        0.00636674589003    0.0108911318325     0.993580518196      -0.0201550240411    0.993580518196      -0.0201550240411    0.00636674589003    0.0108911318325     
1100000000.0        0.00642453762988    0.011979102423      0.993512820799      -0.0221695209976    0.993512820799      -0.0221695209976    0.00642453762988    0.011979102423      
1200000000.0        0.00648609496943    0.0130668110554     0.993440496932      -0.0241837892727    0.993440496932      -0.0241837892727    0.00648609496943    0.0130668110554     
1300000000.0        0.00655150629199    0.0141542405063     0.993363458062      -0.0261978133481    0.993363458062      -0.0261978133481    0.00655150629199    0.0141542405063     
1400000000.0        0.00662084254977    0.0152413731942     0.993281633078      -0.0282115772733    0.993281633078      -0.0282115772733    0.00662084254977    0.0152413731942     
1500000000.0        0.00669416157075    0.0163281912516     0.99319496399       -0.0302250647439    0.99319496399       -0.0302250647439    0.00669416157075    0.0163281912516     
1600000000.0        0.00677151108428    0.0174146765791     0.993103402897      -0.0322382591618    0.993103402897      -0.0322382591618    0.00677151108428    0.0174146765791     
1700000000.0        0.00685293090202    0.0185008108871     0.993006909808      -0.0342511436823    0.993006909808      -0.0342511436823    0.00685293090202    0.0185008108871     
1800000000.0        0.00693845452523    0.0195865757298     0.99290545104       -0.0362637012521    0.99290545104       -0.0362637012521    0.00693845452523    0.0195865757298     
1900000000.0        0.00702811035245    0.0206719525314     0.992798998002      -0.0382759146395    0.992798998002      -0.0382759146395    0.00702811035245    0.0206719525314     
2000000000.0        0.00712192260249    0.0217569226079     0.992687526278      -0.0402877664591    0.992687526278      -0.0402877664591    0.00712192260249    0.0217569226079     
2100000000.0        0.00721991203041    0.0228414671854     0.992571014911      -0.0422992391934    0.992571014911      -0.0422992391934    0.00721991203041    0.0228414671854     
2200000000.0        0.00732209649061    0.0239255674146     0.992449445837      -0.0443103152094    0.992449445837      -0.0443103152094    0.00732209649061    0.0239255674146     
2300000000.0        0.00742849138495    0.0250092043837     0.992322803438      -0.0463209767741    0.992322803438      -0.0463209767741    0.00742849138495    0.0250092043837     
2400000000.0        0.00753911002325    0.0260923591288     0.992191074184      -0.0483312060667    0.992191074184      -0.0483312060667    0.00753911002325    0.0260923591288     
2500000000.0        0.00765396391635    0.0271750126432     0.992054246338      -0.0503409851899    0.992054246338      -0.0503409851899    0.00765396391635    0.0271750126432     
2600000000.0        0.00777306301629    0.0282571458854     0.991912309716      -0.0523502961793    0.991912309716      -0.0523502961793    0.00777306301629    0.0282571458854     
2700000000.0        0.00789641591495    0.0293387397856     0.991765255488      -0.0543591210118    0.991765255488      -0.0543591210118    0.00789641591495    0.0293387397856     
2800000000.0        0.00802403000958    0.0304197752522     0.991613076014      -0.0563674416129    0.991613076014      -0.0563674416129    0.00802403000958    0.0304197752522     
2900000000.0        0.00815591164157    0.0315002331766     0.991455764704      -0.0583752398636    0.991455764704      -0.0583752398636    0.00815591164157    0.0315002331766     
3000000000.0        0.00829206621373    0.0325800944383     0.991293315903      -0.0603824976057    0.991293315903      -0.0603824976057    0.00829206621373    0.0325800944383     
3100000000.0        0.00843249828987    0.033659339909      0.991125724789      -0.0623891966476    0.991125724789      -0.0623891966476    0.00843249828987    0.033659339909      
3200000000.0        0.00857721167994    0.0347379504562     0.990952987287      -0.0643953187688    0.990952987287      -0.0643953187688    0.00857721167994    0.0347379504562     
3300000000.0        0.00872620951306    0.0358159069468     0.990775100001      -0.0664008457241    0.990775100001      -0.0664008457241    0.00872620951306    0.0358159069468     
3400000000.0        0.00887949430068    0.0368931902499     0.990592060145      -0.0684057592478    0.990592060145      -0.0684057592478    0.00887949430068    0.0368931902499     
3500000000.0        0.0090370679912     0.0379697812401     0.990403865494      -0.0704100410571    0.990403865494      -0.0704100410571    0.0090370679912     0.0379697812401     
3600000000.0        0.00919893201771    0.0390456607994     0.990210514332      -0.0724136728557    0.990210514332      -0.0724136728557    0.00919893201771    0.0390456607994     
3700000000.0        0.00936508733958    0.0401208098201     0.990012005412      -0.0744166363364    0.990012005412      -0.0744166363364    0.00936508733958    0.0401208098201     
3800000000.0        0.00953553447906    0.0411952092068     0.98980833792       -0.0764189131842    0.98980833792       -0.0764189131842    0.00953553447906    0.0411952092068     
3900000000.0        0.00971027355356    0.0422688398783     0.989599511443      -0.078420485079     0.989599511443      -0.078420485079     0.00971027355356    0.0422688398783     
4000000000.0        0.00988930430407    0.0433416827694     0.989385525938      -0.0804213336978    0.989385525938      -0.0804213336978    0.00988930430407    0.0433416827694     
4100000000.0        0.0100726261205     0.0444137188331     0.989166381711      -0.0824214407172    0.989166381711      -0.0824214407172    0.0100726261205     0.0444137188331     
4200000000.0        0.0102602380643     0.0454849290417     0.98894207939       -0.0844207878154    0.98894207939       -0.0844207878154    0.0102602380643     0.0454849290417     
4300000000.0        0.0104521388883     0.0465552943886     0.988712619909      -0.0864193566746    0.988712619909      -0.0864193566746    0.0104521388883     0.0465552943886     
4400000000.0        0.0106483270549     0.0476247958896     0.988478004488      -0.0884171289823    0.988478004488      -0.0884171289823    0.0106483270549     0.0476247958896     
4500000000.0        0.0108488007522     0.0486934145846     0.988238234617      -0.0904140864336    0.988238234617      -0.0904140864336    0.0108488007522     0.0486934145846     
4600000000.0        0.0110535579084     0.0497611315384     0.987993312041      -0.0924102107326    0.987993312041      -0.0924102107326    0.0110535579084     0.0497611315384     
4700000000.0        0.0112625962053     0.0508279278423     0.987743238748      -0.0944054835943    0.987743238748      -0.0944054835943    0.0112625962053     0.0508279278423     
4800000000.0        0.0114759130896     0.051893784615      0.987488016958      -0.096399886746     0.987488016958      -0.096399886746     0.0114759130896     0.051893784615      
4900000000.0        0.0116935057844     0.0529586830042     0.987227649109      -0.0983934019289    0.987227649109      -0.0983934019289    0.0116935057844     0.0529586830042     
5000000000.0        0.0119153712983     0.054022604187      0.98696213785       -0.100386010899     0.98696213785       -0.100386010899     0.0119153712983     0.054022604187      
5100000000.0        0.0121415064348     0.0550855293714     0.986691486033      -0.10237769543      0.986691486033      -0.10237769543      0.0121415064348     0.0550855293714     
5200000000.0        0.0123719078002     0.056147439797      0.986415696701      -0.104368437312     0.986415696701      -0.104368437312     0.0123719078002     0.056147439797      
5300000000.0        0.0126065718113     0.0572083167363     0.986134773084      -0.106358218354     0.986134773084      -0.106358218354     0.0126065718113     0.0572083167363     
5400000000.0        0.012845494702      0.0582681414952     0.985848718591      -0.108347020389     0.985848718591      -0.108347020389     0.012845494702      0.0582681414952     
5500000000.0        0.0130886725297     0.0593268954143     0.985557536803      -0.110334825266     0.985557536803      -0.110334825266     0.0130886725297     0.0593268954143     
5600000000.0        0.0133361011812     0.0603845598694     0.98526123147       -0.112321614861     0.98526123147       -0.112321614861     0.0133361011812     0.0603845598694     
5700000000.0        0.0135877763778     0.0614411162725     0.984959806502      -0.114307371072     0.984959806502      -0.114307371072     0.0135877763778     0.0614411162725     
5800000000.0        0.0138436936807     0.0624965460725     0.984653265967      -0.116292075823     0.984653265967      -0.116292075823     0.0138436936807     0.0624965460725     
5900000000.0        0.014103848495      0.0635508307563     0.984341614084      -0.118275711061     0.984341614084      -0.118275711061     0.014103848495      0.0635508307563     
6000000000.0        0.0143682360741     0.0646039518491     0.984024855221      -0.120258258762     0.984024855221      -0.120258258762     0.0143682360741     0.0646039518491     
6100000000.0        0.0146368515243     0.0656558909155     0.983702993891      -0.12223970093      0.983702993891      -0.12223970093      0.0146368515243     0.0656558909155     
6200000000.0        0.0149096898074     0.0667066295599     0.983376034744      -0.124220019598     0.983376034744      -0.124220019598     0.0149096898074     0.0667066295599     
6300000000.0        0.015186745745      0.0677561494278     0.983043982573      -0.126199196826     0.983043982573      -0.126199196826     0.015186745745      0.0677561494278     
6400000000.0        0.0154680140213     0.0688044322057     0.982706842299      -0.128177214708     0.982706842299      -0.128177214708     0.0154680140213     0.0688044322057     
6500000000.0        0.0157534891863     0.0698514596223     0.982364618978      -0.130154055367     0.982364618978      -0.130154055367     0.0157534891863     0.0698514596223     
6600000000.0        0.0160431656584     0.0708972134491     0.982017317793      -0.132129700959     0.982017317793      -0.132129700959     0.0160431656584     0.0708972134491     
6700000000.0        0.0163370377272     0.071941675501      0.981664944052      -0.134104133673     0.981664944052      -0.134104133673     0.0163370377272     0.071941675501      
6800000000.0        0.016635099556      0.0729848276368     0.981307503186      -0.136077335732     0.981307503186      -0.136077335732     0.016635099556      0.0729848276368     
6900000000.0        0.0169373451842     0.0740266517601     0.980945000749      -0.138049289395     0.980945000749      -0.138049289395     0.0169373451842     0.0740266517601     
7000000000.0        0.0172437685292     0.0750671298196     0.980577442411      -0.140019976954     0.980577442411      -0.140019976954     0.0172437685292     0.0750671298196     
7100000000.0        0.0175543633888     0.0761062438101     0.98020483396       -0.141989380739     0.98020483396       -0.141989380739     0.0175543633888     0.0761062438101     
7200000000.0        0.0178691234434     0.0771439757726     0.979827181298      -0.143957483116     0.979827181298      -0.143957483116     0.0178691234434     0.0771439757726     
7300000000.0        0.0181880422572     0.0781803077954     0.97944449044       -0.14592426649      0.97944449044       -0.14592426649      0.0181880422572     0.0781803077954     
7400000000.0        0.0185111132805     0.0792152220142     0.979056767513      -0.147889713304     0.979056767513      -0.147889713304     0.0185111132805     0.0792152220142     
7500000000.0        0.0188383298515     0.0802487006131     0.97866401875       -0.149853806038     0.97866401875       -0.149853806038     0.0188383298515     0.0802487006131     
7600000000.0        0.0191696851975     0.0812807258248     0.978266250496      -0.151816527216     0.978266250496      -0.151816527216     0.0191696851975     0.0812807258248     
7700000000.0        0.0195051724367     0.0823112799313     0.9778634692        -0.153777859399     0.9778634692        -0.153777859399     0.0195051724367     0.0823112799313     
7800000000.0        0.0198447845798     0.0833403452646     0.977455681416      -0.155737785191     0.977455681416      -0.155737785191     0.0198447845798     0.0833403452646     
7900000000.0        0.0201885145311     0.0843679042068     0.9770428938        -0.157696287237     0.9770428938        -0.157696287237     0.0201885145311     0.0843679042068     
8000000000.0        0.0205363550901     0.0853939391912     0.976625113112      -0.159653348225     0.976625113112      -0.159653348225     0.0205363550901     0.0853939391912     
8100000000.0        0.0208882989527     0.0864184327023     0.976202346213      -0.161608950887     0.976202346213      -0.161608950887     0.0208882989527     0.0864184327023     
8200000000.0        0.0212443387127     0.0874413672767     0.975774600061      -0.163563077997     0.975774600061      -0.163563077997     0.0212443387127     0.0874413672767     
8300000000.0        0.0216044668626     0.0884627255034     0.975341881715      -0.165515712375     0.975341881715      -0.165515712375     0.0216044668626     0.0884627255034     
8400000000.0        0.0219686757951     0.0894824900241     0.974904198328      -0.167466836884     0.974904198328      -0.167466836884     0.0219686757951     0.0894824900241     
8500000000.0        0.0223369578039     0.0905006435344     0.974461557154      -0.169416434436     0.974461557154      -0.169416434436     0.0223369578039     0.0905006435344     
8600000000.0        0.0227093050854     0.0915171687834     0.974013965536      -0.171364487987     0.974013965536      -0.171364487987     0.0227093050854     0.0915171687834     
8700000000.0        0.0230857097391     0.0925320485748     0.973561430915      -0.173310980539     0.973561430915      -0.173310980539     0.0230857097391     0.0925320485748     
8800000000.0        0.0234661637688     0.0935452657672     0.973103960824      -0.175255895143     0.973103960824      -0.175255895143     0.0234661637688     0.0935452657672     
8900000000.0        0.0238506590839     0.0945568032745     0.972641562888      -0.177199214897     0.972641562888      -0.177199214897     0.0238506590839     0.0945568032745     
9000000000.0        0.0242391875        0.0955666440663     0.972174244823      -0.179140922949     0.972174244823      -0.179140922949     0.0242391875        0.0955666440663     
9100000000.0        0.0246317407401     0.0965747711688     0.971702014433      -0.181081002494     0.971702014433      -0.181081002494     0.0246317407401     0.0965747711688     
9200000000.0        0.0250283104353     0.0975811676645     0.971224879615      -0.183019436779     0.971224879615      -0.183019436779     0.0250283104353     0.0975811676645     
9300000000.0        0.0254288881259     0.0985858166935     0.970742848353      -0.184956209099     0.970742848353      -0.184956209099     0.0254288881259     0.0985858166935     
9400000000.0        0.025833465262      0.0995887014533     0.970255928715      -0.186891302801     0.970255928715      -0.186891302801     0.025833465262      0.0995887014533     
9500000000.0        0.0262420332047     0.100589805199      0.969764128862      -0.188824701282     0.969764128862      -0.188824701282     0.0262420332047     0.100589805199      
9600000000.0        0.0266545832267     0.101589111246      0.969267457035      -0.190756387991     0.969267457035      -0.190756387991     0.0266545832267     0.101589111246      
9700000000.0        0.0270711065132     0.102586602966      0.968765921564      -0.192686346432     0.968765921564      -0.192686346432     0.0270711065131     0.102586602966      
9800000000.0        0.0274915941624     0.103582263791      0.96825953086       -0.194614560157     0.96825953086       -0.194614560157     0.0274915941624     0.103582263791      
9900000000.0        0.027916037187      0.104576077215      0.96774829342       -0.196541012775     0.96774829342       -0.196541012775     0.027916037187      0.104576077215      
10000000000.0       0.0283444265142     0.105568026788      0.967232217824      -0.198465687947     0.967232217824      -0.198465687947     0.0283444265142     0.105568026788      
