# Hz S RI R 50.00 
100000000.0         0.000226092711539   -0.00194719980197   0.999754513386      -0.00322516294549   0.999754513386      -0.00322516294549   0.000226092711539   -0.00194719980197   
200000000.0         0.000206331017466   -0.00389442788425   0.999729122834      -0.00645039572336   0.999729122834      -0.00645039572336   0.000206331017466   -0.00389442788425   
300000000.0         0.000173594660032   -0.00584166033084   0.999689943684      -0.00967570373999   0.999689943684      -0.00967570373999   0.000173594660032   -0.00584166033084   
400000000.0         0.000128084324468   -0.00778885615071   0.99963676949       -0.0129010676473    0.99963676949       -0.0129010676473    0.000128084324468   -0.00778885615071   
500000000.0         6.98753368709e-05   -0.00973596516845   0.999569518846      -0.0161264556574    0.999569518846      -0.0161264556574    6.98753368711e-05   -0.00973596516845   
600000000.0         -9.95307805174e-07  -0.011682930974     0.999488148689      -0.0193518277485    0.999488148689      -0.0193518277485    -9.95307805618e-07  -0.011682930974     
700000000.0         -8.45067766014e-05  -0.0136296924647    0.99939263236       -0.0225771378048    0.99939263236       -0.0225771378048    -8.45067766013e-05  -0.0136296924647    
800000000.0         -0.000180646270002  -0.0155761847869    0.999282951663      -0.025802334902     0.999282951663      -0.025802334902     -0.000180646270002  -0.0155761847869    
900000000.0         -0.000289405373818  -0.0175223399678    0.999159093361      -0.0290273641589    0.999159093361      -0.0290273641589    -0.000289405373818  -0.0175223399678    
1000000000.0        -0.000410778187648  -0.0194680873689    0.999021047431      -0.0322521673427    0.999021047431      -0.0322521673427    -0.000410778187648  -0.0194680873689    
1100000000.0        -0.00054476026674   -0.0214133540272    0.99886880612       -0.0354766833194    0.99886880612       -0.0354766833194    -0.00054476026674   -0.0214133540272    
1200000000.0        -0.000691347977161  -0.023358064921     0.998702363388      -0.0387008484032    0.998702363388      -0.0387008484032    -0.000691347977161  -0.023358064921     
1300000000.0        -0.000850538078314  -0.0253021431849    0.99852171458       -0.0419245966348    0.99852171458       -0.0419245966348    -0.000850538078313  -0.0253021431849    
1400000000.0        -0.00102232743873   -0.0272455102863    0.99832685622       -0.0451478600102    0.99832685622       -0.0451478600102    -0.00102232743873   -0.0272455102863    
1500000000.0        -0.00120671283412   -0.0291880861747    0.998117785872      -0.0483705686702    0.998117785872      -0.0483705686702    -0.00120671283412   -0.0291880861747    
1600000000.0        -0.00140369079856   -0.0311297894094    0.997894502062      -0.0515926510633    0.997894502062      -0.0515926510633    -0.00140369079856   -0.0311297894094    
1700000000.0        -0.00161325751116   -0.0330705372703    0.99765700422       -0.0548140340849    0.99765700422       -0.0548140340849    -0.00161325751116   -0.0330705372703    
1800000000.0        -0.00183540870743   -0.0350102458563    0.99740529264       -0.0580346432003    0.99740529264       -0.0580346432003    -0.00183540870743   -0.0350102458563    
1900000000.0        -0.00207013960814   -0.0369488301728    0.997139368469      -0.0612544025526    0.997139368469      -0.0612544025526    -0.00207013960814   -0.0369488301728    
2000000000.0        -0.00231744486109   -0.0388862042102    0.996859233684      -0.0644732350599    0.996859233684      -0.0644732350599    -0.00231744486109   -0.0388862042102    
2100000000.0        -0.0025773184925    -0.0408222810157    0.996564891094      -0.0676910625024    0.996564891094      -0.0676910625024    -0.0025773184925    -0.0408222810157    
2200000000.0        -0.0028497538658    -0.042756972759     0.996256344334      -0.0709078056024    0.996256344334      -0.0709078056024    -0.0028497538658    -0.042756972759     
2300000000.0        -0.00313474364624   -0.044690190793     0.995933597869      -0.0741233840967    0.995933597869      -0.0741233840967    -0.00313474364624   -0.044690190793     
2400000000.0        -0.00343227977006   -0.0466218457101    0.995596656995      -0.0773377168046    0.995596656995      -0.0773377168046    -0.00343227977006   -0.0466218457101    
2500000000.0        -0.00374235341753   -0.0485518473948    0.995245527848      -0.0805507216893    0.995245527848      -0.0805507216893    -0.00374235341753   -0.0485518473948    
2600000000.0        -0.00406495498899   -0.050480105073     0.994880217407      -0.0837623159174    0.994880217407      -0.0837623159174    -0.00406495498899   -0.050480105073     
2700000000.0        -0.00440007408356   -0.0524065273589    0.994500733502      -0.0869724159125    0.994500733502      -0.0869724159125    -0.00440007408356   -0.0524065273589    
2800000000.0        -0.00474769948007   -0.0543310222992    0.99410708482       -0.0901809374071    0.99410708482       -0.0901809374071    -0.00474769948007   -0.0543310222992    
2900000000.0        -0.00510781911986   -0.056253497415     0.993699280913      -0.0933877954912    0.993699280913      -0.0933877954912    -0.00510781911986   -0.056253497415     
3000000000.0        -0.0054804200913    -0.0581738597417    0.993277332204      -0.0965929046583    0.993277332204      -0.0965929046583    -0.0054804200913    -0.0581738597417    
3100000000.0        -0.0058654886158    -0.0600920158678    0.992841249998      -0.0997961788494    0.992841249998      -0.0997961788494    -0.0058654886158    -0.0600920158678    
3200000000.0        -0.0062630100351    -0.0620078719716    0.99239104648       -0.102997531495     0.99239104648       -0.102997531495     -0.0062630100351    -0.0620078719716    
3300000000.0        -0.00667296879975   -0.0639213338564    0.991926734729      -0.106196875555     0.991926734729      -0.106196875555     -0.00667296879975   -0.0639213338564    
3400000000.0        -0.00709534845874   -0.0658323069848    0.991448328724      -0.109394123557     0.991448328724      -0.109394123557     -0.00709534845874   -0.0658323069848    
3500000000.0        -0.00753013165004   -0.0677406965118    0.990955843342      -0.112589187635     0.990955843342      -0.112589187635     -0.00753013165004   -0.0677406965118    
3600000000.0        -0.0079773000921    -0.0696464073166    0.990449294373      -0.115781979563     0.990449294373      -0.115781979563     -0.0079773000921    -0.0696464073166    
3700000000.0        -0.00843683457621   -0.0715493440336    0.989928698518      -0.118972410788     0.989928698518      -0.118972410788     -0.00843683457621   -0.0715493440336    
3800000000.0        -0.00890871495961   -0.0734494110825    0.989394073395      -0.12216039247      0.989394073395      -0.12216039247      -0.00890871495961   -0.0734494110825    
3900000000.0        -0.00939292015939   -0.0753465126973    0.988845437546      -0.125345835506     0.988845437546      -0.125345835506     -0.00939292015939   -0.0753465126973    
4000000000.0        -0.00988942814708   -0.0772405529552    0.988282810436      -0.128528650567     0.988282810436      -0.128528650567     -0.00988942814708   -0.0772405529552    
4100000000.0        -0.0103982159438    -0.0791314358038    0.987706212461      -0.131708748126     0.987706212461      -0.131708748126     -0.0103982159438    -0.0791314358038    
4200000000.0        -0.0109192596165    -0.0810190650886    0.987115664943      -0.134886038487     0.987115664943      -0.134886038487     -0.0109192596165    -0.0810190650886    
4300000000.0        -0.0114525342737    -0.0829033445787    0.986511190143      -0.138060431818     0.986511190143      -0.138060431818     -0.0114525342737    -0.0829033445787    
4400000000.0        -0.0119980140634    -0.0847841779935    0.985892811254      -0.141231838172     0.985892811254      -0.141231838172     -0.0119980140634    -0.0847841779935    
4500000000.0        -0.0125556721702    -0.0866614690271    0.985260552404      -0.144400167521     0.985260552404      -0.144400167521     -0.0125556721702    -0.0866614690271    
4600000000.0        -0.0131254808134    -0.0885351213734    0.984614438663      -0.147565329777     0.984614438663      -0.147565329777     -0.0131254808134    -0.0885351213734    
4700000000.0        -0.0137074112459    -0.0904050387499    0.983954496034      -0.150727234824     0.983954496034      -0.150727234824     -0.0137074112459    -0.0904050387499    
4800000000.0        -0.0143014337532    -0.0922711249218    0.983280751461      -0.153885792538     0.983280751461      -0.153885792538     -0.0143014337532    -0.0922711249218    
4900000000.0        -0.0149075176528    -0.0941332837247    0.982593232826      -0.157040912815     0.982593232826      -0.157040912815     -0.0149075176528    -0.0941332837247    
5000000000.0        -0.0155256312948    -0.0959914190873    0.981891968947      -0.160192505593     0.981891968947      -0.160192505593     -0.0155256312948    -0.0959914190873    
5100000000.0        -0.0161557420617    -0.0978454350541    0.98117698958       -0.163340480879     0.98117698958       -0.163340480879     -0.0161557420617    -0.0978454350541    
5200000000.0        -0.0167978163699    -0.0996952358067    0.980448325414      -0.16648474877      0.980448325414      -0.16648474877      -0.0167978163699    -0.0996952358067    
5300000000.0        -0.0174518196708    -0.101540725686     0.979706008072      -0.169625219475     0.979706008072      -0.169625219475     -0.0174518196708    -0.101540725686     
5400000000.0        -0.0181177164524    -0.103381809211     0.978950070108      -0.17276180334      0.978950070108      -0.17276180334      -0.0181177164524    -0.103381809211     
5500000000.0        -0.0187954702417    -0.105218391103     0.978180545007      -0.175894410867     0.978180545007      -0.175894410867     -0.0187954702417    -0.105218391103     
5600000000.0        -0.0194850436071    -0.107050376302     0.977397467175      -0.179022952737     0.977397467175      -0.179022952737     -0.0194850436071    -0.107050376302     
5700000000.0        -0.0201863981613    -0.108877669991     0.976600871944      -0.182147339832     0.976600871944      -0.182147339832     -0.0201863981613    -0.108877669991     
5800000000.0        -0.0208994945643    -0.110700177611     0.975790795566      -0.185267483253     0.975790795566      -0.185267483253     -0.0208994945643    -0.110700177611     
5900000000.0        -0.0216242925275    -0.112517804881     0.974967275206      -0.188383294343     0.974967275206      -0.188383294343     -0.0216242925275    -0.112517804881     
6000000000.0        -0.0223607508171    -0.11433045782      0.97413034894       -0.191494684704     0.97413034894       -0.191494684704     -0.0223607508171    -0.11433045782      
6100000000.0        -0.0231088272584    -0.116138042763     0.973280055753      -0.194601566218     0.973280055753      -0.194601566218     -0.0231088272584    -0.116138042763     
6200000000.0        -0.0238684787409    -0.117940466379     0.972416435531      -0.197703851066     0.972416435531      -0.197703851066     -0.0238684787409    -0.117940466379     
6300000000.0        -0.0246396612224    -0.119737635689     0.971539529057      -0.200801451746     0.971539529057      -0.200801451746     -0.0246396612224    -0.119737635689     
6400000000.0        -0.0254223297347    -0.121529458083     0.970649378005      -0.203894281092     0.970649378005      -0.203894281092     -0.0254223297347    -0.121529458083     
6500000000.0        -0.0262164383891    -0.12331584134      0.969746024936      -0.206982252293     0.969746024936      -0.206982252293     -0.0262164383891    -0.12331584134      
6600000000.0        -0.0270219403817    -0.12509669364      0.968829513291      -0.210065278906     0.968829513291      -0.210065278906     -0.0270219403817    -0.12509669364      
6700000000.0        -0.027838788        -0.126871923586     0.967899887385      -0.213143274878     0.967899887385      -0.213143274878     -0.027838788        -0.126871923586     
6800000000.0        -0.0286669326288    -0.128641440214     0.9669571924        -0.216216154564     0.9669571924        -0.216216154564     -0.0286669326288    -0.128641440214     
6900000000.0        -0.029506324757     -0.130405153014     0.96600147438       -0.219283832736     0.96600147438       -0.219283832736     -0.029506324757     -0.130405153014     
7000000000.0        -0.0303569139842    -0.132162971946     0.965032780222      -0.222346224607     0.965032780222      -0.222346224607     -0.0303569139842    -0.132162971946     
7100000000.0        -0.0312186490282    -0.133914807448     0.96405115767       -0.225403245844     0.96405115767       -0.225403245844     -0.0312186490282    -0.133914807448     
7200000000.0        -0.0320914777318    -0.135660570461     0.963056655308      -0.228454812583     0.963056655308      -0.228454812583     -0.0320914777318    -0.135660570461     
7300000000.0        -0.0329753470707    -0.137400172436     0.962049322551      -0.231500841445     0.962049322551      -0.231500841445     -0.0329753470707    -0.137400172436     
7400000000.0        -0.0338702031613    -0.139133525352     0.961029209637      -0.23454124955      0.961029209637      -0.23454124955      -0.0338702031613    -0.139133525352     
7500000000.0        -0.0347759912685    -0.14086054173      0.959996367622      -0.237575954534     0.959996367622      -0.237575954534     -0.0347759912685    -0.14086054173      
7600000000.0        -0.0356926558141    -0.142581134645     0.958950848368      -0.240604874561     0.958950848368      -0.240604874561     -0.0356926558141    -0.142581134645     
7700000000.0        -0.0366201403852    -0.144295217741     0.957892704535      -0.243627928336     0.957892704535      -0.243627928336     -0.0366201403852    -0.144295217741     
7800000000.0        -0.0375583877426    -0.146002705245     0.956821989577      -0.246645035123     0.956821989577      -0.246645035123     -0.0375583877426    -0.146002705245     
7900000000.0        -0.0385073398302    -0.147703511976     0.955738757724      -0.249656114754     0.955738757724      -0.249656114754     -0.0385073398302    -0.147703511976     
8000000000.0        -0.0394669377835    -0.149397553365     0.954643063982      -0.252661087646     0.954643063982      -0.252661087646     -0.0394669377835    -0.149397553365     
8100000000.0        -0.0404371219389    -0.151084745459     0.953534964118      -0.25565987481      0.953534964118      -0.25565987481      -0.0404371219389    -0.151084745459     
8200000000.0        -0.0414178318434    -0.15276500494      0.952414514655      -0.258652397864     0.952414514655      -0.258652397864     -0.0414178318434    -0.15276500494      
8300000000.0        -0.0424090062637    -0.154438249131     0.951281772857      -0.26163857905      0.951281772857      -0.26163857905      -0.0424090062637    -0.154438249131     
8400000000.0        -0.0434105831963    -0.156104396014     0.950136796723      -0.264618341239     0.950136796723      -0.264618341239     -0.0434105831963    -0.156104396014     
8500000000.0        -0.0444224998772    -0.157763364234     0.948979644978      -0.267591607947     0.948979644978      -0.267591607947     -0.0444224998772    -0.157763364234     
8600000000.0        -0.0454446927921    -0.159415073119     0.947810377057      -0.270558303347     0.947810377057      -0.270558303347     -0.0454446927921    -0.159415073119     
8700000000.0        -0.0464770976864    -0.16105944268      0.946629053102      -0.273518352277     0.946629053102      -0.273518352277     -0.0464770976864    -0.16105944268      
8800000000.0        -0.0475196495757    -0.16269639363      0.945435733948      -0.27647168025      0.945435733948      -0.27647168025      -0.0475196495757    -0.16269639363      
8900000000.0        -0.0485722827561    -0.164325847393     0.944230481112      -0.279418213471     0.944230481112      -0.279418213471     -0.0485722827561    -0.164325847393     
9000000000.0        -0.049634930815     -0.165947726108     0.943013356782      -0.282357878839     0.943013356782      -0.282357878839     -0.049634930815     -0.165947726108     
9100000000.0        -0.0507075266417    -0.167561952646     0.941784423811      -0.285290603962     0.941784423811      -0.285290603962     -0.0507075266417    -0.167561952646     
9200000000.0        -0.0517900024384    -0.169168450616     0.940543745698      -0.288216317167     0.940543745698      -0.288216317167     -0.0517900024384    -0.169168450616     
9300000000.0        -0.052882289731     -0.170767144374     0.939291386584      -0.291134947505     0.939291386584      -0.291134947505     -0.052882289731     -0.170767144374     
9400000000.0        -0.0539843193802    -0.172357959032     0.938027411239      -0.294046424764     0.938027411239      -0.294046424764     -0.0539843193802    -0.172357959032     
9500000000.0        -0.0550960215928    -0.173940820468     0.936751885047      -0.296950679477     0.936751885047      -0.296950679477     -0.0550960215928    -0.173940820468     
9600000000.0        -0.056217325933     -0.175515655333     0.935464874         -0.299847642929     0.935464874         -0.299847642929     -0.056217325933     -0.175515655333     
9700000000.0        -0.0573481613337    -0.177082391058     0.934166444684      -0.302737247169     0.934166444684      -0.302737247169     -0.0573481613337    -0.177082391058     
9800000000.0        -0.0584884561079    -0.178640955865     0.932856664266      -0.305619425013     0.932856664266      -0.305619425013     -0.0584884561079    -0.178640955865     
9900000000.0        -0.0596381379605    -0.180191278774     0.931535600486      -0.308494110054     0.931535600486      -0.308494110054     -0.0596381379605    -0.180191278774     
10000000000.0       -0.0607971339997    -0.181733289605     0.930203321643      -0.311361236672     0.930203321643      -0.311361236672     -0.0607971339997    -0.181733289605     
