# Hz S RI R 50.00 
100000000.0         0.0039852784426     0.0017374127172     0.996005331956      -0.00499228224221   0.996005331956      -0.00499228224221   0.0039852784426     0.0017374127172     
200000000.0         0.00403638316097    0.00347429288839    0.995935228411      -0.00998408458545   0.995935228411      -0.00998408458545   0.00403638316097    0.00347429288839    
300000000.0         0.00409794012956    0.00521059789682    0.995844061744      -0.0149753935251    0.995844061744      -0.0149753935251    0.00409794012956    0.00521059789682    
400000000.0         0.00417338433215    0.00694619244533    0.99572839481       -0.0199660921392    0.99572839481       -0.0199660921392    0.00417338433215    0.00694619244533    
500000000.0         0.004264032866      0.00868092010302    0.995586907892      -0.0249560368708    0.995586907892      -0.0249560368708    0.004264032866      0.00868092010302    
600000000.0         0.00437055165918    0.0104146153418     0.995418932024      -0.0299450714138    0.995418932024      -0.0299450714138    0.00437055165918    0.0104146153418     
700000000.0         0.00449332821726    0.0121471078495     0.995224076276      -0.034933031974     0.995224076276      -0.034933031974     0.00449332821726    0.0121471078495     
800000000.0         0.00463260762199    0.0138782245287     0.995002091781      -0.0399197498387    0.995002091781      -0.0399197498387    0.00463260762199    0.0138782245287     
900000000.0         0.00478855306539    0.0156077905735     0.994752811223      -0.0449050528303    0.994752811223      -0.0449050528303    0.00478855306539    0.0156077905735     
1000000000.0        0.00496127652347    0.0173356301093     0.99447611818       -0.0498887662144    0.99447611818       -0.0498887662144    0.00496127652347    0.0173356301093     
1100000000.0        0.00515085580245    0.0190615666046     0.994171930095      -0.0548707133089    0.994171930095      -0.0548707133089    0.00515085580245    0.0190615666046     
1200000000.0        0.00535734469368    0.0207854231504     0.993840188132      -0.0598507159154    0.993840188132      -0.0598507159154    0.00535734469368    0.0207854231504     
1300000000.0        0.00558077936179    0.0225070226603     0.9934808508        -0.0648285946397    0.9934808508        -0.0648285946397    0.00558077936179    0.0225070226603     
1400000000.0        0.00582118254358    0.0242261880189     0.993093889771      -0.0698041691374    0.993093889771      -0.0698041691374    0.00582118254358    0.0242261880189     
1500000000.0        0.00607856640994    0.0259427421973     0.992679287019      -0.074777258309     0.992679287019      -0.074777258309     0.00607856640994    0.0259427421973     
1600000000.0        0.00635293457682    0.0276565083434     0.992237032825      -0.0797476804582    0.992237032825      -0.0797476804582    0.00635293457682    0.0276565083434     
1700000000.0        0.00664428355583    0.0293673098579     0.991767124333      -0.0847152534239    0.991767124333      -0.0847152534239    0.00664428355583    0.0293673098579     
1800000000.0        0.0069526038244     0.0310749704564     0.991269564486      -0.0896797946915    0.991269564486      -0.0896797946915    0.0069526038244     0.0310749704564     
1900000000.0        0.00727788063139    0.032779314224      0.990744361228      -0.0946411214898    0.990744361228      -0.0946411214898    0.00727788063139    0.032779314224      
2000000000.0        0.00762009461422    0.0344801656621     0.990191526897      -0.0995990508753    0.990191526897      -0.0995990508753    0.00762009461422    0.0344801656621     
2100000000.0        0.00797922227932    0.0361773497312     0.989611077746      -0.104553399807     0.989611077746      -0.104553399807     0.00797922227932    0.0361773497312     
2200000000.0        0.00835523638171    0.0378706918888     0.989003033571      -0.109503985213     0.989003033571      -0.109503985213     0.00835523638171    0.0378706918888     
2300000000.0        0.00874810622871    0.0395600181246     0.988367417414      -0.114450624055     0.988367417414      -0.114450624055     0.00874810622871    0.0395600181246     
2400000000.0        0.00915779792627    0.0412451549934     0.987704255323      -0.119393133377     0.987704255323      -0.119393133377     0.00915779792627    0.0412451549934     
2500000000.0        0.00958427458079    0.0429259296451     0.98701357615       -0.124331330366     0.98701357615       -0.124331330366     0.00958427458079    0.0429259296451     
2600000000.0        0.0100274964666     0.0446021698541     0.986295411395      -0.129265032392     0.986295411395      -0.129265032392     0.0100274964666     0.0446021698541     
2700000000.0        0.0104874211662     0.0462737040467     0.985549795063      -0.134194057058     0.985549795063      -0.134194057058     0.0104874211662     0.0462737040467     
2800000000.0        0.0109640036888     0.0479403613272     0.984776763556      -0.139118222241     0.984776763556      -0.139118222241     0.0109640036888     0.0479403613272     
2900000000.0        0.0114571965721     0.0496019715035     0.983976355571      -0.144037346128     0.983976355571      -0.144037346128     0.0114571965721     0.0496019715035     
3000000000.0        0.0119669499695     0.0512583651116     0.983148612021      -0.14895124726      0.983148612021      -0.14895124726      0.0119669499695     0.0512583651116     
3100000000.0        0.0124932117262     0.0529093734393     0.982293575957      -0.153859744566     0.982293575957      -0.153859744566     0.0124932117262     0.0529093734393     
3200000000.0        0.0130359274466     0.0545548285492     0.981411292508      -0.158762657394     0.981411292508      -0.158762657394     0.0130359274466     0.0545548285492     
3300000000.0        0.0135950405532     0.0561945633016     0.980501808824      -0.163659805548     0.980501808824      -0.163659805548     0.0135950405532     0.0561945633016     
3400000000.0        0.0141704923397     0.0578284113762     0.979565174027      -0.16855100932      0.979565174027      -0.16855100932      0.0141704923397     0.0578284113762     
3500000000.0        0.0147622220191     0.0594562072937     0.978601439164      -0.173436089517     0.978601439164      -0.173436089517     0.0147622220191     0.0594562072937     
3600000000.0        0.0153701667668     0.0610777864369     0.97761065717       -0.178314867494     0.97761065717       -0.178314867494     0.0153701667668     0.0610777864369     
3700000000.0        0.0159942617605     0.0626929850719     0.976592882828      -0.183187165183     0.976592882828      -0.183187165183     0.0159942617605     0.0626929850719     
3800000000.0        0.0166344402169     0.0643016403676     0.975548172737      -0.188052805117     0.975548172737      -0.188052805117     0.0166344402169     0.0643016403676     
3900000000.0        0.017290633426      0.0659035904163     0.974476585279      -0.19291161046      0.974476585279      -0.19291161046      0.017290633426      0.0659035904163     
4000000000.0        0.0179627707827     0.0674986742533     0.97337818059       -0.197763405033     0.97337818059       -0.197763405033     0.0179627707827     0.0674986742533     
4100000000.0        0.0186507798173     0.0690867318761     0.972253020533      -0.202608013339     0.972253020533      -0.202608013339     0.0186507798173     0.0690867318761     
4200000000.0        0.0193545862236     0.0706676042633     0.97110116867       -0.207445260587     0.97110116867       -0.207445260587     0.0193545862236     0.0706676042633     
4300000000.0        0.0200741138863     0.0722411333937     0.96992269024       -0.212274972717     0.96992269024       -0.212274972717     0.0200741138863     0.0722411333937     
4400000000.0        0.0208092849069     0.0738071622644     0.968717652132      -0.217096976423     0.968717652132      -0.217096976423     0.0208092849069     0.0738071622644     
4500000000.0        0.0215600196289     0.075365534909      0.967486122866      -0.221911099175     0.967486122866      -0.221911099175     0.0215600196289     0.075365534909      
4600000000.0        0.0223262366619     0.0769160964156     0.966228172566      -0.226717169246     0.966228172566      -0.226717169246     0.0223262366619     0.0769160964156     
4700000000.0        0.0231078529053     0.0784586929442     0.96494387294       -0.231515015726     0.96494387294       -0.231515015726     0.0231078529053     0.0784586929442     
4800000000.0        0.0239047835709     0.079993171744      0.963633297263      -0.23630446855      0.963633297263      -0.23630446855      0.0239047835709     0.079993171744      
4900000000.0        0.0247169422056     0.0815193811707     0.96229652035       -0.241085358516     0.96229652035       -0.241085358516     0.0247169422056     0.0815193811707     
5000000000.0        0.0255442407134     0.0830371707029     0.96093361854       -0.245857517306     0.96093361854       -0.245857517306     0.0255442407134     0.0830371707029     
5100000000.0        0.0263865893767     0.0845463909587     0.959544669675      -0.250620777505     0.959544669675      -0.250620777505     0.0263865893767     0.0845463909587     
5200000000.0        0.0272438968779     0.0860468937118     0.95812975308       -0.25537497262      0.95812975308       -0.25537497262      0.0272438968779     0.0860468937118     
5300000000.0        0.0281160703203     0.0875385319078     0.956688949544      -0.260119937101     0.956688949544      -0.260119937101     0.0281160703203     0.0875385319078     
5400000000.0        0.0290030152492     0.0890211596792     0.9552223413        -0.264855506358     0.9552223413        -0.264855506358     0.0290030152492     0.0890211596792     
5500000000.0        0.0299046356721     0.0904946323614     0.953730012007      -0.269581516779     0.953730012007      -0.269581516779     0.0299046356721     0.0904946323614     
5600000000.0        0.0308208340794     0.0919588065075     0.95221204673       -0.274297805748     0.95221204673       -0.274297805748     0.0308208340794     0.0919588065075     
5700000000.0        0.0317515114651     0.0934135399031     0.950668531921      -0.279004211663     0.950668531921      -0.279004211663     0.0317515114651     0.0934135399031     
5800000000.0        0.0326965673464     0.0948586915811     0.949099555401      -0.28370057395      0.949099555401      -0.28370057395      0.0326965673464     0.0948586915811     
5900000000.0        0.0336558997845     0.0962941218354     0.947505206341      -0.288386733082     0.947505206341      -0.288386733082     0.0336558997845     0.0962941218354     
6000000000.0        0.0346294054045     0.0977196922358     0.945885575241      -0.293062530596     0.945885575241      -0.293062530596     0.0346294054045     0.0977196922358     
6100000000.0        0.0356169794154     0.0991352656408     0.944240753913      -0.297727809106     0.944240753913      -0.297727809106     0.0356169794154     0.0991352656408     
6200000000.0        0.0366185156304     0.100540706212      0.942570835465      -0.302382412317     0.942570835465      -0.302382412317     0.0366185156304     0.100540706212      
6300000000.0        0.0376339064869     0.101935879425      0.940875914276      -0.307026185044     0.940875914276      -0.307026185044     0.0376339064869     0.101935879425      
6400000000.0        0.038663043066      0.103320652087      0.93915608598       -0.311658973225     0.93915608598       -0.311658973225     0.038663043066      0.103320652087      
6500000000.0        0.0397058151135     0.104694892343      0.93741144745       -0.316280623933     0.93741144745       -0.316280623933     0.0397058151135     0.104694892343      
6600000000.0        0.040762111059      0.106058469693      0.935642096774      -0.320890985392     0.935642096774      -0.320890985392     0.040762111059      0.106058469693      
6700000000.0        0.0418318180365     0.107411255004      0.93384813324       -0.325489906987     0.93384813324       -0.325489906987     0.0418318180365     0.107411255004      
6800000000.0        0.0429148219041     0.108753120518      0.932029657315      -0.330077239284     0.932029657315      -0.330077239284     0.0429148219041     0.108753120518      
6900000000.0        0.0440110072642     0.110083939866      0.930186770625      -0.334652834033     0.930186770625      -0.334652834033     0.0440110072642     0.110083939866      
7000000000.0        0.0451202574838     0.111403588078      0.92831957594       -0.339216544189     0.92831957594       -0.339216544189     0.0451202574838     0.111403588078      
7100000000.0        0.0462424547141     0.112711941598      0.926428177149      -0.343768223918     0.926428177149      -0.343768223918     0.0462424547141     0.112711941598      
7200000000.0        0.0473774799109     0.114008878289      0.924512679247      -0.34830772861      0.924512679247      -0.34830772861      0.0473774799109     0.114008878289      
7300000000.0        0.0485252128546     0.115294277443      0.922573188311      -0.352834914894     0.922573188311      -0.352834914894     0.0485252128546     0.115294277443      
7400000000.0        0.0496855321708     0.116568019799      0.920609811483      -0.35734964064      0.920609811483      -0.35734964064      0.0496855321708     0.116568019799      
7500000000.0        0.0508583153495     0.117829987543      0.91862265695       -0.36185176498      0.91862265695       -0.36185176498      0.0508583153495     0.117829987543      
7600000000.0        0.0520434387664     0.119080064324      0.916611833925      -0.366341148311     0.916611833925      -0.366341148311     0.0520434387664     0.119080064324      
7700000000.0        0.0532407777022     0.12031813526       0.914577452628      -0.370817652304     0.914577452628      -0.370817652304     0.0532407777022     0.12031813526       
7800000000.0        0.0544502063634     0.121544086947      0.912519624266      -0.375281139921     0.912519624266      -0.375281139921     0.0544502063634     0.121544086947      
7900000000.0        0.0556715979021     0.122757807469      0.910438461012      -0.379731475416     0.910438461012      -0.379731475416     0.0556715979021     0.122757807469      
8000000000.0        0.0569048244367     0.123959186406      0.90833407599       -0.384168524346     0.90833407599       -0.384168524346     0.0569048244367     0.123959186406      
8100000000.0        0.0581497570716     0.125148114841      0.906206583252      -0.388592153582     0.906206583252      -0.388592153582     0.0581497570716     0.125148114841      
8200000000.0        0.0594062659179     0.126324485367      0.904056097756      -0.393002231315     0.904056097756      -0.393002231315     0.0594062659179     0.126324485367      
8300000000.0        0.0606742201136     0.127488192099      0.901882735354      -0.397398627063     0.901882735354      -0.397398627063     0.0606742201136     0.127488192099      
8400000000.0        0.0619534878435     0.128639130673      0.899686612767      -0.401781211679     0.899686612767      -0.401781211679     0.0619534878435     0.128639130673      
8500000000.0        0.0632439363599     0.129777198261      0.897467847565      -0.406149857359     0.897467847565      -0.406149857359     0.0632439363599     0.129777198261      
8600000000.0        0.0645454320027     0.130902293574      0.895226558149      -0.410504437646     0.895226558149      -0.410504437646     0.0645454320027     0.130902293574      
8700000000.0        0.0658578402194     0.132014316866      0.892962863735      -0.414844827442     0.892962863735      -0.414844827442     0.0658578402194     0.132014316866      
8800000000.0        0.0671810255857     0.133113169943      0.890676884326      -0.419170903005     0.890676884326      -0.419170903005     0.0671810255857     0.133113169943      
8900000000.0        0.0685148518257     0.13419875617       0.888368740701      -0.423482541963     0.888368740701      -0.423482541963     0.0685148518257     0.13419875617       
9000000000.0        0.0698591818316     0.135270980473      0.88603855439       -0.427779623317     0.88603855439       -0.427779623317     0.0698591818316     0.135270980473      
9100000000.0        0.0712138776846     0.136329749345      0.883686447657      -0.432062027443     0.883686447657      -0.432062027443     0.0712138776846     0.136329749345      
9200000000.0        0.0725788006746     0.13737497085       0.881312543478      -0.4363296361       0.881312543478      -0.4363296361       0.0725788006746     0.13737497085       
9300000000.0        0.0739538113203     0.138406554634      0.878916965525      -0.440582332433     0.878916965525      -0.440582332433     0.0739538113203     0.138406554634      
9400000000.0        0.0753387693895     0.139424411917      0.876499838145      -0.444820000979     0.876499838145      -0.444820000979     0.0753387693895     0.139424411917      
9500000000.0        0.0767335339191     0.140428455511      0.874061286337      -0.449042527667     0.874061286337      -0.449042527667     0.0767335339191     0.140428455511      
9600000000.0        0.0781379632351     0.141418599812      0.87160143574       -0.453249799826     0.87160143574       -0.453249799826     0.0781379632351     0.141418599812      
9700000000.0        0.0795519149726     0.142394760811      0.869120412605      -0.457441706185     0.869120412605      -0.457441706185     0.0795519149726     0.142394760811      
9800000000.0        0.0809752460956     0.143356856092      0.866618343784      -0.461618136876     0.866618343784      -0.461618136876     0.0809752460956     0.143356856092      
9900000000.0        0.0824078129171     0.144304804842      0.864095356703      -0.465778983439     0.864095356703      -0.465778983439     0.0824078129171     0.144304804842      
10000000000.0       0.0838494711187     0.145238527843      0.86155157935       -0.469924138821     0.86155157935       -0.469924138821     0.0838494711187     0.145238527843      
