# Hz S RI R 50.00 
100000000.0         0.0107799627655     0.00127796979991    0.989217434594      -0.00236982007292   0.989217434594      -0.00236982007292   0.0107799627655     0.00127796979991    
200000000.0         0.0108593902179     0.00255538537112    0.989135207967      -0.00473908600407   0.989135207967      -0.00473908600407   0.0108593902179     0.00255538537112    
300000000.0         0.010925983755      0.0038324233763     0.98906461865       -0.0071079757624    0.98906461865       -0.0071079757624    0.010925983755      0.0038324233763     
400000000.0         0.0109890296635     0.00510912326132    0.988996380295      -0.00947652986549   0.988996380295      -0.00947652986549   0.0109890296635     0.00510912326132    
500000000.0         0.0110521076036     0.00638549263355    0.988926913178      -0.0118447568757    0.988926913178      -0.0118447568757    0.0110521076036     0.00638549263355    
600000000.0         0.0111170443907     0.0076615250322     0.988854390417      -0.0142126512115    0.988854390417      -0.0142126512115    0.0111170443907     0.0076615250322     
700000000.0         0.0111849195446     0.00893720630241    0.98877773242       -0.0165801995426    0.98877773242       -0.0165801995426    0.0111849195446     0.00893720630241    
800000000.0         0.0112564324325     0.0102125175478     0.988696239744      -0.0189473837552    0.988696239744      -0.0189473837552    0.0112564324325     0.0102125175478     
900000000.0         0.0113320658022     0.0114874367148     0.988609429557      -0.0213141825437    0.988609429557      -0.0213141825437    0.0113320658022     0.0114874367148     
1000000000.0        0.0114121687039     0.0127619395288     0.988516952722      -0.0236805723539    0.988516952722      -0.0236805723539    0.0114121687039     0.0127619395288     
1100000000.0        0.0114970026027     0.0140360000892     0.988418547677      -0.0260465279809    0.988418547677      -0.0260465279809    0.0114970026027     0.0140360000892     
1200000000.0        0.0115867688641     0.0153095912667     0.988314012957      -0.0284120229708    0.988314012957      -0.0284120229708    0.0115867688641     0.0153095912667     
1300000000.0        0.0116816260534     0.0165826849815     0.988203189889      -0.0307770299002    0.988203189889      -0.0307770299002    0.0116816260534     0.0165826849815     
1400000000.0        0.01178170131       0.017855252403      0.98808595122       -0.0331415205792    0.98808595122       -0.0331415205792    0.01178170131       0.017855252403      
1500000000.0        0.0118870981005     0.0191272640997     0.987962193362      -0.0355054662018    0.987962193362      -0.0355054662018    0.0118870981005     0.0191272640997     
1600000000.0        0.0119979016658     0.0203986901518     0.98783183095       -0.0378688374606    0.98783183095       -0.0378688374606    0.0119979016658     0.0203986901518     
1700000000.0        0.0121141829484     0.0216695002398     0.987694792906      -0.0402316046364    0.987694792906      -0.0402316046364    0.0121141829484     0.0216695002398     
1800000000.0        0.0122360014857     0.0229396637139     0.987551019555      -0.0425937376681    0.987551019555      -0.0425937376681    0.0122360014857     0.0229396637139     
1900000000.0        0.0123634075858     0.0242091496499     0.987400460442      -0.0449552062101    0.987400460442      -0.0449552062101    0.0123634075858     0.0242091496499     
2000000000.0        0.012496443989      0.0254779268951     0.987243072674      -0.0473159796786    0.987243072674      -0.0473159796786    0.012496443989      0.0254779268951     
2100000000.0        0.0126351471577     0.0267459641054     0.987078819632      -0.0496760272895    0.987078819632      -0.0496760272895    0.0126351471577     0.0267459641054     
2200000000.0        0.0127795482907     0.0280132297775     0.98690766995       -0.0520353180907    0.98690766995       -0.0520353180907    0.0127795482907     0.0280132297775     
2300000000.0        0.0129296741307     0.0292796922747     0.986729596715      -0.0543938209888    0.986729596715      -0.0543938209888    0.0129296741307     0.0292796922747     
2400000000.0        0.0130855476135     0.0305453198496     0.986544576812      -0.0567515047726    0.986544576812      -0.0567515047726    0.0130855476135     0.0305453198496     
2500000000.0        0.0132471883964     0.0318100806642     0.9863525904        -0.0591083381325    0.9863525904        -0.0591083381325    0.0132471883964     0.0318100806642     
2600000000.0        0.0134146132908     0.0330739428056     0.986153620476      -0.0614642896777    0.986153620476      -0.0614642896777    0.0134146132908     0.0330739428056     
2700000000.0        0.0135878366206     0.0343368743017     0.985947652521      -0.0638193279515    0.985947652521      -0.0638193279515    0.0135878366206     0.0343368743017     
2800000000.0        0.0137668705206     0.0355988431336     0.985734674195      -0.0661734214442    0.985734674195      -0.0661734214442    0.0137668705206     0.0355988431336     
2900000000.0        0.0139517251863     0.0368598172472     0.985514675092      -0.0685265386052    0.985514675092      -0.0685265386052    0.0139517251863     0.0368598172472     
3000000000.0        0.0141424090861     0.0381197645634     0.985287646529      -0.0708786478532    0.985287646529      -0.0708786478532    0.0141424090861     0.0381197645634     
3100000000.0        0.0143389291407     0.0393786529875     0.985053581362      -0.0732297175854    0.985053581362      -0.0732297175854    0.0143389291407     0.0393786529875     
3200000000.0        0.0145412908766     0.0406364504171     0.984812473835      -0.0755797161866    0.984812473835      -0.0755797161866    0.0145412908766     0.0406364504171     
3300000000.0        0.0147494985582     0.0418931247499     0.984564319449      -0.0779286120365    0.984564319449      -0.0779286120365    0.0147494985582     0.0418931247499     
3400000000.0        0.0149635553018     0.0431486438905     0.984309114845      -0.0802763735165    0.984309114845      -0.0802763735165    0.0149635553018     0.0431486438905     
3500000000.0        0.0151834631743     0.0444029757565     0.98404685771       -0.0826229690167    0.98404685771       -0.0826229690167    0.0151834631743     0.0444029757565     
3600000000.0        0.0154092232795     0.0456560882848     0.983777546686      -0.0849683669415    0.983777546686      -0.0849683669415    0.0154092232795     0.0456560882848     
3700000000.0        0.0156408358333     0.0469079494363     0.983501181295      -0.0873125357154    0.983501181295      -0.0873125357154    0.0156408358333     0.0469079494363     
3800000000.0        0.0158783002303     0.0481585272014     0.983217761876      -0.0896554437874    0.983217761876      -0.0896554437874    0.0158783002303     0.0481585272014     
3900000000.0        0.0161216151016     0.0494077896044     0.982927289526      -0.0919970596369    0.982927289526      -0.0919970596369    0.0161216151016     0.0494077896044     
4000000000.0        0.0163707783669     0.050655704708      0.982629766046      -0.0943373517771    0.982629766046      -0.0943373517771    0.0163707783669     0.050655704708      
4100000000.0        0.0166257872804     0.0519022406173     0.982325193895      -0.0966762887597    0.982325193895      -0.0966762887597    0.0166257872804     0.0519022406173     
4200000000.0        0.0168866384713     0.0531473654837     0.982013576154      -0.099013839179     0.982013576154      -0.099013839179     0.0168866384713     0.0531473654837     
4300000000.0        0.0171533279809     0.0543910475085     0.981694916482      -0.101349971675     0.981694916482      -0.101349971675     0.0171533279809     0.0543910475085     
4400000000.0        0.0174258512948     0.0556332549464     0.981369219091      -0.103684654939     0.981369219091      -0.103684654939     0.0174258512948     0.0556332549464     
4500000000.0        0.0177042033729     0.0568739561089     0.981036488709      -0.106017857712     0.981036488709      -0.106017857712     0.0177042033729     0.0568739561089     
4600000000.0        0.0179883786755     0.0581131193674     0.98069673056       -0.108349548795     0.98069673056       -0.108349548795     0.0179883786755     0.0581131193674     
4700000000.0        0.0182783711874     0.0593507131561     0.980349950337      -0.110679697047     0.980349950337      -0.110679697047     0.0182783711874     0.0593507131561     
4800000000.0        0.01857417444       0.0605867059748     0.979996154179      -0.113008271388     0.979996154179      -0.113008271388     0.01857417444       0.0605867059748     
4900000000.0        0.0188757815306     0.0618210663923     0.979635348655      -0.115335240805     0.979635348655      -0.115335240805     0.0188757815306     0.0618210663923     
5000000000.0        0.0191831851408     0.0630537630482     0.97926754074       -0.117660574353     0.97926754074       -0.117660574353     0.0191831851408     0.0630537630482     
5100000000.0        0.0194963775528     0.0642847646561     0.978892737806      -0.119984241156     0.978892737806      -0.119984241156     0.0194963775528     0.0642847646561     
5200000000.0        0.0198153506644     0.0655140400059     0.978510947601      -0.122306210413     0.978510947601      -0.122306210413     0.0198153506644     0.0655140400059     
5300000000.0        0.0201400960032     0.066741557966      0.978122178238      -0.124626451397     0.978122178238      -0.124626451397     0.0201400960032     0.066741557966      
5400000000.0        0.0204706047387     0.0679672874862     0.977726438181      -0.126944933459     0.977726438181      -0.126944933459     0.0204706047387     0.0679672874862     
5500000000.0        0.0208068676948     0.0691911975993     0.977323736236      -0.129261626031     0.977323736236      -0.129261626031     0.0208068676948     0.0691911975993     
5600000000.0        0.0211488753598     0.0704132574236     0.976914081535      -0.131576498629     0.976914081535      -0.131576498629     0.0211488753598     0.0704132574236     
5700000000.0        0.0214966178973     0.0716334361654     0.976497483531      -0.13388952085      0.976497483531      -0.13388952085      0.0214966178973     0.0716334361654     
5800000000.0        0.0218500851547     0.0728517031205     0.976073951986      -0.136200662381     0.976073951986      -0.136200662381     0.0218500851547     0.0728517031205     
5900000000.0        0.0222092666727     0.0740680276764     0.975643496963      -0.138509892997     0.975643496963      -0.138509892997     0.0222092666727     0.0740680276764     
6000000000.0        0.0225741516926     0.0752823793147     0.975206128818      -0.140817182563     0.975206128818      -0.140817182563     0.0225741516926     0.0752823793147     
6100000000.0        0.0229447291644     0.0764947276123     0.974761858194      -0.143122501038     0.974761858194      -0.143122501038     0.0229447291644     0.0764947276123     
6200000000.0        0.0233209877536     0.0777050422442     0.974310696008      -0.145425818476     0.974310696008      -0.145425818476     0.0233209877536     0.0777050422442     
6300000000.0        0.0237029158478     0.0789132929846     0.973852653454      -0.147727105027     0.973852653454      -0.147727105027     0.0237029158478     0.0789132929846     
6400000000.0        0.0240905015631     0.080119449709      0.973387741989      -0.150026330941     0.973387741989      -0.150026330941     0.0240905015631     0.080119449709      
6500000000.0        0.0244837327498     0.0813234823961     0.972915973328      -0.152323466565     0.972915973328      -0.152323466565     0.0244837327498     0.0813234823961     
6600000000.0        0.0248825969982     0.0825253611295     0.972437359444      -0.154618482353     0.972437359444      -0.154618482353     0.0248825969982     0.0825253611295     
6700000000.0        0.0252870816433     0.0837250560993     0.971951912555      -0.156911348859     0.971951912555      -0.156911348859     0.0252870816433     0.0837250560993     
6800000000.0        0.0256971737704     0.0849225376037     0.971459645127      -0.159202036744     0.971459645127      -0.159202036744     0.0256971737704     0.0849225376037     
6900000000.0        0.0261128602194     0.086117776051      0.970960569861      -0.161490516777     0.970960569861      -0.161490516777     0.0261128602194     0.086117776051      
7000000000.0        0.0265341275891     0.0873107419611     0.970454699695      -0.163776759835     0.970454699695      -0.163776759835     0.0265341275891     0.0873107419611     
7100000000.0        0.0269609622422     0.0885014059667     0.969942047799      -0.166060736907     0.969942047799      -0.166060736907     0.0269609622422     0.0885014059667     
7200000000.0        0.0273933503084     0.0896897388155     0.969422627567      -0.168342419092     0.969422627567      -0.168342419092     0.0273933503084     0.0896897388155     
7300000000.0        0.0278312776891     0.0908757113713     0.968896452615      -0.170621777604     0.968896452615      -0.170621777604     0.0278312776891     0.0908757113713     
7400000000.0        0.0282747300605     0.0920592946157     0.968363536782      -0.172898783772     0.968363536782      -0.172898783772     0.0282747300605     0.0920592946157     
7500000000.0        0.0287236928778     0.0932404596494     0.967823894118      -0.175173409042     0.967823894118      -0.175173409042     0.0287236928778     0.0932404596494     
7600000000.0        0.0291781513779     0.094419177694      0.967277538887      -0.177445624978     0.967277538887      -0.177445624978     0.0291781513779     0.094419177694      
7700000000.0        0.0296380905835     0.0955954200932     0.966724485561      -0.179715403265     0.966724485561      -0.179715403265     0.0296380905835     0.0955954200932     
7800000000.0        0.0301034953055     0.0967691583142     0.966164748818      -0.181982715706     0.966164748818      -0.181982715706     0.0301034953055     0.0967691583142     
7900000000.0        0.0305743501466     0.0979403639492     0.965598343537      -0.18424753423      0.965598343537      -0.18424753423      0.0305743501466     0.0979403639492     
8000000000.0        0.0310506395041     0.0991090087167     0.965025284798      -0.186509830887     0.965025284798      -0.186509830887     0.0310506395041     0.0991090087167     
8100000000.0        0.031532347573      0.100275064463      0.964445587877      -0.188769577855     0.964445587877      -0.188769577855     0.031532347573      0.100275064463      
8200000000.0        0.0320194583483     0.101438503163      0.963859268243      -0.191026747437     0.963859268243      -0.191026747437     0.0320194583483     0.101438503163      
8300000000.0        0.0325119556282     0.102599296923      0.963266341556      -0.193281312065     0.963266341556      -0.193281312065     0.0325119556282     0.102599296923      
8400000000.0        0.0330098230164     0.10375741798       0.962666823665      -0.195533244298     0.962666823665      -0.195533244298     0.0330098230164     0.10375741798       
8500000000.0        0.0335130439251     0.104912838704      0.962060730606      -0.197782516828     0.962060730606      -0.197782516828     0.0335130439251     0.104912838704      
8600000000.0        0.034021601577      0.1060655316        0.961448078594      -0.200029102479     0.961448078594      -0.200029102479     0.034021601577      0.1060655316        
8700000000.0        0.0345354790082     0.107215469306      0.96082888403       -0.202272974205     0.96082888403       -0.202272974205     0.0345354790082     0.107215469306      
8800000000.0        0.0350546590701     0.1083626246        0.96020316349       -0.204514105098     0.96020316349       -0.204514105098     0.0350546590701     0.1083626246        
8900000000.0        0.0355791244324     0.109506970394      0.959570933728      -0.206752468383     0.959570933728      -0.206752468383     0.0355791244324     0.109506970394      
9000000000.0        0.0361088575847     0.110648479744      0.958932211669      -0.208988037422     0.958932211669      -0.208988037422     0.0361088575847     0.110648479744      
9100000000.0        0.0366438408394     0.111787125841      0.958287014413      -0.211220785716     0.958287014413      -0.211220785716     0.0366438408394     0.111787125841      
9200000000.0        0.0371840563334     0.112922882019      0.957635359226      -0.213450686904     0.957635359226      -0.213450686904     0.0371840563334     0.112922882019      
9300000000.0        0.0377294860306     0.114055721757      0.956977263545      -0.215677714765     0.956977263545      -0.215677714765     0.0377294860306     0.114055721757      
9400000000.0        0.0382801117238     0.115185618673      0.956312744968      -0.217901843219     0.956312744968      -0.217901843219     0.0382801117238     0.115185618673      
9500000000.0        0.0388359150372     0.116312546533      0.955641821259      -0.22012304633      0.955641821259      -0.22012304633      0.0388359150372     0.116312546533      
9600000000.0        0.039396877428      0.117436479247      0.95496451034       -0.222341298303     0.95496451034       -0.222341298303     0.039396877428      0.117436479247      
9700000000.0        0.0399629801886     0.118557390872      0.954280830294      -0.224556573489     0.954280830294      -0.224556573489     0.0399629801886     0.118557390872      
9800000000.0        0.040534204449      0.119675255613      0.95359079936       -0.226768846383     0.95359079936       -0.226768846383     0.040534204449      0.119675255613      
9900000000.0        0.0411105311782     0.120790047823      0.952894435932      -0.228978091628     0.952894435932      -0.228978091628     0.0411105311782     0.120790047823      
10000000000.0       0.0416919411866     0.121901742006      0.952191758555      -0.231184284014     0.952191758555      -0.231184284014     0.0416919411866     0.121901742006      
