# Hz S RI R 50.00 
100000000.0         0.00663840210046    0.00113084016475    0.99335431511       -0.00385094213915   0.99335431511       -0.00385094213915   0.00663840210046    0.00113084016475    
200000000.0         0.00669423455883    0.0022611740802     0.993284784078      -0.0077013700656    0.993284784078      -0.0077013700656    0.00669423455883    0.0022611740802     
300000000.0         0.00674719927049    0.00339110576023    0.993210704574      -0.0115513852716    0.993210704574      -0.0115513852716    0.00674719927049    0.00339110576023    
400000000.0         0.00680302462248    0.00452062425241    0.993126347723      -0.0154009722142    0.993126347723      -0.0154009722142    0.00680302462248    0.00452062425241    
500000000.0         0.00686391529095    0.00564969204917    0.993029508288      -0.0192500877566    0.993029508288      -0.0192500877566    0.00686391529095    0.00564969204917    
600000000.0         0.00693099392121    0.0067782599662     0.992919062988      -0.0230986764074    0.992919062988      -0.0230986764074    0.00693099392121    0.0067782599662     
700000000.0         0.0070049218461     0.00790627247194    0.992794349779      -0.0269466758331    0.992794349779      -0.0269466758331    0.0070049218461     0.00790627247194    
800000000.0         0.00708612562865    0.00903367015394    0.992654941309      -0.0307940194348    0.992654941309      -0.0307940194348    0.00708612562865    0.00903367015394    
900000000.0         0.00717489792876    0.0101603910415     0.992500544059      -0.0346406377416    0.992500544059      -0.0346406377416    0.00717489792876    0.0101603910415     
1000000000.0        0.00727144862875    0.0112863713879     0.992330947213      -0.0384864592438    0.992330947213      -0.0384864592438    0.00727144862875    0.0112863713879     
1100000000.0        0.00737593325225    0.0124115461676     0.992145994245      -0.0423314109266    0.992145994245      -0.0423314109266    0.00737593325225    0.0124115461676     
1200000000.0        0.00748846989742    0.0135358494091     0.991945565985      -0.0461754186313    0.991945565985      -0.0461754186313    0.00748846989742    0.0135358494091     
1300000000.0        0.00760914988988    0.0146592144288     0.991729569966      -0.0500184073104    0.991729569966      -0.0500184073104    0.00760914988988    0.0146592144288     
1400000000.0        0.00773804478445    0.0157815740001     0.991497933425      -0.0538603012149    0.991497933425      -0.0538603012149    0.00773804478445    0.0157815740001     
1500000000.0        0.00787521113621    0.01690286048       0.991250598536      -0.0577010240347    0.991250598536      -0.0577010240347    0.00787521113621    0.01690286048       
1600000000.0        0.00802069385116    0.0180230059065     0.990987519052      -0.0615404990078    0.990987519052      -0.0615404990078    0.00802069385116    0.0180230059065     
1700000000.0        0.00817452860097    0.0191419420747     0.990708657902      -0.0653786490062    0.990708657902      -0.0653786490062    0.00817452860097    0.0191419420747     
1800000000.0        0.00833674360218    0.0202596005975     0.990413985404      -0.0692153966052    0.990413985404      -0.0692153966052    0.00833674360218    0.0202596005975     
1900000000.0        0.00850736095285    0.0213759129561     0.990103477932      -0.0730506641403    0.990103477932      -0.0730506641403    0.00850736095285    0.0213759129561     
2000000000.0        0.00868639765402    0.0224908105404     0.989777116898      -0.0768843737546    0.989777116898      -0.0768843737546    0.00868639765402    0.0224908105404     
2100000000.0        0.00887386640209    0.0236042246842     0.989434887958      -0.0807164474388    0.989434887958      -0.0807164474388    0.00887386640209    0.0236042246842     
2200000000.0        0.00906977621208    0.0247160866943     0.989076780388      -0.084546807065     0.989076780388      -0.084546807065     0.00906977621208    0.0247160866943     
2300000000.0        0.00927413291365    0.0258263278767     0.988702786591      -0.0883753744168    0.988702786591      -0.0883753744168    0.00927413291365    0.0258263278767     
2400000000.0        0.00948693955047    0.0269348795579     0.9883129017        -0.092202071215     0.9883129017        -0.092202071215     0.00948693955047    0.0269348795579     
2500000000.0        0.00970819670476    0.0280416731056     0.987907123248      -0.0960268191401    0.987907123248      -0.0960268191401    0.00970819670476    0.0280416731056     
2600000000.0        0.00993790276382    0.0291466399456     0.98748545091       -0.0998495398534    0.98748545091       -0.0998495398534    0.00993790276382    0.0291466399456     
2700000000.0        0.0101760541404     0.030249711578      0.987047886276      -0.103670155015     0.987047886276      -0.103670155015     0.0101760541404     0.030249711578      
2800000000.0        0.0104226454567     0.0313508195912     0.986594432672      -0.1074885863       0.986594432672      -0.1074885863       0.0104226454567     0.0313508195912     
2900000000.0        0.0106776696989     0.0324498956755     0.986125095006      -0.111304755414     0.986125095006      -0.111304755414     0.0106776696989     0.0324498956755     
3000000000.0        0.0109411183478     0.0335468716351     0.985639879634      -0.115118584109     0.985639879634      -0.115118584109     0.0109411183478     0.0335468716351     
3100000000.0        0.0112129814903     0.0346416793993     0.985138794254      -0.118929994193     0.985138794254      -0.118929994193     0.0112129814903     0.0346416793993     
3200000000.0        0.0114932479148     0.035734251033      0.984621847809      -0.122738907543     0.984621847809      -0.122738907543     0.0114932479148     0.035734251033      
3300000000.0        0.0117819051934     0.036824518747      0.984089050404      -0.126545246119     0.984089050404      -0.126545246119     0.0117819051934     0.036824518747      
3400000000.0        0.012078939753      0.0379124149068     0.983540413236      -0.130348931971     0.983540413236      -0.130348931971     0.012078939753      0.0379124149068     
3500000000.0        0.0123843369376     0.0389978720422     0.982975948535      -0.13414988725      0.982975948535      -0.13414988725      0.0123843369376     0.0389978720422     
3600000000.0        0.0126980810625     0.0400808228549     0.982395669507      -0.13794803422      0.982395669507      -0.13794803422      0.0126980810625     0.0400808228549     
3700000000.0        0.0130201554619     0.0411612002277     0.981799590287      -0.141743295263     0.981799590287      -0.141743295263     0.0130201554619     0.0411612002277     
3800000000.0        0.0133505425314     0.0422389372311     0.981187725898      -0.14553559289      0.981187725898      -0.14553559289      0.0133505425314     0.0422389372311     
3900000000.0        0.0136892237655     0.0433139671318     0.980560092215      -0.14932484975      0.980560092215      -0.14932484975      0.0136892237655     0.0433139671318     
4000000000.0        0.0140361797909     0.0443862233994     0.97991670593       -0.153110988636     0.97991670593       -0.153110988636     0.0140361797909     0.0443862233994     
4100000000.0        0.0143913903966     0.0454556397137     0.979257584522      -0.156893932493     0.979257584522      -0.156893932493     0.0143913903966     0.0454556397137     
4200000000.0        0.0147548345608     0.046522149971      0.978582746234      -0.160673604426     0.978582746234      -0.160673604426     0.0147548345608     0.046522149971      
4300000000.0        0.0151264904752     0.0475856882915     0.977892210044      -0.164449927707     0.977892210044      -0.164449927707     0.0151264904752     0.0475856882915     
4400000000.0        0.0155063355673     0.0486461890251     0.977185995648      -0.168222825781     0.977185995648      -0.168222825781     0.0155063355673     0.0486461890251     
4500000000.0        0.0158943465204     0.049703586758      0.976464123438      -0.171992222276     0.976464123438      -0.171992222276     0.0158943465204     0.049703586758      
4600000000.0        0.0162904992918     0.0507578163187     0.975726614483      -0.175758041002     0.975726614483      -0.175758041002     0.0162904992918     0.0507578163187     
4700000000.0        0.0166947691303     0.051808812784      0.974973490514      -0.179520205968     0.974973490514      -0.179520205968     0.0166947691303     0.051808812784      
4800000000.0        0.0171071305909     0.052856511485      0.974204773909      -0.183278641378     0.974204773909      -0.183278641378     0.0171071305909     0.052856511485      
4900000000.0        0.0175275575502     0.0539008480129     0.973420487677      -0.187033271643     0.973420487677      -0.187033271643     0.0175275575502     0.0539008480129     
5000000000.0        0.0179560232191     0.0549417582245     0.972620655448      -0.190784021386     0.972620655448      -0.190784021386     0.0179560232191     0.0549417582245     
5100000000.0        0.0183925001553     0.0559791782475     0.971805301458      -0.194530815445     0.971805301458      -0.194530815445     0.0183925001553     0.0559791782475     
5200000000.0        0.0188369602755     0.0570130444868     0.970974450539      -0.198273578883     0.970974450539      -0.198273578883     0.0188369602755     0.0570130444868     
5300000000.0        0.0192893748658     0.0580432936289     0.970128128108      -0.202012236988     0.970128128108      -0.202012236988     0.0192893748658     0.0580432936289     
5400000000.0        0.0197497145923     0.0590698626477     0.969266360158      -0.205746715285     0.969266360158      -0.205746715285     0.0197497145923     0.0590698626477     
5500000000.0        0.020217949511      0.0600926888097     0.968389173245      -0.209476939535     0.968389173245      -0.209476939535     0.020217949511      0.0600926888097     
5600000000.0        0.0206940490765     0.0611117096787     0.967496594486      -0.213202835745     0.967496594486      -0.213202835745     0.0206940490765     0.0611117096787     
5700000000.0        0.0211779821517     0.0621268631214     0.966588651542      -0.216924330168     0.966588651542      -0.216924330168     0.0211779821517     0.0621268631214     
5800000000.0        0.0216697170154     0.0631380873118     0.965665372618      -0.220641349313     0.965665372618      -0.220641349313     0.0216697170154     0.0631380873118     
5900000000.0        0.022169221371      0.0641453207366     0.964726786447      -0.224353819949     0.964726786447      -0.224353819949     0.022169221371      0.0641453207366     
6000000000.0        0.0226764623535     0.0651485021996     0.963772922291      -0.228061669106     0.963772922291      -0.228061669106     0.0226764623535     0.0651485021996     
6100000000.0        0.0231914065379     0.0661475708264     0.962803809928      -0.231764824083     0.962803809928      -0.231764824083     0.0231914065379     0.0661475708264     
6200000000.0        0.0237140199456     0.0671424660696     0.961819479647      -0.235463212453     0.961819479647      -0.235463212453     0.0237140199456     0.0671424660696     
6300000000.0        0.0242442680518     0.0681331277128     0.96081996224       -0.239156762065     0.96081996224       -0.239156762065     0.0242442680518     0.0681331277128     
6400000000.0        0.024782115792      0.0691194958755     0.959805288999      -0.242845401051     0.959805288999      -0.242845401051     0.024782115792      0.0691194958755     
6500000000.0        0.0253275275689     0.0701015110173     0.958775491706      -0.246529057828     0.958775491706      -0.246529057828     0.0253275275689     0.0701015110173     
6600000000.0        0.0258804672585     0.0710791139426     0.957730602628      -0.250207661106     0.957730602628      -0.250207661106     0.0258804672585     0.0710791139426     
6700000000.0        0.0264408982164     0.0720522458049     0.956670654513      -0.253881139887     0.956670654513      -0.253881139887     0.0264408982164     0.0720522458049     
6800000000.0        0.0270087832843     0.0730208481107     0.955595680582      -0.257549423473     0.955595680582      -0.257549423473     0.0270087832843     0.0730208481107     
6900000000.0        0.0275840847955     0.0739848627243     0.954505714522      -0.26121244147      0.954505714522      -0.26121244147      0.0275840847955     0.0739848627243     
7000000000.0        0.0281667645808     0.0749442318715     0.953400790483      -0.26487012379      0.953400790483      -0.26487012379      0.0281667645808     0.0749442318715     
7100000000.0        0.0287567839751     0.075898898144      0.952280943074      -0.268522400657     0.952280943074      -0.268522400657     0.0287567839751     0.075898898144      
7200000000.0        0.0293541038218     0.0768488045034     0.951146207352      -0.272169202609     0.951146207352      -0.272169202609     0.0293541038218     0.0768488045034     
7300000000.0        0.0299586844797     0.0777938942849     0.949996618823      -0.275810460503     0.949996618823      -0.275810460503     0.0299586844797     0.0777938942849     
7400000000.0        0.0305704858278     0.0787341112015     0.948832213429      -0.279446105517     0.948832213429      -0.279446105517     0.0305704858278     0.0787341112015     
7500000000.0        0.0311894672709     0.0796693993479     0.947653027553      -0.283076069159     0.947653027553      -0.283076069159     0.0311894672709     0.0796693993479     
7600000000.0        0.0318155877454     0.0805997032042     0.946459098004      -0.286700283264     0.946459098004      -0.286700283264     0.0318155877454     0.0805997032042     
7700000000.0        0.0324488057241     0.0815249676397     0.945250462017      -0.290318679999     0.945250462017      -0.290318679999     0.0324488057241     0.0815249676397     
7800000000.0        0.0330890792223     0.0824451379164     0.944027157249      -0.29393119187      0.944027157249      -0.29393119187      0.0330890792223     0.0824451379164     
7900000000.0        0.0337363658022     0.0833601596929     0.94278922177       -0.297537751724     0.94278922177       -0.297537751724     0.0337363658022     0.0833601596929     
8000000000.0        0.0343906225791     0.0842699790279     0.941536694059      -0.301138292749     0.941536694059      -0.301138292749     0.0343906225791     0.0842699790279     
8100000000.0        0.035051806226      0.0851745423838     0.940269613004      -0.30473274848      0.940269613004      -0.30473274848      0.035051806226      0.0851745423838     
8200000000.0        0.0357198729788     0.0860737966297     0.938988017889      -0.308321052805     0.938988017889      -0.308321052805     0.0357198729788     0.0860737966297     
8300000000.0        0.0363947786421     0.0869676890455     0.937691948395      -0.311903139962     0.937691948395      -0.311903139962     0.0363947786421     0.0869676890455     
8400000000.0        0.0370764785936     0.0878561673249     0.936381444594      -0.315478944546     0.936381444594      -0.315478944546     0.0370764785936     0.0878561673249     
8500000000.0        0.0377649277897     0.0887391795786     0.935056546941      -0.319048401513     0.935056546941      -0.319048401513     0.0377649277897     0.0887391795786     
8600000000.0        0.0384600807705     0.0896166743375     0.933717296273      -0.322611446179     0.933717296273      -0.322611446179     0.0384600807705     0.0896166743375     
8700000000.0        0.039161891665      0.0904886005564     0.932363733804      -0.326168014226     0.932363733804      -0.326168014226     0.039161891665      0.0904886005564     
8800000000.0        0.0398703141959     0.0913549076164     0.930995901116      -0.329718041705     0.930995901116      -0.329718041705     0.0398703141959     0.0913549076164     
8900000000.0        0.0405853016851     0.0922155453284     0.92961384016       -0.333261465038     0.92961384016       -0.333261465038     0.0405853016851     0.0922155453284     
9000000000.0        0.0413068070583     0.0930704639362     0.928217593246      -0.336798221017     0.928217593246      -0.336798221017     0.0413068070583     0.0930704639362     
9100000000.0        0.0420347828508     0.093919614119      0.926807203042      -0.340328246816     0.926807203042      -0.340328246816     0.0420347828508     0.093919614119      
9200000000.0        0.0427691812115     0.0947629469946     0.925382712566      -0.343851479982     0.925382712566      -0.343851479982     0.0427691812115     0.0947629469946     
9300000000.0        0.0435099539089     0.0956004141224     0.923944165185      -0.347367858447     0.923944165185      -0.347367858447     0.0435099539089     0.0956004141224     
9400000000.0        0.0442570523357     0.0964319675057     0.922491604606      -0.350877320525     0.922491604606      -0.350877320525     0.0442570523357     0.0964319675057     
9500000000.0        0.0450104275139     0.097257559595      0.921025074874      -0.354379804918     0.921025074874      -0.354379804918     0.0450104275139     0.097257559595      
9600000000.0        0.0457700300998     0.09807714329       0.919544620369      -0.357875250716     0.919544620369      -0.357875250716     0.0457700300998     0.09807714329       
9700000000.0        0.0465358103892     0.0988906719429     0.918050285795      -0.361363597397     0.918050285795      -0.361363597397     0.0465358103892     0.0988906719429     
9800000000.0        0.0473077183222     0.0996980993604     0.916542116181      -0.364844784837     0.916542116181      -0.364844784837     0.0473077183222     0.0996980993604     
9900000000.0        0.0480857034884     0.100499379807      0.915020156875      -0.368318753304     0.915020156875      -0.368318753304     0.0480857034884     0.100499379807      
10000000000.0       0.0488697151318     0.101294468005      0.913484453536      -0.371785443464     0.913484453536      -0.371785443464     0.0488697151318     0.101294468005      
