# Hz S RI R 50.00 
100000000.0         -0.000126345532235  -0.0132190972185    0.999735965705      -0.0137159249095    0.999735965705      -0.0137159249095    -0.000126345532235  -0.0132190972185    
200000000.0         -0.000682800554506  -0.0264230810056    0.999178203838      -0.0274167863591    0.999178203838      -0.0274167863591    -0.000682800554506  -0.0264230810056    
300000000.0         -0.00160048170532   -0.0395975236572    0.998259206081      -0.0410881845086    0.998259206081      -0.0410881845086    -0.00160048170532   -0.0395975236572    
400000000.0         -0.00287737837611   -0.0527280810736    0.99698086442       -0.0547157971631    0.99698086442       -0.0547157971631    -0.00287737837611   -0.0527280810736    
500000000.0         -0.00451076137619   -0.0658005528712    0.995345862424      -0.0682854428655    0.995345862424      -0.0682854428655    -0.00451076137619   -0.0658005528712    
600000000.0         -0.00649717085819   -0.0788009352141    0.993357636645      -0.0817831347435    0.993357636645      -0.0817831347435    -0.00649717085819   -0.0788009352141    
700000000.0         -0.0088324272527    -0.0917154705435    0.991020352825      -0.0951951307535    0.991020352825      -0.0951951307535    -0.0088324272527    -0.0917154705435    
800000000.0         -0.0115116500986    -0.104530694821     0.988338882391      -0.108507981231     0.988338882391      -0.108507981231     -0.0115116500986    -0.104530694821     
900000000.0         -0.0145292817239    -0.117233482305     0.985318776685      -0.12170857387      0.985318776685      -0.12170857387      -0.0145292817239    -0.117233482305     
1000000000.0        -0.0178791147242    -0.129811087709     0.981966238443      -0.134784176026     0.981966238443      -0.134784176026     -0.0178791147242    -0.129811087709     
1100000000.0        -0.0215543226765    -0.142251185557     0.978288090493      -0.147722474176     0.978288090493      -0.147722474176     -0.0215543226765    -0.142251185557     
1200000000.0        -0.0255474936752    -0.154541906542     0.974291741876      -0.160511610361     0.974291741876      -0.160511610361     -0.0255474936752    -0.154541906542     
1300000000.0        -0.0298506663197    -0.166671870714     0.969985151637      -0.173140215436     0.969985151637      -0.173140215436     -0.0298506663197    -0.166671870714     
1400000000.0        -0.034455367802     -0.178630217347     0.965376790602      -0.185597438992     0.965376790602      -0.185597438992     -0.034455367802     -0.178630217347     
1500000000.0        -0.0393526537433    -0.190406631383     0.960475601436      -0.197872975845     0.960475601436      -0.197872975845     -0.0393526537433    -0.190406631383     
1600000000.0        -0.0445331494299    -0.201991366347     0.955290957346      -0.209957088984     0.955290957346      -0.209957088984     -0.0445331494299    -0.201991366347     
1700000000.0        -0.0499870921042    -0.213375263708     0.949832619743      -0.221840628969     0.949832619743      -0.221840628969     -0.0499870921042    -0.213375263708     
1800000000.0        -0.055704373968     -0.224549768663     0.944110695195      -0.233515049739     0.944110695195      -0.233515049739     -0.055704373968     -0.224549768663     
1900000000.0        -0.0616745855671    -0.235506942354     0.938135592026      -0.244972420856     0.938135592026      -0.244972420856     -0.0616745855671    -0.235506942354     
2000000000.0        -0.0678870592347    -0.246239470594     0.931917976844      -0.256205436245     0.931917976844      -0.256205436245     -0.0678870592347    -0.246239470594     
2100000000.0        -0.0743309122877    -0.256740669152     0.925468731336      -0.267207419511     0.925468731336      -0.267207419511     -0.0743309122877    -0.256740669152     
2200000000.0        -0.0809950896848    -0.267004485737     0.918798909592      -0.277972325929     0.918798909592      -0.277972325929     -0.0809950896848    -0.267004485737     
2300000000.0        -0.0878684058777    -0.277025498792     0.91191969625       -0.28849474126      0.91191969625       -0.28849474126      -0.0878684058777    -0.277025498792     
2400000000.0        -0.094939585605     -0.286798913264     0.904842365691      -0.298769877531     0.904842365691      -0.298769877531     -0.094939585605     -0.286798913264     
2500000000.0        -0.102197303404     -0.296320553523     0.89757824252       -0.308793565972     0.89757824252       -0.308793565972     -0.102197303404     -0.296320553523     
2600000000.0        -0.109630221636     -0.30558685362      0.890138663538      -0.318562247281     0.890138663538      -0.318562247281     -0.109630221636     -0.30558685362      
2700000000.0        -0.117227026857     -0.314594845085     0.882534941371      -0.328072959436     0.882534941371      -0.328072959436     -0.117227026857     -0.314594845085     
2800000000.0        -0.124976464366     -0.323342142477     0.874778329909      -0.337323323258     0.874778329909      -0.337323323258     -0.124976464366     -0.323342142477     
2900000000.0        -0.132867370822     -0.331826926913     0.866879991694      -0.346311525945     0.866879991694      -0.346311525945     -0.132867370822     -0.331826926913     
3000000000.0        -0.14088870482      -0.340047927785     0.85885096734       -0.355036302797     0.85885096734       -0.355036302797     -0.14088870482      -0.340047927785     
3100000000.0        -0.149029575345     -0.348004402895     0.850702147075      -0.363496917367     0.850702147075      -0.363496917367     -0.149029575345     -0.348004402895     
3200000000.0        -0.157279268059     -0.355696117231     0.842444244455      -0.371693140237     0.842444244455      -0.371693140237     -0.157279268059     -0.355696117231     
3300000000.0        -0.165627269381     -0.363123320598     0.834087772281      -0.379625226665     0.834087772281      -0.379625226665     -0.165627269381     -0.363123320598     
3400000000.0        -0.174063288355     -0.370286724323     0.825643020731      -0.387293893283     0.825643020731      -0.387293893283     -0.174063288355     -0.370286724323     
3500000000.0        -0.182577276305     -0.377187477217     0.817120037702      -0.394700294085     0.817120037702      -0.394700294085     -0.182577276305     -0.377187477217     
3600000000.0        -0.191159444313     -0.383827141023     0.808528611333      -0.401845995864     0.808528611333      -0.401845995864     -0.191159444313     -0.383827141023     
3700000000.0        -0.199800278556     -0.3902076655       0.799878254669      -0.408732953315     0.799878254669      -0.408732953315     -0.199800278556     -0.3902076655       
3800000000.0        -0.208490553545     -0.396331363342     0.791178192417      -0.415363483949     0.791178192417      -0.415363483949     -0.208490553545     -0.396331363342     
3900000000.0        -0.217221343359     -0.402200885072     0.782437349714      -0.421740243001     0.782437349714      -0.421740243001     -0.217221343359     -0.402200885072     
4000000000.0        -0.225984030925     -0.407819194075     0.773664342848      -0.427866198463     0.773664342848      -0.427866198463     -0.225984030925     -0.407819194075     
4100000000.0        -0.234770315444     -0.4131895419       0.764867471827      -0.433744606395     0.764867471827      -0.433744606395     -0.234770315444     -0.4131895419       
4200000000.0        -0.243572218059     -0.418315443947     0.756054714717      -0.439378986613     0.756054714717      -0.439378986613     -0.243572218059     -0.418315443947     
4300000000.0        -0.252382085846     -0.423200655656     0.747233723644      -0.444773098884     0.747233723644      -0.444773098884     -0.252382085846     -0.423200655656     
4400000000.0        -0.261192594259     -0.427849149288     0.738411822356      -0.449930919714     0.738411822356      -0.449930919714     -0.261192594259     -0.427849149288     
4500000000.0        -0.269996748098     -0.432265091383     0.729596005246      -0.454856619804     0.729596005246      -0.454856619804     -0.269996748098     -0.432265091383     
4600000000.0        -0.278787881147     -0.436452820968     0.720792937721      -0.459554542272     0.720792937721      -0.459554542272     -0.278787881147     -0.436452820968     
4700000000.0        -0.287559654558     -0.440416828575     0.712008957818      -0.46402918166      0.712008957818      -0.46402918166      -0.287559654558     -0.440416828575     
4800000000.0        -0.296306054097     -0.444161736104     0.70325007895       -0.468285163818     0.70325007895       -0.468285163818     -0.296306054097     -0.444161736104     
4900000000.0        -0.305021386364     -0.447692277595     0.694521993694      -0.472327226665     0.694521993694      -0.472327226665     -0.305021386364     -0.447692277595     
5000000000.0        -0.313700274087     -0.45101328091      0.685830078496      -0.476160201882     0.685830078496      -0.476160201882     -0.313700274087     -0.45101328091      
5100000000.0        -0.322337650573     -0.454129650362     0.677179399212      -0.479788997544     0.677179399212      -0.479788997544     -0.322337650573     -0.454129650362     
5200000000.0        -0.33092875344      -0.457046350295     0.668574717386      -0.4832185817       0.668574717386      -0.4832185817       -0.33092875344      -0.457046350295     
5300000000.0        -0.339469117701     -0.459768389623     0.660020497162      -0.486453966918     0.660020497162      -0.486453966918     -0.339469117701     -0.459768389623     
5400000000.0        -0.347954568292     -0.462300807318     0.651520912754      -0.489500195774     0.651520912754      -0.489500195774     -0.347954568292     -0.462300807318     
5500000000.0        -0.356381212131     -0.464648658851     0.643079856389      -0.492362327293     0.643079856389      -0.492362327293     -0.356381212131     -0.464648658851     
5600000000.0        -0.364745429784     -0.46681700355      0.634700946638      -0.49504542432      0.634700946638      -0.49504542432      -0.364745429784     -0.46681700355      
5700000000.0        -0.373043866808     -0.468810892887     0.626387537079      -0.497554541797     0.626387537079      -0.497554541797     -0.373043866808     -0.468810892887     
5800000000.0        -0.381273424848     -0.470635359642     0.618142725194      -0.499894715936     0.618142725194      -0.499894715936     -0.381273424848     -0.470635359642     
5900000000.0        -0.389431252531     -0.472295407937     0.609969361477      -0.502070954256     0.609969361477      -0.502070954256     -0.389431252531     -0.472295407937     
6000000000.0        -0.397514736246     -0.4737960041       0.601870058654      -0.504088226448     0.601870058654      -0.504088226448     -0.397514736246     -0.4737960041       
6100000000.0        -0.405521490833     -0.475142068343     0.593847200997      -0.505951456053     0.593847200997      -0.505951456053     -0.405521490833     -0.475142068343     
6200000000.0        -0.413449350241     -0.4763384672       0.585902953656      -0.507665512905     0.585902953656      -0.507665512905     -0.413449350241     -0.4763384672       
6300000000.0        -0.421296358213     -0.477390006711     0.578039271989      -0.509235206315     0.578039271989      -0.509235206315     -0.421296358213     -0.477390006711     
6400000000.0        -0.429060759007     -0.478301426306     0.570257910827      -0.51066527896      0.570257910827      -0.51066527896      -0.429060759007     -0.478301426306     
6500000000.0        -0.436740988218     -0.479077393354     0.562560433659      -0.511960401432     0.562560433659      -0.511960401432     -0.436740988218     -0.479077393354     
6600000000.0        -0.444335663713     -0.479722498353     0.554948221699      -0.513125167428     0.554948221699      -0.513125167428     -0.444335663713     -0.479722498353     
6700000000.0        -0.45184357671      -0.480241250705     0.547422482797      -0.514164089529     0.547422482797      -0.514164089529     -0.45184357671      -0.480241250705     
6800000000.0        -0.459263683039     -0.480638075058     0.539984260191      -0.515081595544     0.539984260191      -0.515081595544     -0.459263683039     -0.480638075058     
6900000000.0        -0.466595094579     -0.480917308175     0.532634441058      -0.51588202538      0.532634441058      -0.51588202538      -0.466595094579     -0.480917308175     
7000000000.0        -0.473837070913     -0.481083196293     0.525373764868      -0.516569628401     0.525373764868      -0.516569628401     -0.473837070913     -0.481083196293     
7100000000.0        -0.480989011205     -0.481139892941     0.518202831503      -0.517148561251     0.518202831503      -0.517148561251     -0.480989011205     -0.481139892941     
7200000000.0        -0.488050446306     -0.481091457185     0.51112210915       -0.517622886096     0.51112210915       -0.517622886096     -0.488050446306     -0.481091457185     
7300000000.0        -0.495021031111     -0.480941852268     0.504131941944      -0.517996569271     0.504131941944      -0.517996569271     -0.495021031111     -0.480941852268     
7400000000.0        -0.501900537165     -0.480694944615     0.497232557366      -0.518273480281     0.497232557366      -0.518273480281     -0.501900537165     -0.480694944615     
7500000000.0        -0.508688845521     -0.480354503179     0.49042407338       -0.518457391149     0.49042407338       -0.518457391149     -0.508688845521     -0.480354503179     
7600000000.0        -0.515385939871     -0.479924199084     0.483706505306      -0.518551976065     0.483706505306      -0.518551976065     -0.515385939871     -0.479924199084     
7700000000.0        -0.521991899922     -0.479407605564     0.477079772437      -0.518560811322     0.477079772437      -0.518560811322     -0.521991899922     -0.479407605564     
7800000000.0        -0.528506895051     -0.478808198152     0.470543704395      -0.518487375505     0.470543704395      -0.518487375505     -0.528506895051     -0.478808198152     
7900000000.0        -0.534931178213     -0.478129355101     0.464098047213      -0.518335049919     0.464098047213      -0.518335049919     -0.534931178213     -0.478129355101     
8000000000.0        -0.541265080107     -0.477374358024     0.457742469173      -0.518107119223     0.457742469173      -0.518107119223     -0.541265080107     -0.477374358024     
8100000000.0        -0.547509003607     -0.476546392718     0.451476566376      -0.51780677226      0.451476566376      -0.51780677226      -0.547509003607     -0.476546392718     
8200000000.0        -0.553663418438     -0.47564855016      0.445299868063      -0.517437103052     0.445299868063      -0.517437103052     -0.553663418438     -0.47564855016      
8300000000.0        -0.559728856105     -0.474683827656     0.439211841687      -0.51700111195      0.439211841687      -0.51700111195      -0.559728856105     -0.474683827656     
8400000000.0        -0.565705905065     -0.473655130121     0.433211897744      -0.516501706918     0.433211897744      -0.516501706918     -0.565705905065     -0.473655130121     
8500000000.0        -0.571595206131     -0.472565271486     0.427299394363      -0.515941704933     0.427299394363      -0.515941704933     -0.571595206131     -0.472565271486     
8600000000.0        -0.577397448117     -0.471416976197     0.421473641668      -0.515323833493     0.421473641668      -0.515323833493     -0.577397448117     -0.471416976197     
8700000000.0        -0.583113363694     -0.47021288081      0.415733905913      -0.514650732213     0.415733905913      -0.514650732213     -0.583113363694     -0.47021288081      
8800000000.0        -0.588743725481     -0.468955535662     0.410079413401      -0.513924954489     0.410079413401      -0.513924954489     -0.588743725481     -0.468955535662     
8900000000.0        -0.594289342326     -0.467647406607     0.404509354194      -0.513148969241     0.404509354194      -0.513148969241     -0.594289342326     -0.467647406607     
9000000000.0        -0.59975105581      -0.466290876799     0.399022885617      -0.512325162696     0.399022885617      -0.512325162696     -0.59975105581      -0.466290876799     
9100000000.0        -0.605129736933     -0.464888248528     0.393619135563      -0.511455840223     0.393619135563      -0.511455840223     -0.605129736933     -0.464888248528     
9200000000.0        -0.610426282997     -0.46344174508      0.38829720562       -0.510543228196     0.38829720562       -0.510543228196     -0.610426282997     -0.46344174508      
9300000000.0        -0.615641614663     -0.46195351263      0.383056174003      -0.509589475887     0.383056174003      -0.509589475887     -0.615641614663     -0.46195351263      
9400000000.0        -0.620776673191     -0.460425622151     0.377895098324      -0.50859665737      0.377895098324      -0.50859665737      -0.620776673191     -0.460425622151     
9500000000.0        -0.625832417837     -0.458860071328     0.372813018188      -0.507566773449     0.372813018188      -0.507566773449     -0.625832417837     -0.458860071328     
9600000000.0        -0.630809823418     -0.457258786486     0.367808957631      -0.506501753569     0.367808957631      -0.506501753569     -0.630809823418     -0.457258786486     
9700000000.0        -0.635709878022     -0.455623624505     0.36288192741       -0.50540345775      0.36288192741       -0.50540345775      -0.635709878022     -0.455623624505     
9800000000.0        -0.640533580869     -0.453956374741     0.35803092714       -0.504273678491     0.35803092714       -0.504273678491     -0.640533580869     -0.453956374741     
9900000000.0        -0.645281940306     -0.452258760921     0.353254947301      -0.503114142682     0.353254947301      -0.503114142682     -0.645281940306     -0.452258760921     
10000000000.0       -0.64995597194      -0.450532443039     0.348552971104      -0.501926513485     0.348552971104      -0.501926513485     -0.64995597194      -0.450532443039     
