# Hz S RI R 50.00 
100000000.0         -0.00147507129162   -0.038024375561     0.99849924161       -0.0380616052919    0.99849924161       -0.0380616052919    -0.00147507129162   -0.038024375561     
200000000.0         -0.00583536732357   -0.0757127342808    0.994138767837      -0.0757871960742    0.994138767837      -0.0757871960742    -0.00583536732357   -0.0757127342808    
300000000.0         -0.0129931935016    -0.112744981273     0.986980806659      -0.112856678696     0.986980806659      -0.112856678696     -0.0129931935016    -0.112744981273     
400000000.0         -0.0228271203723    -0.148819711929     0.977146765462      -0.148968649509     0.977146765462      -0.148968649509     -0.0228271203723    -0.148819711929     
500000000.0         -0.0351748273819    -0.183661948212     0.96479895635       -0.183848131298     0.96479895635       -0.183848131298     -0.0351748273819    -0.183661948212     
600000000.0         -0.0498395883803    -0.217029422163     0.950134101187      -0.217252856833     0.950134101187      -0.217252856833     -0.0498395883803    -0.217029422163     
700000000.0         -0.0665977300966    -0.248717123125     0.933375870727      -0.248977816117     0.933375870727      -0.248977816117     -0.0665977300966    -0.248717123125     
800000000.0         -0.0852065639729    -0.278559997063     0.914766951904      -0.27885795572      0.914766951904      -0.27885795572      -0.0852065639729    -0.278559997063     
900000000.0         -0.105412310923     -0.306433835552     0.894561122693      -0.306769067779     0.894561122693      -0.306769067779     -0.105412310923     -0.306433835552     
1000000000.0        -0.126957598059     -0.332254516775     0.873015755178      -0.332627030998     0.873015755178      -0.332627030998     -0.126957598059     -0.332254516775     
1100000000.0        -0.14958819457      -0.355975852534     0.850385079572      -0.356385657667     0.850385079572      -0.356385657667     -0.14958819457      -0.355975852534     
1200000000.0        -0.173058756486     -0.377586349903     0.826914439387      -0.378033455318     0.826914439387      -0.378033455318     -0.173058756486     -0.377586349903     
1300000000.0        -0.197137453539     -0.397105214949     0.802835664529      -0.39758963045      0.802835664529      -0.39758963045      -0.197137453539     -0.397105214949     
1400000000.0        -0.2216094451       -0.414577914533     0.778363595337      -0.415099650329     0.778363595337      -0.415099650329     -0.2216094451       -0.414577914533     
1500000000.0        -0.246279248988     -0.430071578147     0.753693713759      -0.43063064483      0.753693713759      -0.43063064483      -0.246279248988     -0.430071578147     
1600000000.0        -0.270972103637     -0.443670473786     0.729000781165      -0.44426688231      0.729000781165      -0.44426688231      -0.270972103637     -0.443670473786     
1700000000.0        -0.295534460265     -0.455471737692     0.704438346174      -0.456105499355     0.704438346174      -0.456105499355     -0.295534460265     -0.455471737692     
1800000000.0        -0.319833759447     -0.46558148391      0.680138968075      -0.466252610333     0.680138968075      -0.466252610333     -0.319833759447     -0.46558148391      
1900000000.0        -0.343757649273     -0.474111370484     0.656214998661      -0.474819873594     0.656214998661      -0.474819873594     -0.343757649273     -0.474111370484     
2000000000.0        -0.367212793928     -0.481175657591     0.632759773645      -0.481921549607     0.632759773645      -0.481921549607     -0.367212793928     -0.481175657591     
2100000000.0        -0.390123405917     -0.486888759995     0.609849080437      -0.487672053409     0.609849080437      -0.487672053409     -0.390123405917     -0.486888759995     
2200000000.0        -0.412429615577     -0.491363272071     0.587542788624      -0.492183979636     0.587542788624      -0.492183979636     -0.412429615577     -0.491363272071     
2300000000.0        -0.434085770576     -0.494708427351     0.565886550472      -0.495566562066     0.565886550472      -0.495566562066     -0.434085770576     -0.494708427351     
2400000000.0        -0.455058737724     -0.497028944989     0.54491349911       -0.497924520085     0.54491349911       -0.497924520085     -0.455058737724     -0.497028944989     
2500000000.0        -0.475326260798     -0.498424211228     0.524645890712      -0.499357240157     0.524645890712      -0.499357240157     -0.475326260798     -0.498424211228     
2600000000.0        -0.494875411915     -0.498987743649     0.505096653114      -0.49995824007      0.505096653114      -0.49995824007      -0.494875411915     -0.498987743649     
2700000000.0        -0.513701160563     -0.498806888375     0.486270816786      -0.499814866143     0.486270816786      -0.499814866143     -0.513701160563     -0.498806888375     
2800000000.0        -0.531805073629     -0.497962704563     0.468166814805      -0.499008177719     0.468166814805      -0.499008177719     -0.531805073629     -0.497962704563     
2900000000.0        -0.549194151473     -0.496529995617     0.450777646776      -0.497612978376     0.450777646776      -0.497612978376     -0.549194151473     -0.496529995617     
3000000000.0        -0.565879799016     -0.494577452021     0.434091907751      -0.495697958763     0.434091907751      -0.495697958763     -0.565879799016     -0.494577452021     
3100000000.0        -0.58187692646      -0.492167876092     0.418094687497      -0.49332592135      0.418094687497      -0.49332592135      -0.58187692646      -0.492167876092     
3200000000.0        -0.597203171477     -0.489358464065     0.402768348321      -0.490554062516     0.402768348321      -0.490554062516     -0.597203171477     -0.489358464065     
3300000000.0        -0.611878232972     -0.486201125522     0.388093191292      -0.487434291983     0.388093191292      -0.487434291983     -0.611878232972     -0.486201125522     
3400000000.0        -0.625923305756     -0.482742824265     0.37404802158       -0.484013573678     0.37404802158       -0.484013573678     -0.625923305756     -0.482742824265     
3500000000.0        -0.639360605251     -0.479025928209     0.360610623745      -0.480334275635     0.360610623745      -0.480334275635     -0.639360605251     -0.479025928209     
3600000000.0        -0.652212971625     -0.475088558834     0.347758157599      -0.476434519446     0.347758157599      -0.476434519446     -0.652212971625     -0.475088558834     
3700000000.0        -0.664503543343     -0.470964933178     0.335467484663      -0.472348522253     0.335467484663      -0.472348522253     -0.664503543343     -0.470964933178     
3800000000.0        -0.676255490801     -0.466685693329     0.323715434526      -0.468106926239     0.323715434526      -0.468106926239     -0.676255490801     -0.466685693329     
3900000000.0        -0.687491801618     -0.46227821997      0.312479019554      -0.463737112177     0.312479019554      -0.463737112177     -0.687491801618     -0.46227821997      
4000000000.0        -0.698235109961     -0.457766927801     0.30173560557       -0.459263494849     0.30173560557       -0.459263494849     -0.698235109961     -0.457766927801     
4100000000.0        -0.708507563185     -0.453173541609     0.291463045204      -0.45470779912      0.291463045204      -0.45470779912      -0.708507563185     -0.453173541609     
4200000000.0        -0.718330719864     -0.448517352535     0.281639779873      -0.450089316199     0.281639779873      -0.450089316199     -0.718330719864     -0.448517352535     
4300000000.0        -0.72772547406      -0.443815454597     0.272244915506      -0.445425140169     0.272244915506      -0.445425140169     -0.72772547406      -0.443815454597     
4400000000.0        -0.736712001367     -0.439082961971     0.263258276496      -0.440730385264     0.263258276496      -0.440730385264     -0.736712001367     -0.439082961971     
4500000000.0        -0.745309722913     -0.434333207778     0.254660441709      -0.436018384657     0.254660441709      -0.436018384657     -0.745309722913     -0.434333207778     
4600000000.0        -0.753537284041     -0.429577925334     0.246432765793      -0.431300871712     0.246432765793      -0.431300871712     -0.753537284041     -0.429577925334     
4700000000.0        -0.761412544897     -0.424827412922     0.238557388594      -0.426588144755     0.238557388594      -0.426588144755     -0.761412544897     -0.424827412922     
4800000000.0        -0.768952580573     -0.420090683203     0.231017235012      -0.421889216485     0.231017235012      -0.421889216485     -0.768952580573     -0.420090683203     
4900000000.0        -0.776173688846     -0.415375598411     0.223796007264      -0.41721194917      0.223796007264      -0.41721194917      -0.776173688846     -0.415375598411     
5000000000.0        -0.783091403847     -0.410688992447     0.216878171213      -0.412563176739     0.216878171213      -0.412563176739     -0.783091403847     -0.410688992447     
5100000000.0        -0.789720514292     -0.406036780969     0.210248938136      -0.407948814874     0.210248938136      -0.407948814874     -0.789720514292     -0.406036780969     
5200000000.0        -0.796075085142     -0.401424060511     0.203894243066      -0.403373960132     0.203894243066      -0.403373960132     -0.796075085142     -0.401424060511     
5300000000.0        -0.802168481746     -0.396855197628     0.197800720649      -0.398842979083     0.197800720649      -0.398842979083     -0.802168481746     -0.396855197628     
5400000000.0        -0.808013395701     -0.392333908973     0.191955679282      -0.394359588395     0.191955679282      -0.394359588395     -0.808013395701     -0.392333908973     
5500000000.0        -0.813621871809     -0.387863333167     0.18634707416       -0.389926926696     0.18634707416       -0.389926926696     -0.813621871809     -0.387863333167     
5600000000.0        -0.819005335613     -0.383446095248     0.180963479735      -0.385547619034     0.180963479735      -0.385547619034     -0.819005335613     -0.383446095248     
5700000000.0        -0.824174621119     -0.379084364428     0.175794061995      -0.381223834624     0.175794061995      -0.381223834624     -0.824174621119     -0.379084364428     
5800000000.0        -0.829139998382     -0.374779905818     0.170828550882      -0.376957338575     0.170828550882      -0.376957338575     -0.829139998382     -0.374779905818     
5900000000.0        -0.833911200694     -0.370534126714     0.166057213098      -0.372749538184     0.166057213098      -0.372749538184     -0.833911200694     -0.370534126714     
6000000000.0        -0.838497451194     -0.366348118018     0.161470825504      -0.368601524346     0.161470825504      -0.368601524346     -0.838497451194     -0.366348118018     
6100000000.0        -0.842907488736     -0.36222269126      0.15706064924       -0.364514108584     0.15706064924       -0.364514108584     -0.842907488736     -0.36222269126      
6200000000.0        -0.847149592934     -0.35815841169      0.152818404687      -0.360487856138     0.152818404687      -0.360487856138     -0.847149592934     -0.35815841169      
6300000000.0        -0.851231608279     -0.354155627844     0.148736247354      -0.356523115533     0.148736247354      -0.356523115533     -0.851231608279     -0.354155627844     
6400000000.0        -0.855160967299     -0.350214497941     0.144806744708      -0.352620044973     0.144806744708      -0.352620044973     -0.855160967299     -0.350214497941     
6500000000.0        -0.858944712722     -0.346335013446     0.141022854019      -0.348778635907     0.141022854019      -0.348778635907     -0.858944712722     -0.346335013446     
6600000000.0        -0.862589518639     -0.342517020095     0.13737790119       -0.344998734052     0.13737790119       -0.344998734052     -0.862589518639     -0.342517020095     
6700000000.0        -0.86610171066      -0.338760236641     0.133865560612      -0.341280058142     0.133865560612      -0.341280058142     -0.86610171066      -0.338760236641     
6800000000.0        -0.869487285077     -0.335064271573     0.130479835989      -0.337622216643     0.130479835989      -0.337622216643     -0.869487285077     -0.335064271573     
6900000000.0        -0.872751927052     -0.331428638002     0.127215042156      -0.334024722646     0.127215042156      -0.334024722646     -0.872751927052     -0.331428638002     
7000000000.0        -0.875901027864     -0.327852766927     0.12406578783       -0.330487007122     0.12406578783       -0.330487007122     -0.875901027864     -0.327852766927     
7100000000.0        -0.878939701233     -0.324336019036     0.121026959292      -0.327008430734     0.121026959292      -0.327008430734     -0.878939701233     -0.324336019036     
7200000000.0        -0.881872798759     -0.320877695201     0.118093704937      -0.323588294328     0.118093704937      -0.323588294328     -0.881872798759     -0.320877695201     
7300000000.0        -0.884704924513     -0.317477045814     0.115261420693      -0.320225848267     0.115261420693      -0.320225848267     -0.884704924513     -0.317477045814     
7400000000.0        -0.88744044882      -0.314133279068     0.112525736232      -0.316920300714     0.112525736232      -0.316920300714     -0.88744044882      -0.314133279068     
7500000000.0        -0.890083521258     -0.310845568316     0.109882501974      -0.313670824991     0.109882501974      -0.313670824991     -0.890083521258     -0.310845568316     
7600000000.0        -0.892638082925     -0.307613058585     0.10732777682       -0.310476566095     0.10732777682       -0.310476566095     -0.892638082925     -0.307613058585     
7700000000.0        -0.895107878003     -0.304434872349     0.104857816585      -0.307336646467     0.104857816585      -0.307336646467     -0.895107878003     -0.304434872349     
7800000000.0        -0.897496464659     -0.301310114639     0.102469063101      -0.304250171105     0.102469063101      -0.304250171105     -0.897496464659     -0.301310114639     
7900000000.0        -0.899807225311     -0.298237877544     0.100158133946      -0.301216232064     0.100158133946      -0.301216232064     -0.899807225311     -0.298237877544     
8000000000.0        -0.902043376309     -0.295217244195     0.0979218127709     -0.298233912441     0.0979218127709     -0.298233912441     -0.902043376309     -0.295217244195     
8100000000.0        -0.90420797704      -0.292247292257     0.0957570401849     -0.295302289867     0.0957570401849     -0.295302289867     -0.90420797704      -0.292247292257     
8200000000.0        -0.906303938517     -0.289327097009     0.0936609051739     -0.292420439585     0.0936609051739     -0.292420439585     -0.906303938517     -0.289327097009     
8300000000.0        -0.908334031458     -0.286455734039     0.0916306370184     -0.289587437146     0.0916306370184     -0.289587437146     -0.908334031458     -0.286455734039     
8400000000.0        -0.910300893897     -0.283632281591     0.0896635976823     -0.28680236076      0.0896635976823     -0.28680236076      -0.910300893897     -0.283632281591     
8500000000.0        -0.912207038354     -0.280855822627     0.0877572746453     -0.284064293352     0.0877572746453     -0.284064293352     -0.912207038354     -0.280855822627     
8600000000.0        -0.91405485858      -0.278125446604     0.0859092741527     -0.28137232434      0.0859092741527     -0.28137232434      -0.91405485858      -0.278125446604     
8700000000.0        -0.915846635922     -0.275440251011     0.0841173148582     -0.27872555118      0.0841173148582     -0.27872555118      -0.915846635922     -0.275440251011     
8800000000.0        -0.917584545303     -0.272799342704     0.0823792218348     -0.276123080688     0.0823792218348     -0.276123080688     -0.917584545303     -0.272799342704     
8900000000.0        -0.919270660872     -0.270201839031     0.0806929209343     -0.273564030178     0.0806929209343     -0.273564030178     -0.919270660872     -0.270201839031     
9000000000.0        -0.920906961311     -0.267646868803     0.0790564334719     -0.271047528421     0.0790564334719     -0.271047528421     -0.920906961311     -0.267646868803     
9100000000.0        -0.922495334849     -0.265133573101     0.0774678712179     -0.268572716461     0.0774678712179     -0.268572716461     -0.922495334849     -0.265133573101     
9200000000.0        -0.92403758398      -0.262661105953     0.0759254316769     -0.266138748291     0.0759254316769     -0.266138748291     -0.92403758398      -0.262661105953     
9300000000.0        -0.925535429912     -0.260228634897     0.0744273936383     -0.263744791411     0.0744273936383     -0.263744791411     -0.925535429912     -0.260228634897     
9400000000.0        -0.926990516767     -0.257835341423     0.0729721129804     -0.261390027273     0.0729721129804     -0.261390027273     -0.926990516767     -0.257835341423     
9500000000.0        -0.928404415533     -0.255480421336     0.0715580187134     -0.259073651647     0.0715580187134     -0.259073651647     -0.928404415533     -0.255480421336     
9600000000.0        -0.929778627797     -0.253163085026     0.0701836092474     -0.256794874886     0.0701836092474     -0.256794874886     -0.929778627797     -0.253163085026     
9700000000.0        -0.931114589272     -0.250882557667     0.0688474488704     -0.254552922128     0.0688474488704     -0.254552922128     -0.931114589272     -0.250882557667     
9800000000.0        -0.932413673113     -0.248638079352     0.0675481644248     -0.25234703343      0.0675481644248     -0.25234703343      -0.932413673113     -0.248638079352     
9900000000.0        -0.933677193059     -0.24642890517      0.0662844421701     -0.250176463844     0.0662844421701     -0.250176463844     -0.933677193059     -0.24642890517      
10000000000.0       -0.934906406396     -0.244254305228     0.0650550248204     -0.248040483444     0.0650550248204     -0.248040483444     -0.934906406396     -0.244254305228     
