# Hz S RI R 50.00 
100000000.0         -0.000102250632189  -0.0109217130766    0.999833590025      -0.0112461813205    0.999833590025      -0.0112461813205    -0.000102250632188  -0.0109217130766    
200000000.0         -0.000481346304082  -0.0218350975181    0.999453900016      -0.0224841012275    0.999453900016      -0.0224841012275    -0.000481346304082  -0.0218350975181    
300000000.0         -0.00110547755332   -0.0327321826656    0.998829179671      -0.033705823833     0.998829179671      -0.033705823833     -0.00110547755332   -0.0327321826656    
400000000.0         -0.00197374090999   -0.0436049971388    0.997960277129      -0.0449034042641    0.997960277129      -0.0449034042641    -0.00197374090999   -0.0436049971388    
500000000.0         -0.00308490423184   -0.0544456052703    0.996848403207      -0.0560689290711    0.996848403207      -0.0560689290711    -0.00308490423184   -0.0544456052703    
600000000.0         -0.00443739759108   -0.0652461322213    0.995495116903      -0.0671945427394    0.995495116903      -0.0671945427394    -0.00443739759108   -0.0652461322213    
700000000.0         -0.00602931460243   -0.0759987858305    0.993902318077      -0.0782724702536    0.993902318077      -0.0782724702536    -0.00602931460243   -0.0759987858305    
800000000.0         -0.00785841708427   -0.0866958768183    0.992072240611      -0.0892950377369    0.992072240611      -0.0892950377369    -0.00785841708427   -0.0866958768183    
900000000.0         -0.00992214163689   -0.0973298378568    0.990007444864      -0.10025469181      0.990007444864      -0.10025469181      -0.00992214163689   -0.0973298378568    
1000000000.0        -0.0122176076806    -0.107893241683     0.987710809143      -0.111144017914     0.987710809143      -0.111144017914     -0.0122176076806    -0.107893241683     
1100000000.0        -0.0147416267438    -0.11837881831      0.985185520146      -0.121955757676     0.985185520146      -0.121955757676     -0.0147416267438    -0.11837881831      
1200000000.0        -0.0174907128664    -0.12877947133      0.982435062395      -0.132682825338     0.982435062395      -0.132682825338     -0.0174907128664    -0.12877947133      
1300000000.0        -0.0204610940179    -0.139088293287     0.979463206722      -0.143318323225     0.979463206722      -0.143318323225     -0.0204610940179    -0.139088293287     
1400000000.0        -0.0236487244312    -0.149298580083     0.976273997864      -0.15385555624      0.976273997864      -0.15385555624      -0.0236487244312    -0.149298580083     
1500000000.0        -0.027049297767     -0.159403844379     0.972871741259      -0.164288045324     0.972871741259      -0.164288045324     -0.027049297767     -0.159403844379     
1600000000.0        -0.0306582610136    -0.169397827952     0.969260989113      -0.174609539886     0.969260989113      -0.174609539886     -0.0306582610136    -0.169397827952     
1700000000.0        -0.0344708290359    -0.179274512985     0.965446525829      -0.184814029136     0.965446525829      -0.184814029136     -0.0344708290359    -0.179274512985     
1800000000.0        -0.0384819996791    -0.189028132256     0.961433352886      -0.194895752319     0.961433352886      -0.194895752319     -0.0384819996791    -0.189028132256     
1900000000.0        -0.0426865693383    -0.198653178204     0.957226673261      -0.204849207833     0.957226673261      -0.204849207833     -0.0426865693383    -0.198653178204     
2000000000.0        -0.0470791489016    -0.208144410872     0.952831875472      -0.214669161197     0.952831875472      -0.214669161197     -0.0470791489016    -0.208144410872     
2100000000.0        -0.0516541799765    -0.217496864702     0.948254517351      -0.224350651888     0.948254517351      -0.224350651888     -0.0516541799765    -0.217496864702     
2200000000.0        -0.0564059513111    -0.226705854203     0.943500309609      -0.233888999033     0.943500309609      -0.233888999033     -0.0564059513111    -0.226705854203     
2300000000.0        -0.0613286153217    -0.23576697848      0.938575099314      -0.243279805974     0.938575099314      -0.243279805974     -0.0613286153217    -0.23576697848      
2400000000.0        -0.0664162046444    -0.244676124661     0.933484853327      -0.252518963714     0.933484853327      -0.252518963714     -0.0664162046444    -0.244676124661     
2500000000.0        -0.0716626486272    -0.253429470218     0.928235641814      -0.261602653266     0.928235641814      -0.261602653266     -0.0716626486272    -0.253429470218     
2600000000.0        -0.0770617896863    -0.262023484231     0.922833621884      -0.270527346936     0.922833621884      -0.270527346936     -0.0770617896863    -0.262023484231     
2700000000.0        -0.0826073994517    -0.270454927617     0.917285021442      -0.279289808576     0.917285021442      -0.279289808576     -0.0826073994517    -0.270454927617     
2800000000.0        -0.0882931946344    -0.278720852358     0.911596123322      -0.287887092831     0.911596123322      -0.287887092831     -0.0882931946344    -0.278720852358     
2900000000.0        -0.0941128525486    -0.286818599786     0.905773249762      -0.296316543438     0.905773249762      -0.296316543438     -0.0941128525486    -0.286818599786     
3000000000.0        -0.100060026232     -0.294745797949     0.899822747285      -0.304575790616     0.899822747285      -0.304575790616     -0.100060026232     -0.294745797949     
3100000000.0        -0.106128359109     -0.302500358131     0.893750972032      -0.312662747592     0.893750972032      -0.312662747592     -0.106128359109     -0.302500358131     
3200000000.0        -0.112311499147     -0.310080470557     0.887564275607      -0.320575606334     0.887564275607      -0.320575606334     -0.112311499147     -0.310080470557     
3300000000.0        -0.118603112463     -0.317484599358     0.88126899147       -0.328312832515     0.88126899147       -0.328312832515     -0.118603112463     -0.317484599358     
3400000000.0        -0.124996896347     -0.324711476835     0.87487142191       -0.335873159804     0.87487142191       -0.335873159804     -0.124996896347     -0.324711476835     
3500000000.0        -0.131486591664     -0.331760097092     0.868377825648      -0.343255583503     0.868377825648      -0.343255583503     -0.131486591664     -0.331760097092     
3600000000.0        -0.138065994611     -0.338629709094     0.861794406076      -0.350459353615     0.861794406076      -0.350459353615     -0.138065994611     -0.338629709094     
3700000000.0        -0.14472896781      -0.3453198092       0.855127300164      -0.357483967396     0.855127300164      -0.357483967396     -0.14472896781      -0.3453198092       
3800000000.0        -0.151469450712     -0.351830133245     0.848382568057      -0.364329161443     0.848382568057      -0.364329161443     -0.151469450712     -0.351830133245     
3900000000.0        -0.158281469314     -0.358160648217     0.841566183357      -0.370994903378     0.841566183357      -0.370994903378     -0.158281469314     -0.358160648217     
4000000000.0        -0.16515914517      -0.364311543588     0.83468402411       -0.377481383194     0.83468402411       -0.377481383194     -0.16515914517      -0.364311543588     
4100000000.0        -0.172096703703     -0.370283222362     0.827741864498      -0.383789004305     0.827741864498      -0.383789004305     -0.172096703703     -0.370283222362     
4200000000.0        -0.179088481813     -0.37607629188      0.820745367228      -0.389918374368     0.820745367228      -0.389918374368     -0.179088481813     -0.37607629188      
4300000000.0        -0.18612893479      -0.38169155445      0.813700076618      -0.395870295909     0.813700076618      -0.395870295909     -0.18612893479      -0.38169155445      
4400000000.0        -0.193212642544     -0.387129997835     0.80661141237       -0.40164575683      0.80661141237       -0.40164575683      -0.193212642544     -0.387129997835     
4500000000.0        -0.200334315159     -0.392392785663     0.799484664013      -0.407245920817     0.799484664013      -0.407245920817     -0.200334315159     -0.392392785663     
4600000000.0        -0.207488797791     -0.397481247786     0.792324986006      -0.412672117712     0.792324986006      -0.412672117712     -0.207488797791     -0.397481247786     
4700000000.0        -0.214671074926     -0.402396870649     0.78513739348       -0.417925833882     0.78513739348       -0.417925833882     -0.214671074926     -0.402396870649     
4800000000.0        -0.22187627402      -0.407141287687     0.777926758602      -0.42300870263      0.777926758602      -0.42300870263      -0.22187627402      -0.407141287687     
4900000000.0        -0.229099668535     -0.411716269809     0.770697807525      -0.427922494672     0.770697807525      -0.427922494672     -0.229099668535     -0.411716269809     
5000000000.0        -0.236336680416     -0.41612371598      0.763455117931      -0.432669108736     0.763455117931      -0.432669108736     -0.236336680416     -0.41612371598      
5100000000.0        -0.243582882008     -0.420365643946     0.756203117097      -0.437250562288     0.756203117097      -0.437250562288     -0.243582882008     -0.420365643946     
5200000000.0        -0.250833997454     -0.424444181133     0.748946080507      -0.44166898243      0.748946080507      -0.44166898243      -0.250833997454     -0.424444181133     
5300000000.0        -0.258085903604     -0.428361555723     0.741688130937      -0.445926596991     0.741688130937      -0.445926596991     -0.258085903604     -0.428361555723     
5400000000.0        -0.265334630455     -0.432120087955     0.734433238018      -0.45002572582      0.734433238018      -0.45002572582      -0.265334630455     -0.432120087955     
5500000000.0        -0.272576361149     -0.435722181657     0.72718521824       -0.453968772331     0.72718521824       -0.453968772331     -0.272576361149     -0.435722181657     
5600000000.0        -0.279807431567     -0.43917031602      0.71994773535       -0.457758215278     0.71994773535       -0.457758215278     -0.279807431567     -0.43917031602      
5700000000.0        -0.28702432954      -0.442467037649     0.712724301152      -0.461396600806     0.712724301152      -0.461396600806     -0.28702432954      -0.442467037649     
5800000000.0        -0.2942236937       -0.445614952879     0.705518276645      -0.464886534772     0.705518276645      -0.464886534772     -0.2942236937       -0.445614952879     
5900000000.0        -0.301402312016     -0.448616720378     0.698332873494      -0.468230675356     0.698332873494      -0.468230675356     -0.301402312016     -0.448616720378     
6000000000.0        -0.308557120025     -0.451475044051     0.6911711558        -0.471431725958     0.6911711558        -0.471431725958     -0.308557120025     -0.451475044051     
6100000000.0        -0.315685198785     -0.45419266623      0.684036042137      -0.474492428401     0.684036042137      -0.474492428401     -0.315685198785     -0.45419266623      
6200000000.0        -0.322783772593     -0.456772361181     0.676930307848      -0.477415556429     0.676930307848      -0.477415556429     -0.322783772593     -0.456772361181     
6300000000.0        -0.329850206472     -0.459216928902     0.669856587545      -0.48020390952      0.669856587545      -0.48020390952      -0.329850206472     -0.459216928902     
6400000000.0        -0.336882003466     -0.461529189234     0.662817377824      -0.482860306989     0.662817377824      -0.482860306989     -0.336882003466     -0.461529189234     
6500000000.0        -0.343876801753     -0.463711976277     0.655815040146      -0.48538758241      0.655815040146      -0.48538758241      -0.343876801753     -0.463711976277     
6600000000.0        -0.350832371613     -0.4657681331       0.64885180387       -0.487788578327     0.64885180387       -0.487788578327     -0.350832371613     -0.4657681331       
6700000000.0        -0.357746612255     -0.467700506758     0.641929769426      -0.490066141275     0.641929769426      -0.490066141275     -0.357746612255     -0.467700506758     
6800000000.0        -0.364617548543     -0.469511943597     0.635050911592      -0.492223117083     0.635050911592      -0.492223117083     -0.364617548543     -0.469511943597     
6900000000.0        -0.371443327617     -0.471205284853     0.628217082868      -0.494262346476     0.628217082868      -0.494262346476     -0.371443327617     -0.471205284853     
7000000000.0        -0.378222215443     -0.472783362525     0.621430016929      -0.496186660953     0.621430016929      -0.496186660953     -0.378222215443     -0.472783362525     
7100000000.0        -0.384952593307     -0.474248995534     0.614691332131      -0.49799887894      0.614691332131      -0.49799887894      -0.384952593307     -0.474248995534     
7200000000.0        -0.391632954256     -0.475604986143     0.608002535067      -0.499701802215     0.608002535067      -0.499701802215     -0.391632954256     -0.475604986143     
7300000000.0        -0.398261899521     -0.476854116634     0.60136502415       -0.50129821259      0.60136502415       -0.50129821259      -0.398261899521     -0.476854116634     
7400000000.0        -0.404838134909     -0.477999146247     0.594780093214      -0.502790868845     0.594780093214      -0.502790868845     -0.404838134909     -0.477999146247     
7500000000.0        -0.411360467205     -0.479042808353     0.588248935116      -0.504182503902     0.588248935116      -0.504182503902     -0.411360467205     -0.479042808353     
7600000000.0        -0.417827800574     -0.479987807859     0.581772645333      -0.505475822237     0.581772645333      -0.505475822237     -0.417827800574     -0.479987807859     
7700000000.0        -0.424239132976     -0.480836818848     0.575352225546      -0.506673497516     0.575352225546      -0.506673497516     -0.424239132976     -0.480836818848     
7800000000.0        -0.430593552621     -0.481592482423     0.568988587187      -0.507778170437     0.568988587187      -0.507778170437     -0.430593552621     -0.481592482423     
7900000000.0        -0.436890234445     -0.48225740476      0.562682554963      -0.508792446792     0.562682554963      -0.508792446792     -0.436890234445     -0.48225740476      
8000000000.0        -0.443128436638     -0.482834155361     0.556434870325      -0.509718895712     0.556434870325      -0.509718895712     -0.443128436638     -0.482834155361     
8100000000.0        -0.449307497218     -0.483325265486     0.550246194895      -0.510560048109     0.550246194895      -0.510560048109     -0.449307497218     -0.483325265486     
8200000000.0        -0.45542683066      -0.483733226772     0.544117113839      -0.511318395283     0.544117113839      -0.511318395283     -0.45542683066      -0.483733226772     
8300000000.0        -0.461485924592     -0.484060490011     0.53804813917       -0.511996387712     0.53804813917       -0.511996387712     -0.461485924592     -0.484060490011     
8400000000.0        -0.46748433655      -0.484309464092     0.532039712991      -0.512596433989     0.532039712991      -0.512596433989     -0.46748433655      -0.484309464092     
8500000000.0        -0.473421690805     -0.484482515093     0.526092210672      -0.513120899914     0.526092210672      -0.513120899914     -0.473421690805     -0.484482515093     
8600000000.0        -0.479297675267     -0.484581965512     0.520205943942      -0.513572107729     0.520205943942      -0.513572107729     -0.479297675267     -0.484581965512     
8700000000.0        -0.485112038459     -0.484610093636     0.514381163915      -0.513952335481     0.514381163915      -0.513952335481     -0.485112038459     -0.484610093636     
8800000000.0        -0.490864586574     -0.484569133028     0.508618064036      -0.514263816518     0.508618064036      -0.514263816518     -0.490864586574     -0.484569133028     
8900000000.0        -0.496555180616     -0.484461272136     0.502916782939      -0.51450873909      0.502916782939      -0.51450873909      -0.496555180616     -0.484461272136     
9000000000.0        -0.50218373361      -0.484288654011     0.497277407235      -0.51468924607      0.497277407235      -0.51468924607      -0.50218373361      -0.484288654011     
9100000000.0        -0.507750207912     -0.484053376122     0.491699974203      -0.514807434774     0.491699974203      -0.514807434774     -0.507750207912     -0.484053376122     
9200000000.0        -0.51325461259      -0.483757490274     0.486184474412      -0.51486535687      0.486184474412      -0.51486535687      -0.51325461259      -0.483757490274     
9300000000.0        -0.518697000893     -0.483403002605     0.480730854244      -0.514865018384     0.480730854244      -0.514865018384     -0.518697000893     -0.483403002605     
9400000000.0        -0.524077467809     -0.482991873671     0.475339018346      -0.514808379777     0.475339018346      -0.514808379777     -0.524077467809     -0.482991873671     
9500000000.0        -0.529396147698     -0.482526018602     0.470008831991      -0.514697356108     0.470008831991      -0.514697356108     -0.529396147698     -0.482526018602     
9600000000.0        -0.534653212014     -0.482007307326     0.464740123353      -0.514533817257     0.464740123353      -0.514533817257     -0.534653212014     -0.482007307326     
9700000000.0        -0.539848867112     -0.481437564863     0.459532685711      -0.514319588213     0.459532685711      -0.514319588213     -0.539848867112     -0.481437564863     
9800000000.0        -0.544983352128     -0.480818571672     0.454386279556      -0.514056449426     0.454386279556      -0.514056449426     -0.544983352128     -0.480818571672     
9900000000.0        -0.55005693695      -0.480152064045     0.449300634629      -0.513746137204     0.449300634629      -0.513746137204     -0.55005693695      -0.480152064045     
10000000000.0       -0.555069920259     -0.479439734563     0.444275451875      -0.513390344163     0.444275451875      -0.513390344163     -0.555069920259     -0.479439734563     
