# Hz S RI R 50.00 
100000000.0         -2.774081711e-05    -0.0177054066407    0.999338457607      -0.0184136782775    0.999338457607      -0.0184136782775    -2.774081711e-05    -0.0177054066407    
200000000.0         -0.00102062026374   -0.0353745383058    0.998340518676      -0.0367910966102    0.998340518676      -0.0367910966102    -0.00102062026374   -0.0353745383058    
300000000.0         -0.00266121149441   -0.0529725854957    0.996695458529      -0.0550974629013    0.996695458529      -0.0550974629013    -0.00266121149441   -0.0529725854957    
400000000.0         -0.00494292689634   -0.070465181623     0.994409318672      -0.0732984249543    0.994409318672      -0.0732984249543    -0.00494292689634   -0.070465181623     
500000000.0         -0.00785694282041   -0.0878186242546    0.991490713134      -0.091360293646     0.991490713134      -0.091360293646     -0.00785694282041   -0.0878186242546    
600000000.0         -0.0113921646852    -0.105000083946     0.98795062988       -0.109250252218     0.98795062988       -0.109250252218     -0.0113921646852    -0.105000083946     
700000000.0         -0.0155353001945    -0.121977800616     0.983802298347      -0.126936552854     0.983802298347      -0.126936552854     -0.0155353001945    -0.121977800616     
800000000.0         -0.0202709705189    -0.138721265678     0.979061056681      -0.14438869892      0.979061056681      -0.14438869892      -0.0202709705189    -0.138721265678     
900000000.0         -0.0255818445028    -0.155201388067     0.973744207932      -0.161577611065     0.973744207932      -0.161577611065     -0.0255818445028    -0.155201388067     
1000000000.0        -0.0314487899448    -0.171390642551     0.967870863921      -0.178475775575     0.967870863921      -0.178475775575     -0.0314487899448    -0.171390642551     
1100000000.0        -0.0378510381733    -0.187263199002     0.961461777969      -0.195057373678     0.961461777969      -0.195057373678     -0.0378510381733    -0.187263199002     
1200000000.0        -0.0447663587843    -0.202795031691     0.954539168558      -0.211298390864     0.954539168558      -0.211298390864     -0.0447663587843    -0.202795031691     
1300000000.0        -0.0521712416484    -0.217964008026     0.947126536315      -0.227176705643     0.947126536315      -0.227176705643     -0.0521712416484    -0.217964008026     
1400000000.0        -0.0600410834282    -0.232749956537     0.939248476837      -0.242672157544     0.939248476837      -0.242672157544     -0.0600410834282    -0.232749956537     
1500000000.0        -0.0683503759721    -0.247134714253     0.930930491846      -0.257766594508     0.930930491846      -0.257766594508     -0.0683503759721    -0.247134714253     
1600000000.0        -0.0770728940982    -0.261102153963     0.92219880109       -0.272443900154     0.92219880109       -0.272443900154     -0.0770728940982    -0.261102153963     
1700000000.0        -0.0861818804573    -0.274638192147     0.913080157256      -0.28669000172      0.913080157256      -0.28669000172      -0.0861818804573    -0.274638192147     
1800000000.0        -0.0956502253737    -0.28773077862      0.903601665959      -0.300492859718     0.903601665959      -0.300492859718     -0.0956502253737    -0.28773077862      
1900000000.0        -0.105450639791     -0.300369869168     0.893790612675      -0.313842440571     0.893790612675      -0.313842440571     -0.105450639791     -0.300369869168     
2000000000.0        -0.115555819702     -0.312547382621     0.883674298214      -0.326730673696     0.883674298214      -0.326730673696     -0.115555819702     -0.312547382621     
2100000000.0        -0.125938600702     -0.324257143953     0.873279884091      -0.339151394607     0.873279884091      -0.339151394607     -0.125938600702     -0.324257143953     
2200000000.0        -0.136572101565     -0.335494815071     0.862634248896      -0.351100275708     0.862634248896      -0.351100275708     -0.136572101565     -0.335494815071     
2300000000.0        -0.147429856015     -0.34625781503      0.851763856473      -0.362574746512     0.851763856473      -0.362574746512     -0.147429856015     -0.34625781503      
2400000000.0        -0.158485932104     -0.356545231403     0.840694636511      -0.373573905017     0.840694636511      -0.373573905017     -0.158485932104     -0.356545231403     
2500000000.0        -0.169715038847     -0.366357724516     0.829451877867      -0.384098421938     0.829451877867      -0.384098421938     -0.169715038847     -0.366357724516     
2600000000.0        -0.181092620013     -0.375697426198     0.818060134767      -0.39415043947      0.818060134767      -0.39415043947      -0.181092620013     -0.375697426198     
2700000000.0        -0.192594935114     -0.384567834648     0.806543145782      -0.403733466147     0.806543145782      -0.403733466147     -0.192594935114     -0.384567834648     
2800000000.0        -0.204199127879     -0.392973706865     0.794923765348      -0.412852269279     0.794923765348      -0.412852269279     -0.204199127879     -0.392973706865     
2900000000.0        -0.215883282593     -0.400920950025     0.783223907405      -0.421512766336     0.783223907405      -0.421512766336     -0.215883282593     -0.400920950025     
3000000000.0        -0.22762646885      -0.408416513042     0.771464500635      -0.429721916503     0.771464500635      -0.429721916503     -0.22762646885      -0.408416513042     
3100000000.0        -0.239408775345     -0.415468279398     0.759665454666      -0.437487613518     0.759665454666      -0.437487613518     -0.239408775345     -0.415468279398     
3200000000.0        -0.251211333419     -0.422084962226     0.747845636506      -0.444818580753     0.747845636506      -0.444818580753     -0.251211333419     -0.422084962226     
3300000000.0        -0.263016331144     -0.428276002463     0.736022856464      -0.451724269372     0.736022856464      -0.451724269372     -0.263016331144     -0.428276002463     
3400000000.0        -0.274807018736     -0.434051470777     0.724213862717      -0.458214760257     0.724213862717      -0.458214760257     -0.274807018736     -0.434051470777     
3500000000.0        -0.286567706147     -0.439421973818     0.712434343725      -0.464300670263     0.712434343725      -0.464300670263     -0.286567706147     -0.439421973818     
3600000000.0        -0.298283753653     -0.444398565266     0.700698937633      -0.469993063266     0.700698937633      -0.469993063266     -0.298283753653     -0.444398565266     
3700000000.0        -0.309941556261     -0.44899266198      0.689021247856      -0.475303366313     0.689021247856      -0.475303366313     -0.309941556261     -0.44899266198      
3800000000.0        -0.321528522748     -0.4532159655       0.677413864044      -0.480243291128     0.677413864044      -0.480243291128     -0.321528522748     -0.4532159655       
3900000000.0        -0.333033050078     -0.457080389026     0.665888387655      -0.48482476109      0.665888387655      -0.48482476109      -0.333033050078     -0.457080389026     
4000000000.0        -0.344444493944     -0.460597989945     0.654455461414      -0.489059843762     0.654455461414      -0.489059843762     -0.344444493944     -0.460597989945     
4100000000.0        -0.355753136114     -0.46378090787      0.643124801964      -0.492960688932     0.643124801964      -0.492960688932     -0.355753136114     -0.46378090787      
4200000000.0        -0.366950149206     -0.466641308136     0.631905235087      -0.496539472108     0.631905235087      -0.496539472108     -0.366950149206     -0.466641308136     
4300000000.0        -0.378027559493     -0.469191330603     0.6208047329        -0.499808343324     0.6208047329        -0.499808343324     -0.378027559493     -0.469191330603     
4400000000.0        -0.388978208253     -0.471443043612     0.609830452497      -0.502779381099     0.609830452497      -0.502779381099     -0.388978208253     -0.471443043612     
4500000000.0        -0.399795712163     -0.473408402877     0.598988775562      -0.505464551325     0.598988775562      -0.505464551325     -0.399795712163     -0.473408402877     
4600000000.0        -0.410474423146     -0.475099215086     0.588285348516      -0.507875670874     0.588285348516      -0.507875670874     -0.410474423146     -0.475099215086     
4700000000.0        -0.42100938806      -0.476527105953     0.577725122822      -0.510024375649     0.577725122822      -0.510024375649     -0.42100938806      -0.476527105953     
4800000000.0        -0.431396308562     -0.477703492471     0.56731239513       -0.511922092837     0.56731239513       -0.511922092837     -0.431396308562     -0.477703492471     
4900000000.0        -0.441631501427     -0.478639559067     0.557050846947      -0.513580017067     0.557050846947      -0.513580017067     -0.441631501427     -0.478639559067     
5000000000.0        -0.45171185957      -0.47934623741      0.546943583623      -0.515009090219     0.546943583623      -0.515009090219     -0.45171185957      -0.47934623741      
5100000000.0        -0.461634813971     -0.479834189584     0.536993172415      -0.516219984595     0.536993172415      -0.516219984595     -0.461634813971     -0.479834189584     
5200000000.0        -0.47139829668      -0.480113794344     0.52720167949       -0.517223089181     0.52720167949       -0.517223089181     -0.47139829668      -0.480113794344     
5300000000.0        -0.481000705033     -0.480195136214     0.517570705705      -0.518028498741     0.517570705705      -0.518028498741     -0.481000705033     -0.480195136214     
5400000000.0        -0.490440867182     -0.480087997151     0.508101421071      -0.518646005485     0.508101421071      -0.518646005485     -0.490440867182     -0.480087997151     
5500000000.0        -0.499718009037     -0.479801850538     0.498794597822      -0.519085093059     0.498794597822      -0.519085093059     -0.499718009037     -0.479801850538     
5600000000.0        -0.508831722651     -0.479345857267     0.489650642016      -0.519354932637     0.489650642016      -0.519354932637     -0.508831722651     -0.479345857267     
5700000000.0        -0.51778193611      -0.478728863705     0.480669623656      -0.519464380878     0.480669623656      -0.519464380878     -0.51778193611      -0.478728863705     
5800000000.0        -0.526568884935     -0.477959401314     0.471851305279      -0.519421979553     0.471851305279      -0.519421979553     -0.526568884935     -0.477959401314     
5900000000.0        -0.535193084997     -0.477045687748     0.463195169044      -0.519235956643     0.463195169044      -0.519235956643     -0.535193084997     -0.477045687748     
6000000000.0        -0.543655306943     -0.475995629243     0.454700442306      -0.518914228728     0.454700442306      -0.518914228728     -0.543655306943     -0.475995629243     
6100000000.0        -0.551956552113     -0.474816824128     0.446366121697      -0.518464404496     0.446366121697      -0.518464404496     -0.551956552113     -0.474816824128     
6200000000.0        -0.560098029909     -0.473516567305     0.438190995758      -0.517893789231     0.438190995758      -0.517893789231     -0.560098029909     -0.473516567305     
6300000000.0        -0.568081136585     -0.472101855565     0.430173666145      -0.517209390122     0.430173666145      -0.517209390122     -0.568081136585     -0.472101855565     
6400000000.0        -0.575907435419     -0.470579393597     0.422312567461      -0.51641792228      0.422312567461      -0.51641792228      -0.575907435419     -0.470579393597     
6500000000.0        -0.583578638209     -0.46895560059      0.414605985758      -0.515525815335     0.414605985758      -0.515525815335     -0.583578638209     -0.46895560059      
6600000000.0        -0.591096588049     -0.467236617305     0.40705207576       -0.514539220513     0.40705207576       -0.514539220513     -0.591096588049     -0.467236617305     
6700000000.0        -0.598463243322     -0.465428313538     0.399648876866      -0.513464018097     0.399648876866      -0.513464018097     -0.598463243322     -0.465428313538     
6800000000.0        -0.605680662873     -0.46353629588      0.392394327988      -0.512305825188     0.392394327988      -0.512305825188     -0.605680662873     -0.46353629588      
6900000000.0        -0.612750992275     -0.461565915693     0.38528628127       -0.511070003684     0.38528628127       -0.511070003684     -0.612750992275     -0.461565915693     
7000000000.0        -0.619676451163     -0.45952227725      0.378322514763      -0.50976166842      0.378322514763      -0.50976166842      -0.619676451163     -0.45952227725      
7100000000.0        -0.626459321555     -0.457410245962     0.371500744101      -0.508385695393     0.371500744101      -0.508385695393     -0.626459321555     -0.457410245962     
7200000000.0        -0.633101937118     -0.455234456651     0.364818633236      -0.506946730041     0.364818633236      -0.506946730041     -0.633101937118     -0.455234456651     
7300000000.0        -0.639606673317     -0.452999321818     0.358273804286      -0.505449195506     0.358273804286      -0.505449195506     -0.639606673317     -0.452999321818     
7400000000.0        -0.645975938393     -0.450709039869     0.351863846557      -0.503897300863     0.351863846557      -0.503897300863     -0.645975938393     -0.450709039869     
7500000000.0        -0.65221216513      -0.448367603256     0.345586324779      -0.502295049267     0.345586324779      -0.502295049267     -0.65221216513      -0.448367603256     
7600000000.0        -0.658317803339     -0.445978806519     0.339438786619      -0.500646245986     0.339438786619      -0.500646245986     -0.658317803339     -0.445978806519     
7700000000.0        -0.664295313031     -0.443546254189     0.333418769506      -0.498954506313     0.333418769506      -0.498954506313     -0.664295313031     -0.443546254189     
7800000000.0        -0.670147158225     -0.44107336854      0.327523806825      -0.497223263314     0.327523806825      -0.497223263314     -0.670147158225     -0.44107336854      
7900000000.0        -0.675875801346     -0.438563397165     0.321751433519      -0.495455775407     0.321751433519      -0.495455775407     -0.675875801346     -0.438563397165     
8000000000.0        -0.681483698169     -0.436019420372     0.316099191144      -0.493655133759     0.316099191144      -0.493655133759     -0.681483698169     -0.436019420372     
8100000000.0        -0.686973293278     -0.433444358381     0.310564632407      -0.491824269482     0.310564632407      -0.491824269482     -0.686973293278     -0.433444358381     
8200000000.0        -0.692347015997     -0.430840978313     0.305145325241      -0.489965960623     0.305145325241      -0.489965960623     -0.692347015997     -0.430840978313     
8300000000.0        -0.697607276751     -0.428211900972     0.299838856436      -0.48808283895      0.299838856436      -0.48808283895      -0.697607276751     -0.428211900972     
8400000000.0        -0.702756463836     -0.425559607404     0.294642834873      -0.486177396506     0.294642834873      -0.486177396506     -0.702756463836     -0.425559607404     
8500000000.0        -0.707796940564     -0.422886445241     0.28955489438       -0.484251991962     0.28955489438       -0.484251991962     -0.707796940564     -0.422886445241     
8600000000.0        -0.712731042739     -0.420194634827     0.284572696251      -0.482308856733     0.284572696251      -0.482308856733     -0.712731042739     -0.420194634827     
8700000000.0        -0.717561076461     -0.417486275115     0.279693931447      -0.480350100884     0.279693931447      -0.480350100884     -0.717561076461     -0.417486275115     
8800000000.0        -0.722289316206     -0.414763349351     0.274916322508      -0.478377718816     0.274916322508      -0.478377718816     -0.722289316206     -0.414763349351     
8900000000.0        -0.726918003186     -0.412027730542     0.270237625203      -0.476393594725     0.270237625203      -0.476393594725     -0.726918003186     -0.412027730542     
9000000000.0        -0.731449343936     -0.409281186706     0.265655629932      -0.474399507863     0.265655629932      -0.474399507863     -0.731449343936     -0.409281186706     
9100000000.0        -0.735885509134     -0.406525385911     0.261168162914      -0.472397137572     0.261168162914      -0.472397137572     -0.735885509134     -0.406525385911     
9200000000.0        -0.740228632616     -0.403761901112     0.256773087166      -0.470388068125     0.256773087166      -0.470388068125     -0.740228632616     -0.403761901112     
9300000000.0        -0.744480810581     -0.400992214784     0.252468303302      -0.468373793357     0.252468303302      -0.468373793357     -0.744480810581     -0.400992214784     
9400000000.0        -0.748644100956     -0.398217723357     0.248251750163      -0.466355721104     0.248251750163      -0.466355721104     -0.748644100956     -0.398217723357     
9500000000.0        -0.752720522924     -0.395439741463     0.244121405293      -0.464335177445     0.244121405293      -0.464335177445     -0.752720522924     -0.395439741463     
9600000000.0        -0.756712056576     -0.392659505997     0.240075285283      -0.462313410771     0.240075285283      -0.462313410771     -0.756712056576     -0.392659505997     
9700000000.0        -0.760620642698     -0.389878179994     0.236111445986      -0.46029159566      0.236111445986      -0.46029159566      -0.760620642698     -0.389878179994     
9800000000.0        -0.764448182665     -0.387096856341     0.23222798262       -0.458270836585     0.23222798262       -0.458270836585     -0.764448182665     -0.387096856341     
9900000000.0        -0.768196538438     -0.384316561309     0.228423029776      -0.456252171457     0.228423029776      -0.456252171457     -0.768196538438     -0.384316561309     
10000000000.0       -0.77186753265      -0.381538257937     0.224694761324      -0.454236574999     0.224694761324      -0.454236574999     -0.77186753265      -0.381538257937     
