# Hz S RI R 50.00 
100000000.0         0.000272410007961   -0.00503940418191   0.99964026519       -0.00716167774676   0.99964026519       -0.00716167774676   0.000272410007961   -0.00503940418191   
200000000.0         0.000160317888392   -0.0100778784062    0.99951714994       -0.0143225384596    0.99951714994       -0.0143225384596    0.000160317888393   -0.0100778784062    
300000000.0         -2.44904859484e-05  -0.0151143776933    0.999317902327      -0.0214816180121    0.999317902327      -0.0214816180121    -2.44904859484e-05  -0.0151143776933    
400000000.0         -0.000281705978012  -0.020147797623     0.999042285672      -0.0286378745631    0.999042285672      -0.0286378745631    -0.000281705978012  -0.020147797623     
500000000.0         -0.000611165329306  -0.0251770027668    0.998690251917      -0.0357902274104    0.998690251917      -0.0357902274104    -0.000611165329305  -0.0251770027668    
600000000.0         -0.00101273371914   -0.0302008375308    0.998261826741      -0.0429375708346    0.998261826741      -0.0429375708346    -0.00101273371914   -0.0302008375308    
700000000.0         -0.00148627439383   -0.0352181321244    0.997757080966      -0.0500787815047    0.997757080966      -0.0500787815047    -0.00148627439383   -0.0352181321244    
800000000.0         -0.00203163726417   -0.0402277064738    0.997176120485      -0.0572127232195    0.997176120485      -0.0572127232195    -0.00203163726417   -0.0402277064738    
900000000.0         -0.00264865362562   -0.0452283730837    0.99651908199       -0.0643382503029    0.99651908199       -0.0643382503029    -0.00264865362562   -0.0452283730837    
1000000000.0        -0.00333713335309   -0.0502189392961    0.99578613096       -0.0714542102306    0.99578613096       -0.0714542102306    -0.00333713335309   -0.0502189392961    
1100000000.0        -0.00409686326293   -0.0551982091733    0.994977460613      -0.07855944578      0.994977460613      -0.07855944578      -0.00409686326293   -0.0551982091733    
1200000000.0        -0.00492760609494   -0.0601649851312    0.994093291342      -0.0856527968655    0.994093291342      -0.0856527968655    -0.00492760609494   -0.0601649851312    
1300000000.0        -0.00582909985716   -0.0651180693989    0.993133870369      -0.0927331021562    0.993133870369      -0.0927331021562    -0.00582909985716   -0.0651180693989    
1400000000.0        -0.00680105740175   -0.0700562653525    0.992099471518      -0.0997992005343    0.992099471518      -0.0997992005343    -0.00680105740175   -0.0700562653525    
1500000000.0        -0.00784316615935   -0.0749783787535    0.990990395038      -0.106849932437     0.990990395038      -0.106849932437     -0.00784316615935   -0.0749783787535    
1600000000.0        -0.00895508798925   -0.0798832189132    0.989806967442      -0.113884141103     0.989806967442      -0.113884141103     -0.00895508798925   -0.0798832189132    
1700000000.0        -0.0101364591195    -0.0847695997973    0.988549541347      -0.120900673752     0.988549541347      -0.120900673752     -0.0101364591195    -0.0847695997973    
1800000000.0        -0.0113868901596    -0.089636341081     0.987218495297      -0.127898382699     0.987218495297      -0.127898382699     -0.0113868901596    -0.089636341081     
1900000000.0        -0.0127059661752    -0.0944822691614    0.985814233568      -0.134876126416     0.985814233568      -0.134876126416     -0.0127059661752    -0.0944822691614    
2000000000.0        -0.0140932468156    -0.0993062181334    0.984337185947      -0.141832770558     0.984337185947      -0.141832770558     -0.0140932468156    -0.0993062181334    
2100000000.0        -0.0155482664895    -0.104107030731     0.982787807487      -0.148767188938     0.982787807487      -0.148767188938     -0.0155482664895    -0.104107030731     
2200000000.0        -0.017070534584     -0.108883559239     0.981166578231      -0.15567826448      0.981166578231      -0.15567826448      -0.017070534584     -0.108883559239     
2300000000.0        -0.0186595357234    -0.113634666373     0.979474002912      -0.162564890127     0.979474002912      -0.162564890127     -0.0186595357234    -0.113634666373     
2400000000.0        -0.0203147300646    -0.118359226138     0.97771061062       -0.169425969724     0.97771061062       -0.169425969724     -0.0203147300646    -0.118359226138     
2500000000.0        -0.0220355536279    -0.123056124651     0.975876954444      -0.176260418872     0.975876954444      -0.176260418872     -0.0220355536279    -0.123056124651     
2600000000.0        -0.0238214186598    -0.127724260946     0.973973611086      -0.183067165748     0.973973611086      -0.183067165748     -0.0238214186598    -0.127724260946     
2700000000.0        -0.0256717140269    -0.132362547745     0.97200118045       -0.189845151906     0.97200118045       -0.189845151906     -0.0256717140269    -0.132362547745     
2800000000.0        -0.0275858056388    -0.136969912213     0.969960285203      -0.196593333041     0.969960285203      -0.196593333041     -0.0275858056388    -0.136969912213     
2900000000.0        -0.0295630368984    -0.141545296679     0.967851570307      -0.20331067973      0.967851570307      -0.20331067973      -0.0295630368984    -0.141545296679     
3000000000.0        -0.031602729178     -0.146087659331     0.965675702541      -0.209996178145     0.965675702541      -0.209996178145     -0.031602729178     -0.146087659331     
3100000000.0        -0.0337041823206    -0.150595974894     0.963433369982      -0.216648830744     0.963433369982      -0.216648830744     -0.0337041823206    -0.150595974894     
3200000000.0        -0.035866675164     -0.15506923527      0.961125281478      -0.223267656921     0.961125281478      -0.223267656921     -0.035866675164     -0.15506923527      
3300000000.0        -0.0380894660865    -0.159506450159     0.958752166094      -0.229851693645     0.958752166094      -0.229851693645     -0.0380894660865    -0.159506450159     
3400000000.0        -0.0403717935734    -0.163906647655     0.956314772539      -0.236399996059     0.956314772539      -0.236399996059     -0.0403717935734    -0.163906647655     
3500000000.0        -0.0427128768029    -0.168268874805     0.953813868577      -0.242911638059     0.953813868577      -0.242911638059     -0.0427128768029    -0.168268874805     
3600000000.0        -0.0451119162492    -0.172592198151     0.951250240416      -0.249385712838     0.951250240416      -0.249385712838     -0.0451119162492    -0.172592198151     
3700000000.0        -0.0475680943027    -0.176875704242     0.948624692088      -0.25582133341      0.948624692088      -0.25582133341      -0.0475680943027    -0.176875704242     
3800000000.0        -0.0500805759053    -0.181118500114     0.945938044808      -0.262217633102     0.945938044808      -0.262217633102     -0.0500805759053    -0.181118500114     
3900000000.0        -0.0526485091999    -0.185319713749     0.943191136318      -0.26857376601      0.943191136318      -0.26857376601      -0.0526485091999    -0.185319713749     
4000000000.0        -0.0552710261921    -0.189478494501     0.940384820231      -0.274888907446     0.940384820231      -0.274888907446     -0.0552710261921    -0.189478494501     
4100000000.0        -0.0579472434239    -0.193594013493     0.937519965345      -0.281162254332     0.937519965345      -0.281162254332     -0.0579472434239    -0.193594013493     
4200000000.0        -0.0606762626575    -0.197665463993     0.934597454963      -0.287393025589     0.934597454963      -0.287393025589     -0.0606762626575    -0.197665463993     
4300000000.0        -0.0634571715678    -0.201692061757     0.931618186196      -0.293580462479     0.931618186196      -0.293580462479     -0.0634571715678    -0.201692061757     
4400000000.0        -0.0662890444433    -0.205673045341     0.928583069261      -0.29972382893      0.928583069261      -0.29972382893      -0.0662890444433    -0.205673045341     
4500000000.0        -0.0691709428927    -0.209607676392     0.92549302677       -0.305822411826     0.92549302677       -0.305822411826     -0.0691709428927    -0.209607676392     
4600000000.0        -0.0721019165574    -0.213495239905     0.922348993019      -0.311875521275     0.922348993019      -0.311875521275     -0.0721019165574    -0.213495239905     
4700000000.0        -0.0750810038279    -0.217335044456     0.919151913265      -0.317882490842     0.919151913265      -0.317882490842     -0.0750810038279    -0.217335044456     
4800000000.0        -0.0781072325639    -0.221126422405     0.915902743011      -0.323842677761     0.915902743011      -0.323842677761     -0.0781072325639    -0.221126422405     
4900000000.0        -0.081179620815     -0.224868730074     0.912602447276      -0.329755463112     0.912602447276      -0.329755463112     -0.081179620815     -0.224868730074     
5000000000.0        -0.0842971775435    -0.228561347898     0.909251999876      -0.335620251978     0.909251999876      -0.335620251978     -0.0842971775435    -0.228561347898     
5100000000.0        -0.0874589033459    -0.232203680543     0.905852382698      -0.341436473569     0.905852382698      -0.341436473569     -0.0874589033459    -0.232203680543     
5200000000.0        -0.0906637911735    -0.235795157005     0.902404584979      -0.347203581325     0.902404584979      -0.347203581325     -0.0906637911735    -0.235795157005     
5300000000.0        -0.0939108270507    -0.239335230683     0.898909602585      -0.352921052986     0.898909602585      -0.352921052986     -0.0939108270507    -0.239335230683     
5400000000.0        -0.0971989907894    -0.242823379418     0.895368437296      -0.358588390641     0.895368437296      -0.358588390641     -0.0971989907894    -0.242823379418     
5500000000.0        -0.100527256699     -0.246259105517     0.891782096095      -0.364205120752     0.891782096095      -0.364205120752     -0.100527256699     -0.246259105517     
5600000000.0        -0.103894594293     -0.249641935744     0.888151590456      -0.369770794149     0.888151590456      -0.369770794149     -0.103894594293     -0.249641935744     
5700000000.0        -0.107299968984     -0.252971421294     0.884477935653      -0.375284986005     0.884477935653      -0.375284986005     -0.107299968984     -0.252971421294     
5800000000.0        -0.110742342781     -0.256247137735     0.880762150056      -0.380747295781     0.880762150056      -0.380747295781     -0.110742342781     -0.256247137735     
5900000000.0        -0.114220674965     -0.259468684937     0.877005254455      -0.38615734716      0.877005254455      -0.38615734716      -0.114220674965     -0.259468684937     
6000000000.0        -0.117733922774     -0.262635686969     0.873208271379      -0.391514787941     0.873208271379      -0.391514787941     -0.117733922774     -0.262635686969     
6100000000.0        -0.121281042058     -0.26574779198      0.869372224429      -0.396819289926     0.869372224429      -0.396819289926     -0.121281042058     -0.26574779198      
6200000000.0        -0.124860987941     -0.268804672055     0.865498137621      -0.40207054878      0.865498137621      -0.40207054878      -0.124860987941     -0.268804672055     
6300000000.0        -0.128472715465     -0.271806023056     0.861587034743      -0.407268283866     0.861587034743      -0.407268283866     -0.128472715465     -0.271806023056     
6400000000.0        -0.132115180215     -0.274751564436     0.857639938718      -0.41241223807      0.857639938718      -0.41241223807      -0.132115180215     -0.274751564436     
6500000000.0        -0.135787338952     -0.27764103904      0.853657870981      -0.417502177596     0.853657870981      -0.417502177596     -0.135787338952     -0.27764103904      
6600000000.0        -0.139488150207     -0.280474212883     0.849641850873      -0.422537891749     0.849641850873      -0.422537891749     -0.139488150207     -0.280474212883     
6700000000.0        -0.143216574885     -0.283250874914     0.845592895044      -0.427519192703     0.845592895044      -0.427519192703     -0.143216574885     -0.283250874914     
6800000000.0        -0.146971576841     -0.285970836758     0.841512016867      -0.432445915239     0.841512016867      -0.432445915239     -0.146971576841     -0.285970836758     
6900000000.0        -0.150752123449     -0.288633932452     0.837400225877      -0.437317916483     0.837400225877      -0.437317916483     -0.150752123449     -0.288633932452     
7000000000.0        -0.154557186149     -0.291240018149     0.83325852721       -0.442135075616     0.83325852721       -0.442135075616     -0.154557186149     -0.291240018149     
7100000000.0        -0.158385740986     -0.293788971826     0.82908792107       -0.446897293576     0.82908792107       -0.446897293576     -0.158385740986     -0.293788971826     
7200000000.0        -0.162236769134     -0.296280692962     0.824889402204      -0.451604492746     0.824889402204      -0.451604492746     -0.162236769134     -0.296280692962     
7300000000.0        -0.166109257394     -0.298715102215     0.820663959397      -0.456256616621     0.820663959397      -0.456256616621     -0.166109257394     -0.298715102215     
7400000000.0        -0.170002198691     -0.301092141078     0.816412574976      -0.460853629471     0.816412574976      -0.460853629471     -0.170002198691     -0.301092141078     
7500000000.0        -0.173914592542     -0.30341177153      0.81213622434       -0.465395515994     0.81213622434       -0.465395515994     -0.173914592542     -0.30341177153      
7600000000.0        -0.177845445512     -0.305673975667     0.807835875499      -0.469882280945     0.807835875499      -0.469882280945     -0.177845445512     -0.305673975667     
7700000000.0        -0.181793771659     -0.307878755338     0.80351248863       -0.474313948771     0.80351248863       -0.474313948771     -0.181793771659     -0.307878755338     
7800000000.0        -0.185758592953     -0.310026131752     0.799167015657      -0.478690563222     0.799167015657      -0.478690563222     -0.185758592953     -0.310026131752     
7900000000.0        -0.189738939685     -0.312116145098     0.794800399836      -0.483012186968     0.794800399836      -0.483012186968     -0.189738939685     -0.312116145098     
8000000000.0        -0.193733850853     -0.314148854134     0.790413575368      -0.487278901194     0.790413575368      -0.487278901194     -0.193733850853     -0.314148854134     
8100000000.0        -0.197742374538     -0.316124335793     0.786007467022      -0.491490805196     0.786007467022      -0.491490805196     -0.197742374538     -0.316124335793     
8200000000.0        -0.201763568262     -0.318042684759     0.781582989776      -0.495648015969     0.781582989776      -0.495648015969     -0.201763568262     -0.318042684759     
8300000000.0        -0.205796499319     -0.319904013058     0.777141048479      -0.499750667791     0.777141048479      -0.499750667791     -0.205796499319     -0.319904013058     
8400000000.0        -0.209840245105     -0.321708449629     0.772682537522      -0.503798911792     0.772682537522      -0.503798911792     -0.209840245105     -0.321708449629     
8500000000.0        -0.213893893421     -0.323456139899     0.768208340535      -0.507792915537     0.768208340535      -0.507792915537     -0.213893893421     -0.323456139899     
8600000000.0        -0.217956542757     -0.325147245347     0.763719330092      -0.511732862585     0.763719330092      -0.511732862585     -0.217956542757     -0.325147245347     
8700000000.0        -0.222027302571     -0.326781943078     0.759216367441      -0.515618952059     0.759216367441      -0.515618952059     -0.222027302571     -0.326781943078     
8800000000.0        -0.226105293542     -0.328360425375     0.75470030224       -0.519451398208     0.75470030224       -0.519451398208     -0.226105293542     -0.328360425375     
8900000000.0        -0.230189647808     -0.329882899271     0.750171972321      -0.523230429967     0.750171972321      -0.523230429967     -0.230189647808     -0.329882899271     
9000000000.0        -0.234279509191     -0.331349586099     0.745632203458      -0.526956290517     0.745632203458      -0.526956290517     -0.234279509191     -0.331349586099     
9100000000.0        -0.238374033405     -0.332760721058     0.741081809162      -0.530629236844     0.741081809162      -0.530629236844     -0.238374033405     -0.332760721058     
9200000000.0        -0.242472388247     -0.334116552769     0.736521590483      -0.534249539295     0.736521590483      -0.534249539295     -0.242472388247     -0.334116552769     
9300000000.0        -0.246573753775     -0.335417342835     0.731952335833      -0.537817481141     0.731952335833      -0.537817481141     -0.246573753775     -0.335417342835     
9400000000.0        -0.250677322469     -0.3366633654       0.727374820819      -0.541333358135     0.727374820819      -0.541333358135     -0.250677322469     -0.3366633654       
9500000000.0        -0.254782299377     -0.337854906714     0.722789808094      -0.54479747807      0.722789808094      -0.54479747807      -0.254782299377     -0.337854906714     
9600000000.0        -0.25888790225      -0.338992264691     0.718198047223      -0.548210160347     0.718198047223      -0.548210160347     -0.25888790225      -0.338992264691     
9700000000.0        -0.262993361659     -0.34007574848      0.713600274564      -0.551571735534     0.713600274564      -0.551571735534     -0.262993361659     -0.34007574848      
9800000000.0        -0.267097921098     -0.341105678031     0.708997213154      -0.554882544939     0.708997213154      -0.554882544939     -0.267097921098     -0.341105678031     
9900000000.0        -0.271200837076     -0.342082383665     0.704389572624      -0.558142940179     0.704389572624      -0.558142940179     -0.271200837076     -0.342082383665     
10000000000.0       -0.275301379194     -0.343006205654     0.69977804911       -0.561353282754     0.69977804911       -0.561353282754     -0.275301379194     -0.343006205654     
