# Hz S RI R 50.00 
100000000.0         0.000167569661761   -6.85610854705e-05  0.999830920486      -0.000367063601992  0.999830920486      -0.000367063601992  0.000167569661761   -6.85610854706e-05  
200000000.0         0.000168415673841   -0.000137124191844  0.999829374831      -0.0007341296098    0.999829374831      -0.0007341296098    0.000168415673841   -0.000137124191845  
300000000.0         0.000168915767395   -0.000205689818312  0.999827985293      -0.00110119994067   0.999827985293      -0.00110119994067   0.000168915767395   -0.000205689818312  
400000000.0         0.000169215748158   -0.000274258451486  0.999826606051      -0.0014682759507    0.999826606051      -0.0014682759507    0.000169215748157   -0.000274258451486  
500000000.0         0.000169371692826   -0.000342830522594  0.999825181011      -0.00183535876125   0.999825181011      -0.00183535876125   0.000169371692825   -0.000342830522594  
600000000.0         0.000169412159785   -0.000411406420378  0.999823681596      -0.00220244935233   0.999823681596      -0.00220244935233   0.000169412159785   -0.000411406420378  
700000000.0         0.000169353993199   -0.000479986496062  0.999822090939      -0.00256954860164   0.999822090939      -0.00256954860164   0.000169353993199   -0.000479986496062  
800000000.0         0.000169208087986   -0.000548571071904  0.999820398123      -0.00293665731124   0.999820398123      -0.00293665731124   0.000169208087986   -0.000548571071904  
900000000.0         0.000168981954588   -0.000617160444371  0.999818595612      -0.00330377622176   0.999818595612      -0.00330377622176   0.000168981954588   -0.000617160444371  
1000000000.0        0.000168681018805   -0.000685754888176  0.999816677956      -0.00367090602367   0.999816677956      -0.00367090602367   0.000168681018805   -0.000685754888176  
1100000000.0        0.000168309343475   -0.000754354658711  0.999814641062      -0.00403804736482   0.999814641062      -0.00403804736482   0.000168309343475   -0.000754354658711  
1200000000.0        0.000167870058543   -0.000822959994404  0.999812481773      -0.00440520085648   0.999812481773      -0.00440520085648   0.000167870058543   -0.000822959994404  
1300000000.0        0.00016736563132    -0.000891571118308  0.99981019759       -0.00477236707784   0.99981019759       -0.00477236707784   0.00016736563132    -0.000891571118308  
1400000000.0        0.000166798044089   -0.000960188239325  0.9998077865        -0.00513954657934   0.9998077865        -0.00513954657934   0.000166798044089   -0.000960188239325  
1500000000.0        0.000166168915042   -0.00102881155374   0.999805246853      -0.00550673988604   0.999805246853      -0.00550673988604   0.000166168915041   -0.00102881155374   
1600000000.0        0.000165479583159   -0.00109744124574   0.999802577275      -0.00587394749955   0.999802577275      -0.00587394749955   0.00016547958316    -0.00109744124574   
1700000000.0        0.000164731169386   -0.00116607748895   0.999799776611      -0.00624116990074   0.999799776611      -0.00624116990074   0.000164731169386   -0.00116607748895   
1800000000.0        0.000163924621599   -0.00123472044643   0.999796843878      -0.00660840755075   0.999796843878      -0.00660840755075   0.000163924621599   -0.00123472044643   
1900000000.0        0.00016306074845    -0.001303370272     0.99979377823       -0.00697566089315   0.99979377823       -0.00697566089315   0.00016306074845    -0.001303370272     
2000000000.0        0.00016214024517    -0.00137202711029   0.999790578934      -0.00734293035468   0.999790578934      -0.00734293035468   0.00016214024517    -0.00137202711029   
2100000000.0        0.000161163713566   -0.00144069109765   0.999787245351      -0.00771021634685   0.999787245351      -0.00771021634685   0.000161163713566   -0.00144069109765   
2200000000.0        0.000160131677752   -0.00150936236231   0.999783776917      -0.00807751926658   0.999783776917      -0.00807751926658   0.000160131677752   -0.00150936236231   
2300000000.0        0.00015904459664    -0.00157804102487   0.999780173132      -0.00844483949721   0.999780173132      -0.00844483949721   0.00015904459664    -0.00157804102487   
2400000000.0        0.000157902874011   -0.00164672719888   0.999776433554      -0.00881217740951   0.999776433554      -0.00881217740951   0.000157902874011   -0.00164672719888   
2500000000.0        0.000156706866654   -0.00171542099088   0.999772557783      -0.00917953336204   0.999772557783      -0.00917953336204   0.000156706866654   -0.00171542099088   
2600000000.0        0.00015545689107    -0.00178412250084   0.99976854546       -0.00954690770195   0.99976854546       -0.00954690770195   0.00015545689107    -0.00178412250084   
2700000000.0        0.000154153228983   -0.00185283182246   0.999764396261      -0.00991430076566   0.999764396261      -0.00991430076566   0.000154153228983   -0.00185283182246   
2800000000.0        0.000152796131945   -0.00192154904346   0.999760109892      -0.0102817128793    0.999760109892      -0.0102817128793    0.000152796131945   -0.00192154904346   
2900000000.0        0.000151385825188   -0.00199027424567   0.999755686082      -0.010649144359     0.999755686082      -0.010649144359     0.000151385825188   -0.00199027424567   
3000000000.0        0.000149922510883   -0.00205900750547   0.999751124586      -0.011016595512     0.999751124586      -0.011016595512     0.000149922510883   -0.00205900750547   
3100000000.0        0.000148406370888   -0.0021277488937    0.999746425175      -0.011384066636     0.999746425175      -0.011384066636     0.000148406370888   -0.0021277488937    
3200000000.0        0.000146837569117   -0.00219649847623   0.99974158764       -0.0117515580206    0.99974158764       -0.0117515580206    0.000146837569117   -0.00219649847623   
3300000000.0        0.000145216253554   -0.00226525631379   0.999736611787      -0.0121190699469    0.999736611787      -0.0121190699469    0.000145216253554   -0.00226525631379   
3400000000.0        0.000143542558003   -0.00233402246234   0.999731497435      -0.0124866026884    0.999731497435      -0.0124866026884    0.000143542558003   -0.00233402246234   
3500000000.0        0.000141816603591   -0.00240279697318   0.999726244415      -0.0128541565107    0.999726244415      -0.0128541565107    0.000141816603592   -0.00240279697318   
3600000000.0        0.000140038500094   -0.00247157989306   0.999720852571      -0.0132217316723    0.999720852571      -0.0132217316723    0.000140038500094   -0.00247157989306   
3700000000.0        0.000138208347065   -0.00254037126435   0.999715321754      -0.0135893284247    0.999715321754      -0.0135893284247    0.000138208347065   -0.00254037126435   
3800000000.0        0.000136326234868   -0.00260917112526   0.999709651824      -0.0139569470124    0.999709651824      -0.0139569470124    0.000136326234868   -0.00260917112526   
3900000000.0        0.000134392245539   -0.00267797950975   0.999703842652      -0.0143245876737    0.999703842652      -0.0143245876737    0.000134392245539   -0.00267797950975   
4000000000.0        0.000132406453582   -0.0027467964478    0.999697894114      -0.0146922506401    0.999697894114      -0.0146922506401    0.000132406453582   -0.0027467964478    
4100000000.0        0.00013036892666    -0.00281562196557   0.99969180609       -0.0150599361374    0.99969180609       -0.0150599361374    0.00013036892666    -0.00281562196557   
4200000000.0        0.000128279726206   -0.0028844560854    0.99968557847       -0.0154276443853    0.99968557847       -0.0154276443853    0.000128279726205   -0.0028844560854    
4300000000.0        0.000126138907983   -0.00295329882591   0.999679211148      -0.0157953755978    0.999679211148      -0.0157953755978    0.000126138907983   -0.00295329882591   
4400000000.0        0.000123946522562   -0.00302215020218   0.999672704022      -0.0161631299833    0.999672704022      -0.0161631299833    0.000123946522562   -0.00302215020218   
4500000000.0        0.000121702615771   -0.00309101022573   0.999666056995      -0.0165309077448    0.999666056995      -0.0165309077448    0.000121702615771   -0.00309101022573   
4600000000.0        0.000119407229086   -0.00315987890476   0.999659269974      -0.0168987090801    0.999659269974      -0.0168987090801    0.000119407229087   -0.00315987890476   
4700000000.0        0.000117060399991   -0.00322875624406   0.999652342869      -0.0172665341818    0.999652342869      -0.0172665341818    0.000117060399991   -0.00322875624406   
4800000000.0        0.00011466216229    -0.00329764224527   0.999645275595      -0.0176343832377    0.999645275595      -0.0176343832377    0.00011466216229    -0.00329764224527   
4900000000.0        0.000112212546412   -0.00336653690679   0.999638068069      -0.0180022564308    0.999638068069      -0.0180022564308    0.000112212546412   -0.00336653690679   
5000000000.0        0.000109711579661   -0.00343544022391   0.99963072021       -0.0183701539392    0.99963072021       -0.0183701539392    0.000109711579661   -0.00343544022391   
5100000000.0        0.000107159286465   -0.00350435218902   0.999623231942      -0.0187380759368    0.999623231942      -0.0187380759368    0.000107159286465   -0.00350435218902   
5200000000.0        0.000104555688591   -0.00357327279143   0.99961560319       -0.0191060225926    0.99961560319       -0.0191060225926    0.000104555688591   -0.00357327279143   
5300000000.0        0.000101900805338   -0.00364220201764   0.999607833881      -0.0194739940718    0.999607833881      -0.0194739940718    0.000101900805338   -0.00364220201764   
5400000000.0        9.91946537312e-05   -0.00371113985131   0.999599923944      -0.0198419905349    0.999599923944      -0.0198419905349    9.91946537314e-05   -0.00371113985131   
5500000000.0        9.64372486771e-05   -0.00378008627337   0.999591873311      -0.0202100121387    0.999591873311      -0.0202100121387    9.64372486769e-05   -0.00378008627337   
5600000000.0        9.36286031206e-05   -0.00384904126198   0.999583681915      -0.0205780590357    0.999583681915      -0.0205780590357    9.36286031203e-05   -0.00384904126198   
5700000000.0        9.07687281861e-05   -0.00391800479273   0.999575349691      -0.0209461313747    0.999575349691      -0.0209461313747    9.07687281861e-05   -0.00391800479273   
5800000000.0        8.78576333032e-05   -0.00398697683856   0.999566876574      -0.0213142293005    0.999566876574      -0.0213142293005    8.78576333037e-05   -0.00398697683856   
5900000000.0        8.4895326329e-05    -0.00405595736997   0.999558262504      -0.0216823529544    0.999558262504      -0.0216823529544    8.4895326329e-05    -0.00405595736997   
6000000000.0        8.1881813655e-05    -0.00412494635488   0.999549507418      -0.0220505024737    0.999549507418      -0.0220505024737    8.1881813655e-05    -0.00412494635488   
6100000000.0        7.88171003083e-05   -0.00419394375883   0.999540611258      -0.0224186779926    0.999540611258      -0.0224186779926    7.88171003081e-05   -0.00419394375883   
6200000000.0        7.57011900454e-05   -0.00426294954498   0.999531573963      -0.0227868796414    0.999531573963      -0.0227868796414    7.57011900454e-05   -0.00426294954498   
6300000000.0        7.25340854431e-05   -0.00433196367412   0.999522395478      -0.0231551075473    0.999522395478      -0.0231551075473    7.25340854431e-05   -0.00433196367412   
6400000000.0        6.93157879708e-05   -0.00440098610478   0.999513075745      -0.023523361834     0.999513075745      -0.023523361834     6.93157879705e-05   -0.00440098610478   
6500000000.0        6.60462980719e-05   -0.00447001679326   0.99950361471       -0.023891642622     0.99950361471       -0.023891642622     6.60462980719e-05   -0.00447001679326   
6600000000.0        6.27256152317e-05   -0.00453905569361   0.999494012316      -0.0242599500287    0.999494012316      -0.0242599500287    6.27256152319e-05   -0.00453905569361   
6700000000.0        5.93537380398e-05   -0.00460810275777   0.99948426851       -0.0246282841683    0.99948426851       -0.0246282841683    5.93537380396e-05   -0.00460810275777   
6800000000.0        5.59306642531e-05   -0.00467715793551   0.99947438324       -0.0249966451519    0.99947438324       -0.0249966451519    5.59306642531e-05   -0.00467715793551   
6900000000.0        5.24563908506e-05   -0.00474622117454   0.999464356452      -0.0253650330876    0.999464356452      -0.0253650330876    5.24563908508e-05   -0.00474622117454   
7000000000.0        4.8930914087e-05    -0.00481529242056   0.999454188095      -0.0257334480808    0.999454188095      -0.0257334480808    4.8930914087e-05    -0.00481529242056   
7100000000.0        4.53542295409e-05   -0.0048843716172    0.999443878117      -0.0261018902339    0.999443878117      -0.0261018902339    4.53542295409e-05   -0.0048843716172    
7200000000.0        4.17263321602e-05   -0.00495345870619   0.999433426469      -0.0264703596463    0.999433426469      -0.0264703596463    4.17263321604e-05   -0.00495345870619   
7300000000.0        3.80472163073e-05   -0.00502255362727   0.9994228331        -0.0268388564149    0.9994228331        -0.0268388564149    3.80472163075e-05   -0.00502255362727   
7400000000.0        3.4316875799e-05    -0.00509165631834   0.99941209796       -0.0272073806338    0.99941209796       -0.0272073806338    3.4316875799e-05    -0.00509165631834   
7500000000.0        3.05353039409e-05   -0.00516076671536   0.999401221001      -0.0275759323945    0.999401221001      -0.0275759323945    3.05353039409e-05   -0.00516076671536   
7600000000.0        2.67024935681e-05   -0.00522988475253   0.999390202174      -0.0279445117858    0.999390202174      -0.0279445117858    2.67024935685e-05   -0.00522988475253   
7700000000.0        2.28184370779e-05   -0.00529901036221   0.999379041431      -0.0283131188942    0.999379041431      -0.0283131188942    2.28184370779e-05   -0.00529901036221   
7800000000.0        1.88831264569e-05   -0.00536814347499   0.999367738724      -0.0286817538033    0.999367738724      -0.0286817538033    1.88831264571e-05   -0.00536814347499   
7900000000.0        1.48965533164e-05   -0.00543728401974   0.999356294006      -0.0290504165947    0.999356294006      -0.0290504165947    1.48965533164e-05   -0.00543728401974   
8000000000.0        1.08587089171e-05   -0.00550643192363   0.99934470723       -0.0294191073473    0.99934470723       -0.0294191073473    1.08587089169e-05   -0.00550643192363   
8100000000.0        6.7695841961e-06    -0.00557558711211   0.999332978349      -0.0297878261377    0.999332978349      -0.0297878261377    6.76958419588e-06   -0.00557558711211   
8200000000.0        2.62916979343e-06   -0.00564474950898   0.999321107317      -0.0301565730401    0.999321107317      -0.0301565730401    2.62916979321e-06   -0.00564474950898   
8300000000.0        -1.56254392725e-06  -0.00571391903649   0.999309094088      -0.0305253481267    0.999309094088      -0.0305253481267    -1.56254392736e-06  -0.00571391903649   
8400000000.0        -5.8055668527e-06   -0.0057830956152    0.999296938616      -0.0308941514673    0.999296938616      -0.0308941514673    -5.8055668527e-06   -0.0057830956152    
8500000000.0        -1.00999091016e-05  -0.00585227916416   0.999284640856      -0.0312629831294    0.999284640856      -0.0312629831294    -1.00999091016e-05  -0.00585227916416   
8600000000.0        -1.44455810035e-05  -0.00592146960085   0.999272200763      -0.0316318431785    0.999272200763      -0.0316318431785    -1.44455810035e-05  -0.00592146960085   
8700000000.0        -1.88425930797e-05  -0.00599066684122   0.999259618291      -0.0320007316779    0.999259618291      -0.0320007316779    -1.88425930799e-05  -0.00599066684122   
8800000000.0        -2.32909560256e-05  -0.00605987079978   0.999246893396      -0.0323696486889    0.999246893396      -0.0323696486889    -2.32909560258e-05  -0.00605987079978   
8900000000.0        -2.77906806934e-05  -0.00612908138948   0.999234026033      -0.0327385942707    0.999234026033      -0.0327385942707    -2.77906806937e-05  -0.00612908138948   
9000000000.0        -3.23417780772e-05  -0.00619829852192   0.999221016159      -0.0331075684805    0.999221016159      -0.0331075684805    -3.23417780772e-05  -0.00619829852192   
9100000000.0        -3.69442592937e-05  -0.00626752210721   0.999207863728      -0.0334765713736    0.999207863728      -0.0334765713736    -3.69442592936e-05  -0.00626752210721   
9200000000.0        -4.1598135571e-05   -0.00633675205408   0.999194568698      -0.0338456030032    0.999194568698      -0.0338456030032    -4.15981355711e-05  -0.00633675205408   
9300000000.0        -4.63034182357e-05  -0.0064059882699    0.999181131023      -0.0342146634208    0.999181131023      -0.0342146634208    -4.63034182357e-05  -0.0064059882699    
9400000000.0        -5.10601186933e-05  -0.00647523066063   0.999167550662      -0.0345837526758    0.999167550662      -0.0345837526758    -5.10601186932e-05  -0.00647523066063   
9500000000.0        -5.58682484242e-05  -0.00654447913097   0.99915382757       -0.034952870816     0.99915382757       -0.034952870816     -5.58682484235e-05  -0.00654447913097   
9600000000.0        -6.07278189624e-05  -0.00661373358426   0.999139961705      -0.0353220178873    0.999139961705      -0.0353220178873    -6.07278189628e-05  -0.00661373358426   
9700000000.0        -6.56388418931e-05  -0.00668299392252   0.999125953022      -0.0356911939337    0.999125953022      -0.0356911939337    -6.5638841893e-05   -0.00668299392252   
9800000000.0        -7.06013288345e-05  -0.00675226004657   0.99911180148       -0.0360603989975    0.99911180148       -0.0360603989975    -7.06013288345e-05  -0.00675226004657   
9900000000.0        -7.56152914311e-05  -0.00682153185591   0.999097507035      -0.0364296331195    0.999097507035      -0.0364296331195    -7.56152914311e-05  -0.00682153185591   
10000000000.0       -8.06807413408e-05  -0.00689080924883   0.999083069645      -0.0367988963385    0.999083069645      -0.0367988963385    -8.06807413408e-05  -0.00689080924883   
