# Hz S RI R 50.00 
100000000.0         0.00131987872435    -0.000285739380459  0.998661946208      -0.0046954639169    0.998661946208      -0.0046954639169    0.00131987872435    -0.000285739380459  
200000000.0         0.00132236998914    -0.000571567234788  0.998617454439      -0.00939087380913   0.998617454439      -0.00939087380913   0.00132236998914    -0.000571567234788  
300000000.0         0.00131987026512    -0.000857456864452  0.998553124738      -0.0140862332147    0.998553124738      -0.0140862332147    0.00131987026512    -0.000857456864452  
400000000.0         0.0013135239046     -0.00114339418398   0.998467808468      -0.0187815070461    0.998467808468      -0.0187815070461    0.0013135239046     -0.00114339418398   
500000000.0         0.00130377009853    -0.00142936570942   0.998361061648      -0.023476646208     0.998361061648      -0.023476646208     0.00130377009853    -0.00142936570942   
600000000.0         0.00129083178277    -0.00171535721733   0.998232656231      -0.0281715933991    0.998232656231      -0.0281715933991    0.00129083178277    -0.00171535721733   
700000000.0         0.00127483986657    -0.00200135347183   0.998082456016      -0.0328662856763    0.998082456016      -0.0328662856763    0.00127483986657    -0.00200135347183   
800000000.0         0.00125587856156    -0.00228733819737   0.997910371422      -0.0375606558651    0.997910371422      -0.0375606558651    0.00125587856156    -0.00228733819737   
900000000.0         0.00123400556536    -0.00257329412041   0.997716339389      -0.0422546334368    0.997716339389      -0.0422546334368    0.00123400556537    -0.00257329412041   
1000000000.0        0.00120926229631    -0.00285920302934   0.997500313219      -0.0469481451009    0.997500313219      -0.0469481451009    0.00120926229631    -0.00285920302934   
1100000000.0        0.00118167958744    -0.00314504583676   0.997262256944      -0.051641115229     0.997262256944      -0.051641115229     0.00118167958744    -0.00314504583676   
1200000000.0        0.00115128108401    -0.00343080263843   0.997002141981      -0.056333466171     0.997002141981      -0.056333466171     0.00115128108401    -0.00343080263843   
1300000000.0        0.0011180853852     -0.00371645276744   0.996719945043      -0.0610251184998    0.996719945043      -0.0610251184998    0.0011180853852     -0.00371645276744   
1400000000.0        0.00108210745565    -0.00400197484351   0.996415646772      -0.0657159912058    0.996415646772      -0.0657159912058    0.00108210745565    -0.00400197484351   
1500000000.0        0.00104335959067    -0.00428734681762   0.996089230811      -0.0704060018544    0.996089230811      -0.0704060018544    0.00104335959067    -0.00428734681762   
1600000000.0        0.00100185209714    -0.00457254601268   0.995740683159      -0.0750950667163    0.995740683159      -0.0750950667163    0.00100185209714    -0.00457254601268   
1700000000.0        0.00095759378679    -0.00485754916055   0.995369991717      -0.079783100878     0.995369991717      -0.079783100878     0.000957593786791   -0.00485754916055   
1800000000.0        0.00091059234212    -0.00514233243606   0.99497714595       -0.0844700183345    0.99497714595       -0.0844700183345    0.00091059234212    -0.00514233243606   
1900000000.0        0.000860854593265   -0.00542687148831   0.994562136638      -0.0891557320706    0.994562136638      -0.0891557320706    0.000860854593265   -0.00542687148831   
2000000000.0        0.000808386731469   -0.00571114146964   0.994124955691      -0.0938401541311    0.994124955691      -0.0938401541311    0.000808386731469   -0.00571114146964   
2100000000.0        0.000753194476327   -0.00599511706262   0.993665596009      -0.098523195683     0.993665596009      -0.098523195683     0.000753194476327   -0.00599511706262   
2200000000.0        0.000695283208763   -0.00627877250526   0.99318405137       -0.10320476707      0.99318405137       -0.10320476707      0.000695283208763   -0.00627877250526   
2300000000.0        0.000634658078187   -0.00656208161464   0.992680316346      -0.107884777862     0.992680316346      -0.107884777862     0.000634658078187   -0.00656208161464   
2400000000.0        0.000571324089907   -0.00684501780921   0.992154386237      -0.112563136899     0.992154386237      -0.112563136899     0.000571324089907   -0.00684501780921   
2500000000.0        0.000505286177232   -0.00712755412989   0.99160625702       -0.117239752332     0.99160625702       -0.117239752332     0.000505286177232   -0.00712755412989   
2600000000.0        0.000436549261564   -0.00740966326005   0.991035925305      -0.121914531658     0.991035925305      -0.121914531658     0.000436549261564   -0.00740966326005   
2700000000.0        0.000365118302952   -0.00769131754455   0.990443388302      -0.126587381757     0.990443388302      -0.126587381757     0.000365118302952   -0.00769131754455   
2800000000.0        0.000290998342998   -0.00797248900798   0.989828643801      -0.131258208918     0.989828643801      -0.131258208918     0.000290998342997   -0.00797248900798   
2900000000.0        0.000214194541557   -0.00825314937199   0.989191690141      -0.13592691887      0.989191690141      -0.13592691887      0.000214194541557   -0.00825314937199   
3000000000.0        0.000134712208375   -0.00853327007207   0.988532526205      -0.140593416808     0.988532526205      -0.140593416808     0.000134712208376   -0.00853327007207   
3100000000.0        5.25568305307e-05   -0.00881282227359   0.987851151396      -0.145257607418     0.987851151396      -0.145257607418     5.25568305307e-05   -0.00881282227359   
3200000000.0        -3.2265903598e-05   -0.00909177688732   0.987147565634      -0.149919394901     0.987147565634      -0.149919394901     -3.2265903598e-05   -0.00909177688732   
3300000000.0        -0.000119750083288  -0.00937010458437   0.986421769345      -0.154578682992     0.986421769345      -0.154578682992     -0.000119750083288  -0.00937010458437   
3400000000.0        -0.000209889556901  -0.00964777581072   0.985673763456      -0.15923537498      0.985673763456      -0.15923537498      -0.000209889556902  -0.00964777581072   
3500000000.0        -0.000302677915406  -0.00992476080121   0.984903549389      -0.163889373732     0.984903549389      -0.163889373732     -0.000302677915406  -0.00992476080121   
3600000000.0        -0.000398108477706  -0.0102010295932    0.984111129057      -0.168540581704     0.984111129057      -0.168540581704     -0.000398108477706  -0.0102010295932    
3700000000.0        -0.000496174277528  -0.0104765520399    0.983296504863      -0.173188900964     0.983296504863      -0.173188900964     -0.000496174277528  -0.0104765520399    
3800000000.0        -0.000596868051645  -0.0107512978232    0.982459679697      -0.177834233205     0.982459679697      -0.177834233205     -0.000596868051646  -0.0107512978232    
3900000000.0        -0.000700182229299  -0.011025236466     0.981600656937      -0.182476479764     0.981600656937      -0.182476479764     -0.000700182229299  -0.011025236466     
4000000000.0        -0.000806108922644  -0.0112983373452    0.980719440444      -0.18711554163      0.980719440444      -0.18711554163      -0.000806108922644  -0.0112983373452    
4100000000.0        -0.00091463991812   -0.0115705697028    0.979816034567      -0.191751319466     0.979816034567      -0.191751319466     -0.00091463991812   -0.0115705697028    
4200000000.0        -0.00102576666863   -0.0118419026582    0.978890444141      -0.196383713617     0.978890444141      -0.196383713617     -0.00102576666863   -0.0118419026582    
4300000000.0        -0.00113948028647   -0.0121123052196    0.977942674485      -0.201012624126     0.977942674485      -0.201012624126     -0.00113948028647   -0.0121123052196    
4400000000.0        -0.00125577153686   -0.0123817462951    0.976972731409      -0.205637950745     0.976972731409      -0.205637950745     -0.00125577153686   -0.0123817462951    
4500000000.0        -0.00137463083215   -0.0126501947037    0.975980621208      -0.210259592946     0.975980621208      -0.210259592946     -0.00137463083216   -0.0126501947037    
4600000000.0        -0.00149604822651   -0.0129176191864    0.97496635067       -0.214877449937     0.97496635067       -0.214877449937     -0.00149604822651   -0.0129176191864    
4700000000.0        -0.00162001341108   -0.0131839884164    0.973929927072      -0.219491420666     0.973929927072      -0.219491420666     -0.00162001341108   -0.0131839884164    
4800000000.0        -0.00174651570967   -0.0134492710097    0.972871358183      -0.22410140384      0.972871358183      -0.22410140384      -0.00174651570967   -0.0134492710097    
4900000000.0        -0.00187554407474   -0.0137134355356    0.971790652268      -0.228707297928     0.971790652268      -0.228707297928     -0.00187554407474   -0.0137134355356    
5000000000.0        -0.0020070870839    -0.0139764505263    0.970687818084      -0.233309001176     0.970687818084      -0.233309001176     -0.0020070870839    -0.0139764505263    
5100000000.0        -0.00214113293667   -0.0142382844871    0.969562864888      -0.237906411614     0.969562864888      -0.237906411614     -0.00214113293667   -0.0142382844871    
5200000000.0        -0.00227766945159   -0.0144989059061    0.968415802433      -0.242499427067     0.968415802433      -0.242499427067     -0.00227766945158   -0.0144989059061    
5300000000.0        -0.00241668406363   -0.0147582832639    0.967246640975      -0.247087945164     0.967246640975      -0.247087945164     -0.00241668406363   -0.0147582832639    
5400000000.0        -0.00255816382195   -0.0150163850429    0.966055391268      -0.251671863346     0.966055391268      -0.251671863346     -0.00255816382195   -0.0150163850429    
5500000000.0        -0.00270209538785   -0.0152731797366    0.964842064573      -0.256251078876     0.964842064573      -0.256251078876     -0.00270209538785   -0.0152731797366    
5600000000.0        -0.00284846503301   -0.0155286358591    0.963606672652      -0.260825488846     0.963606672652      -0.260825488846     -0.00284846503301   -0.0155286358591    
5700000000.0        -0.00299725863799   -0.0157827219537    0.962349227775      -0.265394990188     0.962349227775      -0.265394990188     -0.00299725863799   -0.0157827219537    
5800000000.0        -0.00314846169092   -0.0160354066023    0.96106974272       -0.269959479677     0.96106974272       -0.269959479677     -0.00314846169092   -0.0160354066023    
5900000000.0        -0.00330205928645   -0.0162866584339    0.959768230773      -0.274518853944     0.959768230773      -0.274518853944     -0.00330205928645   -0.0162866584339    
6000000000.0        -0.00345803612489   -0.0165364461333    0.958444705732      -0.279073009481     0.958444705732      -0.279073009481     -0.00345803612489   -0.0165364461333    
6100000000.0        -0.00361637651153   -0.0167847384502    0.957099181904      -0.283621842651     0.957099181904      -0.283621842651     -0.00361637651153   -0.0167847384502    
6200000000.0        -0.00377706435618   -0.0170315042069    0.955731674113      -0.28816524969      0.955731674113      -0.28816524969      -0.00377706435618   -0.0170315042069    
6300000000.0        -0.00394008317291   -0.0172767123072    0.954342197693      -0.29270312672      0.954342197693      -0.29270312672      -0.00394008317291   -0.0172767123072    
6400000000.0        -0.00410541607987   -0.0175203317448    0.952930768496      -0.297235369753     0.952930768496      -0.297235369753     -0.00410541607987   -0.0175203317448    
6500000000.0        -0.00427304579943   -0.0177623316108    0.951497402892      -0.301761874698     0.951497402892      -0.301761874698     -0.00427304579943   -0.0177623316108    
6600000000.0        -0.00444295465835   -0.0180026811027    0.950042117766      -0.306282537368     0.950042117766      -0.306282537368     -0.00444295465835   -0.0180026811027    
6700000000.0        -0.00461512458817   -0.0182413495314    0.948564930522      -0.310797253488     0.948564930522      -0.310797253488     -0.00461512458817   -0.0182413495314    
6800000000.0        -0.00478953712574   -0.01847830633      0.947065859086      -0.315305918699     0.947065859086      -0.315305918699     -0.00478953712574   -0.01847830633      
6900000000.0        -0.00496617341393   -0.0187135210609    0.945544921903      -0.319808428566     0.945544921903      -0.319808428566     -0.00496617341393   -0.0187135210609    
7000000000.0        -0.00514501420243   -0.018946963424     0.944002137939      -0.324304678582     0.944002137939      -0.324304678582     -0.00514501420243   -0.018946963424     
7100000000.0        -0.0053260398487    -0.0191786032639    0.942437526685      -0.328794564179     0.942437526685      -0.328794564179     -0.0053260398487    -0.0191786032639    
7200000000.0        -0.00550923031912   -0.0194084105778    0.940851108152      -0.333277980727     0.940851108152      -0.333277980727     -0.00550923031912   -0.0194084105778    
7300000000.0        -0.00569456519019   -0.0196363555226    0.939242902876      -0.337754823547     0.939242902876      -0.337754823547     -0.00569456519019   -0.0196363555226    
7400000000.0        -0.00588202364989   -0.0198624084227    0.93761293192       -0.34222498791      0.93761293192       -0.34222498791      -0.00588202364989   -0.0198624084227    
7500000000.0        -0.00607158449919   -0.0200865397766    0.935961216868      -0.34668836905      0.935961216868      -0.34668836905      -0.00607158449919   -0.0200865397766    
7600000000.0        -0.00626322615365   -0.0203087202648    0.934287779833      -0.351144862161     0.934287779833      -0.351144862161     -0.00626322615365   -0.0203087202648    
7700000000.0        -0.00645692664517   -0.0205289207566    0.932592643452      -0.355594362411     0.932592643452      -0.355594362411     -0.00645692664517   -0.0205289207566    
7800000000.0        -0.00665266362379   -0.020747112317     0.93087583089       -0.360036764942     0.93087583089       -0.360036764942     -0.00665266362379   -0.020747112317     
7900000000.0        -0.00685041435973   -0.0209632662138    0.92913736584       -0.364471964875     0.92913736584       -0.364471964875     -0.00685041435973   -0.0209632662138    
8000000000.0        -0.00705015574541   -0.0211773539244    0.92737727252       -0.368899857319     0.92737727252       -0.368899857319     -0.00705015574541   -0.0211773539244    
8100000000.0        -0.00725186429766   -0.0213893471429    0.925595575676      -0.373320337375     0.925595575676      -0.373320337375     -0.00725186429766   -0.0213893471429    
8200000000.0        -0.00745551616002   -0.0215992177862    0.923792300585      -0.377733300136     0.923792300585      -0.377733300136     -0.00745551616002   -0.0215992177862    
8300000000.0        -0.0076610871051    -0.0218069380011    0.92196747305       -0.382138640701     0.92196747305       -0.382138640701     -0.0076610871051    -0.0218069380011    
8400000000.0        -0.00786855253718   -0.0220124801709    0.920121119402      -0.38653625417      0.920121119402      -0.38653625417      -0.00786855253718   -0.0220124801709    
8500000000.0        -0.00807788749471   -0.0222158169216    0.918253266501      -0.390926035659     0.918253266501      -0.390926035659     -0.00807788749471   -0.0222158169216    
8600000000.0        -0.00828906665308   -0.0224169211283    0.916363941737      -0.395307880295     0.916363941737      -0.395307880295     -0.00828906665308   -0.0224169211283    
8700000000.0        -0.00850206432742   -0.0226157659218    0.914453173026      -0.399681683228     0.914453173026      -0.399681683228     -0.00850206432742   -0.0226157659218    
8800000000.0        -0.0087168544755    -0.0228123246947    0.912520988817      -0.40404733963      0.912520988817      -0.40404733963      -0.0087168544755    -0.0228123246947    
8900000000.0        -0.00893341070071   -0.0230065711075    0.910567418082      -0.408404744706     0.910567418082      -0.408404744706     -0.00893341070071   -0.0230065711075    
9000000000.0        -0.00915170625518   -0.0231984790949    0.908592490327      -0.412753793691     0.908592490327      -0.412753793691     -0.00915170625518   -0.0231984790949    
9100000000.0        -0.00937171404292   -0.0233880228715    0.906596235584      -0.417094381861     0.906596235584      -0.417094381861     -0.00937171404292   -0.0233880228715    
9200000000.0        -0.00959340662317   -0.0235751769383    0.904578684412      -0.421426404533     0.904578684412      -0.421426404533     -0.00959340662317   -0.0235751769383    
9300000000.0        -0.00981675621367   -0.023759916088     0.9025398679        -0.425749757071     0.9025398679        -0.425749757071     -0.00981675621367   -0.023759916088     
9400000000.0        -0.0100417346942    -0.023942215411     0.900479817666      -0.43006433489      0.900479817666      -0.43006433489      -0.0100417346942    -0.023942215411     
9500000000.0        -0.01026831361      -0.0241220503013    0.898398565853      -0.43437003346      0.898398565853      -0.43437003346      -0.01026831361      -0.0241220503013    
9600000000.0        -0.0104964641755    -0.0242993964619    0.896296145133      -0.438666748312     0.896296145133      -0.438666748312     -0.0104964641755    -0.0242993964619    
9700000000.0        -0.0107261572781    -0.0244742299108    0.894172588705      -0.442954375037     0.894172588705      -0.442954375037     -0.0107261572781    -0.0244742299108    
9800000000.0        -0.0109573634815    -0.0246465269859    0.892027930293      -0.447232809295     0.892027930293      -0.447232809295     -0.0109573634815    -0.0246465269859    
9900000000.0        -0.0111900530304    -0.0248162643507    0.889862204151      -0.451501946819     0.889862204151      -0.451501946819     -0.0111900530304    -0.0248162643507    
10000000000.0       -0.0114241958535    -0.0249834190001    0.887675445056      -0.455761683413     0.887675445056      -0.455761683413     -0.0114241958535    -0.0249834190001    
