# Hz S RI R 50.00 
100000000.0         -0.00299710503322   -0.0545432733224    0.996902251702      -0.0546950517039    0.996902251702      -0.0546950517039    -0.00299710503322   -0.0545432733224    
200000000.0         -0.0119199538089    -0.108102308408     0.987978680241      -0.108405874019     0.987978680241      -0.108405874019     -0.0119199538089    -0.108102308408     
300000000.0         -0.026406107387     -0.159762930419     0.973491953541      -0.160218297458     0.973491953541      -0.160218297458     -0.026406107387     -0.159762930419     
400000000.0         -0.0459658343016    -0.208718601873     0.953931716565      -0.209325788923     0.953931716565      -0.209325788923     -0.0459658343016    -0.208718601873     
500000000.0         -0.06997257894      -0.254307802256     0.929924491785      -0.255066831809     0.929924491785      -0.255066831809     -0.06997257894      -0.254307802256     
600000000.0         -0.0977099212962    -0.296035993691     0.902186682382      -0.296946891838     0.902186682382      -0.296946891838     -0.0977099212962    -0.296035993691     
700000000.0         -0.12841966513      -0.33358172496      0.871476474707      -0.334644521164     0.871476474707      -0.334644521164     -0.12841966513      -0.33358172496      
800000000.0         -0.16134578726      -0.366788751336     0.838549885559      -0.368003478256     0.838549885559      -0.368003478256     -0.16134578726      -0.366788751336     
900000000.0         -0.195770566979     -0.395647575429     0.804124631252      -0.397014268772     0.804124631252      -0.397014268772     -0.195770566979     -0.395647575429     
1000000000.0        -0.23104104328      -0.420270424343     0.768853669628      -0.421789122745     0.768853669628      -0.421789122745     -0.23104104328      -0.420270424343     
1100000000.0        -0.26658559669      -0.440863494729     0.733308617788      -0.442534239646     0.733308617788      -0.442534239646     -0.26658559669      -0.440863494729     
1200000000.0        -0.301921664706     -0.45769958804      0.697972036409      -0.459522423656     0.697972036409      -0.459522423656     -0.301921664706     -0.45769958804      
1300000000.0        -0.336656297581     -0.471093318335     0.663236873793      -0.473068291479     0.663236873793      -0.473068291479     -0.336656297581     -0.471093318335     
1400000000.0        -0.370481501313     -0.481380142488     0.629411122783      -0.483507302559     0.629411122783      -0.483507302559     -0.370481501313     -0.481380142488     
1500000000.0        -0.403166222571     -0.488899685262     0.596725835755      -0.491179084158     0.596725835755      -0.491179084158     -0.403166222571     -0.488899685262     
1600000000.0        -0.434546544245     -0.493983269929     0.565344929027      -0.496414961988     0.565344929027      -0.496414961988     -0.434546544245     -0.493983269929     
1700000000.0        -0.464515296428     -0.496945216978     0.535375571838      -0.499529258915     0.535375571838      -0.499529258915     -0.464515296428     -0.496945216978     
1800000000.0        -0.493011926563     -0.498077301933     0.506878316175      -0.500813752791     0.506878316175      -0.500813752791     -0.493011926563     -0.498077301933     
1900000000.0        -0.520013159832     -0.497645719405     0.479876436364      -0.500534640501     0.479876436364      -0.500534640501     -0.520013159832     -0.497645719405     
2000000000.0        -0.545524735096     -0.495889937318     0.454364193115      -0.498931392195     0.454364193115      -0.498931392195     -0.545524735096     -0.495889937318     
2100000000.0        -0.56957432375      -0.493022905168     0.430313914658      -0.496216959553     0.430313914658      -0.496216959553     -0.56957432375      -0.493022905168     
2200000000.0        -0.592205620064     -0.489232176481     0.407681906388      -0.49257889824      0.407681906388      -0.49257889824      -0.592205620064     -0.489232176481     
2300000000.0        -0.6134735196       -0.484681601385     0.386413272447      -0.488181060485     0.386413272447      -0.488181060485     -0.6134735196       -0.484681601385     
2400000000.0        -0.633440264731     -0.479513331274     0.366445770192      -0.483165599746     0.366445770192      -0.483165599746     -0.633440264731     -0.479513331274     
2500000000.0        -0.652172422237     -0.473849949754     0.3477128326        -0.477655101653     0.3477128326        -0.477655101653     -0.652172422237     -0.473849949754     
2600000000.0        -0.669738558952     -0.467796601896     0.330145892618      -0.47175471327      0.330145892618      -0.47175471327      -0.669738558952     -0.467796601896     
2700000000.0        -0.686207491061     -0.461443038225     0.313676133854      -0.465554187081     0.313676133854      -0.465554187081     -0.686207491061     -0.461443038225     
2800000000.0        -0.70164699673      -0.454865522864     0.298235777957      -0.459129789137     0.298235777957      -0.459129789137     -0.70164699673      -0.454865522864     
2900000000.0        -0.716122897203     -0.448128578951     0.283759003508      -0.452546044475     0.283759003508      -0.452546044475     -0.716122897203     -0.448128578951     
3000000000.0        -0.729698426816     -0.441286560899     0.270182576008      -0.445857309376     0.270182576008      -0.445857309376     -0.729698426816     -0.441286560899     
3100000000.0        -0.742433826418     -0.434385054025     0.257446254456      -0.439109171001     0.257446254456      -0.439109171001     -0.742433826418     -0.434385054025     
3200000000.0        -0.754386107107     -0.427462109025     0.245493027609      -0.43233968186      0.245493027609      -0.43233968186      -0.754386107107     -0.427462109025     
3300000000.0        -0.765608941811     -0.42054932282      0.234269222405      -0.425580440666     0.234269222405      -0.425580440666     -0.765608941811     -0.42054932282      
3400000000.0        -0.776152651114     -0.413672779364     0.223724518128      -0.41885753314      0.223724518128      -0.41885753314      -0.776152651114     -0.413672779364     
3500000000.0        -0.786064257052     -0.406853864706     0.213811892619      -0.412192347073     0.213811892619      -0.412192347073     -0.786064257052     -0.406853864706     
3600000000.0        -0.795387584511     -0.400109970408     0.204487520874      -0.405602275749     0.204487520874      -0.405602275749     -0.795387584511     -0.400109970408     
3700000000.0        -0.804163394615     -0.393455098758     0.195710641654      -0.399101323156     0.195710641654      -0.399101323156     -0.804163394615     -0.393455098758     
3800000000.0        -0.812429538274     -0.38690038214      0.18744340394       -0.392700623357     0.18744340394       -0.392700623357     -0.812429538274     -0.38690038214      
3900000000.0        -0.820221121001     -0.380454527842     0.179650702109      -0.386408885301     0.179650702109      -0.386408885301     -0.820221121001     -0.380454527842     
4000000000.0        -0.827570672455     -0.374124198323     0.172300006402      -0.380232773086     0.172300006402      -0.380232773086     -0.827570672455     -0.374124198323     
4100000000.0        -0.834508315938     -0.367914335848     0.165361193412      -0.374177230601     0.165361193412      -0.374177230601     -0.834508315938     -0.367914335848     
4200000000.0        -0.841061934474     -0.361828439291     0.158806380019      -0.368245758325     0.158806380019      -0.368245758325     -0.841061934474     -0.361828439291     
4300000000.0        -0.847257331134     -0.355868799896     0.152609763052      -0.36244064909      0.152609763052      -0.36244064909      -0.847257331134     -0.355868799896     
4400000000.0        -0.853118382091     -0.35003670188      0.146747466245      -0.356763188688     0.146747466245      -0.356763188688     -0.853118382091     -0.35003670188      
4500000000.0        -0.85866718146      -0.344332592992     0.141197395389      -0.351213826421     0.141197395389      -0.351213826421     -0.85866718146      -0.344332592992     
4600000000.0        -0.863924177442     -0.338756229369     0.135939102191      -0.345792319973     0.135939102191      -0.345792319973     -0.863924177442     -0.338756229369     
4700000000.0        -0.86890829961      -0.333306798488     0.130953656984      -0.340497858345     0.130953656984      -0.340497858345     -0.86890829961      -0.333306798488     
4800000000.0        -0.8736370774       -0.327983023397     0.126223530243      -0.335329166104     0.126223530243      -0.335329166104     -0.8736370774       -0.327983023397     
4900000000.0        -0.878126750037     -0.322783251017     0.121732482654      -0.330284591668     0.121732482654      -0.330284591668     -0.878126750037     -0.322783251017     
5000000000.0        -0.882392368233     -0.317705526835     0.117465463416      -0.325362182019     0.117465463416      -0.325362182019     -0.882392368233     -0.317705526835     
5100000000.0        -0.886447888075     -0.312747658034     0.113408516353      -0.320559745813     0.113408516353      -0.320559745813     -0.886447888075     -0.312747658034     
5200000000.0        -0.890306257538     -0.307907266743     0.109548693401      -0.315874906647     0.109548693401      -0.315874906647     -0.890306257538     -0.307907266743     
5300000000.0        -0.893979496109     -0.303181834899     0.105873974987      -0.311305147914     0.105873974987      -0.311305147914     -0.893979496109     -0.303181834899     
5400000000.0        -0.897478767977     -0.298568741945     0.102373196832      -0.3068478505       0.102373196832      -0.3068478505       -0.897478767977     -0.298568741945     
5500000000.0        -0.900814449269     -0.294065296448     0.0990359827247     -0.302500324409     0.0990359827247     -0.302500324409     -0.900814449269     -0.294065296448     
5600000000.0        -0.903996189767     -0.289668762529     0.0958526827944     -0.298259835189     0.0958526827944     -0.298259835189     -0.903996189767     -0.289668762529     
5700000000.0        -0.907032969545     -0.285376381892     0.0928143168794     -0.294123625958     0.0928143168794     -0.294123625958     -0.907032969545     -0.285376381892     
5800000000.0        -0.909933150931     -0.281185392095     0.0899125225644     -0.290088935684     0.0899125225644     -0.290088935684     -0.909933150931     -0.281185392095     
5900000000.0        -0.912704526169     -0.27709304164      0.0871395075177     -0.28615301427      0.0871395075177     -0.28615301427      -0.912704526169     -0.27709304164      
6000000000.0        -0.915354361142     -0.273096602358     0.0844880057691     -0.282313134939     0.0844880057691     -0.282313134939     -0.915354361142     -0.273096602358     
6100000000.0        -0.917889435481     -0.269193379492     0.0819512375993     -0.278566604321     0.0819512375993     -0.278566604321     -0.917889435481     -0.269193379492     
6200000000.0        -0.920316079371     -0.265380719834     0.0795228727359     -0.274910770585     0.0795228727359     -0.274910770585     -0.920316079371     -0.265380719834     
6300000000.0        -0.922640207325     -0.261656018209     0.0771969965754     -0.27134302993      0.0771969965754     -0.27134302993      -0.922640207325     -0.261656018209     
6400000000.0        -0.924867349201     -0.258016722563     0.0749680791717     -0.267860831669     0.0749680791717     -0.267860831669     -0.924867349201     -0.258016722563     
6500000000.0        -0.927002678679     -0.254460337876     0.0728309467564     -0.264461682143     0.0728309467564     -0.264461682143     -0.927002678679     -0.254460337876     
6600000000.0        -0.929051039426     -0.250984429071     0.0707807555702     -0.26114314763      0.0707807555702     -0.26114314763      -0.929051039426     -0.250984429071     
6700000000.0        -0.931016969157     -0.247586623094     0.0688129678111     -0.257902856427     0.0688129678111     -0.257902856427     -0.931016969157     -0.247586623094     
6800000000.0        -0.932904721743     -0.244264610287     0.0669233295142     -0.254738500225     0.0669233295142     -0.254738500225     -0.932904721743     -0.244264610287     
6900000000.0        -0.934718287574     -0.241016145183     0.0651078501997     -0.251647834897     0.0651078501997     -0.251647834897     -0.934718287574     -0.241016145183     
7000000000.0        -0.936461412288     -0.237839046795     0.0633627841374     -0.248628680795     0.0633627841374     -0.248628680795     -0.936461412288     -0.237839046795     
7100000000.0        -0.93813761403      -0.23473119852      0.0616846130895     -0.245678922651     0.0616846130895     -0.245678922651     -0.93813761403      -0.23473119852      
7200000000.0        -0.939750199357     -0.231690547693     0.0600700304064     -0.242796509132     0.0600700304064     -0.242796509132     -0.939750199357     -0.231690547693     
7300000000.0        -0.941302277901     -0.228715104877     0.0585159263612     -0.239979452131     0.0585159263612     -0.239979452131     -0.941302277901     -0.228715104877     
7400000000.0        -0.942796775904     -0.225802942926     0.0570193746179     -0.237225825829     0.0570193746179     -0.237225825829     -0.942796775904     -0.225802942926     
7500000000.0        -0.94423644871      -0.222952195875     0.0555776197385     -0.234533765584     0.0555776197385     -0.234533765584     -0.94423644871      -0.222952195875     
7600000000.0        -0.945623892302     -0.220161057682     0.0541880656424     -0.231901466676     0.0541880656424     -0.231901466676     -0.945623892302     -0.220161057682     
7700000000.0        -0.946961553974     -0.217427780868     0.0528482649391     -0.229327182948     0.0528482649391     -0.229327182948     -0.946961553974     -0.217427780868     
7800000000.0        -0.948251742197     -0.21475067507      0.0515559090611     -0.226809225357     0.0515559090611     -0.226809225357     -0.948251742197     -0.21475067507      
7900000000.0        -0.949496635748     -0.212128105538     0.0503088191332     -0.22434596047      0.0503088191332     -0.22434596047      -0.949496635748     -0.212128105538     
8000000000.0        -0.950698292167     -0.209558491584     0.0491049375161     -0.221935808918     0.0491049375161     -0.221935808918     -0.950698292167     -0.209558491584     
8100000000.0        -0.951858655593     -0.207040305014     0.0479423199712     -0.219577243822     0.0479423199712     -0.219577243822     -0.951858655593     -0.207040305014     
8200000000.0        -0.952979564029     -0.204572068541     0.0468191283949     -0.217268789214     0.0468191283949     -0.217268789214     -0.952979564029     -0.204572068541     
8300000000.0        -0.954062756081     -0.202152354203     0.0457336240793     -0.215009018448     0.0457336240793     -0.215009018448     -0.954062756081     -0.202152354203     
8400000000.0        -0.955109877219     -0.199779781783     0.0446841614542     -0.212796552625     0.0446841614542     -0.212796552625     -0.955109877219     -0.199779781783     
8500000000.0        -0.956122485581     -0.197453017253     0.0436691822755     -0.210630059031     0.0436691822755     -0.210630059031     -0.956122485581     -0.197453017253     
8600000000.0        -0.957102057386     -0.195170771228     0.0426872102229     -0.208508249604     0.0426872102229     -0.208508249604     -0.957102057386     -0.195170771228     
8700000000.0        -0.958049991949     -0.192931797462     0.0417368458756     -0.206429879415     0.0417368458756     -0.206429879415     -0.958049991949     -0.192931797462     
8800000000.0        -0.95896761636      -0.19073489136      0.0408167620375     -0.204393745189     0.0408167620375     -0.204393745189     -0.95896761636      -0.19073489136      
8900000000.0        -0.959856189838     -0.188578888534     0.0399256993832     -0.20239868386      0.0399256993832     -0.20239868386      -0.959856189838     -0.188578888534     
9000000000.0        -0.960716907785     -0.186462663388     0.0390624624033     -0.200443571157     0.0390624624033     -0.200443571157     -0.960716907785     -0.186462663388     
9100000000.0        -0.961550905567     -0.18438512775      0.0382259156226     -0.198527320232     0.0382259156226     -0.198527320232     -0.961550905567     -0.18438512775      
9200000000.0        -0.962359262043     -0.182345229533     0.0374149800742     -0.196648880326     0.0374149800742     -0.196648880326     -0.962359262043     -0.182345229533     
9300000000.0        -0.963143002851     -0.180341951442     0.036628630008      -0.194807235473     0.036628630008      -0.194807235473     -0.963143002851     -0.180341951442     
9400000000.0        -0.963903103487     -0.17837430972      0.0358658898173     -0.193001403249     0.0358658898173     -0.193001403249     -0.963903103487     -0.17837430972      
9500000000.0        -0.964640492173     -0.176441352933     0.0351258311673     -0.191230433556     0.0351258311673     -0.191230433556     -0.964640492173     -0.176441352933     
9600000000.0        -0.965356052543     -0.174542160799     0.0344075703104     -0.189493407448     0.0344075703104     -0.189493407448     -0.965356052543     -0.174542160799     
9700000000.0        -0.966050626155     -0.172675843052     0.0337102655757     -0.187789436        0.0337102655757     -0.187789436        -0.966050626155     -0.172675843052     
9800000000.0        -0.966725014836     -0.170841538349     0.0330331150183     -0.186117659215     0.0330331150183     -0.186117659215     -0.966725014836     -0.170841538349     
9900000000.0        -0.96737998289      -0.169038413214     0.0323753542198     -0.184477244965     0.0323753542198     -0.184477244965     -0.96737998289      -0.169038413214     
10000000000.0       -0.968016259152     -0.167265661023     0.0317362542259     -0.182867387975     0.0317362542259     -0.182867387975     -0.968016259152     -0.167265661023     
