# Hz S RI R 50.00 
100000000.0         -0.000331659966896  -0.01851679339      0.999600950262      -0.0186995378674    0.999600950262      -0.0186995378674    -0.000331659966896  -0.01851679339      
200000000.0         -0.00138750233785   -0.0369931619925    0.998544598274      -0.0373586704114    0.998544598274      -0.0373586704114    -0.00138750233785   -0.0369931619925    
300000000.0         -0.00313014908205   -0.0553905751042    0.996801524536      -0.0559388773307    0.996801524536      -0.0559388773307    -0.00313014908205   -0.0553905751042    
400000000.0         -0.00555226027666   -0.0736711099015    0.994379010995      -0.0744022438892    0.994379010995      -0.0744022438892    -0.00555226027666   -0.0736711099015    
500000000.0         -0.00864376325439   -0.0917976797586    0.99128710808       -0.0927116903761    0.99128710808       -0.0927116903761    -0.00864376325439   -0.0917976797586    
600000000.0         -0.0123919464095    -0.109734268737     0.987538516095      -0.110831206991     0.987538516095      -0.110831206991     -0.0123919464095    -0.109734268737     
700000000.0         -0.0167815866444    -0.127446155696     0.983148451476      -0.128726078152     0.983148451476      -0.128726078152     -0.0167815866444    -0.127446155696     
800000000.0         -0.0217951011849    -0.144900122338     0.97813449269       -0.146363090669     0.97813449269       -0.146363090669     -0.0217951011849    -0.144900122338     
900000000.0         -0.0274127198063    -0.162064641763     0.972516406984      -0.163710722365     0.972516406984      -0.163710722365     -0.0274127198063    -0.162064641763     
1000000000.0        -0.0336126741238    -0.17891004506      0.966315960585      -0.180739308735     0.966315960585      -0.180739308735     -0.0336126741238    -0.17891004506      
1100000000.0        -0.0403714006133    -0.195408664213     0.959556715394      -0.197421185886     0.959556715394      -0.197421185886     -0.0403714006133    -0.195408664213     
1200000000.0        -0.0476637539737    -0.211534950177     0.952263815449      -0.213730808651     0.952263815449      -0.213730808651     -0.0476637539737    -0.211534950177     
1300000000.0        -0.055463227434     -0.227265565543     0.944463766518      -0.229644843272     0.944463766518      -0.229644843272     -0.055463227434     -0.227265565543     
1400000000.0        -0.0637421766701    -0.242579451725     0.936184212108      -0.245142234613     0.936184212108      -0.245142234613     -0.0637421766701    -0.242579451725     
1500000000.0        -0.072472044119     -0.257457871079     0.927453709104      -0.260204248294     0.927453709104      -0.260204248294     -0.072472044119     -0.257457871079     
1600000000.0        -0.0816235806792    -0.271884424788     0.918301506036      -0.274814488593     0.918301506036      -0.274814488593     -0.0816235806792    -0.271884424788     
1700000000.0        -0.0911670620224    -0.285845047742     0.908757326746      -0.288958893335     0.908757326746      -0.288958893335     -0.0911670620224    -0.285845047742     
1800000000.0        -0.101072497041     -0.299327981931     0.898851161916      -0.302625707295     0.898851161916      -0.302625707295     -0.101072497041     -0.299327981931     
1900000000.0        -0.111309826267     -0.312323730154     0.888613070645      -0.315805435923     0.888613070645      -0.315805435923     -0.111309826267     -0.312323730154     
2000000000.0        -0.121849108448     -0.324824992022     0.878072993854      -0.328490781347     0.878072993854      -0.328490781347     -0.121849108448     -0.324824992022     
2100000000.0        -0.132660693809     -0.33682658439      0.867260581025      -0.340676562818     0.867260581025      -0.340676562818     -0.132660693809     -0.33682658439      
2200000000.0        -0.143715382874     -0.348325348395     0.856205031366      -0.352359623757     0.856205031366      -0.352359623757     -0.143715382874     -0.348325348395     
2300000000.0        -0.15498457007      -0.359320045347     0.844934950208      -0.363538727641     0.844934950208      -0.363538727641     -0.15498457007      -0.359320045347     
2400000000.0        -0.166440371641     -0.369811243636     0.833478221085      -0.37421444493      0.833478221085      -0.37421444493      -0.166440371641     -0.369811243636     
2500000000.0        -0.178055737702     -0.379801198805     0.821861893673      -0.384389033137     0.821861893673      -0.384389033137     -0.178055737702     -0.379801198805     
2600000000.0        -0.189804548532     -0.3892937288       0.810112087502      -0.394066312083     0.810112087502      -0.394066312083     -0.189804548532     -0.3892937288       
2700000000.0        -0.201661695429     -0.398294086283     0.798253911094      -0.403251536217     0.798253911094      -0.403251536217     -0.201661695429     -0.398294086283     
2800000000.0        -0.213603146656     -0.406808829744     0.786311396015      -0.41195126573      0.786311396015      -0.41195126573      -0.213603146656     -0.406808829744     
2900000000.0        -0.225605999182     -0.414845694984     0.774307445135      -0.420173238045     0.774307445135      -0.420173238045     -0.225605999182     -0.414845694984     
3000000000.0        -0.23764851703      -0.422413468343     0.762263794278      -0.427926241047     0.762263794278      -0.427926241047     -0.23764851703      -0.422413468343     
3100000000.0        -0.249710157184     -0.429521862893     0.750200986313      -0.435219989275     0.750200986313      -0.435219989275     -0.249710157184     -0.429521862893     
3200000000.0        -0.261771584031     -0.4361813986       0.738138356714      -0.442065004098     0.738138356714      -0.442065004098     -0.261771584031     -0.4361813986       
3300000000.0        -0.273814673397     -0.442403287329     0.726094029517      -0.448472498713     0.726094029517      -0.448472498713     -0.273814673397     -0.442403287329     
3400000000.0        -0.285822507239     -0.448199323343     0.714084922636      -0.454454268652     0.714084922636      -0.454454268652     -0.285822507239     -0.448199323343     
3500000000.0        -0.297779360045     -0.453581779844     0.702126761455      -0.460022588323     0.702126761455      -0.460022588323     -0.297779360045     -0.453581779844     
3600000000.0        -0.309670678001     -0.458563311913     0.690234099665      -0.465190113956     0.690234099665      -0.465190113956     -0.309670678001     -0.458563311913     
3700000000.0        -0.321483051904     -0.463156866112     0.678420346348      -0.469969793205     0.678420346348      -0.469969793205     -0.321483051904     -0.463156866112     
3800000000.0        -0.333204184817     -0.467375596867     0.666697798325      -0.474374781535     0.666697798325      -0.474374781535     -0.333204184817     -0.467375596867     
3900000000.0        -0.344822855337     -0.471232789668     0.655077676883      -0.478418365422     0.655077676883      -0.478418365422     -0.344822855337     -0.471232789668     
4000000000.0        -0.356328877341     -0.474741791009     0.643570168034      -0.482113892301     0.643570168034      -0.482113892301     -0.356328877341     -0.474741791009     
4100000000.0        -0.367713056979     -0.477915944959     0.632184465515      -0.48547470713      0.632184465515      -0.48547470713      -0.367713056979     -0.477915944959     
4200000000.0        -0.378967147617     -0.480768536134     0.620928815852      -0.488514095372     0.620928815852      -0.488514095372     -0.378967147617     -0.480768536134     
4300000000.0        -0.390083803381     -0.48331273885      0.609810564814      -0.491245232147     0.609810564814      -0.491245232147     -0.390083803381     -0.48331273885      
4400000000.0        -0.401056531848     -0.48556157216      0.598836204715      -0.493681137271     0.598836204715      -0.493681137271     -0.401056531848     -0.48556157216      
4500000000.0        -0.411879646423     -0.487527860456     0.588011422049      -0.495834635858     0.588011422049      -0.495834635858     -0.411879646423     -0.487527860456     
4600000000.0        -0.422548218799     -0.489224199311     0.577341145017      -0.49771832417      0.577341145017      -0.49771832417      -0.422548218799     -0.489224199311     
4700000000.0        -0.433058031915     -0.490662926215     0.566829590581      -0.499344540345     0.566829590581      -0.499344540345     -0.433058031915     -0.490662926215     
4800000000.0        -0.443405533707     -0.49185609584      0.556480310702      -0.500725339673     0.556480310702      -0.500725339673     -0.443405533707     -0.49185609584      
4900000000.0        -0.453587791939     -0.492815459499     0.546296237517      -0.50187247405      0.546296237517      -0.50187247405      -0.453587791939     -0.492815459499     
5000000000.0        -0.463602450327     -0.493552448441     0.53627972721       -0.50279737528      0.53627972721       -0.50279737528      -0.463602450327     -0.493552448441     
5100000000.0        -0.473447686131     -0.494078160647     0.526432602424      -0.503511141866     0.526432602424      -0.503511141866     -0.473447686131     -0.494078160647     
5200000000.0        -0.483122169366     -0.494403350799     0.516756193046      -0.504024528986     0.516756193046      -0.504024528986     -0.483122169366     -0.494403350799     
5300000000.0        -0.492625023718     -0.494538423114     0.507251375291      -0.504347941327     0.507251375291      -0.504347941327     -0.492625023718     -0.494538423114     
5400000000.0        -0.501955789259     -0.494493426734     0.497918608994      -0.504491428474     0.497918608994      -0.504491428474     -0.501955789259     -0.494493426734     
5500000000.0        -0.511114386983     -0.494278053407     0.488757973063      -0.504464682594     0.488757973063      -0.504464682594     -0.511114386983     -0.494278053407     
5600000000.0        -0.520101085208     -0.493901637186     0.479769199086      -0.504277038136     0.479769199086      -0.504277038136     -0.520101085208     -0.493901637186     
5700000000.0        -0.528916467831     -0.493373155897     0.470951703069      -0.503937473303     0.470951703069      -0.503937473303     -0.528916467831     -0.493373155897     
5800000000.0        -0.537561404432     -0.492701234169     0.46230461534       -0.503454613076     0.46230461534       -0.503454613076     -0.537561404432     -0.492701234169     
5900000000.0        -0.546037022186     -0.491894147789     0.45382680863       -0.502836733578     0.45382680863       -0.502836733578     -0.546037022186     -0.491894147789     
6000000000.0        -0.554344679559     -0.490959829219     0.445516924378      -0.502091767585     0.445516924378      -0.502091767585     -0.554344679559     -0.490959829219     
6100000000.0        -0.562485941724     -0.489905874073     0.437373397319      -0.501227311011     0.437373397319      -0.501227311011     -0.562485941724     -0.489905874073     
6200000000.0        -0.570462557646     -0.488739548419     0.429394478393      -0.500250630205     0.429394478393      -0.500250630205     -0.570462557646     -0.488739548419     
6300000000.0        -0.57827643878      -0.487467796747     0.421578256056      -0.499168669924     0.421578256056      -0.499168669924     -0.57827643878      -0.487467796747     
6400000000.0        -0.585929639292     -0.486097250476     0.413922676046      -0.49798806184      0.413922676046      -0.49798806184      -0.585929639292     -0.486097250476     
6500000000.0        -0.593424337766     -0.484634236895     0.406425559688      -0.496715133478     0.406425559688      -0.496715133478     -0.593424337766     -0.484634236895     
6600000000.0        -0.600762820297     -0.483084788419     0.399084620796      -0.495355917477     0.399084620796      -0.495355917477     -0.600762820297     -0.483084788419     
6700000000.0        -0.607947464912     -0.481454652077     0.39189748125       -0.493916161082     0.39189748125       -0.493916161082     -0.607947464912     -0.481454652077     
6800000000.0        -0.614980727243     -0.479749299157     0.384861685328      -0.49240133578      0.384861685328      -0.49240133578      -0.614980727243     -0.479749299157     
6900000000.0        -0.621865127379     -0.477973934924     0.377974712849      -0.490816647028     0.377974712849      -0.490816647028     -0.621865127379     -0.477973934924     
7000000000.0        -0.628603237831     -0.476133508358     0.371233991211      -0.489167043985     0.371233991211      -0.489167043985     -0.628603237831     -0.476133508358     
7100000000.0        -0.635197672532     -0.474232721856     0.364636906388      -0.487457229222     0.364636906388      -0.487457229222     -0.635197672532     -0.474232721856     
7200000000.0        -0.641651076824     -0.472276040855     0.358180812949      -0.485691668338     0.358180812949      -0.485691668338     -0.641651076824     -0.472276040855     
7300000000.0        -0.647966118337     -0.470267703329     0.351863043174      -0.483874599462     0.351863043174      -0.483874599462     -0.647966118337     -0.470267703329     
7400000000.0        -0.654145478733     -0.468211729137     0.345680915307      -0.482010042601     0.345680915307      -0.482010042601     -0.654145478733     -0.468211729137     
7500000000.0        -0.660191846232     -0.466111929184     0.339631741041      -0.480101808801     0.339631741041      -0.480101808801     -0.660191846232     -0.466111929184     
7600000000.0        -0.666107908867     -0.463971914377     0.333712832249      -0.478153509106     0.333712832249      -0.478153509106     -0.666107908867     -0.463971914377     
7700000000.0        -0.671896348429     -0.461795104366     0.327921507052      -0.476168563293     0.327921507052      -0.476168563293     -0.671896348429     -0.461795104366     
7800000000.0        -0.677559835031     -0.459584736031     0.322255095246      -0.474150208368     0.322255095246      -0.474150208368     -0.677559835031     -0.459584736031     
7900000000.0        -0.683101022256     -0.457343871734     0.316710943156      -0.472101506814     0.316710943156      -0.472101506814     -0.683101022256     -0.457343871734     
8000000000.0        -0.688522542845     -0.455075407304     0.311286417953      -0.470025354574     0.311286417953      -0.470025354574     -0.688522542845     -0.455075407304     
8100000000.0        -0.69382700487      -0.45278207976      0.305978911473      -0.467924488781     0.305978911473      -0.467924488781     -0.69382700487      -0.45278207976      
8200000000.0        -0.699016988367     -0.450466474768     0.300785843588      -0.465801495212     0.300785843588      -0.465801495212     -0.699016988367     -0.450466474768     
8300000000.0        -0.704095042388     -0.448131033829     0.295704665158      -0.463658815472     0.295704665158      -0.463658815472     -0.704095042388     -0.448131033829     
8400000000.0        -0.709063682422     -0.445778061195     0.290732860603      -0.461498753918     0.290732860603      -0.461498753918     -0.709063682422     -0.445778061195     
8500000000.0        -0.713925388182     -0.44340973052      0.285867950119      -0.45932348431      0.285867950119      -0.45932348431      -0.713925388182     -0.44340973052      
8600000000.0        -0.718682601696     -0.441028091251     0.281107491586      -0.457135056194     0.281107491586      -0.457135056194     -0.718682601696     -0.441028091251     
8700000000.0        -0.723337725702     -0.438635074751     0.276449082178      -0.454935401033     0.276449082178      -0.454935401033     -0.723337725702     -0.438635074751     
8800000000.0        -0.727893122295     -0.43623250017      0.271890359707      -0.452726338079     0.271890359707      -0.452726338079     -0.727893122295     -0.43623250017      
8900000000.0        -0.732351111829     -0.43382208007      0.267429003729      -0.450509579992     0.267429003729      -0.450509579992     -0.732351111829     -0.43382208007      
9000000000.0        -0.736713972026     -0.4314054258       0.263062736432      -0.44828673822      0.263062736432      -0.44828673822      -0.736713972026     -0.4314054258       
9100000000.0        -0.740983937286     -0.428984052637     0.258789323324      -0.44605932814      0.258789323324      -0.44605932814      -0.740983937286     -0.428984052637     
9200000000.0        -0.745163198182     -0.426559384694     0.25460657374       -0.443828773967     0.25460657374       -0.443828773967     -0.745163198182     -0.426559384694     
9300000000.0        -0.749253901107     -0.424132759613     0.250512341197      -0.441596413442     0.250512341197      -0.441596413442     -0.749253901107     -0.424132759613     
9400000000.0        -0.753258148075     -0.421705433029     0.24650452359       -0.439363502304     0.24650452359       -0.439363502304     -0.753258148075     -0.421705433029     
9500000000.0        -0.757177996642     -0.419278582838     0.24258106327       -0.437131218552     0.24258106327       -0.437131218552     -0.757177996642     -0.419278582838     
9600000000.0        -0.761015459955     -0.416853313257     0.238739946998      -0.434900666509     0.238739946998      -0.434900666509     -0.761015459955     -0.416853313257     
9700000000.0        -0.764772506898     -0.414430658693     0.234979205801      -0.432672880689     0.234979205801      -0.432672880689     -0.764772506898     -0.414430658693     
9800000000.0        -0.768451062329     -0.412011587428     0.231296914726      -0.430448829484     0.231296914726      -0.430448829484     -0.768451062329     -0.412011587428     
9900000000.0        -0.772053007406     -0.40959700512      0.227691192524      -0.428229418664     0.227691192524      -0.428229418664     -0.772053007406     -0.40959700512      
10000000000.0       -0.77558017998      -0.407187758141     0.224160201251      -0.426015494715     0.224160201251      -0.426015494715     -0.77558017998      -0.407187758141     
