# Hz S RI R 50.00 
100000000.0         -6.76778512159e-05  -0.00934385652386   0.999870199876      -0.00951194129924   0.999870199876      -0.00951194129924   -6.7677851216e-05   -0.00934385652386   
200000000.0         -0.000343368825964  -0.0186823107486    0.999594043729      -0.0190184970313    0.999594043729      -0.0190184970313    -0.000343368825964  -0.0186823107486    
300000000.0         -0.00079648402086   -0.0280103401639    0.999140542352      -0.0285146535041    0.999140542352      -0.0285146535041    -0.00079648402086   -0.0280103401639    
400000000.0         -0.00142650849828   -0.0373229449817    0.998510157197      -0.0379954177354    0.998510157197      -0.0379954177354    -0.00142650849828   -0.0373229449817    
500000000.0         -0.00223275690162   -0.0466151547898    0.997703553104      -0.0474558251025    0.997703553104      -0.0474558251025    -0.00223275690162   -0.0466151547898    
600000000.0         -0.00321436388422   -0.0558820365206    0.996721584989      -0.0568909476563    0.996721584989      -0.0568909476563    -0.00321436388422   -0.0558820365206    
700000000.0         -0.00437028353229   -0.0651187026412    0.995565292619      -0.0662959024865    0.995565292619      -0.0662959024865    -0.00437028353229   -0.0651187026412    
800000000.0         -0.00569929108816   -0.0743203193297    0.994235896778      -0.0756658600018    0.994235896778      -0.0756658600018    -0.00569929108816   -0.0743203193297    
900000000.0         -0.00719998570983   -0.0834821145335    0.992734795561      -0.0849960520584    0.992734795561      -0.0849960520584    -0.00719998570983   -0.0834821145335    
1000000000.0        -0.00887079389824   -0.0925993858442    0.991063560482      -0.0942817798821    0.991063560482      -0.0942817798821    -0.00887079389824   -0.0925993858442    
1100000000.0        -0.0107099734509    -0.101667508149     0.989223932247      -0.103518421757     0.989223932247      -0.103518421757     -0.0107099734509    -0.101667508149     
1200000000.0        -0.01271561787      -0.110681941024     0.987217816195      -0.112701440445     0.987217816195      -0.112701440445     -0.01271561787      -0.110681941024     
1300000000.0        -0.014885661182     -0.11963823583      0.985047277379      -0.121826390306     0.985047277379      -0.121826390306     -0.014885661182     -0.11963823583      
1400000000.0        -0.0172178831314    -0.12853204251      0.982714535305      -0.130888924108     0.982714535305      -0.130888924108     -0.0172178831314    -0.12853204251      
1500000000.0        -0.0197099147216    -0.137359116028     0.980221958353      -0.139884799489     0.980221958353      -0.139884799489     -0.0197099147216    -0.137359116028     
1600000000.0        -0.022359244071     -0.146115322473     0.977572057884      -0.148809885064     0.977572057884      -0.148809885064     -0.022359244071     -0.146115322473     
1700000000.0        -0.025163222558     -0.154796644771     0.974767482078      -0.157660166154     0.974767482078      -0.157660166154     -0.025163222558     -0.154796644771     
1800000000.0        -0.0281190712244    -0.16339918802      0.97181100951       -0.166431750126     0.97181100951       -0.166431750126     -0.0281190712244    -0.16339918802      
1900000000.0        -0.0312238874105    -0.171919184413     0.968705542507      -0.175120871329     0.968705542507      -0.175120871329     -0.0312238874105    -0.171919184413     
2000000000.0        -0.0344746515912    -0.180352997761     0.965454100298      -0.183723895621     0.965454100298      -0.183723895621     -0.0344746515912    -0.180352997761     
2100000000.0        -0.0378682343851    -0.188697127587     0.962059812003      -0.192237324467     0.962059812003      -0.192237324467     -0.0378682343851    -0.188697127587     
2200000000.0        -0.0414014037072    -0.196948212801     0.958525909471      -0.200657798623     0.958525909471      -0.200657798623     -0.0414014037072    -0.196948212801     
2300000000.0        -0.0450708320356    -0.205103034941     0.95485572001       -0.208982101384     0.95485572001       -0.208982101384     -0.0450708320356    -0.205103034941     
2400000000.0        -0.0488731037654    -0.213158520993     0.951052659029      -0.217207161402     0.951052659029      -0.217207161402     -0.0488731037654    -0.213158520993     
2500000000.0        -0.0528047226194    -0.221111745771     0.947120222626      -0.225330055078     0.947120222626      -0.225330055078     -0.0528047226194    -0.221111745771     
2600000000.0        -0.0568621190893    -0.228959933883     0.943061980143      -0.233348008528     0.943061980143      -0.233348008528     -0.0568621190893    -0.228959933883     
2700000000.0        -0.0610416578806    -0.236700461269     0.93888156672       -0.241258399123     0.93888156672       -0.241258399123     -0.0610416578806    -0.236700461269     
2800000000.0        -0.0653396453341    -0.244330856325     0.934582675869      -0.24905875662      0.934582675869      -0.24905875662      -0.0653396453341    -0.244330856325     
2900000000.0        -0.0697523368002    -0.251848800623     0.930169052105      -0.256746763885     0.930169052105      -0.256746763885     -0.0697523368002    -0.251848800623     
3000000000.0        -0.0742759439415    -0.259252129237     0.925644483636      -0.264320257218     0.925644483636      -0.264320257218     -0.0742759439415    -0.259252129237     
3100000000.0        -0.0789066419403    -0.26653883068      0.921012795155      -0.271777226297     0.921012795155      -0.271777226297     -0.0789066419403    -0.26653883068      
3200000000.0        -0.0836405765906    -0.273707046468     0.916277840753      -0.279115813745     0.916277840753      -0.279115813745     -0.0836405765906    -0.273707046468     
3300000000.0        -0.0884738712538    -0.280755070335     0.911443496954      -0.286334314343     0.911443496954      -0.286334314343     -0.0884738712538    -0.280755070335     
3400000000.0        -0.0934026336594    -0.287681347094     0.906513655923      -0.293431173899     0.906513655923      -0.293431173899     -0.0934026336594    -0.287681347094     
3500000000.0        -0.098422962533     -0.294484471179     0.90149221883       -0.300404987787     0.90149221883       -0.300404987787     -0.098422962533     -0.294484471179     
3600000000.0        -0.103530954037     -0.30116318487      0.896383089411      -0.307254499178     0.896383089411      -0.307254499178     -0.103530954037     -0.30116318487      
3700000000.0        -0.108722708006     -0.307716376234     0.891190167734      -0.31397859698      0.891190167734      -0.31397859698      -0.108722708006     -0.307716376234     
3800000000.0        -0.113994333974     -0.314143076779     0.885917344172      -0.3205763135       0.885917344172      -0.3205763135       -0.113994333974     -0.314143076779     
3900000000.0        -0.119341956963     -0.320442458865     0.88056849361       -0.327046821847     0.88056849361       -0.327046821847     -0.119341956963     -0.320442458865     
4000000000.0        -0.124761723048     -0.326613832867     0.875147469883      -0.333389433104     0.875147469883      -0.333389433104     -0.124761723048     -0.326613832867     
4100000000.0        -0.130249804666     -0.33265664412      0.869658100467      -0.339603593277     0.869658100467      -0.339603593277     -0.130249804666     -0.33265664412      
4200000000.0        -0.135802405681     -0.338570469671     0.864104181411      -0.34568888004      0.864104181411      -0.34568888004      -0.135802405681     -0.338570469671     
4300000000.0        -0.141415766185     -0.344355014843     0.858489472538      -0.351644999306     0.858489472538      -0.351644999306     -0.141415766185     -0.344355014843     
4400000000.0        -0.147086167046     -0.350010109637     0.852817692899      -0.357471781632     0.852817692899      -0.357471781632     -0.147086167046     -0.350010109637     
4500000000.0        -0.152809934182     -0.355535704993     0.847092516495      -0.363169178476     0.847092516495      -0.363169178476     -0.152809934182     -0.355535704993     
4600000000.0        -0.158583442573     -0.360931868923     0.841317568264      -0.368737258337     0.841317568264      -0.368737258337     -0.158583442573     -0.360931868923     
4700000000.0        -0.16440312001      -0.366198782533     0.835496420337      -0.374176202776     0.835496420337      -0.374176202776     -0.16440312001      -0.366198782533     
4800000000.0        -0.17026545057      -0.371336735964     0.82963258856       -0.379486302355     0.82963258856       -0.379486302355     -0.17026545057      -0.371336735964     
4900000000.0        -0.176166977836     -0.376346124244     0.823729529272      -0.384667952498     0.823729529272      -0.384667952498     -0.176166977836     -0.376346124244     
5000000000.0        -0.182104307849     -0.381227443093     0.817790636357      -0.38972164929      0.817790636357      -0.38972164929      -0.182104307849     -0.381227443093     
5100000000.0        -0.188074111804     -0.385981284683     0.811819238543      -0.394647985241     0.811819238543      -0.394647985241     -0.188074111804     -0.385981284683     
5200000000.0        -0.194073128497     -0.390608333367     0.805818596964      -0.399447645018     0.805818596964      -0.399447645018     -0.194073128497     -0.390608333367     
5300000000.0        -0.200098166513     -0.395109361399     0.799791902958      -0.404121401159     0.799791902958      -0.404121401159     -0.200098166513     -0.395109361399     
5400000000.0        -0.206146106185     -0.399485224646     0.79374227612       -0.408670109798     0.79374227612       -0.408670109798     -0.206146106185     -0.399485224646     
5500000000.0        -0.212213901309     -0.403736858322     0.787672762582      -0.413094706388     0.787672762582      -0.413094706388     -0.212213901309     -0.403736858322     
5600000000.0        -0.218298580634     -0.407865272739     0.781586333525      -0.417396201458     0.781586333525      -0.417396201458     -0.218298580634     -0.407865272739     
5700000000.0        -0.224397249125     -0.411871549092     0.775485883911      -0.421575676403     0.775485883911      -0.421575676403     -0.224397249125     -0.411871549092     
5800000000.0        -0.230507089022     -0.415756835298     0.76937423143       -0.425634279315     0.76937423143       -0.425634279315     -0.230507089022     -0.415756835298     
5900000000.0        -0.236625360689     -0.419522341878     0.76325411565       -0.429573220876     0.76325411565       -0.429573220876     -0.236625360689     -0.419522341878     
6000000000.0        -0.242749403264     -0.423169337913     0.757128197363      -0.433393770304     0.757128197363      -0.433393770304     -0.242749403264     -0.423169337913     
6100000000.0        -0.248876635125     -0.426699147062     0.750999058122      -0.437097251381     0.750999058122      -0.437097251381     -0.248876635125     -0.426699147062     
6200000000.0        -0.255004554177     -0.430113143666     0.744869199953      -0.440685038554     0.744869199953      -0.440685038554     -0.255004554177     -0.430113143666     
6300000000.0        -0.26113073797      -0.433412748931     0.738741045239      -0.444158553118     0.738741045239      -0.444158553118     -0.26113073797      -0.433412748931     
6400000000.0        -0.267252843652     -0.436599427209     0.732616936764      -0.447519259498     0.732616936764      -0.447519259498     -0.267252843652     -0.436599427209     
6500000000.0        -0.273368607774     -0.439674682363     0.72649913791       -0.450768661617     0.72649913791       -0.450768661617     -0.273368607774     -0.439674682363     
6600000000.0        -0.279475845952     -0.442640054246     0.720389832994      -0.453908299373     0.720389832994      -0.453908299373     -0.279475845952     -0.442640054246     
6700000000.0        -0.285572452394     -0.445497115271     0.714291127742      -0.456939745211     0.714291127742      -0.456939745211     -0.285572452394     -0.445497115271     
6800000000.0        -0.291656399305     -0.448247467096     0.708205049884      -0.45986460081      0.708205049884      -0.45986460081      -0.291656399305     -0.448247467096     
6900000000.0        -0.297725736169     -0.450892737416     0.702133549868      -0.462684493871     0.702133549868      -0.462684493871     -0.297725736169     -0.450892737416     
7000000000.0        -0.303778588933     -0.453434576868     0.696078501683      -0.465401075026     0.696078501683      -0.465401075026     -0.303778588933     -0.453434576868     
7100000000.0        -0.309813159084     -0.455874656041     0.690041703776      -0.468016014851     0.690041703776      -0.468016014851     -0.309813159084     -0.455874656041     
7200000000.0        -0.315827722639     -0.458214662615     0.684024880066      -0.470531001001     0.684024880066      -0.470531001001     -0.315827722639     -0.458214662615     
7300000000.0        -0.32182062905      -0.460456298599     0.678029681037      -0.472947735449     0.678029681037      -0.472947735449     -0.32182062905      -0.460456298599     
7400000000.0        -0.327790300034     -0.462601277692     0.672057684906      -0.475267931852     0.672057684906      -0.475267931852     -0.327790300034     -0.462601277692     
7500000000.0        -0.333735228334     -0.464651322761     0.666110398868      -0.477493313022     0.666110398868      -0.477493313022     -0.333735228334     -0.464651322761     
7600000000.0        -0.33965397642      -0.466608163421     0.660189260387      -0.479625608514     0.660189260387      -0.479625608514     -0.33965397642      -0.466608163421     
7700000000.0        -0.345545175139     -0.468473533742     0.654295638556      -0.481666552329     0.654295638556      -0.481666552329     -0.345545175139     -0.468473533742     
7800000000.0        -0.351407522305     -0.470249170058     0.648430835494      -0.483617880726     0.648430835494      -0.483617880726     -0.351407522305     -0.470249170058     
7900000000.0        -0.357239781265     -0.47193680889      0.642596087793      -0.485481330142     0.642596087793      -0.485481330142     -0.357239781265     -0.47193680889      
8000000000.0        -0.363040779416     -0.473538184977     0.636792567992      -0.487258635227     0.636792567992      -0.487258635227     -0.363040779416     -0.473538184977     
8100000000.0        -0.368809406699     -0.475055029412     0.631021386089      -0.488951526978     0.631021386089      -0.488951526978     -0.368809406699     -0.475055029412     
8200000000.0        -0.374544614063     -0.476489067884     0.625283591072      -0.490561730985     0.625283591072      -0.490561730985     -0.374544614063     -0.476489067884     
8300000000.0        -0.380245411916     -0.477842019021     0.619580172472      -0.492090965767     0.619580172472      -0.492090965767     -0.380245411916     -0.477842019021     
8400000000.0        -0.385910868554     -0.479115592834     0.613912061928      -0.493540941225     0.613912061928      -0.493540941225     -0.385910868554     -0.479115592834     
8500000000.0        -0.391540108588     -0.480311489253     0.608280134768      -0.494913357173     0.608280134768      -0.494913357173     -0.391540108588     -0.480311489253     
8600000000.0        -0.397132311359     -0.481431396764     0.602685211592      -0.496209901977     0.602685211592      -0.496209901977     -0.397132311359     -0.481431396764     
8700000000.0        -0.402686709348     -0.482476991133     0.597128059855      -0.49743225128      0.597128059855      -0.49743225128      -0.402686709348     -0.482476991133     
8800000000.0        -0.408202586598     -0.483449934219     0.591609395455      -0.498582066811     0.591609395455      -0.498582066811     -0.408202586598     -0.483449934219     
8900000000.0        -0.413679277129     -0.484351872871     0.586129884309      -0.499660995291     0.586129884309      -0.499660995291     -0.413679277129     -0.484351872871     
9000000000.0        -0.41911616337      -0.485184437914     0.580690143927      -0.500670667409     0.580690143927      -0.500670667409     -0.41911616337      -0.485184437914     
9100000000.0        -0.424512674595     -0.485949243206     0.575290744975      -0.501612696888     0.575290744975      -0.501612696888     -0.424512674595     -0.485949243206     
9200000000.0        -0.429868285379     -0.486647884776     0.569932212817      -0.502488679618     0.569932212817      -0.502488679618     -0.429868285379     -0.486647884776     
9300000000.0        -0.435182514062     -0.487281940039     0.564615029053      -0.503300192872     0.564615029053      -0.503300192872     -0.435182514062     -0.487281940039     
9400000000.0        -0.44045492124      -0.48785296707      0.559339633026      -0.504048794584     0.559339633026      -0.504048794584     -0.44045492124      -0.48785296707      
9500000000.0        -0.445685108265     -0.488362503962     0.554106423324      -0.5047360227       0.554106423324      -0.5047360227       -0.445685108265     -0.488362503962     
9600000000.0        -0.450872715781     -0.488812068235     0.548915759243      -0.505363394594     0.548915759243      -0.505363394594     -0.450872715781     -0.488812068235     
9700000000.0        -0.456017422269     -0.48920315631      0.543767962242      -0.505932406542     0.543767962242      -0.505932406542     -0.456017422269     -0.48920315631      
9800000000.0        -0.461118942626     -0.48953724305      0.538663317364      -0.506444533256     0.538663317364      -0.506444533256     -0.461118942626     -0.48953724305      
9900000000.0        -0.466177026768     -0.489815781343     0.533602074634      -0.506901227476     0.533602074634      -0.506901227476     -0.466177026768     -0.489815781343     
10000000000.0       -0.471191458258     -0.490040201752     0.528584450429      -0.507303919617     0.528584450429      -0.507303919617     -0.471191458258     -0.490040201752     
