# Hz S RI R 50.00 
100000000.0         0.00173183587491    -0.000228696262258  0.998261391691      -0.00235427603083   0.998261391691      -0.00235427603083   0.00173183587491    -0.000228696262258  
200000000.0         0.00174061179519    -0.000457434441885  0.998240167639      -0.00470849216858   0.998240167639      -0.00470849216858   0.00174061179519    -0.000457434441884  
300000000.0         0.00174527102643    -0.00068619198092   0.998216384516      -0.00706265910301   0.998216384516      -0.00706265910301   0.00174527102643    -0.00068619198092   
400000000.0         0.00174731434602    -0.000914958662577  0.998188541502      -0.00941677362911   0.998188541502      -0.00941677362911   0.00174731434602    -0.000914958662577  
500000000.0         0.0017473191299     -0.00114372699655   0.998156061203      -0.0117708290385    0.998156061203      -0.0117708290385    0.0017473191299     -0.00114372699655   
600000000.0         0.00174557953639    -0.00137249064395   0.998118649466      -0.0141248169667    0.998118649466      -0.0141248169667    0.00174557953639    -0.00137249064395   
700000000.0         0.00174226916045    -0.00160124386585   0.998076132728      -0.0164787280827    0.998076132728      -0.0164787280827    0.00174226916045    -0.00160124386585   
800000000.0         0.00173750036689    -0.00182998127383   0.998028398689      -0.0188325524214    0.998028398689      -0.0188325524214    0.00173750036689    -0.00182998127383   
900000000.0         0.00173135069536    -0.0020586976998    0.997975369903      -0.0211862795679    0.997975369903      -0.0211862795679    0.00173135069536    -0.0020586976998    
1000000000.0        0.00172387623787    -0.00228738812092   0.997916990407      -0.0235398987715    0.997916990407      -0.0235398987715    0.00172387623787    -0.00228738812092   
1100000000.0        0.00171511907139    -0.0025160476133    0.997853218287      -0.025893399019     0.997853218287      -0.025893399019     0.00171511907139    -0.0025160476133    
1200000000.0        0.00170511168468    -0.00274467132204   0.997784021255      -0.0282467690873    0.997784021255      -0.0282467690873    0.00170511168468    -0.00274467132204   
1300000000.0        0.001693879762      -0.0029732544409    0.997709373862      -0.0305999975796    0.997709373862      -0.0305999975796    0.001693879762      -0.0029732544409    
1400000000.0        0.00168144401194    -0.00320179219823   0.997629255676      -0.0329530729538    0.997629255676      -0.0329530729538    0.00168144401194    -0.00320179219823   
1500000000.0        0.00166782141305    -0.00343027984686   0.99754365003       -0.0353059835434    0.99754365003       -0.0353059835434    0.00166782141305    -0.00343027984686   
1600000000.0        0.00165302608825    -0.00365871265676   0.997452543157      -0.0376587175741    0.997452543157      -0.0376587175741    0.00165302608825    -0.00365871265676   
1700000000.0        0.00163706993472    -0.00388708590953   0.997355923555      -0.0400112631772    0.997355923555      -0.0400112631772    0.00163706993472    -0.00388708590953   
1800000000.0        0.00161996308771    -0.00411539489435   0.997253781524      -0.0423636084003    0.997253781524      -0.0423636084003    0.00161996308771    -0.00411539489435   
1900000000.0        0.00160171426887    -0.00434363490484   0.99714610882       -0.0447157412165    0.99714610882       -0.0447157412165    0.00160171426887    -0.00434363490484   
2000000000.0        0.00158233105225    -0.00457180123666   0.997032898393      -0.0470676495315    0.997032898393      -0.0470676495315    0.00158233105225    -0.00457180123666   
2100000000.0        0.0015618200705     -0.0047998891857    0.996914144172      -0.0494193211901    0.996914144172      -0.0494193211901    0.0015618200705     -0.0047998891857    
2200000000.0        0.00154018717691    -0.00502789404662   0.996789840915      -0.0517707439815    0.996789840915      -0.0517707439815    0.00154018717691    -0.00502789404662   
2300000000.0        0.00151743757438    -0.00525581111182   0.99665998407       -0.0541219056441    0.99665998407       -0.0541219056441    0.00151743757438    -0.00525581111182   
2400000000.0        0.00149357591894    -0.00548363567047   0.99652456968       -0.0564727938694    0.99652456968       -0.0564727938694    0.00149357591894    -0.00548363567047   
2500000000.0        0.00146860640402    -0.00571136300799   0.996383594294      -0.0588233963055    0.996383594294      -0.0588233963055    0.00146860640402    -0.00571136300799   
2600000000.0        0.00144253282936    -0.00593898840549   0.996237054902      -0.0611737005602    0.996237054902      -0.0611737005602    0.00144253282936    -0.00593898840549   
2700000000.0        0.00141535865799    -0.00616650713939   0.996084948876      -0.0635236942039    0.996084948876      -0.0635236942039    0.00141535865799    -0.00616650713939   
2800000000.0        0.00138708706373    -0.00639391448116   0.995927273925      -0.0658733647721    0.995927273925      -0.0658733647721    0.00138708706373    -0.00639391448116   
2900000000.0        0.00135772097089    -0.00662120569716   0.995764028053      -0.0682226997674    0.995764028053      -0.0682226997674    0.00135772097089    -0.00662120569716   
3000000000.0        0.00132726308794    -0.00684837604849   0.995595209528      -0.0705716866614    0.995595209528      -0.0705716866614    0.00132726308794    -0.00684837604849   
3100000000.0        0.00129571593591    -0.00707542079092   0.995420816853      -0.0729203128972    0.995420816853      -0.0729203128972    0.00129571593591    -0.00707542079092   
3200000000.0        0.0012630818728     -0.00730233517487   0.995240848743      -0.07526856589      0.995240848743      -0.07526856589      0.0012630818728     -0.00730233517487   
3300000000.0        0.00122936311445    -0.00752911444543   0.995055304102      -0.0776164330296    0.995055304102      -0.0776164330296    0.00122936311445    -0.00752911444543   
3400000000.0        0.00119456175253    -0.00775575384241   0.994864182008      -0.079963901681     0.994864182008      -0.079963901681     0.00119456175253    -0.00775575384241   
3500000000.0        0.00115867977018    -0.00798224860039   0.994667481697      -0.0823109591863    0.994667481697      -0.0823109591863    0.00115867977018    -0.00798224860039   
3600000000.0        0.00112171905558    -0.0082085939488    0.994465202547      -0.0846575928654    0.994465202547      -0.0846575928654    0.00112171905558    -0.0082085939488    
3700000000.0        0.00108368141383    -0.00843478511207   0.994257344072      -0.0870037900173    0.994257344072      -0.0870037900173    0.00108368141383    -0.00843478511207   
3800000000.0        0.00104456857735    -0.00866081730969   0.994043905905      -0.0893495379211    0.994043905905      -0.0893495379211    0.00104456857735    -0.00866081730969   
3900000000.0        0.00100438221506    -0.0088866857564    0.993824887795      -0.091694823837     0.993824887795      -0.091694823837     0.00100438221506    -0.0088866857564    
4000000000.0        0.000963123940469   -0.0091123856623    0.993600289597      -0.0940396350068    0.993600289597      -0.0940396350068    0.000963123940469   -0.0091123856623    
4100000000.0        0.00092079531885    -0.00933791223301   0.993370111262      -0.0963839586554    0.993370111262      -0.0963839586554    0.000920795318849   -0.00933791223301   
4200000000.0        0.000877397873619   -0.00956326066981   0.993134352837      -0.098727781991     0.993134352837      -0.098727781991     0.000877397873619   -0.00956326066981   
4300000000.0        0.000832933092032   -0.00978842616986   0.992893014455      -0.101071092206     0.992893014455      -0.101071092206     0.000832933092032   -0.00978842616986   
4400000000.0        0.000787402430262   -0.0100134039263    0.992646096329      -0.103413876478     0.992646096329      -0.103413876478     0.000787402430262   -0.0100134039263    
4500000000.0        0.000740807317956   -0.0102381891284    0.992393598755      -0.10575612197      0.992393598755      -0.10575612197      0.000740807317956   -0.0102381891284    
4600000000.0        0.000693149162339   -0.0104627769619    0.992135522098      -0.10809781583      0.992135522098      -0.10809781583      0.000693149162339   -0.0104627769619    
4700000000.0        0.000644429351901   -0.0106871626091    0.991871866796      -0.110438945196     0.991871866796      -0.110438945196     0.000644429351901   -0.0106871626091    
4800000000.0        0.000594649259731   -0.0109113412487    0.991602633355      -0.112779497189     0.991602633355      -0.112779497189     0.000594649259731   -0.0109113412487    
4900000000.0        0.000543810246534   -0.0111353080568    0.991327822345      -0.115119458922     0.991327822345      -0.115119458922     0.000543810246534   -0.0111353080568    
5000000000.0        0.000491913663365   -0.0113590582061    0.991047434398      -0.117458817493     0.991047434398      -0.117458817493     0.000491913663365   -0.0113590582061    
5100000000.0        0.000438960854113   -0.011582586867     0.990761470205      -0.119797559991     0.990761470205      -0.119797559991     0.000438960854113   -0.011582586867     
5200000000.0        0.000384953157773   -0.0118058892069    0.990469930515      -0.122135673494     0.990469930515      -0.122135673494     0.000384953157772   -0.0118058892069    
5300000000.0        0.000329891910498   -0.0120289603913    0.990172816134      -0.124473145069     0.990172816134      -0.124473145069     0.000329891910498   -0.0120289603913    
5400000000.0        0.000273778447496   -0.0122517955831    0.989870127922      -0.126809961774     0.989870127922      -0.126809961774     0.000273778447496   -0.0122517955831    
5500000000.0        0.000216614104753   -0.0124743899436    0.989561866789      -0.129146110656     0.989561866789      -0.129146110656     0.000216614104753   -0.0124743899436    
5600000000.0        0.000158400220613   -0.012696738632     0.989248033698      -0.131481578756     0.989248033698      -0.131481578756     0.000158400220613   -0.012696738632     
5700000000.0        9.91381372379e-05   -0.0129188368061    0.988928629661      -0.133816353104     0.988928629661      -0.133816353104     9.91381372379e-05   -0.0129188368061    
5800000000.0        3.88292019431e-05   -0.013140679622     0.98860365574       -0.136150420722     0.98860365574       -0.136150420722     3.88292019429e-05   -0.013140679622     
5900000000.0        -2.25252315743e-05  -0.0133622622349    0.988273113043      -0.138483768624     0.988273113043      -0.138483768624     -2.25252315743e-05  -0.0133622622349    
6000000000.0        -8.49238020977e-05  -0.0135835797987    0.987937002724      -0.140816383819     0.987937002724      -0.140816383819     -8.49238020973e-05  -0.0135835797987    
6100000000.0        -0.000148365139839  -0.0138046274666    0.987595325983      -0.143148253304     0.987595325983      -0.143148253304     -0.00014836513984   -0.0138046274666    
6200000000.0        -0.000212847865476  -0.0140254003908    0.987248084065      -0.145479364075     0.987248084065      -0.145479364075     -0.000212847865476  -0.0140254003908    
6300000000.0        -0.000278370589245  -0.0142458937235    0.986895278259      -0.147809703116     0.986895278259      -0.147809703116     -0.000278370589245  -0.0142458937235    
6400000000.0        -0.000344931910117  -0.014466102616     0.986536909897      -0.150139257408     0.986536909897      -0.150139257408     -0.000344931910117  -0.014466102616     
6500000000.0        -0.000412530415021  -0.01468602222      0.986172980352      -0.152468013925     0.986172980352      -0.152468013925     -0.000412530415021  -0.01468602222      
6600000000.0        -0.000481164678127  -0.0149056476869    0.985803491041      -0.154795959635     0.985803491041      -0.154795959635     -0.000481164678127  -0.0149056476869    
6700000000.0        -0.000550833260182  -0.0151249741685    0.985428443421      -0.157123081503     0.985428443421      -0.157123081503     -0.000550833260181  -0.0151249741685    
6800000000.0        -0.000621534707881  -0.0153439968169    0.985047838991      -0.159449366485     0.985047838991      -0.159449366485     -0.000621534707881  -0.0153439968169    
6900000000.0        -0.000693267553304  -0.0155627107849    0.984661679287      -0.161774801535     0.984661679287      -0.161774801535     -0.000693267553304  -0.0155627107849    
7000000000.0        -0.000766030313357  -0.015781111226     0.98426996589       -0.164099373602     0.98426996589       -0.164099373602     -0.000766030313357  -0.015781111226     
7100000000.0        -0.000839821489289  -0.0159991932947    0.983872700416      -0.166423069631     0.983872700416      -0.166423069631     -0.000839821489288  -0.0159991932947    
7200000000.0        -0.000914639566205  -0.0162169521465    0.983469884523      -0.16874587656      0.983469884523      -0.16874587656      -0.000914639566205  -0.0162169521465    
7300000000.0        -0.000990483012639  -0.0164343829385    0.983061519904      -0.171067781328     0.983061519904      -0.171067781328     -0.000990483012639  -0.0164343829385    
7400000000.0        -0.00106735028013   -0.016651480829     0.982647608296      -0.173388770867     0.982647608296      -0.173388770867     -0.00106735028013   -0.016651480829     
7500000000.0        -0.00114523980287   -0.0168682409781    0.982228151468      -0.175708832107     0.982228151468      -0.175708832107     -0.00114523980287   -0.0168682409781    
7600000000.0        -0.00122414999728   -0.0170846585477    0.981803151231      -0.178027951974     0.981803151231      -0.178027951974     -0.00122414999728   -0.0170846585477    
7700000000.0        -0.00130407926176   -0.0173007287017    0.981372609431      -0.180346117392     0.981372609431      -0.180346117392     -0.00130407926176   -0.0173007287017    
7800000000.0        -0.00138502597629   -0.0175164466063    0.980936527953      -0.182663315283     0.980936527953      -0.182663315283     -0.00138502597629   -0.0175164466063    
7900000000.0        -0.00146698850218   -0.01773180743      0.980494908719      -0.184979532565     0.980494908719      -0.184979532565     -0.00146698850218   -0.01773180743      
8000000000.0        -0.00154996518179   -0.0179468063438    0.980047753685      -0.187294756155     0.980047753685      -0.187294756155     -0.00154996518179   -0.0179468063438    
8100000000.0        -0.00163395433827   -0.0181614385214    0.979595064847      -0.189608972967     0.979595064847      -0.189608972967     -0.00163395433827   -0.0181614385214    
8200000000.0        -0.00171895427528   -0.0183756991395    0.979136844236      -0.191922169914     0.979136844236      -0.191922169914     -0.00171895427528   -0.0183756991395    
8300000000.0        -0.0018049632768    -0.0185895833778    0.978673093919      -0.194234333908     0.978673093919      -0.194234333908     -0.0018049632768    -0.0185895833778    
8400000000.0        -0.00189197960692   -0.0188030864192    0.978203815999      -0.196545451858     0.978203815999      -0.196545451858     -0.00189197960692   -0.0188030864192    
8500000000.0        -0.00198000150958   -0.0190162034501    0.977729012616      -0.198855510674     0.977729012616      -0.198855510674     -0.00198000150958   -0.0190162034501    
8600000000.0        -0.00206902720845   -0.0192289296603    0.977248685944      -0.201164497263     0.977248685944      -0.201164497263     -0.00206902720844   -0.0192289296603    
8700000000.0        -0.0021590549067    -0.0194412602435    0.976762838194      -0.203472398533     0.976762838194      -0.203472398533     -0.0021590549067    -0.0194412602435    
8800000000.0        -0.00225008278686   -0.0196531903973    0.976271471612      -0.20577920139      0.976271471612      -0.20577920139      -0.00225008278686   -0.0196531903973    
8900000000.0        -0.00234210901067   -0.0198647153232    0.97577458848       -0.208084892741     0.97577458848       -0.208084892741     -0.00234210901067   -0.0198647153232    
9000000000.0        -0.00243513171888   -0.0200758302272    0.975272191113      -0.210389459491     0.975272191113      -0.210389459491     -0.00243513171888   -0.0200758302272    
9100000000.0        -0.00252914903117   -0.0202865303195    0.974764281864      -0.212692888547     0.974764281864      -0.212692888547     -0.00252914903117   -0.0202865303195    
9200000000.0        -0.002624159046     -0.020496810815     0.97425086312       -0.214995166816     0.97425086312       -0.214995166816     -0.002624159046     -0.020496810815     
9300000000.0        -0.00272015984046   -0.0207066669334    0.973731937303      -0.217296281203     0.973731937303      -0.217296281203     -0.00272015984046   -0.0207066669334    
9400000000.0        -0.00281714947022   -0.0209160938991    0.973207506868      -0.219596218617     0.973207506868      -0.219596218617     -0.00281714947022   -0.0209160938991    
9500000000.0        -0.00291512596935   -0.0211250869418    0.972677574308      -0.221894965965     0.972677574308      -0.221894965965     -0.00291512596935   -0.0211250869418    
9600000000.0        -0.00301408735027   -0.0213336412964    0.972142142149      -0.224192510157     0.972142142149      -0.224192510157     -0.00301408735026   -0.0213336412964    
9700000000.0        -0.00311403160361   -0.021541752203     0.971601212951      -0.226488838103     0.971601212951      -0.226488838103     -0.00311403160361   -0.021541752203     
9800000000.0        -0.0032149566982    -0.0217494149075    0.971054789309      -0.228783936714     0.971054789309      -0.228783936714     -0.0032149566982    -0.0217494149075    
9900000000.0        -0.0033168605809    -0.0219566246614    0.970502873854      -0.231077792903     0.970502873854      -0.231077792903     -0.0033168605809    -0.0219566246614    
10000000000.0       -0.00341974117657   -0.0221633767223    0.96994546925       -0.233370393584     0.96994546925       -0.233370393584     -0.00341974117657   -0.0221633767223    
