# Hz S RI R 50.00 
100000000.0         -0.00835740550901   -0.0905188281565    0.991608635255      -0.0907377315902    0.991608635255      -0.0907377315902    -0.00835740550901   -0.0905188281565    
200000000.0         -0.0324788008504    -0.176595179274     0.967486935421      -0.177033116399     0.967486935421      -0.177033116399     -0.0324788008504    -0.176595179274     
300000000.0         -0.0701037739883    -0.254523304517     0.929861667587      -0.255180471423     0.929861667587      -0.255180471423     -0.0701037739883    -0.254523304517     
400000000.0         -0.118060604141     -0.32176299         0.881904523195      -0.322639631089     0.881904523195      -0.322639631089     -0.118060604141     -0.32176299         
500000000.0         -0.172851267142     -0.377086261776     0.82711351503       -0.378182659868     0.82711351503       -0.378182659868     -0.172851267142     -0.377086261776     
600000000.0         -0.231174925079     -0.420437464472     0.768789475105      -0.421753933693     0.768789475105      -0.421753933693     -0.231174925079     -0.420437464472     
700000000.0         -0.290266266274     -0.452625137563     0.709697711515      -0.454162017754     0.709697711515      -0.454162017754     -0.290266266274     -0.452625137563     
800000000.0         -0.348035311793     -0.474974066246     0.651928200781      -0.476731718368     0.651928200781      -0.476731718368     -0.348035311793     -0.474974066246     
900000000.0         -0.403055991116     -0.489025587083     0.59690701167       -0.491004389334     0.59690701167       -0.491004389334     -0.403055991116     -0.489025587083     
1000000000.0        -0.454468536589     -0.496323312835     0.545493910486      -0.498523657342     0.545493910486      -0.498523657342     -0.454468536589     -0.496323312835     
1100000000.0        -0.501850407761     -0.498284250287     0.498111436595      -0.500706540252     0.498111436595      -0.500706540252     -0.501850407761     -0.498284250287     
1200000000.0        -0.545090508912     -0.496137189696     0.454870684812      -0.498781836939     0.454870684812      -0.498781836939     -0.545090508912     -0.496137189696     
1300000000.0        -0.584283452503     -0.490906271256     0.415677041899      -0.493773694087     0.415677041899      -0.493773694087     -0.584283452503     -0.490906271256     
1400000000.0        -0.619648567649     -0.483420847249     0.380311178056      -0.486511468643     0.380311178056      -0.486511468643     -0.619648567649     -0.483420847249     
1500000000.0        -0.651471936818     -0.474338145294     0.348487010204      -0.477652391319     0.348487010204      -0.477652391319     -0.651471936818     -0.474338145294     
1600000000.0        -0.68006719511      -0.464170235738     0.319890902687      -0.467708534209     0.319890902687      -0.467708534209     -0.68006719511      -0.464170235738     
1700000000.0        -0.705750432231     -0.453310544818     0.294206765289      -0.457073324165     0.294206765289      -0.457073324165     -0.705750432231     -0.453310544818     
1800000000.0        -0.728825113981     -0.442057615979     0.271131131733      -0.446045304286     0.271131131733      -0.446045304286     -0.728825113981     -0.442057615979     
1900000000.0        -0.749573814136     -0.430635289326     0.250381427799      -0.434848313536     0.250381427799      -0.434848313536     -0.749573814136     -0.430635289326     
2000000000.0        -0.768254396118     -0.419209263512     0.231699789643      -0.423648048768     0.231699789643      -0.423648048768     -0.768254396118     -0.419209263512     
2100000000.0        -0.785098985472     -0.407900382386     0.214854091322      -0.412565351504     0.214854091322      -0.412565351504     -0.785098985472     -0.407900382386     
2200000000.0        -0.800314607193     -0.396795128746     0.19963730746       -0.401686701798     0.19963730746       -0.401686701798     -0.800314607193     -0.396795128746     
2300000000.0        -0.814084746106     -0.385953822208     0.18586595287       -0.3910724162       0.18586595287       -0.3910724162       -0.814084746106     -0.385953822208     
2400000000.0        -0.826571355489     -0.375416974125     0.173378073919      -0.38076300276      0.173378073919      -0.38076300276      -0.826571355489     -0.375416974125     
2500000000.0        -0.837917019711     -0.365210186521     0.162031085903      -0.370784060042     0.162031085903      -0.370784060042     -0.837917019711     -0.365210186521     
2600000000.0        -0.848247095927     -0.35534791316      0.151699631338      -0.361150038256     0.151699631338      -0.361150038256     -0.848247095927     -0.35534791316      
2700000000.0        -0.857671737145     -0.345836337932     0.142273556898      -0.351867117698     0.142273556898      -0.351867117698     -0.857671737145     -0.345836337932     
2800000000.0        -0.866287747791     -0.336675571928     0.133656057847      -0.342935405876     0.133656057847      -0.342935405876     -0.866287747791     -0.336675571928     
2900000000.0        -0.874180252995     -0.327861326421     0.125762008751      -0.334350610535     0.125762008751      -0.334350610535     -0.874180252995     -0.327861326421     
3000000000.0        -0.881424180714     -0.319386183584     0.118516481357      -0.326105310408     0.118516481357      -0.326105310408     -0.881424180714     -0.319386183584     
3100000000.0        -0.888085565818     -0.31124055891      0.111853440506      -0.318189917667     0.111853440506      -0.318189917667     -0.888085565818     -0.31124055891      
3200000000.0        -0.894222690414     -0.30341342756      0.105714603803      -0.310593404294     0.105714603803      -0.310593404294     -0.894222690414     -0.30341342756      
3300000000.0        -0.899887076785     -0.29589287009      0.100048448683      -0.303303847834     0.100048448683      -0.303303847834     -0.899887076785     -0.29589287009      
3400000000.0        -0.905124349604     -0.288666480045     0.0948093501957     -0.296308839005     0.0948093501957     -0.296308839005     -0.905124349604     -0.288666480045     
3500000000.0        -0.909974983394     -0.28172166602      0.089956833542      -0.289595783766     0.089956833542      -0.289595783766     -0.909974983394     -0.28172166602      
3600000000.0        -0.914474949954     -0.27504587312      0.0854549266482     -0.283152124799     0.0854549266482     -0.283152124799     -0.914474949954     -0.27504587312      
3700000000.0        -0.918656279022     -0.268626742994     0.0812715995059     -0.276965501543     0.0812715995059     -0.276965501543     -0.918656279022     -0.268626742994     
3800000000.0        -0.922547543912     -0.2624522271       0.0773782785303     -0.27102386347      0.0773782785303     -0.27102386347      -0.922547543912     -0.2624522271       
3900000000.0        -0.926174282441     -0.256510664491     0.0737494256343     -0.265315547872     0.0737494256343     -0.265315547872     -0.926174282441     -0.256510664491     
4000000000.0        -0.929559362097     -0.25079083274      0.0703621730621     -0.25982933079      0.0703621730621     -0.25982933079      -0.929559362097     -0.25079083274      
4100000000.0        -0.932723297185     -0.245281978676     0.0671960062382     -0.254554457753     0.0671960062382     -0.254554457753     -0.932723297185     -0.245281978676     
4200000000.0        -0.935684524639     -0.239973834001     0.0642324879591     -0.24948065939      0.0642324879591     -0.24948065939      -0.935684524639     -0.239973834001     
4300000000.0        -0.938459644218     -0.234856619716     0.0614550181964     -0.244598155864     0.0614550181964     -0.244598155864     -0.938459644218     -0.234856619716     
4400000000.0        -0.941063628007     -0.229921042349     0.0588486245927     -0.239897653086     0.0588486245927     -0.239897653086     -0.941063628007     -0.229921042349     
4500000000.0        -0.943510003444     -0.225158284274     0.0563997794376     -0.235370333042     0.0563997794376     -0.235370333042     -0.943510003444     -0.225158284274     
4600000000.0        -0.945811013474     -0.220559989887     0.0540962395116     -0.231007839959     0.0540962395116     -0.231007839959     -0.945811013474     -0.220559989887     
4700000000.0        -0.947977756929     -0.21611824896      0.0519269057056     -0.226802263661     0.0519269057056     -0.226802263661     -0.947977756929     -0.21611824896      
4800000000.0        -0.950020311787     -0.211825578199     0.0498816997641     -0.222746121117     0.0498816997641     -0.222746121117     -0.950020311787     -0.211825578199     
4900000000.0        -0.951947843575     -0.207674901757     0.047951455877      -0.218832336953     0.047951455877      -0.218832336953     -0.951947843575     -0.207674901757     
5000000000.0        -0.953768700887     -0.203659531277     0.046127825168      -0.215054223492     0.046127825168      -0.215054223492     -0.953768700887     -0.203659531277     
5100000000.0        -0.955490499672     -0.199773145896     0.0444031914004     -0.211405460747     0.0444031914004     -0.211405460747     -0.955490499672     -0.199773145896     
5200000000.0        -0.957120197756     -0.196009772502     0.0427705964573     -0.207880076682     0.0427705964573     -0.207880076682     -0.957120197756     -0.196009772502     
5300000000.0        -0.958664160835     -0.192363766481     0.0412236743498     -0.204472427946     0.0412236743498     -0.204472427946     -0.958664160835     -0.192363766481     
5400000000.0        -0.960128221006     -0.188829793101     0.0397565926818     -0.201177181255     0.0397565926818     -0.201177181255     -0.960128221006     -0.188829793101     
5500000000.0        -0.961517728782     -0.185402809629     0.0383640006412     -0.197989295506     0.0383640006412     -0.197989295506     -0.961517728782     -0.185402809629     
5600000000.0        -0.962837599368     -0.182078048263     0.0370409827162     -0.194904004701     0.0370409827162     -0.194904004701     -0.962837599368     -0.182078048263     
5700000000.0        -0.964092353922     -0.178850999887     0.0357830174396     -0.191916801701     0.0357830174396     -0.191916801701     -0.964092353922     -0.178850999887     
5800000000.0        -0.965286156383     -0.175717398693     0.0345859405582     -0.189023422835     0.0345859405582     -0.189023422835     -0.965286156383     -0.175717398693     
5900000000.0        -0.966422846405     -0.172673207631     0.0334459121005     -0.186219833359     0.0334459121005     -0.186219833359     -0.966422846405     -0.172673207631     
6000000000.0        -0.967505968844     -0.169714604706     0.0323593868861     -0.183502213733     0.0323593868861     -0.183502213733     -0.967505968844     -0.169714604706     
6100000000.0        -0.968538800209     -0.166837970067     0.0313230880781     -0.180866946717     0.0313230880781     -0.180866946717     -0.968538800209     -0.166837970067     
6200000000.0        -0.969524372416     -0.164039873882     0.0303339834288     -0.178310605236     0.0303339834288     -0.178310605236     -0.969524372416     -0.164039873882     
6300000000.0        -0.970465494148     -0.161317064951     0.0293892639157     -0.175829940992     0.0293892639157     -0.175829940992     -0.970465494148     -0.161317064951     
6400000000.0        -0.971364770102     -0.158666460028     0.0284863244976     -0.173421873777     0.0284863244976     -0.173421873777     -0.971364770102     -0.158666460028     
6500000000.0        -0.972224618346     -0.156085133808     0.0276227467599     -0.171083481465     0.0276227467599     -0.171083481465     -0.972224618346     -0.156085133808     
6600000000.0        -0.973047285986     -0.153570309559     0.0267962832393     -0.168811990629     0.0267962832393     -0.168811990629     -0.973047285986     -0.153570309559     
6700000000.0        -0.97383486335      -0.151119350332     0.0260048432496     -0.166604767757     0.0260048432496     -0.166604767757     -0.97383486335      -0.151119350332     
6800000000.0        -0.974589296816     -0.148729750749     0.025246480046      -0.164459311031     0.025246480046      -0.164459311031     -0.974589296816     -0.148729750749     
6900000000.0        -0.975312400452     -0.146399129305     0.0245193791886     -0.162373242629     0.0245193791886     -0.162373242629     -0.975312400452     -0.146399129305     
7000000000.0        -0.976005866579     -0.144125221172     0.0238218479782     -0.160344301519     0.0238218479782     -0.160344301519     -0.976005866579     -0.144125221172     
7100000000.0        -0.97667127537      -0.14190587145      0.0231523058566     -0.15837033672      0.0231523058566     -0.15837033672      -0.97667127537      -0.14190587145      
7200000000.0        -0.97731010359      -0.139739028868     0.0225092756698     -0.156449300986     0.0225092756698     -0.156449300986     -0.97731010359      -0.139739028868     
7300000000.0        -0.977923732549     -0.137622739869     0.0218913757098     -0.154579244899     0.0218913757098     -0.154579244899     -0.977923732549     -0.137622739869     
7400000000.0        -0.978513455363     -0.135555143086     0.0212973124564     -0.152758311336     0.0212973124564     -0.152758311336     -0.978513455363     -0.135555143086     
7500000000.0        -0.979080483582     -0.133534464159     0.0207258739504     -0.150984730283     0.0207258739504     -0.150984730283     -0.979080483582     -0.133534464159     
7600000000.0        -0.979625953245     -0.131559010881     0.0201759237358     -0.149256813987     0.0201759237358     -0.149256813987     -0.979625953245     -0.131559010881     
7700000000.0        -0.980150930422     -0.129627168655     0.0196463953176     -0.1475729524       0.0196463953176     -0.1475729524       -0.980150930422     -0.129627168655     
7800000000.0        -0.980656416292     -0.127737396227     0.0191362870852     -0.145931608918     0.0191362870852     -0.145931608918     -0.980656416292     -0.127737396227     
7900000000.0        -0.9811433518       -0.125888221693     0.0186446576576     -0.144331316383     0.0186446576576     -0.144331316383     -0.9811433518       -0.125888221693     
8000000000.0        -0.981612621923     -0.124078238748     0.018170621611      -0.142770673326     0.018170621611      -0.142770673326     -0.981612621923     -0.124078238748     
8100000000.0        -0.982065059599     -0.122306103167     0.0177133455544     -0.141248340457     0.0177133455544     -0.141248340457     -0.982065059599     -0.122306103167     
8200000000.0        -0.982501449337     -0.120570529502     0.0172720445197     -0.139763037349     0.0172720445197     -0.139763037349     -0.982501449337     -0.120570529502     
8300000000.0        -0.982922530535     -0.118870287983     0.0168459786399     -0.138313539344     0.0168459786399     -0.138313539344     -0.982922530535     -0.118870287983     
8400000000.0        -0.983329000545     -0.1172042016       0.0164344500886     -0.136898674632     0.0164344500886     -0.136898674632     -0.983329000545     -0.1172042016       
8500000000.0        -0.983721517491     -0.115571143365     0.016036800257      -0.135517321512     0.016036800257      -0.135517321512     -0.983721517491     -0.115571143365     
8600000000.0        -0.984100702879     -0.113970033738     0.0156524071493     -0.134168405815     0.0156524071493     -0.134168405815     -0.984100702879     -0.113970033738     
8700000000.0        -0.984467143998     -0.112399838203     0.0152806829767     -0.13285089848      0.0152806829767     -0.13285089848      -0.984467143998     -0.112399838203     
8800000000.0        -0.984821396146     -0.110859564984     0.0149210719322     -0.131563813273     0.0149210719322     -0.131563813273     -0.984821396146     -0.110859564984     
8900000000.0        -0.985163984693     -0.109348262905     0.0145730481324     -0.130306204638     0.0145730481324     -0.130306204638     -0.985163984693     -0.109348262905     
9000000000.0        -0.98549540698      -0.10786501936      0.0142361137111     -0.129077165674     0.0142361137111     -0.129077165674     -0.98549540698      -0.10786501936      
9100000000.0        -0.985816134089     -0.106408958414     0.0139097970529     -0.127875826226     0.0139097970529     -0.127875826226     -0.985816134089     -0.106408958414     
9200000000.0        -0.986126612484     -0.104979238999     0.0135936511539     -0.126701351093     0.0135936511539     -0.126701351093     -0.986126612484     -0.104979238999     
9300000000.0        -0.986427265526     -0.103575053226     0.0132872521012     -0.125552938326     0.0132872521012     -0.125552938326     -0.986427265526     -0.103575053226     
9400000000.0        -0.986718494892     -0.10219562478      0.0129901976596     -0.124429817634     0.0129901976596     -0.124429817634     -0.986718494892     -0.10219562478      
9500000000.0        -0.987000681885     -0.100840207413     0.0127021059581     -0.123331248868     0.0127021059581     -0.123331248868     -0.987000681885     -0.100840207413     
9600000000.0        -0.987274188656     -0.0995080835188    0.0124226142679     -0.122256520599     0.0124226142679     -0.122256520599     -0.987274188656     -0.0995080835188    
9700000000.0        -0.987539359344     -0.098198562783     0.0121513778648     -0.121204948767     0.0121513778648     -0.121204948767     -0.987539359344     -0.098198562783     
9800000000.0        -0.987796521131     -0.0969109809119    0.0118880689693     -0.120175875411     0.0118880689693     -0.120175875411     -0.987796521131     -0.0969109809119    
9900000000.0        -0.988045985234     -0.0956446984267    0.0116323757586     -0.11916866746      0.0116323757586     -0.11916866746      -0.988045985234     -0.0956446984267    
10000000000.0       -0.988288047827     -0.0943990995243    0.0113840014448     -0.118182715598     0.0113840014448     -0.118182715598     -0.988288047827     -0.0943990995243    
