# Hz S RI R 50.00 
100000000.0         0.00115613579567    -0.000953408672978  0.99882365826       -0.00436833659184   0.99882365826       -0.00436833659184   0.00115613579567    -0.000953408672978  
200000000.0         0.00114894893632    -0.0019068022105    0.998783306635      -0.00873655693198   0.998783306635      -0.00873655693198   0.00114894893632    -0.0019068022105    
300000000.0         0.00113140524459    -0.00286010186138   0.998724979307      -0.013104613112     0.998724979307      -0.013104613112     0.00113140524459    -0.00286010186138   
400000000.0         0.00110451105344    -0.00381323867522   0.998647670543      -0.0174724355104    0.998647670543      -0.0174724355104    0.00110451105344    -0.00381323867522   
500000000.0         0.00106865403436    -0.00476614484209   0.998550993996      -0.0218399473253    0.998550993996      -0.0218399473253    0.00106865403436    -0.00476614484209   
600000000.0         0.00102403254594    -0.00571875259895   0.998434753448      -0.0262070677397    0.998434753448      -0.0262070677397    0.00102403254594    -0.00571875259895   
700000000.0         0.000970764694229   -0.00667099394708   0.998298833803      -0.0305737132659    0.998298833803      -0.0305737132659    0.000970764694229   -0.00667099394708   
800000000.0         0.00090892811151    -0.00762280057312   0.998143161362      -0.0349397984656    0.998143161362      -0.0349397984656    0.00090892811151    -0.00762280057312   
900000000.0         0.00083857765967    -0.00857410383607   0.997967686157      -0.039305236389     0.997967686157      -0.039305236389     0.00083857765967    -0.00857410383607   
1000000000.0        0.000759754401121   -0.00952483477828   0.997772373011      -0.0436699388668    0.997772373011      -0.0436699388668    0.000759754401121   -0.00952483477828   
1100000000.0        0.000672490585273   -0.0104749241451    0.99755719658       -0.0480338167175    0.99755719658       -0.0480338167175    0.000672490585272   -0.0104749241451    
1200000000.0        0.000576812620405   -0.0114243024076    0.997322138406      -0.0523967799007    0.997322138406      -0.0523967799007    0.000576812620406   -0.0114243024076    
1300000000.0        0.000472742944287   -0.012372899785     0.997067185067      -0.0567587376359    0.997067185067      -0.0567587376359    0.000472742944287   -0.012372899785     
1400000000.0        0.000360301254708   -0.0133206462673    0.996792326964      -0.0611195984959    0.996792326964      -0.0611195984959    0.000360301254709   -0.0133206462673    
1500000000.0        0.000239505348947   -0.0142674716359    0.996497557501      -0.0654792704834    0.996497557501      -0.0654792704834    0.000239505348947   -0.0142674716359    
1600000000.0        0.000110371714257   -0.0152133054839    0.99618287251       -0.0698376610943    0.99618287251       -0.0698376610943    0.000110371714257   -0.0152133054839    
1700000000.0        -2.70840457847e-05  -0.0161580772345    0.995848269835      -0.0741946773716    0.995848269835      -0.0741946773716    -2.7084045785e-05   -0.0161580772345    
1800000000.0        -0.000172846896405  -0.0171017161588    0.995493749034      -0.0785502259508    0.995493749034      -0.0785502259508    -0.000172846896405  -0.0171017161588    
1900000000.0        -0.000326902134464  -0.0180441513928    0.995119311152      -0.0829042131009    0.995119311152      -0.0829042131009    -0.000326902134464  -0.0180441513928    
2000000000.0        -0.000489235206673  -0.018985311953     0.99472495855       -0.0872565447589    0.99472495855       -0.0872565447589    -0.000489235206674  -0.018985311953     
2100000000.0        -0.000659831568102  -0.0199251267515    0.994310694771      -0.091607126562     0.994310694771      -0.091607126562     -0.000659831568102  -0.0199251267515    
2200000000.0        -0.000838676570507  -0.0208635246108    0.993876524442      -0.0959558638756    0.993876524442      -0.0959558638756    -0.000838676570507  -0.0208635246108    
2300000000.0        -0.00102575537312   -0.0218004342774    0.99342245319       -0.100302661819     0.99342245319       -0.100302661819     -0.00102575537312   -0.0218004342774    
2400000000.0        -0.00122105287057   -0.0227357844353    0.992948487577      -0.104647425288     0.992948487577      -0.104647425288     -0.00122105287057   -0.0227357844353    
2500000000.0        -0.00142455363404   -0.0236695037188    0.992454635052      -0.10899005898      0.992454635052      -0.10899005898      -0.00142455363404   -0.0236695037188    
2600000000.0        -0.00163624186286   -0.0246015207249    0.991940903905      -0.113330467409     0.991940903905      -0.113330467409     -0.00163624186286   -0.0246015207249    
2700000000.0        -0.00185610134426   -0.0255317640257    0.991407303234      -0.117668554928     0.991407303234      -0.117668554928     -0.00185610134426   -0.0255317640257    
2800000000.0        -0.00208411541976   -0.0264601621798    0.990853842917      -0.122004225745     0.990853842917      -0.122004225745     -0.00208411541976   -0.0264601621798    
2900000000.0        -0.00232026695684   -0.0273866437441    0.99028053359       -0.126337383942     0.99028053359       -0.126337383942     -0.00232026695684   -0.0273866437441    
3000000000.0        -0.00256453832499   -0.0283111372847    0.989687386625      -0.130667933485     0.989687386625      -0.130667933485     -0.00256453832499   -0.0283111372847    
3100000000.0        -0.00281691137525   -0.029233571388     0.989074414114      -0.134995778246     0.989074414114      -0.134995778246     -0.00281691137525   -0.029233571388     
3200000000.0        -0.00307736742285   -0.0301538746715    0.988441628858      -0.139320822011     0.988441628858      -0.139320822011     -0.00307736742285   -0.0301538746715    
3300000000.0        -0.00334588723216   -0.0310719757941    0.987789044352      -0.143642968497     0.987789044352      -0.143642968497     -0.00334588723216   -0.0310719757941    
3400000000.0        -0.00362245100385   -0.0319878034666    0.987116674776      -0.147962121366     0.987116674776      -0.147962121366     -0.00362245100385   -0.0319878034666    
3500000000.0        -0.00390703836376   -0.0329012864618    0.986424534989      -0.152278184233     0.986424534989      -0.152278184233     -0.00390703836376   -0.0329012864618    
3600000000.0        -0.00419962835329   -0.0338123536246    0.985712640515      -0.156591060681     0.985712640515      -0.156591060681     -0.00419962835329   -0.0338123536246    
3700000000.0        -0.00450019942108   -0.0347209338817    0.984981007544      -0.160900654274     0.984981007544      -0.160900654274     -0.00450019942108   -0.0347209338817    
3800000000.0        -0.00480872941588   -0.0356269562514    0.984229652921      -0.165206868565     0.984229652921      -0.165206868565     -0.00480872941588   -0.0356269562514    
3900000000.0        -0.00512519558026   -0.0365303498532    0.983458594144      -0.169509607109     0.983458594144      -0.169509607109     -0.00512519558026   -0.0365303498532    
4000000000.0        -0.00544957454531   -0.0374310439171    0.982667849358      -0.173808773474     0.982667849358      -0.173808773474     -0.00544957454531   -0.0374310439171    
4100000000.0        -0.00578184232605   -0.0383289677932    0.981857437349      -0.178104271248     0.981857437349      -0.178104271248     -0.00578184232605   -0.0383289677932    
4200000000.0        -0.00612197431748   -0.0392240509609    0.981027377546      -0.182396004054     0.981027377546      -0.182396004054     -0.00612197431748   -0.0392240509609    
4300000000.0        -0.00646994529127   -0.0401162230378    0.980177690011      -0.186683875557     0.980177690011      -0.186683875557     -0.00646994529127   -0.0401162230378    
4400000000.0        -0.00682572939293   -0.041005413789     0.97930839544       -0.190967789472     0.97930839544       -0.190967789472     -0.00682572939293   -0.041005413789     
4500000000.0        -0.00718930013957   -0.0418915531359    0.978419515158      -0.195247649578     0.978419515158      -0.195247649578     -0.00718930013957   -0.0418915531359    
4600000000.0        -0.00756063041794   -0.0427745711652    0.97751107112       -0.199523359723     0.97751107112       -0.199523359723     -0.00756063041794   -0.0427745711652    
4700000000.0        -0.007939692483     -0.0436543981376    0.976583085901      -0.203794823835     0.976583085901      -0.203794823835     -0.007939692483     -0.0436543981376    
4800000000.0        -0.0083264579568    -0.0445309644963    0.975635582701      -0.208061945931     0.975635582701      -0.208061945931     -0.0083264579568    -0.0445309644963    
4900000000.0        -0.00872089782767   -0.0454042008759    0.974668585338      -0.212324630126     0.974668585338      -0.212324630126     -0.00872089782767   -0.0454042008759    
5000000000.0        -0.00912298244978   -0.046274038111     0.973682118247      -0.216582780637     0.973682118247      -0.216582780637     -0.00912298244978   -0.046274038111     
5100000000.0        -0.00953268154292   -0.0471404072441    0.972676206478      -0.220836301799     0.972676206478      -0.220836301799     -0.00953268154292   -0.0471404072441    
5200000000.0        -0.00994996419257   -0.0480032395346    0.971650875693      -0.225085098068     0.971650875693      -0.225085098068     -0.00994996419257   -0.0480032395346    
5300000000.0        -0.0103747988503    -0.0488624664667    0.970606152162      -0.22932907403      0.970606152162      -0.22932907403      -0.0103747988503    -0.0488624664667    
5400000000.0        -0.0108071533341    -0.0497180197581    0.969542062765      -0.23356813441      0.969542062765      -0.23356813441      -0.0108071533341    -0.0497180197581    
5500000000.0        -0.0112469948295    -0.0505698313674    0.968458634986      -0.237802184079     0.968458634986      -0.237802184079     -0.0112469948295    -0.0505698313674    
5600000000.0        -0.0116942898903    -0.051417833503     0.967355896911      -0.242031128063     0.967355896911      -0.242031128063     -0.0116942898903    -0.051417833503     
5700000000.0        -0.0121490044397    -0.0522619586305    0.966233877226      -0.246254871547     0.966233877226      -0.246254871547     -0.0121490044397    -0.0522619586305    
5800000000.0        -0.0126111037718    -0.0531021394812    0.965092605217      -0.25047331989      0.965092605217      -0.25047331989      -0.0126111037718    -0.0531021394812    
5900000000.0        -0.0130805525533    -0.0539383090593    0.963932110762      -0.254686378622     0.963932110762      -0.254686378622     -0.0130805525533    -0.0539383090593    
6000000000.0        -0.0135573148246    -0.0547704006506    0.962752424334      -0.25889395346      0.962752424334      -0.25889395346      -0.0135573148246    -0.0547704006506    
6100000000.0        -0.0140413540023    -0.0555983478293    0.961553576995      -0.263095950312     0.961553576995      -0.263095950312     -0.0140413540023    -0.0555983478293    
6200000000.0        -0.0145326328809    -0.0564220844664    0.960335600395      -0.267292275284     0.960335600395      -0.267292275284     -0.0145326328809    -0.0564220844664    
6300000000.0        -0.0150311136352    -0.0572415447372    0.959098526768      -0.271482834687     0.959098526768      -0.271482834687     -0.0150311136352    -0.0572415447372    
6400000000.0        -0.0155367578221    -0.0580566631283    0.957842388932      -0.275667535042     0.957842388932      -0.275667535042     -0.0155367578221    -0.0580566631283    
6500000000.0        -0.0160495263838    -0.0588673744459    0.956567220282      -0.279846283094     0.956567220282      -0.279846283094     -0.0160495263838    -0.0588673744459    
6600000000.0        -0.0165693796495    -0.0596736138226    0.955273054789      -0.284018985807     0.955273054789      -0.284018985807     -0.0165693796495    -0.0596736138226    
6700000000.0        -0.017096277339     -0.0604753167251    0.953959927001      -0.288185550383     0.953959927001      -0.288185550383     -0.017096277339     -0.0604753167251    
6800000000.0        -0.0176301785647    -0.0612724189611    0.952627872033      -0.292345884259     0.952627872033      -0.292345884259     -0.0176301785647    -0.0612724189611    
6900000000.0        -0.0181710418353    -0.062064856687     0.951276925569      -0.296499895118     0.951276925569      -0.296499895118     -0.0181710418353    -0.062064856687     
7000000000.0        -0.0187188250582    -0.0628525664146    0.949907123855      -0.300647490897     0.949907123855      -0.300647490897     -0.0187188250582    -0.0628525664146    
7100000000.0        -0.0192734855432    -0.0636354850186    0.948518503703      -0.304788579786     0.948518503703      -0.304788579786     -0.0192734855432    -0.0636354850186    
7200000000.0        -0.0198349800056    -0.0644135497433    0.947111102477      -0.308923070243     0.947111102477      -0.308923070243     -0.0198349800056    -0.0644135497433    
7300000000.0        -0.0204032645693    -0.0651866982095    0.9456849581        -0.313050870994     0.9456849581        -0.313050870994     -0.0204032645693    -0.0651866982095    
7400000000.0        -0.0209782947709    -0.0659548684217    0.944240109045      -0.317171891041     0.944240109045      -0.317171891041     -0.0209782947709    -0.0659548684217    
7500000000.0        -0.0215600255628    -0.0667179987746    0.942776594332      -0.32128603967      0.942776594332      -0.32128603967      -0.0215600255628    -0.0667179987746    
7600000000.0        -0.0221484113171    -0.0674760280599    0.941294453525      -0.325393226451     0.941294453525      -0.325393226451     -0.0221484113171    -0.0674760280599    
7700000000.0        -0.0227434058294    -0.0682288954731    0.939793726731      -0.329493361251     0.939793726731      -0.329493361251     -0.0227434058294    -0.0682288954731    
7800000000.0        -0.0233449623228    -0.06897654062      0.938274454592      -0.333586354235     0.938274454592      -0.333586354235     -0.0233449623228    -0.06897654062      
7900000000.0        -0.0239530334516    -0.0697189035232    0.936736678285      -0.337672115872     0.936736678285      -0.337672115872     -0.0239530334516    -0.0697189035232    
8000000000.0        -0.0245675713056    -0.0704559246285    0.935180439515      -0.34175055694      0.935180439515      -0.34175055694      -0.0245675713056    -0.0704559246285    
8100000000.0        -0.0251885274142    -0.0711875448116    0.933605780514      -0.345821588537     0.933605780514      -0.345821588537     -0.0251885274142    -0.0711875448116    
8200000000.0        -0.0258158527508    -0.0719137053839    0.932012744037      -0.349885122077     0.932012744037      -0.349885122077     -0.0258158527508    -0.0719137053839    
8300000000.0        -0.0264494977368    -0.0726343480992    0.930401373356      -0.353941069303     0.930401373356      -0.353941069303     -0.0264494977368    -0.0726343480992    
8400000000.0        -0.0270894122463    -0.0733494151595    0.928771712257      -0.357989342289     0.928771712257      -0.357989342289     -0.0270894122463    -0.0733494151595    
8500000000.0        -0.0277355456107    -0.0740588492215    0.927123805036      -0.362029853444     0.927123805036      -0.362029853444     -0.0277355456107    -0.0740588492215    
8600000000.0        -0.0283878466227    -0.0747625934022    0.925457696497      -0.36606251552      0.925457696497      -0.36606251552      -0.0283878466227    -0.0747625934022    
8700000000.0        -0.0290462635417    -0.0754605912851    0.923773431943      -0.370087241614     0.923773431943      -0.370087241614     -0.0290462635417    -0.0754605912851    
8800000000.0        -0.0297107440982    -0.0761527869261    0.922071057178      -0.374103945175     0.922071057178      -0.374103945175     -0.0297107440982    -0.0761527869261    
8900000000.0        -0.0303812354982    -0.0768391248589    0.920350618497      -0.378112540007     0.920350618497      -0.378112540007     -0.0303812354982    -0.0768391248589    
9000000000.0        -0.031057684429     -0.0775195501014    0.918612162685      -0.382112940275     0.918612162685      -0.382112940275     -0.031057684429     -0.0775195501014    
9100000000.0        -0.0317400370631    -0.0781940081607    0.916855737012      -0.38610506051      0.916855737012      -0.38610506051      -0.0317400370631    -0.0781940081607    
9200000000.0        -0.0324282390641    -0.0788624450391    0.915081389228      -0.390088815609     0.915081389228      -0.390088815609     -0.0324282390641    -0.0788624450391    
9300000000.0        -0.0331222355912    -0.0795248072394    0.913289167559      -0.394064120848     0.913289167559      -0.394064120848     -0.0331222355912    -0.0795248072394    
9400000000.0        -0.0338219713047    -0.0801810417702    0.911479120704      -0.398030891876     0.911479120704      -0.398030891876     -0.0338219713047    -0.0801810417702    
9500000000.0        -0.0345273903708    -0.0808310961516    0.909651297827      -0.401989044729     0.909651297827      -0.401989044729     -0.0345273903708    -0.0808310961516    
9600000000.0        -0.0352384364676    -0.0814749184201    0.907805748554      -0.405938495827     0.907805748554      -0.405938495827     -0.0352384364676    -0.0814749184201    
9700000000.0        -0.0359550527895    -0.082112457134     0.905942522971      -0.40987916198      0.905942522971      -0.40987916198      -0.0359550527895    -0.082112457134     
9800000000.0        -0.0366771820533    -0.0827436613785    0.904061671616      -0.413810960396     0.904061671616      -0.413810960396     -0.0366771820533    -0.0827436613785    
9900000000.0        -0.0374047665034    -0.0833684807706    0.902163245474      -0.417733808679     0.902163245474      -0.417733808679     -0.0374047665034    -0.0833684807706    
10000000000.0       -0.0381377479173    -0.0839868654642    0.900247295975      -0.421647624835     0.900247295975      -0.421647624835     -0.0381377479173    -0.0839868654642    
