# Hz S RI R 50.00 
100000000.0         0.0209664449294     0.00202073136553    0.979030264604      -0.00342172590849   0.979030264604      -0.00342172590849   0.0209664449294     0.00202073136553    
200000000.0         0.0211228864551     0.00403983668353    0.978869555604      -0.00684182728224   0.978869555604      -0.00684182728224   0.0211228864551     0.00403983668353    
300000000.0         0.0212568881876     0.00605781188997    0.978729309168      -0.010260803408     0.978729309168      -0.010260803408     0.0212568881876     0.00605781188997    
400000000.0         0.0213863404144     0.00807475400703    0.978591634813      -0.0136787542194    0.978591634813      -0.0136787542194    0.0213863404144     0.00807475400703    
500000000.0         0.0215181390748     0.0100906674642     0.978449636402      -0.0170956868383    0.978449636402      -0.0170956868383    0.0215181390748     0.0100906674642     
600000000.0         0.021655801913      0.012105515786      0.978299795978      -0.0205115673397    0.978299795978      -0.0205115673397    0.021655801913      0.012105515786      
700000000.0         0.0218014057753     0.0141192401449     0.978140036471      -0.0239263393433    0.978140036471      -0.0239263393433    0.0218014057753     0.0141192401449     
800000000.0         0.0219562940459     0.0161317679622     0.977969014252      -0.027339932638     0.977969014252      -0.027339932638     0.0219562940459     0.0161317679622     
900000000.0         0.0221213917948     0.0181430175283     0.977785803991      -0.0307522678178    0.977785803991      -0.0307522678178    0.0221213917948     0.0181430175283     
1000000000.0        0.0222973655963     0.0201529007392     0.977589738829      -0.0341632590286    0.977589738829      -0.0341632590286    0.0222973655963     0.0201529007392     
1100000000.0        0.022484712413      0.0221613248368     0.977380321503      -0.0375728157167    0.977380321503      -0.0375728157167    0.022484712413      0.0221613248368     
1200000000.0        0.0226838125826     0.0241681935772     0.977157171352      -0.0409808438027    0.977157171352      -0.0409808438027    0.0226838125826     0.0241681935772     
1300000000.0        0.0228949631702     0.0261734080483     0.976919990965      -0.0443872465042    0.976919990965      -0.0443872465042    0.0228949631702     0.0261734080483     
1400000000.0        0.0231183999007     0.0281768672638     0.976668544253      -0.0477919249337    0.976668544253      -0.0477919249337    0.0231183999007     0.0281768672638     
1500000000.0        0.0233543121106     0.0301784686066     0.976402641492      -0.0511947785441    0.976402641492      -0.0511947785441    0.0233543121106     0.0301784686066     
1600000000.0        0.0236028532546     0.0321781081681     0.976122128817      -0.054595705472     0.976122128817      -0.054595705472     0.0236028532546     0.0321781081681     
1700000000.0        0.0238641484807     0.0341756810146     0.975826880651      -0.0579946028049    0.975826880651      -0.0579946028049    0.0238641484807     0.0341756810146     
1800000000.0        0.0241383002149     0.0361710813991     0.975516794115      -0.0613913667956    0.975516794115      -0.0613913667956    0.0241383002149     0.0361710813991     
1900000000.0        0.0244253923587     0.0381642029335     0.975191784834      -0.0647858930356    0.975191784834      -0.0647858930356    0.0244253923587     0.0381642029335     
2000000000.0        0.0247254934984     0.0401549387309     0.974851783724      -0.0681780765992    0.974851783724      -0.0681780765992    0.0247254934984     0.0401549387309     
2100000000.0        0.0250386593962     0.0421431815242     0.974496734506      -0.0715678121624    0.974496734506      -0.0715678121624    0.0250386593962     0.0421431815242     
2200000000.0        0.0253649349504     0.0441288237664     0.974126591741      -0.0749549941052    0.974126591741      -0.0749549941052    0.0253649349504     0.0441288237664     
2300000000.0        0.0257043557565     0.046111757717      0.973741319273      -0.0783395165985    0.973741319273      -0.0783395165985    0.0257043557565     0.046111757717      
2400000000.0        0.0260569493641     0.0480918755166     0.973340888968      -0.0817212736793    0.973340888968      -0.0817212736793    0.0260569493641     0.0480918755166     
2500000000.0        0.0264227363004     0.050069069252      0.972925279692      -0.085100159317     0.972925279692      -0.085100159317     0.0264227363004     0.050069069252      
2600000000.0        0.0268017309092     0.0520432310143     0.972494476476      -0.0884760674715    0.972494476476      -0.0884760674715    0.0268017309092     0.0520432310143     
2700000000.0        0.0271939420465     0.0540142529498     0.972048469812      -0.0918488921455    0.972048469812      -0.0918488921455    0.0271939420465     0.0540142529498     
2800000000.0        0.027599373661      0.0559820273067     0.971587255082      -0.095218527431     0.971587255082      -0.095218527431     0.027599373661      0.0559820273067     
2900000000.0        0.0280180252819     0.0579464464764     0.971110832062      -0.0985848675516    0.971110832062      -0.0985848675516    0.0280180252819     0.0579464464764     
3000000000.0        0.0284498924319     0.0599074030321     0.970619204516      -0.101947806901     0.970619204516      -0.101947806901     0.0284498924319     0.0599074030321     
3100000000.0        0.0288949669797     0.0618647897632     0.970112379836      -0.105307240079     0.970112379836      -0.105307240079     0.0288949669797     0.0618647897632     
3200000000.0        0.0293532374409     0.0638184997081     0.969590368749      -0.108663061922     0.969590368749      -0.108663061922     0.0293532374409     0.0638184997081     
3300000000.0        0.029824689239      0.0657684261836     0.969053185051      -0.112015167537     0.969053185051      -0.112015167537     0.029824689239      0.0657684261836     
3400000000.0        0.0303093049306     0.0677144628133     0.968500845382      -0.115363452325     0.968500845382      -0.115363452325     0.0303093049306     0.0677144628133     
3500000000.0        0.030807064402      0.0696565035531     0.967933369032      -0.118707812013     0.967933369032      -0.118707812013     0.030807064402      0.0696565035531     
3600000000.0        0.0313179450415     0.0715944427166     0.967350777766      -0.122048142673     0.967350777766      -0.122048142673     0.0313179450415     0.0715944427166     
3700000000.0        0.0318419218912     0.0735281749975     0.966753095674      -0.12538434075      0.966753095674      -0.12538434075      0.0318419218912     0.0735281749975     
3800000000.0        0.0323789677806     0.0754575954922     0.966140349038      -0.128716303082     0.966140349038      -0.128716303082     0.0323789677806     0.0754575954922     
3900000000.0        0.0329290534463     0.0773825997201     0.965512566207      -0.132043926922     0.965512566207      -0.132043926922     0.0329290534463     0.0773825997201     
4000000000.0        0.033492147638      0.0793030836443     0.964869777501      -0.135367109956     0.964869777501      -0.135367109956     0.033492147638      0.0793030836443     
4100000000.0        0.0340682172137     0.0812189436901     0.964212015105      -0.138685750326     0.964212015105      -0.138685750326     0.0340682172137     0.0812189436901     
4200000000.0        0.0346572272258     0.0831300767633     0.963539312991      -0.141999746646     0.963539312991      -0.141999746646     0.0346572272258     0.0831300767633     
4300000000.0        0.0352591409983     0.085036380268      0.962851706835      -0.14530899802      0.962851706835      -0.14530899802      0.0352591409983     0.085036380268      
4400000000.0        0.0358739201974     0.0869377521231     0.962149233952      -0.148613404059     0.962149233952      -0.148613404059     0.0358739201974     0.0869377521231     
4500000000.0        0.0365015248954     0.0888340907791     0.961431933227      -0.151912864897     0.961431933227      -0.151912864897     0.0365015248954     0.0888340907791     
4600000000.0        0.0371419136294     0.090725295233      0.960699845059      -0.155207281208     0.960699845059      -0.155207281208     0.0371419136294     0.090725295233      
4700000000.0        0.0377950434555     0.0926112650442     0.959953011306      -0.15849655422      0.959953011306      -0.15849655422      0.0377950434555     0.0926112650442     
4800000000.0        0.0384608699976     0.0944919003488     0.959191475238      -0.161780585731     0.959191475238      -0.161780585731     0.0384608699976     0.0944919003488     
4900000000.0        0.0391393474944     0.0963671018736     0.958415281487      -0.165059278123     0.958415281487      -0.165059278123     0.0391393474944     0.0963671018736     
5000000000.0        0.0398304288412     0.0982367709505     0.957624476007      -0.168332534373     0.957624476007      -0.168332534373     0.0398304288412     0.0982367709505     
5100000000.0        0.0405340656298     0.100100809529      0.956819106034      -0.171600258072     0.956819106034      -0.171600258072     0.0405340656298     0.100100809529      
5200000000.0        0.0412502081863     0.10195912019       0.955999220048      -0.174862353434     0.955999220048      -0.174862353434     0.0412502081863     0.10195912019       
5300000000.0        0.041978805605      0.103811606158      0.955164867738      -0.178118725309     0.955164867738      -0.178118725309     0.041978805605      0.103811606158      
5400000000.0        0.0427198057821     0.105658171313      0.954316099972      -0.181369279195     0.954316099972      -0.181369279195     0.0427198057821     0.105658171313      
5500000000.0        0.0434731554462     0.107498720203      0.953452968762      -0.184613921254     0.953452968762      -0.184613921254     0.0434731554462     0.107498720203      
5600000000.0        0.044238800188      0.109333158055      0.952575527237      -0.187852558318     0.952575527237      -0.187852558318     0.044238800188      0.109333158055      
5700000000.0        0.045016684488      0.111161390787      0.951683829612      -0.191085097904     0.951683829612      -0.191085097904     0.045016684488      0.111161390787      
5800000000.0        0.0458067517435     0.112983325018      0.950777931168      -0.194311448224     0.950777931168      -0.194311448224     0.0458067517435     0.112983325018      
5900000000.0        0.0466089442937     0.11479886808       0.949857888219      -0.197531518193     0.949857888219      -0.197531518193     0.0466089442937     0.11479886808       
6000000000.0        0.0474232034443     0.116607928027      0.948923758091      -0.200745217446     0.948923758091      -0.200745217446     0.0474232034443     0.116607928027      
6100000000.0        0.0482494694911     0.118410413644      0.947975599101      -0.20395245634      0.947975599101      -0.20395245634      0.0482494694911     0.118410413644      
6200000000.0        0.0490876817422     0.12020623446       0.947013470529      -0.207153145972     0.947013470529      -0.207153145972     0.0490876817422     0.12020623446       
6300000000.0        0.0499377785403     0.121995300757      0.946037432599      -0.210347198182     0.946037432599      -0.210347198182     0.0499377785403     0.121995300757      
6400000000.0        0.0507996972838     0.123777523576      0.94504754646       -0.213534525564     0.94504754646       -0.213534525564     0.0507996972838     0.123777523576      
6500000000.0        0.0516733744469     0.125552814729      0.944043874161      -0.216715041478     0.944043874161      -0.216715041478     0.0516733744469     0.125552814729      
6600000000.0        0.0525587455998     0.127321086807      0.943026478633      -0.219888660055     0.943026478633      -0.219888660055     0.0525587455998     0.127321086807      
6700000000.0        0.0534557454285     0.129082253188      0.941995423672      -0.223055296207     0.941995423672      -0.223055296207     0.0534557454285     0.129082253188      
6800000000.0        0.0543643077529     0.130836228047      0.940950773917      -0.226214865638     0.940950773917      -0.226214865638     0.0543643077529     0.130836228047      
6900000000.0        0.0552843655459     0.13258292636       0.939892594832      -0.229367284847     0.939892594832      -0.229367284847     0.0552843655459     0.13258292636       
7000000000.0        0.0562158509515     0.134322263917      0.938820952688      -0.232512471138     0.938820952688      -0.232512471138     0.0562158509515     0.134322263917      
7100000000.0        0.0571586953023     0.136054157327      0.937735914547      -0.23565034263      0.937735914547      -0.23565034263      0.0571586953023     0.136054157327      
7200000000.0        0.0581128291371     0.137778524024      0.93663754824       -0.238780818259     0.93663754824       -0.238780818259     0.0581128291371     0.137778524024      
7300000000.0        0.0590781822177     0.139495282275      0.935525922358      -0.241903817792     0.935525922358      -0.241903817792     0.0590781822177     0.139495282275      
7400000000.0        0.0600546835463     0.14120435119       0.934401106225      -0.245019261826     0.934401106225      -0.245019261826     0.0600546835463     0.14120435119       
7500000000.0        0.0610422613815     0.142905650722      0.933263169891      -0.248127071803     0.933263169891      -0.248127071803     0.0610422613815     0.142905650722      
7600000000.0        0.0620408432551     0.144599101681      0.932112184107      -0.251227170008     0.932112184107      -0.251227170008     0.0620408432551     0.144599101681      
7700000000.0        0.0630503559879     0.146284625734      0.930948220316      -0.254319479582     0.930948220316      -0.254319479582     0.0630503559879     0.146284625734      
7800000000.0        0.0640707257056     0.147962145414      0.929771350633      -0.257403924525     0.929771350633      -0.257403924525     0.0640707257056     0.147962145414      
7900000000.0        0.065101877855      0.149631584125      0.928581647831      -0.2604804297       0.928581647831      -0.2604804297       0.065101877855      0.149631584125      
8000000000.0        0.066143737219      0.151292866148      0.927379185324      -0.263548920843     0.927379185324      -0.263548920843     0.066143737219      0.151292866148      
8100000000.0        0.0671962279322     0.152945916646      0.926164037153      -0.266609324564     0.926164037153      -0.266609324564     0.0671962279322     0.152945916646      
8200000000.0        0.0682592734962     0.154590661668      0.924936277971      -0.269661568355     0.924936277971      -0.269661568355     0.0682592734962     0.154590661668      
8300000000.0        0.0693327967948     0.156227028156      0.923695983025      -0.272705580593     0.923695983025      -0.272705580593     0.0693327967948     0.156227028156      
8400000000.0        0.0704167201087     0.157854943948      0.922443228144      -0.275741290545     0.922443228144      -0.275741290545     0.0704167201087     0.157854943948      
8500000000.0        0.0715109651303     0.159474337783      0.921178089724      -0.278768628374     0.921178089724      -0.278768628374     0.0715109651303     0.159474337783      
8600000000.0        0.0726154529789     0.161085139304      0.919900644712      -0.281787525141     0.919900644712      -0.281787525141     0.0726154529789     0.161085139304      
8700000000.0        0.0737301042146     0.162687279066      0.918610970591      -0.28479791281      0.918610970591      -0.28479791281      0.0737301042146     0.162687279066      
8800000000.0        0.0748548388535     0.164280688534      0.917309145368      -0.287799724253     0.917309145368      -0.287799724253     0.0748548388535     0.164280688534      
8900000000.0        0.0759895763815     0.165865300091      0.915995247556      -0.290792893251     0.915995247556      -0.290792893251     0.0759895763815     0.165865300091      
9000000000.0        0.0771342357688     0.16744104704       0.914669356163      -0.2937773545       0.914669356163      -0.2937773545       0.0771342357688     0.16744104704       
9100000000.0        0.0782887354843     0.169007863608      0.913331550677      -0.296753043613     0.913331550677      -0.296753043613     0.0782887354843     0.169007863608      
9200000000.0        0.0794529935093     0.170565684947      0.91198191105       -0.299719897122     0.91198191105       -0.299719897122     0.0794529935093     0.170565684947      
9300000000.0        0.0806269273516     0.172114447138      0.910620517685      -0.302677852482     0.910620517685      -0.302677852482     0.0806269273516     0.172114447138      
9400000000.0        0.0818104540598     0.173654087195      0.909247451425      -0.305626848075     0.909247451425      -0.305626848075     0.0818104540598     0.173654087195      
9500000000.0        0.0830034902365     0.175184543064      0.907862793534      -0.308566823209     0.907862793534      -0.308566823209     0.0830034902365     0.175184543064      
9600000000.0        0.0842059520523     0.176705753631      0.906466625687      -0.311497718123     0.906466625687      -0.311497718123     0.0842059520523     0.176705753631      
9700000000.0        0.0854177552598     0.178217658716      0.905059029955      -0.314419473988     0.905059029955      -0.314419473988     0.0854177552598     0.178217658716      
9800000000.0        0.0866388152065     0.179720199081      0.903640088791      -0.317332032909     0.903640088791      -0.317332032909     0.0866388152065     0.179720199081      
9900000000.0        0.0878690468487     0.181213316432      0.902209885018      -0.320235337926     0.902209885018      -0.320235337926     0.0878690468487     0.181213316432      
10000000000.0       0.0891083647649     0.182696953414      0.900768501814      -0.323129333017     0.900768501814      -0.323129333017     0.0891083647649     0.182696953414      
