# Hz S RI R 50.00 
100000000.0         0.00152915340079    -0.00106350424023   0.998446944951      -0.0048219022506    0.998446944951      -0.0048219022506    0.00152915340079    -0.00106350424023   
200000000.0         0.00152132236443    -0.00212697945739   0.998397218334      -0.009643610234     0.998397218334      -0.009643610234     0.00152132236443    -0.00212697945739   
300000000.0         0.00150055815796    -0.0031903079283    0.998325770239      -0.0144650434787    0.998325770239      -0.0144650434787    0.00150055815796    -0.0031903079283    
400000000.0         0.00146819147118    -0.00425338870086   0.998231272698      -0.0192860949307    0.998231272698      -0.0192860949307    0.00146819147118    -0.00425338870086   
500000000.0         0.00142473570629    -0.00531612379      0.998113216509      -0.0241066496323    0.998113216509      -0.0241066496323    0.00142473570629    -0.00531612379      
600000000.0         0.00137045429733    -0.00637841616154   0.997971343982      -0.0289265884609    0.997971343982      -0.0289265884609    0.00137045429733    -0.00637841616154   
700000000.0         0.00130550481625    -0.00744016910398   0.997805504888      -0.0337457896441    0.997805504888      -0.0337457896441    0.00130550481625    -0.00744016910398   
800000000.0         0.00122999153185    -0.00850128598315   0.997615603943      -0.0385641295428    0.997615603943      -0.0385641295428    0.00122999153185    -0.00850128598315   
900000000.0         0.00114398879841    -0.0095616701375    0.997401577448      -0.0433814831165    0.997401577448      -0.0433814831165    0.00114398879841    -0.0095616701375    
1000000000.0        0.00104755290533    -0.0106212248337    0.99716338147       -0.0481977242265    0.99716338147       -0.0481977242265    0.00104755290533    -0.0106212248337    
1100000000.0        0.000940728662074   -0.0116798532505    0.996900985278      -0.0530127258479    0.996900985278      -0.0530127258479    0.000940728662074   -0.0116798532505    
1200000000.0        0.000823553321077   -0.012737458478     0.996614367445      -0.0578263602248    0.996614367445      -0.0578263602248    0.000823553321077   -0.012737458478     
1300000000.0        0.000696059045688   -0.0137939435239    0.99630351339       -0.0626384989888    0.99630351339       -0.0626384989888    0.000696059045688   -0.0137939435239    
1400000000.0        0.000558274532494   -0.0148492113244    0.995968413777      -0.0674490132531    0.995968413777      -0.0674490132531    0.000558274532495   -0.0148492113244    
1500000000.0        0.000410226117043   -0.0159031647576    0.995609063422      -0.0722577736884    0.995609063422      -0.0722577736884    0.000410226117043   -0.0159031647576    
1600000000.0        0.000251938550717   -0.0169557066575    0.995225460524      -0.0770646505861    0.995225460524      -0.0770646505861    0.000251938550717   -0.0169557066575    
1700000000.0        8.34355608377e-05   -0.0180067398297    0.994817606122      -0.0818695139123    0.994817606122      -0.0818695139123    8.34355608377e-05   -0.0180067398297    
1800000000.0        -9.52597364177e-05  -0.0190561670662    0.994385503684      -0.0866722333539    0.994385503684      -0.0866722333539    -9.52597364178e-05  -0.0190561670662    
1900000000.0        -0.000284124525675  -0.0201038911614    0.993929158811      -0.0914726783592    0.993929158811      -0.0914726783592    -0.000284124525675  -0.0201038911614    
2000000000.0        -0.000483136055113  -0.0211498149272    0.993448579004      -0.0962707181739    0.993448579004      -0.0962707181739    -0.000483136055113  -0.0211498149272    
2100000000.0        -0.000692271452385  -0.0221938412082    0.992943773488      -0.101066221874     0.992943773488      -0.101066221874     -0.000692271452385  -0.0221938412082    
2200000000.0        -0.000911507579875  -0.0232358728971    0.992414753072      -0.105859058393     0.992414753072      -0.105859058393     -0.000911507579875  -0.0232358728971    
2300000000.0        -0.00114082091956   -0.0242758129498    0.991861530038      -0.110649096554     0.991861530038      -0.110649096554     -0.00114082091956   -0.0242758129498    
2400000000.0        -0.00138018748048   -0.0253135643996    0.991284118053      -0.115436205088     0.991284118053      -0.115436205088     -0.00138018748048   -0.0253135643996    
2500000000.0        -0.00162958272363   -0.0263490303722    0.990682532099      -0.120220252662     0.990682532099      -0.120220252662     -0.00162958272363   -0.0263490303722    
2600000000.0        -0.00188898150058   -0.0273821141002    0.990056788414      -0.125001107898     0.990056788414      -0.125001107898     -0.00188898150058   -0.0273821141002    
2700000000.0        -0.00215835800292   -0.0284127189368    0.989406904441      -0.129778639395     0.989406904441      -0.129778639395     -0.00215835800292   -0.0284127189368    
2800000000.0        -0.00243768572036   -0.0294407483703    0.988732898791      -0.134552715748     0.988732898791      -0.134552715748     -0.00243768572036   -0.0294407483703    
2900000000.0        -0.00272693740579   -0.030466106038     0.988034791208      -0.139323205567     0.988034791208      -0.139323205567     -0.00272693740579   -0.030466106038     
3000000000.0        -0.00302608504614   -0.0314886957396    0.98731260254       -0.144089977493     0.98731260254       -0.144089977493     -0.00302608504614   -0.0314886957396    
3100000000.0        -0.00333509983783   -0.0325084214507    0.986566354715      -0.148852900217     0.986566354715      -0.148852900217     -0.00333509983783   -0.0325084214507    
3200000000.0        -0.00365395216623   -0.0335251873369    0.985796070722      -0.153611842494     0.985796070722      -0.153611842494     -0.00365395216623   -0.0335251873369    
3300000000.0        -0.00398261158823   -0.0345388977663    0.985001774589      -0.15836667316      0.985001774589      -0.15836667316      -0.00398261158823   -0.0345388977663    
3400000000.0        -0.00432104681769   -0.0355494573232    0.98418349137       -0.163117261149     0.98418349137       -0.163117261149     -0.00432104681769   -0.0355494573232    
3500000000.0        -0.00466922571313   -0.0365567708208    0.98334124713       -0.167863475504     0.98334124713       -0.167863475504     -0.00466922571313   -0.0365567708208    
3600000000.0        -0.00502711526741   -0.0375607433144    0.982475068933      -0.172605185394     0.982475068933      -0.172605185394     -0.00502711526741   -0.0375607433144    
3700000000.0        -0.00539468159916   -0.038561280114     0.981584984829      -0.177342260129     0.981584984829      -0.177342260129     -0.00539468159916   -0.038561280114     
3800000000.0        -0.00577188994563   -0.0395582867972    0.980671023848      -0.182074569169     0.980671023848      -0.182074569169     -0.00577188994563   -0.0395582867972    
3900000000.0        -0.00615870465688   -0.0405516692213    0.979733215985      -0.186801982142     0.979733215985      -0.186801982142     -0.00615870465688   -0.0405516692213    
4000000000.0        -0.00655508919107   -0.0415413335366    0.978771592199      -0.191524368854     0.978771592199      -0.191524368854     -0.00655508919107   -0.0415413335366    
4100000000.0        -0.00696100611072   -0.0425271861979    0.977786184396      -0.196241599305     0.977786184396      -0.196241599305     -0.00696100611072   -0.0425271861979    
4200000000.0        -0.00737641707991   -0.0435091339775    0.97677702543       -0.200953543697     0.97677702543       -0.200953543697     -0.00737641707991   -0.0435091339775    
4300000000.0        -0.00780128286221   -0.0444870839767    0.97574414909       -0.205660072451     0.97574414909       -0.205660072451     -0.00780128286221   -0.0444870839767    
4400000000.0        -0.00823556331934   -0.0454609436386    0.974687590099      -0.210361056215     0.974687590099      -0.210361056215     -0.00823556331934   -0.0454609436386    
4500000000.0        -0.00867921741047   -0.0464306207593    0.973607384103      -0.215056365879     0.973607384103      -0.215056365879     -0.00867921741048   -0.0464306207593    
4600000000.0        -0.00913220319211   -0.0473960235005    0.972503567665      -0.219745872584     0.972503567665      -0.219745872584     -0.00913220319211   -0.0473960235005    
4700000000.0        -0.00959447781844   -0.0483570604008    0.971376178263      -0.224429447735     0.971376178263      -0.224429447735     -0.00959447781844   -0.0483570604008    
4800000000.0        -0.0100659975422    -0.0493136403876    0.97022525428       -0.229106963011     0.97022525428       -0.229106963011     -0.0100659975422    -0.0493136403876    
4900000000.0        -0.0105467177162    -0.0502656727886    0.969050835002      -0.233778290379     0.969050835002      -0.233778290379     -0.0105467177162    -0.0502656727886    
5000000000.0        -0.0110365927946    -0.0512130673434    0.967852960609      -0.238443302101     0.967852960609      -0.238443302101     -0.0110365927946    -0.0512130673434    
5100000000.0        -0.0115355763354    -0.0521557342147    0.966631672173      -0.243101870747     0.966631672173      -0.243101870747     -0.0115355763354    -0.0521557342147    
5200000000.0        -0.0120436210028    -0.0530935839999    0.965387011649      -0.247753869205     0.965387011649      -0.247753869205     -0.0120436210028    -0.0530935839999    
5300000000.0        -0.0125606785698    -0.0540265277422    0.96411902187       -0.252399170691     0.96411902187       -0.252399170691     -0.0125606785698    -0.0540265277422    
5400000000.0        -0.0130866999217    -0.0549544769414    0.962827746546      -0.257037648761     0.962827746546      -0.257037648761     -0.0130866999217    -0.0549544769414    
5500000000.0        -0.013621635059     -0.0558773435654    0.961513230253      -0.26166917732      0.961513230253      -0.26166917732      -0.013621635059     -0.0558773435654    
5600000000.0        -0.0141654331012    -0.0567950400609    0.960175518431      -0.266293630629     0.960175518431      -0.266293630629     -0.0141654331012    -0.0567950400609    
5700000000.0        -0.0147180422909    -0.0577074793642    0.958814657375      -0.270910883322     0.958814657375      -0.270910883322     -0.0147180422909    -0.0577074793642    
5800000000.0        -0.0152794099978    -0.058614574912     0.957430694233      -0.275520810408     0.957430694233      -0.275520810408     -0.0152794099978    -0.058614574912     
5900000000.0        -0.015849482723     -0.0595162406518    0.956023677001      -0.280123287284     0.956023677001      -0.280123287284     -0.015849482723     -0.0595162406518    
6000000000.0        -0.016428206104     -0.0604123910528    0.954593654511      -0.284718189748     0.954593654511      -0.284718189748     -0.016428206104     -0.0604123910528    
6100000000.0        -0.017015524919     -0.0613029411161    0.953140676434      -0.289305394        0.953140676434      -0.289305394        -0.017015524919     -0.0613029411161    
6200000000.0        -0.0176113830922    -0.062187806385     0.951664793268      -0.293884776659     0.951664793268      -0.293884776659     -0.0176113830922    -0.062187806385     
6300000000.0        -0.0182157236993    -0.0630669029552    0.950166056333      -0.298456214767     0.950166056333      -0.298456214767     -0.0182157236993    -0.0630669029552    
6400000000.0        -0.0188284889723    -0.0639401474852    0.948644517768      -0.303019585801     0.948644517768      -0.303019585801     -0.0188284889723    -0.0639401474852    
6500000000.0        -0.0194496203057    -0.0648074572058    0.947100230521      -0.307574767679     0.947100230521      -0.307574767679     -0.0194496203057    -0.0648074572058    
6600000000.0        -0.0200790582619    -0.0656687499306    0.945533248348      -0.312121638772     0.945533248348      -0.312121638772     -0.0200790582619    -0.0656687499306    
6700000000.0        -0.0207167425774    -0.0665239440653    0.943943625801      -0.31666007791      0.943943625801      -0.31666007791      -0.0207167425774    -0.0665239440653    
6800000000.0        -0.0213626121686    -0.0673729586177    0.942331418227      -0.321189964389     0.942331418227      -0.321189964389     -0.0213626121686    -0.0673729586177    
6900000000.0        -0.0220166051385    -0.0682157132071    0.940696681757      -0.325711177984     0.940696681757      -0.325711177984     -0.0220166051385    -0.0682157132071    
7000000000.0        -0.0226786587828    -0.0690521280739    0.939039473305      -0.330223598953     0.939039473305      -0.330223598953     -0.0226786587828    -0.0690521280739    
7100000000.0        -0.0233487095966    -0.0698821240888    0.937359850555      -0.334727108045     0.937359850555      -0.334727108045     -0.0233487095966    -0.0698821240888    
7200000000.0        -0.024026693281     -0.0707056227623    0.935657871962      -0.339221586513     0.935657871962      -0.339221586513     -0.024026693281     -0.0707056227623    
7300000000.0        -0.0247125447502    -0.0715225462537    0.933933596738      -0.343706916113     0.933933596738      -0.343706916113     -0.0247125447502    -0.0715225462537    
7400000000.0        -0.0254061981382    -0.07233281738      0.932187084852      -0.34818297912      0.932187084852      -0.34818297912      -0.0254061981382    -0.07233281738      
7500000000.0        -0.0261075868064    -0.0731363596251    0.930418397016      -0.352649658332     0.930418397016      -0.352649658332     -0.0261075868064    -0.0731363596251    
7600000000.0        -0.0268166433502    -0.0739330971482    0.928627594686      -0.357106837074     0.928627594686      -0.357106837074     -0.0268166433502    -0.0739330971482    
7700000000.0        -0.0275332996071    -0.074722954793     0.926814740049      -0.361554399212     0.926814740049      -0.361554399212     -0.0275332996071    -0.074722954793     
7800000000.0        -0.0282574866634    -0.0755058580957    0.924979896019      -0.365992229154     0.924979896019      -0.365992229154     -0.0282574866634    -0.0755058580957    
7900000000.0        -0.0289891348628    -0.0762817332939    0.92312312623       -0.370420211862     0.92312312623       -0.370420211862     -0.0289891348628    -0.0762817332939    
8000000000.0        -0.0297281738133    -0.0770505073348    0.921244495026      -0.374838232855     0.921244495026      -0.374838232855     -0.0297281738133    -0.0770505073348    
8100000000.0        -0.0304745323954    -0.0778121078831    0.919344067458      -0.379246178216     0.919344067458      -0.379246178216     -0.0304745323954    -0.0778121078831    
8200000000.0        -0.0312281387704    -0.0785664633295    0.917421909272      -0.383643934602     0.917421909272      -0.383643934602     -0.0312281387704    -0.0785664633295    
8300000000.0        -0.0319889203876    -0.0793135027986    0.915478086908      -0.388031389245     0.915478086908      -0.388031389245     -0.0319889203876    -0.0793135027986    
8400000000.0        -0.0327568039934    -0.0800531561565    0.913512667485      -0.392408429965     0.913512667485      -0.392408429965     -0.0327568039934    -0.0800531561565    
8500000000.0        -0.0335317156391    -0.0807853540186    0.9115257188        -0.396774945168     0.9115257188        -0.396774945168     -0.0335317156391    -0.0807853540186    
8600000000.0        -0.0343135806893    -0.0815100277574    0.909517309316      -0.401130823861     0.909517309316      -0.401130823861     -0.0343135806893    -0.0815100277574    
8700000000.0        -0.0351023238304    -0.0822271095097    0.907487508157      -0.40547595565      0.907487508157      -0.40547595565      -0.0351023238304    -0.0822271095097    
8800000000.0        -0.0358978690793    -0.0829365321842    0.905436385099      -0.40981023075      0.905436385099      -0.40981023075      -0.0358978690793    -0.0829365321842    
8900000000.0        -0.0367001397919    -0.0836382294686    0.903364010565      -0.414133539992     0.903364010565      -0.414133539992     -0.0367001397919    -0.0836382294686    
9000000000.0        -0.0375090586719    -0.0843321358366    0.901270455611      -0.418445774823     0.901270455611      -0.418445774823     -0.0375090586719    -0.0843321358366    
9100000000.0        -0.0383245477795    -0.0850181865549    0.899155791926      -0.422746827317     0.899155791926      -0.422746827317     -0.0383245477795    -0.0850181865549    
9200000000.0        -0.0391465285407    -0.0856963176901    0.897020091817      -0.427036590177     0.897020091817      -0.427036590177     -0.0391465285407    -0.0856963176901    
9300000000.0        -0.0399749217555    -0.0863664661156    0.894863428207      -0.43131495674      0.894863428207      -0.43131495674      -0.0399749217555    -0.0863664661156    
9400000000.0        -0.0408096476081    -0.0870285695178    0.892685874623      -0.435581820984     0.892685874623      -0.435581820984     -0.0408096476081    -0.0870285695178    
9500000000.0        -0.0416506256748    -0.0876825664027    0.89048750519       -0.439837077533     0.89048750519       -0.439837077533     -0.0416506256748    -0.0876825664027    
9600000000.0        -0.0424977749343    -0.0883283961024    0.888268394621      -0.444080621658     0.888268394621      -0.444080621658     -0.0424977749343    -0.0883283961024    
9700000000.0        -0.0433510137761    -0.088965998781     0.88602861821       -0.448312349285     0.88602861821       -0.448312349285     -0.0433510137761    -0.088965998781     
9800000000.0        -0.0442102600104    -0.089595315441     0.883768251827      -0.452532157        0.883768251827      -0.452532157        -0.0442102600104    -0.089595315441     
9900000000.0        -0.0450754308775    -0.0902162879288    0.881487371902      -0.456739942049     0.881487371902      -0.456739942049     -0.0450754308775    -0.0902162879288    
10000000000.0       -0.0459464430568    -0.090828858941     0.879186055425      -0.460935602347     0.879186055425      -0.460935602347     -0.0459464430568    -0.090828858941     
