# Hz S RI R 50.00 
100000000.0         1.94486487224e-05   9.96971519272e-06   0.999979527311      -3.51401971064e-05  0.999979527311      -3.51401971064e-05  1.94486487224e-05   9.9697151927e-06    
200000000.0         1.95713524231e-05   1.99393755966e-05   0.999979379923      -7.02810348023e-05  0.999979379923      -7.02810348023e-05  1.95713524234e-05   1.99393755966e-05   
300000000.0         1.96595822861e-05   2.99089684969e-05   0.999979266379      -0.000105422853323  0.999979266379      -0.000105422853323  1.96595822861e-05   2.99089684969e-05   
400000000.0         1.97306535741e-05   3.98784882445e-05   0.999979169357      -0.000140565911443  0.999979169357      -0.000140565911443  1.97306535741e-05   3.98784882445e-05   
500000000.0         1.97912323725e-05   4.9847925246e-05    0.999979082193      -0.000175710437375  0.999979082193      -0.000175710437375  1.97912323723e-05   4.9847925246e-05    
600000000.0         1.9844715611e-05    5.98172839049e-05   0.999979001488      -0.000210856623863  0.999979001488      -0.000210856623863  1.9844715611e-05    5.98172839049e-05   
700000000.0         1.98931092787e-05   6.97865662143e-05   0.999978925237      -0.000246004651058  0.999978925237      -0.000246004651058  1.98931092783e-05   6.97865662143e-05   
800000000.0         1.99377113226e-05   7.97557797213e-05   0.999978852139      -0.000281154682362  0.999978852139      -0.000281154682362  1.99377113226e-05   7.97557797213e-05   
900000000.0         1.99794184432e-05   8.97249296954e-05   0.9999787813        -0.000316306874724  0.9999787813        -0.000316306874724  1.9979418443e-05    8.97249296954e-05   
1000000000.0        2.00188785255e-05   9.96940301322e-05   0.99997871207       -0.000351461369348  0.99997871207       -0.000351461369348  2.00188785253e-05   9.96940301322e-05   
1100000000.0        2.00565779105e-05   0.000109663092024   0.999978643963      -0.000386618304668  0.999978643963      -0.000386618304668  2.00565779105e-05   0.000109663092024   
1200000000.0        2.00928917129e-05   0.000119632130105   0.999978576603      -0.000421777810543  0.999978576603      -0.000421777810543  2.00928917129e-05   0.000119632130105   
1300000000.0        2.01281160706e-05   0.000129601161784   0.999978509694      -0.000456940010052  0.999978509694      -0.000456940010052  2.01281160706e-05   0.000129601161784   
1400000000.0        2.01624896761e-05   0.000139570204301   0.999978442997      -0.000492105022915  0.999978442997      -0.000492105022915  2.01624896754e-05   0.000139570204301   
1500000000.0        2.01962077555e-05   0.000149539278275   0.999978376316      -0.000527272962419  0.999978376316      -0.000527272962419  2.01962077553e-05   0.000149539278275   
1600000000.0        2.02294322009e-05   0.000159508405307   0.999978309489      -0.000562443938194  0.999978309489      -0.000562443938194  2.02294322009e-05   0.000159508405307   
1700000000.0        2.02622990813e-05   0.000169477608426   0.999978242379      -0.000597618056095  0.999978242379      -0.000597618056095  2.02622990813e-05   0.000169477608426   
1800000000.0        2.02949238679e-05   0.000179446911462   0.999978174872      -0.000632795419095  0.999978174872      -0.000632795419095  2.02949238677e-05   0.000179446911462   
1900000000.0        2.03274053023e-05   0.00018941634109    0.999978106866      -0.000667976125474  0.999978106866      -0.000667976125474  2.03274053023e-05   0.00018941634109    
2000000000.0        2.03598287964e-05   0.000199385923987   0.999978038277      -0.000703160271859  0.999978038277      -0.000703160271859  2.03598287964e-05   0.000199385923987   
2100000000.0        2.03922685154e-05   0.000209355688345   0.999977969031      -0.000738347951889  0.999977969031      -0.000738347951889  2.03922685151e-05   0.000209355688345   
2200000000.0        2.04247894544e-05   0.000219325664041   0.999977899061      -0.000773539256185  0.999977899061      -0.000773539256185  2.04247894544e-05   0.000219325664041   
2300000000.0        2.04574488132e-05   0.000229295882024   0.999977828311      -0.000808734273103  0.999977828311      -0.000808734273103  2.04574488132e-05   0.000229295882024   
2400000000.0        2.04902972512e-05   0.000239266374308   0.999977756729      -0.000843933088855  0.999977756729      -0.000843933088855  2.04902972512e-05   0.000239266374308   
2500000000.0        2.05233798214e-05   0.000249237173618   0.99997768427       -0.000879135787963  0.99997768427       -0.000879135787963  2.05233798214e-05   0.000249237173618   
2600000000.0        2.05567367957e-05   0.000259208314191   0.999977610893      -0.000914342452554  0.999977610893      -0.000914342452554  2.05567367957e-05   0.000259208314191   
2700000000.0        2.05904043018e-05   0.000269179830978   0.999977536562      -0.000949553163241  0.999977536562      -0.000949553163241  2.05904043022e-05   0.000269179830977   
2800000000.0        2.06244149037e-05   0.000279151760258   0.999977461244      -0.000984767998576  0.999977461244      -0.000984767998576  2.06244149037e-05   0.000279151760258   
2900000000.0        2.06587980229e-05   0.000289124139116   0.999977384908      -0.00101998703565   0.999977384908      -0.00101998703565   2.06587980229e-05   0.000289124139116   
3000000000.0        2.06935803324e-05   0.000299097005521   0.999977307529      -0.00105521035006   0.999977307529      -0.00105521035006   2.06935803324e-05   0.000299097005521   
3100000000.0        2.07287861211e-05   0.000309070398512   0.999977229081      -0.0010904380158    0.999977229081      -0.0010904380158    2.07287861211e-05   0.000309070398512   
3200000000.0        2.07644375316e-05   0.000319044357748   0.999977149542      -0.00112567010574   0.999977149542      -0.00112567010574   2.07644375319e-05   0.000319044357748   
3300000000.0        2.0800554825e-05    0.000329018923823   0.999977068891      -0.00116090669136   0.999977068891      -0.00116090669136   2.08005548246e-05   0.000329018923823   
3400000000.0        2.08371565782e-05   0.00033899413844    0.999976987109      -0.00119614784264   0.999976987109      -0.00119614784264   2.08371565782e-05   0.00033899413844    
3500000000.0        2.08742598689e-05   0.000348970043748   0.999976904179      -0.00123139362871   0.999976904179      -0.00123139362871   2.08742598689e-05   0.000348970043748   
3600000000.0        2.09118804326e-05   0.00035894668314    0.999976820085      -0.00126664411715   0.999976820085      -0.00126664411715   2.09118804324e-05   0.00035894668314    
3700000000.0        2.09500327903e-05   0.000368924100274   0.999976734812      -0.00130189937496   0.999976734812      -0.00130189937496   2.09500327903e-05   0.000368924100274   
3800000000.0        2.09887303833e-05   0.000378902339876   0.999976648346      -0.0013371594678    0.999976648346      -0.0013371594678    2.09887303833e-05   0.000378902339876   
3900000000.0        2.10279856774e-05   0.000388881446983   0.999976560674      -0.00137242446078   0.999976560674      -0.00137242446078   2.10279856769e-05   0.000388881446983   
4000000000.0        2.10678102297e-05   0.000398861468142   0.999976471784      -0.00140769441727   0.999976471784      -0.00140769441727   2.10678102297e-05   0.000398861468142   
4100000000.0        2.11082148025e-05   0.000408842450033   0.999976381666      -0.00144296940031   0.999976381666      -0.00144296940031   2.11082148027e-05   0.000408842450033   
4200000000.0        2.11492094206e-05   0.000418824439825   0.999976290308      -0.00147824947227   0.999976290308      -0.00147824947227   2.11492094206e-05   0.000418824439825   
4300000000.0        2.11908034484e-05   0.000428807486066   0.999976197702      -0.00151353469401   0.999976197702      -0.00151353469401   2.11908034484e-05   0.000428807486066   
4400000000.0        2.12330056233e-05   0.000438791637078   0.999976103838      -0.00154882512646   0.999976103838      -0.00154882512646   2.12330056233e-05   0.000438791637078   
4500000000.0        2.12758241422e-05   0.000448776942565   0.999976008707      -0.00158412082905   0.999976008707      -0.00158412082905   2.12758241425e-05   0.000448776942565   
4600000000.0        2.13192666851e-05   0.000458763452404   0.999975912301      -0.00161942186094   0.999975912301      -0.00161942186094   2.13192666851e-05   0.000458763452404   
4700000000.0        2.13633404491e-05   0.000468751217275   0.999975814614      -0.0016547282804    0.999975814614      -0.0016547282804    2.13633404489e-05   0.000468751217275   
4800000000.0        2.14080522205e-05   0.000478740288346   0.999975715637      -0.00169004014514   0.999975715637      -0.00169004014514   2.14080522201e-05   0.000478740288346   
4900000000.0        2.14534083744e-05   0.000488730717539   0.999975615365      -0.00172535751207   0.999975615365      -0.00172535751207   2.14534083744e-05   0.000488730717539   
5000000000.0        2.14994149257e-05   0.000498722557177   0.99997551379       -0.00176068043762   0.99997551379       -0.00176068043762   2.14994149257e-05   0.000498722557177   
5100000000.0        2.15460775479e-05   0.000508715860205   0.999975410907      -0.0017960089776    0.999975410907      -0.0017960089776    2.15460775483e-05   0.000508715860205   
5200000000.0        2.15934016092e-05   0.000518710680011   0.999975306711      -0.00183134318732   0.999975306711      -0.00183134318732   2.15934016097e-05   0.000518710680011   
5300000000.0        2.16413921845e-05   0.000528707070651   0.999975201194      -0.00186668312145   0.999975201194      -0.00186668312145   2.16413921845e-05   0.000528707070651   
5400000000.0        2.16900540821e-05   0.000538705086535   0.999975094354      -0.00190202883427   0.999975094354      -0.00190202883427   2.16900540819e-05   0.000538705086535   
5500000000.0        2.17393918598e-05   0.000548704782918   0.999974986184      -0.00193738037923   0.999974986184      -0.00193738037923   2.17393918598e-05   0.000548704782918   
5600000000.0        2.17894098515e-05   0.000558706215078   0.99997487668       -0.00197273780977   0.99997487668       -0.00197273780977   2.17894098515e-05   0.000558706215078   
5700000000.0        2.18401121697e-05   0.00056870943929    0.999974765837      -0.00200810117837   0.999974765837      -0.00200810117837   2.18401121699e-05   0.00056870943929    
5800000000.0        2.18915027435e-05   0.000578714511764   0.999974653652      -0.00204347053758   0.999974653652      -0.00204347053758   2.18915027435e-05   0.000578714511764   
5900000000.0        2.19435852962e-05   0.000588721489687   0.99997454012       -0.00207884593903   0.99997454012       -0.00207884593903   2.19435852962e-05   0.000588721489687   
6000000000.0        2.19963633958e-05   0.000598730430559   0.999974425238      -0.00211422743408   0.999974425238      -0.00211422743408   2.19963633956e-05   0.000598730430559   
6100000000.0        2.20498404442e-05   0.000608741392164   0.999974309001      -0.00214961507384   0.999974309001      -0.00214961507384   2.2049840444e-05    0.000608741392164   
6200000000.0        2.21040196919e-05   0.000618754432847   0.999974191407      -0.00218500890894   0.999974191407      -0.00218500890894   2.21040196917e-05   0.000618754432847   
6300000000.0        2.21589042577e-05   0.000628769611349   0.999974072451      -0.00222040898965   0.999974072451      -0.00222040898965   2.21589042577e-05   0.000628769611349   
6400000000.0        2.22144971223e-05   0.000638786986945   0.999973952131      -0.0022558153658    0.999973952131      -0.0022558153658    2.2214497122e-05    0.000638786986945   
6500000000.0        2.22708011539e-05   0.000648806619221   0.999973830443      -0.00229122808696   0.999973830443      -0.00229122808696   2.22708011539e-05   0.000648806619221   
6600000000.0        2.23278190956e-05   0.000658828568341   0.999973707384      -0.00232664720221   0.999973707384      -0.00232664720221   2.23278190956e-05   0.000658828568341   
6700000000.0        2.23855535963e-05   0.000668852894624   0.999973582952      -0.00236207276056   0.999973582952      -0.00236207276056   2.23855535961e-05   0.000668852894624   
6800000000.0        2.24440071994e-05   0.000678879659078   0.999973457143      -0.00239750481039   0.999973457143      -0.00239750481039   2.24440071992e-05   0.000678879659078   
6900000000.0        2.250318236e-05     0.000688908922734   0.999973329955      -0.00243294340019   0.999973329955      -0.00243294340019   2.250318236e-05     0.000688908922734   
7000000000.0        2.25630814408e-05   0.000698940747442   0.999973201385      -0.00246838857769   0.999973201385      -0.00246838857769   2.25630814412e-05   0.000698940747442   
7100000000.0        2.2623706734e-05    0.000708975195144   0.99997307143       -0.00250384039063   0.99997307143       -0.00250384039063   2.26237067336e-05   0.000708975195144   
7200000000.0        2.26850604435e-05   0.000719012328269   0.999972940089      -0.00253929888637   0.999972940089      -0.00253929888637   2.26850604435e-05   0.000719012328269   
7300000000.0        2.27471447105e-05   0.000729052209492   0.999972807358      -0.00257476411214   0.999972807358      -0.00257476411214   2.27471447105e-05   0.000729052209492   
7400000000.0        2.28099616089e-05   0.000739094902019   0.999972673236      -0.00261023611472   0.999972673236      -0.00261023611472   2.28099616089e-05   0.000739094902019   
7500000000.0        2.287351315e-05     0.000749140469301   0.999972537719      -0.00264571494076   0.999972537719      -0.00264571494076   2.28735131498e-05   0.000749140469301   
7600000000.0        2.29378012884e-05   0.000759188975169   0.999972400807      -0.00268120063665   0.999972400807      -0.00268120063665   2.29378012886e-05   0.000759188975169   
7700000000.0        2.30028279224e-05   0.000769240483849   0.999972262496      -0.0027166932485    0.999972262496      -0.0027166932485    2.30028279224e-05   0.000769240483849   
7800000000.0        2.30685949003e-05   0.000779295059884   0.999972122785      -0.0027521928222    0.999972122785      -0.0027521928222    2.30685949003e-05   0.000779295059884   
7900000000.0        2.31351040252e-05   0.000789352768056   0.999971981671      -0.00278769940353   0.999971981671      -0.00278769940353   2.3135104025e-05    0.000789352768056   
8000000000.0        2.32023570532e-05   0.000799413673683   0.999971839153      -0.00282321303787   0.999971839153      -0.00282321303787   2.3202357053e-05    0.000799413673683   
8100000000.0        2.32703556999e-05   0.000809477842128   0.999971695229      -0.00285873377065   0.999971695229      -0.00285873377065   2.32703557002e-05   0.000809477842128   
8200000000.0        2.33391016455e-05   0.00081954533933    0.999971549896      -0.00289426164687   0.999971549896      -0.00289426164687   2.33391016458e-05   0.00081954533933    
8300000000.0        2.34085965316e-05   0.000829616231384   0.999971403153      -0.00292979671148   0.999971403153      -0.00292979671148   2.34085965312e-05   0.000829616231384   
8400000000.0        2.34788419631e-05   0.000839690584762   0.999971254998      -0.00296533900918   0.999971254998      -0.00296533900918   2.34788419631e-05   0.000839690584762   
8500000000.0        2.3549839522e-05    0.00084976846625    0.999971105429      -0.0030008885845    0.999971105429      -0.0030008885845    2.3549839522e-05    0.00084976846625    
8600000000.0        2.36215907543e-05   0.000859849942919   0.999970954445      -0.00303644548181   0.999970954445      -0.00303644548181   2.36215907539e-05   0.000859849942919   
8700000000.0        2.36940971816e-05   0.00086993508213    0.999970802043      -0.0030720097453    0.999970802043      -0.0030720097453    2.36940971812e-05   0.00086993508213    
8800000000.0        2.37673603007e-05   0.000880023951624   0.999970648222      -0.00310758141894   0.999970648222      -0.00310758141894   2.37673603005e-05   0.000880023951624   
8900000000.0        2.3841381585e-05    0.000890116619251   0.99997049298       -0.0031431605467    0.99997049298       -0.0031431605467    2.3841381585e-05    0.000890116619251   
9000000000.0        2.3916162488e-05    0.000900213153327   0.999970336316      -0.00317874717223   0.999970336316      -0.00317874717223   2.3916162488e-05    0.000900213153327   
9100000000.0        2.39917044413e-05   0.000910313622347   0.999970178228      -0.00321434133913   0.999970178228      -0.00321434133913   2.39917044413e-05   0.000910313622347   
9200000000.0        2.40680088592e-05   0.000920418095162   0.999970018714      -0.00324994309078   0.999970018714      -0.00324994309078   2.40680088595e-05   0.000920418095162   
9300000000.0        2.41450771388e-05   0.000930526640844   0.999969857773      -0.00328555247046   0.999969857773      -0.00328555247046   2.41450771388e-05   0.000930526640844   
9400000000.0        2.42229106662e-05   0.000940639328621   0.999969695404      -0.00332116952147   0.999969695404      -0.00332116952147   2.42229106664e-05   0.000940639328621   
9500000000.0        2.43015108055e-05   0.000950756228255   0.999969531603      -0.00335679428666   0.999969531603      -0.00335679428666   2.43015108057e-05   0.000950756228255   
9600000000.0        2.43808789162e-05   0.000960877409595   0.999969366371      -0.00339242680896   0.999969366371      -0.00339242680896   2.43808789162e-05   0.000960877409595   
9700000000.0        2.44610163402e-05   0.000971002942803   0.999969199706      -0.00342806713112   0.999969199706      -0.00342806713112   2.446101634e-05     0.000971002942803   
9800000000.0        2.45419244145e-05   0.000981132898219   0.999969031605      -0.00346371529585   0.999969031605      -0.00346371529585   2.45419244143e-05   0.000981132898219   
9900000000.0        2.46236044621e-05   0.000991267346558   0.999968862069      -0.00349937134562   0.999968862069      -0.00349937134562   2.46236044625e-05   0.000991267346558   
10000000000.0       2.47060578018e-05   0.00100140635865    0.999968691094      -0.00353503532291   0.999968691094      -0.00353503532291   2.47060578022e-05   0.00100140635865    
