# Hz S RI R 50.00 
100000000.0         0.000262772697329   -0.00322701922859   0.999691862595      -0.00527761683753   0.999691862595      -0.00527761683753   0.000262772697329   -0.00322701922859   
200000000.0         0.000209499439142   -0.00645381627647   0.999628430623      -0.0105550928429    0.999628430623      -0.0105550928429    0.000209499439142   -0.00645381627647   
300000000.0         0.000121665127312   -0.00968009443791   0.999527217047      -0.0158321897677    0.999527217047      -0.0158321897677    0.000121665127311   -0.00968009443791   
400000000.0         -4.82441478433e-07  -0.0129055254007    0.999387977199      -0.0211086230104    0.999387977199      -0.0211086230104    -4.82441478433e-07  -0.0129055254007    
500000000.0         -0.000156843090023  -0.0161297637357    0.999210620962      -0.0263840845895    0.999210620962      -0.0263840845895    -0.000156843090022  -0.0161297637357    
600000000.0         -0.000347358847729  -0.0193524523991    0.998995108378      -0.0316582510516    0.998995108378      -0.0316582510516    -0.000347358847729  -0.0193524523991    
700000000.0         -0.000571986960826  -0.0225732256593    0.998741423391      -0.0369307875456    0.998741423391      -0.0369307875456    -0.000571986960826  -0.0225732256593    
800000000.0         -0.000830689908544  -0.0257917109274    0.998449564436      -0.0422013503121    0.998449564436      -0.0422013503121    -0.000830689908544  -0.0257917109274    
900000000.0         -0.00112343086238   -0.0290075300224    0.998119540358      -0.0474695883719    0.998119540358      -0.0474695883719    -0.00112343086238   -0.0290075300224    
1000000000.0        -0.00145017131405   -0.0322203001085    0.997751368422      -0.0527351447549    0.997751368422      -0.0527351447549    -0.00145017131405   -0.0322203001085    
1100000000.0        -0.00181086970371   -0.0354296344288    0.99734507327       -0.0579976574465    0.99734507327       -0.0579976574465    -0.00181086970371   -0.0354296344288    
1200000000.0        -0.00220548056167   -0.0386351429029    0.99690068634       -0.0632567601441    0.99690068634       -0.0632567601441    -0.00220548056167   -0.0386351429029    
1300000000.0        -0.00263395393673   -0.0418364326299    0.996418245541      -0.0685120828857    0.996418245541      -0.0685120828857    -0.00263395393673   -0.0418364326299    
1400000000.0        -0.00309623499599   -0.0450331083236    0.995897795056      -0.073763252583     0.995897795056      -0.073763252583     -0.00309623499599   -0.0450331083236    
1500000000.0        -0.00359226373304   -0.0482247726968    0.99533938524       -0.079009893488     0.99533938524       -0.079009893488     -0.00359226373304   -0.0482247726968    
1600000000.0        -0.00412197474867   -0.0514110268072    0.994743072557      -0.0842516276046    0.994743072557      -0.0842516276046    -0.00412197474867   -0.0514110268072    
1700000000.0        -0.00468529708193   -0.0545914703733    0.994108919547      -0.089488075061     0.994108919547      -0.089488075061     -0.00468529708193   -0.0545914703733    
1800000000.0        -0.00528215407787   -0.0577657020662    0.99343699481       -0.0947188544495    0.99343699481       -0.0947188544495    -0.00528215407787   -0.0577657020662    
1900000000.0        -0.00591246328303   -0.060933319782     0.992727373007      -0.0999435831393    0.992727373007      -0.0999435831393    -0.00591246328303   -0.060933319782     
2000000000.0        -0.00657613636244   -0.0640939208985    0.991980134851      -0.105161877569     0.991980134851      -0.105161877569     -0.00657613636244   -0.0640939208985    
2100000000.0        -0.00727307903413   -0.0672471025184    0.991195367115      -0.110373353521     0.991195367115      -0.110373353521     -0.00727307903413   -0.0672471025184    
2200000000.0        -0.00800319101798   -0.0703924617009    0.990373162629      -0.115577626381     0.990373162629      -0.115577626381     -0.00800319101798   -0.0703924617009    
2300000000.0        -0.0087663659968    -0.0735295956843    0.989513620281      -0.120774311382     0.989513620281      -0.120774311382     -0.0087663659968    -0.0735295956843    
2400000000.0        -0.0095624915881    -0.0766581020994    0.988616845014      -0.125963023844     0.988616845014      -0.125963023844     -0.0095624915881    -0.0766581020994    
2500000000.0        -0.0103914493251    -0.0797775791758    0.98768294782       -0.131143379394     0.98768294782       -0.131143379394     -0.0103914493251    -0.0797775791758    
2600000000.0        -0.0112531146464    -0.0828876259415    0.986712045726      -0.13631499419      0.986712045726      -0.13631499419      -0.0112531146464    -0.0828876259415    
2700000000.0        -0.0121473568928    -0.085987842416     0.985704261785      -0.141477485123     0.985704261785      -0.141477485123     -0.0121473568928    -0.085987842416     
2800000000.0        -0.013074039312     -0.0890778297987    0.984659725056      -0.146630470024     0.984659725056      -0.146630470024     -0.013074039312     -0.0890778297987    
2900000000.0        -0.0140330190687    -0.0921571906514    0.98357857058       -0.151773567858     0.98357857058       -0.151773567858     -0.0140330190687    -0.0921571906514    
3000000000.0        -0.015024147262     -0.0952255290764    0.982460939357      -0.156906398913     0.982460939357      -0.156906398913     -0.015024147262     -0.0952255290764    
3100000000.0        -0.0160472689476    -0.0982824508898    0.98130697831       -0.162028584988     0.98130697831       -0.162028584988     -0.0160472689476    -0.0982824508898    
3200000000.0        -0.017102223166     -0.101327563791     0.980116840258      -0.167139749568     0.980116840258      -0.167139749568     -0.017102223166     -0.101327563791     
3300000000.0        -0.0181888429755    -0.104360477528     0.978890683867      -0.172239518002     0.978890683867      -0.172239518002     -0.0181888429755    -0.104360477528     
3400000000.0        -0.0193069554906    -0.107380804059     0.977628673617      -0.177327517668     0.977628673617      -0.177327517668     -0.0193069554906    -0.107380804059     
3500000000.0        -0.0204563819246    -0.110388157706     0.976330979748      -0.182403378146     0.976330979748      -0.182403378146     -0.0204563819246    -0.110388157706     
3600000000.0        -0.0216369376368    -0.113382155316     0.974997778212      -0.187466731371     0.974997778212      -0.187466731371     -0.0216369376368    -0.113382155316     
3700000000.0        -0.0228484321844    -0.116362416402     0.973629250616      -0.192517211792     0.973629250616      -0.192517211792     -0.0228484321844    -0.116362416402     
3800000000.0        -0.0240906693783    -0.119328563297     0.972225584166      -0.19755445653      0.972225584166      -0.19755445653      -0.0240906693783    -0.119328563297     
3900000000.0        -0.0253634473423    -0.122280221292     0.970786971603      -0.202578105518     0.970786971603      -0.202578105518     -0.0253634473423    -0.122280221292     
4000000000.0        -0.0266665585775    -0.125217018777     0.969313611137      -0.207587801652     0.969313611137      -0.207587801652     -0.0266665585775    -0.125217018777     
4100000000.0        -0.0279997900287    -0.128138587375     0.967805706381      -0.21258319093      0.967805706381      -0.21258319093      -0.0279997900287    -0.128138587375     
4200000000.0        -0.0293629231558    -0.131044562078     0.966263466275      -0.217563922588     0.966263466275      -0.217563922588     -0.0293629231558    -0.131044562078     
4300000000.0        -0.0307557340078    -0.133934581372     0.964687105009      -0.222529649236     0.964687105009      -0.222529649236     -0.0307557340078    -0.133934581372     
4400000000.0        -0.0321779933       -0.136808287363     0.963076841951      -0.227480026983     0.963076841951      -0.227480026983     -0.0321779933       -0.136808287363     
4500000000.0        -0.0336294664945    -0.1396653259       0.961432901557      -0.232414715567     0.961432901557      -0.232414715567     -0.0336294664945    -0.1396653259       
4600000000.0        -0.0351099138844    -0.142505346694     0.959755513291      -0.237333378476     0.959755513291      -0.237333378476     -0.0351099138844    -0.142505346694     
4700000000.0        -0.0366190906792    -0.14532800343      0.958044911539      -0.242235683064     0.958044911539      -0.242235683064     -0.0366190906792    -0.14532800343      
4800000000.0        -0.0381567470945    -0.14813295388      0.956301335513      -0.247121300669     0.956301335513      -0.247121300669     -0.0381567470945    -0.14813295388      
4900000000.0        -0.0397226284439    -0.15091986001      0.954525029164      -0.251989906721     0.954525029164      -0.251989906721     -0.0397226284439    -0.15091986001      
5000000000.0        -0.0413164752327    -0.153688388088     0.952716241085      -0.256841180852     0.952716241085      -0.256841180852     -0.0413164752327    -0.153688388088     
5100000000.0        -0.0429380232549    -0.15643820878      0.950875224411      -0.261674806996     0.950875224411      -0.261674806996     -0.0429380232549    -0.15643820878      
5200000000.0        -0.0445870036917    -0.15916899725      0.949002236724      -0.266490473494     0.949002236724      -0.266490473494     -0.0445870036917    -0.15916899725      
5300000000.0        -0.0462631432129    -0.161880433251     0.947097539949      -0.271287873183     0.947097539949      -0.271287873183     -0.0462631432129    -0.161880433251     
5400000000.0        -0.0479661640796    -0.164572201223     0.945161400248      -0.276066703498     0.945161400248      -0.276066703498     -0.0479661640796    -0.164572201223     
5500000000.0        -0.049695784249     -0.167243990369     0.943194087918      -0.280826666552     0.943194087918      -0.280826666552     -0.049695784249     -0.167243990369     
5600000000.0        -0.0514517174815    -0.169895494748     0.941195877284      -0.285567469226     0.941195877284      -0.285567469226     -0.0514517174815    -0.169895494748     
5700000000.0        -0.0532336734484    -0.172526413347     0.939167046585      -0.290288823252     0.939167046585      -0.290288823252     -0.0532336734484    -0.172526413347     
5800000000.0        -0.0550413578424    -0.175136450165     0.937107877869      -0.294990445285     0.937107877869      -0.294990445285     -0.0550413578424    -0.175136450165     
5900000000.0        -0.0568744724887    -0.177725314279     0.935018656879      -0.299672056984     0.935018656879      -0.299672056984     -0.0568744724887    -0.177725314279     
6000000000.0        -0.0587327154573    -0.180292719917     0.932899672937      -0.304333385078     0.932899672937      -0.304333385078     -0.0587327154573    -0.180292719917     
6100000000.0        -0.0606157811775    -0.182838386522     0.930751218835      -0.308974161438     0.930751218835      -0.308974161438     -0.0606157811775    -0.182838386522     
6200000000.0        -0.0625233605525    -0.185362038816     0.928573590714      -0.313594123134     0.928573590714      -0.313594123134     -0.0625233605525    -0.185362038816     
6300000000.0        -0.0644551410754    -0.187863406858     0.926367087953      -0.318193012502     0.926367087953      -0.318193012502     -0.0644551410754    -0.187863406858     
6400000000.0        -0.0664108069464    -0.190342226099     0.924132013043      -0.322770577194     0.924132013043      -0.322770577194     -0.0664108069464    -0.190342226099     
6500000000.0        -0.06839003919      -0.192798237433     0.92186867148       -0.327326570236     0.92186867148       -0.327326570236     -0.06839003919      -0.192798237433     
6600000000.0        -0.0703925157739    -0.195231187249     0.919577371634      -0.331860750075     0.919577371634      -0.331860750075     -0.0703925157739    -0.195231187249     
6700000000.0        -0.0724179117276    -0.19764082747      0.917258424641      -0.336372880625     0.917258424641      -0.336372880625     -0.0724179117276    -0.19764082747      
6800000000.0        -0.074465899262     -0.200026915601     0.914912144274      -0.34086273131      0.914912144274      -0.34086273131      -0.074465899262     -0.200026915601     
6900000000.0        -0.0765361478891    -0.202389214764     0.912538846825      -0.345330077102     0.912538846825      -0.345330077102     -0.0765361478891    -0.202389214764     
7000000000.0        -0.0786283245424    -0.204727493731     0.910138850987      -0.349774698559     0.910138850987      -0.349774698559     -0.0786283245424    -0.204727493731     
7100000000.0        -0.0807420936971    -0.207041526961     0.907712477732      -0.354196381852     0.907712477732      -0.354196381852     -0.0807420936971    -0.207041526961     
7200000000.0        -0.0828771174902    -0.209331094622     0.905260050186      -0.3585949188       0.905260050186      -0.3585949188       -0.0828771174902    -0.209331094622     
7300000000.0        -0.0850330558416    -0.211595982621     0.902781893513      -0.362970106892     0.902781893513      -0.362970106892     -0.0850330558416    -0.211595982621     
7400000000.0        -0.087209566574     -0.213835982624     0.900278334791      -0.367321749308     0.900278334791      -0.367321749308     -0.087209566574     -0.213835982624     
7500000000.0        -0.0894063055328    -0.216050892072     0.897749702893      -0.371649654943     0.897749702893      -0.371649654943     -0.0894063055328    -0.216050892072     
7600000000.0        -0.091622926707     -0.218240514201     0.895196328366      -0.375953638417     0.895196328366      -0.375953638417     -0.091622926707     -0.218240514201     
7700000000.0        -0.0938590823477    -0.220404658052     0.892618543307      -0.38023352009      0.892618543307      -0.38023352009      -0.0938590823477    -0.220404658052     
7800000000.0        -0.0961144230879    -0.222543138479     0.890016681251      -0.384489126072     0.890016681251      -0.384489126072     -0.0961144230879    -0.222543138479     
7900000000.0        -0.0983885980609    -0.224655776159     0.887391077044      -0.388720288231     0.887391077044      -0.388720288231     -0.0983885980609    -0.224655776159     
8000000000.0        -0.100681255019     -0.226742397591     0.884742066729      -0.39292684419      0.884742066729      -0.39292684419      -0.100681255019     -0.226742397591     
8100000000.0        -0.102992040449     -0.228802835097     0.882069987424      -0.397108637335     0.882069987424      -0.397108637335     -0.102992040449     -0.228802835097     
8200000000.0        -0.105320599691     -0.230836926824     0.87937517721       -0.401265516807     0.87937517721       -0.401265516807     -0.105320599691     -0.230836926824     
8300000000.0        -0.107666577054     -0.232844516731     0.87665797501       -0.405397337499     0.87665797501       -0.405397337499     -0.107666577054     -0.232844516731     
8400000000.0        -0.11002961593      -0.234825454589     0.873918720473      -0.409503960047     0.873918720473      -0.409503960047     -0.11002961593      -0.234825454589     
8500000000.0        -0.112409358908     -0.236779595963     0.871157753864      -0.41358525082      0.871157753864      -0.41358525082      -0.112409358908     -0.236779595963     
8600000000.0        -0.114805447887     -0.238706802201     0.868375415945      -0.417641081904     0.868375415945      -0.417641081904     -0.114805447887     -0.238706802201     
8700000000.0        -0.11721752419      -0.24060694042      0.865572047865      -0.421671331087     0.865572047865      -0.421671331087     -0.11721752419      -0.24060694042      
8800000000.0        -0.11964522867      -0.242479883483     0.86274799105       -0.42567588184      0.86274799105       -0.42567588184      -0.11964522867      -0.242479883483     
8900000000.0        -0.122088201826     -0.244325509982     0.859903587088      -0.429654623295     0.859903587088      -0.429654623295     -0.122088201826     -0.244325509982     
9000000000.0        -0.124546083906     -0.246143704209     0.857039177623      -0.433607450221     0.857039177623      -0.433607450221     -0.124546083906     -0.246143704209     
9100000000.0        -0.127018515017     -0.247934356134     0.854155104248      -0.437534262995     0.854155104248      -0.437534262995     -0.127018515017     -0.247934356134     
9200000000.0        -0.129505135229     -0.249697361376     0.851251708397      -0.441434967579     0.851251708397      -0.441434967579     -0.129505135229     -0.249697361376     
9300000000.0        -0.13200558468      -0.251432621169     0.848329331241      -0.445309475482     0.848329331241      -0.445309475482     -0.13200558468      -0.251432621169     
9400000000.0        -0.13451950368      -0.253140042333     0.845388313581      -0.44915770373      0.845388313581      -0.44915770373      -0.13451950368      -0.253140042333     
9500000000.0        -0.137046532809     -0.254819537235     0.842428995753      -0.452979574831     0.842428995753      -0.452979574831     -0.137046532809     -0.254819537235     
9600000000.0        -0.139586313021     -0.256471023755     0.83945171752       -0.456775016735     0.83945171752       -0.456775016735     -0.139586313021     -0.256471023755     
9700000000.0        -0.142138485738     -0.258094425244     0.836456817978      -0.460543962795     0.836456817978      -0.460543962795     -0.142138485738     -0.258094425244     
9800000000.0        -0.14470269295      -0.259689670485     0.833444635455      -0.464286351723     0.833444635455      -0.464286351723     -0.14470269295      -0.259689670485     
9900000000.0        -0.147278577307     -0.261256693648     0.830415507419      -0.468002127552     0.830415507419      -0.468002127552     -0.147278577307     -0.261256693648     
10000000000.0       -0.149865782215     -0.262795434243     0.827369770382      -0.471691239584     0.827369770382      -0.471691239584     -0.149865782215     -0.262795434243     
