# Hz S RI R 50.00 
100000000.0         0.0008727035648     -0.000808160585251  0.999108329602      -0.00430801934997   0.999108329602      -0.00430801934997   0.0008727035648     -0.000808160585251  
200000000.0         0.000865738006649   -0.0016163413082    0.999071143572      -0.00861601571625   0.999071143572      -0.00861601571625   0.000865738006649   -0.0016163413082    
300000000.0         0.000850275766413   -0.00242449734576   0.999016266741      -0.0129239811858    0.999016266741      -0.0129239811858    0.000850275766414   -0.00242449734576   
400000000.0         0.000827076241135   -0.00323258637166   0.998942936568      -0.0172318806985    0.998942936568      -0.0172318806985    0.000827076241135   -0.00323258637166   
500000000.0         0.000796430929766   -0.00404056423199   0.998850858282      -0.0215396683437    0.998850858282      -0.0215396683437    0.000796430929766   -0.00404056423199   
600000000.0         0.000758488032762   -0.00484838494894   0.998739880474      -0.0258472915912    0.998739880474      -0.0258472915912    0.000758488032762   -0.00484838494894   
700000000.0         0.000713334927337   -0.0056560009431    0.998609912746      -0.0301546932452    0.998609912746      -0.0301546932452    0.000713334927337   -0.0056560009431    
800000000.0         0.000661028264216   -0.00646336324081   0.998460895724      -0.0344618125506    0.998460895724      -0.0344618125506    0.000661028264216   -0.00646336324081   
900000000.0         0.000601607372338   -0.0072704216442    0.998292787731      -0.0387685858958    0.998292787731      -0.0387685858958    0.000601607372338   -0.0072704216442    
1000000000.0        0.00053510105926    -0.00807712486875   0.998105558059      -0.0430749472967    0.998105558059      -0.0430749472967    0.00053510105926    -0.00807712486875   
1100000000.0        0.000461531397219   -0.00888342065569   0.997899183248      -0.047380828747     0.997899183248      -0.047380828747     0.000461531397219   -0.00888342065569   
1200000000.0        0.000380915984411   -0.00968925586504   0.99767364487       -0.0516861604842    0.99767364487       -0.0516861604842    0.000380915984411   -0.00968925586504   
1300000000.0        0.000293269372349   -0.0104945765543    0.997428928155      -0.0559908711963    0.997428928155      -0.0559908711963    0.000293269372349   -0.0104945765543    
1400000000.0        0.000198604008141   -0.0112993280454    0.997165021091      -0.0602948881891    0.997165021091      -0.0602948881891    0.000198604008141   -0.0112993280454    
1500000000.0        9.6930880146e-05    -0.0121034549835    0.996881913814      -0.0645981375223    0.996881913814      -0.0645981375223    9.69308801457e-05   -0.0121034549835    
1600000000.0        -1.17400254414e-05  -0.0129069013877    0.996579598188      -0.0689005441241    0.996579598188      -0.0689005441241    -1.17400254415e-05  -0.0129069013877    
1700000000.0        -0.000127399392815  -0.0137096106973    0.996258067505      -0.0732020318879    0.996258067505      -0.0732020318879    -0.000127399392815  -0.0137096106973    
1800000000.0        -0.000250038329703  -0.0145115258121    0.995917316271      -0.0775025237557    0.995917316271      -0.0775025237557    -0.000250038329704  -0.0145115258121    
1900000000.0        -0.000379648179816  -0.0153125891301    0.995557340041      -0.0818019417909    0.995557340041      -0.0818019417909    -0.000379648179816  -0.0153125891301    
2000000000.0        -0.000516220377665  -0.016112742581     0.995178135305      -0.086100207242     0.995178135305      -0.086100207242     -0.000516220377665  -0.016112742581     
2100000000.0        -0.000659746334311  -0.0169119276577    0.994779699392      -0.0903972405999    0.994779699392      -0.0903972405999    -0.000659746334311  -0.0169119276577    
2200000000.0        -0.000810217346046  -0.0177100854452    0.994362030407      -0.0946929616482    0.994362030407      -0.0946929616482    -0.000810217346046  -0.0177100854452    
2300000000.0        -0.000967624520448  -0.0185071566475    0.993925127172      -0.0989872895096    0.993925127172      -0.0989872895096    -0.000967624520448  -0.0185071566475    
2400000000.0        -0.00113195871572   -0.0193030816131    0.99346898919       -0.103280142687     0.99346898919       -0.103280142687     -0.00113195871572   -0.0193030816131    
2500000000.0        -0.00130321049037   -0.0200978003588    0.99299361661       -0.107571439104     0.99299361661       -0.107571439104     -0.00130321049037   -0.0200978003588    
2600000000.0        -0.00148137006104   -0.020891252592     0.992499010202      -0.111861096136     0.992499010202      -0.111861096136     -0.00148137006104   -0.020891252592     
2700000000.0        -0.00166642726682   -0.0216833777326    0.991985171341      -0.116149030646     0.991985171341      -0.116149030646     -0.00166642726682   -0.0216833777326    
2800000000.0        -0.00185837153879   -0.0224741149329    0.991452101986      -0.120435159015     0.991452101986      -0.120435159015     -0.00185837153879   -0.0224741149329    
2900000000.0        -0.00205719187385   -0.0232634030979    0.990899804676      -0.124719397167     0.990899804676      -0.124719397167     -0.00205719187385   -0.0232634030979    
3000000000.0        -0.00226287681202   -0.0240511809031    0.990328282511      -0.129001660598     0.990328282511      -0.129001660598     -0.00226287681202   -0.0240511809031    
3100000000.0        -0.00247541441663   -0.0248373868134    0.989737539154      -0.133281864401     0.989737539154      -0.133281864401     -0.00247541441663   -0.0248373868134    
3200000000.0        -0.00269479225705   -0.0256219591001    0.98912757882       -0.137559923289     0.98912757882       -0.137559923289     -0.00269479225705   -0.0256219591001    
3300000000.0        -0.00292099739335   -0.0264048358578    0.988498406275      -0.141835751616     0.988498406275      -0.141835751616     -0.00292099739335   -0.0264048358578    
3400000000.0        -0.00315401636281   -0.0271859550208    0.987850026829      -0.146109263398     0.987850026829      -0.146109263398     -0.00315401636281   -0.0271859550208    
3500000000.0        -0.00339383516788   -0.0279652543786    0.98718244634       -0.150380372337     0.98718244634       -0.150380372337     -0.00339383516788   -0.0279652543786    
3600000000.0        -0.00364043926549   -0.0287426715919    0.986495671206      -0.154648991833     0.986495671206      -0.154648991833     -0.0036404392655    -0.0287426715919    
3700000000.0        -0.00389381355747   -0.029518144207     0.985789708368      -0.158915035011     0.985789708368      -0.158915035011     -0.00389381355747   -0.029518144207     
3800000000.0        -0.00415394238195   -0.0302916096706    0.985064565309      -0.163178414731     0.985064565309      -0.163178414731     -0.00415394238195   -0.0302916096706    
3900000000.0        -0.0044208095057    -0.0310630053441    0.984320250053      -0.167439043609     0.984320250053      -0.167439043609     -0.0044208095057    -0.0310630053441    
4000000000.0        -0.00469439811719   -0.0318322685176    0.983556771164      -0.171696834031     0.983556771164      -0.171696834031     -0.00469439811719   -0.0318322685176    
4100000000.0        -0.0049746908204    -0.0325993364235    0.98277413775       -0.17595169817      0.98277413775       -0.17595169817      -0.0049746908204    -0.0325993364235    
4200000000.0        -0.00526166962924   -0.0333641462496    0.981972359458      -0.180203548003     0.981972359458      -0.180203548003     -0.00526166962924   -0.0333641462496    
4300000000.0        -0.00555531596252   -0.0341266351525    0.98115144648       -0.184452295321     0.98115144648       -0.184452295321     -0.00555531596252   -0.0341266351525    
4400000000.0        -0.00585561063949   -0.0348867402706    0.980311409548      -0.188697851745     0.980311409548      -0.188697851745     -0.00585561063949   -0.0348867402706    
4500000000.0        -0.00616253387584   -0.0356443987361    0.979452259941      -0.192940128743     0.979452259941      -0.192940128743     -0.00616253387584   -0.0356443987361    
4600000000.0        -0.00647606528009   -0.0363995476882    0.978574009479      -0.197179037639     0.978574009479      -0.197179037639     -0.00647606528009   -0.0363995476882    
4700000000.0        -0.00679618385048   -0.0371521242846    0.977676670527      -0.201414489626     0.977676670527      -0.201414489626     -0.00679618385048   -0.0371521242846    
4800000000.0        -0.00712286797212   -0.0379020657139    0.976760255996      -0.205646395782     0.976760255996      -0.205646395782     -0.00712286797212   -0.0379020657139    
4900000000.0        -0.00745609541459   -0.0386493092073    0.975824779342      -0.20987466708      0.975824779342      -0.20987466708      -0.00745609541459   -0.0386493092073    
5000000000.0        -0.00779584332985   -0.03939379205      0.974870254566      -0.214099214399     0.974870254566      -0.214099214399     -0.00779584332985   -0.03939379205      
5100000000.0        -0.00814208825035   -0.0401354515933    0.973896696217      -0.218319948539     0.973896696217      -0.218319948539     -0.00814208825035   -0.0401354515933    
5200000000.0        -0.00849480608761   -0.0408742252651    0.972904119388      -0.222536780227     0.972904119388      -0.222536780227     -0.00849480608761   -0.0408742252651    
5300000000.0        -0.00885397213093   -0.0416100505816    0.97189253972       -0.226749620133     0.97189253972       -0.226749620133     -0.00885397213093   -0.0416100505816    
5400000000.0        -0.00921956104641   -0.0423428651581    0.970861973401      -0.23095837888      0.970861973401      -0.23095837888      -0.00921956104641   -0.0423428651581    
5500000000.0        -0.00959154687622   -0.0430726067196    0.969812437165      -0.235162967052     0.969812437165      -0.235162967052     -0.00959154687622   -0.0430726067196    
5600000000.0        -0.00996990303813   -0.0437992131121    0.968743948293      -0.239363295205     0.968743948293      -0.239363295205     -0.00996990303813   -0.0437992131121    
5700000000.0        -0.0103546023252    -0.0445226223125    0.967656524611      -0.243559273881     0.967656524611      -0.243559273881     -0.0103546023252    -0.0445226223125    
5800000000.0        -0.0107456169056    -0.0452427724394    0.966550184492      -0.247750813612     0.966550184492      -0.247750813612     -0.0107456169056    -0.0452427724394    
5900000000.0        -0.0111429183232    -0.0459596017634    0.965424946855      -0.251937824935     0.965424946855      -0.251937824935     -0.0111429183232    -0.0459596017634    
6000000000.0        -0.0115464774973    -0.046673048717     0.964280831164      -0.256120218397     0.964280831164      -0.256120218397     -0.0115464774973    -0.046673048717     
6100000000.0        -0.0119562647236    -0.0473830519048    0.963117857426      -0.260297904569     0.963117857426      -0.260297904569     -0.0119562647236    -0.0473830519048    
6200000000.0        -0.0123722496747    -0.0480895501138    0.961936046193      -0.26447079405      0.961936046193      -0.26447079405      -0.0123722496747    -0.0480895501138    
6300000000.0        -0.0127944014012    -0.0487924823225    0.96073541856       -0.268638797481     0.96073541856       -0.268638797481     -0.0127944014012    -0.0487924823225    
6400000000.0        -0.0132226883327    -0.0494917877111    0.959515996163      -0.27280182555      0.959515996163      -0.27280182555      -0.0132226883327    -0.0494917877111    
6500000000.0        -0.0136570782789    -0.0501874056709    0.95827780118       -0.276959789003     0.95827780118       -0.276959789003     -0.0136570782789    -0.0501874056709    
6600000000.0        -0.014097538431     -0.0508792758139    0.957020856328      -0.281112598651     0.957020856328      -0.281112598651     -0.014097538431     -0.0508792758139    
6700000000.0        -0.0145440353635    -0.0515673379819    0.955745184863      -0.285260165378     0.955745184863      -0.285260165378     -0.0145440353635    -0.0515673379819    
6800000000.0        -0.0149965350359    -0.052251532256     0.954450810578      -0.289402400151     0.954450810578      -0.289402400151     -0.0149965350359    -0.052251532256     
6900000000.0        -0.0154550027943    -0.0529317989658    0.953137757802      -0.293539214029     0.953137757802      -0.293539214029     -0.0154550027943    -0.0529317989658    
7000000000.0        -0.0159194033733    -0.0536080786981    0.951806051397      -0.297670518165     0.951806051397      -0.297670518165     -0.0159194033733    -0.0536080786981    
7100000000.0        -0.0163897008988    -0.0542803123062    0.95045571676       -0.301796223821     0.95045571676       -0.301796223821     -0.0163897008988    -0.0542803123062    
7200000000.0        -0.0168658588896    -0.0549484409187    0.949086779816      -0.305916242371     0.949086779816      -0.305916242371     -0.0168658588896    -0.0549484409187    
7300000000.0        -0.0173478402603    -0.0556124059478    0.947699267021      -0.310030485309     0.947699267021      -0.310030485309     -0.0173478402603    -0.0556124059478    
7400000000.0        -0.0178356073233    -0.0562721490987    0.946293205358      -0.31413886426      0.946293205358      -0.31413886426      -0.0178356073233    -0.0562721490987    
7500000000.0        -0.0183291217921    -0.0569276123775    0.944868622334      -0.31824129098      0.944868622334      -0.31824129098      -0.0183291217921    -0.0569276123775    
7600000000.0        -0.0188283447837    -0.0575787380998    0.94342554598       -0.322337677371     0.94342554598       -0.322337677371     -0.0188283447837    -0.0575787380998    
7700000000.0        -0.0193332368216    -0.0582254688993    0.941964004846      -0.326427935484     0.941964004846      -0.326427935484     -0.0193332368216    -0.0582254688993    
7800000000.0        -0.019843757839     -0.0588677477357    0.940484028004      -0.330511977524     0.940484028004      -0.330511977524     -0.019843757839     -0.0588677477357    
7900000000.0        -0.0203598671818    -0.0595055179032    0.938985645038      -0.33458971586      0.938985645038      -0.33458971586      -0.0203598671818    -0.0595055179032    
8000000000.0        -0.0208815236118    -0.0601387230382    0.937468886048      -0.338661063032     0.937468886048      -0.338661063032     -0.0208815236118    -0.0601387230382    
8100000000.0        -0.0214086853102    -0.0607673071276    0.935933781646      -0.342725931755     0.935933781646      -0.342725931755     -0.0214086853102    -0.0607673071276    
8200000000.0        -0.0219413098813    -0.0613912145164    0.93438036295       -0.346784234924     0.93438036295       -0.346784234924     -0.0219413098813    -0.0613912145164    
8300000000.0        -0.0224793543557    -0.0620103899158    0.932808661586      -0.350835885627     0.932808661586      -0.350835885627     -0.0224793543557    -0.0620103899158    
8400000000.0        -0.0230227751942    -0.0626247784103    0.931218709682      -0.354880797142     0.931218709682      -0.354880797142     -0.0230227751942    -0.0626247784103    
8500000000.0        -0.0235715282918    -0.0632343254662    0.929610539867      -0.358918882953     0.929610539867      -0.358918882953     -0.0235715282918    -0.0632343254662    
8600000000.0        -0.0241255689812    -0.0638389769381    0.927984185265      -0.362950056745     0.927984185265      -0.362950056745     -0.0241255689812    -0.0638389769381    
8700000000.0        -0.0246848520371    -0.064438679077     0.926339679499      -0.36697423242      0.926339679499      -0.36697423242      -0.0246848520371    -0.064438679077     
8800000000.0        -0.0252493316804    -0.0650333785374    0.924677056678      -0.370991324095     0.924677056678      -0.370991324095     -0.0252493316804    -0.0650333785374    
8900000000.0        -0.025818961582     -0.0656230223845    0.922996351402      -0.375001246112     0.922996351402      -0.375001246112     -0.025818961582     -0.0656230223845    
9000000000.0        -0.0263936948675    -0.0662075581013    0.921297598757      -0.379003913043     0.921297598757      -0.379003913043     -0.0263936948675    -0.0662075581013    
9100000000.0        -0.0269734841213    -0.0667869335958    0.919580834307      -0.382999239693     0.919580834307      -0.382999239693     -0.0269734841213    -0.0667869335958    
9200000000.0        -0.0275582813913    -0.0673610972077    0.917846094098      -0.386987141107     0.917846094098      -0.386987141107     -0.0275582813913    -0.0673610972077    
9300000000.0        -0.0281480381933    -0.0679299977156    0.91609341465       -0.390967532576     0.91609341465       -0.390967532576     -0.0281480381933    -0.0679299977156    
9400000000.0        -0.0287427055157    -0.0684935843433    0.914322832952      -0.39494032964      0.914322832952      -0.39494032964      -0.0287427055157    -0.0684935843433    
9500000000.0        -0.0293422338243    -0.069051806767     0.912534386465      -0.398905448095     0.912534386465      -0.398905448095     -0.0293422338243    -0.069051806767     
9600000000.0        -0.029946573067     -0.0696046151215    0.910728113111      -0.402862803994     0.910728113111      -0.402862803994     -0.029946573067     -0.0696046151215    
9700000000.0        -0.0305556726786    -0.0701519600068    0.908904051275      -0.406812313658     0.908904051275      -0.406812313658     -0.0305556726786    -0.0701519600068    
9800000000.0        -0.0311694815861    -0.0706937924945    0.907062239798      -0.410753893675     0.907062239798      -0.410753893675     -0.0311694815861    -0.0706937924945    
9900000000.0        -0.0317879482135    -0.0712300641344    0.905202717975      -0.414687460908     0.905202717975      -0.414687460908     -0.0317879482135    -0.0712300641344    
10000000000.0       -0.032411020487     -0.07176072696      0.903325525551      -0.418612932497     0.903325525551      -0.418612932497     -0.032411020487     -0.07176072696      
