# Hz S RI R 50.00 
100000000.0         -0.00178206163895   -0.0417916786909    0.998187486419      -0.0419191569031    0.998187486419      -0.0419191569031    -0.00178206163895   -0.0417916786909    
200000000.0         -0.00705039245935   -0.0831334044494    0.99291892318       -0.0833884039248    0.99291892318       -0.0833884039248    -0.00705039245935   -0.0831334044494    
300000000.0         -0.0156791094774    -0.123600475947     0.984290009758      -0.123983061717     0.984290009758      -0.123983061717     -0.0156791094774    -0.123600475947     
400000000.0         -0.0274906339368    -0.162798846929     0.972478298704      -0.163309100574     0.972478298704      -0.163309100574     -0.0274906339368    -0.162798846929     
500000000.0         -0.0422501311347    -0.200376855131     0.957718614655      -0.201014871863     0.957718614655      -0.201014871863     -0.0422501311347    -0.200376855131     
600000000.0         -0.0596767656483    -0.236034280549     0.940291787904      -0.236800167176     0.940291787904      -0.236800167176     -0.0596767656483    -0.236034280549     
700000000.0         -0.0794562835386    -0.269528213233     0.920512069349      -0.270422086589     0.920512069349      -0.270422086589     -0.0794562835386    -0.269528213233     
800000000.0         -0.101253953442     -0.30067564261      0.898714188374      -0.301697628262     0.898714188374      -0.301697628262     -0.101253953442     -0.30067564261      
900000000.0         -0.12472698764      -0.329352989908     0.875240931317      -0.330503221063     0.875240931317      -0.330503221063     -0.12472698764      -0.329352989908     
1000000000.0        -0.14953573534      -0.355493033611     0.850431947959      -0.356771650163     0.850431947959      -0.356771650163     -0.14953573534      -0.355493033611     
1100000000.0        -0.175353156475     -0.379079817036     0.824614277594      -0.380486964726     0.824614277594      -0.380486964726     -0.175353156475     -0.379079817036     
1200000000.0        -0.201872308846     -0.400142179196     0.798094861809      -0.401678008857     0.798094861809      -0.401678008857     -0.201872308846     -0.400142179196     
1300000000.0        -0.228811784944     -0.41874652817      0.77115510762       -0.420411195054     0.77115510762       -0.420411195054     -0.228811784944     -0.41874652817      
1400000000.0        -0.255919198324     -0.434989400897     0.74404740106       -0.436783064062     0.74404740106       -0.436783064062     -0.255919198324     -0.434989400897     
1500000000.0        -0.282972934595     -0.448990246617     0.716993356174      -0.450913068372     0.716993356174      -0.450913068372     -0.282972934595     -0.448990246617     
1600000000.0        -0.309782449302     -0.460884753388     0.690183517116      -0.462936898787     0.690183517116      -0.462936898787     -0.309782449302     -0.460884753388     
1700000000.0        -0.336187420809     -0.470818923626     0.663778205259      -0.47300056001      0.663778205259      -0.47300056001      -0.336187420809     -0.470818923626     
1800000000.0        -0.362056060162     -0.478944005647     0.637909209327      -0.481255302223     0.637909209327      -0.481255302223     -0.362056060162     -0.478944005647     
1900000000.0        -0.387282852192     -0.485412308904     0.612682044279      -0.487853436361     0.612682044279      -0.487853436361     -0.387282852192     -0.485412308904     
2000000000.0        -0.411785962056     -0.490373872243     0.58817854477       -0.492945002409     0.58817854477       -0.492945002409     -0.411785962056     -0.490373872243     
2100000000.0        -0.43550449654      -0.49397391557      0.564459603841      -0.496675221089     0.564459603841      -0.496675221089     -0.43550449654      -0.49397391557      
2200000000.0        -0.458395765109     -0.496350982836     0.541567911869      -0.499182636885     0.541567911869      -0.499182636885     -0.458395765109     -0.496350982836     
2300000000.0        -0.480432645399     -0.497635674662     0.51953059107       -0.500597850688     0.51953059107       -0.500597850688     -0.480432645399     -0.497635674662     
2400000000.0        -0.50160112336      -0.497949868661     0.498361655357      -0.501042740144     0.498361655357      -0.501042740144     -0.50160112336      -0.497949868661     
2500000000.0        -0.521898050263     -0.497406331458     0.47806425333       -0.500630071698     0.47806425333       -0.500630071698     -0.521898050263     -0.497406331458     
2600000000.0        -0.541329137054     -0.496108636073     0.458632673923      -0.499463418        0.458632673923      -0.499463418        -0.541329137054     -0.496108636073     
2700000000.0        -0.559907190512     -0.494151309714     0.44005411024       -0.497637305712     0.44005411024       -0.497637305712     -0.559907190512     -0.494151309714     
2800000000.0        -0.577650584407     -0.491620148839     0.422310188404      -0.495237530593     0.422310188404      -0.495237530593     -0.577650584407     -0.491620148839     
2900000000.0        -0.594581951456     -0.488592649686     0.405378275592      -0.492341588046     0.405378275592      -0.492341588046     -0.594581951456     -0.488592649686     
3000000000.0        -0.610727077545     -0.48513851276      0.389232585822      -0.489019177621     0.389232585822      -0.489019177621     -0.610727077545     -0.48513851276      
3100000000.0        -0.626113977484     -0.481320188822     0.373845104186      -0.485332749014     0.373845104186      -0.485332749014     -0.626113977484     -0.481320188822     
3200000000.0        -0.640772131102     -0.477193441603     0.359186350767      -0.481338064798     0.359186350767      -0.481338064798     -0.640772131102     -0.477193441603     
3300000000.0        -0.654731858958     -0.472807908846     0.345226004916      -0.477084761479     0.345226004916      -0.477084761479     -0.654731858958     -0.472807908846     
3400000000.0        -0.668023818258     -0.468207648477     0.331933409345      -0.472616895676     0.331933409345      -0.472616895676     -0.668023818258     -0.468207648477     
3500000000.0        -0.680678601146     -0.463431660796     0.319277971827      -0.467973466322     0.319277971827      -0.467973466322     -0.680678601146     -0.463431660796     
3600000000.0        -0.692726419406     -0.458514380821     0.307229480498      -0.46318890702      0.307229480498      -0.46318890702      -0.692726419406     -0.458514380821     
3700000000.0        -0.704196861462     -0.45348613737      0.29575834686       -0.45829354513      0.29575834686       -0.45829354513      -0.704196861462     -0.45348613737      
3800000000.0        -0.715118709368     -0.448373577312     0.284835788786      -0.453314026036     0.284835788786      -0.453314026036     -0.715118709368     -0.448373577312     
3900000000.0        -0.725519805181     -0.443200054779     0.274433964145      -0.448273702357     0.274433964145      -0.448273702357     -0.725519805181     -0.443200054779     
4000000000.0        -0.735426957669     -0.43798598607      0.2645260641        -0.443192988861     0.2645260641        -0.443192988861     -0.735426957669     -0.43798598607      
4100000000.0        -0.744865881663     -0.432749171659     0.255086373753      -0.438089684483     0.255086373753      -0.438089684483     -0.744865881663     -0.432749171659     
4200000000.0        -0.753861163603     -0.427505087126     0.246090306598      -0.432979263254     0.246090306598      -0.432979263254     -0.753861163603     -0.427505087126     
4300000000.0        -0.762436247882     -0.422267145072     0.237514418177      -0.427875136231     0.237514418177      -0.427875136231     -0.762436247882     -0.422267145072     
4400000000.0        -0.770613439512     -0.417046930222     0.229336403415      -0.422788886595     0.229336403415      -0.422788886595     -0.770613439512     -0.417046930222     
4500000000.0        -0.778413919404     -0.411854409918     0.22153508134       -0.417730480155     0.22153508134       -0.417730480155     -0.778413919404     -0.411854409918     
4600000000.0        -0.785857769237     -0.406698122167     0.214090370214      -0.412708453397     0.214090370214      -0.412708453397     -0.785857769237     -0.406698122167     
4700000000.0        -0.792964003433     -0.401585343344     0.206983255555      -0.40773008119      0.206983255555      -0.40773008119      -0.792964003433     -0.401585343344     
4800000000.0        -0.799750606236     -0.396522237503     0.200195753061      -0.402801526103     0.200195753061      -0.402801526103     -0.799750606236     -0.396522237503     
4900000000.0        -0.806234572273     -0.39151398914      0.19371086805       -0.39792797117      0.19371086805       -0.39792797117      -0.806234572273     -0.39151398914      
5000000000.0        -0.812431949306     -0.386564921114     0.187512552705      -0.393113737807     0.187512552705      -0.393113737807     -0.812431949306     -0.386564921114     
5100000000.0        -0.818357882153     -0.381678599259     0.181585662152      -0.38836239044      0.181585662152      -0.38836239044      -0.818357882153     -0.381678599259     
5200000000.0        -0.824026656972     -0.376857925141     0.175915910179      -0.383676829248     0.175915910179      -0.383676829248     -0.824026656972     -0.376857925141     
5300000000.0        -0.829451745285     -0.372105218209     0.170489825214      -0.379059372327     0.170489825214      -0.379059372327     -0.829451745285     -0.372105218209     
5400000000.0        -0.83464584726      -0.367422288524     0.165294707034      -0.374511828417     0.165294707034      -0.374511828417     -0.83464584726      -0.367422288524     
5500000000.0        -0.839620933909     -0.362810501107     0.160318584578      -0.370035561251     0.160318584578      -0.370035561251     -0.839620933909     -0.362810501107     
5600000000.0        -0.844388287924     -0.358270832828     0.155550175103      -0.365631546442     0.155550175103      -0.365631546442     -0.844388287924     -0.358270832828     
5700000000.0        -0.848958542979     -0.353803922691     0.150978844885      -0.361300421776     0.150978844885      -0.361300421776     -0.848958542979     -0.353803922691     
5800000000.0        -0.85334172138      -0.349410116244     0.146594571569      -0.357042531619     0.146594571569      -0.357042531619     -0.85334172138      -0.349410116244     
5900000000.0        -0.857547269977     -0.345089504801     0.142387908256      -0.352857966136     0.142387908256      -0.352857966136     -0.857547269977     -0.345089504801     
6000000000.0        -0.861584094325     -0.340841960044     0.138349949342      -0.348746595898     0.138349949342      -0.348746595898     -0.861584094325     -0.340841960044     
6100000000.0        -0.865460591074     -0.33666716455      0.134472298131      -0.344708102409     0.134472298131      -0.344708102409     -0.865460591074     -0.33666716455      
6200000000.0        -0.869184678615     -0.332564638704     0.130747036184      -0.34074200502      0.130747036184      -0.34074200502      -0.869184678615     -0.332564638704     
6300000000.0        -0.872763826017     -0.32853376441      0.127166694383      -0.336847684637     0.127166694383      -0.336847684637     -0.872763826017     -0.32853376441      
6400000000.0        -0.876205080316     -0.324573805974     0.123724225648      -0.333024404605     0.123724225648      -0.333024404605     -0.876205080316     -0.324573805974     
6500000000.0        -0.87951509219      -0.320683928479     0.120412979254      -0.329271329083     0.120412979254      -0.329271329083     -0.87951509219      -0.320683928479     
6600000000.0        -0.882700140114     -0.31686321394      0.117226676679      -0.325587539205     0.117226676679      -0.325587539205     -0.882700140114     -0.31686321394      
6700000000.0        -0.885766153047     -0.31311067551      0.114159388919      -0.321972047272     0.114159388919      -0.321972047272     -0.885766153047     -0.31311067551      
6800000000.0        -0.888718731724     -0.30942526993      0.111205515192      -0.318423809219     0.111205515192      -0.318423809219     -0.888718731724     -0.30942526993      
6900000000.0        -0.891563168632     -0.30580590847      0.108359762967      -0.314941735538     0.108359762967      -0.314941735538     -0.891563168632     -0.30580590847      
7000000000.0        -0.894304466737     -0.302251466489     0.105617129232      -0.311524700855     0.105617129232      -0.311524700855     -0.894304466737     -0.302251466489     
7100000000.0        -0.896947357027     -0.298760791813     0.102972882954      -0.308171552293     0.102972882954      -0.308171552293     -0.896947357027     -0.298760791813     
7200000000.0        -0.899496314953     -0.295332712041     0.100422548636      -0.304881116789     0.100422548636      -0.304881116789     -0.899496314953     -0.295332712041     
7300000000.0        -0.901955575825     -0.291966040919     0.0979618909241     -0.301652207457     0.0979618909241     -0.301652207457     -0.901955575825     -0.291966040919     
7400000000.0        -0.904329149219     -0.288659583882     0.0955869001956     -0.298483629138     0.0955869001956     -0.298483629138     -0.904329149219     -0.288659583882     
7500000000.0        -0.906620832482     -0.285412142861     0.0932937790605     -0.295374183205     0.0932937790605     -0.295374183205     -0.906620832482     -0.285412142861     
7600000000.0        -0.908834223356     -0.282222520454     0.0910789297299     -0.292322671728     0.0910789297299     -0.292322671728     -0.908834223356     -0.282222520454     
7700000000.0        -0.910972731814     -0.279089523506     0.0889389421874     -0.289327901062     0.0889389421874     -0.289327901062     -0.910972731814     -0.279089523506     
7800000000.0        -0.913039591125     -0.276011966207     0.0868705831171     -0.286388684936     0.0868705831171     -0.286388684936     -0.913039591125     -0.276011966207     
7900000000.0        -0.915037868228     -0.272988672725     0.0848707855357     -0.283503847091     0.0848707855357     -0.283503847091     -0.915037868228     -0.272988672725     
8000000000.0        -0.916970473435     -0.270018479458     0.0829366390855     -0.28067222353      0.0829366390855     -0.28067222353      -0.916970473435     -0.270018479458     
8100000000.0        -0.918840169525     -0.267100236935     0.0810653809423     -0.277892664417     0.0810653809423     -0.277892664417     -0.918840169525     -0.267100236935     
8200000000.0        -0.920649580258     -0.264232811413     0.0792543873008     -0.275164035678     0.0792543873008     -0.275164035678     -0.920649580258     -0.264232811413     
8300000000.0        -0.922401198352     -0.261415086207     0.0775011653956     -0.272485220323     0.0775011653956     -0.272485220323     -0.922401198352     -0.261415086207     
8400000000.0        -0.924097392963     -0.258645962783     0.0758033460265     -0.269855119545     0.0758033460265     -0.269855119545     -0.924097392963     -0.258645962783     
8500000000.0        -0.925740416688     -0.255924361637     0.0741586765508     -0.267272653596     0.0741586765508     -0.267272653596     -0.925740416688     -0.255924361637     
8600000000.0        -0.927332412133     -0.253249223007     0.0725650143141     -0.264736762496     0.0725650143141     -0.264736762496     -0.927332412133     -0.253249223007     
8700000000.0        -0.928875418079     -0.250619507409     0.0710203204905     -0.262246406574     0.0710203204905     -0.262246406574     -0.928875418079     -0.250619507409     
8800000000.0        -0.930371375256     -0.248034196043     0.0695226543031     -0.25980056687      0.0695226543031     -0.25980056687      -0.930371375256     -0.248034196043     
8900000000.0        -0.931822131766     -0.245492291077     0.0680701676017     -0.257398245416     0.0680701676017     -0.257398245416     -0.931822131766     -0.245492291077     
9000000000.0        -0.933229448176     -0.242992815821     0.0666610997737     -0.255038465415     0.0666610997737     -0.255038465415     -0.933229448176     -0.242992815821     
9100000000.0        -0.934595002292     -0.24053481481      0.0652937729647     -0.252720271318     0.0652937729647     -0.252720271318     -0.934595002292     -0.24053481481      
9200000000.0        -0.93592039365      -0.238117353806     0.0639665875909     -0.250442728831     0.0639665875909     -0.250442728831     -0.93592039365      -0.238117353806     
9300000000.0        -0.937207147732     -0.235739519735     0.0626780181219     -0.248204924847     0.0626780181219     -0.248204924847     -0.937207147732     -0.235739519735     
9400000000.0        -0.93845671993      -0.233400420561     0.0614266091178     -0.24600596732      0.0614266091178     -0.24600596732      -0.93845671993      -0.233400420561     
9500000000.0        -0.93967049927      -0.231099185106     0.0602109715029     -0.243844985088     0.0602109715029     -0.243844985088     -0.93967049927      -0.231099185106     
9600000000.0        -0.94084981192      -0.228834962831     0.0590297790614     -0.24172112765      0.0590297790614     -0.24172112765      -0.94084981192      -0.228834962831     
9700000000.0        -0.941995924483     -0.226606923583     0.0578817651405     -0.239633564911     0.0578817651405     -0.239633564911     -0.941995924483     -0.226606923583     
9800000000.0        -0.943110047101     -0.2244142573       0.0567657195474     -0.237581486894     0.0567657195474     -0.237581486894     -0.943110047101     -0.2244142573       
9900000000.0        -0.94419333638      -0.222256173702     0.0556804856276     -0.235564103419     0.0556804856276     -0.235564103419     -0.94419333638      -0.222256173702     
10000000000.0       -0.945246898136     -0.22013190195      0.0546249575134     -0.233580643775     0.0546249575134     -0.233580643775     -0.945246898136     -0.22013190195      
