# Hz S RI R 50.00 
100000000.0         5.83163346981e-05   -0.00946058757829   0.999731510706      -0.0100327781144    0.999731510706      -0.0100327781144    5.83163346981e-05   -0.00946058757829   
200000000.0         -0.000234827259033  -0.018915380626     0.999435656462      -0.0200597760061    0.999435656462      -0.0200597760061    -0.000234827259033  -0.018915380626     
300000000.0         -0.000717675204727  -0.0283589279381    0.998950334994      -0.0300755535401    0.998950334994      -0.0300755535401    -0.000717675204727  -0.0283589279381    
400000000.0         -0.00138955153904   -0.0377857898655    0.998275940737      -0.0400746798712    0.998275940737      -0.0400746798712    -0.00138955153904   -0.0377857898655    
500000000.0         -0.00224965949235   -0.0471905526856    0.997413162412      -0.0500517491217    0.997413162412      -0.0500517491217    -0.00224965949235   -0.0471905526856    
600000000.0         -0.00329702305657   -0.0565678400674    0.996362921083      -0.0600013922142    0.996362921083      -0.0600013922142    -0.00329702305657   -0.0565678400674    
700000000.0         -0.00453047411454   -0.0659123236239    0.995126352485      -0.0699182875966    0.995126352485      -0.0699182875966    -0.00453047411454   -0.0659123236239    
800000000.0         -0.00594864987361   -0.0752187329582    0.993704798457      -0.0797971713896    0.993704798457      -0.0797971713896    -0.00594864987361   -0.0752187329582    
900000000.0         -0.00754999395247   -0.0844818653224    0.992099800918      -0.0896328471092    0.992099800918      -0.0896328471092    -0.00754999395247   -0.0844818653224    
1000000000.0        -0.00933275922535   -0.0936965949285    0.990313096513      -0.099420195021     0.990313096513      -0.099420195021     -0.00933275922535   -0.0936965949285    
1100000000.0        -0.0112950117321    -0.102857881909     0.988346611316      -0.109154181134     0.988346611316      -0.109154181134     -0.0112950117321    -0.102857881909     
1200000000.0        -0.0134346353522    -0.111960780917     0.986202455335      -0.118829865824     0.986202455335      -0.118829865824     -0.0134346353522    -0.111960780917     
1300000000.0        -0.0157493370871    -0.121000449356     0.983882916706      -0.128442412083     0.983882916706      -0.128442412083     -0.0157493370871    -0.121000449356     
1400000000.0        -0.0182366528583    -0.129972155204     0.981390455554      -0.137987093357     0.981390455554      -0.137987093357     -0.0182366528583    -0.129972155204     
1500000000.0        -0.0208939537553    -0.13887128443      0.978727697518      -0.147459300978     0.978727697518      -0.147459300978     -0.0208939537553    -0.13887128443      
1600000000.0        -0.0237184526828    -0.147693347974     0.97589742694       -0.156854551149     0.97589742694       -0.156854551149     -0.0237184526828    -0.147693347974     
1700000000.0        -0.0267072113635    -0.156433988277     0.972902579744      -0.166168491487     0.972902579744      -0.166168491487     -0.0267072113635    -0.156433988277     
1800000000.0        -0.0298571476549    -0.165088985341     0.969746236034      -0.17539690709      0.969746236034      -0.17539690709      -0.0298571476549    -0.165088985341     
1900000000.0        -0.0331650431422    -0.173654262321     0.966431612439      -0.184535726131     0.966431612439      -0.184535726131     -0.0331650431422    -0.173654262321     
2000000000.0        -0.0366275509692    -0.182125890614     0.96296205423       -0.193581024957     0.96296205423       -0.193581024957     -0.0366275509692    -0.182125890614     
2100000000.0        -0.0402412038712    -0.190500094463     0.959341027251      -0.202529032699     0.959341027251      -0.202529032699     -0.0402412038712    -0.190500094463     
2200000000.0        -0.0440024223733    -0.198773255055     0.955572109691      -0.211376135367     0.955572109691      -0.211376135367     -0.0440024223733    -0.198773255055     
2300000000.0        -0.0479075231177    -0.206941914112     0.951658983734      -0.220118879452     0.951658983734      -0.220118879452     -0.0479075231177    -0.206941914112     
2400000000.0        -0.0519527272872    -0.21500277698      0.947605427114      -0.228753975017     0.947605427114      -0.228753975017     -0.0519527272872    -0.21500277698      
2500000000.0        -0.0561341690878    -0.222952715214     0.943415304618      -0.23727829828      0.943415304618      -0.23727829828      -0.0561341690878    -0.222952715214     
2600000000.0        -0.0604479042602    -0.230788768663     0.939092559564      -0.245688893709     0.939092559564      -0.245688893709     -0.0604479042602    -0.230788768663     
2700000000.0        -0.0648899185856    -0.238508147065     0.934641205283      -0.253982975617     0.934641205283      -0.253982975617     -0.0648899185856    -0.238508147065     
2800000000.0        -0.0694561363556    -0.24610823116      0.93006531664       -0.262157929272     0.93006531664       -0.262157929272     -0.0694561363556    -0.24610823116      
2900000000.0        -0.0741424287768    -0.253586573325     0.925369021624      -0.270211311544     0.925369021624      -0.270211311544     -0.0741424287768    -0.253586573325     
3000000000.0        -0.0789446222808    -0.260940897757     0.92055649303       -0.27814085108      0.92055649303       -0.27814085108      -0.0789446222808    -0.260940897757     
3100000000.0        -0.0838585067142    -0.268169100204     0.915631940268      -0.285944448045     0.915631940268      -0.285944448045     -0.0838585067142    -0.268169100204     
3200000000.0        -0.0888798433812    -0.275269247273     0.910599601308      -0.293620173427     0.910599601308      -0.293620173427     -0.0888798433812    -0.275269247273     
3300000000.0        -0.0940043729175    -0.28223957532      0.905463734813      -0.301166267929     0.905463734813      -0.301166267929     -0.0940043729175    -0.28223957532      
3400000000.0        -0.0992278229721    -0.289078488954     0.900228612444      -0.308581140475     0.900228612444      -0.308581140475     -0.0992278229721    -0.289078488954     
3500000000.0        -0.104545915678     -0.295784559158     0.894898511394      -0.315863366335     0.894898511394      -0.315863366335     -0.104545915678     -0.295784559158     
3600000000.0        -0.109954374895     -0.302356521066     0.88947770714       -0.3230116849       0.88947770714       -0.3230116849       -0.109954374895     -0.302356521066     
3700000000.0        -0.115448933199     -0.308793271405     0.883970466447      -0.330024997123     0.883970466447      -0.330024997123     -0.115448933199     -0.308793271405     
3800000000.0        -0.121025338624     -0.315093865625     0.878381040635      -0.336902362657     0.878381040635      -0.336902362657     -0.121025338624     -0.315093865625     
3900000000.0        -0.126679361119     -0.321257514741     0.872713659109      -0.343642996694     0.872713659109      -0.343642996694     -0.126679361119     -0.321257514741     
4000000000.0        -0.132406798729     -0.327283581919     0.866972523185      -0.350246266551     0.866972523185      -0.350246266551     -0.132406798729     -0.327283581919     
4100000000.0        -0.138203483476     -0.333171578807     0.861161800203      -0.356711688005     0.861161800203      -0.356711688005     -0.138203483476     -0.333171578807     
4200000000.0        -0.14406528695      -0.338921161655     0.855285617937      -0.363038921409     0.855285617937      -0.363038921409     -0.14406528695      -0.338921161655     
4300000000.0        -0.149988125584     -0.344532127233     0.849348059319      -0.36922776762      0.849348059319      -0.36922776762      -0.149988125584     -0.344532127233     
4400000000.0        -0.155967965628     -0.350004408579     0.843353157462      -0.375278163738     0.843353157462      -0.375278163738     -0.155967965628     -0.350004408579     
4500000000.0        -0.162000827805     -0.355338070592     0.837304891005      -0.381190178704     0.837304891005      -0.381190178704     -0.162000827805     -0.355338070592     
4600000000.0        -0.168082791659     -0.36053330549      0.831207179767      -0.386964008759     0.831207179767      -0.386964008759     -0.168082791659     -0.36053330549      
4700000000.0        -0.17420999959      -0.365590428162     0.825063880705      -0.392599972799     0.825063880705      -0.392599972799     -0.17420999959      -0.365590428162     
4800000000.0        -0.180378660574     -0.370509871428     0.8188787842        -0.39809850763      0.8188787842        -0.39809850763      -0.180378660574     -0.370509871428     
4900000000.0        -0.186585053583     -0.375292181226     0.812655610629      -0.403460163161     0.812655610629      -0.403460163161     -0.186585053583     -0.375292181226     
5000000000.0        -0.192825530699     -0.379938011754     0.806398007261      -0.408685597543     0.806398007261      -0.408685597543     -0.192825530699     -0.379938011754     
5100000000.0        -0.199096519926     -0.384448120566     0.800109545434      -0.413775572269     0.800109545434      -0.413775572269     -0.199096519926     -0.384448120566     
5200000000.0        -0.205394527718     -0.38882336366      0.793793718032      -0.418730947258     0.793793718032      -0.418730947258     -0.205394527718     -0.38882336366      
5300000000.0        -0.211716141218     -0.393064690562     0.787453937249      -0.423552675945     0.787453937249      -0.423552675945     -0.211716141218     -0.393064690562     
5400000000.0        -0.218058030217     -0.397173139423     0.781093532618      -0.428241800376     0.781093532618      -0.428241800376     -0.218058030217     -0.397173139423     
5500000000.0        -0.224416948854     -0.401149832145     0.774715749325      -0.432799446332     0.774715749325      -0.432799446332     -0.224416948854     -0.401149832145     
5600000000.0        -0.230789737047     -0.404995969548     0.76832374677       -0.437226818502     0.76832374677       -0.437226818502     -0.230789737047     -0.404995969548     
5700000000.0        -0.237173321678     -0.408712826593     0.761920597379      -0.441525195702     0.761920597379      -0.441525195702     -0.237173321678     -0.408712826593     
5800000000.0        -0.24356471754      -0.412301747662     0.755509285664      -0.445695926159     0.755509285664      -0.445695926159     -0.24356471754      -0.412301747662     
5900000000.0        -0.249961028052     -0.415764141929     0.749092707503      -0.449740422877     0.749092707503      -0.449740422877     -0.249961028052     -0.415764141929     
6000000000.0        -0.256359445753     -0.419101478798     0.742673669648      -0.453660159082     0.742673669648      -0.453660159082     -0.256359445753     -0.419101478798     
6100000000.0        -0.262757252594     -0.422315283446     0.736254889432      -0.457456663762     0.736254889432      -0.457456663762     -0.262757252594     -0.422315283446     
6200000000.0        -0.269151820023     -0.425407132463     0.729838994683      -0.461131517308     0.729838994683      -0.461131517308     -0.269151820023     -0.425407132463     
6300000000.0        -0.275540608892     -0.4283786496       0.723428523819      -0.464686347262     0.723428523819      -0.464686347262     -0.275540608892     -0.4283786496       
6400000000.0        -0.281921169184     -0.431231501633     0.717025926118      -0.468122824183     0.717025926118      -0.468122824183     -0.281921169184     -0.431231501633     
6500000000.0        -0.288291139572     -0.43396739434      0.710633562162      -0.471442657623     0.710633562162      -0.471442657623     -0.288291139572     -0.43396739434      
6600000000.0        -0.294648246834     -0.436588068609     0.70425370442       -0.474647592232     0.70425370442       -0.474647592232     -0.294648246834     -0.436588068609     
6700000000.0        -0.300990305109     -0.439095296662     0.69788853799       -0.477739403994     0.69788853799       -0.477739403994     -0.300990305109     -0.439095296662     
6800000000.0        -0.307315215035     -0.441490878424     0.691540161467      -0.480719896581     0.691540161467      -0.480719896581     -0.307315215035     -0.441490878424     
6900000000.0        -0.313620962755     -0.443776638004     0.685210587932      -0.483590897846     0.685210587932      -0.483590897846     -0.313620962755     -0.443776638004     
7000000000.0        -0.319905618808     -0.445954420329     0.678901746058      -0.486354256451     0.678901746058      -0.486354256451     -0.319905618808     -0.445954420329     
7100000000.0        -0.326167336928     -0.448026087898     0.672615481319      -0.489011838626     0.672615481319      -0.489011838626     -0.326167336928     -0.448026087898     
7200000000.0        -0.332404352735     -0.449993517678     0.666353557292      -0.491565525061     0.666353557292      -0.491565525061     -0.332404352735     -0.449993517678     
7300000000.0        -0.338614982353     -0.45185859813      0.660117657046      -0.494017207936     0.660117657046      -0.494017207936     -0.338614982353     -0.45185859813      
7400000000.0        -0.344797620941     -0.453623226378     0.653909384602      -0.496368788087     0.653909384602      -0.496368788087     -0.344797620941     -0.453623226378     
7500000000.0        -0.350950741166     -0.455289305501     0.647730266467      -0.498622172301     0.647730266467      -0.498622172301     -0.350950741166     -0.455289305501     
7600000000.0        -0.357072891609     -0.456858741963     0.641581753224      -0.500779270745     0.641581753224      -0.500779270745     -0.357072891609     -0.456858741963     
7700000000.0        -0.363162695123     -0.458333443172     0.635465221175      -0.502841994526     0.635465221175      -0.502841994526     -0.363162695123     -0.458333443172     
7800000000.0        -0.369218847146     -0.459715315168     0.62938197403       -0.504812253379     0.62938197403       -0.504812253379     -0.369218847146     -0.459715315168     
7900000000.0        -0.375240113974     -0.461006260437     0.623333244633      -0.506691953481     0.623333244633      -0.506691953481     -0.375240113974     -0.461006260437     
8000000000.0        -0.381225331003     -0.462208175851     0.617320196716      -0.508482995391     0.617320196716      -0.508482995391     -0.381225331003     -0.462208175851     
8100000000.0        -0.387173400948     -0.463322950721     0.611343926684      -0.510187272106     0.611343926684      -0.510187272106     -0.387173400948     -0.463322950721     
8200000000.0        -0.393083292043     -0.464352464979     0.605405465416      -0.51180666724      0.605405465416      -0.51180666724      -0.393083292043     -0.464352464979     
8300000000.0        -0.398954036225     -0.465298587469     0.599505780077      -0.513343053314     0.599505780077      -0.513343053314     -0.398954036225     -0.465298587469     
8400000000.0        -0.40478472731      -0.466163174347     0.593645775945      -0.514798290163     0.593645775945      -0.514798290163     -0.40478472731      -0.466163174347     
8500000000.0        -0.410574519167     -0.466948067597     0.587826298235      -0.516174223445     0.587826298235      -0.516174223445     -0.410574519167     -0.466948067597     
8600000000.0        -0.416322623892     -0.467655093647     0.582048133927      -0.517472683263     0.582048133927      -0.517472683263     -0.416322623892     -0.467655093647     
8700000000.0        -0.422028309984     -0.468286062085     0.576312013586      -0.518695482875     0.576312013586      -0.518695482875     -0.422028309984     -0.468286062085     
8800000000.0        -0.427690900537     -0.468842764477     0.570618613176      -0.519844417519     0.570618613176      -0.519844417519     -0.427690900537     -0.468842764477     
8900000000.0        -0.433309771436     -0.469326973278     0.564968555861      -0.520921263321     0.564968555861      -0.520921263321     -0.433309771436     -0.469326973278     
9000000000.0        -0.43888434957      -0.469740440832     0.559362413786      -0.521927776293     0.559362413786      -0.521927776293     -0.43888434957      -0.469740440832     
9100000000.0        -0.444414111073     -0.470084898462     0.553800709848      -0.522865691427     0.553800709848      -0.522865691427     -0.444414111073     -0.470084898462     
9200000000.0        -0.449898579571     -0.470362055638     0.54828391944       -0.523736721863     0.54828391944       -0.523736721863     -0.449898579571     -0.470362055638     
9300000000.0        -0.455337324463     -0.470573599233     0.54281247217       -0.524542558141     0.54281247217       -0.524542558141     -0.455337324463     -0.470573599233     
9400000000.0        -0.460729959226     -0.470721192848     0.537386753563      -0.525284867533     0.537386753563      -0.525284867533     -0.460729959226     -0.470721192848     
9500000000.0        -0.466076139743     -0.470806476212     0.532007106724      -0.525965293438     0.532007106724      -0.525965293438     -0.466076139743     -0.470806476212     
9600000000.0        -0.471375562668     -0.470831064654     0.526673833981      -0.526585454855     0.526673833981      -0.526585454855     -0.471375562668     -0.470831064654     
9700000000.0        -0.476627963814     -0.47079654864      0.521387198489      -0.527146945922     0.521387198489      -0.527146945922     -0.476627963814     -0.47079654864      
9800000000.0        -0.481833116579     -0.470704493366     0.516147425812      -0.527651335509     0.516147425812      -0.527651335509     -0.481833116579     -0.470704493366     
9900000000.0        -0.486990830403     -0.470556438423     0.510954705461      -0.528100166881     0.510954705461      -0.528100166881     -0.486990830403     -0.470556438423     
10000000000.0       -0.492100949255     -0.470353897505     0.505809192406      -0.52849495741      0.505809192406      -0.52849495741      -0.492100949255     -0.470353897505     
