# Hz S RI R 50.00 
100000000.0         -5.57653846578e-05  -0.0207357190615    0.999101426977      -0.0219412035036    0.999101426977      -0.0219412035036    -5.57653846578e-05  -0.0207357190615    
200000000.0         -0.00143717319154   -0.041412204775     0.997712108231      -0.0438232156819    0.997712108231      -0.0438232156819    -0.00143717319154   -0.041412204775     
300000000.0         -0.00371986904129   -0.061972400408     0.995421492924      -0.0655890276893    0.995421492924      -0.0655890276893    -0.00371986904129   -0.061972400408     
400000000.0         -0.00689135728058   -0.0823602454806    0.992241350183      -0.0871826202423    0.992241350183      -0.0871826202423    -0.00689135728058   -0.0823602454806    
500000000.0         -0.0109347915377    -0.102521173719     0.988188247026      -0.108549465882     0.988188247026      -0.108549465882     -0.0109347915377    -0.102521173719     
600000000.0         -0.015829034948     -0.122402574237     0.983283177773      -0.129636991172     0.983283177773      -0.129636991172     -0.015829034948     -0.122402574237     
700000000.0         -0.0215488893377    -0.141954214925     0.977551256107      -0.150395000537     0.977551256107      -0.150395000537     -0.0215488893377    -0.141954214925     
800000000.0         -0.0280653960001    -0.161128622837     0.971021385601      -0.170776056892     0.971021385601      -0.170776056892     -0.0280653960001    -0.161128622837     
900000000.0         -0.0353461836429    -0.179881416616     0.963725899013      -0.190735814232     0.963725899013      -0.190735814232     -0.0353461836429    -0.179881416616     
1000000000.0        -0.0433558507443    -0.198171587107     0.955700169474      -0.210233298342     0.955700169474      -0.210233298342     -0.0433558507443    -0.198171587107     
1100000000.0        -0.0520563723226    -0.215961723551     0.946982200141      -0.229231133069     0.946982200141      -0.229231133069     -0.0520563723226    -0.215961723551     
1200000000.0        -0.0614075220427    -0.233218184172     0.937612199954      -0.247695710967     0.937612199954      -0.247695710967     -0.0614075220427    -0.233218184172     
1300000000.0        -0.0713673011336    -0.249911211277     0.927632153381      -0.265597308435     0.927632153381      -0.265597308435     -0.0713673011336    -0.249911211277     
1400000000.0        -0.0818923661495    -0.266014992246     0.917085391782      -0.282910146755     0.917085391782      -0.282910146755     -0.0818923661495    -0.266014992246     
1500000000.0        -0.0929384482727    -0.281507668937     0.906016173504      -0.299612401516     0.906016173504      -0.299612401516     -0.0929384482727    -0.281507668937     
1600000000.0        -0.104460757646     -0.296371298954     0.894469279135      -0.315686163906     0.894469279135      -0.315686163906     -0.104460757646     -0.296371298954     
1700000000.0        -0.116414367108     -0.310591773028     0.88248962746       -0.331117358121     0.88248962746       -0.331117358121     -0.116414367108     -0.310591773028     
1800000000.0        -0.128754570658     -0.324158693344     0.870121916781      -0.34589561971      0.870121916781      -0.34589561971      -0.128754570658     -0.324158693344     
1900000000.0        -0.141437212956     -0.337065218039     0.857410295249      -0.360014140079     0.857410295249      -0.360014140079     -0.141437212956     -0.337065218039     
2000000000.0        -0.154418987138     -0.349307877295     0.844398062916      -0.373469482612     0.844398062916      -0.373469482612     -0.154418987138     -0.349307877295     
2100000000.0        -0.167657699185     -0.360886366518     0.831127407277      -0.386261375852     0.831127407277      -0.386261375852     -0.167657699185     -0.360886366518     
2200000000.0        -0.181112497922     -0.371803321958     0.817639173186      -0.398392489139     0.817639173186      -0.398392489139     -0.181112497922     -0.371803321958     
2300000000.0        -0.194744070561     -0.382064083914     0.803972667254      -0.409868195821     0.803972667254      -0.409868195821     -0.194744070561     -0.382064083914     
2400000000.0        -0.208514804373     -0.391676452308     0.790165496129      -0.420696328844     0.790165496129      -0.420696328844     -0.208514804373     -0.391676452308     
2500000000.0        -0.222388915677     -0.40065043903      0.776253437464      -0.430886933101     0.776253437464      -0.430886933101     -0.222388915677     -0.40065043903      
2600000000.0        -0.236332547813     -0.408998020952     0.762270341913      -0.440452018455     0.762270341913      -0.440452018455     -0.236332547813     -0.408998020952     
2700000000.0        -0.25031384015      -0.416732897043     0.748248064092      -0.449405316866     0.748248064092      -0.449405316866     -0.25031384015      -0.416732897043     
2800000000.0        -0.26430297046      -0.423870252487     0.734216420187      -0.457762046511     0.734216420187      -0.457762046511     -0.26430297046      -0.423870252487     
2900000000.0        -0.278272173148     -0.430426532207     0.7202031697        -0.46553868532      0.7202031697        -0.46553868532      -0.278272173148     -0.430426532207     
3000000000.0        -0.292195735973     -0.436419225721     0.706234018715      -0.472752755838     0.706234018715      -0.472752755838     -0.292195735973     -0.436419225721     
3100000000.0        -0.306049977854     -0.441866664782     0.692332642074      -0.479422622868     0.692332642074      -0.479422622868     -0.306049977854     -0.441866664782     
3200000000.0        -0.319813210395     -0.446787834845     0.678520721845      -0.485567304948     0.678520721845      -0.485567304948     -0.319813210395     -0.446787834845     
3300000000.0        -0.333465685599     -0.451202201025     0.664817999589      -0.491206300315     0.664817999589      -0.491206300315     -0.333465685599     -0.451202201025     
3400000000.0        -0.346989532181     -0.455129548881     0.65124234005       -0.496359427695     0.65124234005       -0.496359427695     -0.346989532181     -0.455129548881     
3500000000.0        -0.360368682682     -0.458589840065     0.637809804017      -0.501046681955     0.637809804017      -0.501046681955     -0.360368682682     -0.458589840065     
3600000000.0        -0.37358879345      -0.461603082632     0.624534728351      -0.50528810442      0.624534728351      -0.50528810442      -0.37358879345      -0.461603082632     
3700000000.0        -0.386637159328     -0.46418921563      0.611429811279      -0.509103667471     0.611429811279      -0.509103667471     -0.386637159328     -0.46418921563      
3800000000.0        -0.399502624733     -0.466368007403     0.598506201314      -0.512513172851     0.598506201314      -0.512513172851     -0.399502624733     -0.466368007403     
3900000000.0        -0.412175492582     -0.468158966932     0.585773588325      -0.515536163009     0.585773588325      -0.515536163009     -0.412175492582     -0.468158966932     
4000000000.0        -0.424647432354     -0.46958126745      0.573240295466      -0.518191844728     0.573240295466      -0.518191844728     -0.424647432354     -0.46958126745      
4100000000.0        -0.436911388387     -0.470653681515     0.560913370877      -0.520499024191     0.560913370877      -0.520499024191     -0.436911388387     -0.470653681515     
4200000000.0        -0.448961489337     -0.471394526656     0.548798678216      -0.522476052645     0.548798678216      -0.522476052645     -0.448961489337     -0.471394526656     
4300000000.0        -0.460792959582     -0.471821620755     0.536900985259      -0.524140781776     0.536900985259      -0.524140781776     -0.460792959582     -0.471821620755     
4400000000.0        -0.472402033185     -0.471952246256     0.525224049929      -0.525510527932     0.525224049929      -0.525510527932     -0.472402033185     -0.471952246256     
4500000000.0        -0.483785870917     -0.471803122377     0.513770703266      -0.526602044336     0.513770703266      -0.526602044336     -0.483785870917     -0.471803122377     
4600000000.0        -0.494942480735     -0.471390384496     0.50254292895       -0.527431500476     0.50254292895       -0.527431500476     -0.494942480735     -0.471390384496     
4700000000.0        -0.505870641974     -0.470729569905     0.491541939104      -0.528014467865     0.491541939104      -0.528014467865     -0.505870641974     -0.470729569905     
4800000000.0        -0.51656983346      -0.469835609219     0.480768246179      -0.528365911453     0.480768246179      -0.528365911453     -0.51656983346      -0.469835609219     
4900000000.0        -0.527040165646     -0.468722822716     0.470221730815      -0.528500185977     0.470221730815      -0.528500185977     -0.527040165646     -0.468722822716     
5000000000.0        -0.537282316823     -0.467404920986     0.459901705621      -0.528431036606     0.459901705621      -0.528431036606     -0.537282316823     -0.467404920986     
5100000000.0        -0.547297473407     -0.465895009269     0.449806974896      -0.528171603289     0.449806974896      -0.528171603289     -0.547297473407     -0.465895009269     
5200000000.0        -0.557087274234     -0.464205594956     0.43993589032       -0.527734428263     0.43993589032       -0.527734428263     -0.557087274234     -0.464205594956     
5300000000.0        -0.566653758792     -0.462348597751     0.430286402726      -0.527131466213     0.430286402726      -0.527131466213     -0.566653758792     -0.462348597751     
5400000000.0        -0.575999319263     -0.460335362041     0.420856110052      -0.526374096652     0.420856110052      -0.526374096652     -0.575999319263     -0.460335362041     
5500000000.0        -0.585126656237     -0.458176671084     0.411642301627      -0.525473138109     0.411642301627      -0.525473138109     -0.585126656237     -0.458176671084     
5600000000.0        -0.594038737946     -0.455882762639     0.402641998931      -0.524438863768     0.402641998931      -0.524438863768     -0.594038737946     -0.455882762639     
5700000000.0        -0.60273876284      -0.453463345746     0.393851993016      -0.523281018249     0.393851993016      -0.523281018249     -0.60273876284      -0.453463345746     
5800000000.0        -0.611230125345     -0.450927618346     0.385268878747      -0.522008835235     0.385268878747      -0.522008835235     -0.611230125345     -0.450927618346     
5900000000.0        -0.619516384614     -0.448284285519     0.37688908605       -0.520631055715     0.37688908605       -0.520631055715     -0.619516384614     -0.448284285519     
6000000000.0        -0.627601236079     -0.445541578117     0.368708908352      -0.519155946616     0.368708908352      -0.519155946616     -0.627601236079     -0.445541578117     
6100000000.0        -0.635488485655     -0.442707271601     0.360724528376      -0.517591319652     0.360724528376      -0.517591319652     -0.635488485655     -0.442707271601     
6200000000.0        -0.643182026387     -0.439788704941     0.352932041494      -0.515944550225     0.352932041494      -0.515944550225     -0.643182026387     -0.439788704941     
6300000000.0        -0.650685817389     -0.436792799423     0.34532747678       -0.514222596235     0.34532747678       -0.514222596235     -0.650685817389     -0.436792799423     
6400000000.0        -0.658003864901     -0.433726077267     0.337906815956      -0.512432016706     0.337906815956      -0.512432016706     -0.658003864901     -0.433726077267     
6500000000.0        -0.665140205306     -0.430594679952     0.330666010363      -0.510578990115     0.330666010363      -0.510578990115     -0.665140205306     -0.430594679952     
6600000000.0        -0.672098889959     -0.427404386171     0.32360099614       -0.508669332346     0.32360099614       -0.508669332346     -0.672098889959     -0.427404386171     
6700000000.0        -0.678883971673     -0.424160629352     0.316707707726      -0.506708514227     0.316707707726      -0.506708514227     -0.678883971673     -0.424160629352     
6800000000.0        -0.685499492741     -0.420868514702     0.309982089838      -0.504701678567     0.309982089838      -0.504701678567     -0.685499492741     -0.420868514702     
6900000000.0        -0.691949474351     -0.417532835722     0.303420108054      -0.502653656684     0.303420108054      -0.502653656684     -0.691949474351     -0.417532835722     
7000000000.0        -0.698237907288     -0.414158090179     0.297017758105      -0.500568984375     0.297017758105      -0.500568984375     -0.698237907288     -0.414158090179     
7100000000.0        -0.704368743792     -0.410748495495     0.290771074013      -0.498451917317     0.290771074013      -0.498451917317     -0.704368743792     -0.410748495495     
7200000000.0        -0.710345890493     -0.407308003567     0.28467613516       -0.496306445885     0.28467613516       -0.496306445885     -0.710345890493     -0.407308003567     
7300000000.0        -0.716173202295     -0.403840314977     0.278729072388      -0.494136309372     0.278729072388      -0.494136309372     -0.716173202295     -0.403840314977     
7400000000.0        -0.721854477149     -0.400348892625     0.272926073234      -0.491945009624     0.272926073234      -0.491945009624     -0.721854477149     -0.400348892625     
7500000000.0        -0.727393451607     -0.39683697476      0.267263386367      -0.489735824077     0.267263386367      -0.489735824077     -0.727393451607     -0.39683697476      
7600000000.0        -0.732793797097     -0.393307587433     0.261737325307      -0.487511818212     0.261737325307      -0.487511818212     -0.732793797097     -0.393307587433     
7700000000.0        -0.738059116839     -0.389763556367     0.256344271512      -0.485275857439     0.256344271512      -0.485275857439     -0.738059116839     -0.389763556367     
7800000000.0        -0.743192943336     -0.386207518279     0.251080676875      -0.48303061841      0.251080676875      -0.48303061841      -0.743192943336     -0.386207518279     
7900000000.0        -0.748198736394     -0.382641931636     0.245943065708      -0.480778599794     0.245943065708      -0.480778599794     -0.748198736394     -0.382641931636     
8000000000.0        -0.753079881595     -0.379069086892     0.240928036259      -0.478522132508     0.240928036259      -0.478522132508     -0.753079881595     -0.379069086892     
8100000000.0        -0.757839689189     -0.375491116201     0.236032261819      -0.476263389442     0.236032261819      -0.476263389442     -0.757839689189     -0.375491116201     
8200000000.0        -0.762481393356     -0.371910002633     0.231252491454      -0.47400439468      0.231252491454      -0.47400439468      -0.762481393356     -0.371910002633     
8300000000.0        -0.767008151793     -0.368327588914     0.226585550415      -0.47174703224      0.226585550415      -0.47174703224      -0.767008151793     -0.368327588914     
8400000000.0        -0.771423045591     -0.3647455857       0.222028340256      -0.469493054359     0.222028340256      -0.469493054359     -0.771423045591     -0.3647455857       
8500000000.0        -0.775729079365     -0.361165579409     0.217577838702      -0.467244089326     0.217577838702      -0.467244089326     -0.775729079365     -0.361165579409     
8600000000.0        -0.77992918161      -0.357589039632     0.213231099281      -0.465001648904     0.213231099281      -0.465001648904     -0.77992918161      -0.357589039632     
8700000000.0        -0.784026205254     -0.354017326138     0.208985250778      -0.462767135334     0.208985250778      -0.462767135334     -0.784026205254     -0.354017326138     
8800000000.0        -0.788022928374     -0.350451695494     0.204837496502      -0.460541847962     0.204837496502      -0.460541847962     -0.788022928374     -0.350451695494     
8900000000.0        -0.79192205507      -0.34689330731      0.200785113416      -0.458326989496     0.200785113416      -0.458326989496     -0.79192205507      -0.34689330731      
9000000000.0        -0.795726216454     -0.343343230144     0.19682545114       -0.456123671907     0.19682545114       -0.456123671907     -0.795726216454     -0.343343230144     
9100000000.0        -0.799437971755     -0.339802447066     0.192955930841      -0.453932922005     0.192955930841      -0.453932922005     -0.799437971755     -0.339802447066     
9200000000.0        -0.80305980951      -0.336271860909     0.189174044036      -0.451755686694     0.189174044036      -0.451755686694     -0.80305980951      -0.336271860909     
9300000000.0        -0.80659414883      -0.332752299215     0.18547735132       -0.449592837926     0.18547735132       -0.449592837926     -0.80659414883      -0.332752299215     
9400000000.0        -0.810043340737     -0.329244518908     0.181863481027      -0.447445177372     0.181863481027      -0.447445177372     -0.810043340737     -0.329244518908     
9500000000.0        -0.813409669539     -0.325749210677     0.178330127849      -0.445313440824     0.178330127849      -0.445313440824     -0.813409669539     -0.325749210677     
9600000000.0        -0.81669535425      -0.322267003127     0.174875051406      -0.44319830234      0.174875051406      -0.44319830234      -0.81669535425      -0.322267003127     
9700000000.0        -0.819902550044     -0.31879846667      0.171496074792      -0.441100378145     0.171496074792      -0.441100378145     -0.819902550044     -0.31879846667      
9800000000.0        -0.823033349721     -0.315344117194     0.168191083096      -0.439020230312     0.168191083096      -0.439020230312     -0.823033349721     -0.315344117194     
9900000000.0        -0.826089785198     -0.31190441952      0.164958021915      -0.436958370215     0.164958021915      -0.436958370215     -0.826089785198     -0.31190441952      
10000000000.0       -0.829073828996     -0.308479790649     0.161794895853      -0.43491526179      0.161794895853      -0.43491526179      -0.829073828996     -0.308479790649     
