# Hz S RI R 50.00 
100000000.0         0.104456343875      0.00269173814772    0.895540301675      -0.00411369673291   0.895540301675      -0.00411369673291   0.104456343875      0.00269173814772    
200000000.0         0.105107034429      0.00537380324767    0.894885155034      -0.00821772187769   0.894885155034      -0.00821772187769   0.105107034429      0.00537380324767    
300000000.0         0.105614037277      0.00804979149871    0.894371593482      -0.0123156762717    0.894371593482      -0.0123156762717    0.105614037277      0.00804979149871    
400000000.0         0.10605936633       0.0107207834348     0.893917602383      -0.0164086449253    0.893917602383      -0.0164086449253    0.10605936633       0.0107207834348     
500000000.0         0.106474677227      0.0133872743653     0.893491525474      -0.0204971275426    0.893491525474      -0.0204971275426    0.106474677227      0.0133872743653     
600000000.0         0.106876140643      0.016049500558      0.8930771915        -0.0245813647335    0.8930771915        -0.0245813647335    0.106876140643      0.016049500558      
700000000.0         0.107273318465      0.0187075564229     0.89266503801       -0.0286614552116    0.89266503801       -0.0286614552116    0.107273318465      0.0187075564229     
800000000.0         0.107672406911      0.0213614488803     0.892248868229      -0.0327374101706    0.892248868229      -0.0327374101706    0.107672406911      0.0213614488803     
900000000.0         0.108077682041      0.0240111265765     0.891824405533      -0.0368091825069    0.891824405533      -0.0368091825069    0.108077682041      0.0240111265765     
1000000000.0        0.108492233187      0.0266564971973     0.891388560013      -0.0408766841358    0.891388560013      -0.0408766841358    0.108492233187      0.0266564971973     
1100000000.0        0.108918371051      0.0292974384768     0.890939020371      -0.0449397970038    0.890939020371      -0.0449397970038    0.108918371051      0.0292974384768     
1200000000.0        0.109357871118      0.0319338055838     0.890474010508      -0.0489983804776    0.890474010508      -0.0489983804776    0.109357871118      0.0319338055838     
1300000000.0        0.109812126928      0.0345654362938     0.889992136243      -0.0530522765172    0.889992136243      -0.0530522765172    0.109812126928      0.0345654362938     
1400000000.0        0.11028225093       0.0371921547363     0.889492284463      -0.0571013134249    0.889492284463      -0.0571013134249    0.11028225093       0.0371921547363     
1500000000.0        0.110769143258      0.0398137741906     0.888973554339      -0.0611453086422    0.888973554339      -0.0611453086422    0.110769143258      0.0398137741906     
1600000000.0        0.111273540089      0.0424300992225     0.888435208972      -0.0651840708875    0.888435208972      -0.0651840708875    0.111273540089      0.0424300992225     
1700000000.0        0.111796048522      0.0450409273528     0.887876640509      -0.0692174018255    0.887876640509      -0.0692174018255    0.111796048522      0.0450409273528     
1800000000.0        0.112337172309      0.047646050385      0.887297344415      -0.0732450973952    0.887297344415      -0.0732450973952    0.112337172309      0.047646050385      
1900000000.0        0.112897331196      0.050245255478      0.886696900127      -0.0772669488835    0.886696900127      -0.0772669488835    0.112897331196      0.050245255478      
2000000000.0        0.113476875728      0.0528383260268     0.886074956249      -0.0812827438062    0.886074956249      -0.0812827438062    0.113476875728      0.0528383260268     
2100000000.0        0.114076098743      0.0554250423954     0.88543121906       -0.0852922666414    0.88543121906       -0.0852922666414    0.114076098743      0.0554250423954     
2200000000.0        0.11469524442       0.0580051825324     0.884765443464      -0.0892952994458    0.884765443464      -0.0892952994458    0.11469524442       0.0580051825324     
2300000000.0        0.115334515495      0.0605785224964     0.884077425774      -0.0932916223797    0.884077425774      -0.0932916223797    0.115334515495      0.0605785224964     
2400000000.0        0.115994079066      0.0631448369064     0.883366997901      -0.0972810141582    0.883366997901      -0.0972810141582    0.115994079066      0.0631448369064     
2500000000.0        0.116674071335      0.0657038993334     0.882634022624      -0.101263252443     0.882634022624      -0.101263252443     0.116674071335      0.0657038993334     
2600000000.0        0.117374601488      0.0682554826431     0.881878389697      -0.105238114186     0.881878389697      -0.105238114186     0.117374601488      0.0682554826431     
2700000000.0        0.118095754921      0.0707993592975     0.881100012628      -0.109205375928     0.881100012628      -0.109205375928     0.118095754921      0.0707993592975     
2800000000.0        0.118837595936      0.0733353016242     0.880298825986      -0.113164814074     0.880298825986      -0.113164814074     0.118837595936      0.0733353016242     
2900000000.0        0.119600169999      0.075863082056      0.879474783136      -0.117116205127     0.879474783136      -0.117116205127     0.119600169999      0.075863082056      
3000000000.0        0.120383505672      0.0783824733478     0.878627854314      -0.121059325909     0.878627854314      -0.121059325909     0.120383505672      0.0783824733478     
3100000000.0        0.12118761624       0.0808932487723     0.877758024989      -0.124993953753     0.877758024989      -0.124993953753     0.12118761624       0.0808932487723     
3200000000.0        0.122012501131      0.0833951822984     0.876865294459      -0.128919866688     0.876865294459      -0.128919866688     0.122012501131      0.0833951822984     
3300000000.0        0.12285814712       0.0858880487546     0.875949674629      -0.132836843594     0.875949674629      -0.132836843594     0.12285814712       0.0858880487546     
3400000000.0        0.123724529394      0.0883716239786     0.87501118896       -0.13674466436      0.87501118896       -0.13674466436      0.123724529394      0.0883716239786     
3500000000.0        0.124611612466      0.0908456849565     0.874049871547      -0.140643110016     0.874049871547      -0.140643110016     0.124611612466      0.0908456849565     
3600000000.0        0.125519350991      0.0933100099503     0.873065766304      -0.144531962867     0.873065766304      -0.144531962867     0.125519350991      0.0933100099503     
3700000000.0        0.126447690476      0.0957643786175     0.872058926257      -0.148411006608     0.872058926257      -0.148411006608     0.126447690476      0.0957643786175     
3800000000.0        0.127396567916      0.0982085721222     0.871029412905      -0.152280026436     0.871029412905      -0.152280026436     0.127396567916      0.0982085721222     
3900000000.0        0.128365912355      0.100642373239      0.869977295661      -0.156138809156     0.869977295661      -0.156138809156     0.128365912355      0.100642373239      
4000000000.0        0.129355645391      0.103065566449      0.868902651343      -0.159987143278     0.868902651343      -0.159987143278     0.129355645391      0.103065566449      
4100000000.0        0.130365681632      0.105477938036      0.867805563721      -0.163824819106     0.867805563721      -0.163824819106     0.130365681632      0.105477938036      
4200000000.0        0.131395929105      0.107879276164      0.866686123108      -0.167651628824     0.866686123108      -0.167651628824     0.131395929105      0.107879276164      
4300000000.0        0.132446289626      0.110269370968      0.865544425991      -0.171467366583     0.865544425991      -0.171467366583     0.132446289626      0.110269370968      
4400000000.0        0.133516659138      0.112648014622      0.864380574687      -0.17527182857      0.864380574687      -0.17527182857      0.133516659138      0.112648014622      
4500000000.0        0.134606928023      0.115015001419      0.863194677038      -0.179064813086     0.863194677038      -0.179064813086     0.134606928023      0.115015001419      
4600000000.0        0.135716981383      0.117370127832      0.861986846127      -0.182846120609     0.861986846127      -0.182846120609     0.135716981383      0.117370127832      
4700000000.0        0.1368466993        0.119713192586      0.860757200014      -0.186615553865     0.860757200014      -0.186615553865     0.1368466993        0.119713192586      
4800000000.0        0.137995957085      0.122043996712      0.859505861498      -0.190372917886     0.859505861498      -0.190372917886     0.137995957085      0.122043996712      
4900000000.0        0.139164625493      0.124362343611      0.858232957886      -0.194118020066     0.858232957886      -0.194118020066     0.139164625493      0.124362343611      
5000000000.0        0.14035257094       0.126668039108      0.856938620791      -0.19785067022      0.856938620791      -0.19785067022      0.14035257094       0.126668039108      
5100000000.0        0.141559655694      0.1289608915        0.855622985931      -0.201570680637     0.855622985931      -0.201570680637     0.141559655694      0.1289608915        
5200000000.0        0.142785738059      0.131240711612      0.854286192948      -0.205277866123     0.854286192948      -0.205277866123     0.142785738059      0.131240711612      
5300000000.0        0.144030672552      0.133507312839      0.852928385236      -0.208972044056     0.852928385236      -0.208972044056     0.144030672552      0.133507312839      
5400000000.0        0.145294310058      0.135760511192      0.851549709775      -0.212653034423     0.851549709775      -0.212653034423     0.145294310058      0.135760511192      
5500000000.0        0.146576497993      0.138000125339      0.850150316979      -0.21632065987      0.850150316979      -0.21632065987      0.146576497993      0.138000125339      
5600000000.0        0.147877080443      0.140225976648      0.848730360548      -0.219974745732     0.848730360548      -0.219974745732     0.147877080443      0.140225976648      
5700000000.0        0.149195898307      0.14243788922       0.84728999733       -0.22361512008      0.84728999733       -0.22361512008      0.149195898307      0.14243788922       
5800000000.0        0.150532789433      0.144635689928      0.845829387187      -0.227241613749     0.845829387187      -0.227241613749     0.150532789433      0.144635689928      
5900000000.0        0.151887588738      0.146819208446      0.844348692867      -0.230854060376     0.844348692867      -0.230854060376     0.151887588738      0.146819208446      
6000000000.0        0.153260128338      0.148988277285      0.842848079881      -0.234452296429     0.842848079881      -0.234452296429     0.153260128338      0.148988277285      
6100000000.0        0.15465023766       0.151142731821      0.841327716389      -0.238036161236     0.841327716389      -0.238036161236     0.15465023766       0.151142731821      
6200000000.0        0.156057743558      0.15328241032       0.839787773084      -0.241605497014     0.839787773084      -0.241605497014     0.156057743558      0.15328241032       
6300000000.0        0.15748247042       0.155407153965      0.83822842308       -0.245160148893     0.83822842308       -0.245160148893     0.15748247042       0.155407153965      
6400000000.0        0.158924240276      0.157516806881      0.836649841813      -0.24869996494      0.836649841813      -0.24869996494      0.158924240276      0.157516806881      
6500000000.0        0.160382872899      0.159611216154      0.835052206935      -0.252224796184     0.835052206935      -0.252224796184     0.160382872899      0.159611216154      
6600000000.0        0.161858185902      0.161690231857      0.833435698212      -0.25573449663      0.833435698212      -0.25573449663      0.161858185902      0.161690231857      
6700000000.0        0.16334999484       0.16375370706       0.831800497434      -0.259228923284     0.831800497434      -0.259228923284     0.16334999484       0.16375370706       
6800000000.0        0.164858113297      0.165801497855      0.830146788317      -0.262707936166     0.830146788317      -0.262707936166     0.164858113297      0.165801497855      
6900000000.0        0.166382352982      0.167833463369      0.828474756411      -0.266171398325     0.828474756411      -0.266171398325     0.166382352982      0.167833463369      
7000000000.0        0.167922523814      0.169849465773      0.826784589014      -0.269619175859     0.826784589014      -0.269619175859     0.167922523814      0.169849465773      
7100000000.0        0.169478434012      0.171849370302      0.825076475084      -0.273051137918     0.825076475084      -0.273051137918     0.169478434012      0.171849370302      
7200000000.0        0.17104989018       0.173833045262      0.823350605154      -0.276467156722     0.823350605154      -0.276467156722     0.17104989018       0.173833045262      
7300000000.0        0.172636697386      0.175800362036      0.821607171249      -0.279867107566     0.821607171249      -0.279867107566     0.172636697386      0.175800362036      
7400000000.0        0.174238659246      0.1777511951        0.819846366804      -0.283250868832     0.819846366804      -0.283250868832     0.174238659246      0.1777511951        
7500000000.0        0.175855578004      0.179685422022      0.818068386587      -0.28661832199      0.818068386587      -0.28661832199      0.175855578004      0.179685422022      
7600000000.0        0.177487254605      0.181602923471      0.816273426619      -0.289969351609     0.816273426619      -0.289969351609     0.177487254605      0.181602923471      
7700000000.0        0.179133488779      0.183503583218      0.814461684101      -0.293303845357     0.814461684101      -0.293303845357     0.179133488779      0.183503583218      
7800000000.0        0.180794079107      0.185387288143      0.812633357332      -0.296621694002     0.812633357332      -0.296621694002     0.180794079107      0.185387288143      
7900000000.0        0.182468823102      0.18725392823       0.810788645645      -0.299922791419     0.810788645645      -0.299922791419     0.182468823102      0.18725392823       
8000000000.0        0.184157517273      0.189103396573      0.808927749329      -0.303207034582     0.808927749329      -0.303207034582     0.184157517273      0.189103396573      
8100000000.0        0.185859957203      0.190935589369      0.807050869559      -0.306474323571     0.807050869559      -0.306474323571     0.185859957203      0.190935589369      
8200000000.0        0.187575937615      0.192750405921      0.805158208329      -0.309724561562     0.805158208329      -0.309724561562     0.187575937615      0.192750405921      
8300000000.0        0.189305252437      0.194547748629      0.803249968383      -0.312957654826     0.803249968383      -0.312957654826     0.189305252437      0.194547748629      
8400000000.0        0.191047694876      0.196327522987      0.801326353144      -0.316173512726     0.801326353144      -0.316173512726     0.191047694876      0.196327522987      
8500000000.0        0.192803057476      0.19808963758       0.799387566656      -0.319372047707     0.799387566656      -0.319372047707     0.192803057476      0.19808963758       
8600000000.0        0.194571132188      0.19983400407       0.797433813513      -0.322553175294     0.797433813513      -0.322553175294     0.194571132188      0.19983400407       
8700000000.0        0.19635171043       0.201560537194      0.795465298798      -0.325716814075     0.795465298798      -0.325716814075     0.19635171043       0.201560537194      
8800000000.0        0.198144583151      0.203269154752      0.793482228021      -0.328862885702     0.793482228021      -0.328862885702     0.198144583151      0.203269154752      
8900000000.0        0.199949540892      0.204959777597      0.791484807057      -0.331991314873     0.791484807057      -0.331991314873     0.199949540892      0.204959777597      
9000000000.0        0.201766373846      0.206632329621      0.789473242085      -0.335102029322     0.789473242085      -0.335102029322     0.201766373846      0.206632329621      
9100000000.0        0.203594871916      0.208286737747      0.78744773953       -0.338194959809     0.78744773953       -0.338194959809     0.203594871916      0.208286737747      
9200000000.0        0.205434824774      0.209922931913      0.785408506007      -0.341270040104     0.785408506007      -0.341270040104     0.205434824774      0.209922931913      
9300000000.0        0.207286021917      0.211540845058      0.783355748258      -0.344327206974     0.783355748258      -0.344327206974     0.207286021917      0.211540845058      
9400000000.0        0.209148252725      0.213140413105      0.781289673104      -0.347366400166     0.781289673104      -0.347366400166     0.209148252725      0.213140413105      
9500000000.0        0.211021306513      0.21472157495       0.779210487381      -0.350387562393     0.779210487381      -0.350387562393     0.211021306513      0.21472157495       
9600000000.0        0.212904972588      0.216284272438      0.777118397895      -0.353390639317     0.777118397895      -0.353390639317     0.212904972588      0.216284272438      
9700000000.0        0.2147990403        0.21782845035       0.77501361136       -0.356375579526     0.77501361136       -0.356375579526     0.2147990403        0.21782845035       
9800000000.0        0.216703299093      0.219354056384      0.772896334355      -0.359342334523     0.772896334355      -0.359342334523     0.216703299093      0.219354056384      
9900000000.0        0.218617538557      0.220861041133      0.770766773266      -0.3622908587       0.770766773266      -0.3622908587       0.218617538557      0.220861041133      
10000000000.0       0.22054154848       0.222349358066      0.768625134238      -0.365221109321     0.768625134238      -0.365221109321     0.22054154848       0.222349358066      
