# Hz S RI R 50.00 
100000000.0         0.00025905438421    -0.00131041504053   0.999728462017      -0.00261156354724   0.999728462017      -0.00261156354724   0.00025905438421    -0.00131041504053   
200000000.0         0.000248676185955   -0.00262087401204   0.999711971591      -0.00522320454169   0.999711971591      -0.00522320454169   0.000248676185955   -0.00262087401204   
300000000.0         0.000230988650241   -0.00393138234911   0.999687402297      -0.00783495416334   0.999687402297      -0.00783495416334   0.000230988650241   -0.00393138234911   
400000000.0         0.000206218915624   -0.00524193495603   0.999654523009      -0.0104468257616    0.999654523009      -0.0104468257616    0.000206218915624   -0.00524193495603   
500000000.0         0.000174452906578   -0.00655252091572   0.999613243282      -0.0130588238835    0.999613243282      -0.0130588238835    0.000174452906578   -0.00655252091572   
600000000.0         0.000135733190598   -0.00786312533174   0.999563515655      -0.0156709472925    0.999563515655      -0.0156709472925    0.000135733190598   -0.00786312533174   
700000000.0         9.00838626574e-05   -0.00917373030267   0.999505310891      -0.0182831904941    0.999505310891      -0.0182831904941    9.00838626576e-05   -0.00917373030267   
800000000.0         3.75196406945e-05   -0.0104843155192    0.999438608968      -0.020895544647     0.999438608968      -0.020895544647     3.75196406948e-05   -0.0104843155192    
900000000.0         -2.19500725218e-05  -0.0117948586658    0.999363395096      -0.0235079981638    0.999363395096      -0.0235079981638    -2.19500725218e-05  -0.0117948586658    
1000000000.0        -8.8319120544e-05   -0.013105335709     0.999279657709      -0.0261205371366    0.999279657709      -0.0261205371366    -8.83191205437e-05  -0.013105335709     
1100000000.0        -0.000161583435032  -0.0144157211137    0.999187387367      -0.0287331456517    0.999187387367      -0.0287331456517    -0.000161583435032  -0.0144157211137    
1200000000.0        -0.000241740338874  -0.0157259880113    0.9990865761        -0.0313458060316    0.9990865761        -0.0313458060316    -0.000241740338874  -0.0157259880113    
1300000000.0        -0.000328788102132  -0.0170361083352    0.998977217013      -0.033958499028     0.998977217013      -0.033958499028     -0.000328788102132  -0.0170361083352    
1400000000.0        -0.000422725645421  -0.018346052931     0.998859304025      -0.0365712039776    0.998859304025      -0.0365712039776    -0.000422725645422  -0.018346052931     
1500000000.0        -0.000523552333779  -0.0196557916495    0.998732831697      -0.0391838989317    0.998732831697      -0.0391838989317    -0.000523552333779  -0.0196557916495    
1600000000.0        -0.000631267828421  -0.0209652934254    0.99859779512       -0.0417965607654    0.99859779512       -0.0417965607654    -0.000631267828421  -0.0209652934254    
1700000000.0        -0.00074587197692   -0.0222745263453    0.998454189831      -0.0444091652709    0.998454189831      -0.0444091652709    -0.00074587197692   -0.0222745263453    
1800000000.0        -0.00086736472968   -0.0235834577074    0.998302011758      -0.0470216872385    0.998302011758      -0.0470216872385    -0.00086736472968   -0.0235834577074    
1900000000.0        -0.000995746074908  -0.0248920540737    0.998141257181      -0.0496341005274    0.998141257181      -0.0496341005274    -0.000995746074908  -0.0248920540737    
2000000000.0        -0.00113101598691   -0.0262002813168    0.997971922702      -0.0522463781285    0.997971922702      -0.0522463781285    -0.00113101598691   -0.0262002813168    
2100000000.0        -0.00127317438422   -0.0275081046624    0.997794005228      -0.05485849222      0.997794005228      -0.05485849222      -0.00127317438422   -0.0275081046624    
2200000000.0        -0.00142222109504   -0.0288154887271    0.997607501954      -0.0574704142179    0.997607501954      -0.0574704142179    -0.00142222109504   -0.0288154887271    
2300000000.0        -0.00157815582844   -0.0301223975533    0.997412410359      -0.0600821148217    0.997412410359      -0.0600821148217    -0.00157815582844   -0.0301223975533    
2400000000.0        -0.00174097814979   -0.0314287946413    0.997208728192      -0.0626935640554    0.997208728192      -0.0626935640554    -0.00174097814979   -0.0314287946413    
2500000000.0        -0.00191068745979   -0.0327346429785    0.996996453474      -0.0653047313058    0.996996453474      -0.0653047313058    -0.00191068745979   -0.0327346429785    
2600000000.0        -0.00208728297619   -0.0340399050672    0.996775584495      -0.0679155853574    0.996775584495      -0.0679155853574    -0.00208728297619   -0.0340399050672    
2700000000.0        -0.00227076371778   -0.0353445429499    0.996546119811      -0.0705260944249    0.996546119811      -0.0705260944249    -0.00227076371778   -0.0353445429499    
2800000000.0        -0.00246112849026   -0.0366485182329    0.996308058247      -0.0731362261829    0.996308058247      -0.0731362261829    -0.00246112849026   -0.0366485182329    
2900000000.0        -0.00265837587363   -0.0379517921092    0.996061398897      -0.0757459477946    0.996061398897      -0.0757459477946    -0.00265837587363   -0.0379517921092    
3000000000.0        -0.00286250421084   -0.0392543253794    0.995806141125      -0.0783552259376    0.995806141125      -0.0783552259376    -0.00286250421084   -0.0392543253794    
3100000000.0        -0.00307351159765   -0.0405560784715    0.995542284567      -0.0809640268287    0.995542284567      -0.0809640268287    -0.00307351159765   -0.0405560784715    
3200000000.0        -0.00329139587328   -0.0418570114604    0.995269829137      -0.0835723162474    0.995269829137      -0.0835723162474    -0.00329139587328   -0.0418570114604    
3300000000.0        -0.00351615461204   -0.0431570840853    0.994988775022      -0.0861800595576    0.994988775022      -0.0861800595576    -0.00351615461204   -0.0431570840853    
3400000000.0        -0.00374778511558   -0.0444562557671    0.994699122693      -0.0887872217287    0.994699122693      -0.0887872217287    -0.00374778511558   -0.0444562557671    
3500000000.0        -0.00398628440578   -0.0457544856251    0.994400872902      -0.0913937673554    0.994400872902      -0.0913937673554    -0.00398628440578   -0.0457544856251    
3600000000.0        -0.00423164921825   -0.0470517324923    0.994094026687      -0.0939996606763    0.994094026687      -0.0939996606763    -0.00423164921825   -0.0470517324923    
3700000000.0        -0.00448387599632   -0.0483479549308    0.993778585373      -0.0966048655924    0.993778585373      -0.0966048655924    -0.00448387599632   -0.0483479549308    
3800000000.0        -0.00474296088543   -0.0496431112458    0.993454550577      -0.0992093456838    0.993454550577      -0.0992093456838    -0.00474296088543   -0.0496431112458    
3900000000.0        -0.00500889972799   -0.0509371595003    0.993121924212      -0.101813064227     0.993121924212      -0.101813064227     -0.00500889972799   -0.0509371595003    
4000000000.0        -0.00528168805863   -0.0522300575277    0.992780708484      -0.104415984208     0.992780708484      -0.104415984208     -0.00528168805863   -0.0522300575277    
4100000000.0        -0.00556132109973   -0.0535217629455    0.992430905899      -0.107018068344     0.992430905899      -0.107018068344     -0.00556132109973   -0.0535217629455    
4200000000.0        -0.00584779375732   -0.0548122331672    0.992072519264      -0.109619279088     0.992072519264      -0.109619279088     -0.00584779375732   -0.0548122331672    
4300000000.0        -0.00614110061728   -0.0561014254151    0.99170555169       -0.112219578654     0.99170555169       -0.112219578654     -0.00614110061728   -0.0561014254151    
4400000000.0        -0.00644123594175   -0.0573892967313    0.991330006595      -0.114818929022     0.991330006595      -0.114818929022     -0.00644123594175   -0.0573892967313    
4500000000.0        -0.00674819366588   -0.05867580399      0.990945887702      -0.117417291954     0.990945887702      -0.117417291954     -0.00674819366588   -0.05867580399      
4600000000.0        -0.00706196739479   -0.0599609039078    0.990553199046      -0.12001462901      0.990553199046      -0.12001462901      -0.00706196739479   -0.0599609039078    
4700000000.0        -0.0073825504007    -0.0612445530548    0.990151944973      -0.122610901554     0.990151944973      -0.122610901554     -0.0073825504007    -0.0612445530548    
4800000000.0        -0.00770993562038   -0.062526707865     0.989742130145      -0.125206070772     0.989742130145      -0.125206070772     -0.00770993562038   -0.062526707865     
4900000000.0        -0.00804411565271   -0.0638073246468    0.989323759534      -0.127800097679     0.989323759534      -0.127800097679     -0.00804411565271   -0.0638073246468    
5000000000.0        -0.00838508275648   -0.0650863595924    0.988896838435      -0.130392943133     0.988896838435      -0.130392943133     -0.00838508275648   -0.0650863595924    
5100000000.0        -0.00873282884838   -0.0663637687878    0.988461372457      -0.132984567844     0.988461372457      -0.132984567844     -0.00873282884838   -0.0663637687878    
5200000000.0        -0.00908734550108   -0.0676395082224    0.98801736753       -0.135574932388     0.98801736753       -0.135574932388     -0.00908734550108   -0.0676395082224    
5300000000.0        -0.00944862394165   -0.0689135337977    0.987564829904      -0.138163997213     0.987564829904      -0.138163997213     -0.00944862394164   -0.0689135337977    
5400000000.0        -0.0098166550499    -0.0701858013371    0.987103766152      -0.140751722651     0.987103766152      -0.140751722651     -0.0098166550499    -0.0701858013371    
5500000000.0        -0.0101914293571    -0.0714562665938    0.98663418317       -0.143338068929     0.98663418317       -0.143338068929     -0.0101914293571    -0.0714562665938    
5600000000.0        -0.0105729370448    -0.07272488526      0.986156088176      -0.145922996177     0.986156088176      -0.145922996177     -0.0105729370448    -0.07272488526      
5700000000.0        -0.0109611679435    -0.0739916129754    0.985669488714      -0.148506464436     0.985669488714      -0.148506464436     -0.0109611679435    -0.0739916129754    
5800000000.0        -0.0113561115321    -0.0752564053349    0.985174392653      -0.151088433673     0.985174392653      -0.151088433673     -0.0113561115321    -0.0752564053349    
5900000000.0        -0.0117577569365    -0.0765192178972    0.984670808186      -0.153668863781     0.984670808186      -0.153668863781     -0.0117577569365    -0.0765192178972    
6000000000.0        -0.0121660929296    -0.0777800061924    0.984158743834      -0.156247714596     0.984158743834      -0.156247714596     -0.0121660929296    -0.0777800061924    
6100000000.0        -0.0125811079301    -0.0790387257299    0.983638208444      -0.158824945901     0.983638208444      -0.158824945901     -0.0125811079301    -0.0790387257299    
6200000000.0        -0.0130027900024    -0.0802953320059    0.98310921119       -0.161400517433     0.98310921119       -0.161400517433     -0.0130027900024    -0.0802953320059    
6300000000.0        -0.0134311268564    -0.0815497805108    0.982571761571      -0.163974388896     0.982571761571      -0.163974388896     -0.0134311268564    -0.0815497805108    
6400000000.0        -0.0138661058467    -0.0828020267367    0.982025869416      -0.166546519965     0.982025869416      -0.166546519965     -0.0138661058467    -0.0828020267367    
6500000000.0        -0.014307713973     -0.0840520261843    0.981471544878      -0.169116870296     0.981471544878      -0.169116870296     -0.014307713973     -0.0840520261843    
6600000000.0        -0.0147559378799    -0.0852997343702    0.980908798438      -0.171685399532     0.980908798438      -0.171685399532     -0.0147559378799    -0.0852997343702    
6700000000.0        -0.0152107638569    -0.0865451068336    0.980337640904      -0.174252067312     0.980337640904      -0.174252067312     -0.0152107638569    -0.0865451068336    
6800000000.0        -0.0156721778389    -0.087788099143     0.97975808341       -0.176816833275     0.97975808341       -0.176816833275     -0.0156721778389    -0.087788099143     
6900000000.0        -0.016140165406     -0.0890286669032    0.979170137415      -0.179379657073     0.979170137415      -0.179379657073     -0.016140165406     -0.0890286669032    
7000000000.0        -0.0166147117842    -0.0902667657614    0.978573814705      -0.181940498371     0.978573814705      -0.181940498371     -0.0166147117842    -0.0902667657614    
7100000000.0        -0.0170958018459    -0.091502351414     0.977969127388      -0.184499316861     0.977969127388      -0.184499316861     -0.0170958018459    -0.091502351414     
7200000000.0        -0.0175834201101    -0.0927353796124    0.977356087899      -0.187056072263     0.977356087899      -0.187056072263     -0.0175834201101    -0.0927353796124    
7300000000.0        -0.0180775507435    -0.0939658061699    0.976734708994      -0.189610724334     0.976734708994      -0.189610724334     -0.0180775507435    -0.0939658061699    
7400000000.0        -0.0185781775608    -0.095193586967     0.976105003755      -0.192163232875     0.976105003755      -0.192163232875     -0.0185781775608    -0.095193586967     
7500000000.0        -0.0190852840257    -0.096418677958     0.975466985583      -0.194713557736     0.975466985583      -0.194713557736     -0.0190852840257    -0.096418677958     
7600000000.0        -0.0195988532519    -0.0976410351766    0.974820668199      -0.197261658824     0.974820668199      -0.197261658824     -0.0195988532519    -0.0976410351766    
7700000000.0        -0.0201188680038    -0.0988606147417    0.974166065647      -0.199807496107     0.974166065647      -0.199807496107     -0.0201188680038    -0.0988606147417    
7800000000.0        -0.0206453106975    -0.100077372863     0.973503192287      -0.20235102962      0.973503192287      -0.20235102962      -0.0206453106975    -0.100077372863     
7900000000.0        -0.0211781634024    -0.101291265847     0.972832062798      -0.204892219475     0.972832062798      -0.204892219475     -0.0211781634024    -0.101291265847     
8000000000.0        -0.0217174078417    -0.102502250101     0.972152692175      -0.207431025862     0.972152692175      -0.207431025862     -0.0217174078417    -0.102502250101     
8100000000.0        -0.022263025394     -0.103710282141     0.971465095727      -0.209967409055     0.971465095727      -0.209967409055     -0.022263025394     -0.103710282141     
8200000000.0        -0.0228149970948    -0.104915318596     0.970769289078      -0.212501329421     0.970769289078      -0.212501329421     -0.0228149970948    -0.104915318596     
8300000000.0        -0.0233733036374    -0.106117316211     0.970065288163      -0.215032747423     0.970065288163      -0.215032747423     -0.0233733036374    -0.106117316211     
8400000000.0        -0.0239379253748    -0.107316231855     0.969353109228      -0.217561623626     0.969353109228      -0.217561623626     -0.0239379253748    -0.107316231855     
8500000000.0        -0.0245088423208    -0.108512022526     0.96863276883       -0.220087918701     0.96863276883       -0.220087918701     -0.0245088423208    -0.108512022526     
8600000000.0        -0.0250860341518    -0.109704645353     0.967904283831      -0.222611593433     0.967904283831      -0.222611593433     -0.0250860341518    -0.109704645353     
8700000000.0        -0.0256694802087    -0.110894057605     0.967167671399      -0.225132608723     0.967167671399      -0.225132608723     -0.0256694802087    -0.110894057605     
8800000000.0        -0.0262591594978    -0.112080216691     0.966422949009      -0.227650925594     0.966422949009      -0.227650925594     -0.0262591594978    -0.112080216691     
8900000000.0        -0.0268550506935    -0.113263080171     0.965670134434      -0.230166505198     0.965670134434      -0.230166505198     -0.0268550506935    -0.113263080171     
9000000000.0        -0.0274571321393    -0.114442605754     0.964909245752      -0.232679308819     0.964909245752      -0.232679308819     -0.0274571321393    -0.114442605754     
9100000000.0        -0.0280653818502    -0.115618751307     0.964140301337      -0.235189297875     0.964140301337      -0.235189297875     -0.0280653818502    -0.115618751307     
9200000000.0        -0.0286797775143    -0.116791474857     0.96336331986       -0.237696433928     0.96336331986       -0.237696433928     -0.0286797775143    -0.116791474857     
9300000000.0        -0.0293002964948    -0.117960734597     0.962578320286      -0.240200678687     0.962578320286      -0.240200678687     -0.0293002964948    -0.117960734597     
9400000000.0        -0.0299269158321    -0.119126488892     0.961785321874      -0.242701994008     0.961785321874      -0.242701994008     -0.0299269158321    -0.119126488892     
9500000000.0        -0.030559612246     -0.120288696276     0.960984344174      -0.245200341905     0.960984344174      -0.245200341905     -0.030559612246     -0.120288696276     
9600000000.0        -0.0311983621374    -0.121447315467     0.960175407023      -0.247695684549     0.960175407023      -0.247695684549     -0.0311983621374    -0.121447315467     
9700000000.0        -0.0318431415909    -0.122602305361     0.959358530544      -0.250187984276     0.959358530544      -0.250187984276     -0.0318431415909    -0.122602305361     
9800000000.0        -0.0324939263766    -0.123753625043     0.958533735145      -0.252677203588     0.958533735145      -0.252677203588     -0.0324939263766    -0.123753625043     
9900000000.0        -0.0331506919526    -0.124901233786     0.957701041516      -0.25516330516      0.957701041516      -0.25516330516      -0.0331506919526    -0.124901233786     
10000000000.0       -0.0338134134673    -0.12604509106      0.956860470625      -0.257646251842     0.956860470625      -0.257646251842     -0.0338134134673    -0.12604509106      
