# Hz S RI R 50.00 
100000000.0         -0.0039641574066    -0.0626147940015    0.995949427012      -0.062737567343     0.995949427012      -0.062737567343     -0.0039641574066    -0.0626147940015    
200000000.0         -0.0156713705078    -0.123747274355     0.984241600491      -0.123992829893     0.984241600491      -0.123992829893     -0.0156713705078    -0.123747274355     
300000000.0         -0.0345425508079    -0.18204518748      0.965369939941      -0.182413539214     0.965369939941      -0.182413539214     -0.0345425508079    -0.18204518748      
400000000.0         -0.0597530942007    -0.236364381798     0.940158975194      -0.236855547891     0.940158975194      -0.236855547891     -0.0597530942007    -0.236364381798     
500000000.0         -0.0902761633896    -0.285832261463     0.909635515087      -0.286446263751     0.909635515087      -0.286446263751     -0.0902761633896    -0.285832261463     
600000000.0         -0.124978485957     -0.329875100365     0.874932817597      -0.330611964035     0.874932817597      -0.330611964035     -0.124978485957     -0.329875100365     
700000000.0         -0.162711419808     -0.3682112848       0.837199516325      -0.369071038157     0.837199516325      -0.369071038157     -0.162711419808     -0.3682112848       
800000000.0         -0.202386153549     -0.400818181739     0.797524417186      -0.401800856019     0.797524417186      -0.401800856019     -0.202386153549     -0.400818181739     
900000000.0         -0.243027253785     -0.42788290565      0.756882949809      -0.428988534868     0.756882949809      -0.428988534868     -0.243027253785     -0.42788290565      
1000000000.0        -0.283803788034     -0.449747008681     0.716106043956      -0.4509756295       0.716106043956      -0.4509756295       -0.283803788034     -0.449747008681     
1100000000.0        -0.324040842124     -0.466853017716     0.675868611767      -0.468204669337     0.675868611767      -0.468204669337     -0.324040842124     -0.466853017716     
1200000000.0        -0.363216105362     -0.479697919811     0.636692962369      -0.481172643875     0.636692962369      -0.481172643875     -0.363216105362     -0.479697919811     
1300000000.0        -0.400946579901     -0.488796030668     0.598962092372      -0.490393871163     0.598962092372      -0.490393871163     -0.400946579901     -0.488796030668     
1400000000.0        -0.436969896897     -0.494651641341     0.562938369625      -0.496372644524     0.562938369625      -0.496372644524     -0.436969896897     -0.494651641341     
1500000000.0        -0.4711237004       -0.497740547271     0.528784149265      -0.499584761595     0.528784149265      -0.499584761595     -0.4711237004       -0.497740547271     
1600000000.0        -0.503325465023     -0.498498925187     0.496581956003      -0.500466401232     0.496581956003      -0.500466401232     -0.503325465023     -0.498498925187     
1700000000.0        -0.533554159409     -0.497317854111     0.466352820623      -0.499408644521     0.466352820623      -0.499408644521     -0.533554159409     -0.497317854111     
1800000000.0        -0.561834439686     -0.494541891274     0.438072086514      -0.4967560507       0.438072086514      -0.4967560507       -0.561834439686     -0.494541891274     
1900000000.0        -0.588223558698     -0.490470365891     0.411682500413      -0.492807950932     0.411682500413      -0.492807950932     -0.588223558698     -0.490470365891     
2000000000.0        -0.612800871141     -0.485360345368     0.387104707261      -0.487821414525     0.387104707261      -0.487821414525     -0.612800871141     -0.485360345368     
2100000000.0        -0.635659652359     -0.479430503696     0.364245431396      -0.482015117317     0.364245431396      -0.482015117317     -0.635659652359     -0.479430503696     
2200000000.0        -0.656900883216     -0.472865354429     0.343003691671      -0.475573574667     0.343003691671      -0.475573574667     -0.656900883216     -0.472865354429     
2300000000.0        -0.676628647938     -0.465819493685     0.323275403611      -0.468651384454     0.323275403611      -0.468651384454     -0.676628647938     -0.465819493685     
2400000000.0        -0.694946819289     -0.458421634845     0.304956694228      -0.461377261776     0.304956694228      -0.461377261776     -0.694946819289     -0.458421634845     
2500000000.0        -0.71195674805      -0.450778313498     0.287946212537      -0.453857743901     0.287946212537      -0.453857743901     -0.71195674805      -0.450778313498     
2600000000.0        -0.727755720553     -0.442977207076     0.272146672023      -0.446180509902     0.272146672023      -0.446180509902     -0.727755720553     -0.442977207076     
2700000000.0        -0.742435992804     -0.435090056415     0.257465816509      -0.438417302219     0.257465816509      -0.438417302219     -0.742435992804     -0.435090056415     
2800000000.0        -0.756084249531     -0.427175202681     0.243816961115      -0.430626463589     0.243816961115      -0.430626463589     -0.756084249531     -0.427175202681     
2900000000.0        -0.768781370212     -0.419279767878     0.231119226219      -0.422855117553     0.231119226219      -0.422855117553     -0.768781370212     -0.419279767878     
3000000000.0        -0.780602411824     -0.411441514244     0.219297554712      -0.415141027855     0.219297554712      -0.415141027855     -0.780602411824     -0.411441514244     
3100000000.0        -0.791616740149     -0.403690420115     0.208282580688      -0.407514174306     0.208282580688      -0.407514174306     -0.791616740149     -0.403690420115     
3200000000.0        -0.801888258917     -0.39605000905      0.1980104003        -0.399998081911     0.1980104003        -0.399998081911     -0.801888258917     -0.39605000905      
3300000000.0        -0.811475699502     -0.388538466582     0.188422282066      -0.392610937619     0.188422282066      -0.392610937619     -0.811475699502     -0.388538466582     
3400000000.0        -0.820432944182     -0.381169575701     0.179464343604      -0.385366525815     0.179464343604      -0.385366525815     -0.820432944182     -0.381169575701     
3500000000.0        -0.828809363777     -0.37395349859      0.171087213997      -0.378275010046     0.171087213997      -0.378275010046     -0.828809363777     -0.37395349859      
3600000000.0        -0.836650156293     -0.366897428579     0.163245695145      -0.371343584982     0.163245695145      -0.371343584982     -0.836650156293     -0.366897428579     
3700000000.0        -0.843996677503     -0.360006132994     0.155898431185      -0.364577019269     0.155898431185      -0.364577019269     -0.843996677503     -0.360006132994     
3800000000.0        -0.850886757609     -0.353282404511     0.14900759183       -0.357978106876     0.14900759183       -0.357978106876     -0.850886757609     -0.353282404511     
3900000000.0        -0.857355000363     -0.346727435972     0.142538573245      -0.351548041917     0.142538573245      -0.351548041917     -0.857355000363     -0.346727435972     
4000000000.0        -0.863433062733     -0.340341131281     0.136459718384      -0.345286729548     0.136459718384      -0.345286729548     -0.863433062733     -0.340341131281     
4100000000.0        -0.869149914307     -0.334122362986     0.130742057579      -0.339193043549     0.130742057579      -0.339193043549     -0.869149914307     -0.334122362986     
4200000000.0        -0.874532076465     -0.32806918542      0.125359069377      -0.333265039466     0.125359069377      -0.333265039466     -0.874532076465     -0.32806918542      
4300000000.0        -0.879603841856     -0.322179010857     0.120286461055      -0.327500130765     0.120286461055      -0.327500130765     -0.879603841856     -0.322179010857     
4400000000.0        -0.884387475075     -0.316448754857     0.115501967947      -0.321895234184     0.115501967947      -0.321895234184     -0.884387475075     -0.316448754857     
4500000000.0        -0.888903395639     -0.310874956011     0.110985170467      -0.316446889469     0.110985170467      -0.316446889469     -0.888903395639     -0.310874956011     
4600000000.0        -0.893170344463     -0.305453874359     0.106717327631      -0.311151357806     0.106717327631      -0.311151357806     -0.893170344463     -0.305453874359     
4700000000.0        -0.897205535079     -0.300181572111     0.102681225839      -0.306004702531     0.102681225839      -0.306004702531     -0.897205535079     -0.300181572111     
4800000000.0        -0.901024790835     -0.295053979636     0.0988610416785     -0.301002855122     0.0988610416785     -0.301002855122     -0.901024790835     -0.295053979636     
4900000000.0        -0.904642669262     -0.290066949212     0.0952422175527     -0.296141668956     0.0952422175527     -0.296141668956     -0.904642669262     -0.290066949212     
5000000000.0        -0.908072574757     -0.285216298625     0.0918113490004     -0.291416962903     0.0918113490004     -0.291416962903     -0.908072574757     -0.285216298625     
5100000000.0        -0.911326860636     -0.280497846326     0.0885560826409     -0.286824556482     0.0885560826409     -0.286824556482     -0.911326860636     -0.280497846326     
5200000000.0        -0.914416921561     -0.275907439592     0.0854650237516     -0.282360298029     0.0854650237516     -0.282360298029     -0.914416921561     -0.275907439592     
5300000000.0        -0.917353277234     -0.271440976889     0.0825276525662     -0.278020087055     0.0825276525662     -0.278020087055     -0.917353277234     -0.271440976889     
5400000000.0        -0.920145648221     -0.267094425429     0.0797342484572     -0.273799891807     0.0797342484572     -0.273799891807     -0.920145648221     -0.267094425429     
5500000000.0        -0.922803024647     -0.26286383476      0.0770758212393     -0.269695762856     0.0770758212393     -0.269695762856     -0.922803024647     -0.26286383476      
5600000000.0        -0.92533372846      -0.258745347076     0.0745440489003     -0.265703843407     0.0745440489003     -0.265703843407     -0.92533372846      -0.258745347076     
5700000000.0        -0.92774546991      -0.254735204823     0.0721312211324     -0.261820376909     0.0721312211324     -0.261820376909     -0.92774546991      -0.254735204823     
5800000000.0        -0.930045398776     -0.25082975609      0.0698301880939     -0.258041712447     0.0698301880939     -0.258041712447     -0.930045398776     -0.25082975609      
5900000000.0        -0.932240150891     -0.247025458183     0.0676343138914     -0.254364308307     0.0676343138914     -0.254364308307     -0.932240150891     -0.247025458183     
6000000000.0        -0.934335890401     -0.243318879705     0.0655374343186     -0.250784734072     0.0655374343186     -0.250784734072     -0.934335890401     -0.243318879705     
6100000000.0        -0.936338348184     -0.239706701445     0.0635338184367     -0.247299671497     0.0635338184367     -0.247299671497     -0.936338348184     -0.239706701445     
6200000000.0        -0.938252856803     -0.236185716285     0.0616181336225     -0.243905914425     0.0616181336225     -0.243905914425     -0.938252856803     -0.236185716285     
6300000000.0        -0.940084382327     -0.232752828324     0.0597854137466     -0.240600367906     0.0597854137466     -0.240600367906     -0.940084382327     -0.232752828324     
6400000000.0        -0.941837553324     -0.229405051387     0.0580310301809     -0.237380046715     0.0580310301809     -0.237380046715     -0.941837553324     -0.229405051387     
6500000000.0        -0.943516687297     -0.226139507047     0.0563506653617     -0.234242073364     0.0563506653617     -0.234242073364     -0.943516687297     -0.226139507047     
6600000000.0        -0.945125814808     -0.222953422271     0.0547402886651     -0.231183675752     0.0547402886651     -0.231183675752     -0.945125814808     -0.222953422271     
6700000000.0        -0.946668701513     -0.219844126772     0.0531961343746     -0.228202184524     0.0531961343746     -0.228202184524     -0.946668701513     -0.219844126772     
6800000000.0        -0.9481488683       -0.216809050165     0.0517146815427     -0.225295030218     0.0517146815427     -0.225295030218     -0.9481488683       -0.216809050165     
6900000000.0        -0.949569609705     -0.213845718969     0.0502926355702     -0.222459740271     0.0502926355702     -0.222459740271     -0.949569609705     -0.213845718969     
7000000000.0        -0.950934010784     -0.210951753508     0.0489269113409     -0.219693935921     0.0489269113409     -0.219693935921     -0.950934010784     -0.210951753508     
7100000000.0        -0.952244962561     -0.208124864767     0.0476146177695     -0.216995329064     0.0476146177695     -0.216995329064     -0.952244962561     -0.208124864767     
7200000000.0        -0.953505176196     -0.20536285122      0.0463530436324     -0.214361719081     0.0463530436324     -0.214361719081     -0.953505176196     -0.20536285122      
7300000000.0        -0.954717195995     -0.202663595667     0.0451396445636     -0.211790989676     0.0451396445636     -0.211790989676     -0.954717195995     -0.202663595667     
7400000000.0        -0.955883411345     -0.200025062105     0.0439720311119     -0.209281105745     0.0439720311119     -0.209281105745     -0.955883411345     -0.200025062105     
7500000000.0        -0.957006067699     -0.197445292633     0.0428479577614     -0.206830110286     0.0428479577614     -0.206830110286     -0.957006067699     -0.197445292633     
7600000000.0        -0.958087276675     -0.19492240443      0.0417653128331     -0.204436121372     0.0417653128331     -0.204436121372     -0.958087276675     -0.19492240443      
7700000000.0        -0.959129025348     -0.192454586797     0.040722109186      -0.202097329197     0.040722109186      -0.202097329197     -0.959129025348     -0.192454586797     
7800000000.0        -0.960133184826     -0.190040098276     0.0397164756502     -0.199811993196     0.0397164756502     -0.199811993196     -0.960133184826     -0.190040098276     
7900000000.0        -0.961101518142     -0.187677263859     0.0387466491275     -0.197578439248     0.0387466491275     -0.197578439248     -0.961101518142     -0.187677263859     
8000000000.0        -0.962035687549     -0.185364472282     0.0378109673011     -0.195395056979     0.0378109673011     -0.195395056979     -0.962035687549     -0.185364472282     
8100000000.0        -0.962937261248     -0.183100173407     0.0369078619038     -0.193260297138     0.0369078619038     -0.193260297138     -0.962937261248     -0.183100173407     
8200000000.0        -0.963807719614     -0.180882875704     0.0360358524964     -0.191172669081     0.0360358524964     -0.191172669081     -0.963807719614     -0.180882875704     
8300000000.0        -0.964648460947     -0.178711143819     0.0351935407129     -0.189130738342     0.0351935407129     -0.189130738342     -0.964648460947     -0.178711143819     
8400000000.0        -0.965460806799     -0.176583596239     0.0343796049351     -0.187133124291     0.0343796049351     -0.187133124291     -0.965460806799     -0.176583596239     
8500000000.0        -0.966246006907     -0.174498903045     0.0335927953592     -0.185178497897     0.0335927953592     -0.185178497897     -0.966246006907     -0.174498903045     
8600000000.0        -0.967005243765     -0.172455783756     0.0328319294237     -0.183265579565     0.0328319294237     -0.183265579565     -0.967005243765     -0.172455783756     
8700000000.0        -0.967739636866     -0.170453005265     0.0320958875684     -0.181393137074     0.0320958875684     -0.181393137074     -0.967739636866     -0.170453005265     
8800000000.0        -0.968450246637     -0.168489379853     0.0313836092984     -0.179559983594     0.0313836092984     -0.179559983594     -0.968450246637     -0.168489379853     
8900000000.0        -0.969138078095     -0.166563763296     0.0306940895273     -0.177764975787     0.0306940895273     -0.177764975787     -0.969138078095     -0.166563763296     
9000000000.0        -0.969804084248     -0.164675053045     0.0300263751796     -0.176007011994     0.0300263751796     -0.176007011994     -0.969804084248     -0.164675053045     
9100000000.0        -0.97044916925      -0.162822186487     0.0293795620301     -0.174285030494     0.0293795620301     -0.174285030494     -0.97044916925      -0.162822186487     
9200000000.0        -0.971074191349     -0.161004139287     0.0287527917624     -0.172598007843     0.0287527917624     -0.172598007843     -0.971074191349     -0.161004139287     
9300000000.0        -0.97167996562      -0.15921992379      0.0281452492296     -0.170944957281     0.0281452492296     -0.170944957281     -0.97167996562      -0.15921992379      
9400000000.0        -0.972267266522     -0.157468587507     0.027556159902      -0.169324927215     0.027556159902      -0.169324927215     -0.972267266522     -0.157468587507     
9500000000.0        -0.972836830276     -0.155749211659     0.0269847874866     -0.167736999763     0.0269847874866     -0.167736999763     -0.972836830276     -0.155749211659     
9600000000.0        -0.973389357086     -0.15406090979      0.0264304317066     -0.166180289371     0.0264304317066     -0.166180289371     -0.973389357086     -0.15406090979      
9700000000.0        -0.973925513216     -0.152402826437     0.0258924262276     -0.164653941478     0.0258924262276     -0.164653941478     -0.973925513216     -0.152402826437     
9800000000.0        -0.974445932918     -0.150774135866     0.0253701367213     -0.163157131257     0.0253701367213     -0.163157131257     -0.974445932918     -0.150774135866     
9900000000.0        -0.974951220253     -0.149174040858     0.0248629590544     -0.161689062396     0.0248629590544     -0.161689062396     -0.974951220253     -0.149174040858     
10000000000.0       -0.975441950777     -0.147601771554     0.0243703175961     -0.160248965948     0.0243703175961     -0.160248965948     -0.975441950777     -0.147601771554     
