# Hz S RI R 50.00 
100000000.0         0.000338972979127   -0.00447861441348   0.999586106958      -0.00674858768111   0.999586106958      -0.00674858768111   0.000338972979127   -0.00447861441348   
200000000.0         0.000245386138706   -0.00895645091518   0.99947970984       -0.0134964782995    0.99947970984       -0.0134964782995    0.000245386138706   -0.00895645091518   
300000000.0         9.07099676399e-05   -0.0134326747326    0.999308367297      -0.020242905029     0.999308367297      -0.020242905029     9.07099676402e-05   -0.0134326747326    
400000000.0         -0.00012470190223   -0.017906413685     0.999071783391      -0.0269870470338    0.999071783391      -0.0269870470338    -0.00012470190223   -0.017906413685     
500000000.0         -0.000400679572449  -0.0223767758463    0.998769877033      -0.0337280570509    0.998769877033      -0.0337280570509    -0.000400679572449  -0.0223767758463    
600000000.0         -0.000737097734777  -0.0268428564952    0.998402644373      -0.0404650709888    0.998402644373      -0.0404650709888    -0.000737097734777  -0.0268428564952    
700000000.0         -0.00113384001839   -0.0313037419657    0.997970124214      -0.0471972130087    0.997970124214      -0.0471972130087    -0.00113384001839   -0.0313037419657    
800000000.0         -0.00159078579966   -0.0357585121729    0.997472385605      -0.05392359875      0.997472385605      -0.05392359875      -0.00159078579966   -0.0357585121729    
900000000.0         -0.00210780421509   -0.04020624246      0.996909522458      -0.0606433376204    0.996909522458      -0.0606433376204    -0.00210780421509   -0.04020624246      
1000000000.0        -0.0026847510542    -0.0446460050516    0.996281650896      -0.0673555345533    0.996281650896      -0.0673555345533    -0.0026847510542    -0.0446460050516    
1100000000.0        -0.00332146698869   -0.0490768702626    0.995588907833      -0.0740592914361    0.995588907833      -0.0740592914361    -0.00332146698869   -0.0490768702626    
1200000000.0        -0.00401777649457   -0.0534979075437    0.994831450155      -0.0807537083198    0.994831450155      -0.0807537083198    -0.00401777649457   -0.0534979075437    
1300000000.0        -0.00477348716685   -0.0579081864137    0.994009454217      -0.0874378844797    0.994009454217      -0.0874378844797    -0.00477348716685   -0.0579081864137    
1400000000.0        -0.00558838927401   -0.0623067773088    0.993123115505      -0.0941109193659    0.993123115505      -0.0941109193659    -0.00558838927401   -0.0623067773088    
1500000000.0        -0.0064622554689    -0.0666927523708    0.992172648398      -0.100771913474     0.992172648398      -0.100771913474     -0.0064622554689    -0.0666927523708    
1600000000.0        -0.00739484060791   -0.071065186186     0.991158285977      -0.10741996915      0.991158285977      -0.10741996915      -0.00739484060791   -0.071065186186     
1700000000.0        -0.00838588164904   -0.075423156487     0.99008027986       -0.114054191354     0.99008027986       -0.114054191354     -0.00838588164904   -0.075423156487     
1800000000.0        -0.00943509761046   -0.0797657448213    0.988938900051      -0.120673688371     0.988938900051      -0.120673688371     -0.00943509761046   -0.0797657448213    
1900000000.0        -0.0105421895774    -0.0840920371943    0.987734434784      -0.127277572499     0.987734434784      -0.127277572499     -0.0105421895774    -0.0840920371943    
2000000000.0        -0.011706840749     -0.0884011246883    0.986467190369      -0.133864960704     0.986467190369      -0.133864960704     -0.011706840749     -0.0884011246883    
2100000000.0        -0.0129287165192    -0.0926921040617    0.985137491019      -0.140434975246     0.985137491019      -0.140434975246     -0.0129287165192    -0.0926921040617    
2200000000.0        -0.0142074645876    -0.0969640783283    0.983745678681      -0.146986744293     0.983745678681      -0.146986744293     -0.0142074645876    -0.0969640783283    
2300000000.0        -0.0155427150973    -0.10121615732      0.982292112838      -0.153519402501     0.982292112838      -0.153519402501     -0.0155427150973    -0.10121615732      
2400000000.0        -0.0169340807963    -0.105447458235     0.980777170307      -0.160032091589     0.980777170307      -0.160032091589     -0.0169340807963    -0.105447458235     
2500000000.0        -0.018381157222     -0.109657106164     0.979201245024      -0.166523960881     0.979201245024      -0.166523960881     -0.018381157222     -0.109657106164     
2600000000.0        -0.019883522906     -0.11384423461      0.977564747805      -0.172994167846     0.977564747805      -0.172994167846     -0.019883522906     -0.11384423461      
2700000000.0        -0.0214407395982    -0.11800798599      0.975868106104      -0.179441878611     0.975868106104      -0.179441878611     -0.0214407395982    -0.11800798599      
2800000000.0        -0.023052352509     -0.122147512116     0.974111763751      -0.185866268463     0.974111763751      -0.185866268463     -0.023052352509     -0.122147512116     
2900000000.0        -0.0247178905694    -0.126261974672     0.972296180672      -0.192266522333     0.972296180672      -0.192266522333     -0.0247178905694    -0.126261974672     
3000000000.0        -0.0264368667062    -0.130350545669     0.970421832607      -0.198641835266     0.970421832606      -0.198641835266     -0.0264368667062    -0.130350545669     
3100000000.0        -0.0282087781331    -0.134412407889     0.9684892108        -0.204991412874     0.9684892108        -0.204991412874     -0.0282087781331    -0.134412407889     
3200000000.0        -0.0300331066568    -0.138446755312     0.96649882169       -0.211314471775     0.96649882169       -0.211314471775     -0.0300331066568    -0.138446755312     
3300000000.0        -0.0319093189958    -0.142452793534     0.964451186581      -0.217610240018     0.964451186581      -0.217610240018     -0.0319093189958    -0.142452793534     
3400000000.0        -0.033836867113     -0.146429740161     0.962346841301      -0.223877957486     0.962346841301      -0.223877957486     -0.033836867113     -0.146429740161     
3500000000.0        -0.0358151885606    -0.150376825197     0.960186335853      -0.230116876295     0.960186335853      -0.230116876295     -0.0358151885606    -0.150376825197     
3600000000.0        -0.0378437068359    -0.154293291415     0.957970234053      -0.236326261165     0.957970234053      -0.236326261165     -0.0378437068359    -0.154293291415     
3700000000.0        -0.0399218317488    -0.158178394705     0.955699113156      -0.242505389784     0.955699113156      -0.242505389784     -0.0399218317488    -0.158178394705     
3800000000.0        -0.0420489597989    -0.162031404424     0.953373563478      -0.248653553154     0.953373563478      -0.248653553154     -0.0420489597989    -0.162031404424     
3900000000.0        -0.0442244745627    -0.165851603707     0.950994188002      -0.254770055919     0.950994188002      -0.254770055919     -0.0442244745627    -0.165851603707     
4000000000.0        -0.0464477470892    -0.16963828979      0.94856160198       -0.260854216681     0.94856160198       -0.260854216681     -0.0464477470892    -0.16963828979      
4100000000.0        -0.0487181363041    -0.173390774289     0.946076432526      -0.266905368298     0.946076432526      -0.266905368298     -0.0487181363041    -0.173390774289     
4200000000.0        -0.0510349894209    -0.17710838349      0.9435393182        -0.272922858165     0.9435393182        -0.272922858165     -0.0510349894209    -0.17710838349      
4300000000.0        -0.0533976423602    -0.180790458603     0.940950908591      -0.27890604848      0.940950908591      -0.27890604848      -0.0533976423602    -0.180790458603     
4400000000.0        -0.0558054201738    -0.18443635601      0.938311863885      -0.284854316497     0.938311863885      -0.284854316497     -0.0558054201738    -0.18443635601      
4500000000.0        -0.0582576374753    -0.188045447498     0.935622854433      -0.290767054758     0.935622854433      -0.290767054758     -0.0582576374753    -0.188045447498     
4600000000.0        -0.0607535988758    -0.191617120471     0.932884560316      -0.296643671313     0.932884560316      -0.296643671313     -0.0607535988758    -0.191617120471     
4700000000.0        -0.0632925994234    -0.195150778151     0.930097670903      -0.30248358992      0.930097670903      -0.30248358992      -0.0632925994234    -0.195150778151     
4800000000.0        -0.0658739250472    -0.198645839758     0.9272628844        -0.308286250233     0.9272628844        -0.308286250233     -0.0658739250472    -0.198645839758     
4900000000.0        -0.0684968530034    -0.202101740682     0.924380907411      -0.314051107972     0.924380907411      -0.314051107972     -0.0684968530034    -0.202101740682     
5000000000.0        -0.0711606523253    -0.205517932632     0.921452454476      -0.319777635079     0.921452454476      -0.319777635079     -0.0711606523253    -0.205517932632     
5100000000.0        -0.0738645842744    -0.208893883771     0.918478247628      -0.325465319853     0.918478247628      -0.325465319853     -0.0738645842744    -0.208893883771     
5200000000.0        -0.0766079027928    -0.212229078841     0.91545901593       -0.331113667077     0.91545901593       -0.331113667077     -0.0766079027928    -0.212229078841     
5300000000.0        -0.079389854957     -0.215523019267     0.912395495027      -0.336722198127     0.912395495027      -0.336722198127     -0.079389854957     -0.215523019267     
5400000000.0        -0.0822096814313    -0.218775223243     0.909288426685      -0.342290451058     0.909288426685      -0.342290451058     -0.0822096814313    -0.218775223243     
5500000000.0        -0.0850666169217    -0.221985225813     0.906138558341      -0.347817980687     0.906138558341      -0.347817980687     -0.0850666169217    -0.221985225813     
5600000000.0        -0.0879598906282    -0.225152578931     0.902946642645      -0.353304358655     0.902946642645      -0.353304358655     -0.0879598906282    -0.225152578931     
5700000000.0        -0.0908887266959    -0.228276851502     0.899713437007      -0.358749173468     0.899713437007      -0.358749173468     -0.0908887266959    -0.228276851502     
5800000000.0        -0.0938523446647    -0.231357629418     0.89643970315       -0.364152030539     0.89643970315       -0.364152030539     -0.0938523446647    -0.231357629418     
5900000000.0        -0.096849959916     -0.23439451557      0.893126206658      -0.3695125522       0.893126206658      -0.3695125522       -0.096849959916     -0.23439451557      
6000000000.0        -0.0998807841168    -0.237387129859     0.889773716531      -0.374830377706     0.889773716531      -0.374830377706     -0.0998807841168    -0.237387129859     
6100000000.0        -0.102944025661     -0.240335109174     0.886383004744      -0.38010516323      0.886383004744      -0.38010516323      -0.102944025661     -0.240335109174     
6200000000.0        -0.106038890105     -0.243238107378     0.882954845807      -0.385336581837     0.882954845807      -0.385336581837     -0.106038890105     -0.243238107378     
6300000000.0        -0.109164580604     -0.246095795265     0.87949001633       -0.390524323445     0.87949001633       -0.390524323445     -0.109164580604     -0.246095795265     
6400000000.0        -0.112320298333     -0.24890786051      0.875989294595      -0.39566809478      0.875989294595      -0.39566809478      -0.112320298333     -0.24890786051      
6500000000.0        -0.11550524292      -0.251674007606     0.872453460132      -0.40076761931      0.872453460132      -0.40076761931      -0.11550524292      -0.251674007606     
6600000000.0        -0.118718612855     -0.25439395779      0.868883293297      -0.405822637173     0.868883293297      -0.405822637173     -0.118718612855     -0.25439395779      
6700000000.0        -0.121959605906     -0.257067448954     0.865279574859      -0.41083290509      0.865279574859      -0.41083290509      -0.121959605906     -0.257067448954     
6800000000.0        -0.125227419523     -0.259694235547     0.861643085595      -0.415798196263     0.861643085595      -0.415798196263     -0.125227419523     -0.259694235547     
6900000000.0        -0.128521251239     -0.262274088464     0.857974605886      -0.420718300271     0.857974605886      -0.420718300271     -0.128521251239     -0.262274088464     
7000000000.0        -0.131840299062     -0.264806794924     0.854274915327      -0.425593022943     0.854274915327      -0.425593022943     -0.131840299062     -0.264806794924     
7100000000.0        -0.135183761859     -0.267292158341     0.850544792334      -0.430422186232     0.850544792334      -0.430422186232     -0.135183761859     -0.267292158341     
7200000000.0        -0.138550839735     -0.269729998179     0.84678501377       -0.435205628069     0.84678501377       -0.435205628069     -0.138550839735     -0.269729998179     
7300000000.0        -0.141940734404     -0.272120149802     0.84299635457       -0.439943202216     0.84299635457       -0.439943202216     -0.141940734404     -0.272120149802     
7400000000.0        -0.145352649549     -0.274462464312     0.839179587377      -0.4446347781       0.839179587377      -0.4446347781       -0.145352649549     -0.274462464312     
7500000000.0        -0.148785791179     -0.276756808377     0.835335482188      -0.449280240645     0.835335482188      -0.449280240645     -0.148785791179     -0.276756808377     
7600000000.0        -0.152239367974     -0.279003064056     0.831464806002      -0.453879490094     0.831464806002      -0.453879490094     -0.152239367974     -0.279003064056     
7700000000.0        -0.155712591622     -0.281201128609     0.827568322487      -0.458432441819     0.827568322487      -0.458432441819     -0.155712591622     -0.281201128609     
7800000000.0        -0.159204677147     -0.2833509143       0.823646791643      -0.462939026129     0.823646791643      -0.462939026129     -0.159204677147     -0.2833509143       
7900000000.0        -0.162714843231     -0.285452348199     0.819700969485      -0.467399188064     0.819700969485      -0.467399188064     -0.162714843231     -0.285452348199     
8000000000.0        -0.166242312523     -0.287505371969     0.815731607726      -0.471812887186     0.815731607726      -0.471812887186     -0.166242312523     -0.287505371969     
8100000000.0        -0.169786311942     -0.289509941648     0.811739453478      -0.476180097365     0.811739453478      -0.476180097365     -0.169786311942     -0.289509941648     
8200000000.0        -0.173346072968     -0.291466027431     0.807725248955      -0.48050080655      0.807725248955      -0.48050080655      -0.173346072968     -0.291466027431     
8300000000.0        -0.176920831928     -0.293373613436     0.803689731188      -0.484775016545     0.803689731188      -0.484775016545     -0.176920831928     -0.293373613436     
8400000000.0        -0.180509830266     -0.295232697472     0.799633631748      -0.489002742769     0.799633631748      -0.489002742769     -0.180509830266     -0.295232697472     
8500000000.0        -0.184112314809     -0.297043290799     0.795557676483      -0.493184014024     0.795557676483      -0.493184014024     -0.184112314809     -0.297043290799     
8600000000.0        -0.187727538024     -0.298805417885     0.791462585259      -0.497318872239     0.791462585259      -0.497318872239     -0.187727538024     -0.298805417885     
8700000000.0        -0.191354758258     -0.300519116153     0.787349071713      -0.50140737223      0.787349071713      -0.50140737223      -0.191354758258     -0.300519116153     
8800000000.0        -0.19499323998      -0.302184435733     0.783217843015      -0.505449581441     0.783217843015      -0.505449581441     -0.19499323998      -0.302184435733     
8900000000.0        -0.198642254003     -0.303801439202     0.779069599638      -0.50944557969      0.779069599638      -0.50944557969      -0.198642254003     -0.303801439202     
9000000000.0        -0.2023010777       -0.305370201325     0.774905035146      -0.513395458904     0.774905035146      -0.513395458904     -0.2023010777       -0.305370201325     
9100000000.0        -0.205968995214     -0.306890808791     0.770724835977      -0.517299322859     0.770724835977      -0.517299322859     -0.205968995214     -0.306890808791     
9200000000.0        -0.209645297654     -0.308363359949     0.766529681246      -0.521157286912     0.766529681246      -0.521157286912     -0.209645297654     -0.308363359949     
9300000000.0        -0.213329283282     -0.309787964539     0.762320242556      -0.524969477733     0.762320242556      -0.524969477733     -0.213329283282     -0.309787964539     
9400000000.0        -0.217020257694     -0.311164743421     0.758097183819      -0.52873603303      0.758097183819      -0.52873603303      -0.217020257694     -0.311164743421     
9500000000.0        -0.220717533987     -0.312493828308     0.753861161078      -0.532457101283     0.753861161078      -0.532457101283     -0.220717533987     -0.312493828308     
9600000000.0        -0.22442043292      -0.313775361484     0.74961282235       -0.536132841464     0.74961282235       -0.536132841464     -0.22442043292      -0.313775361484     
9700000000.0        -0.228128283065     -0.31500949554      0.745352807471      -0.539763422767     0.745352807471      -0.539763422767     -0.228128283065     -0.31500949554      
9800000000.0        -0.231840420951     -0.316196393092     0.741081747953      -0.543349024325     0.741081747953      -0.543349024325     -0.231840420951     -0.316196393092     
9900000000.0        -0.235556191191     -0.317336226509     0.736800266846      -0.546889834942     0.736800266846      -0.546889834942     -0.235556191191     -0.317336226509     
10000000000.0       -0.239274946612     -0.318429177637     0.732508978615      -0.55038605281      0.732508978615      -0.55038605281      -0.239274946612     -0.318429177637     
