# Hz S RI R 50.00 
100000000.0         0.00211954264904    0.00110922831968    0.997868419038      -0.00495799547321   0.997868419038      -0.00495799547321   0.00211954264904    0.00110922831968    
200000000.0         0.0021484470746     0.00221817059401    0.997813651489      -0.0099157683216    0.997813651489      -0.0099157683216    0.0021484470746     0.00221817059401    
300000000.0         0.00218467968969    0.00332677507721    0.997736728545      -0.0148732929204    0.997736728545      -0.0148732929204    0.00218467968969    0.00332677507721    
400000000.0         0.00223006845972    0.00443494788092    0.997635819086      -0.019830485339     0.997635819086      -0.019830485339     0.00223006845972    0.00443494788092    
500000000.0         0.00228531369759    0.00554258625252    0.997510219019      -0.0247872444504    0.997510219019      -0.0247872444504    0.00228531369759    0.00554258625252    
600000000.0         0.00235076910787    0.00664958397227    0.997359570315      -0.0297434601022    0.997359570315      -0.0297434601022    0.00235076910787    0.00664958397227    
700000000.0         0.00242664022743    0.0077558332232     0.997183662636      -0.0346990164114    0.997183662636      -0.0346990164114    0.00242664022743    0.0077558332232     
800000000.0         0.00251305681239    0.00886122542594    0.996982360993      -0.0396537934605    0.996982360993      -0.0396537934605    0.00251305681239    0.00886122542594    
900000000.0         0.00261010505277    0.00996565166963    0.996755573574      -0.0446076682987    0.996755573574      -0.0446076682987    0.00261010505277    0.00996565166963    
1000000000.0        0.00271784389445    0.0110690029566     0.996503235455      -0.0495605155932    0.996503235455      -0.0495605155932    0.00271784389445    0.0110690029566     
1100000000.0        0.00283631410911    0.0121711703509     0.996225299563      -0.0545122080782    0.996225299563      -0.0545122080782    0.00283631410911    0.0121711703509     
1200000000.0        0.00296554369754    0.0132720450743     0.995921731291      -0.0594626168833    0.995921731291      -0.0594626168833    0.00296554369754    0.0132720450743     
1300000000.0        0.00310555128885    0.0143715185698     0.99559250513       -0.0644116117818    0.99559250513       -0.0644116117818    0.00310555128885    0.0143715185698     
1400000000.0        0.0032563483751     0.0154694825462     0.99523760245       -0.069359061384     0.99523760245       -0.069359061384     0.0032563483751     0.0154694825462     
1500000000.0        0.00341794083463    0.0165658290098     0.994857009998      -0.0743048332936    0.994857009998      -0.0743048332936    0.00341794083464    0.0165658290098     
1600000000.0        0.00359033000278    0.0176604502884     0.994450718841      -0.0792487942347    0.994450718841      -0.0792487942347    0.00359033000278    0.0176604502884     
1700000000.0        0.00377351344433    0.0187532390489     0.994018723614      -0.0841908101585    0.994018723614      -0.0841908101585    0.00377351344433    0.0187532390489     
1800000000.0        0.00396748552364    0.0198440883118     0.99356102196       -0.0891307463341    0.99356102196       -0.0891307463341    0.00396748552364    0.0198440883118     
1900000000.0        0.00417223783388    0.0209328914622     0.993077614117      -0.0940684674263    0.993077614117      -0.0940684674263    0.00417223783388    0.0209328914622     
2000000000.0        0.00438775952588    0.0220195422598     0.9925685026        -0.0990038375636    0.9925685026        -0.0990038375636    0.00438775952588    0.0220195422598     
2100000000.0        0.00461403756427    0.0231039348466     0.992033691959      -0.103936720398     0.992033691959      -0.103936720398     0.00461403756427    0.0231039348466     
2200000000.0        0.00485105692967    0.0241859637544     0.991473188585      -0.108866979158     0.991473188585      -0.108866979158     0.00485105692967    0.0241859637544     
2300000000.0        0.00509880078054    0.0252655239114     0.99088700056       -0.113794476698     0.99088700056       -0.113794476698     0.00509880078054    0.0252655239114     
2400000000.0        0.00535725058428    0.0263425106477     0.990275137536      -0.118719075541     0.990275137536      -0.118719075541     0.00535725058428    0.0263425106477     
2500000000.0        0.00562638622456    0.0274168197013     0.989637610635      -0.123640637915     0.989637610635      -0.123640637915     0.00562638622456    0.0274168197013     
2600000000.0        0.00590618609022    0.0284883472235     0.98897443237       -0.128559025795     0.98897443237       -0.128559025795     0.00590618609022    0.0284883472235     
2700000000.0        0.00619662714958    0.029556989784      0.988285616581      -0.133474100932     0.988285616581      -0.133474100932     0.00619662714958    0.029556989784      
2800000000.0        0.00649768501309    0.0306226443759     0.987571178377      -0.138385724887     0.987571178377      -0.138385724887     0.00649768501309    0.0306226443759     
2900000000.0        0.00680933398676    0.031685208421      0.986831134089      -0.143293759057     0.986831134089      -0.143293759057     0.00680933398676    0.031685208421      
3000000000.0        0.00713154711796    0.0327445797748     0.986065501237      -0.148198064704     0.986065501237      -0.148198064704     0.00713154711796    0.0327445797748     
3100000000.0        0.00746429623518    0.0338006567312     0.98527429849       -0.153098502981     0.98527429849       -0.153098502981     0.00746429623518    0.0338006567312     
3200000000.0        0.00780755198257    0.0348533380276     0.984457545645      -0.157994934953     0.984457545645      -0.157994934953     0.00780755198257    0.0348533380276     
3300000000.0        0.00816128385054    0.0359025228502     0.983615263596      -0.162887221626     0.983615263596      -0.162887221626     0.00816128385054    0.0359025228502     
3400000000.0        0.00852546020266    0.0369481108388     0.982747474317      -0.167775223959     0.982747474317      -0.167775223959     0.00852546020266    0.0369481108388     
3500000000.0        0.00890004829984    0.0379900020918     0.981854200841      -0.172658802894     0.981854200841      -0.172658802894     0.00890004829984    0.0379900020918     
3600000000.0        0.00928501432197    0.0390280971717     0.980935467246      -0.17753781937      0.980935467246      -0.17753781937      0.00928501432197    0.0390280971717     
3700000000.0        0.00968032338756    0.0400622971097     0.979991298641      -0.182412134343     0.979991298641      -0.182412134343     0.00968032338756    0.0400622971097     
3800000000.0        0.0100859395716     0.0410925034113     0.979021721149      -0.187281608807     0.979021721149      -0.187281608807     0.0100859395716     0.0410925034113     
3900000000.0        0.0105018259219     0.0421186180614     0.9780267619        -0.192146103805     0.9780267619        -0.192146103805     0.0105018259219     0.0421186180614     
4000000000.0        0.0109279444743     0.0431405435295     0.977006449017      -0.197005480452     0.977006449017      -0.197005480452     0.0109279444743     0.0431405435295     
4100000000.0        0.0113642562667     0.0441581827752     0.975960811609      -0.201859599947     0.975960811609      -0.201859599947     0.0113642562667     0.0441581827752     
4200000000.0        0.0118107213522     0.0451714392532     0.97488987976       -0.20670832359      0.97488987976       -0.20670832359      0.0118107213522     0.0451714392532     
4300000000.0        0.0122672988111     0.046180216919      0.973793684524      -0.211551512797     0.973793684524      -0.211551512797     0.0122672988111     0.046180216919      
4400000000.0        0.0127339467631     0.047184420234      0.972672257911      -0.216389029115     0.972672257911      -0.216389029115     0.0127339467631     0.047184420234      
4500000000.0        0.0132106223775     0.0481839541713     0.971525632888      -0.221220734235     0.971525632888      -0.221220734235     0.0132106223775     0.0481839541713     
4600000000.0        0.0136972818845     0.0491787242205     0.970353843365      -0.226046490005     0.970353843365      -0.226046490005     0.0136972818845     0.0491787242205     
4700000000.0        0.0141938805846     0.0501686363939     0.969156924195      -0.230866158446     0.969156924195      -0.230866158446     0.0141938805846     0.0501686363939     
4800000000.0        0.0147003728586     0.0511535972314     0.96793491116       -0.235679601761     0.96793491116       -0.235679601761     0.0147003728586     0.0511535972314     
4900000000.0        0.0152167121765     0.0521335138062     0.966687840973      -0.240486682353     0.966687840973      -0.240486682353     0.0152167121765     0.0521335138062     
5000000000.0        0.0157428511069     0.0531082937305     0.965415751268      -0.24528726283      0.965415751268      -0.24528726283      0.0157428511069     0.0531082937305     
5100000000.0        0.0162787413254     0.0540778451605     0.964118680593      -0.250081206024     0.964118680593      -0.250081206024     0.0162787413254     0.0540778451605     
5200000000.0        0.0168243336232     0.0550420768024     0.962796668409      -0.254868374999     0.962796668409      -0.254868374999     0.0168243336232     0.0550420768024     
5300000000.0        0.0173795779152     0.0560008979176     0.96144975508       -0.259648633061     0.96144975508       -0.259648633061     0.0173795779152     0.0560008979176     
5400000000.0        0.0179444232483     0.0569542183284     0.960077981872      -0.264421843774     0.960077981872      -0.264421843774     0.0179444232483     0.0569542183284     
5500000000.0        0.0185188178094     0.0579019484233     0.958681390944      -0.269187870964     0.958681390944      -0.269187870964     0.0185188178094     0.0579019484233     
5600000000.0        0.0191027089328     0.0588439991629     0.957260025345      -0.273946578738     0.957260025345      -0.273946578738     0.0191027089328     0.0588439991629     
5700000000.0        0.0196960431083     0.0597802820848     0.955813929009      -0.278697831485     0.955813929009      -0.278697831485     0.0196960431083     0.0597802820848     
5800000000.0        0.0202987659886     0.0607107093095     0.954343146748      -0.283441493894     0.954343146748      -0.283441493894     0.0202987659886     0.0607107093095     
5900000000.0        0.0209108223968     0.0616351935459     0.952847724249      -0.28817743096      0.952847724249      -0.28817743096      0.0209108223968     0.0616351935459     
6000000000.0        0.0215321563337     0.0625536480966     0.951327708069      -0.292905507994     0.951327708069      -0.292905507994     0.0215321563337     0.0625536480966     
6100000000.0        0.0221627109855     0.0634659868631     0.949783145627      -0.297625590634     0.949783145627      -0.297625590634     0.0221627109855     0.0634659868631     
6200000000.0        0.0228024287304     0.0643721243519     0.948214085202      -0.302337544852     0.948214085202      -0.302337544852     0.0228024287304     0.0643721243519     
6300000000.0        0.0234512511468     0.0652719756792     0.946620575927      -0.307041236967     0.946620575927      -0.307041236967     0.0234512511468     0.0652719756792     
6400000000.0        0.0241091190196     0.0661654565766     0.945002667785      -0.311736533648     0.945002667785      -0.311736533648     0.0241091190196     0.0661654565766     
6500000000.0        0.0247759723478     0.0670524833965     0.9433604116        -0.31642330193      0.9433604116        -0.31642330193      0.0247759723478     0.0670524833965     
6600000000.0        0.0254517503516     0.0679329731173     0.941693859038      -0.321101409215     0.941693859038      -0.321101409215     0.0254517503516     0.0679329731173     
6700000000.0        0.0261363914794     0.0688068433486     0.940003062595      -0.325770723288     0.940003062595      -0.325770723288     0.0261363914794     0.0688068433486     
6800000000.0        0.0268298334148     0.0696740123367     0.938288075598      -0.33043111232      0.938288075598      -0.33043111232      0.0268298334148     0.0696740123367     
6900000000.0        0.0275320130839     0.0705343989698     0.936548952196      -0.335082444878     0.936548952196      -0.335082444878     0.0275320130839     0.0705343989698     
7000000000.0        0.0282428666624     0.071387922783      0.934785747355      -0.339724589932     0.934785747355      -0.339724589932     0.0282428666624     0.071387922783      
7100000000.0        0.0289623295821     0.0722345039637     0.932998516855      -0.344357416865     0.932998516855      -0.344357416865     0.0289623295821     0.0722345039637     
7200000000.0        0.0296903365386     0.0730740633564     0.931187317283      -0.348980795479     0.931187317283      -0.348980795479     0.0296903365386     0.0730740633564     
7300000000.0        0.030426821498      0.0739065224684     0.929352206027      -0.353594596002     0.929352206027      -0.353594596002     0.030426821498      0.0739065224684     
7400000000.0        0.0311717177037     0.0747318034741     0.927493241271      -0.358198689097     0.927493241271      -0.358198689097     0.0311717177037     0.0747318034741     
7500000000.0        0.0319249576841     0.0755498292206     0.925610481993      -0.36279294587      0.925610481993      -0.36279294587      0.0319249576841     0.0755498292206     
7600000000.0        0.032686473259      0.0763605232324     0.923703987954      -0.367377237873     0.923703987954      -0.367377237873     0.032686473259      0.0763605232324     
7700000000.0        0.0334561955469     0.0771638097163     0.921773819697      -0.371951437116     0.921773819697      -0.371951437116     0.0334561955469     0.0771638097163     
7800000000.0        0.034234054972      0.0779596135666     0.919820038536      -0.37651541607      0.919820038536      -0.37651541607      0.034234054972      0.0779596135666     
7900000000.0        0.0350199812714     0.0787478603695     0.91784270656       -0.381069047678     0.91784270656       -0.381069047678     0.0350199812714     0.0787478603695     
8000000000.0        0.0358139035018     0.0795284764083     0.915841886615      -0.385612205356     0.915841886615      -0.385612205356     0.0358139035018     0.0795284764083     
8100000000.0        0.036615750047      0.0803013886678     0.913817642311      -0.390144763005     0.913817642311      -0.390144763005     0.036615750047      0.0803013886678     
8200000000.0        0.0374254486248     0.0810665248394     0.911770038005      -0.394666595015     0.911770038005      -0.394666595015     0.0374254486248     0.0810665248394     
8300000000.0        0.0382429262937     0.0818238133253     0.909699138803      -0.399177576269     0.909699138803      -0.399177576269     0.0382429262937     0.0818238133253     
8400000000.0        0.0390681094607     0.0825731832436     0.907605010553      -0.403677582153     0.907605010553      -0.403677582153     0.0390681094607     0.0825731832436     
8500000000.0        0.0399009238879     0.0833145644326     0.905487719834      -0.408166488562     0.905487719834      -0.408166488562     0.0399009238879     0.0833145644326     
8600000000.0        0.0407412946999     0.084047887455      0.903347333959      -0.412644171902     0.903347333959      -0.412644171902     0.0407412946999     0.084047887455      
8700000000.0        0.0415891463907     0.0847730836031     0.901183920959      -0.4171105091       0.901183920959      -0.4171105091       0.0415891463907     0.0847730836031     
8800000000.0        0.042444402831      0.0854900849027     0.898997549588      -0.421565377608     0.898997549588      -0.421565377608     0.042444402831      0.0854900849027     
8900000000.0        0.0433069872752     0.0861988241173     0.896788289307      -0.426008655406     0.896788289307      -0.426008655406     0.0433069872752     0.0861988241173     
9000000000.0        0.044176822369      0.0868992347531     0.894556210285      -0.430440221014     0.894556210285      -0.430440221014     0.044176822369      0.0868992347531     
9100000000.0        0.0450538301559     0.0875912510623     0.892301383389      -0.434859953492     0.892301383389      -0.434859953492     0.0450538301559     0.0875912510623     
9200000000.0        0.045937932085      0.0882748080484     0.890023880182      -0.439267732446     0.890023880182      -0.439267732446     0.045937932085      0.0882748080484     
9300000000.0        0.0468290490179     0.0889498414693     0.887723772911      -0.443663438036     0.887723772911      -0.443663438036     0.0468290490179     0.0889498414693     
9400000000.0        0.0477271012359     0.089616287842      0.885401134509      -0.448046950976     0.885401134509      -0.448046950976     0.0477271012359     0.089616287842      
9500000000.0        0.0486320084475     0.0902740844465     0.88305603858       -0.452418152545     0.88305603858       -0.452418152545     0.0486320084475     0.0902740844465     
9600000000.0        0.0495436897954     0.0909231693299     0.8806885594        -0.456776924589     0.8806885594        -0.456776924589     0.0495436897954     0.0909231693299     
9700000000.0        0.0504620638637     0.09156348131       0.878298771908      -0.461123149524     0.878298771908      -0.461123149524     0.0504620638637     0.09156348131       
9800000000.0        0.0513870486855     0.0921949599794     0.875886751699      -0.465456710344     0.875886751699      -0.465456710344     0.0513870486855     0.0921949599794     
9900000000.0        0.0523185617498     0.0928175457093     0.873452575019      -0.469777490623     0.873452575019      -0.469777490623     0.0523185617498     0.0928175457093     
10000000000.0       0.0532565200092     0.0934311796534     0.870996318758      -0.474085374522     0.870996318758      -0.474085374522     0.0532565200092     0.0934311796534     
