# Hz S RI R 50.00 
100000000.0         -0.00854858777074   -0.0916314440112    0.991385991031      -0.0918430642579    0.991385991031      -0.0918430642579    -0.00854858777074   -0.0916314440112    
200000000.0         -0.0332523600229    -0.178669445675     0.966681703531      -0.17909273349      0.966681703531      -0.17909273349      -0.0332523600229    -0.178669445675     
300000000.0         -0.0717368737649    -0.257289448657     0.928196741329      -0.257924477523     0.928196741329      -0.257924477523     -0.0717368737649    -0.257289448657     
400000000.0         -0.120698763481     -0.324892084804     0.879234413661      -0.325738948935     0.879234413661      -0.325738948935     -0.120698763481     -0.324892084804     
500000000.0         -0.176510163904     -0.380252038517     0.823422564182      -0.381310850002     0.823422564182      -0.381310850002     -0.176510163904     -0.380252038517     
600000000.0         -0.235767930752     -0.423362243229     0.76416432615       -0.424633130081     0.76416432615       -0.424633130081     -0.235767930752     -0.423362243229     
700000000.0         -0.295642677365     -0.455103119797     0.7042890797        -0.456586224459     0.7042890797        -0.456586224459     -0.295642677365     -0.455103119797     
800000000.0         -0.354016579446     -0.476874732938     0.645914644873      -0.478570211072     0.645914644873      -0.478570211072     -0.354016579446     -0.476874732938     
900000000.0         -0.40946311513      -0.490284349799     0.590467540564      -0.492192369268     0.590467540564      -0.492192369268     -0.40946311513      -0.490284349799     
1000000000.0        -0.46113910689      -0.496926571798     0.538790942117      -0.499047311777     0.538790942117      -0.499047311777     -0.46113910689      -0.496926571798     
1100000000.0        -0.50864687686      -0.49825390775      0.491282525729      -0.500587557948     0.491282525729      -0.500587557948     -0.50864687686      -0.49825390775      
1200000000.0        -0.551902336817     -0.495517306818     0.448026378294      -0.498064066774     0.448026378294      -0.498064066774     -0.551902336817     -0.495517306818     
1300000000.0        -0.591025611814     -0.489752804651     0.408902373681      -0.492512883107     0.408902373681      -0.492512883107     -0.591025611814     -0.489752804651     
1400000000.0        -0.626258272366     -0.481794394042     0.37366894047       -0.48476800837      0.37366894047       -0.48476800837      -0.626258272366     -0.481794394042     
1500000000.0        -0.657904796762     -0.472299184451     0.3420215996        -0.475486560126     0.3420215996        -0.475486560126     -0.657904796762     -0.472299184451     
1600000000.0        -0.686293474798     -0.461776249655     0.3136320606        -0.465177619773     0.3136320606        -0.465177619773     -0.686293474798     -0.461776249655     
1700000000.0        -0.711751739277     -0.450614463432     0.28817289007       -0.454230068271     0.28817289007       -0.454230068271     -0.711751739277     -0.450614463432     
1800000000.0        -0.734591628654     -0.439107140132     0.26533204902       -0.442937226741     0.26533204902       -0.442937226741     -0.734591628654     -0.439107140132     
1900000000.0        -0.755102056313     -0.427472767636     0.244820623572      -0.431517589458     0.244820623572      -0.431517589458     -0.755102056313     -0.427472767636     
2000000000.0        -0.773545471921     -0.415871896078     0.226376163609      -0.420131712601     0.226376163609      -0.420131712601     -0.773545471921     -0.415871896078     
2100000000.0        -0.790157237114     -0.404420600322     0.209763307072      -0.408895676762     0.209763307072      -0.408895676762     -0.790157237114     -0.404420600322     
2200000000.0        -0.805146589198     -0.393201052878     0.194772816258      -0.397891659874     0.194772816258      -0.397891659874     -0.805146589198     -0.393201052878     
2300000000.0        -0.818698459066     -0.382269741617     0.181219759896      -0.387176154964     0.181219759896      -0.387176154964     -0.818698459066     -0.382269741617     
2400000000.0        -0.830975679458     -0.371663810098     0.168941304888      -0.376786310492     0.168941304888      -0.376786310492     -0.830975679458     -0.371663810098     
2500000000.0        -0.842121300291     -0.361405923488     0.157794400968      -0.36674479629      0.157794400968      -0.36674479629      -0.842121300291     -0.361405923488     
2600000000.0        -0.852260846003     -0.351507988231     0.147653523363      -0.357063523255     0.147653523363      -0.357063523255     -0.852260846003     -0.351507988231     
2700000000.0        -0.861504425476     -0.341973986699     0.138408562867      -0.347746478016     0.138408562867      -0.347746478016     -0.861504425476     -0.341973986699     
2800000000.0        -0.86994865236      -0.33280213169      0.129962905509      -0.338791877445     0.129962905509      -0.338791877445     -0.86994865236      -0.33280213169      
2900000000.0        -0.877678362342     -0.323986499823     0.122231715293      -0.330193802071     0.122231715293      -0.330193802071     -0.877678362342     -0.323986499823     
3000000000.0        -0.884768130542     -0.315518266518     0.115140416793      -0.321943431074     0.115140416793      -0.321943431074     -0.884768130542     -0.315518266518     
3100000000.0        -0.891283601343     -0.30738663675      0.108623365324      -0.314029973052     0.108623365324      -0.314029973052     -0.891283601343     -0.30738663675      
3200000000.0        -0.897282647318     -0.299579543716     0.102622688014      -0.306441364702     0.102622688014      -0.306441364702     -0.897282647318     -0.299579543716     
3300000000.0        -0.902816375452     -0.292084170578     0.0970872775842     -0.299164792572     0.0970872775842     -0.299164792572     -0.902816375452     -0.292084170578     
3400000000.0        -0.90792999868      -0.284887337411     0.0919719208063     -0.292187080024     0.0919719208063     -0.292187080024     -0.90792999868      -0.284887337411     
3500000000.0        -0.912663589757     -0.277975785541     0.0872365446347     -0.285494971583     0.0872365446347     -0.285494971583     -0.912663589757     -0.277975785541     
3600000000.0        -0.917052732935     -0.271336383881     0.0828455645267     -0.279075339281     0.0828455645267     -0.279075339281     -0.917052732935     -0.271336383881     
3700000000.0        -0.921129087303     -0.264956276032     0.0787673211063     -0.272915329766     0.0787673211063     -0.272915329766     -0.921129087303     -0.264956276032     
3800000000.0        -0.924920873957     -0.258822982531     0.0749735929884     -0.267002466565     0.0749735929884     -0.267002466565     -0.924920873957     -0.258822982531     
3900000000.0        -0.928453297638     -0.252924469233     0.0714391751438     -0.261324718469     0.0714391751438     -0.261324718469     -0.928453297638     -0.252924469233     
4000000000.0        -0.931748912023     -0.247249190228     0.0681415136069     -0.255870542459     0.0681415136069     -0.255870542459     -0.931748912023     -0.247249190228     
4100000000.0        -0.934827936594     -0.241786111729     0.0650603886082     -0.250628907605     0.0650603886082     -0.250628907605     -0.934827936594     -0.241786111729     
4200000000.0        -0.937708531884     -0.236524721852     0.0621776393247     -0.245589304846     0.0621776393247     -0.245589304846     -0.937708531884     -0.236524721852     
4300000000.0        -0.940407038934     -0.231455030042     0.0594769244245     -0.240741746431     0.0594769244245     -0.240741746431     -0.940407038934     -0.231455030042     
4400000000.0        -0.942938187948     -0.226567559019     0.0569435134138     -0.236076757866     0.0569435134138     -0.236076757866     -0.942938187948     -0.226567559019     
4500000000.0        -0.945315280401     -0.221853331431     0.0545641045244     -0.231585364572     0.0545641045244     -0.231585364572     -0.945315280401     -0.221853331431     
4600000000.0        -0.947550348263     -0.217303852874     0.0523266654921     -0.227259074915     0.0523266654921     -0.227259074915     -0.947550348263     -0.217303852874     
4700000000.0        -0.949654293445     -0.212911092538     0.0502202941094     -0.223089860854     0.0502202941094     -0.223089860854     -0.949654293445     -0.212911092538     
4800000000.0        -0.951637010147     -0.208667462423     0.0482350958799     -0.219070137159     0.0482350958799     -0.219070137159     -0.951637010147     -0.208667462423     
4900000000.0        -0.953507492382     -0.204565795834     0.046362076491      -0.215192739919     0.046362076491      -0.215192739919     -0.953507492382     -0.204565795834     
5000000000.0        -0.955273928648     -0.200599325683     0.044593047142      -0.211450904839     0.044593047142      -0.211450904839     -0.955273928648     -0.200599325683     
5100000000.0        -0.956943785427     -0.196761662977     0.0429205410464     -0.207838245737     0.0429205410464     -0.207838245737     -0.956943785427     -0.196761662977     
5200000000.0        -0.958523880956     -0.193046775764     0.0413377396609     -0.204348733493     0.0413377396609     -0.204348733493     -0.958523880956     -0.193046775764     
5300000000.0        -0.960020450515     -0.189448968743     0.0398384073971     -0.200976675661     0.0398384073971     -0.200976675661     -0.960020450515     -0.189448968743     
5400000000.0        -0.961439204304     -0.185962863647     0.0384168337411     -0.197716696856     0.0384168337411     -0.197716696856     -0.961439204304     -0.185962863647     
5500000000.0        -0.962785378847     -0.182583380503     0.0370677818562     -0.194563720018     0.0370677818562     -0.194563720018     -0.962785378847     -0.182583380503     
5600000000.0        -0.9640637827       -0.1793057198       0.0357864428663     -0.191512948581     0.0357864428663     -0.191512948581     -0.9640637827       -0.1793057198       
5700000000.0        -0.965278837187     -0.176125345588     0.0345683951271     -0.188559849576     0.0345683951272     -0.188559849576     -0.965278837187     -0.176125345588     
5800000000.0        -0.966434612739     -0.173037969514     0.0334095678823     -0.185700137668     0.0334095678823     -0.185700137668     -0.966434612739     -0.173037969514     
5900000000.0        -0.967534861378     -0.170039535769     0.0323062087827     -0.182929760105     0.0323062087827     -0.182929760105     -0.967534861378     -0.170039535769     
6000000000.0        -0.968583045788     -0.167126206929     0.0312548548133     -0.180244882566     0.0312548548133     -0.180244882566     -0.968583045788     -0.167126206929     
6100000000.0        -0.969582365376     -0.164294350661     0.0302523062308     -0.177641875859     0.0302523062308     -0.177641875859     -0.969582365376     -0.164294350661     
6200000000.0        -0.970535779673     -0.161540527243     0.0292956031662     -0.175117303452     0.0292956031662     -0.175117303452     -0.970535779673     -0.161540527243     
6300000000.0        -0.971446029366     -0.158861477872     0.0283820045892     -0.172667909781     0.0283820045892     -0.172667909781     -0.971446029366     -0.158861477872     
6400000000.0        -0.972315655238     -0.156254113716     0.02750896937       -0.1702906093       0.02750896937       -0.1702906093       -0.972315655238     -0.156254113716     
6500000000.0        -0.973147015243     -0.153715505668     0.0266741392043     -0.167982476238     0.0266741392043     -0.167982476238     -0.973147015243     -0.153715505668     
6600000000.0        -0.973942299918     -0.151242874752     0.0258753231986     -0.165740735007     0.0258753231986     -0.165740735007     -0.973942299918     -0.151242874752     
6700000000.0        -0.97470354632      -0.148833583161     0.0251104839362     -0.163562751241     0.0251104839362     -0.163562751241     -0.97470354632      -0.148833583161     
6800000000.0        -0.97543265064      -0.146485125868     0.0243777248633     -0.161446023408     0.0243777248633     -0.161446023408     -0.97543265064      -0.146485125868     
6900000000.0        -0.976131379631     -0.144195122785     0.023675278858      -0.15938817497      0.023675278858      -0.15938817497      -0.976131379631     -0.144195122785     
7000000000.0        -0.976801380981     -0.14196131143      0.0230014978571     -0.157386947053     0.0230014978571     -0.157386947053     -0.976801380981     -0.14196131143      
7100000000.0        -0.977444192743     -0.139781540072     0.0223548434312     -0.155440191586     0.0223548434312     -0.155440191586     -0.977444192743     -0.139781540072     
7200000000.0        -0.978061251902     -0.137653761315     0.021733878212      -0.153545864898     0.021733878212      -0.153545864898     -0.978061251902     -0.137653761315     
7300000000.0        -0.978653902183     -0.135576026102     0.0211372580854     -0.151702021709     0.0211372580854     -0.151702021709     -0.978653902183     -0.135576026102     
7400000000.0        -0.979223401171     -0.133546478099     0.0205637250728     -0.149906809525     0.0205637250728     -0.149906809525     -0.979223401171     -0.133546478099     
7500000000.0        -0.979770926807     -0.131563348446     0.0200121008348     -0.148158463385     0.0200121008348     -0.148158463385     -0.979770926807     -0.131563348446     
7600000000.0        -0.980297583325     -0.129624950835     0.0194812807347     -0.146455300941     0.0194812807347     -0.146455300941     -0.980297583325     -0.129624950835     
7700000000.0        -0.980804406678     -0.127729676905     0.0189702284078     -0.144795717853     0.0189702284078     -0.144795717853     -0.980804406678     -0.127729676905     
7800000000.0        -0.981292369517     -0.125875991929     0.0184779707894     -0.143178183478     0.0184779707894     -0.143178183478     -0.981292369517     -0.125875991929     
7900000000.0        -0.981762385742     -0.124062430773     0.0180035935571     -0.141601236825     0.0180035935571     -0.141601236825     -0.981762385742     -0.124062430773     
8000000000.0        -0.98221531469      -0.122287594098     0.0175462369487     -0.140063482766     0.0175462369487     -0.140063482766     -0.98221531469      -0.122287594098     
8100000000.0        -0.982651964969     -0.120550144813     0.0171050919215     -0.138563588479     0.0171050919215     -0.138563588479     -0.982651964969     -0.120550144813     
8200000000.0        -0.983073097996     -0.118848804734     0.0166793966213     -0.137100280117     0.0166793966213     -0.137100280117     -0.983073097996     -0.118848804734     
8300000000.0        -0.983479431241     -0.117182351454     0.0162684331335     -0.135672339673     0.0162684331335     -0.135672339673     -0.983479431241     -0.117182351454     
8400000000.0        -0.983871641219     -0.115549615405     0.0158715244898     -0.134278602042     0.0158715244898     -0.134278602042     -0.983871641219     -0.115549615405     
8500000000.0        -0.984250366253     -0.113949477094     0.0154880319104     -0.13291795226      0.0154880319104     -0.13291795226      -0.984250366253     -0.113949477094     
8600000000.0        -0.984616209017     -0.112380864504     0.0151173522573     -0.131589322905     0.0151173522573     -0.131589322905     -0.984616209017     -0.112380864504     
8700000000.0        -0.984969738885     -0.110842750657     0.0147589156846     -0.13029169166      0.0147589156846     -0.13029169166      -0.984969738885     -0.110842750657     
8800000000.0        -0.985311494109     -0.109334151317     0.0144121834647     -0.129024079014     0.0144121834647     -0.129024079014     -0.985311494109     -0.109334151317     
8900000000.0        -0.98564198382      -0.107854122825     0.014076645979      -0.127785546103     0.014076645979      -0.127785546103     -0.98564198382      -0.107854122825     
9000000000.0        -0.985961689899     -0.106401760068     0.0137518208568     -0.126575192671     0.0137518208568     -0.126575192671     -0.985961689899     -0.106401760068     
9100000000.0        -0.986271068694     -0.104976194558     0.0134372512511     -0.12539215516      0.0134372512511     -0.12539215516      -0.986271068694     -0.104976194558     
9200000000.0        -0.986570552621     -0.103576592631     0.0131325042396     -0.124235604897     0.0131325042396     -0.124235604897     -0.986570552621     -0.103576592631     
9300000000.0        -0.986860551647     -0.102202153737     0.0128371693413     -0.123104746395     0.0128371693413     -0.123104746395     -0.986860551647     -0.102202153737     
9400000000.0        -0.98714145467      -0.100852108836     0.0125508571382     -0.121998815746     0.0125508571382     -0.121998815746     -0.98714145467      -0.100852108836     
9500000000.0        -0.987413630796     -0.099525718885     0.0122731979951     -0.120917079104     0.0122731979951     -0.120917079104     -0.987413630796     -0.099525718885     
9600000000.0        -0.987677430533     -0.0982222734007    0.0120038408679     -0.119858831253     0.0120038408679     -0.119858831253     -0.987677430533     -0.0982222734007    
9700000000.0        -0.987933186898     -0.0969410891112    0.0117424521955     -0.118823394259     0.0117424521955     -0.118823394259     -0.987933186898     -0.0969410891112    
9800000000.0        -0.98818121645      -0.0956815086774    0.0114887148668     -0.117810116188     0.0114887148668     -0.117810116188     -0.98818121645      -0.0956815086774    
9900000000.0        -0.988421820251     -0.0944428994848    0.0112423272585     -0.116818369903     0.0112423272585     -0.116818369903     -0.988421820251     -0.0944428994848    
10000000000.0       -0.988655284766     -0.0932246525017    0.0110030023378     -0.115847551917     0.0110030023378     -0.115847551917     -0.988655284766     -0.0932246525017    
