# Hz S RI R 50.00 
100000000.0         0.0769971357417     0.00357053305317    0.923000775177      -0.0043915245706    0.923000775177      -0.0043915245706    0.0769971357417     0.00357053305317    
200000000.0         0.0775146514634     0.00713257267372    0.922481477334      -0.00877456334902   0.922481477334      -0.00877456334902   0.0775146514634     0.00713257267372    
300000000.0         0.0779382261572     0.0106890152265     0.922055427215      -0.0131520183793    0.922055427215      -0.0131520183793    0.0779382261572     0.0106890152265     
400000000.0         0.078330060608      0.0142406005432     0.921660423823      -0.0175246343967    0.921660423823      -0.0175246343967    0.078330060608      0.0142406005432     
500000000.0         0.0787141440777     0.0177875670057     0.921272477703      -0.0218926542963    0.921272477703      -0.0218926542963    0.0787141440777     0.0177875670057     
600000000.0         0.0791027151143     0.0213299313072     0.920879350117      -0.0262560990292    0.920879350117      -0.0262560990292    0.0791027151143     0.0213299313072     
700000000.0         0.0795029958353     0.0248675890154     0.920473818758      -0.0306148682342    0.920473818758      -0.0306148682342    0.0795029958353     0.0248675890154     
800000000.0         0.0799196521986     0.0284003612735     0.920051217474      -0.0349687869808    0.920051217474      -0.0349687869808    0.0799196521986     0.0284003612735     
900000000.0         0.0803558904659     0.0319280199347     0.919608339803      -0.03931763093      0.919608339803      -0.03931763093      0.0803558904659     0.0319280199347     
1000000000.0        0.0808140134734     0.0354503024876     0.919142882701      -0.0436611412791    0.919142882701      -0.0436611412791    0.0808140134734     0.0354503024876     
1100000000.0        0.0812957301251     0.0389669215759     0.918653137049      -0.0479990342958    0.918653137049      -0.0479990342958    0.0812957301251     0.0389669215759     
1200000000.0        0.0818023399694     0.0424775714113     0.918137803074      -0.0523310077416    0.918137803074      -0.0523310077416    0.0818023399694     0.0424775714113     
1300000000.0        0.0823348494283     0.0459819322864     0.917595874121      -0.0566567453928    0.917595874121      -0.0566567453928    0.0823348494283     0.0459819322864     
1400000000.0        0.0828940482641     0.0494796738652     0.917026560185      -0.0609759203384    0.917026560185      -0.0609759203384    0.0828940482641     0.0494796738652     
1500000000.0        0.083480561737      0.0529704576572     0.916429235752      -0.0652881974596    0.916429235752      -0.0652881974596    0.083480561737      0.0529704576572     
1600000000.0        0.0840948872771     0.0564539389255     0.915803403129      -0.0695932353422    0.915803403129      -0.0695932353422    0.0840948872771     0.0564539389255     
1700000000.0        0.0847374209452     0.0599297681922     0.915148665982      -0.0738906877866    0.915148665982      -0.0738906877866    0.0847374209452     0.0599297681922     
1800000000.0        0.0854084769569     0.0633975924508     0.914464709813      -0.0781802050231    0.914464709813      -0.0781802050231    0.0854084769569     0.0633975924508     
1900000000.0        0.0861083023734     0.0668570561591     0.913751287265      -0.0824614347077    0.913751287265      -0.0824614347077    0.0861083023734     0.0668570561591     
2000000000.0        0.0868370883496     0.0703078020663     0.913008206881      -0.0867340227521    0.913008206881      -0.0867340227521    0.0868370883496     0.0703078020663     
2100000000.0        0.087594978879      0.0737494719115     0.912235324352      -0.0909976140241    0.912235324352      -0.0909976140241    0.087594978879      0.0737494719115     
2200000000.0        0.0883820776878     0.0771817070221     0.911432535626      -0.095251852948     0.911432535626      -0.095251852948     0.0883820776878     0.0771817070221     
2300000000.0        0.0891984537411     0.0806041488313     0.910599771402      -0.0994963840243    0.910599771402      -0.0994963840243    0.0891984537411     0.0806041488313     
2400000000.0        0.0900441456886     0.084016439332      0.909736992685      -0.103730852285     0.909736992685      -0.103730852285     0.0900441456886     0.084016439332      
2500000000.0        0.0909191654953     0.0874182214779     0.908844187153      -0.107954903695     0.908844187153      -0.107954903695     0.0909191654953     0.0874182214779     
2600000000.0        0.0918235014351     0.090809139541      0.907921366163      -0.112168185514     0.907921366163      -0.112168185514     0.0918235014351     0.090809139541      
2700000000.0        0.0927571205821     0.0941888394337     0.906968562265      -0.116370346615     0.906968562265      -0.116370346615     0.0927571205821     0.0941888394337     
2800000000.0        0.0937199709023     0.0975569689994     0.905985827103      -0.12056103778      0.905985827103      -0.12056103778      0.0937199709023     0.0975569689994     
2900000000.0        0.0947119830244     0.100913178279      0.90497322965       -0.124739911968     0.90497322965       -0.124739911968     0.0947119830244     0.100913178279      
3000000000.0        0.0957330717512     0.104257119752      0.903930854693      -0.128906624553     0.903930854693      -0.128906624553     0.0957330717512     0.104257119752      
3100000000.0        0.0967831373586     0.107588448565      0.902858801536      -0.133060833555     0.902858801536      -0.133060833555     0.0967831373586     0.107588448565      
3200000000.0        0.0978620667216     0.110906822734      0.901757182874      -0.137202199845     0.901757182874      -0.137202199845     0.0978620667216     0.110906822734      
3300000000.0        0.0989697342955     0.11421190334       0.900626123809      -0.141330387342     0.900626123809      -0.141330387342     0.0989697342955     0.11421190334       
3400000000.0        0.100106002979      0.117503354709      0.899465760993      -0.145445063188     0.899465760993      -0.145445063188     0.100106002979      0.117503354709      
3500000000.0        0.101270724875      0.120780844579      0.898276241858      -0.149545897919     0.898276241858      -0.149545897919     0.101270724875      0.120780844579      
3600000000.0        0.102463741971      0.124044044254      0.897057723946      -0.153632565626     0.897057723946      -0.153632565626     0.102463741971      0.124044044254      
3700000000.0        0.103684886747      0.127292628759      0.895810374295      -0.157704744097     0.895810374295      -0.157704744097     0.103684886747      0.127292628759      
3800000000.0        0.104933982719      0.130526276972      0.894534368893      -0.161762114962     0.894534368893      -0.161762114962     0.104933982719      0.130526276972      
3900000000.0        0.106210844942      0.133744671757      0.893229892184      -0.16580436382      0.893229892184      -0.16580436382      0.106210844942      0.133744671757      
4000000000.0        0.107515280455      0.136947500089      0.891897136613      -0.169831180365     0.891897136613      -0.169831180365     0.107515280455      0.136947500089      
4100000000.0        0.108847088701      0.140134453167      0.890536302213      -0.173842258502     0.890536302213      -0.173842258502     0.108847088701      0.140134453167      
4200000000.0        0.110206061909      0.143305226526      0.889147596222      -0.177837296459     0.889147596222      -0.177837296459     0.110206061909      0.143305226526      
4300000000.0        0.111591985444      0.14645952014       0.887731232727      -0.181815996885     0.887731232727      -0.181815996885     0.111591985444      0.14645952014       
4400000000.0        0.113004638143      0.149597038517      0.886287432338      -0.185778066954     0.886287432338      -0.185778066954     0.113004638143      0.149597038517      
4500000000.0        0.114443792618      0.152717490794      0.884816421877      -0.189723218455     0.884816421877      -0.189723218455     0.114443792618      0.152717490794      
4600000000.0        0.115909215548      0.155820590823      0.883318434089      -0.193651167879     0.883318434089      -0.193651167879     0.115909215548      0.155820590823      
4700000000.0        0.117400667953      0.158906057251      0.881793707368      -0.197561636498     0.881793707368      -0.197561636498     0.117400667953      0.158906057251      
4800000000.0        0.118917905451      0.161973613597      0.8802424855        -0.201454350448     0.8802424855        -0.201454350448     0.118917905451      0.161973613597      
4900000000.0        0.120460678508      0.165022988325      0.878665017412      -0.205329040795     0.878665017412      -0.205329040795     0.120460678508      0.165022988325      
5000000000.0        0.122028732669      0.168053914908      0.877061556943      -0.209185443605     0.877061556943      -0.209185443605     0.122028732669      0.168053914908      
5100000000.0        0.123621808786      0.171066131895      0.875432362615      -0.213023300007     0.875432362615      -0.213023300007     0.123621808786      0.171066131895      
5200000000.0        0.125239643231      0.174059382967      0.873777697418      -0.216842356253     0.873777697418      -0.216842356253     0.125239643231      0.174059382967      
5300000000.0        0.126881968106      0.17703341699       0.872097828603      -0.220642363769     0.872097828603      -0.220642363769     0.126881968106      0.17703341699       
5400000000.0        0.128548511443      0.179987988067      0.87039302748       -0.224423079208     0.87039302748       -0.224423079208     0.128548511443      0.179987988067      
5500000000.0        0.130238997398      0.182922855584      0.868663569228      -0.228184264494     0.868663569228      -0.228184264494     0.130238997398      0.182922855584      
5600000000.0        0.13195314644       0.185837784252      0.8669097327        -0.231925686869     0.8669097327        -0.231925686869     0.13195314644       0.185837784252      
5700000000.0        0.13369067553       0.188732544143      0.865131800247      -0.235647118927     0.865131800247      -0.235647118927     0.13369067553       0.188732544143      
5800000000.0        0.135451298302      0.191606910729      0.863330057537      -0.239348338649     0.863330057537      -0.239348338649     0.135451298302      0.191606910729      
5900000000.0        0.137234725236      0.19446066491       0.861504793383      -0.243029129437     0.861504793383      -0.243029129437     0.137234725236      0.19446066491       
6000000000.0        0.139040663824      0.197293593042      0.859656299576      -0.246689280142     0.859656299576      -0.246689280142     0.139040663824      0.197293593042      
6100000000.0        0.140868818737      0.200105486961      0.857784870716      -0.250328585084     0.857784870716      -0.250328585084     0.140868818737      0.200105486961      
6200000000.0        0.142718891984      0.202896144004      0.855890804058      -0.253946844075     0.855890804058      -0.253946844075     0.142718891984      0.202896144004      
6300000000.0        0.144590583071      0.205665367026      0.853974399347      -0.25754386244      0.853974399347      -0.25754386244      0.144590583071      0.205665367026      
6400000000.0        0.146483589156      0.208412964412      0.852035958668      -0.261119451023     0.852035958668      -0.261119451023     0.146483589156      0.208412964412      
6500000000.0        0.148397605196      0.211138750093      0.850075786296      -0.264673426207     0.850075786296      -0.264673426207     0.148397605196      0.211138750093      
6600000000.0        0.1503323241        0.213842543547      0.848094188544      -0.268205609914     0.848094188544      -0.268205609914     0.1503323241        0.213842543547      
6700000000.0        0.15228743687       0.216524169809      0.846091473622      -0.271715829615     0.846091473622      -0.271715829615     0.15228743687       0.216524169809      
6800000000.0        0.154262632748      0.219183459466      0.844067951492      -0.275203918329     0.844067951492      -0.275203918329     0.154262632748      0.219183459466      
6900000000.0        0.156257599351      0.221820248665      0.842023933728      -0.278669714622     0.842023933728      -0.278669714622     0.156257599351      0.221820248665      
7000000000.0        0.158272022812      0.224434379098      0.839959733381      -0.282113062604     0.839959733381      -0.282113062604     0.158272022812      0.224434379098      
7100000000.0        0.16030558791       0.227025698005      0.837875664841      -0.28553381192      0.837875664841      -0.28553381192      0.16030558791       0.227025698005      
7200000000.0        0.162357978211      0.229594058155      0.835772043707      -0.288931817743     0.835772043707      -0.288931817743     0.162357978211      0.229594058155      
7300000000.0        0.164428876187      0.232139317839      0.833649186659      -0.292306940758     0.833649186659      -0.292306940758     0.164428876187      0.232139317839      
7400000000.0        0.166517963352      0.234661340854      0.831507411325      -0.29565904715      0.831507411325      -0.29565904715      0.166517963352      0.234661340854      
7500000000.0        0.168624920385      0.237159996484      0.82934703616       -0.298988008585     0.82934703616       -0.298988008585     0.168624920385      0.237159996484      
7600000000.0        0.17074942725       0.23963515948       0.82716838032       -0.302293702191     0.82716838032       -0.302293702191     0.17074942725       0.23963515948       
7700000000.0        0.17289116332       0.242086710038      0.824971763546      -0.305576010531     0.824971763546      -0.305576010531     0.17289116332       0.242086710038      
7800000000.0        0.175049807496      0.244514533773      0.82275750604       -0.308834821586     0.82275750604       -0.308834821586     0.175049807496      0.244514533773      
7900000000.0        0.17722503832       0.246918521692      0.820525928353      -0.312070028721     0.820525928353      -0.312070028721     0.17722503832       0.246918521692      
8000000000.0        0.179416534091      0.249298570165      0.818277351266      -0.315281530657     0.818277351266      -0.315281530657     0.179416534091      0.249298570165      
8100000000.0        0.18162397298       0.251654580893      0.816012095684      -0.318469231443     0.816012095684      -0.318469231443     0.18162397298       0.251654580893      
8200000000.0        0.183847033132      0.253986460873      0.813730482524      -0.321633040417     0.813730482524      -0.321633040417     0.183847033132      0.253986460873      
8300000000.0        0.186085392781      0.256294122364      0.811432832603      -0.324772872173     0.811432832603      -0.324772872173     0.186085392781      0.256294122364      
8400000000.0        0.188338730352      0.258577482847      0.809119466539      -0.327888646523     0.809119466539      -0.327888646523     0.188338730352      0.258577482847      
8500000000.0        0.190606724566      0.260836464988      0.806790704647      -0.33098028846      0.806790704647      -0.33098028846      0.190606724566      0.260836464988      
8600000000.0        0.192889054537      0.263070996592      0.804446866833      -0.334047728108     0.804446866833      -0.334047728108     0.192889054537      0.263070996592      
8700000000.0        0.195185399876      0.265281010566      0.802088272499      -0.337090900691     0.802088272499      -0.337090900691     0.195185399876      0.265281010566      
8800000000.0        0.197495440785      0.267466444866      0.799715240447      -0.340109746476     0.799715240447      -0.340109746476     0.197495440785      0.267466444866      
8900000000.0        0.199818858151      0.269627242459      0.797328088782      -0.343104210735     0.797328088782      -0.343104210735     0.199818858151      0.269627242459      
9000000000.0        0.202155333641      0.271763351265      0.79492713482       -0.346074243693     0.79492713482       -0.346074243693     0.202155333641      0.271763351265      
9100000000.0        0.204504549791      0.273874724118      0.792512694999      -0.349019800477     0.792512694999      -0.349019800477     0.204504549791      0.273874724118      
9200000000.0        0.206866190091      0.275961318703      0.79008508479       -0.351940841068     0.79008508479       -0.351940841068     0.206866190091      0.275961318703      
9300000000.0        0.209239939077      0.278023097515      0.787644618611      -0.354837330249     0.787644618611      -0.354837330249     0.209239939077      0.278023097515      
9400000000.0        0.211625482411      0.280060027793      0.785191609742      -0.357709237544     0.785191609742      -0.357709237544     0.211625482411      0.280060027793      
9500000000.0        0.214022506964      0.282072081477      0.782726370247      -0.360556537172     0.782726370247      -0.360556537172     0.214022506964      0.282072081477      
9600000000.0        0.216430700893      0.284059235141      0.780249210888      -0.363379207984     0.780249210888      -0.363379207984     0.216430700893      0.284059235141      
9700000000.0        0.218849753724      0.286021469941      0.777760441056      -0.36617723341      0.777760441056      -0.36617723341      0.218849753724      0.286021469941      
9800000000.0        0.22127935642       0.287958771554      0.775260368686      -0.368950601395     0.775260368686      -0.368950601395     0.22127935642       0.287958771554      
9900000000.0        0.223719201462      0.289871130122      0.772749300192      -0.371699304346     0.772749300192      -0.371699304346     0.223719201462      0.289871130122      
10000000000.0       0.226168982915      0.291758540185      0.770227540392      -0.374423339065     0.770227540392      -0.374423339065     0.226168982915      0.291758540185      
