# Hz S RI R 50.00 
100000000.0         0.00716446979502    0.00277559780068    0.992829799682      -0.00506262182333   0.992829799682      -0.00506262182333   0.00716446979502    0.00277559780068    
200000000.0         0.00725327338261    0.00555012724192    0.992731022148      -0.010124193965     0.992731022148      -0.010124193965     0.00725327338261    0.00555012724192    
300000000.0         0.00735784770271    0.00832355748184    0.992611229873      -0.0151847014313    0.992611229873      -0.0151847014313    0.00735784770271    0.00832355748184    
400000000.0         0.00748434887213    0.011095662094      0.992464266008      -0.0202439306037    0.992464266008      -0.0202439306037    0.00748434887213    0.011095662094      
500000000.0         0.00763513475431    0.0138661694571     0.992287771794      -0.0253016211269    0.992287771794      -0.0253016211269    0.00763513475431    0.0138661694571     
600000000.0         0.00781139447323    0.0166347882013     0.992080557054      -0.0303574918829    0.992080557054      -0.0303574918829    0.00781139447323    0.0166347882013     
700000000.0         0.00801381677292    0.019401216389      0.991841931835      -0.035411250441     0.991841931835      -0.035411250441     0.00801381677292    0.019401216389      
800000000.0         0.00824283390717    0.0221651458094     0.991571462521      -0.0404625975142    0.991571462521      -0.0404625975142    0.00824283390717    0.0221651458094     
900000000.0         0.00849873021299    0.0249262643182     0.991268863264      -0.045511229405     0.991268863264      -0.045511229405     0.00849873021299    0.0249262643182     
1000000000.0        0.00878169713606    0.0276842572516     0.990933940957      -0.0505568394955    0.990933940957      -0.0505568394955    0.00878169713606    0.0276842572516     
1100000000.0        0.00909186381633    0.0304388083517     0.990566564656      -0.0555991192267    0.990566564656      -0.0555991192267    0.00909186381633    0.0304388083517     
1200000000.0        0.00942931531402    0.0331896004088     0.990166647352      -0.0606377587847    0.990166647352      -0.0606377587847    0.00942931531402    0.0331896004088     
1300000000.0        0.0097941040795     0.0359363157334     0.989734134504      -0.0656724476052    0.989734134504      -0.0656724476052    0.0097941040795     0.0359363157334     
1400000000.0        0.0101862574968     0.0386786365162     0.989268996498      -0.0707028747603    0.989268996498      -0.0707028747603    0.0101862574968     0.0386786365162     
1500000000.0        0.0106057830294     0.0414162451144     0.988771223504      -0.0757287292675    0.988771223504      -0.0757287292675    0.0106057830294     0.0414162451144     
1600000000.0        0.0110526718397     0.0441488242867     0.988240821855      -0.0807497003425    0.988240821855      -0.0807497003425    0.0110526718397     0.0441488242867     
1700000000.0        0.0115269014044     0.0468760573914     0.987677811433      -0.0857654776131    0.987677811433      -0.0857654776131    0.0115269014044     0.0468760573914     
1800000000.0        0.0120284374483     0.0495976285577     0.98708222374       -0.0907757513036    0.98708222374       -0.0907757513036    0.0120284374483     0.0495976285577     
1900000000.0        0.012557235403      0.0523132228369     0.986454100437      -0.0957802123976    0.986454100437      -0.0957802123976    0.012557235403      0.0523132228369     
2000000000.0        0.01311324153       0.0550225263377     0.985793492224      -0.100778552783     0.985793492224      -0.100778552783     0.01311324153       0.0550225263377     
2100000000.0        0.013696393798      0.0577252263503     0.985100457962      -0.105770465385     0.985100457962      -0.105770465385     0.013696393798      0.0577252263503     
2200000000.0        0.0143066225807     0.0604210114601     0.984375063977      -0.110755644289     0.984375063977      -0.110755644289     0.0143066225807     0.0604210114601     
2300000000.0        0.0149438512189     0.0631095716539     0.983617383501      -0.115733784849     0.983617383501      -0.115733784849     0.0149438512189     0.0631095716539     
2400000000.0        0.0156079964811     0.06579059842       0.982827496207      -0.1207045838       0.982827496207      -0.1207045838       0.0156079964811     0.06579059842       
2500000000.0        0.0162989689441     0.0684637848424     0.982005487834      -0.125667739354     0.982005487834      -0.125667739354     0.0162989689441     0.0684637848424     
2600000000.0        0.0170166733137     0.071128825691      0.981151449865      -0.130622951295     0.981151449865      -0.130622951295     0.0170166733137     0.071128825691      
2700000000.0        0.0177610086968     0.0737854175076     0.980265479255      -0.135569921072     0.980265479255      -0.135569921072     0.0177610086968     0.0737854175076     
2800000000.0        0.0185318688355     0.0764332586886     0.979347678199      -0.140508351883     0.979347678199      -0.140508351883     0.0185318688355     0.0764332586886     
2900000000.0        0.0193291423114     0.0790720495644     0.978398153927      -0.145437948759     0.978398153927      -0.145437948759     0.0193291423114     0.0790720495644     
3000000000.0        0.0201527127257     0.0817014924763     0.977417018527      -0.150358418647     0.977417018527      -0.150358418647     0.0201527127257     0.0817014924763     
3100000000.0        0.0210024588591     0.084321291851      0.976404388781      -0.155269470483     0.976404388781      -0.155269470483     0.0210024588591     0.084321291851      
3200000000.0        0.0218782548161     0.0869311542725     0.975360386027      -0.160170815269     0.975360386027      -0.160170815269     0.0218782548161     0.0869311542725     
3300000000.0        0.0227799701571     0.0895307885521     0.97428513602       -0.165062166147     0.97428513602       -0.165062166147     0.0227799701571     0.0895307885521     
3400000000.0        0.0237074700183     0.092119905796      0.973178768822      -0.169943238468     0.973178768822      -0.169943238468     0.0237074700183     0.092119905796      
3500000000.0        0.0246606152246     0.0946982194717     0.972041418681      -0.174813749859     0.972041418681      -0.174813749859     0.0246606152246     0.0946982194717     
3600000000.0        0.0256392623938     0.0972654454718     0.970873223931      -0.179673420291     0.970873223931      -0.179673420291     0.0256392623938     0.0972654454718     
3700000000.0        0.0266432640356     0.0998213021765     0.969674326894      -0.184521972143     0.969674326894      -0.184521972143     0.0266432640356     0.0998213021765     
3800000000.0        0.0276724686458     0.102365510514      0.968444873784      -0.189359130262     0.968444873784      -0.189359130262     0.0276724686458     0.102365510514      
3900000000.0        0.028726720796      0.10489779402       0.967185014619      -0.19418462203      0.967185014619      -0.19418462203      0.028726720796      0.10489779402       
4000000000.0        0.0298058612198     0.107417878895      0.965894903135      -0.198998177414     0.965894903135      -0.198998177414     0.0298058612198     0.107417878895      
4100000000.0        0.0309097268966     0.109925494059      0.964574696702      -0.203799529031     0.964574696702      -0.203799529031     0.0309097268966     0.109925494059      
4200000000.0        0.0320381511329     0.112420371205      0.963224556245      -0.208588412199     0.963224556245      -0.208588412199     0.0320381511329     0.112420371205      
4300000000.0        0.0331909636415     0.114902244857      0.96184464616       -0.213364564992     0.96184464616       -0.213364564992     0.0331909636415     0.114902244857      
4400000000.0        0.0343679906189     0.117370852413      0.960435134242      -0.218127728292     0.960435134242      -0.218127728292     0.0343679906189     0.117370852413      
4500000000.0        0.0355690548223     0.1198259342        0.958996191607      -0.222877645841     0.958996191607      -0.222877645841     0.0355690548223     0.1198259342        
4600000000.0        0.0367939756438     0.12226723352       0.957527992616      -0.227614064288     0.957527992616      -0.227614064288     0.0367939756438     0.12226723352       
4700000000.0        0.0380425691856     0.124694496697      0.956030714803      -0.232336733237     0.956030714803      -0.232336733237     0.0380425691856     0.124694496697      
4800000000.0        0.0393146483329     0.127107473122      0.954504538798      -0.237045405293     0.954504538798      -0.237045405293     0.0393146483329     0.127107473122      
4900000000.0        0.0406100228271     0.129505915295      0.952949648258      -0.241739836107     0.952949648258      -0.241739836107     0.0406100228271     0.129505915295      
5000000000.0        0.0419284993381     0.131889578869      0.951366229795      -0.246419784416     0.951366229795      -0.246419784416     0.0419284993381     0.131889578869      
5100000000.0        0.0432698815359     0.134258222688      0.9497544729        -0.251085012088     0.9497544729        -0.251085012088     0.0432698815359     0.134258222688      
5200000000.0        0.0446339701628     0.136611608829      0.948114569874      -0.255735284157     0.948114569874      -0.255735284157     0.0446339701628     0.136611608829      
5300000000.0        0.0460205631041     0.138949502634      0.94644671576       -0.260370368864     0.94644671576       -0.260370368864     0.0460205631041     0.138949502634      
5400000000.0        0.0474294554598     0.141271672754      0.944751108266      -0.264990037695     0.944751108266      -0.264990037695     0.0474294554598     0.141271672754      
5500000000.0        0.0488604396147     0.143577891174      0.943027947699      -0.26959406541      0.943027947699      -0.26959406541      0.0488604396147     0.143577891174      
5600000000.0        0.0503133053098     0.145867933255      0.94127743689       -0.274182230083     0.94127743689       -0.274182230083     0.0503133053098     0.145867933255      
5700000000.0        0.0517878397124     0.148141577757      0.939499781128      -0.278754313128     0.939499781128      -0.278754313128     0.0517878397124     0.148141577757      
5800000000.0        0.0532838274868     0.150398606876      0.937695188088      -0.283310099336     0.937695188088      -0.283310099336     0.0532838274868     0.150398606876      
5900000000.0        0.0548010508644     0.152638806266      0.935863867759      -0.287849376895     0.935863867759      -0.287849376895     0.0548010508644     0.152638806266      
6000000000.0        0.0563392897141     0.154861965073      0.934006032376      -0.292371937427     0.934006032376      -0.292371937427     0.0563392897141     0.154861965073      
6100000000.0        0.0578983216122     0.157067875953      0.932121896348      -0.296877576005     0.932121896348      -0.296877576005     0.0578983216122     0.157067875953      
6200000000.0        0.0594779219124     0.159256335103      0.93021167619       -0.301366091184     0.93021167619       -0.301366091184     0.0594779219124     0.159256335103      
6300000000.0        0.0610778638156     0.161427142276      0.928275590451      -0.30583728502      0.928275590451      -0.30583728502      0.0610778638156     0.161427142276      
6400000000.0        0.0626979184401     0.16358010081       0.926313859648      -0.310290963091     0.926313859648      -0.310290963091     0.0626979184401     0.16358010081       
6500000000.0        0.0643378548903     0.165715017643      0.924326706192      -0.314726934521     0.924326706192      -0.314726934521     0.0643378548903     0.165715017643      
6600000000.0        0.0659974403269     0.16783170333       0.922314354319      -0.319145011994     0.922314354319      -0.319145011994     0.0659974403269     0.16783170333       
6700000000.0        0.0676764400357     0.169929972065      0.920277030026      -0.323545011771     0.920277030026      -0.323545011771     0.0676764400357     0.169929972065      
6800000000.0        0.069374617497      0.17200964169       0.918214960994      -0.32792675371      0.918214960994      -0.32792675371      0.069374617497      0.17200964169       
6900000000.0        0.0710917344542     0.174070533716      0.916128376525      -0.332290061275     0.916128376525      -0.332290061275     0.0710917344542     0.174070533716      
7000000000.0        0.0728275509827     0.176112473327      0.914017507471      -0.33663476155      0.914017507471      -0.33663476155      0.0728275509827     0.176112473327      
7100000000.0        0.074581825558      0.178135289399      0.911882586165      -0.340960685253     0.911882586165      -0.340960685253     0.074581825558      0.178135289399      
7200000000.0        0.0763543151244     0.180138814506      0.909723846355      -0.345267666742     0.909723846355      -0.345267666742     0.0763543151244     0.180138814506      
7300000000.0        0.0781447751623     0.182122884929      0.907541523134      -0.349555544025     0.907541523134      -0.349555544025     0.0781447751623     0.182122884929      
7400000000.0        0.0799529597562     0.184087340661      0.90533585287       -0.353824158768     0.90533585287       -0.353824158768     0.0799529597562     0.184087340661      
7500000000.0        0.0817786216618     0.186032025418      0.903107073145      -0.358073356298     0.903107073145      -0.358073356298     0.0817786216618     0.186032025418      
7600000000.0        0.083621512373      0.187956786637      0.900855422683      -0.362302985611     0.900855422683      -0.362302985611     0.083621512373      0.187956786637      
7700000000.0        0.0854813821884     0.189861475484      0.898581141285      -0.366512899373     0.898581141285      -0.366512899373     0.0854813821884     0.189861475484      
7800000000.0        0.0873579802776     0.191745946853      0.89628446976       -0.370702953919     0.89628446976       -0.370702953919     0.0873579802776     0.191745946853      
7900000000.0        0.0892510547469     0.193610059369      0.893965649864      -0.374873009261     0.893965649864      -0.374873009261     0.0892510547469     0.193610059369      
8000000000.0        0.0911603527048     0.195453675382      0.891624924231      -0.379022929077     0.891624924231      -0.379022929077     0.0911603527048     0.195453675382      
8100000000.0        0.0930856203268     0.197276660973      0.889262536308      -0.383152580719     0.889262536308      -0.383152580719     0.0930856203268     0.197276660973      
8200000000.0        0.0950266029197     0.199078885943      0.886878730291      -0.387261835201     0.886878730291      -0.387261835201     0.0950266029197     0.199078885943      
8300000000.0        0.096983044986      0.200860223814      0.884473751063      -0.391350567201     0.884473751063      -0.391350567201     0.096983044986      0.200860223814      
8400000000.0        0.0989546902869     0.20262055182       0.882047844126      -0.39541865505      0.882047844126      -0.39541865505      0.0989546902869     0.20262055182       
8500000000.0        0.100941281905      0.204359750901      0.87960125554       -0.39946598073      0.87960125554       -0.39946598073      0.100941281905      0.204359750901      
8600000000.0        0.102942562309      0.206077705698      0.877134231863      -0.40349242986      0.877134231863      -0.40349242986      0.102942562309      0.206077705698      
8700000000.0        0.104958273411      0.207774304537      0.874647020085      -0.407497891693     0.874647020085      -0.407497891693     0.104958273411      0.207774304537      
8800000000.0        0.106988156631      0.209449439427      0.872139867567      -0.4114822591       0.872139867567      -0.4114822591       0.106988156631      0.209449439427      
8900000000.0        0.109031952959      0.211103006043      0.869613021983      -0.415445428562     0.869613021983      -0.415445428562     0.109031952959      0.211103006043      
9000000000.0        0.111089403011      0.212734903714      0.867066731258      -0.419387300156     0.867066731258      -0.419387300156     0.111089403011      0.212734903714      
9100000000.0        0.113160247089      0.214345035415      0.864501243508      -0.423307777542     0.864501243508      -0.423307777542     0.113160247089      0.214345035415      
9200000000.0        0.115244225244      0.215933307743      0.861916806982      -0.427206767946     0.861916806982      -0.427206767946     0.115244225244      0.215933307743      
9300000000.0        0.117341077328      0.217499630911      0.859313670002      -0.431084182149     0.859313670002      -0.431084182149     0.117341077328      0.217499630911      
9400000000.0        0.119450543056      0.219043918725      0.856692080907      -0.434939934463     0.856692080907      -0.434939934463     0.119450543056      0.219043918725      
9500000000.0        0.121572362062      0.22056608857       0.854052287999      -0.438773942721     0.854052287999      -0.438773942721     0.121572362062      0.22056608857       
9600000000.0        0.123706273951      0.222066061391      0.851394539478      -0.442586128252     0.851394539478      -0.442586128252     0.123706273951      0.222066061391      
9700000000.0        0.125852018358      0.223543761671      0.848719083397      -0.446376415866     0.848719083397      -0.446376415866     0.125852018358      0.223543761671      
9800000000.0        0.128009335004      0.224999117414      0.8460261676        -0.45014473383      0.8460261676        -0.45014473383      0.128009335004      0.224999117414      
9900000000.0        0.130177963743      0.226432060124      0.843316039671      -0.453891013848     0.843316039671      -0.453891013848     0.130177963743      0.226432060124      
10000000000.0       0.132357644622      0.227842524781      0.84058894688       -0.457615191039     0.84058894688       -0.457615191039     0.132357644622      0.227842524781      
