# Hz S RI R 50.00 
100000000.0         0.00277416645626    0.000914999431403   0.997217015547      -0.00403155168374   0.997217015547      -0.00403155168374   0.00277416645626    0.000914999431403   
200000000.0         0.00280229845696    0.00182975574825    0.997171343031      -0.00806288769208   0.997171343031      -0.00806288769208   0.00280229845696    0.00182975574825    
300000000.0         0.0028329716529     0.00274427653402    0.997113405759      -0.0120940285382    0.997113405759      -0.0120940285382    0.0028329716529     0.00274427653402    
400000000.0         0.00286858406012    0.00365852280224    0.997040804372      -0.0161249401058    0.997040804372      -0.0161249401058    0.00286858406012    0.00365852280224    
500000000.0         0.00291005730154    0.0045724451695     0.996952615642      -0.0201555737752    0.996952615642      -0.0201555737752    0.00291005730154    0.0045724451695     
600000000.0         0.00295785969325    0.00548598985135    0.996848369415      -0.0241858738118    0.996848369415      -0.0241858738118    0.00295785969325    0.00548598985135    
700000000.0         0.00301226623992    0.00639910078163    0.99672778864       -0.0282157801983    0.99672778864       -0.0282157801983    0.00301226623992    0.00639910078163    
800000000.0         0.00307345349421    0.00731172057963    0.99659069453       -0.0322452300294    0.99659069453       -0.0322452300294    0.00307345349421    0.00731172057963    
900000000.0         0.00314154177944    0.00822379106119    0.996436964349      -0.0362741583063    0.996436964349      -0.0362741583063    0.00314154177944    0.00822379106119    
1000000000.0        0.00321661658444    0.00913525353621    0.996266510034      -0.040302498433     0.996266510034      -0.040302498433     0.00321661658444    0.00913525353621    
1100000000.0        0.00329874045301    0.0100460489945     0.996079266315      -0.0443301825505    0.996079266315      -0.0443301825505    0.00329874045301    0.0100460489945     
1200000000.0        0.00338796006637    0.0109561182286     0.995875183643      -0.0483571417718    0.995875183643      -0.0483571417718    0.00338796006637    0.0109561182286     
1300000000.0        0.00348431069797    0.0118654019174     0.995654223742      -0.0523833063561    0.995654223742      -0.0523833063561    0.00348431069797    0.0118654019174     
1400000000.0        0.00358781914089    0.0127738406871     0.99541635669       -0.0564086058403    0.99541635669       -0.0564086058403    0.00358781914089    0.0127738406871     
1500000000.0        0.00369850570236    0.0136813751543     0.995161558935      -0.0604329691427    0.995161558935      -0.0604329691427    0.00369850570236    0.0136813751543     
1600000000.0        0.00381638560441    0.0145879459601     0.994889811895      -0.0644563246456    0.994889811895      -0.0644563246456    0.00381638560441    0.0145879459601     
1700000000.0        0.00394146999324    0.015493493795      0.994601100957      -0.068478600263     0.994601100957      -0.068478600263     0.00394146999324    0.015493493795      
1800000000.0        0.00407376668308    0.0163979594195     0.994295414741      -0.0724997234966    0.994295414741      -0.0724997234966    0.00407376668308    0.0163979594195     
1900000000.0        0.00421328071506    0.0173012836798     0.993972744544      -0.0765196214832    0.993972744544      -0.0765196214832    0.00421328071506    0.0173012836798     
2000000000.0        0.00436001478439    0.0182034075215     0.993633083916      -0.0805382210355    0.993633083916      -0.0805382210355    0.00436001478439    0.0182034075215     
2100000000.0        0.00451396957198    0.0191042720005     0.993276428336      -0.0845554486767    0.993276428336      -0.0845554486767    0.00451396957198    0.0191042720005     
2200000000.0        0.00467514400529    0.0200038182917     0.992902774954      -0.0885712306715    0.992902774954      -0.0885712306715    0.00467514400529    0.0200038182917     
2300000000.0        0.00484353546621    0.0209019876977     0.992512122388      -0.0925854930527    0.992512122388      -0.0925854930527    0.00484353546621    0.0209019876977     
2400000000.0        0.00501913995843    0.0217987216555     0.992104470558      -0.0965981616458    0.992104470558      -0.0965981616458    0.00501913995843    0.0217987216555     
2500000000.0        0.00520195224376    0.0226939617422     0.991679820555      -0.10060916209      0.991679820555      -0.10060916209      0.00520195224376    0.0226939617422     
2600000000.0        0.00539196595407    0.0235876496812     0.991238174534      -0.104618419859     0.991238174534      -0.104618419859     0.00539196595407    0.0235876496812     
2700000000.0        0.00558917368406    0.0244797273465     0.990779535622      -0.108625860276     0.990779535622      -0.108625860276     0.00558917368406    0.0244797273465     
2800000000.0        0.00579356706889    0.0253701367677     0.990303907842      -0.112631408533     0.990303907842      -0.112631408533     0.00579356706889    0.0253701367677     
2900000000.0        0.00600513684937    0.0262588201338     0.989811296057      -0.116634989705     0.989811296057      -0.116634989705     0.00600513684937    0.0262588201338     
3000000000.0        0.00622387292741    0.0271457197974     0.989301705911      -0.120636528762     0.989301705911      -0.120636528762     0.00622387292741    0.0271457197974     
3100000000.0        0.00644976441322    0.0280307782785     0.988775143786      -0.124635950584     0.988775143786      -0.124635950584     0.00644976441322    0.0280307782785     
3200000000.0        0.006682799666      0.0289139382677     0.988231616768      -0.128633179972     0.988231616768      -0.128633179972     0.006682799666      0.0289139382677     
3300000000.0        0.00692296632898    0.0297951426298     0.987671132607      -0.132628141659     0.987671132607      -0.132628141659     0.00692296632899    0.0297951426298     
3400000000.0        0.00717025136002    0.0306743344066     0.987093699698      -0.136620760323     0.987093699698      -0.136620760323     0.00717025136002    0.0306743344066     
3500000000.0        0.00742464105826    0.0315514568208     0.986499327047      -0.140610960591     0.986499327047      -0.140610960591     0.00742464105826    0.0315514568208     
3600000000.0        0.00768612108761    0.0324264532783     0.985888024257      -0.144598667057     0.985888024257      -0.144598667057     0.00768612108761    0.0324264532783     
3700000000.0        0.00795467649752    0.0332992673715     0.985259801507      -0.148583804284     0.985259801507      -0.148583804284     0.00795467649752    0.0332992673715     
3800000000.0        0.00823029174138    0.0341698428822     0.984614669535      -0.152566296814     0.984614669535      -0.152566296814     0.00823029174138    0.0341698428822     
3900000000.0        0.008512950693      0.0350381237843     0.983952639624      -0.15654606918      0.983952639624      -0.15654606918      0.008512950693      0.0350381237843     
4000000000.0        0.00880263666136    0.0359040542466     0.983273723588      -0.160523045909     0.983273723588      -0.160523045909     0.00880263666136    0.0359040542466     
4100000000.0        0.0090993324039     0.0367675786356     0.982577933764      -0.164497151531     0.982577933764      -0.164497151531     0.0090993324039     0.0367675786356     
4200000000.0        0.00940302013861    0.0376286415184     0.981865282998      -0.168468310587     0.981865282998      -0.168468310587     0.00940302013861    0.0376286415184     
4300000000.0        0.00971368155493    0.038487187665      0.981135784638      -0.172436447637     0.981135784638      -0.172436447637     0.00971368155493    0.038487187665      
4400000000.0        0.0100312978238     0.0393431620514     0.980389452525      -0.176401487264     0.980389452525      -0.176401487264     0.0100312978238     0.0393431620514     
4500000000.0        0.010355849607      0.0401965098616     0.979626300984      -0.180363354082     0.979626300984      -0.180363354082     0.010355849607      0.0401965098616     
4600000000.0        0.0106873170651     0.0410471764911     0.978846344822      -0.18432197274      0.978846344822      -0.18432197274      0.0106873170651     0.0410471764911     
4700000000.0        0.011025679866      0.0418951075488     0.978049599314      -0.188277267932     0.978049599314      -0.188277267932     0.011025679866      0.0418951075488     
4800000000.0        0.0113709171918     0.0427402488597     0.977236080206      -0.192229164401     0.977236080206      -0.192229164401     0.0113709171918     0.0427402488597     
4900000000.0        0.0117230077455     0.0435825464678     0.976405803701      -0.196177586943     0.976405803701      -0.196177586943     0.0117230077455     0.0435825464678     
5000000000.0        0.0120819297578     0.0444219466383     0.975558786462      -0.200122460414     0.975558786462      -0.200122460414     0.0120819297578     0.0444219466383     
5100000000.0        0.0124476609924     0.0452583958604     0.974695045601      -0.204063709737     0.974695045601      -0.204063709737     0.0124476609924     0.0452583958604     
5200000000.0        0.0128201787526     0.0460918408495     0.973814598679      -0.208001259904     0.973814598679      -0.208001259904     0.0128201787526     0.0460918408495     
5300000000.0        0.0131994598856     0.0469222285501     0.972917463699      -0.211935035983     0.972917463699      -0.211935035983     0.0131994598856     0.0469222285501     
5400000000.0        0.0135854807882     0.0477495061381     0.972003659105      -0.215864963123     0.972003659105      -0.215864963123     0.0135854807882     0.0477495061381     
5500000000.0        0.0139782174118     0.0485736210233     0.971073203776      -0.219790966559     0.971073203776      -0.219790966559     0.0139782174118     0.0485736210233     
5600000000.0        0.0143776452663     0.0493945208518     0.970126117025      -0.223712971614     0.970126117025      -0.223712971614     0.0143776452663     0.0493945208518     
5700000000.0        0.0147837394254     0.0502121535088     0.969162418592      -0.227630903709     0.969162418592      -0.227630903709     0.0147837394254     0.0502121535088     
5800000000.0        0.01519647453       0.0510264671208     0.968182128646      -0.231544688363     0.968182128646      -0.231544688363     0.01519647453       0.0510264671208     
5900000000.0        0.0156158247931     0.0518374100579     0.967185267776      -0.235454251198     0.967185267776      -0.235454251198     0.0156158247931     0.0518374100579     
6000000000.0        0.0160417640034     0.0526449309368     0.966171856995      -0.239359517947     0.966171856995      -0.239359517947     0.0160417640034     0.0526449309368     
6100000000.0        0.0164742655291     0.0534489786226     0.96514191773       -0.243260414452     0.96514191773       -0.243260414452     0.0164742655291     0.0534489786226     
6200000000.0        0.0169133023218     0.0542495022317     0.964095471826      -0.247156866674     0.964095471826      -0.247156866674     0.0169133023218     0.0542495022317     
6300000000.0        0.0173588469203     0.0550464511337     0.963032541538      -0.251048800695     0.963032541538      -0.251048800695     0.0173588469203     0.0550464511337     
6400000000.0        0.0178108714536     0.0558397749545     0.961953149533      -0.254936142722     0.961953149533      -0.254936142722     0.0178108714536     0.0558397749545     
6500000000.0        0.0182693476453     0.0566294235782     0.960857318881      -0.258818819089     0.960857318881      -0.258818819089     0.0182693476453     0.0566294235782     
6600000000.0        0.0187342468161     0.0574153471494     0.959745073062      -0.262696756264     0.959745073062      -0.262696756264     0.0187342468161     0.0574153471494     
6700000000.0        0.0192055398877     0.0581974960759     0.958616435955      -0.266569880853     0.958616435955      -0.266569880853     0.0192055398877     0.0581974960759     
6800000000.0        0.0196831973859     0.0589758210308     0.957471431839      -0.270438119599     0.957471431839      -0.270438119599     0.0196831973859     0.0589758210308     
6900000000.0        0.0201671894441     0.0597502729551     0.956310085392      -0.274301399393     0.956310085392      -0.274301399393     0.0201671894441     0.0597502729551     
7000000000.0        0.0206574858062     0.0605208030597     0.955132421686      -0.27815964727      0.955132421686      -0.27815964727      0.0206574858062     0.0605208030597     
7100000000.0        0.0211540558297     0.0612873628281     0.953938466188      -0.282012790419     0.953938466188      -0.282012790419     0.0211540558297     0.0612873628281     
7200000000.0        0.0216568684893     0.0620499040181     0.952728244754      -0.285860756181     0.952728244754      -0.285860756181     0.0216568684893     0.0620499040181     
7300000000.0        0.0221658923794     0.0628083786648     0.951501783627      -0.289703472058     0.951501783627      -0.289703472058     0.0221658923794     0.0628083786648     
7400000000.0        0.0226810957179     0.0635627390825     0.95025910944       -0.293540865712     0.95025910944       -0.293540865712     0.0226810957179     0.0635627390825     
7500000000.0        0.0232024463483     0.064312937867      0.949000249208      -0.29737286497      0.949000249208      -0.29737286497      0.0232024463483     0.064312937867      
7600000000.0        0.0237299117435     0.0650589278976     0.947725230327      -0.301199397828     0.947725230327      -0.301199397828     0.0237299117435     0.0650589278976     
7700000000.0        0.0242634590084     0.0658006623399     0.946434080573      -0.305020392451     0.946434080573      -0.305020392451     0.0242634590084     0.0658006623399     
7800000000.0        0.0248030548831     0.0665380946475     0.945126828101      -0.308835777182     0.945126828101      -0.308835777182     0.0248030548831     0.0665380946475     
7900000000.0        0.0253486657456     0.0672711785646     0.943803501439      -0.31264548054      0.943803501439      -0.31264548054      0.0253486657456     0.0672711785646     
8000000000.0        0.0259002576151     0.0679998681277     0.94246412949       -0.316449431224     0.94246412949       -0.316449431224     0.0259002576151     0.0679998681277     
8100000000.0        0.0264577961544     0.0687241176683     0.941108741525      -0.320247558119     0.941108741525      -0.320247558119     0.0264577961544     0.0687241176683     
8200000000.0        0.0270212466735     0.0694438818146     0.939737367185      -0.324039790294     0.939737367185      -0.324039790294     0.0270212466735     0.0694438818146     
8300000000.0        0.0275905741319     0.070159115494      0.938350036479      -0.327826057011     0.938350036479      -0.327826057011     0.0275905741319     0.070159115494      
8400000000.0        0.0281657431419     0.070869773935      0.936946779776      -0.331606287723     0.936946779776      -0.331606287723     0.0281657431419     0.070869773935      
8500000000.0        0.0287467179714     0.0715758126694     0.935527627812      -0.335380412078     0.935527627812      -0.335380412078     0.0287467179714     0.0715758126694     
8600000000.0        0.0293334625466     0.0722771875343     0.934092611678      -0.339148359924     0.934092611678      -0.339148359924     0.0293334625466     0.0722771875343     
8700000000.0        0.0299259404552     0.0729738546741     0.932641762826      -0.342910061308     0.932641762826      -0.342910061308     0.0299259404552     0.0729738546741     
8800000000.0        0.0305241149492     0.073665770543      0.93117511306       -0.346665446483     0.93117511306       -0.346665446483     0.0305241149492     0.073665770543      
8900000000.0        0.0311279489474     0.0743528919064     0.929692694539      -0.350414445908     0.929692694539      -0.350414445908     0.0311279489474     0.0743528919064     
9000000000.0        0.0317374050391     0.0750351758434     0.928194539772      -0.35415699025      0.928194539772      -0.35415699025      0.0317374050391     0.0750351758434     
9100000000.0        0.0323524454861     0.0757125797485     0.926680681617      -0.357893010389     0.926680681617      -0.357893010389     0.0323524454861     0.0757125797485     
9200000000.0        0.0329730322261     0.0763850613339     0.925151153277      -0.361622437419     0.925151153277      -0.361622437419     0.0329730322261     0.0763850613339     
9300000000.0        0.0335991268755     0.077052578631      0.923605988301      -0.365345202651     0.923605988301      -0.365345202651     0.0335991268755     0.077052578631      
9400000000.0        0.034230690732      0.0777150899928     0.922045220577      -0.369061237615     0.922045220577      -0.369061237615     0.034230690732      0.0777150899928     
9500000000.0        0.0348676847781     0.0783725540955     0.920468884334      -0.372770474064     0.920468884334      -0.372770474064     0.0348676847781     0.0783725540955     
9600000000.0        0.0355100696833     0.0790249299407     0.918877014137      -0.376472843973     0.918877014137      -0.376472843973     0.0355100696833     0.0790249299407     
9700000000.0        0.0361578058074     0.0796721768571     0.917269644888      -0.380168279546     0.917269644888      -0.380168279546     0.0361578058074     0.0796721768571     
9800000000.0        0.0368108532031     0.0803142545021     0.915646811818      -0.383856713214     0.915646811818      -0.383856713214     0.0368108532031     0.0803142545021     
9900000000.0        0.0374691716193     0.0809511228643     0.91400855049       -0.387538077641     0.91400855049       -0.387538077641     0.0374691716193     0.0809511228643     
10000000000.0       0.0381327205036     0.0815827422648     0.912354896795      -0.391212305722     0.912354896795      -0.391212305722     0.0381327205036     0.0815827422648     
