# Hz S RI R 50.00 
100000000.0         0.0201373430124     0.00214546092169    0.979851550127      -0.00578311992251   0.979851550127      -0.00578311992251   0.0201373430124     0.00214546092169    
200000000.0         0.0203049129495     0.00428848492833    0.979660548692      -0.0115637722607    0.979660548692      -0.0115637722607    0.0203049129495     0.00428848492833    
300000000.0         0.0204629705406     0.00642960183876    0.979465733366      -0.0173424750306    0.979465733366      -0.0173424750306    0.0204629705406     0.00642960183876    
400000000.0         0.0206286706755     0.0085687839206     0.979249947655      -0.0231191871609    0.979249947655      -0.0231191871609    0.0206286706755     0.0085687839206     
500000000.0         0.0208086097693     0.0107058744595     0.979006593362      -0.028893737823     0.979006593362      -0.028893737823     0.0208086097693     0.0107058744595     
600000000.0         0.0210061393087     0.0128406600286     0.978732316993      -0.0346658989648    0.978732316993      -0.0346658989648    0.0210061393087     0.0128406600286     
700000000.0         0.0212232255049     0.0149728964358     0.978425150074      -0.0404354113915    0.978425150074      -0.0404354113915    0.0212232255049     0.0149728964358     
800000000.0         0.0214611281371     0.0171023207701     0.9780838303        -0.0462019968905    0.9780838303        -0.0462019968905    0.0214611281371     0.0171023207701     
900000000.0         0.0217207028559     0.01922865789       0.977707499222      -0.0519653647702    0.977707499222      -0.0519653647702    0.0217207028559     0.01922865789       
1000000000.0        0.0220025544356     0.0213516242846     0.977295548988      -0.0577252157554    0.977295548988      -0.0577252157554    0.0220025544356     0.0213516242846     
1100000000.0        0.0223071219773     0.0234709305457     0.976847537139      -0.0634812444849    0.976847537139      -0.0634812444849    0.0223071219773     0.0234709305457     
1200000000.0        0.0226347296873     0.0255862830426     0.976363135827      -0.0692331412033    0.976363135827      -0.0692331412033    0.0226347296873     0.0255862830426     
1300000000.0        0.0229856188312     0.0276973851095     0.975842099861      -0.0749805929629    0.975842099861      -0.0749805929629    0.0229856188312     0.0276973851095     
1400000000.0        0.0233599687433     0.0298039379208     0.975284245699      -0.0807232845086    0.975284245699      -0.0807232845086    0.0233599687433     0.0298039379208     
1500000000.0        0.0237579111495     0.0319056411569     0.974689437117      -0.0864608989519    0.974689437117      -0.0864608989519    0.0237579111495     0.0319056411569     
1600000000.0        0.0241795402327     0.0340021935256     0.974057575151      -0.0921931182981    0.974057575151      -0.0921931182981    0.0241795402327     0.0340021935256     
1700000000.0        0.024624919893      0.0360932931813     0.973388590835      -0.0979196238703    0.973388590835      -0.0979196238703    0.024624919893      0.0360932931813     
1800000000.0        0.0250940891028     0.0381786380685     0.972682439842      -0.103640096656     0.972682439842      -0.103640096656     0.0250940891028     0.0381786380685     
1900000000.0        0.0255870659374     0.0402579262101     0.971939098459      -0.1093542176       0.971939098459      -0.1093542176       0.0255870659374     0.0402579262101     
2000000000.0        0.0261038506596     0.0423308559536     0.971158560498      -0.115061667847     0.971158560498      -0.115061667847     0.0261038506596     0.0423308559536     
2100000000.0        0.0266444281201     0.0443971261838     0.970340834898      -0.120762128964     0.970340834898      -0.120762128964     0.0266444281201     0.0443971261838     
2200000000.0        0.0272087696511     0.0464564365104     0.969485943833      -0.12645528312      0.969485943833      -0.12645528312      0.0272087696511     0.0464564365104     
2300000000.0        0.0277968345793     0.0485084874354     0.968593921197      -0.132140813259     0.968593921197      -0.132140813259     0.0277968345793     0.0485084874354     
2400000000.0        0.0284085714505     0.0505529805032     0.96766481138       -0.137818403251     0.96766481138       -0.137818403251     0.0284085714505     0.0505529805032     
2500000000.0        0.0290439190309     0.0525896184385     0.966698668268      -0.143487738023     0.966698668268      -0.143487738023     0.0290439190309     0.0525896184385     
2600000000.0        0.0297028071348     0.0546181052715     0.965695554415      -0.149148503693     0.965695554415      -0.149148503693     0.0297028071348     0.0546181052715     
2700000000.0        0.0303851573161     0.0566381464555     0.964655540353      -0.154800387676     0.964655540353      -0.154800387676     0.0303851573161     0.0566381464555     
2800000000.0        0.0310908834505     0.0586494489754     0.963578704009      -0.160443078801     0.963578704009      -0.160443078801     0.0310908834505     0.0586494489754     
2900000000.0        0.0318198922311     0.06065172145       0.96246513021       -0.166076267409     0.96246513021       -0.166076267409     0.0318198922311     0.06065172145       
3000000000.0        0.0325720835936     0.0626446742282     0.961314910258      -0.171699645443     0.961314910258      -0.171699645443     0.0325720835936     0.0626446742282     
3100000000.0        0.0333473510839     0.0646280194806     0.960128141565      -0.177312906545     0.960128141565      -0.177312906545     0.0333473510839     0.0646280194806     
3200000000.0        0.0341455821794     0.0666014712866     0.958904927329      -0.182915746139     0.958904927329      -0.182915746139     0.0341455821794     0.0666014712866     
3300000000.0        0.0349666585711     0.0685647457166     0.957645376254      -0.18850786151      0.957645376254      -0.18850786151      0.0349666585711     0.0685647457166     
3400000000.0        0.035810456414      0.0705175609121     0.956349602299      -0.194088951884     0.956349602299      -0.194088951884     0.035810456414      0.0705175609121     
3500000000.0        0.036676846551      0.0724596371615     0.955017724457      -0.199658718499     0.955017724457      -0.199658718499     0.036676846551      0.0724596371615     
3600000000.0        0.0375656947138     0.074390696973      0.953649866552      -0.205216864682     0.953649866552      -0.205216864682     0.0375656947138     0.074390696973      
3700000000.0        0.0384768617059     0.0763104651459     0.952246157057      -0.210763095912     0.952246157057      -0.210763095912     0.0384768617059     0.0763104651459     
3800000000.0        0.0394102035689     0.0782186688377     0.950806728929      -0.216297119887     0.950806728929      -0.216297119887     0.0394102035689     0.0782186688377     
3900000000.0        0.0403655717364     0.0801150376301     0.949331719455      -0.221818646588     0.949331719455      -0.221818646588     0.0403655717364     0.0801150376301     
4000000000.0        0.0413428131751     0.0819993035923     0.94782127011       -0.227327388342     0.94782127011       -0.227327388342     0.0413428131751     0.0819993035923     
4100000000.0        0.0423417705179     0.0838712013422     0.946275526429      -0.232823059876     0.946275526429      -0.232823059876     0.0423417705179     0.0838712013422     
4200000000.0        0.043362282187      0.0857304681058     0.944694637878      -0.23830537838      0.944694637878      -0.23830537838      0.043362282187      0.0857304681058     
4300000000.0        0.0444041825109     0.0875768437745     0.943078757741      -0.243774063556     0.943078757741      -0.243774063556     0.0444041825109     0.0875768437745     
4400000000.0        0.0454673018351     0.0894100709604     0.941428043011      -0.249228837675     0.941428043011      -0.249228837675     0.0454673018351     0.0894100709604     
4500000000.0        0.046551466627      0.09122989505       0.939742654283      -0.254669425626     0.939742654283      -0.254669425626     0.046551466627      0.09122989505       
4600000000.0        0.0476564995769     0.0930360642566     0.938022755653      -0.260095554968     0.938022755653      -0.260095554968     0.0476564995769     0.0930360642566     
4700000000.0        0.0487822196947     0.09482832967       0.936268514625      -0.265506955973     0.936268514625      -0.265506955973     0.0487822196947     0.09482832967       
4800000000.0        0.0499284424031     0.0966064453054     0.934480102016      -0.270903361678     0.934480102016      -0.270903361678     0.0499284424031     0.0966064453054     
4900000000.0        0.0510949796278     0.0983701681504     0.932657691867      -0.276284507924     0.932657691867      -0.276284507924     0.0510949796278     0.0983701681504     
5000000000.0        0.0522816398853     0.10011925821       0.930801461355      -0.281650133402     0.930801461355      -0.281650133402     0.0522816398853     0.10011925821       
5100000000.0        0.0534882283684     0.101853478552      0.928911590708      -0.286999979691     0.928911590708      -0.286999979691     0.0534882283684     0.101853478552      
5200000000.0        0.0547145470292     0.103572595346      0.926988263123      -0.292333791301     0.926988263123      -0.292333791301     0.0547145470292     0.103572595346      
5300000000.0        0.0559603946611     0.105276377908      0.925031664687      -0.297651315709     0.925031664687      -0.297651315709     0.0559603946611     0.105276377908      
5400000000.0        0.057225566979      0.106964598737      0.923041984291      -0.302952303396     0.923041984291      -0.302952303396     0.057225566979      0.106964598737      
5500000000.0        0.0585098566974     0.108637033556      0.921019413558      -0.308236507882     0.921019413558      -0.308236507882     0.0585098566974     0.108637033556      
5600000000.0        0.0598130536086     0.110293461342      0.918964146764      -0.313503685758     0.918964146764      -0.313503685758     0.0598130536086     0.110293461342      
5700000000.0        0.0611349446588     0.111933664368      0.916876380761      -0.318753596719     0.916876380761      -0.318753596719     0.0611349446588     0.111933664368      
5800000000.0        0.0624753140235     0.113557428233      0.914756314904      -0.323986003596     0.914756314904      -0.323986003596     0.0624753140235     0.113557428233      
5900000000.0        0.0638339431824     0.115164541893      0.912604150974      -0.329200672383     0.912604150974      -0.329200672383     0.0638339431824     0.115164541893      
6000000000.0        0.0652106109928     0.116754797696      0.91042009311       -0.334397372265     0.91042009311       -0.334397372265     0.0652106109928     0.116754797696      
6100000000.0        0.0666050937633     0.118327991405      0.908204347729      -0.339575875643     0.908204347729      -0.339575875643     0.0666050937633     0.118327991405      
6200000000.0        0.0680171653256     0.11988392223       0.905957123462      -0.344735958162     0.905957123462      -0.344735958162     0.0680171653256     0.11988392223       
6300000000.0        0.069446597107      0.121422392854      0.903678631077      -0.349877398731     0.903678631077      -0.349877398731     0.069446597107      0.121422392854      
6400000000.0        0.0708931582011     0.122943209457      0.90136908341       -0.354999979546     0.90136908341       -0.354999979546     0.0708931582011     0.122943209457      
6500000000.0        0.0723566154393     0.12444618174       0.899028695295      -0.360103486112     0.899028695295      -0.360103486112     0.0723566154393     0.12444618174       
6600000000.0        0.0738367334603     0.125931122947      0.896657683496      -0.36518770726      0.896657683496      -0.36518770726      0.0738367334603     0.125931122947      
6700000000.0        0.0753332747809     0.127397849886      0.894256266634      -0.370252435165     0.894256266634      -0.370252435165     0.0753332747809     0.127397849886      
6800000000.0        0.0768459998644     0.128846182951      0.891824665122      -0.375297465363     0.891824665122      -0.375297465363     0.0768459998644     0.128846182951      
6900000000.0        0.0783746671904     0.130275946134      0.889363101093      -0.380322596768     0.889363101093      -0.380322596768     0.0783746671904     0.130275946134      
7000000000.0        0.0799190333229     0.131686967052      0.886871798335      -0.385327631681     0.886871798335      -0.385327631681     0.0799190333229     0.131686967052      
7100000000.0        0.0814788529785     0.133079076951      0.884350982224      -0.390312375807     0.884350982224      -0.390312375807     0.0814788529785     0.133079076951      
7200000000.0        0.0830538790943     0.134452110729      0.881800879653      -0.395276638263     0.881800879653      -0.395276638263     0.0830538790943     0.134452110729      
7300000000.0        0.084643862895      0.135805906948      0.87922171897       -0.400220231589     0.87922171897       -0.400220231589     0.084643862895      0.135805906948      
7400000000.0        0.08624855396       0.137140307841      0.876613729909      -0.405142971758     0.876613729909      -0.405142971758     0.08624855396       0.137140307841      
7500000000.0        0.08786770029       0.138455159327      0.873977143523      -0.410044678181     0.873977143523      -0.410044678181     0.08786770029       0.138455159327      
7600000000.0        0.0895010483726     0.13975031102       0.871312192124      -0.414925173712     0.871312192124      -0.414925173712     0.0895010483726     0.13975031102       
7700000000.0        0.0911483432487     0.141025616236      0.868619109213      -0.419784284656     0.868619109213      -0.419784284656     0.0911483432487     0.141025616236      
7800000000.0        0.0928093285771     0.142280931998      0.865898129414      -0.424621840771     0.865898129414      -0.424621840771     0.0928093285771     0.142280931998      
7900000000.0        0.0944837466997     0.143516119047      0.863149488418      -0.429437675269     0.863149488418      -0.429437675269     0.0944837466997     0.143516119047      
8000000000.0        0.096171338706      0.144731041841      0.860373422912      -0.434231624819     0.860373422912      -0.434231624819     0.096171338706      0.144731041841      
8100000000.0        0.0978718444964     0.145925568563      0.857570170518      -0.439003529544     0.857570170518      -0.439003529544     0.0978718444964     0.145925568563      
8200000000.0        0.0995850028466     0.147099571119      0.85473996973       -0.443753233024     0.85473996973       -0.443753233024     0.0995850028466     0.147099571119      
8300000000.0        0.10131055147       0.148252925142      0.851883059854      -0.448480582289     0.851883059854      -0.448480582289     0.10131055147       0.148252925142      
8400000000.0        0.103048227079      0.14938550999       0.848999680943      -0.453185427819     0.848999680943      -0.453185427819     0.103048227079      0.14938550999       
8500000000.0        0.104797765451      0.150497208748      0.846090073741      -0.457867623537     0.846090073741      -0.457867623537     0.104797765451      0.150497208748      
8600000000.0        0.106558901486      0.151587908221      0.843154479614      -0.462527026802     0.843154479614      -0.462527026802     0.106558901486      0.151587908221      
8700000000.0        0.108331369267      0.152657498934      0.840193140498      -0.467163498407     0.840193140498      -0.467163498407     0.108331369267      0.152657498934      
8800000000.0        0.110114902125      0.153705875128      0.837206298835      -0.471776902564     0.837206298835      -0.471776902564     0.110114902125      0.153705875128      
8900000000.0        0.111909232695      0.154732934751      0.834194197518      -0.476367106901     0.834194197518      -0.476367106901     0.111909232695      0.154732934751      
9000000000.0        0.113714092976      0.155738579457      0.831157079825      -0.480933982448     0.831157079825      -0.480933982448     0.113714092976      0.155738579457      
9100000000.0        0.115529214393      0.156722714592      0.828095189369      -0.485477403627     0.828095189369      -0.485477403627     0.115529214393      0.156722714592      
9200000000.0        0.117354327849      0.157685249192      0.825008770039      -0.489997248241     0.825008770039      -0.489997248241     0.117354327849      0.157685249192      
9300000000.0        0.11918916379       0.158626095968      0.82189806594       -0.494493397457     0.82189806594       -0.494493397457     0.11918916379       0.158626095968      
9400000000.0        0.121033452254      0.159545171299      0.818763321338      -0.498965735796     0.818763321338      -0.498965735796     0.121033452254      0.159545171299      
9500000000.0        0.122886922936      0.160442395221      0.815604780609      -0.503414151116     0.815604780609      -0.503414151116     0.122886922936      0.160442395221      
9600000000.0        0.124749305236      0.161317691412      0.81242268818       -0.507838534595     0.81242268818       -0.507838534595     0.124749305236      0.161317691412      
9700000000.0        0.12662032832       0.162170987182      0.809217288475      -0.512238780717     0.809217288475      -0.512238780717     0.12662032832       0.162170987182      
9800000000.0        0.128499721172      0.163002213455      0.805988825862      -0.516614787249     0.805988825862      -0.516614787249     0.128499721172      0.163002213455      
9900000000.0        0.130387212645      0.163811304759      0.802737544604      -0.520966455227     0.802737544604      -0.520966455227     0.130387212645      0.163811304759      
10000000000.0       0.132282531521      0.164598199208      0.799463688802      -0.525293688935     0.799463688802      -0.525293688935     0.132282531521      0.164598199208      
