# Hz S RI R 50.00 
100000000.0         -0.0002241444161    -0.0160825726001    0.999663792646      -0.0163834897662    0.999663792646      -0.0163834897662    -0.0002241444161    -0.0160825726001    
200000000.0         -0.00102966911133   -0.0321384663333    0.998857369215      -0.0327403299899    0.998857369215      -0.0327403299899    -0.00102966911133   -0.0321384663333    
300000000.0         -0.00235898347339   -0.0481422160435    0.997527258698      -0.0490450716381    0.997527258698      -0.0490450716381    -0.00235898347339   -0.0481422160435    
400000000.0         -0.00420784804436   -0.0640686366026    0.995677604066      -0.065272542219     0.995677604066      -0.065272542219     -0.00420784804436   -0.0640686366026    
500000000.0         -0.006570454846     -0.0798929488329    0.993314176256      -0.0813979734491    0.993314176256      -0.0813979734491    -0.006570454846     -0.0798929488329    
600000000.0         -0.00943945186596   -0.0955909033231    0.990444308431      -0.097397125664     0.990444308431      -0.097397125664     -0.00943945186596   -0.0955909033231    
700000000.0         -0.0128059943625    -0.111138899146     0.987076834205      -0.113246406838     0.987076834205      -0.113246406838     -0.0128059943625    -0.111138899146     
800000000.0         -0.0166598101509    -0.126514095931     0.983222018544      -0.128922984835     0.983222018544      -0.128922984835     -0.0166598101509    -0.126514095931     
900000000.0         -0.0209892756808    -0.141694518099     0.978891479997      -0.144404891766     0.978891479997      -0.144404891766     -0.0209892756808    -0.141694518099     
1000000000.0        -0.0257815012166    -0.156659150274     0.974098104658      -0.159671119477     0.974098104658      -0.159671119477     -0.0257815012166    -0.156659150274     
1100000000.0        -0.0310224237503    -0.171388023062     0.96885595278       -0.174701705395     0.96885595278       -0.174701705395     -0.0310224237503    -0.171388023062     
1200000000.0        -0.0366969063376    -0.185862288566     0.963180159151      -0.189477808092     0.963180159151      -0.189477808092     -0.0366969063376    -0.185862288566     
1300000000.0        -0.0427888425534    -0.200064285188     0.957086828471      -0.203981772117     0.957086828471      -0.203981772117     -0.0427888425534    -0.200064285188     
1400000000.0        -0.0492812647641    -0.213977591409     0.950592926952      -0.218197181814     0.950592926952      -0.218197181814     -0.0492812647641    -0.213977591409     
1500000000.0        -0.0561564549263    -0.22758706845      0.94371617145       -0.232108904002     0.94371617145       -0.232108904002     -0.0561564549263    -0.22758706845      
1600000000.0        -0.0633960566555    -0.240878891829     0.936474917336      -0.245703119558     0.936474917336      -0.245703119558     -0.0633960566555    -0.240878891829     
1700000000.0        -0.070981187353     -0.253840572028     0.92888804633       -0.2589673441       0.92888804633       -0.2589673441       -0.070981187353     -0.253840572028     
1800000000.0        -0.0788925492505    -0.266460964578     0.920974855429      -0.271890438086     0.920974855429      -0.271890438086     -0.0788925492505    -0.266460964578     
1900000000.0        -0.0871105383098    -0.278730270016     0.912754947984      -0.284462606788     0.912754947984      -0.284462606788     -0.0871105383098    -0.278730270016     
2000000000.0        -0.0956153500092    -0.290640024277     0.904248127897      -0.296675390693     0.904248127897      -0.296675390693     -0.0956153500092    -0.290640024277     
2100000000.0        -0.104387081154     -0.302183080167     0.895474297798      -0.308521646992     0.895474297798      -0.308521646992     -0.104387081154     -0.302183080167     
2200000000.0        -0.113405826954     -0.313353580631     0.88645336196       -0.319995522848     0.88645336196       -0.319995522848     -0.113405826954     -0.313353580631     
2300000000.0        -0.122651772732     -0.324146924598     0.877205134577      -0.331092421261     0.877205134577      -0.331092421261     -0.122651772732     -0.324146924598     
2400000000.0        -0.13210527973      -0.334559726212     0.867749253957      -0.341808960299     0.867749253957      -0.341808960299     -0.13210527973      -0.334559726212     
2500000000.0        -0.141746964616     -0.344589768293     0.858105103006      -0.352142926569     0.858105103006      -0.352142926569     -0.141746964616     -0.344589768293     
2600000000.0        -0.151557772379     -0.354235950854     0.848291736334      -0.362093223743     0.848291736334      -0.362093223743     -0.151557772379     -0.354235950854     
2700000000.0        -0.161519042421     -0.363498235521     0.838327814151      -0.371659816982     0.838327814151      -0.371659816982     -0.161519042421     -0.363498235521     
2800000000.0        -0.171612567763     -0.372377586672     0.828231543069      -0.380843674078     0.828231543069      -0.380843674078     -0.171612567763     -0.372377586672     
2900000000.0        -0.181820647337     -0.380875910059     0.818020623797      -0.389646704088     0.818020623797      -0.389646704088     -0.181820647337     -0.380875910059     
3000000000.0        -0.192126131474     -0.388995989684     0.807712205662      -0.39807169421      0.807712205662      -0.39807169421      -0.192126131474     -0.388995989684     
3100000000.0        -0.202512460707     -0.396741423605     0.797322847793      -0.406122245595     0.797322847793      -0.406122245595     -0.202512460707     -0.396741423605     
3200000000.0        -0.212963698129     -0.404116559327     0.786868486769      -0.413802708744     0.786868486769      -0.413802708744     -0.212963698129     -0.404116559327     
3300000000.0        -0.223464555561     -0.41112642936      0.776364410448      -0.421118119069     0.776364410448      -0.421118119069     -0.223464555561     -0.41112642936      
3400000000.0        -0.234000413843     -0.417776687482     0.765825237676      -0.428074133159     0.765825237676      -0.428074133159     -0.234000413843     -0.417776687482     
3500000000.0        -0.244557337598     -0.42407354617      0.75526490352       -0.434676966217     0.75526490352       -0.434676966217     -0.244557337598     -0.42407354617      
3600000000.0        -0.255122084832     -0.43002371561      0.744696649668      -0.440933331071     0.744696649668      -0.440933331071     -0.255122084832     -0.43002371561      
3700000000.0        -0.265682111778     -0.435634344632     0.734133019586      -0.446850379119     0.734133019586      -0.446850379119     -0.265682111778     -0.435634344632     
3800000000.0        -0.276225573359     -0.440912963881     0.723585858051      -0.452435643491     0.723585858051      -0.452435643491     -0.276225573359     -0.440912963881     
3900000000.0        -0.286741319695     -0.445867431438     0.713066314648      -0.457696984687     0.713066314648      -0.457696984687     -0.286741319695     -0.445867431438     
4000000000.0        -0.297218889046     -0.450505881103     0.702584850822      -0.462642538853     0.702584850822      -0.462642538853     -0.297218889046     -0.450505881103     
4100000000.0        -0.307648497585     -0.454836673464     0.692151250108      -0.467280668857     0.692151250108      -0.467280668857     -0.307648497585     -0.454836673464     
4200000000.0        -0.318021026389     -0.458868349865     0.681774631137      -0.471619918261     0.681774631137      -0.471619918261     -0.318021026389     -0.458868349865     
4300000000.0        -0.328328006016     -0.462609589316     0.671463463065      -0.475668968229     0.671463463065      -0.475668968229     -0.328328006016     -0.462609589316     
4400000000.0        -0.338561599009     -0.466069168383     0.661225583058      -0.479436597425     0.661225583058      -0.479436597425     -0.338561599009     -0.466069168383     
4500000000.0        -0.348714580681     -0.469255924038     0.651068215516      -0.48293164486      0.651068215516      -0.48293164486      -0.348714580681     -0.469255924038     
4600000000.0        -0.35878031846      -0.47217871944      0.640997992723      -0.486162975682     0.640997992723      -0.486162975682     -0.35878031846      -0.47217871944      
4700000000.0        -0.368752750115     -0.474846412594     0.631020976626      -0.489139449831     0.631020976626      -0.489139449831     -0.368752750115     -0.474846412594     
4800000000.0        -0.378626361098     -0.477267827795     0.621142681483      -0.491869893487     0.621142681483      -0.491869893487     -0.378626361098     -0.477267827795     
4900000000.0        -0.388396161269     -0.479451729781     0.61136809715       -0.494363073228     0.61136809715       -0.494363073228     -0.388396161269     -0.479451729781     
5000000000.0        -0.398057661204     -0.481406800471     0.601701712764      -0.496627672767     0.601701712764      -0.496627672767     -0.398057661204     -0.481406800471     
5100000000.0        -0.407606848299     -0.483141618194     0.592147540642      -0.498672272181     0.592147540642      -0.498672272181     -0.407606848299     -0.483141618194     
5200000000.0        -0.417040162832     -0.484664639249     0.58270914022       -0.500505329481     0.58270914022       -0.500505329481     -0.417040162832     -0.484664639249     
5300000000.0        -0.42635447415      -0.485984181712     0.573389641863      -0.502135164409     0.573389641863      -0.502135164409     -0.42635447415      -0.485984181712     
5400000000.0        -0.435547057114     -0.487108411311     0.564191770425      -0.503569944329     0.564191770425      -0.503569944329     -0.435547057114     -0.487108411311     
5500000000.0        -0.444615568907     -0.488045329276     0.555117868433      -0.504817672063     0.555117868433      -0.504817672063     -0.444615568907     -0.488045329276     
5600000000.0        -0.453558026328     -0.488802761996     0.5461699188        -0.505886175562     0.5461699188        -0.505886175562     -0.453558026328     -0.488802761996     
5700000000.0        -0.462372783637     -0.489388352379     0.537349566977      -0.506783099262     0.537349566977      -0.506783099262     -0.462372783637     -0.489388352379     
5800000000.0        -0.471058511035     -0.489809552764     0.528658142473      -0.507515897        0.528658142473      -0.507515897        -0.471058511035     -0.489809552764     
5900000000.0        -0.479614173821     -0.490073619279     0.5200966797        -0.50809182637      0.5200966797        -0.50809182637      -0.479614173821     -0.490073619279     
6000000000.0        -0.488039012287     -0.490187607502     0.511665938074      -0.508517944387     0.511665938074      -0.508517944387     -0.488039012287     -0.490187607502     
6100000000.0        -0.496332522374     -0.490158369327     0.503366421363      -0.508801104359     0.503366421363      -0.508801104359     -0.496332522374     -0.490158369327     
6200000000.0        -0.504494437114     -0.489992550919     0.495198396241      -0.508947953836     0.495198396241      -0.508947953836     -0.504494437114     -0.489992550919     
6300000000.0        -0.512524708884     -0.489696591646     0.487161910037      -0.508964933545     0.487161910037      -0.508964933545     -0.512524708884     -0.489696591646     
6400000000.0        -0.520423492463     -0.489276723892     0.479256807681      -0.50885827721      0.479256807681      -0.50885827721      -0.520423492463     -0.489276723892     
6500000000.0        -0.528191128906     -0.488738973668     0.471482747819      -0.508634012158     0.471482747819      -0.508634012158     -0.528191128906     -0.488738973668     
6600000000.0        -0.53582813023      -0.488089161912     0.463839218139      -0.50829796062      0.463839218139      -0.50829796062      -0.53582813023      -0.488089161912     
6700000000.0        -0.543335164896     -0.487332906418     0.456325549881      -0.507855741668     0.456325549881      -0.507855741668     -0.543335164896     -0.487332906418     
6800000000.0        -0.550713044081     -0.486475624304     0.448940931573      -0.507312773675     0.448940931573      -0.507312773675     -0.550713044081     -0.486475624304     
6900000000.0        -0.557962708713     -0.485522534952     0.441684421985      -0.506674277263     0.441684421985      -0.506674277263     -0.557962708713     -0.485522534952     
7000000000.0        -0.565085217267     -0.484478663363     0.434554962343      -0.505945278656     0.434554962343      -0.505945278656     -0.565085217267     -0.484478663363     
7100000000.0        -0.572081734275     -0.483348843853     0.427551387812      -0.505130613377     0.427551387812      -0.505130613377     -0.572081734275     -0.483348843853     
7200000000.0        -0.578953519551     -0.482137724051     0.420672438275      -0.504234930248     0.420672438275      -0.504234930248     -0.578953519551     -0.482137724051     
7300000000.0        -0.585701918089     -0.480849769136     0.413916768436      -0.503262695625     0.413916768436      -0.503262695625     -0.585701918089     -0.480849769136     
7400000000.0        -0.59232835061      -0.479489266275     0.407282957267      -0.502218197843     0.407282957267      -0.502218197843     -0.59232835061      -0.479489266275     
7500000000.0        -0.598834304742     -0.478060329225     0.400769516835      -0.501105551813     0.400769516835      -0.501105551813     -0.598834304742     -0.478060329225     
7600000000.0        -0.605221326788     -0.476566903051     0.394374900529      -0.499928703743     0.394374900529      -0.499928703743     -0.605221326788     -0.476566903051     
7700000000.0        -0.611491014069     -0.475012768933     0.388097510718      -0.498691435946     0.388097510718      -0.498691435946     -0.611491014069     -0.475012768933     
7800000000.0        -0.617645007806     -0.473401549036     0.381935705872      -0.49739737171      0.381935705872      -0.49739737171      -0.617645007806     -0.473401549036     
7900000000.0        -0.623684986522     -0.47173671141      0.375887807157      -0.496049980201     0.375887807157      -0.496049980201     -0.623684986522     -0.47173671141      
8000000000.0        -0.629612659923     -0.470021574898     0.369952104555      -0.494652581368     0.369952104555      -0.494652581368     -0.629612659923     -0.470021574898     
8100000000.0        -0.635429763246     -0.468259314033     0.364126862512      -0.493208350844     0.364126862512      -0.493208350844     -0.635429763246     -0.468259314033     
8200000000.0        -0.641138052047     -0.466452963906     0.358410325159      -0.491720324812     0.358410325159      -0.491720324812     -0.641138052047     -0.466452963906     
8300000000.0        -0.646739297391     -0.464605424986     0.352800721114      -0.490191404829     0.352800721114      -0.490191404829     -0.646739297391     -0.464605424986     
8400000000.0        -0.652235281431     -0.462719467882     0.347296267904      -0.488624362585     0.347296267904      -0.488624362585     -0.652235281431     -0.462719467882     
8500000000.0        -0.657627793361     -0.460797738032     0.341895176019      -0.487021844597     0.341895176019      -0.487021844597     -0.657627793361     -0.460797738032     
8600000000.0        -0.662918625693     -0.458842760309     0.336595652621      -0.48538637681      0.336595652621      -0.48538637681      -0.662918625693     -0.458842760309     
8700000000.0        -0.668109570872     -0.45685694354      0.331395904946      -0.48372036912      0.331395904946      -0.48372036912      -0.668109570872     -0.45685694354      
8800000000.0        -0.673202418175     -0.454842584924     0.326294143391      -0.482026119793     0.326294143391      -0.482026119793     -0.673202418175     -0.454842584924     
8900000000.0        -0.678198950904     -0.452801874345     0.321288584331      -0.480305819779     0.321288584331      -0.480305819779     -0.678198950904     -0.452801874345     
9000000000.0        -0.683100943827     -0.450736898586     0.316377452667      -0.47856155692      0.316377452667      -0.47856155692      -0.683100943827     -0.450736898586     
9100000000.0        -0.687910160876     -0.448649645415     0.311558984142      -0.47679532005      0.311558984142      -0.47679532005      -0.687910160876     -0.448649645415     
9200000000.0        -0.692628353062     -0.446542007576     0.306831427412      -0.475009002969     0.306831427412      -0.475009002969     -0.692628353062     -0.446542007576     
9300000000.0        -0.697257256608     -0.444415786646     0.302193045924      -0.473204408317     0.302193045924      -0.473204408317     -0.697257256608     -0.444415786646     
9400000000.0        -0.701798591272     -0.442272696787     0.297642119585      -0.471383251314     0.297642119585      -0.471383251314     -0.701798591272     -0.442272696787     
9500000000.0        -0.706254058862     -0.440114368371     0.293176946253      -0.469547163393     0.293176946253      -0.469547163393     -0.706254058862     -0.440114368371     
9600000000.0        -0.710625341908     -0.437942351492     0.288795843059      -0.467697695712     0.288795843059      -0.467697695712     -0.710625341908     -0.437942351492     
9700000000.0        -0.714914102503     -0.435758119363     0.284497147574      -0.465836322544     0.284497147574      -0.465836322544     -0.714914102503     -0.435758119363     
9800000000.0        -0.719121981274     -0.433563071587     0.280279218829      -0.463964444557     0.280279218829      -0.463964444557     -0.719121981274     -0.433563071587     
9900000000.0        -0.723250596504     -0.431358537322     0.2761404382        -0.462083391977     0.2761404382        -0.462083391977     -0.723250596504     -0.431358537322     
10000000000.0       -0.72730154336      -0.429145778328     0.272079210176      -0.460194427633     0.272079210176      -0.460194427633     -0.72730154336      -0.429145778328     
