# Hz S RI R 50.00 
100000000.0         0.0160622521565     0.000824138022424   0.983936425829      -0.00112214322634   0.983936425829      -0.00112214322634   0.0160622521565     0.000824138022424   
200000000.0         0.0161689155574     0.00164786073241    0.983829351113      -0.00224387263235   0.983829351113      -0.00224387263235   0.0161689155574     0.00164786073241    
300000000.0         0.0162490883117     0.00247133211993    0.983748677736      -0.00336535308792   0.983748677736      -0.00336535308792   0.0162490883117     0.00247133211993    
400000000.0         0.0163165895803     0.00329460653073    0.983680586528      -0.00448663963217   0.983680586528      -0.00448663963217   0.0163165895803     0.00329460653073    
500000000.0         0.0163767574048     0.00411771273452    0.983619739439      -0.00560776163492   0.983619739439      -0.00560776163492   0.0163767574048     0.00411771273452    
600000000.0         0.0164323220499     0.00494066814765    0.983563406199      -0.00672873705197   0.983563406199      -0.00672873705197   0.0164323220499     0.00494066814765    
700000000.0         0.0164849009754     0.00576348394713    0.983509969339      -0.00784957755581   0.983509969339      -0.00784957755581   0.0164849009754     0.00576348394713    
800000000.0         0.0165355450977     0.00658616744483    0.983458377935      -0.00897029091966   0.983458377935      -0.00897029091966   0.0165355450977     0.00658616744483    
900000000.0         0.0165849822908     0.0074087233636     0.983407904104      -0.0100908823002    0.983407904104      -0.0100908823002    0.0165849822908     0.0074087233636     
1000000000.0        0.0166337409512     0.00823115459333    0.983358019441      -0.011211354998     0.983358019441      -0.011211354998     0.0166337409512     0.00823115459333    
1100000000.0        0.0166822187619     0.0090534626714     0.983308326256      -0.0123317109418    0.983308326256      -0.0123317109418    0.0166822187619     0.0090534626714     
1200000000.0        0.0167307237124     0.00987564810447    0.983258516548      -0.0134519510121    0.983258516548      -0.0134519510121    0.0167307237124     0.00987564810447    
1300000000.0        0.0167794999353     0.0106977105933     0.983208346176      -0.0145720752688    0.983208346176      -0.0145720752688    0.0167794999353     0.0106977105933     
1400000000.0        0.0168287447068     0.0115196491951     0.983157617853      -0.0156920831147    0.983157617853      -0.0156920831147    0.0168287447068     0.0115196491951     
1500000000.0        0.0168786200439     0.0123414624443     0.983106169554      -0.0168119734175    0.983106169554      -0.0168119734175    0.0168786200439     0.0123414624443     
1600000000.0        0.0169292608589     0.0131631484439     0.983053866354      -0.0179317446028    0.983053866354      -0.0179317446028    0.0169292608589     0.0131631484439     
1700000000.0        0.0169807808419     0.0139847049367     0.983000594553      -0.0190513947256    0.983000594553      -0.0190513947256    0.0169807808419     0.0139847049367     
1800000000.0        0.0170332768        0.0148061293616     0.982946257333      -0.0201709215278    0.982946257333      -0.0201709215278    0.0170332768        0.0148061293616     
1900000000.0        0.0170868319204     0.0156274188981     0.982890771496      -0.0212903224832    0.982890771496      -0.0212903224832    0.0170868319204     0.0156274188981     
2000000000.0        0.017141518266      0.0164485705031     0.982834064967      -0.0224095948349    0.982834064967      -0.0224095948349    0.017141518266      0.0164485705031     
2100000000.0        0.0171973987139     0.0172695809404     0.982776074857      -0.0235287356256    0.982776074857      -0.0235287356256    0.0171973987139     0.0172695809404     
2200000000.0        0.0172545284799     0.0180904468058     0.982716745938      -0.0246477417228    0.982716745938      -0.0246477417228    0.0172545284799     0.0180904468058     
2300000000.0        0.0173129563341     0.0189111645479     0.982656029428      -0.02576660984      0.982656029428      -0.02576660984      0.0173129563341     0.0189111645479     
2400000000.0        0.0173727255786     0.0197317304852     0.982593882011      -0.0268853365546    0.982593882011      -0.0268853365546    0.0173727255786     0.0197317304852     
2500000000.0        0.0174338748431     0.0205521408218     0.982530265046      -0.0280039183233    0.982530265046      -0.0280039183233    0.0174338748431     0.0205521408218     
2600000000.0        0.0174964387383     0.0213723916592     0.982465143907      -0.0291223514947    0.982465143907      -0.0291223514947    0.0174964387383     0.0213723916592     
2700000000.0        0.0175604483957     0.0221924790082     0.982398487451      -0.0302406323213    0.982398487451      -0.0302406323213    0.0175604483957     0.0221924790082     
2800000000.0        0.017625931918      0.0230123987979     0.982330267561      -0.0313587569687    0.982330267561      -0.0313587569687    0.017625931918      0.0230123987979     
2900000000.0        0.0176929147573     0.0238321468843     0.982260458771      -0.0324767215245    0.982260458771      -0.0324767215245    0.0176929147573     0.0238321468843     
3000000000.0        0.017761420035      0.0246517190575     0.982189037945      -0.0335945220056    0.982189037945      -0.0335945220056    0.017761420035      0.0246517190575     
3100000000.0        0.0178314688128     0.0254711110482     0.982115984006      -0.034712154365     0.982115984006      -0.034712154365     0.0178314688128     0.0254711110482     
3200000000.0        0.0179030803254     0.0262903185334     0.982041277707      -0.0358296144976    0.982041277707      -0.0358296144976    0.0179030803254     0.0262903185334     
3300000000.0        0.0179762721799     0.0271093371415     0.981964901423      -0.0369468982454    0.981964901423      -0.0369468982454    0.0179762721799     0.0271093371415     
3400000000.0        0.0180510605283     0.0279281624566     0.98188683899       -0.0380640014024    0.98188683899       -0.0380640014024    0.0180510605283     0.0279281624566     
3500000000.0        0.0181274602167     0.0287467900229     0.981807075544      -0.0391809197182    0.981807075544      -0.0391809197182    0.0181274602167     0.0287467900229     
3600000000.0        0.0182054849158     0.0295652153481     0.9817255974        -0.0402976489025    0.9817255974        -0.0402976489025    0.0182054849158     0.0295652153481     
3700000000.0        0.0182851472349     0.0303834339064     0.981642391932      -0.041414184628     0.981642391932      -0.041414184628     0.0182851472349     0.0303834339064     
3800000000.0        0.0183664588216     0.0312014411422     0.981557447477      -0.0425305225336    0.981557447477      -0.0425305225336    0.0183664588216     0.0312014411422     
3900000000.0        0.0184494304502     0.0320192324721     0.981470753245      -0.0436466582271    0.981470753245      -0.0436466582271    0.0184494304502     0.0320192324721     
4000000000.0        0.0185340720999     0.0328368032875     0.981382299239      -0.0447625872879    0.981382299239      -0.0447625872879    0.0185340720999     0.0328368032875     
4100000000.0        0.0186203930235     0.033654148957      0.98129207619       -0.0458783052693    0.98129207619       -0.0458783052693    0.0186203930235     0.033654148957      
4200000000.0        0.018708401809      0.0344712648283     0.981200075494      -0.0469938077003    0.981200075494      -0.0469938077003    0.018708401809      0.0344712648283     
4300000000.0        0.0187981064349     0.03528814623       0.981106289154      -0.0481090900882    0.981106289154      -0.0481090900882    0.0187981064349     0.03528814623       
4400000000.0        0.0188895143189     0.0361047884735     0.981010709736      -0.0492241479195    0.981010709736      -0.0492241479195    0.0188895143189     0.0361047884735     
4500000000.0        0.0189826323622     0.0369211868542     0.980913330322      -0.0503389766622    0.980913330322      -0.0503389766622    0.0189826323622     0.0369211868542     
4600000000.0        0.0190774669892     0.0377373366533     0.980814144468      -0.0514535717673    0.980814144468      -0.0514535717673    0.0190774669892     0.0377373366533     
4700000000.0        0.019174024183      0.038553233139      0.980713146175      -0.0525679286698    0.980713146175      -0.0525679286698    0.019174024183      0.038553233139      
4800000000.0        0.0192723095181     0.0393688715678     0.980610329849      -0.0536820427902    0.980610329849      -0.0536820427902    0.0192723095181     0.0393688715678     
4900000000.0        0.0193723281892     0.0401842471853     0.980505690278      -0.0547959095357    0.980505690278      -0.0547959095357    0.0193723281892     0.0401842471853     
5000000000.0        0.0194740850382     0.0409993552279     0.980399222602      -0.0559095243016    0.980399222602      -0.0559095243016    0.0194740850382     0.0409993552279     
5100000000.0        0.0195775845778     0.041814190923      0.980290922289      -0.0570228824717    0.980290922289      -0.0570228824717    0.0195775845778     0.041814190923      
5200000000.0        0.0196828310142     0.0426287494908     0.980180785115      -0.0581359794199    0.980180785115      -0.0581359794199    0.0196828310142     0.0426287494908     
5300000000.0        0.0197898282665     0.0434430261442     0.980068807141      -0.0592488105108    0.980068807141      -0.0592488105108    0.0197898282665     0.0434430261442     
5400000000.0        0.0198985799855     0.0442570160904     0.979954984697      -0.0603613711005    0.979954984697      -0.0603613711005    0.0198985799855     0.0442570160904     
5500000000.0        0.0200090895704     0.0450707145312     0.979839314366      -0.0614736565377    0.979839314366      -0.0614736565377    0.0200090895704     0.0450707145312     
5600000000.0        0.020121360184      0.045884116664      0.979721792964      -0.062585662164     0.979721792964      -0.062585662164     0.020121360184      0.045884116664      
5700000000.0        0.0202353947675     0.046697217682      0.979602417532      -0.0636973833151    0.979602417532      -0.0636973833151    0.0202353947675     0.046697217682      
5800000000.0        0.0203511960527     0.0475100127754     0.979481185317      -0.0648088153209    0.979481185317      -0.0648088153209    0.0203511960527     0.0475100127754     
5900000000.0        0.0204687665746     0.0483224971315     0.979358093765      -0.0659199535068    0.979358093765      -0.0659199535068    0.0204687665746     0.0483224971315     
6000000000.0        0.0205881086825     0.0491346659355     0.979233140507      -0.0670307931935    0.979233140507      -0.0670307931935    0.0205881086825     0.0491346659355     
6100000000.0        0.02070922455       0.0499465143709     0.979106323348      -0.0681413296984    0.979106323348      -0.0681413296984    0.02070922455       0.0499465143709     
6200000000.0        0.0208321161846     0.0507580376202     0.978977640262      -0.0692515583353    0.978977640262      -0.0692515583353    0.0208321161846     0.0507580376202     
6300000000.0        0.0209567854366     0.051569230865      0.978847089377      -0.0703614744156    0.978847089377      -0.0703614744156    0.0209567854366     0.051569230865      
6400000000.0        0.0210832340072     0.0523800892868     0.978714668971      -0.0714710732483    0.978714668971      -0.0714710732483    0.0210832340072     0.0523800892868     
6500000000.0        0.021211463456      0.0531906080671     0.978580377464      -0.0725803501406    0.978580377464      -0.0725803501406    0.021211463456      0.0531906080671     
6600000000.0        0.021341475208      0.0540007823881     0.97844421341       -0.0736893003984    0.97844421341       -0.0736893003984    0.021341475208      0.0540007823881     
6700000000.0        0.0214732705607     0.0548106074329     0.978306175492      -0.0747979193266    0.978306175492      -0.0747979193266    0.0214732705607     0.0548106074329     
6800000000.0        0.0216068506894     0.0556200783857     0.978166262511      -0.0759062022294    0.978166262511      -0.0759062022294    0.0216068506894     0.0556200783857     
6900000000.0        0.0217422166535     0.0564291904325     0.978024473388      -0.0770141444111    0.978024473388      -0.0770141444111    0.0217422166535     0.0564291904325     
7000000000.0        0.0218793694018     0.0572379387611     0.977880807152      -0.0781217411759    0.977880807152      -0.0781217411759    0.0218793694018     0.0572379387611     
7100000000.0        0.0220183097772     0.0580463185617     0.977735262939      -0.0792289878283    0.977735262939      -0.0792289878283    0.0220183097772     0.0580463185617     
7200000000.0        0.0221590385215     0.0588543250268     0.977587839986      -0.0803358796741    0.977587839986      -0.0803358796741    0.0221590385215     0.0588543250268     
7300000000.0        0.02230155628       0.059661953352      0.977438537625      -0.0814424120196    0.977438537625      -0.0814424120196    0.02230155628       0.059661953352      
7400000000.0        0.0224458636053     0.0604691987357     0.977287355281      -0.0825485801729    0.977287355281      -0.0825485801729    0.0224458636053     0.0604691987357     
7500000000.0        0.0225919609612     0.0612760563798     0.97713429247       -0.0836543794435    0.97713429247       -0.0836543794435    0.0225919609612     0.0612760563798     
7600000000.0        0.0227398487266     0.0620825214897     0.976979348789      -0.0847598051431    0.976979348789      -0.0847598051431    0.0227398487266     0.0620825214897     
7700000000.0        0.0228895271986     0.0628885892746     0.976822523921      -0.0858648525853    0.976822523921      -0.0858648525853    0.0228895271986     0.0628885892746     
7800000000.0        0.0230409965957     0.0636942549478     0.976663817622      -0.0869695170863    0.976663817622      -0.0869695170863    0.0230409965957     0.0636942549478     
7900000000.0        0.023194257061      0.0644995137269     0.976503229729      -0.0880737939649    0.976503229729      -0.0880737939649    0.023194257061      0.0644995137269     
8000000000.0        0.0233493086651     0.0653043608337     0.976340760147      -0.0891776785428    0.976340760147      -0.0891776785428    0.0233493086651     0.0653043608337     
8100000000.0        0.0235061514083     0.0661087914949     0.976176408855      -0.0902811661449    0.976176408855      -0.0902811661449    0.0235061514083     0.0661087914949     
8200000000.0        0.0236647852239     0.066912800942      0.976010175894      -0.0913842520994    0.976010175894      -0.0913842520994    0.0236647852239     0.066912800942      
8300000000.0        0.0238252099798     0.0677163844116     0.975842061376      -0.0924869317378    0.975842061376      -0.0924869317378    0.0238252099798     0.0677163844116     
8400000000.0        0.0239874254814     0.0685195371454     0.975672065471      -0.0935892003957    0.975672065471      -0.0935892003957    0.0239874254814     0.0685195371454     
8500000000.0        0.0241514314734     0.0693222543904     0.975500188411      -0.0946910534124    0.975500188411      -0.0946910534124    0.0241514314734     0.0693222543904     
8600000000.0        0.0243172276417     0.0701245313994     0.975326430488      -0.0957924861314    0.975326430488      -0.0957924861314    0.0243172276417     0.0701245313994     
8700000000.0        0.0244848136159     0.0709263634308     0.975150792048      -0.0968934939003    0.975150792048      -0.0968934939003    0.0244848136159     0.0709263634308     
8800000000.0        0.0246541889705     0.0717277457488     0.974973273493      -0.0979940720714    0.974973273493      -0.0979940720714    0.0246541889705     0.0717277457488     
8900000000.0        0.0248253532268     0.0725286736237     0.974793875279      -0.0990942160014    0.974793875279      -0.0990942160014    0.0248253532268     0.0725286736237     
9000000000.0        0.0249983058548     0.0733291423319     0.974612597911      -0.100193921052     0.974612597911      -0.100193921052     0.0249983058548     0.0733291423319     
9100000000.0        0.0251730462746     0.0741291471562     0.974429441947      -0.10129318259      0.974429441947      -0.10129318259      0.0251730462746     0.0741291471562     
9200000000.0        0.0253495738577     0.0749286833858     0.97424440799       -0.102391995986     0.97424440799       -0.102391995986     0.0253495738577     0.0749286833858     
9300000000.0        0.0255278879286     0.0757277463164     0.974057496693      -0.103490356618     0.974057496693      -0.103490356618     0.0255278879286     0.0757277463164     
9400000000.0        0.0257079877662     0.0765263312505     0.973868708752      -0.104588259867     0.973868708752      -0.104588259867     0.0257079877662     0.0765263312505     
9500000000.0        0.0258898726048     0.0773244334974     0.973678044908      -0.105685701122     0.973678044908      -0.105685701122     0.0258898726048     0.0773244334974     
9600000000.0        0.0260735416359     0.0781220483733     0.973485505948      -0.106782675776     0.973485505948      -0.106782675776     0.0260735416359     0.0781220483733     
9700000000.0        0.0262589940085     0.0789191712015     0.973291092696      -0.107879179228     0.973291092696      -0.107879179228     0.0262589940085     0.0789191712015     
9800000000.0        0.0264462288309     0.0797157973124     0.97309480602       -0.108975206883     0.97309480602       -0.108975206883     0.0264462288309     0.0797157973124     
9900000000.0        0.0266352451715     0.0805119220439     0.972896646827      -0.110070754153     0.972896646827      -0.110070754153     0.0266352451715     0.0805119220439     
10000000000.0       0.02682604206       0.0813075407412     0.972696616064      -0.111165816454     0.972696616064      -0.111165816454     0.02682604206       0.0813075407412     
