# Hz S RI R 50.00 
100000000.0         -0.000923051576539  -0.0302792196907    0.99900175793       -0.0306795846863    0.99900175793       -0.0306795846863    -0.000923051576539  -0.0302792196907    
200000000.0         -0.00373180473453   -0.0603840650375    0.996192251468      -0.0611849192917    0.996192251468      -0.0611849192917    -0.00373180473453   -0.0603840650375    
300000000.0         -0.00835802274935   -0.0901478405488    0.991565248492      -0.0913493734652    0.991565248492      -0.0913493734652    -0.00835802274935   -0.0901478405488    
400000000.0         -0.0147506068609    -0.119410306057     0.985171782821      -0.121012756955     0.985171782821      -0.121012756955     -0.0147506068609    -0.119410306057     
500000000.0         -0.0228403269605    -0.14802035637      0.977081059418      -0.15002400644      0.977081059418      -0.15002400644      -0.0228403269605    -0.14802035637      
600000000.0         -0.0325416532694    -0.17583841762      0.967378595058      -0.178243584416     0.967378595058      -0.178243584416     -0.0325416532694    -0.17583841762      
700000000.0         -0.0437549484038    -0.202738444315     0.956164019252      -0.205545477554     0.956164019252      -0.205545477554     -0.0437549484038    -0.202738444315     
800000000.0         -0.0563689128239    -0.228609458206     0.943548626255      -0.231818736369     0.943548626255      -0.231818736369     -0.0563689128239    -0.228609458206     
900000000.0         -0.0702631770837    -0.253356601551     0.929652781681      -0.256968529031     0.929652781681      -0.256968529031     -0.0702631770837    -0.253356601551     
1000000000.0        -0.0853109367988    -0.276901704286     0.914603286966      -0.280916708923     0.914603286966      -0.280916708923     -0.0853109367988    -0.276901704286     
1100000000.0        -0.101381534226     -0.299183387911     0.898530797472      -0.303601918835     0.898530797472      -0.303601918835     -0.101381534226     -0.299183387911     
1200000000.0        -0.118342903007     -0.320156747998     0.881567377559      -0.324979273707     0.881567377559      -0.324979273707     -0.118342903007     -0.320156747998     
1300000000.0        -0.136063808531     -0.339792671363     0.863844260109      -0.345019678006     0.863844260109      -0.345019678006     -0.136063808531     -0.339792671363     
1400000000.0        -0.154415833913     -0.358076852965     0.845489860465      -0.363708842781     0.845489860465      -0.363708842781     -0.154415833913     -0.358076852965     
1500000000.0        -0.173275079354     -0.375008581622     0.826628077023      -0.381046071533     0.826628077023      -0.381046071533     -0.173275079354     -0.375008581622     
1600000000.0        -0.192523559341     -0.390599363375     0.807376894001      -0.397042883696     0.807376894001      -0.397042883696     -0.192523559341     -0.390599363375     
1700000000.0        -0.212050296911     -0.404871447361     0.787847287144      -0.411721540627     0.787847287144      -0.411721540627     -0.212050296911     -0.404871447361     
1800000000.0        -0.231752126415     -0.417856312588     0.768142420945      -0.425113532472     0.768142420945      -0.425113532472     -0.231752126415     -0.417856312588     
1900000000.0        -0.251534225635     -0.429593165641     0.748357116514      -0.437258075972     0.748357116514      -0.437258075972     -0.251534225635     -0.429593165641     
2000000000.0        -0.271310404721     -0.440127490292     0.728577562633      -0.448200664142     0.728577562633      -0.448200664142     -0.271310404721     -0.440127490292     
2100000000.0        -0.291003183418     -0.449509680635     0.708881238516      -0.45799169949      0.708881238516      -0.45799169949      -0.291003183418     -0.449509680635     
2200000000.0        -0.310543689808     -0.457793780552     0.68933701507       -0.466685233548     0.68933701507       -0.466685233548     -0.310543689808     -0.457793780552     
2300000000.0        -0.329871413677     -0.465036344265     0.670005401515      -0.474337827484     0.670005401515      -0.474337827484     -0.329871413677     -0.465036344265     
2400000000.0        -0.348933846112     -0.471295425763     0.650938905786      -0.481007541589     0.650938905786      -0.481007541589     -0.348933846112     -0.471295425763     
2500000000.0        -0.367686034401     -0.476629699133     0.632182479635      -0.486753055661     0.632182479635      -0.486753055661     -0.367686034401     -0.476629699133     
2600000000.0        -0.386090078136     -0.481097707218     0.613774022519      -0.491632917715     0.613774022519      -0.491632917715     -0.386090078136     -0.481097707218     
2700000000.0        -0.40411458898      -0.484757232607     0.595744921835      -0.495704915016     0.595744921835      -0.495704915016     -0.40411458898      -0.484757232607     
2800000000.0        -0.42173413296      -0.487664782508     0.578120610625      -0.499025558997     0.578120610625      -0.499025558997     -0.42173413296      -0.487664782508     
2900000000.0        -0.438928670757     -0.489875177515     0.560921127284      -0.501649674065     0.560921127284      -0.501649674065     -0.438928670757     -0.489875177515     
3000000000.0        -0.455683008213     -0.491441233447     0.544161665054      -0.503630079477     0.544161665054      -0.503630079477     -0.455683008213     -0.491441233447     
3100000000.0        -0.471986266438     -0.49241352518      0.527853101911      -0.50501735321      0.527853101911      -0.50501735321      -0.471986266438     -0.49241352518      
3200000000.0        -0.487831378357     -0.492840221587     0.512002504026      -0.505859666928     0.512002504026      -0.505859666928     -0.487831378357     -0.492840221587     
3300000000.0        -0.503214616369     -0.492766981199     0.496613598095      -0.506202681679     0.496613598095      -0.506202681679     -0.503214616369     -0.492766981199     
3400000000.0        -0.518135154055     -0.49223689891      0.481687209639      -0.506089494623     0.481687209639      -0.506089494623     -0.518135154055     -0.49223689891      
3500000000.0        -0.532594663354     -0.491290494918     0.467221665824      -0.505560628002     0.467221665824      -0.505560628002     -0.532594663354     -0.491290494918     
3600000000.0        -0.546596947524     -0.48996573797      0.453213162498      -0.504654052409     0.453213162498      -0.504654052409     -0.546596947524     -0.48996573797      
3700000000.0        -0.56014760931      -0.488298095945     0.439656096024      -0.503405237398     0.439656096024      -0.503405237398     -0.56014760931      -0.488298095945     
3800000000.0        -0.573253753074     -0.486320607692     0.426543361153      -0.501847223331     0.426543361153      -0.501847223331     -0.573253753074     -0.486320607692     
3900000000.0        -0.585923719195     -0.484063970874     0.413866616618      -0.500010709258     0.413866616618      -0.500010709258     -0.585923719195     -0.484063970874     
4000000000.0        -0.598166848724     -0.481556641416     0.40161652048       -0.497924152373     0.40161652048       -0.497924152373     -0.598166848724     -0.481556641416     
4100000000.0        -0.609993276122     -0.478824940813     0.389782937393      -0.495613875339     0.389782937393      -0.495613875339     -0.609993276122     -0.478824940813     
4200000000.0        -0.621413747788     -0.475893168232     0.378355120073      -0.493104178411     0.378355120073      -0.493104178411     -0.621413747788     -0.475893168232     
4300000000.0        -0.632439464111     -0.4727837149       0.367321867246      -0.490417453836     0.367321867246      -0.490417453836     -0.632439464111     -0.4727837149       
4400000000.0        -0.643081942811     -0.46951717875      0.356671660307      -0.487574300513     0.356671660307      -0.487574300513     -0.643081942811     -0.46951717875      
4500000000.0        -0.653352901425     -0.46611247773      0.346392780831      -0.484593637314     0.346392780831      -0.484593637314     -0.653352901425     -0.46611247773      
4600000000.0        -0.663264156918     -0.462586960545     0.336473410969      -0.481492813842     0.336473410969      -0.481492813842     -0.663264156918     -0.462586960545     
4700000000.0        -0.672827540508     -0.458956513888     0.326901718614      -0.478287717664     0.326901718614      -0.478287717664     -0.672827540508     -0.458956513888     
4800000000.0        -0.68205482598      -0.455235665476     0.31766592909       -0.474992877367     0.31766592909       -0.474992877367     -0.68205482598      -0.455235665476     
4900000000.0        -0.690957669865     -0.451437682429     0.308754384977      -0.471621560941     0.308754384977      -0.471621560941     -0.690957669865     -0.451437682429     
5000000000.0        -0.699547562027     -0.447574664681     0.300155595518      -0.468185869198     0.300155595518      -0.468185869198     -0.699547562027     -0.447574664681     
5100000000.0        -0.707835785349     -0.443657633252     0.291858276934      -0.464696824057     0.291858276934      -0.464696824057     -0.707835785349     -0.443657633252     
5200000000.0        -0.71583338332      -0.439696613337     0.283851384838      -0.461164451633     0.283851384838      -0.461164451633     -0.71583338332      -0.439696613337     
5300000000.0        -0.723551134471     -0.435700712233     0.276124139799      -0.457597860179     0.276124139799      -0.457597860179     -0.723551134471     -0.435700712233     
5400000000.0        -0.730999532708     -0.431678192202     0.268666047005      -0.454005312947     0.268666047005      -0.454005312947     -0.730999532708     -0.431678192202     
5500000000.0        -0.738188772719     -0.427636538418     0.261466910862      -0.450394296146     0.261466910862      -0.450394296146     -0.738188772719     -0.427636538418     
5600000000.0        -0.745128739701     -0.423582522169     0.254516845262      -0.44677158215      0.254516845262      -0.44677158215      -0.745128739701     -0.423582522169     
5700000000.0        -0.751829002769     -0.419522259548     0.247806280174      -0.443143288187     0.247806280174      -0.443143288187     -0.751829002769     -0.419522259548     
5800000000.0        -0.75829881147      -0.41546126582      0.241325965132      -0.439514930718     0.241325965132      -0.439514930718     -0.75829881147      -0.41546126582      
5900000000.0        -0.764547094915     -0.411404505734     0.235066970101      -0.43589147575      0.235066970101      -0.43589147575      -0.764547094915     -0.411404505734     
6000000000.0        -0.770582463077     -0.407356439995     0.229020684177      -0.43227738531      0.229020684177      -0.43227738531      -0.770582463077     -0.407356439995     
6100000000.0        -0.776413209902     -0.403321068141     0.223178812483      -0.428676660326     0.223178812483      -0.428676660326     -0.776413209902     -0.403321068141     
6200000000.0        -0.782047317884     -0.399301968056     0.217533371582      -0.425092880146     0.217533371582      -0.425092880146     -0.782047317884     -0.399301968056     
6300000000.0        -0.787492463842     -0.395302332355     0.212076683712      -0.421529238922     0.212076683712      -0.421529238922     -0.787492463842     -0.395302332355     
6400000000.0        -0.792756025641     -0.391325001839     0.206801370057      -0.417988579067     0.206801370057      -0.417988579067     -0.792756025641     -0.391325001839     
6500000000.0        -0.797845089662     -0.387372496253     0.201700343276      -0.41447342202      0.201700343276      -0.41447342202      -0.797845089662     -0.387372496253     
6600000000.0        -0.802766458838     -0.38344704253      0.196766799475      -0.410985996485     0.196766799475      -0.410985996485     -0.802766458838     -0.38344704253      
6700000000.0        -0.807526661103     -0.379550600712     0.191994209748      -0.40752826436      0.191994209748      -0.40752826436      -0.807526661103     -0.379550600712     
6800000000.0        -0.812131958127     -0.375684887732     0.187376311447      -0.404101944515     0.187376311447      -0.404101944515     -0.812131958127     -0.375684887732     
6900000000.0        -0.816588354239     -0.37185139921      0.182907099257      -0.400708534597     0.182907099257      -0.400708534597     -0.816588354239     -0.37185139921      
7000000000.0        -0.820901605433     -0.368051429436     0.178580816195      -0.397349331003     0.178580816195      -0.397349331003     -0.820901605433     -0.368051429436     
7100000000.0        -0.825077228385     -0.364286089665     0.174391944581      -0.394025447186     0.174391944581      -0.394025447186     -0.825077228385     -0.364286089665     
7200000000.0        -0.829120509431     -0.360556324871     0.170335197072      -0.390737830405     0.170335197072      -0.390737830405     -0.829120509431     -0.360556324871     
7300000000.0        -0.833036513434     -0.356862929085     0.166405507789      -0.387487277065     0.166405507789      -0.387487277065     -0.833036513434     -0.356862929085     
7400000000.0        -0.836830092521     -0.353206559427     0.162598023579      -0.384274446748     0.162598023579      -0.384274446748     -0.836830092521     -0.353206559427     
7500000000.0        -0.840505894632     -0.34958774894      0.158908095468      -0.381099875049     0.158908095468      -0.381099875049     -0.840505894632     -0.34958774894      
7600000000.0        -0.84406837188      -0.346006918327     0.155331270301      -0.377963985315     0.155331270301      -0.377963985315     -0.84406837188      -0.346006918327     
7700000000.0        -0.847521788681     -0.342464386681     0.151863282609      -0.374867099372     0.151863282609      -0.374867099372     -0.847521788681     -0.342464386681     
7800000000.0        -0.850870229648     -0.338960381295     0.148500046717      -0.371809447334     0.148500046717      -0.371809447334     -0.850870229648     -0.338960381295     
7900000000.0        -0.854117607242     -0.335495046617     0.145237649093      -0.368791176565     0.145237649093      -0.368791176565     -0.854117607242     -0.335495046617     
8000000000.0        -0.857267669161     -0.332068452441     0.142072340957      -0.365812359863     0.142072340957      -0.365812359863     -0.857267669161     -0.332068452441     
8100000000.0        -0.860324005472     -0.328680601377     0.139000531151      -0.362873002935     0.139000531151      -0.362873002935     -0.860324005472     -0.328680601377     
8200000000.0        -0.863290055483     -0.325331435683     0.136018779264      -0.359973051221     0.136018779264      -0.359973051221     -0.863290055483     -0.325331435683     
8300000000.0        -0.866169114352     -0.322020843488     0.133123789025      -0.357112396128     0.133123789025      -0.357112396128     -0.866169114352     -0.322020843488     
8400000000.0        -0.868964339438     -0.318748664478     0.130312401952      -0.35429088071      0.130312401952      -0.35429088071      -0.868964339438     -0.318748664478     
8500000000.0        -0.871678756395     -0.315514695087     0.127581591255      -0.351508304855     0.127581591255      -0.351508304855     -0.871678756395     -0.315514695087     
8600000000.0        -0.874315265016     -0.312318693221     0.124928455996      -0.348764430016     0.124928455996      -0.348764430016     -0.874315265016     -0.312318693221     
8700000000.0        -0.876876644833     -0.309160382569     0.122350215483      -0.346058983518     0.122350215483      -0.346058983518     -0.876876644833     -0.309160382569     
8800000000.0        -0.879365560477     -0.306039456539     0.119844203917      -0.343391662493     0.119844203917      -0.343391662493     -0.879365560477     -0.306039456539     
8900000000.0        -0.881784566805     -0.302955581828     0.117407865258      -0.340762137454     0.117407865258      -0.340762137454     -0.881784566805     -0.302955581828     
9000000000.0        -0.884136113803     -0.299908401692     0.115038748326      -0.338170055555     0.115038748326      -0.338170055555     -0.884136113803     -0.299908401692     
9100000000.0        -0.886422551272     -0.296897538903     0.112734502113      -0.335615043563     0.112734502113      -0.335615043563     -0.886422551272     -0.296897538903     
9200000000.0        -0.888646133303     -0.293922598456     0.110492871309      -0.333096710549     0.110492871309      -0.333096710549     -0.888646133303     -0.293922598456     
9300000000.0        -0.890809022549     -0.290983170019     0.108311692027      -0.330614650345     0.108311692027      -0.330614650345     -0.890809022549     -0.290983170019     
9400000000.0        -0.892913294307     -0.288078830164     0.106188887726      -0.328168443778     0.106188887726      -0.328168443778     -0.892913294307     -0.288078830164     
9500000000.0        -0.894960940407     -0.285209144392     0.104122465315      -0.325757660688     0.104122465315      -0.325757660688     -0.894960940407     -0.285209144392     
9600000000.0        -0.896953872928     -0.282373668975     0.102110511444      -0.32338186177      0.102110511444      -0.32338186177      -0.896953872928     -0.282373668975     
9700000000.0        -0.898893927737     -0.279571952615     0.100151188958      -0.321040600241     0.100151188958      -0.321040600241     -0.898893927737     -0.279571952615     
9800000000.0        -0.900782867871     -0.276803537963     0.0982427335192     -0.318733423344     0.0982427335192     -0.318733423344     -0.900782867871     -0.276803537963     
9900000000.0        -0.902622386751     -0.274067962979     0.0963834503915     -0.316459873723     0.0963834503915     -0.316459873723     -0.902622386751     -0.274067962979     
10000000000.0       -0.904414111257     -0.27136476217      0.0945717113642     -0.314219490651     0.0945717113642     -0.314219490651     -0.904414111257     -0.27136476217      
