# Hz S RI R 50.00 
100000000.0         0.00808217011136    0.000966303763379   0.991916465624      -0.00130036039549   0.991916465624      -0.00130036039549   0.00808217011136    0.000966303763379   
200000000.0         0.00813882861499    0.00193236017559    0.991859330948      -0.00260047636499   0.991859330948      -0.00260047636499   0.00813882861499    0.00193236017559    
300000000.0         0.00818371129904    0.00289826070695    0.991813860175      -0.00390044102373   0.991813860175      -0.00390044102373   0.00818371129904    0.00289826070695    
400000000.0         0.00822381036514    0.00386403252397    0.991773061092      -0.00520028282383   0.991773061092      -0.00520028282383   0.00822381036514    0.00386403252397    
500000000.0         0.00826182371994    0.00482968777106    0.991734235781      -0.00650001501437   0.991734235781      -0.00650001501437   0.00826182371994    0.00482968777106    
600000000.0         0.00829912973001    0.00579523191965    0.991696005863      -0.00779964405292   0.991696005863      -0.00779964405292   0.00829912973001    0.00579523191965    
700000000.0         0.00833654402912    0.00676066677329    0.991657555692      -0.00909917264257   0.991657555692      -0.00909917264257   0.00833654402912    0.00676066677329    
800000000.0         0.00837459592765    0.00772599186424    0.991618355944      -0.0103986011476    0.991618355944      -0.0103986011476    0.00837459592765    0.00772599186424    
900000000.0         0.00841365156923    0.00869120520478    0.99157804046       -0.0116979283573    0.99157804046       -0.0116979283573    0.00841365156923    0.00869120520478    
1000000000.0        0.00845397639871    0.00965630373272    0.99153634378       -0.0129971519406    0.99153634378       -0.0129971519406    0.00845397639871    0.00965630373272    
1100000000.0        0.00849576991041    0.0106212835948     0.991493066394      -0.0142962687354    0.991493066394      -0.0142962687354    0.00849576991041    0.0106212835948     
1200000000.0        0.00853918636748    0.0115861403367     0.991448054021      -0.0155952749441    0.991448054021      -0.0155952749441    0.00853918636748    0.0115861403367     
1300000000.0        0.00858434784589    0.0125508690355     0.991401184568      -0.0168941662699    0.991401184568      -0.0168941662699    0.00858434784589    0.0125508690355     
1400000000.0        0.00863135281386    0.0135154643961     0.991352359548      -0.0181929380161    0.991352359548      -0.0181929380161    0.00863135281386    0.0135154643961     
1500000000.0        0.00868028198193    0.0144799208224     0.991301498232      -0.0194915851603    0.991301498232      -0.0194915851603    0.00868028198193    0.0144799208224     
1600000000.0        0.00873120241416    0.0154442324714     0.991248533537      -0.02079010241      0.991248533537      -0.02079010241      0.00873120241416    0.0154442324714     
1700000000.0        0.00878417049288    0.0164083932955     0.99119340906       -0.0220884842475    0.99119340906       -0.0220884842475    0.00878417049288    0.0164083932955     
1800000000.0        0.00883923410452    0.0173723970757     0.991136076894      -0.0233867249641    0.991136076894      -0.0233867249641    0.00883923410452    0.0173723970757     
1900000000.0        0.00889643428258    0.0183362374481     0.991076495984      -0.0246848186881    0.991076495984      -0.0246848186881    0.00889643428258    0.0183362374481     
2000000000.0        0.00895580646372    0.0192999079257     0.991014630871      -0.025982759408     0.991014630871      -0.025982759408     0.00895580646372    0.0192999079257     
2100000000.0        0.00901738146275    0.0202634019159     0.990950450719      -0.0272805409905    0.990950450719      -0.0272805409905    0.00901738146275    0.0202634019159     
2200000000.0        0.00908118623947    0.0212267127354     0.990883928544      -0.0285781571972    0.990883928544      -0.0285781571972    0.00908118623947    0.0212267127354     
2300000000.0        0.00914724450926    0.0221898336228     0.990815040608      -0.0298756016968    0.990815040608      -0.0298756016968    0.00914724450926    0.0221898336228     
2400000000.0        0.00921557723457    0.0231527577483     0.990743765925      -0.0311728680768    0.990743765925      -0.0311728680768    0.00921557723457    0.0231527577483     
2500000000.0        0.00928620302438    0.0241154782233     0.990670085861      -0.0324699498528    0.990670085861      -0.0324699498528    0.00928620302438    0.0241154782233     
2600000000.0        0.00935913846193    0.0250779881077     0.990593983808      -0.033766840477     0.990593983808      -0.033766840477     0.00935913846193    0.0250779881077     
2700000000.0        0.00943439837573    0.0260402804163     0.990515444913      -0.0350635333447    0.990515444913      -0.0350635333447    0.00943439837573    0.0260402804163     
2800000000.0        0.00951199606542    0.0270023481249     0.99043445585       -0.0363600218014    0.99043445585       -0.0363600218014    0.00951199606542    0.0270023481249     
2900000000.0        0.00959194349129    0.0279641841749     0.990351004632      -0.0376562991472    0.990351004632      -0.0376562991472    0.00959194349129    0.0279641841749     
3000000000.0        0.00967425143446    0.028925781478      0.990265080453      -0.0389523586424    0.990265080453      -0.0389523586424    0.00967425143446    0.028925781478      
3100000000.0        0.00975892963283    0.0298871329196     0.990176673548      -0.0402481935115    0.990176673548      -0.0402481935115    0.00975892963283    0.0298871329196     
3200000000.0        0.00984598689741    0.0308482313627     0.990085775077      -0.0415437969467    0.990085775077      -0.0415437969467    0.00984598689741    0.0308482313627     
3300000000.0        0.00993543121215    0.0318090696506     0.989992377031      -0.0428391621114    0.989992377031      -0.0428391621114    0.00993543121215    0.0318090696506     
3400000000.0        0.0100272698201     0.0327696406095     0.989896472136      -0.0441342821437    0.989896472136      -0.0441342821437    0.0100272698201     0.0327696406095     
3500000000.0        0.0101215092984     0.0337299370515     0.989798053789      -0.0454291501581    0.989798053789      -0.0454291501581    0.0101215092984     0.0337299370515     
3600000000.0        0.0102181556229     0.034689951776      0.989697115985      -0.0467237592488    0.989697115985      -0.0467237592488    0.0102181556229     0.034689951776      
3700000000.0        0.0103172142256     0.0356496775723     0.989593653262      -0.0480181024918    0.989593653262      -0.0480181024918    0.0103172142256     0.0356496775723     
3800000000.0        0.0104186900443     0.0366091072209     0.989487660653      -0.0493121729464    0.989487660653      -0.0493121729464    0.0104186900443     0.0366091072209     
3900000000.0        0.0105225875667     0.0375682334955     0.989379133642      -0.0506059636575    0.989379133642      -0.0506059636575    0.0105225875667     0.0375682334955     
4000000000.0        0.0106289108694     0.0385270491641     0.989268068122      -0.0518994676574    0.989268068122      -0.0518994676574    0.0106289108694     0.0385270491641     
4100000000.0        0.0107376636523     0.0394855469908     0.989154460362      -0.0531926779666    0.989154460362      -0.0531926779666    0.0107376636523     0.0394855469908     
4200000000.0        0.0108488492692     0.0404437197364     0.989038306978      -0.0544855875961    0.989038306978      -0.0544855875961    0.0108488492692     0.0404437197364     
4300000000.0        0.0109624707555     0.0414015601601     0.988919604905      -0.0557781895482    0.988919604905      -0.0557781895482    0.0109624707555     0.0414015601601     
4400000000.0        0.0110785308524     0.04235906102       0.988798351369      -0.0570704768177    0.988798351369      -0.0570704768177    0.0110785308524     0.04235906102       
4500000000.0        0.0111970320288     0.0433162150747     0.988674543872      -0.058362442393     0.988674543872      -0.058362442393     0.0111970320288     0.0433162150747     
4600000000.0        0.0113179765015     0.0442730150834     0.988548180163      -0.0596540792575    0.988548180163      -0.0596540792575    0.0113179765015     0.0442730150834     
4700000000.0        0.0114413662527     0.0452294538075     0.98841925823       -0.0609453803901    0.98841925823       -0.0609453803901    0.0114413662527     0.0452294538075     
4800000000.0        0.0115672030459     0.0461855240106     0.988287776278      -0.0622363387663    0.988287776278      -0.0622363387663    0.0115672030459     0.0461855240106     
4900000000.0        0.011695488441      0.0471412184598     0.988153732713      -0.063526947359     0.988153732713      -0.063526947359     0.011695488441      0.0471412184598     
5000000000.0        0.0118262238071     0.0480965299258     0.988017126134      -0.0648171991392    0.988017126134      -0.0648171991392    0.0118262238071     0.0480965299258     
5100000000.0        0.0119594103347     0.0490514511842     0.987877955318      -0.0661070870769    0.987877955318      -0.0661070870769    0.0119594103347     0.0490514511842     
5200000000.0        0.0120950490465     0.0500059750153     0.987736219211      -0.0673966041415    0.987736219211      -0.0673966041415    0.0120950490465     0.0500059750153     
5300000000.0        0.0122331408075     0.050960094205      0.987591916912      -0.0686857433028    0.987591916912      -0.0686857433028    0.0122331408075     0.050960094205      
5400000000.0        0.0123736863345     0.0519138015456     0.987445047674      -0.0699744975313    0.987445047674      -0.0699744975313    0.0123736863345     0.0519138015456     
5500000000.0        0.0125166862036     0.0528670898355     0.987295610885      -0.0712628597989    0.987295610885      -0.0712628597989    0.0125166862036     0.0528670898355     
5600000000.0        0.0126621408589     0.0538199518803     0.987143606069      -0.0725508230794    0.987143606069      -0.0725508230794    0.0126621408589     0.0538199518803     
5700000000.0        0.0128100506188     0.054772380493      0.986989032872      -0.0738383803489    0.986989032872      -0.0738383803489    0.0128100506188     0.054772380493      
5800000000.0        0.0129604156829     0.0557243684942     0.986831891063      -0.0751255245865    0.986831891063      -0.0751255245865    0.0129604156829     0.0557243684942     
5900000000.0        0.0131132361378     0.0566759087127     0.986672180519      -0.0764122487746    0.986672180519      -0.0764122487746    0.0131132361378     0.0566759087127     
6000000000.0        0.0132685119628     0.0576269939858     0.986509901228      -0.0776985458993    0.986509901228      -0.0776985458993    0.0132685119628     0.0576269939858     
6100000000.0        0.0134262430351     0.0585776171595     0.986345053278      -0.0789844089509    0.986345053278      -0.0789844089509    0.0134262430351     0.0585776171595     
6200000000.0        0.0135864291339     0.0595277710888     0.986177636854      -0.0802698309243    0.986177636854      -0.0802698309243    0.0135864291339     0.0595277710888     
6300000000.0        0.0137490699459     0.0604774486384     0.986007652237      -0.0815548048193    0.986007652237      -0.0815548048193    0.0137490699459     0.0604774486384     
6400000000.0        0.0139141650682     0.0614266426822     0.985835099793      -0.0828393236408    0.985835099793      -0.0828393236408    0.0139141650682     0.0614266426822     
6500000000.0        0.0140817140131     0.0623753461045     0.985659979977      -0.0841233803996    0.985659979977      -0.0841233803996    0.0140817140131     0.0623753461045     
6600000000.0        0.0142517162109     0.0633235517993     0.985482293321      -0.0854069681121    0.985482293321      -0.0854069681121    0.0142517162109     0.0633235517993     
6700000000.0        0.0144241710135     0.0642712526713     0.98530204044       -0.0866900798011    0.98530204044       -0.0866900798011    0.0144241710135     0.0642712526713     
6800000000.0        0.0145990776977     0.0652184416358     0.985119222021      -0.087972708496     0.985119222021      -0.087972708496     0.0145990776977     0.0652184416358     
6900000000.0        0.0147764354674     0.0661651116189     0.984933838825      -0.0892548472328    0.984933838825      -0.0892548472328    0.0147764354674     0.0661651116189     
7000000000.0        0.014956243457      0.0671112555576     0.984745891682      -0.0905364890546    0.984745891682      -0.0905364890546    0.014956243457      0.0671112555576     
7100000000.0        0.0151385007336     0.0680568664005     0.98455538149       -0.091817627012     0.98455538149       -0.091817627012     0.0151385007336     0.0680568664005     
7200000000.0        0.0153232062991     0.0690019371073     0.984362309211      -0.093098254163     0.984362309211      -0.093098254163     0.0153232062991     0.0690019371073     
7300000000.0        0.0155103590931     0.0699464606496     0.984166675869      -0.0943783635735    0.984166675869      -0.0943783635735    0.0155103590931     0.0699464606496     
7400000000.0        0.015699957994      0.0708904300106     0.983968482551      -0.0956579483173    0.983968482551      -0.0956579483173    0.015699957994      0.0708904300106     
7500000000.0        0.0158920018219     0.0718338381855     0.983767730401      -0.0969370014767    0.983767730401      -0.0969370014767    0.0158920018219     0.0718338381855     
7600000000.0        0.0160864893398     0.0727766781817     0.98356442062       -0.0982155161422    0.98356442062       -0.0982155161422    0.0160864893398     0.0727766781817     
7700000000.0        0.0162834192558     0.0737189430189     0.983358554463      -0.0994934854132    0.983358554463      -0.0994934854132    0.0162834192558     0.0737189430189     
7800000000.0        0.016482790224      0.0746606257292     0.983150133241      -0.100770902398     0.983150133241      -0.100770902398     0.016482790224      0.0746606257292     
7900000000.0        0.0166846008471     0.0756017193573     0.982939158315      -0.102047760213     0.982939158315      -0.102047760213     0.0166846008471     0.0756017193573     
8000000000.0        0.0168888496768     0.0765422169606     0.982725631097      -0.103324051987     0.982725631097      -0.103324051987     0.0168888496768     0.0765422169606     
8100000000.0        0.0170955352157     0.0774821116093     0.982509553047      -0.104599770853     0.982509553047      -0.104599770853     0.0170955352157     0.0774821116093     
8200000000.0        0.0173046559188     0.0784213963868     0.982290925676      -0.105874909959     0.982290925676      -0.105874909959     0.0173046559188     0.0784213963868     
8300000000.0        0.0175162101943     0.0793600643894     0.982069750539      -0.107149462459     0.982069750539      -0.107149462459     0.0175162101943     0.0793600643894     
8400000000.0        0.0177301964047     0.0802981087267     0.981846029236      -0.108423421518     0.981846029236      -0.108423421518     0.0177301964047     0.0802981087267     
8500000000.0        0.0179466128684     0.0812355225217     0.981619763414      -0.109696780313     0.981619763414      -0.109696780313     0.0179466128684     0.0812355225217     
8600000000.0        0.0181654578605     0.0821722989108     0.98139095476       -0.110969532028     0.98139095476       -0.110969532028     0.0181654578605     0.0821722989108     
8700000000.0        0.0183867296137     0.0831084310442     0.981159605006      -0.112241669861     0.981159605006      -0.112241669861     0.0183867296137     0.0831084310442     
8800000000.0        0.0186104263191     0.0840439120855     0.980925715924      -0.113513187017     0.980925715924      -0.113513187017     0.0186104263191     0.0840439120855     
8900000000.0        0.0188365461278     0.0849787352123     0.980689289327      -0.114784076714     0.980689289327      -0.114784076714     0.0188365461278     0.0849787352123     
9000000000.0        0.0190650871508     0.085912893616      0.980450327067      -0.11605433218      0.980450327067      -0.11605433218      0.0190650871508     0.085912893616      
9100000000.0        0.0192960474606     0.0868463805021     0.980208831037      -0.117323946654     0.980208831037      -0.117323946654     0.0192960474606     0.0868463805021     
9200000000.0        0.0195294250918     0.0877791890902     0.979964803163      -0.118592913386     0.979964803163      -0.118592913386     0.0195294250918     0.0877791890902     
9300000000.0        0.0197652180413     0.0887113126139     0.979718245415      -0.119861225639     0.979718245415      -0.119861225639     0.0197652180413     0.0887113126139     
9400000000.0        0.0200034242698     0.0896427443214     0.979469159793      -0.121128876684     0.979469159793      -0.121128876684     0.0200034242698     0.0896427443214     
9500000000.0        0.020244041702      0.090573477475      0.979217548339      -0.122395859807     0.979217548339      -0.122395859807     0.020244041702      0.090573477475      
9600000000.0        0.0204870682276     0.0915035053517     0.978963413124      -0.123662168303     0.978963413124      -0.123662168303     0.0204870682276     0.0915035053517     
9700000000.0        0.0207325017013     0.092432821243      0.978706756259      -0.124927795479     0.978706756259      -0.124927795479     0.0207325017013     0.092432821243      
9800000000.0        0.0209803399442     0.0933614184549     0.978447579886      -0.126192734656     0.978447579886      -0.126192734656     0.0209803399442     0.0933614184549     
9900000000.0        0.0212305807438     0.0942892903082     0.978185886182      -0.127456979165     0.978185886182      -0.127456979165     0.0212305807438     0.0942892903082     
10000000000.0       0.0214832218547     0.0952164301386     0.977921677355      -0.128720522349     0.977921677355      -0.128720522349     0.0214832218547     0.0952164301386     
