# Hz S RI R 50.00 
100000000.0         0.0664024067643     0.00447482835454    0.933592351835      -0.00658463297954   0.933592351835      -0.00658463297954   0.0664024067643     0.00447482835454    
200000000.0         0.0669055258874     0.00893883538826    0.933080432978      -0.0131584606951    0.933080432978      -0.0131584606951    0.0669055258874     0.00893883538826    
300000000.0         0.0673609913125     0.0133948838701     0.932611607849      -0.0197243650876    0.932611607849      -0.0197243650876    0.0673609913125     0.0133948838701     
400000000.0         0.0678228477926     0.0178432582903     0.932131830235      -0.0262826485293    0.932131830235      -0.0262826485293    0.0678228477926     0.0178432582903     
500000000.0         0.0683118566723     0.0222836466821     0.931620337303      -0.0328330162879    0.931620337303      -0.0328330162879    0.0683118566723     0.0222836466821     
600000000.0         0.0688385395981     0.026715475489      0.931066605817      -0.0393749116199    0.931066605817      -0.0393749116199    0.0688385395981     0.026715475489      
700000000.0         0.0694090401896     0.0311380300848     0.93046449044       -0.0459076364049    0.93046449044       -0.0459076364049    0.0694090401896     0.0311380300848     
800000000.0         0.0700272644675     0.0355505109223     0.929810083285      -0.0524304073637    0.929810083285      -0.0524304073637    0.0700272644675     0.0355505109223     
900000000.0         0.0706958343317     0.0399520639281     0.929100760426      -0.0589423864979    0.929100760426      -0.0589423864979    0.0706958343317     0.0399520639281     
1000000000.0        0.071416571095      0.0443417987147     0.928334698354      -0.0654426993334    0.928334698354      -0.0654426993334    0.071416571095      0.0443417987147     
1100000000.0        0.0721907644302     0.0487188003453     0.927510605029      -0.0719304467092    0.927510605029      -0.0719304467092    0.0721907644302     0.0487188003453     
1200000000.0        0.0730193327505     0.0530821373933     0.926627559493      -0.078404712854     0.926627559493      -0.078404712854     0.0730193327505     0.0530821373933     
1300000000.0        0.0739029242212     0.0574308677344     0.925684910855      -0.0848645711924    0.925684910855      -0.0848645711924    0.0739029242212     0.0574308677344     
1400000000.0        0.0748419832564     0.0617640428795     0.924682211793      -0.0913090886893    0.924682211793      -0.0913090886893    0.0748419832564     0.0617640428795     
1500000000.0        0.075836795931      0.0660807113293     0.923619173141      -0.0977373292133    0.923619173141      -0.0977373292133    0.075836795931      0.0660807113293     
1600000000.0        0.0768875219724     0.0703799212496     0.922495631892      -0.10414835622      0.922495631892      -0.10414835622      0.0768875219724     0.0703799212496     
1700000000.0        0.0779942179134     0.0746607226596     0.921311528049      -0.110541234945     0.921311528049      -0.110541234945     0.0779942179134     0.0746607226596     
1800000000.0        0.079156854248      0.0789221692628     0.920066887464      -0.116915034243     0.920066887464      -0.116915034243     0.079156854248      0.0789221692628     
1900000000.0        0.0803753284152     0.0831633200088     0.918761808856      -0.123268828152     0.918761808856      -0.123268828152     0.0803753284152     0.0831633200088     
2000000000.0        0.081649474816      0.0873832404467     0.917396453793      -0.129601697253     0.917396453793      -0.129601697253     0.081649474816      0.0873832404467     
2100000000.0        0.0829790726781     0.0915810039163     0.915971038822      -0.13591272986      0.915971038822      -0.13591272986      0.0829790726781     0.0915810039163     
2200000000.0        0.084363852334      0.0957556926083     0.9144858292        -0.14220102309      0.9144858292        -0.14220102309      0.084363852334      0.0957556926083     
2300000000.0        0.0858035003104     0.0999063985167     0.912941133792      -0.148465683813     0.912941133792      -0.148465683813     0.0858035003104     0.0999063985167     
2400000000.0        0.0872976635153     0.104032224304      0.911337300895      -0.15470582952      0.911337300895      -0.15470582952      0.0872976635153     0.104032224304      
2500000000.0        0.0888459527318     0.108132284088      0.909674714734      -0.160920589118     0.909674714734      -0.160920589118     0.0888459527318     0.108132284088      
2600000000.0        0.0904479455727     0.112205704169      0.907953792513      -0.167109103649     0.907953792513      -0.167109103649     0.0904479455727     0.112205704169      
2700000000.0        0.0921031890129     0.116251623697      0.906174981881      -0.173270526966     0.906174981881      -0.173270526966     0.0921031890129     0.116251623697      
2800000000.0        0.0938112015863     0.120269195286      0.904338758733      -0.17940402635      0.904338758733      -0.17940402635      0.0938112015863     0.120269195286      
2900000000.0        0.0955714753154     0.12425758559       0.902445625281      -0.185508783082     0.902445625281      -0.185508783082     0.0955714753154     0.12425758559       
3000000000.0        0.097383477425      0.128215975837      0.900496108339      -0.19158399298      0.900496108339      -0.19158399298      0.097383477425      0.128215975837      
3100000000.0        0.0992466518819     0.132143562317      0.898490757786      -0.197628866892     0.898490757786      -0.197628866892     0.0992466518819     0.132143562317      
3200000000.0        0.101160420791      0.136039556847      0.896430145165      -0.203642631158     0.896430145165      -0.203642631158     0.101160420791      0.136039556847      
3300000000.0        0.103124185675      0.139903187195      0.894314862406      -0.209624528036     0.894314862406      -0.209624528036     0.103124185675      0.139903187195      
3400000000.0        0.105137328654      0.143733697476      0.892145520644      -0.2155738161       0.892145520644      -0.2155738161       0.105137328654      0.143733697476      
3500000000.0        0.10719921355       0.147530348521      0.889922749116      -0.221489770607     0.889922749116      -0.221489770607     0.10719921355       0.147530348521      
3600000000.0        0.109309186916      0.151292418212      0.887647194129      -0.227371683838     0.887647194129      -0.227371683838     0.109309186916      0.151292418212      
3700000000.0        0.111466579015      0.155019201796      0.885319518086      -0.233218865406     0.885319518086      -0.233218865406     0.111466579015      0.155019201796      
3800000000.0        0.113670704741      0.158710012169      0.882940398555      -0.239030642547     0.882940398555      -0.239030642547     0.113670704741      0.158710012169      
3900000000.0        0.11592086451       0.162364180139      0.880510527387      -0.244806360378     0.880510527387      -0.244806360378     0.11592086451       0.162364180139      
4000000000.0        0.118216345103      0.165981054661      0.878030609866      -0.250545382135     0.878030609866      -0.250545382135     0.118216345103      0.165981054661      
4100000000.0        0.120556420486      0.169560003047      0.875501363892      -0.256247089388     0.875501363892      -0.256247089388     0.120556420486      0.169560003047      
4200000000.0        0.122940352599      0.173100411159      0.872923519192      -0.261910882226     0.872923519192      -0.261910882226     0.122940352599      0.173100411159      
4300000000.0        0.125367392118      0.176601683576      0.870297816554      -0.267536179428     0.870297816554      -0.267536179428     0.125367392118      0.176601683576      
4400000000.0        0.127836779199      0.180063243738      0.867625007084      -0.273122418611     0.867625007084      -0.273122418611     0.127836779199      0.180063243738      
4500000000.0        0.1303477442        0.183484534069      0.864905851486      -0.278669056347     0.864905851486      -0.278669056347     0.1303477442        0.183484534069      
4600000000.0        0.132899508386      0.186865016082      0.862141119353      -0.284175568274     0.862141119353      -0.284175568274     0.132899508386      0.186865016082      
4700000000.0        0.135491284613      0.190204170461      0.859331588482      -0.289641449175     0.859331588482      -0.289641449175     0.135491284613      0.190204170461      
4800000000.0        0.138122278003      0.193501497124      0.856478044203      -0.295066213041     0.856478044203      -0.295066213041     0.138122278003      0.193501497124      
4900000000.0        0.140791686598      0.196756515267      0.853581278719      -0.300449393117     0.853581278719      -0.300449393117     0.140791686598      0.196756515267      
5000000000.0        0.143498702002      0.199968763388      0.850642090468      -0.305790541926     0.850642090468      -0.305790541926     0.143498702002      0.199968763388      
5100000000.0        0.146242510012      0.203137799293      0.847661283488      -0.311089231273     0.847661283488      -0.311089231273     0.146242510012      0.203137799293      
5200000000.0        0.149022291229      0.206263200088      0.844639666806      -0.316345052239     0.844639666806      -0.316345052239     0.149022291229      0.206263200088      
5300000000.0        0.151837221663      0.209344562143      0.841578053833      -0.321557615147     0.841578053833      -0.321557615147     0.151837221663      0.209344562143      
5400000000.0        0.154686473321      0.212381501054      0.838477261776      -0.32672654952      0.838477261776      -0.32672654952      0.154686473321      0.212381501054      
5500000000.0        0.157569214787      0.215373651577      0.835338111054      -0.331851504015     0.835338111054      -0.331851504015     0.157569214787      0.215373651577      
5600000000.0        0.160484611783      0.218320667548      0.832161424742      -0.336932146349     0.832161424742      -0.336932146349     0.160484611783      0.218320667548      
5700000000.0        0.163431827724      0.221222221795      0.828948028009      -0.341968163205     0.828948028009      -0.341968163205     0.163431827724      0.221222221795      
5800000000.0        0.166410024256      0.224078006023      0.825698747583      -0.346959260119     0.825698747583      -0.346959260119     0.166410024256      0.224078006023      
5900000000.0        0.169418361785      0.226887730697      0.82241441122       -0.351905161364     0.82241441122       -0.351905161364     0.169418361785      0.226887730697      
6000000000.0        0.172455999994      0.229651124902      0.819095847187      -0.356805609809     0.819095847187      -0.356805609809     0.172455999994      0.229651124902      
6100000000.0        0.175522098344      0.232367936196      0.815743883761      -0.36166036677      0.815743883761      -0.36166036677      0.175522098344      0.232367936196      
6200000000.0        0.178615816564      0.235037930443      0.812359348733      -0.366469211847     0.812359348733      -0.366469211847     0.178615816564      0.235037930443      
6300000000.0        0.181736315133      0.237660891641      0.808943068933      -0.37123194275      0.808943068933      -0.37123194275      0.181736315133      0.237660891641      
6400000000.0        0.184882755744      0.240236621736      0.805495869759      -0.375948375111     0.805495869759      -0.375948375111     0.184882755744      0.240236621736      
6500000000.0        0.188054301755      0.242764940421      0.802018574727      -0.380618342288     0.802018574727      -0.380618342288     0.188054301755      0.242764940421      
6600000000.0        0.191250118634      0.245245684929      0.798512005025      -0.385241695152     0.798512005025      -0.385241695152     0.191250118634      0.245245684929      
6700000000.0        0.194469374386      0.247678709817      0.794976979088      -0.389818301872     0.794976979088      -0.389818301872     0.194469374386      0.247678709817      
6800000000.0        0.197711239968      0.250063886729      0.791414312177      -0.394348047684     0.791414312177      -0.394348047684     0.197711239968      0.250063886729      
6900000000.0        0.20097488969       0.25240110417       0.78782481598       -0.398830834654     0.78782481598       -0.398830834654     0.20097488969       0.25240110417       
7000000000.0        0.204259501608      0.254690267247      0.784209298218      -0.403266581433     0.784209298218      -0.403266581433     0.204259501608      0.254690267247      
7100000000.0        0.207564257901      0.256931297427      0.780568562266      -0.407655223        0.780568562266      -0.407655223        0.207564257901      0.256931297427      
7200000000.0        0.210888345235      0.259124132264      0.776903406788      -0.411996710398     0.776903406788      -0.411996710398     0.210888345235      0.259124132264      
7300000000.0        0.214230955113      0.261268725138      0.773214625388      -0.41629101047      0.773214625388      -0.41629101047      0.214230955113      0.261268725138      
7400000000.0        0.217591284217      0.263365044976      0.769503006264      -0.420538105581     0.769503006264      -0.420538105581     0.217591284217      0.263365044976      
7500000000.0        0.220968534734      0.265413075969      0.765769331882      -0.424737993333     0.765769331882      -0.424737993333     0.220968534734      0.265413075969      
7600000000.0        0.224361914667      0.267412817286      0.762014378666      -0.428890686281     0.762014378666      -0.428890686281     0.224361914667      0.267412817286      
7700000000.0        0.227770638141      0.269364282782      0.758238916688      -0.432996211637     0.758238916688      -0.432996211637     0.227770638141      0.269364282782      
7800000000.0        0.231193925685      0.271267500701      0.754443709386      -0.437054610977     0.754443709386      -0.437054610977     0.231193925685      0.271267500701      
7900000000.0        0.234631004515      0.273122513371      0.75062951328       -0.441065939933     0.75062951328       -0.441065939933     0.234631004515      0.273122513371      
8000000000.0        0.238081108792      0.274929376904      0.746797077714      -0.445030267893     0.746797077714      -0.445030267893     0.238081108792      0.274929376904      
8100000000.0        0.241543479876      0.276688160884      0.742947144595      -0.448947677691     0.742947144595      -0.448947677691     0.241543479876      0.276688160884      
8200000000.0        0.245017366567      0.278398948055      0.739080448163      -0.452818265291     0.739080448163      -0.452818265291     0.245017366567      0.278398948055      
8300000000.0        0.248502025327      0.280061834012      0.735197714752      -0.45664213948      0.735197714752      -0.45664213948      0.248502025327      0.280061834012      
8400000000.0        0.2519967205        0.281676926879      0.731299662582      -0.460419421543     0.731299662582      -0.460419421543     0.2519967205        0.281676926879      
8500000000.0        0.255500724515      0.283244346995      0.727387001549      -0.464150244955     0.727387001549      -0.464150244955     0.255500724515      0.283244346995      
8600000000.0        0.259013318073      0.284764226593      0.723460433035      -0.467834755052     0.723460433035      -0.467834755052     0.259013318073      0.284764226593      
8700000000.0        0.262533790333      0.286236709485      0.719520649725      -0.471473108718     0.719520649725      -0.471473108718     0.262533790333      0.286236709485      
8800000000.0        0.266061439079      0.287661950734      0.715568335437      -0.475065474061     0.715568335437      -0.475065474061     0.266061439079      0.287661950734      
8900000000.0        0.269595570878      0.28904011634       0.711604164961      -0.478612030093     0.711604164961      -0.478612030093     0.269595570878      0.28904011634       
9000000000.0        0.273135501225      0.290371382919      0.707628803914      -0.482112966408     0.707628803914      -0.482112966408     0.273135501225      0.290371382919      
9100000000.0        0.276680554683      0.291655937379      0.703642908601      -0.485568482863     0.703642908601      -0.485568482863     0.276680554683      0.291655937379      
9200000000.0        0.280230065004      0.292893976605      0.699647125887      -0.48897878926      0.699647125887      -0.48897878926      0.280230065004      0.292893976605      
9300000000.0        0.283783375251      0.294085707142      0.695642093079      -0.492344105025     0.695642093079      -0.492344105025     0.283783375251      0.294085707142      
9400000000.0        0.287339837895      0.295231344874      0.691628437825      -0.495664658891     0.691628437825      -0.495664658891     0.287339837895      0.295231344874      
9500000000.0        0.290898814917      0.296331114712      0.68760677801       -0.498940688586     0.68760677801       -0.498940688586     0.290898814917      0.296331114712      
9600000000.0        0.294459677891      0.297385250284      0.683577721674      -0.502172440516     0.683577721674      -0.502172440516     0.294459677891      0.297385250284      
9700000000.0        0.29802180806       0.29839399362       0.679541866932      -0.505360169456     0.679541866932      -0.505360169456     0.29802180806       0.29839399362       
9800000000.0        0.301584596403      0.299357594844      0.675499801906      -0.50850413824      0.675499801906      -0.50850413824      0.301584596403      0.299357594844      
9900000000.0        0.305147443695      0.300276311873      0.671452104665      -0.511604617458     0.671452104665      -0.511604617458     0.305147443695      0.300276311873      
10000000000.0       0.308709760554      0.30115041011       0.667399343175      -0.514661885148     0.667399343175      -0.514661885148     0.308709760554      0.30115041011       
