# Hz S RI R 50.00 
100000000.0         0.00628137681214    0.000430378363607   0.993717472432      -0.000579509490216  0.993717472432      -0.000579509490216  0.00628137681214    0.000430378363607   
200000000.0         0.00632318691031    0.000860674351496   0.993675489288      -0.00115893826875   0.993675489288      -0.00115893826875   0.00632318691031    0.000860674351496   
300000000.0         0.00635431149941    0.00129092238629    0.993644169361      -0.00173832163856   0.993644169361      -0.00173832163856   0.00635431149941    0.00129092238629    
400000000.0         0.00638020433255    0.00172113450621    0.993618058893      -0.00231767231889   0.993618058893      -0.00231767231889   0.00638020433255    0.00172113450621    
500000000.0         0.00640297161744    0.00215131749243    0.993595051676      -0.00289699767155   0.993595051676      -0.00289699767155   0.00640297161744    0.00215131749243    
600000000.0         0.00642369041453    0.00258147578158    0.993574070645      -0.00347630264805   0.993574070645      -0.00347630264805   0.00642369041453    0.00258147578158    
700000000.0         0.00644299868533    0.00301161251714    0.993554477835      -0.00405559085866   0.993554477835      -0.00405559085866   0.00644299868533    0.00301161251714    
800000000.0         0.00646131087341    0.00344173003924    0.993535858801      -0.00463486507291   0.993535858801      -0.00463486507291   0.00646131087341    0.00344173003924    
900000000.0         0.00647891399238    0.00387183014898    0.993517926524      -0.00521412749071   0.993517926524      -0.00521412749071   0.00647891399238    0.00387183014898    
1000000000.0        0.006496016381      0.00430191426538    0.993500472662      -0.00579337990434   0.993500472662      -0.00579337990434   0.006496016381      0.00430191426538    
1100000000.0        0.00651277483317    0.00473198352559    0.993483340418      -0.00637262380217   0.993483340418      -0.00637262380217   0.00651277483317    0.00473198352559    
1200000000.0        0.00652931078037    0.00516203885213    0.993466408355      -0.00695186043867   0.993466408355      -0.00695186043867   0.00652931078037    0.00516203885213    
1300000000.0        0.00654572048309    0.00559208099998    0.99344958021       -0.00753109088371   0.99344958021       -0.00753109088371   0.00654572048309    0.00559208099998    
1400000000.0        0.0065620817365     0.00602211059073    0.993432778183      -0.00811031605846   0.993432778183      -0.00811031605846   0.0065620817365     0.00602211059073    
1500000000.0        0.00657845844432    0.00645212813802    0.993415938365      -0.00868953676213   0.993415938365      -0.00868953676213   0.00657845844432    0.00645212813802    
1600000000.0        0.00659490383454    0.00688213406677    0.993399007525      -0.00926875369262   0.993399007525      -0.00926875369262   0.00659490383454    0.00688213406677    
1700000000.0        0.00661146277914    0.00731212872836    0.993381940785      -0.0098479674625    0.993381940785      -0.0098479674625    0.00661146277914    0.00731212872836    
1800000000.0        0.00662817350499    0.00774211241243    0.993364699915      -0.0104271786118    0.993364699915      -0.0104271786118    0.00662817350499    0.00774211241243    
1900000000.0        0.00664506888032    0.00817208535646    0.99334725204       -0.0110063876181    0.99334725204       -0.0110063876181    0.00664506888032    0.00817208535646    
2000000000.0        0.00666217739869    0.00860204775339    0.993329568663      -0.0115855949053    0.993329568663      -0.0115855949053    0.00666217739869    0.00860204775339    
2100000000.0        0.00667952394293    0.00903199975816    0.993311624896      -0.0121648008501    0.993311624896      -0.0121648008501    0.00667952394293    0.00903199975816    
2200000000.0        0.0066971303863     0.00946194149284    0.993293398859      -0.0127440057882    0.993293398859      -0.0127440057882    0.0066971303863     0.00946194149284    
2300000000.0        0.00671501607131    0.00989187305108    0.993274871206      -0.0133232100187    0.993274871206      -0.0133232100187    0.00671501607131    0.00989187305108    
2400000000.0        0.00673319819527    0.0103217945019     0.993256024734      -0.0139024138087    0.993256024734      -0.0139024138087    0.00673319819527    0.0103217945019     
2500000000.0        0.00675169212378    0.0107517058928     0.993236844071      -0.0144816173967    0.993236844071      -0.0144816173967    0.00675169212378    0.0107517058928     
2600000000.0        0.00677051164803    0.0111816072524     0.993217315422      -0.0150608209952    0.993217315422      -0.0150608209952    0.00677051164803    0.0111816072524     
2700000000.0        0.00678966919765    0.0116114985931     0.99319742635       -0.0156400247942    0.99319742635       -0.0156400247942    0.00678966919765    0.0116114985931     
2800000000.0        0.00680917601811    0.0120413799127     0.993177165606      -0.0162192289626    0.993177165606      -0.0162192289626    0.00680917601811    0.0120413799127     
2900000000.0        0.00682904231973    0.0124712511964     0.993156522971      -0.0167984336509    0.993156522971      -0.0167984336509    0.00682904231973    0.0124712511964     
3000000000.0        0.00684927740357    0.0129011124183     0.993135489141      -0.0173776389926    0.993135489141      -0.0173776389926    0.00684927740357    0.0129011124183     
3100000000.0        0.00686988976836    0.0133309635427     0.99311405561       -0.0179568451059    0.99311405561       -0.0179568451059    0.00686988976836    0.0133309635427     
3200000000.0        0.00689088720204    0.0137608045254     0.993092214585      -0.0185360520951    0.993092214585      -0.0185360520951    0.00689088720204    0.0137608045254     
3300000000.0        0.00691227686031    0.0141906353146     0.993069958903      -0.0191152600516    0.993069958903      -0.0191152600516    0.00691227686031    0.0141906353146     
3400000000.0        0.00693406533452    0.0146204558521     0.993047281968      -0.0196944690555    0.993047281968      -0.0196944690555    0.00693406533452    0.0146204558521     
3500000000.0        0.00695625871052    0.0150502660738     0.993024177687      -0.0202736791761    0.993024177687      -0.0202736791761    0.00695625871052    0.0150502660738     
3600000000.0        0.00697886261995    0.0154800659106     0.993000640423      -0.0208528904731    0.993000640423      -0.0208528904731    0.00697886261995    0.0154800659106     
3700000000.0        0.0070018822851     0.0159098552894     0.992976664947      -0.0214321029974    0.992976664947      -0.0214321029974    0.0070018822851     0.0159098552894     
3800000000.0        0.00702532255829    0.0163396341329     0.9929522464        -0.0220113167914    0.9929522464        -0.0220113167914    0.00702532255829    0.0163396341329     
3900000000.0        0.00704918795659    0.0167694023611     0.99292738026       -0.0225905318905    0.99292738026       -0.0225905318905    0.00704918795659    0.0167694023611     
4000000000.0        0.00707348269246    0.0171991598909     0.992902062308      -0.0231697483227    0.992902062308      -0.0231697483227    0.00707348269246    0.0171991598909     
4100000000.0        0.00709821070105    0.0176289066372     0.992876288602      -0.0237489661101    0.992876288602      -0.0237489661101    0.00709821070105    0.0176289066372     
4200000000.0        0.0071233756643     0.018058642513      0.992850055453      -0.0243281852687    0.992850055453      -0.0243281852687    0.0071233756643     0.018058642513      
4300000000.0        0.00714898103267    0.0184883674298     0.992823359405      -0.0249074058091    0.992823359405      -0.0249074058091    0.00714898103267    0.0184883674298     
4400000000.0        0.00717503004437    0.0189180812979     0.992796197214      -0.0254866277372    0.992796197214      -0.0254866277372    0.00717503004437    0.0189180812979     
4500000000.0        0.00720152574276    0.0193477840268     0.992768565829      -0.026065851054     0.992768565829      -0.026065851054     0.00720152574276    0.0193477840268     
4600000000.0        0.00722847099196    0.0197774755253     0.992740462379      -0.0266450757564    0.992740462379      -0.0266450757564    0.00722847099196    0.0197774755253     
4700000000.0        0.00725586849085    0.020207155702      0.99271188416       -0.0272243018376    0.99271188416       -0.0272243018376    0.00725586849085    0.020207155702      
4800000000.0        0.00728372078585    0.0206368244652     0.992682828619      -0.027803529287     0.992682828619      -0.027803529287     0.00728372078585    0.0206368244652     
4900000000.0        0.00731203028235    0.0210664817233     0.992653293342      -0.0283827580906    0.992653293342      -0.0283827580906    0.00731203028235    0.0210664817233     
5000000000.0        0.00734079925521    0.0214961273852     0.99262327605       -0.0289619882316    0.99262327605       -0.0289619882316    0.00734079925521    0.0214961273852     
5100000000.0        0.00737002985824    0.0219257613599     0.992592774581      -0.0295412196902    0.992592774581      -0.0295412196902    0.00737002985824    0.0219257613599     
5200000000.0        0.00739972413281    0.0223553835573     0.992561786888      -0.0301204524441    0.992561786888      -0.0301204524441    0.00739972413281    0.0223553835573     
5300000000.0        0.0074298840158     0.0227849938878     0.992530311026      -0.0306996864685    0.992530311026      -0.0306996864685    0.0074298840158     0.0227849938878     
5400000000.0        0.00746051134674    0.0232145922628     0.99249834515       -0.0312789217365    0.99249834515       -0.0312789217365    0.00746051134674    0.0232145922628     
5500000000.0        0.00749160787452    0.0236441785946     0.992465887505      -0.0318581582192    0.992465887505      -0.0318581582192    0.00749160787452    0.0236441785946     
5600000000.0        0.00752317526335    0.0240737527967     0.992432936418      -0.0324373958857    0.992432936418      -0.0324373958857    0.00752317526335    0.0240737527967     
5700000000.0        0.00755521509838    0.0245033147838     0.992399490299      -0.0330166347034    0.992399490299      -0.0330166347034    0.00755521509838    0.0245033147838     
5800000000.0        0.00758772889084    0.0249328644717     0.99236554763       -0.0335958746384    0.99236554763       -0.0335958746384    0.00758772889084    0.0249328644717     
5900000000.0        0.00762071808272    0.0253624017778     0.992331106961      -0.034175115655     0.992331106961      -0.034175115655     0.00762071808272    0.0253624017778     
6000000000.0        0.00765418405116    0.0257919266208     0.992296166909      -0.0347543577165    0.992296166909      -0.0347543577165    0.00765418405116    0.0257919266208     
6100000000.0        0.00768812811246    0.0262214389211     0.992260726152      -0.0353336007847    0.992260726152      -0.0353336007847    0.00768812811246    0.0262214389211     
6200000000.0        0.00772255152581    0.0266509386004     0.992224783422      -0.0359128448207    0.992224783422      -0.0359128448207    0.00772255152581    0.0266509386004     
6300000000.0        0.00775745549675    0.0270804255824     0.992188337508      -0.0364920897842    0.992188337508      -0.0364920897842    0.00775745549675    0.0270804255824     
6400000000.0        0.00779284118037    0.0275098997922     0.992151387248      -0.0370713356342    0.992151387248      -0.0370713356342    0.00779284118037    0.0275098997922     
6500000000.0        0.00782870968427    0.0279393611568     0.992113931528      -0.0376505823291    0.992113931528      -0.0376505823291    0.00782870968427    0.0279393611568     
6600000000.0        0.00786506207136    0.028368809605      0.992075969278      -0.0382298298262    0.992075969278      -0.0382298298262    0.00786506207136    0.028368809605      
6700000000.0        0.00790189936238    0.0287982450673     0.99203749947       -0.0388090780824    0.99203749947       -0.0388090780824    0.00790189936238    0.0287982450673     
6800000000.0        0.00793922253836    0.0292276674762     0.991998521118      -0.039388327054     0.991998521118      -0.039388327054     0.00793922253836    0.0292276674762     
6900000000.0        0.00797703254282    0.029657076766      0.99195903327       -0.0399675766967    0.99195903327       -0.0399675766967    0.00797703254282    0.029657076766      
7000000000.0        0.00801533028385    0.0300864728732     0.991919035012      -0.0405468269659    0.991919035012      -0.0405468269659    0.00801533028385    0.0300864728732     
7100000000.0        0.00805411663611    0.0305158557358     0.991878525463      -0.0411260778165    0.991878525463      -0.0411260778165    0.00805411663611    0.0305158557358     
7200000000.0        0.00809339244261    0.0309452252942     0.991837503773      -0.0417053292032    0.991837503773      -0.0417053292032    0.00809339244261    0.0309452252942     
7300000000.0        0.00813315851644    0.0313745814907     0.991795969123      -0.0422845810802    0.991795969123      -0.0422845810802    0.00813315851644    0.0313745814907     
7400000000.0        0.00817341564239    0.0318039242694     0.99175392072       -0.0428638334018    0.99175392072       -0.0428638334018    0.00817341564239    0.0318039242694     
7500000000.0        0.00821416457844    0.0322332535767     0.991711357801      -0.0434430861219    0.991711357801      -0.0434430861219    0.00821416457844    0.0322332535767     
7600000000.0        0.00825540605714    0.032662569361      0.991668279627      -0.0440223391943    0.991668279627      -0.0440223391943    0.00825540605714    0.032662569361      
7700000000.0        0.00829714078702    0.0330918715727     0.991624685481      -0.0446015925727    0.991624685481      -0.0446015925727    0.00829714078702    0.0330918715727     
7800000000.0        0.00833936945376    0.0335211601644     0.991580574673      -0.0451808462108    0.991580574673      -0.0451808462108    0.00833936945376    0.0335211601644     
7900000000.0        0.00838209272141    0.0339504350906     0.991535946531      -0.0457601000622    0.991535946531      -0.0457601000622    0.00838209272141    0.0339504350906     
8000000000.0        0.00842531123347    0.0343796963082     0.991490800406      -0.0463393540805    0.991490800406      -0.0463393540805    0.00842531123347    0.0343796963082     
8100000000.0        0.00846902561396    0.0348089437758     0.991445135667      -0.0469186082196    0.991445135667      -0.0469186082196    0.00846902561396    0.0348089437758     
8200000000.0        0.0085132364684     0.0352381774544     0.991398951702      -0.0474978624331    0.991398951702      -0.0474978624331    0.0085132364684     0.0352381774544     
8300000000.0        0.00855794438474    0.0356673973072     0.991352247917      -0.0480771166748    0.991352247917      -0.0480771166748    0.00855794438474    0.0356673973072     
8400000000.0        0.00860314993421    0.0360966032993     0.991305023735      -0.0486563708989    0.991305023735      -0.0486563708989    0.00860314993421    0.0360966032993     
8500000000.0        0.00864885367219    0.0365257953979     0.991257278593      -0.0492356250594    0.991257278593      -0.0492356250594    0.00864885367219    0.0365257953979     
8600000000.0        0.00869505613898    0.0369549735725     0.991209011945      -0.0498148791105    0.991209011945      -0.0498148791105    0.00869505613898    0.0369549735725     
8700000000.0        0.00874175786056    0.0373841377946     0.991160223259      -0.0503941330069    0.991160223259      -0.0503941330069    0.00874175786056    0.0373841377946     
8800000000.0        0.00878895934925    0.0378132880379     0.991110912016      -0.0509733867032    0.991110912016      -0.0509733867032    0.00878895934925    0.0378132880379     
8900000000.0        0.00883666110443    0.0382424242782     0.991061077711      -0.0515526401543    0.991061077711      -0.0515526401543    0.00883666110443    0.0382424242782     
9000000000.0        0.00888486361316    0.0386715464933     0.991010719851      -0.0521318933154    0.991010719851      -0.0521318933154    0.00888486361316    0.0386715464933     
9100000000.0        0.00893356735077    0.0391006546633     0.990959837954      -0.0527111461419    0.990959837954      -0.0527111461419    0.00893356735077    0.0391006546633     
9200000000.0        0.00898277278141    0.0395297487703     0.990908431549      -0.0532903985894    0.990908431549      -0.0532903985894    0.00898277278141    0.0395297487703     
9300000000.0        0.00903248035865    0.0399588287985     0.990856500178      -0.0538696506141    0.990856500178      -0.0538696506141    0.00903248035865    0.0399588287985     
9400000000.0        0.00908269052597    0.0403878947343     0.990804043391      -0.0544489021721    0.990804043391      -0.0544489021721    0.00908269052597    0.0403878947343     
9500000000.0        0.00913340371721    0.040816946566      0.990751060747      -0.0550281532201    0.990751060747      -0.0550281532201    0.00913340371721    0.040816946566      
9600000000.0        0.00918462035712    0.0412459842843     0.990697551817      -0.0556074037149    0.990697551817      -0.0556074037149    0.00918462035712    0.0412459842843     
9700000000.0        0.00923634086172    0.0416750078818     0.990643516179      -0.0561866536139    0.990643516179      -0.0561866536139    0.00923634086172    0.0416750078818     
9800000000.0        0.00928856563879    0.042104017353      0.990588953419      -0.0567659028745    0.990588953419      -0.0567659028745    0.00928856563879    0.042104017353      
9900000000.0        0.00934129508823    0.0425330126948     0.990533863131      -0.0573451514547    0.990533863131      -0.0573451514547    0.00934129508823    0.0425330126948     
10000000000.0       0.00939452960246    0.0429619939061     0.990478244917      -0.0579243993128    0.990478244917      -0.0579243993128    0.00939452960246    0.0429619939061     
