# Hz S RI R 50.00 
100000000.0         0.0141561665344     0.000773253884869   0.985842460414      -0.00111177103559   0.985842460414      -0.00111177103559   0.0141561665344     0.000773253884869   
200000000.0         0.0142505414858     0.00154615223257    0.985747597258      -0.00222318759349   0.985747597258      -0.00222318759349   0.0142505414858     0.00154615223257    
300000000.0         0.0143216374489     0.00231883438177    0.985675897929      -0.00333438969629   0.985675897929      -0.00333438969629   0.0143216374489     0.00231883438177    
400000000.0         0.0143816511914     0.00309134617357    0.985615165652      -0.00444542372795   0.985615165652      -0.00444542372795   0.0143816511914     0.00309134617357    
500000000.0         0.0144352930311     0.00386371166016    0.985560690101      -0.00555631421319   0.985560690101      -0.00555631421319   0.0144352930311     0.00386371166016    
600000000.0         0.0144849716536     0.00463594522863    0.985510062583      -0.006667075966     0.985510062583      -0.006667075966     0.0144849716536     0.00463594522863    
700000000.0         0.0145321137026     0.00540805595813    0.985461856448      -0.00777771845944   0.985461856448      -0.00777771845944   0.0145321137026     0.00540805595813    
800000000.0         0.0145776459121     0.00618004964169    0.985415144953      -0.00888824785495   0.985415144953      -0.00888824785495   0.0145776459121     0.00618004964169    
900000000.0         0.014622210003      0.00695192987249    0.98536928637       -0.00999866809351   0.98536928637       -0.00999866809351   0.014622210003      0.00695192987249    
1000000000.0        0.0146662717228     0.00772369868714    0.985323814943      -0.0111089815424    0.985323814943      -0.0111089815424    0.0146662717228     0.00772369868714    
1100000000.0        0.0147101815206     0.00849535697418    0.985278380215      -0.0122191894064    0.985278380215      -0.0122191894064    0.0147101815206     0.00849535697418    
1200000000.0        0.01475421074       0.00926690474777    0.985232710832      -0.013329292003     0.985232710832      -0.013329292003     0.01475421074       0.00926690474777    
1300000000.0        0.0147985744113     0.0100383413386     0.985186591757      -0.0144392889552    0.985186591757      -0.0144392889552    0.0147985744113     0.0100383413386     
1400000000.0        0.0148434462497     0.0108096655317     0.985139849264      -0.0155491793308    0.985139849264      -0.0155491793308    0.0148434462497     0.0108096655317     
1500000000.0        0.0148889688839     0.0115808756694     0.985092340715      -0.0166589617452    0.985092340715      -0.0166589617452    0.0148889688839     0.0115808756694     
1600000000.0        0.0149352610488     0.0123519697281     0.985043947365      -0.0177686344405    0.985043947365      -0.0177686344405    0.0149352610488     0.0123519697281     
1700000000.0        0.0149824227734     0.0131229453795     0.984994569175      -0.0188781953464    0.984994569175      -0.0188781953464    0.0149824227734     0.0131229453795     
1800000000.0        0.0150305392069     0.0138938000378     0.984944120986      -0.0199876421282    0.984944120986      -0.0199876421282    0.0150305392069     0.0138938000378     
1900000000.0        0.0150796834962     0.0146645308976     0.984892529639      -0.0210969722256    0.984892529639      -0.0210969722256    0.0150796834962     0.0146645308976     
2000000000.0        0.0151299189864     0.0154351349651     0.984839731778      -0.0222061828838    0.984839731778      -0.0222061828838    0.0151299189864     0.0154351349651     
2100000000.0        0.0151813009295     0.016205609083      0.984785672141      -0.0233152711793    0.984785672141      -0.0233152711793    0.0151813009295     0.016205609083      
2200000000.0        0.0152338778285     0.016975949952      0.984730302212      -0.024424234041     0.984730302212      -0.024424234041     0.0152338778285     0.016975949952      
2300000000.0        0.0152876925088     0.017746154148      0.984673579154      -0.0255330682687    0.984673579154      -0.0255330682687    0.0152876925088     0.017746154148      
2400000000.0        0.0153427829799     0.0185162181369     0.984615464946      -0.0266417705476    0.984615464946      -0.0266417705476    0.0153427829799     0.0185162181369     
2500000000.0        0.0153991831367     0.0192861382877     0.98455592568       -0.0277503374613    0.98455592568       -0.0277503374613    0.0153991831367     0.0192861382877     
2600000000.0        0.015456923335      0.0200559108827     0.984494930987      -0.028858765503     0.984494930987      -0.028858765503     0.015456923335      0.0200559108827     
2700000000.0        0.0155160308674     0.0208255321273     0.984432453562      -0.0299670510851    0.984432453562      -0.0299670510851    0.0155160308674     0.0208255321273     
2800000000.0        0.0155765303602     0.0215949981576     0.984368468765      -0.0310751905468    0.984368468765      -0.0310751905468    0.0155765303602     0.0215949981576     
2900000000.0        0.0156384441063     0.022364305048      0.984302954289      -0.0321831801624    0.984302954289      -0.0321831801624    0.0156384441063     0.022364305048      
3000000000.0        0.015701792347      0.0231334488171     0.984235889881      -0.0332910161467    0.984235889881      -0.0332910161467    0.015701792347      0.0231334488171     
3100000000.0        0.0157665935108     0.0239024254331     0.984167257096      -0.0343986946609    0.984167257096      -0.0343986946609    0.0157665935108     0.0239024254331     
3200000000.0        0.0158328644187     0.0246712308185     0.9840970391        -0.0355062118176    0.9840970391        -0.0355062118176    0.0158328644187     0.0246712308185     
3300000000.0        0.0159006204592     0.0254398608548     0.984025220489      -0.0366135636854    0.984025220489      -0.0366135636854    0.0159006204592     0.0254398608548     
3400000000.0        0.0159698757405     0.026208311386      0.983951787141      -0.0377207462922    0.983951787141      -0.0377207462922    0.0159698757405     0.026208311386      
3500000000.0        0.0160406432217     0.0269765782219     0.983876726081      -0.0388277556294    0.983876726081      -0.0388277556294    0.0160406432217     0.0269765782219     
3600000000.0        0.0161129348281     0.0277446571415     0.983800025368      -0.0399345876546    0.983800025368      -0.0399345876546    0.0161129348281     0.0277446571415     
3700000000.0        0.0161867615509     0.0285125438956     0.983721673996      -0.0410412382947    0.983721673996      -0.0410412382947    0.0161867615509     0.0285125438956     
3800000000.0        0.0162621335356     0.0292802342093     0.983641661804      -0.0421477034483    0.983641661804      -0.0421477034483    0.0162621335356     0.0292802342093     
3900000000.0        0.0163390601596     0.0300477237841     0.983559979397      -0.0432539789882    0.983559979397      -0.0432539789882    0.0163390601596     0.0300477237841     
4000000000.0        0.0164175501005     0.0308150083002     0.983476618083      -0.0443600607635    0.983476618083      -0.0443600607635    0.0164175501005     0.0308150083002     
4100000000.0        0.0164976113974     0.0315820834184     0.983391569805      -0.0454659446015    0.983391569805      -0.0454659446015    0.0164976113974     0.0315820834184     
4200000000.0        0.0165792515045     0.0323489447814     0.983304827092      -0.0465716263093    0.983304827092      -0.0465716263093    0.0165792515045     0.0323489447814     
4300000000.0        0.0166624773399     0.0331155880161     0.983216383009      -0.0476771016757    0.983216383009      -0.0476771016757    0.0166624773399     0.0331155880161     
4400000000.0        0.0167472953287     0.0338820087341     0.983126231114      -0.0487823664729    0.983126231114      -0.0487823664729    0.0167472953287     0.0338820087341     
4500000000.0        0.0168337114415     0.0346482025339     0.983034365419      -0.0498874164571    0.983034365419      -0.0498874164571    0.0168337114415     0.0346482025339     
4600000000.0        0.0169217312296     0.0354141650015     0.982940780355      -0.0509922473707    0.982940780355      -0.0509922473707    0.0169217312296     0.0354141650015     
4700000000.0        0.0170113598564     0.036179891712      0.98284547074       -0.0520968549426    0.98284547074       -0.0520968549426    0.0170113598564     0.036179891712      
4800000000.0        0.0171026021254     0.0369453782302     0.982748431753      -0.0532012348902    0.982748431753      -0.0532012348902    0.0171026021254     0.0369453782302     
4900000000.0        0.0171954625065     0.0377106201118     0.982649658906      -0.0543053829195    0.982649658906      -0.0543053829195    0.0171954625065     0.0377106201118     
5000000000.0        0.0172899451591     0.0384756129044     0.98254914802       -0.0554092947268    0.98254914802       -0.0554092947268    0.0172899451591     0.0384756129044     
5100000000.0        0.0173860539531     0.039240352148      0.982446895207      -0.0565129659991    0.982446895207      -0.0565129659991    0.0173860539531     0.039240352148      
5200000000.0        0.0174837924886     0.0400048333763     0.982342896847      -0.0576163924151    0.982342896847      -0.0576163924151    0.0174837924886     0.0400048333763     
5300000000.0        0.0175831641134     0.0407690521169     0.982237149575      -0.0587195696459    0.982237149575      -0.0587195696459    0.0175831641134     0.0407690521169     
5400000000.0        0.0176841719388     0.041533003892      0.982129650259      -0.0598224933559    0.982129650259      -0.0598224933559    0.0176841719388     0.041533003892      
5500000000.0        0.017786818855      0.0422966842197     0.982020395989      -0.060925159203     0.982020395989      -0.060925159203     0.017786818855      0.0422966842197     
5600000000.0        0.0178911075442     0.0430600886138     0.981909384063      -0.06202756284      0.981909384063      -0.06202756284      0.0178911075442     0.0430600886138     
5700000000.0        0.0179970404932     0.0438232125847     0.981796611975      -0.0631296999144    0.981796611975      -0.0631296999144    0.0179970404932     0.0438232125847     
5800000000.0        0.0181046200048     0.04458605164       0.981682077401      -0.0642315660695    0.981682077401      -0.0642315660695    0.0181046200048     0.04458605164       
5900000000.0        0.0182138482085     0.0453486012849     0.981565778192      -0.0653331569445    0.981565778192      -0.0653331569445    0.0182138482085     0.0453486012849     
6000000000.0        0.0183247270701     0.0461108570227     0.981447712361      -0.0664344681755    0.981447712361      -0.0664344681755    0.0183247270701     0.0461108570227     
6100000000.0        0.0184372584006     0.0468728143551     0.981327878076      -0.0675354953956    0.981327878076      -0.0675354953956    0.0184372584006     0.0468728143551     
6200000000.0        0.018551443865      0.0476344687829     0.981206273651      -0.0686362342353    0.981206273651      -0.0686362342353    0.018551443865      0.0476344687829     
6300000000.0        0.0186672849894     0.048395815806      0.98108289754       -0.0697366803232    0.98108289754       -0.0697366803232    0.0186672849894     0.048395815806      
6400000000.0        0.0187847831686     0.0491568509244     0.980957748325      -0.0708368292863    0.980957748325      -0.0708368292863    0.0187847831686     0.0491568509244     
6500000000.0        0.0189039396727     0.0499175696378     0.980830824715      -0.0719366767502    0.980830824715      -0.0719366767502    0.0189039396727     0.0499175696378     
6600000000.0        0.0190247556531     0.0506779674464     0.980702125537      -0.0730362183398    0.980702125537      -0.0730362183398    0.0190247556531     0.0506779674464     
6700000000.0        0.0191472321485     0.0514380398513     0.980571649731      -0.0741354496792    0.980571649731      -0.0741354496792    0.0191472321485     0.0514380398513     
6800000000.0        0.0192713700901     0.0521977823543     0.980439396343      -0.0752343663925    0.980439396343      -0.0752343663925    0.0192713700901     0.0521977823543     
6900000000.0        0.0193971703065     0.0529571904589     0.980305364522      -0.0763329641036    0.980305364522      -0.0763329641036    0.0193971703065     0.0529571904589     
7000000000.0        0.0195246335287     0.0537162596699     0.980169553514      -0.0774312384372    0.980169553514      -0.0774312384372    0.0195246335287     0.0537162596699     
7100000000.0        0.0196537603944     0.0544749854942     0.98003196266       -0.0785291850183    0.98003196266       -0.0785291850183    0.0196537603944     0.0544749854942     
7200000000.0        0.0197845514518     0.0552333634406     0.979892591388      -0.079626799473     0.979892591388      -0.079626799473     0.0197845514518     0.0552333634406     
7300000000.0        0.0199170071638     0.0559913890205     0.979751439212      -0.0807240774286    0.979751439212      -0.0807240774286    0.0199170071638     0.0559913890205     
7400000000.0        0.0200511279113     0.0567490577477     0.979608505729      -0.0818210145138    0.979608505729      -0.0818210145138    0.0200511279113     0.0567490577477     
7500000000.0        0.0201869139968     0.0575063651388     0.979463790612      -0.082917606359     0.979463790612      -0.082917606359     0.0201869139968     0.0575063651388     
7600000000.0        0.0203243656475     0.0582633067138     0.97931729361       -0.0840138485966    0.97931729361       -0.0840138485966    0.0203243656475     0.0582633067138     
7700000000.0        0.0204634830183     0.0590198779955     0.979169014546      -0.0851097368612    0.979169014546      -0.0851097368612    0.0204634830183     0.0590198779955     
7800000000.0        0.0206042661943     0.0597760745104     0.97901895331       -0.0862052667895    0.97901895331       -0.0862052667895    0.0206042661943     0.0597760745104     
7900000000.0        0.0207467151941     0.0605318917884     0.978867109859      -0.087300434021     0.978867109859      -0.087300434021     0.0207467151941     0.0605318917884     
8000000000.0        0.0208908299715     0.0612873253637     0.978713484216      -0.088395234198     0.978713484216      -0.088395234198     0.0208908299715     0.0612873253637     
8100000000.0        0.0210366104187     0.0620423707738     0.978558076463      -0.0894896629654    0.978558076463      -0.0894896629654    0.0210366104187     0.0620423707738     
8200000000.0        0.0211840563676     0.0627970235611     0.978400886745      -0.0905837159718    0.978400886745      -0.0905837159718    0.0211840563676     0.0627970235611     
8300000000.0        0.0213331675927     0.0635512792716     0.978241915262      -0.0916773888686    0.978241915262      -0.0916773888686    0.0213331675927     0.0635512792716     
8400000000.0        0.0214839438124     0.0643051334564     0.978081162271      -0.092770677311     0.978081162271      -0.092770677311     0.0214839438124     0.0643051334564     
8500000000.0        0.0216363846917     0.065058581671      0.977918628082      -0.0938635769577    0.977918628082      -0.0938635769577    0.0216363846917     0.065058581671      
8600000000.0        0.0217904898429     0.0658116194755     0.977754313058      -0.0949560834714    0.977754313058      -0.0949560834714    0.0217904898429     0.0658116194755     
8700000000.0        0.0219462588282     0.0665642424353     0.97758821761       -0.0960481925186    0.97758821761       -0.0960481925186    0.0219462588282     0.0665642424353     
8800000000.0        0.022103691161      0.0673164461206     0.977420342201      -0.0971398997699    0.977420342201      -0.0971398997699    0.022103691161      0.0673164461206     
8900000000.0        0.022262786307      0.068068226107      0.977250687338      -0.0982312009005    0.977250687338      -0.0982312009005    0.022262786307      0.068068226107      
9000000000.0        0.0224235436865     0.0688195779752     0.977079253576      -0.0993220915896    0.977079253576      -0.0993220915896    0.0224235436865     0.0688195779752     
9100000000.0        0.0225859626748     0.0695704973116     0.976906041514      -0.100412567521     0.976906041514      -0.100412567521     0.0225859626748     0.0695704973116     
9200000000.0        0.0227500426042     0.0703209797081     0.976731051792      -0.101502624384     0.976731051792      -0.101502624384     0.0227500426042     0.0703209797081     
9300000000.0        0.0229157827648     0.0710710207624     0.976554285095      -0.102592257871     0.976554285095      -0.102592257871     0.0229157827648     0.0710710207624     
9400000000.0        0.0230831824061     0.0718206160779     0.976375742147      -0.103681463682     0.976375742147      -0.103681463682     0.0230831824061     0.0718206160779     
9500000000.0        0.0232522407376     0.0725697612639     0.976195423712      -0.104770237519     0.976195423712      -0.104770237519     0.0232522407376     0.0725697612639     
9600000000.0        0.0234229569304     0.073318451936      0.976013330591      -0.105858575091     0.976013330591      -0.105858575091     0.0234229569304     0.073318451936      
9700000000.0        0.0235953301176     0.0740666837158     0.975829463626      -0.106946472112     0.975829463626      -0.106946472112     0.0235953301176     0.0740666837158     
9800000000.0        0.023769359396      0.0748144522312     0.975643823692      -0.108033924302     0.975643823692      -0.108033924302     0.023769359396      0.0748144522312     
9900000000.0        0.0239450438262     0.0755617531164     0.975456411701      -0.109120927386     0.975456411701      -0.109120927386     0.0239450438262     0.0755617531164     
10000000000.0       0.0241223824344     0.0763085820121     0.9752672286        -0.110207477094     0.9752672286        -0.110207477094     0.0241223824344     0.0763085820121     
