# Hz S RI R 50.00 
100000000.0         -0.00103820917276   -0.0318340839029    0.998937180816      -0.0319525245981    0.998937180816      -0.0319525245981    -0.00103820917276   -0.0318340839029    
200000000.0         -0.00411138310805   -0.0634662397567    0.995863817739      -0.0637031620134    0.995863817739      -0.0637031620134    -0.00411138310805   -0.0634662397567    
300000000.0         -0.00916941478477   -0.0947046809943    0.990805625151      -0.0950601463614    0.990805625151      -0.0950601463614    -0.00916941478477   -0.0947046809943    
400000000.0         -0.0161503422503    -0.125366131559     0.983824543827      -0.125840217044     0.983824543827      -0.125840217044     -0.0161503422503    -0.125366131559     
500000000.0         -0.0249706056346    -0.15527906166      0.9750041255        -0.155871856907     0.9750041255        -0.155871856907     -0.0249706056346    -0.15527906166      
600000000.0         -0.0355275192791    -0.184286584982     0.964447051679      -0.184998190299     0.964447051679      -0.184998190299     -0.0355275192791    -0.184286584982     
700000000.0         -0.0477021740359    -0.212248817118     0.952272229054      -0.213079341951     0.952272229054      -0.213079341951     -0.0477021740359    -0.212248817118     
800000000.0         -0.0613626275789    -0.239044614469     0.938611598348      -0.23999417615      0.938611598348      -0.23999417615      -0.0613626275789    -0.239044614469     
900000000.0         -0.0763672358848    -0.264572664949     0.923606802466      -0.265641387633     0.923606802466      -0.265641387633     -0.0763672358848    -0.264572664949     
1000000000.0        -0.0925679846155    -0.288751941885     0.907405854924      -0.289939955626     0.907405854924      -0.289939955626     -0.0925679846155    -0.288751941885     
1100000000.0        -0.109813693655     -0.311521565202     0.890159935213      -0.312829005139     0.890159935213      -0.312829005139     -0.109813693655     -0.311521565202     
1200000000.0        -0.127952989056     -0.332840138947     0.872020416782      -0.334267144581     0.872020416782      -0.334267144581     -0.127952989056     -0.332840138947     
1300000000.0        -0.146836961506     -0.35268465118      0.853136208543      -0.354231365722     0.853136208543      -0.354231365722     -0.146836961506     -0.35268465118      
1400000000.0        -0.166321456539     -0.371049031248     0.833651464628      -0.372715601033     0.833651464628      -0.372715601033     -0.166321456539     -0.371049031248     
1500000000.0        -0.186268966991     -0.387942461322     0.813703691916      -0.389729035281     0.813703691916      -0.389729035281     -0.186268966991     -0.387942461322     
1600000000.0        -0.206550120838     -0.403387534878     0.79342226219       -0.405294264056     0.79342226219       -0.405294264056     -0.206550120838     -0.403387534878     
1700000000.0        -0.227044776525     -0.417418346158     0.772927316787      -0.419445383279     0.772927316787      -0.419445383279     -0.227044776525     -0.417418346158     
1800000000.0        -0.24764275263      -0.430078582937     0.752329036944      -0.432226082013     0.752329036944      -0.432226082013     -0.24764275263      -0.430078582937     
1900000000.0        -0.268244229029     -0.441419681683     0.731727242612      -0.443687797652     0.731727242612      -0.443687797652     -0.268244229029     -0.441419681683     
2000000000.0        -0.288759863103     -0.451499090562     0.711211276259      -0.453887978968     0.711211276259      -0.453887978968     -0.288759863103     -0.451499090562     
2100000000.0        -0.309110667248     -0.460378672706     0.690860125347      -0.462888489404     0.690860125347      -0.462888489404     -0.309110667248     -0.460378672706     
2200000000.0        -0.32922769388      -0.468123270366     0.670742737332      -0.470754171258     0.670742737332      -0.470754171258     -0.32922769388      -0.468123270366     
2300000000.0        -0.349051571857     -0.474799440416     0.650918483236      -0.477551581213     0.650918483236      -0.477551581213     -0.349051571857     -0.474799440416     
2400000000.0        -0.368531934435     -0.480474363363     0.631437729692      -0.483347899373     0.631437729692      -0.483347899373     -0.368531934435     -0.480474363363     
2500000000.0        -0.387626774202     -0.485214921527     0.612342484009      -0.488210007459     0.612342484009      -0.488210007459     -0.387626774202     -0.485214921527     
2600000000.0        -0.406301755291     -0.489086937275     0.593667081955      -0.492203727074     0.593667081955      -0.492203727074     -0.406301755291     -0.489086937275     
2700000000.0        -0.424529507994     -0.492154558956     0.575438893145      -0.495393205647     0.575438893145      -0.495393205647     -0.424529507994     -0.492154558956     
2800000000.0        -0.442288925973     -0.4944797802       0.557679023833      -0.497840435756     0.557679023833      -0.497840435756     -0.442288925973     -0.4944797802       
2900000000.0        -0.459564481683     -0.496122077349     0.540403001477      -0.49960489257      0.540403001477      -0.49960489257      -0.459564481683     -0.496122077349     
3000000000.0        -0.476345571663     -0.497138149645     0.523621429462      -0.500743274058     0.523621429462      -0.500743274058     -0.476345571663     -0.497138149645     
3100000000.0        -0.492625899819     -0.497581747317     0.507340603806      -0.501309329086     0.507340603806      -0.501309329086     -0.492625899819     -0.497581747317     
3200000000.0        -0.508402904012     -0.497503573561     0.491563086575      -0.501353759407     0.491563086575      -0.501353759407     -0.508402904012     -0.497503573561     
3300000000.0        -0.523677228835     -0.496951247605     0.476288233108      -0.500924182746     0.476288233108      -0.500924182746     -0.523677228835     -0.496951247605     
3400000000.0        -0.538452245661     -0.495969317325     0.461512671966      -0.500065145417     0.461512671966      -0.500065145417     -0.538452245661     -0.495969317325     
3500000000.0        -0.552733619563     -0.494599311229     0.447230738012      -0.498818174323     0.447230738012      -0.498818174323     -0.552733619563     -0.494599311229     
3600000000.0        -0.566528921672     -0.492879820968     0.433434860053      -0.497221859474     0.433434860053      -0.497221859474     -0.566528921672     -0.492879820968     
3700000000.0        -0.579847284788     -0.490846606795     0.420115905231      -0.495311959455     0.420115905231      -0.495311959455     -0.579847284788     -0.490846606795     
3800000000.0        -0.592699099525     -0.488532719569     0.407263482875      -0.493121523432     0.407263482875      -0.493121523432     -0.592699099525     -0.488532719569     
3900000000.0        -0.60509574802      -0.485968633971     0.394866210793      -0.490681024387     0.394866210793      -0.490681024387     -0.60509574802      -0.485968633971     
4000000000.0        -0.617049372049     -0.483182388557     0.382911947154      -0.488018499162     0.382911947154      -0.488018499162     -0.617049372049     -0.483182388557     
4100000000.0        -0.628572672411     -0.48019972909      0.371387991109      -0.485159691809     0.371387991109      -0.485159691809     -0.628572672411     -0.48019972909      
4200000000.0        -0.639678736471     -0.477044252323     0.360281255244      -0.48212819737      0.360281255244      -0.48212819737      -0.639678736471     -0.477044252323     
4300000000.0        -0.650380890907     -0.473737548034     0.34957841283       -0.478945603922     0.34957841283       -0.478945603922     -0.650380890907     -0.473737548034     
4400000000.0        -0.66069257687      -0.4702993376       0.339266022671      -0.47563163115      0.339266022671      -0.47563163115      -0.66069257687      -0.4702993376       
4500000000.0        -0.67062724494      -0.466747607867     0.329330634139      -0.472204264225     0.329330634139      -0.472204264225     -0.67062724494      -0.466747607867     
4600000000.0        -0.680198267518     -0.46309873941      0.319758874791      -0.468679882064     0.319758874791      -0.468679882064     -0.680198267518     -0.46309873941      
4700000000.0        -0.689418866433     -0.459367628571     0.310537522752      -0.465073379374     0.310537522752      -0.465073379374     -0.689418866433     -0.459367628571     
4800000000.0        -0.698302053837     -0.455567802913     0.30165356583       -0.461398282105     0.30165356583       -0.461398282105     -0.698302053837     -0.455567802913     
4900000000.0        -0.70686058458      -0.45171152989      0.293094249131      -0.457666856125     0.293094249131      -0.457666856125     -0.70686058458      -0.45171152989      
5000000000.0        -0.71510691852      -0.447809918712     0.28484711276       -0.453890209086     0.28484711276       -0.453890209086     -0.71510691852      -0.447809918712     
5100000000.0        -0.723053191333     -0.443873015474     0.276900020997      -0.450078385554     0.276900020997      -0.450078385554     -0.723053191333     -0.443873015474     
5200000000.0        -0.730711192617     -0.43990989171      0.269241184209      -0.446240455567     0.269241184209      -0.446240455567     -0.730711192617     -0.43990989171      
5300000000.0        -0.738092350173     -0.435928726601     0.261859174557      -0.44238459684      0.261859174557      -0.44238459684      -0.738092350173     -0.435928726601     
5400000000.0        -0.745207719526     -0.431936883108     0.254742936478      -0.438518170904     0.254742936478      -0.438518170904     -0.745207719526     -0.431936883108     
5500000000.0        -0.752067977848     -0.427940978328     0.247881792763      -0.434647793457     0.247881792763      -0.434647793457     -0.752067977848     -0.427940978328     
5600000000.0        -0.75868342156      -0.423946948385     0.241265446956      -0.430779399264     0.241265446956      -0.430779399264     -0.75868342156      -0.423946948385     
5700000000.0        -0.765063966985     -0.419960108195     0.234883982699      -0.426918301911     0.234883982699      -0.426918301911     -0.765063966985     -0.419960108195     
5800000000.0        -0.771219153506     -0.415985206412     0.228727860575      -0.423069248765     0.228727860575      -0.423069248765     -0.771219153506     -0.415985206412     
5900000000.0        -0.777158148773     -0.412026475905     0.222787912899      -0.419236471439     0.222787912899      -0.419236471439     -0.777158148773     -0.412026475905     
6000000000.0        -0.782889755551     -0.408087680043     0.217055336873      -0.415423732087     0.217055336873      -0.415423732087     -0.782889755551     -0.408087680043     
6100000000.0        -0.788422419867     -0.404172155133     0.211521686436      -0.411634365831     0.211521686436      -0.411634365831     -0.788422419867     -0.404172155133     
6200000000.0        -0.79376424017      -0.400282849255     0.206178863108      -0.407871319611     0.206178863108      -0.407871319611     -0.79376424017      -0.400282849255     
6300000000.0        -0.798922977253     -0.396422357812     0.201019106065      -0.40413718772      0.201019106065      -0.40413718772      -0.798922977253     -0.396422357812     
6400000000.0        -0.803906064725     -0.392592956021     0.196034981662      -0.400434244304     0.196034981662      -0.400434244304     -0.803906064725     -0.392592956021     
6500000000.0        -0.808720619872     -0.388796628598     0.191219372585      -0.396764473044     0.191219372585      -0.396764473044     -0.808720619872     -0.388796628598     
6600000000.0        -0.813373454736     -0.385035096875     0.186565466759      -0.393129594273     0.186565466759      -0.393129594273     -0.813373454736     -0.385035096875     
6700000000.0        -0.817871087316     -0.381309843545     0.182066746157      -0.389531089719     0.182066746157      -0.389531089719     -0.817871087316     -0.381309843545     
6800000000.0        -0.822219752764     -0.377622135235     0.177716975593      -0.385970225081     0.177716975593      -0.385970225081     -0.822219752764     -0.377622135235     
6900000000.0        -0.826425414524     -0.373973043098     0.173510191594      -0.382448070617     0.173510191594      -0.382448070617     -0.826425414524     -0.373973043098     
7000000000.0        -0.830493775311     -0.370363461578     0.169440691415      -0.378965519913     0.169440691415      -0.378965519913     -0.830493775311     -0.370363461578     
7100000000.0        -0.834430287906     -0.366794125521     0.165503022246      -0.375523306987     0.165503022246      -0.375523306987     -0.834430287906     -0.366794125521     
7200000000.0        -0.838240165709     -0.363265625748     0.161691970656      -0.37212202187      0.161691970656      -0.37212202187      -0.838240165709     -0.363265625748     
7300000000.0        -0.841928393019     -0.359778423258     0.158002552315      -0.368762124797     0.158002552315      -0.368762124797     -0.841928393019     -0.359778423258     
7400000000.0        -0.845499735023     -0.356332862138     0.15443000201       -0.365443959132     0.15443000201       -0.365443959132     -0.845499735023     -0.356332862138     
7500000000.0        -0.848958747462     -0.352929181335     0.150969763968      -0.362167763122     0.150969763968      -0.362167763122     -0.848958747462     -0.352929181335     
7600000000.0        -0.852309785975     -0.349567525355     0.147617482523      -0.358933680611     0.147617482523      -0.358933680611     -0.852309785975     -0.349567525355     
7700000000.0        -0.855557015106     -0.346247954002     0.144368993098      -0.355741770766     0.144368993098      -0.355741770766     -0.855557015106     -0.346247954002     
7800000000.0        -0.858704416976     -0.342970451236     0.141220313546      -0.352592016943     0.141220313546      -0.352592016943     -0.858704416976     -0.342970451236     
7900000000.0        -0.861755799608     -0.339734933224     0.138167635815      -0.349484334735     0.138167635815      -0.349484334735     -0.861755799608     -0.339734933224     
8000000000.0        -0.864714804919     -0.336541255666     0.135207317958      -0.346418579295     0.135207317958      -0.346418579295     -0.864714804919     -0.336541255666     
8100000000.0        -0.867584916379     -0.333389220447     0.132335876474      -0.343394551989     0.132335876474      -0.343394551989     -0.867584916379     -0.333389220447     
8200000000.0        -0.870369466345     -0.330278581679     0.129549978981      -0.340412006437     0.129549978981      -0.340412006437     -0.870369466345     -0.330278581679     
8300000000.0        -0.873071643063     -0.327209051193     0.126846437201      -0.337470654009     0.126846437201      -0.337470654009     -0.873071643063     -0.327209051193     
8400000000.0        -0.875694497378     -0.324180303525     0.124222200261      -0.3345701688       0.124222200261      -0.3345701688       -0.875694497378     -0.324180303525     
8500000000.0        -0.878240949122     -0.321191980435     0.121674348299      -0.33171019216      0.121674348299      -0.33171019216      -0.878240949122     -0.321191980435     
8600000000.0        -0.880713793221     -0.318243695013     0.119200086361      -0.328890336792     0.119200086361      -0.328890336792     -0.880713793221     -0.318243695013     
8700000000.0        -0.883115705518     -0.315335035399     0.116796738573      -0.326110190474     0.116796738573      -0.326110190474     -0.883115705518     -0.315335035399     
8800000000.0        -0.88544924832      -0.312465568154     0.114461742601      -0.323369319429     0.114461742601      -0.323369319429     -0.88544924832      -0.312465568154     
8900000000.0        -0.887716875684     -0.309634841315     0.112192644357      -0.320667271378     0.112192644357      -0.320667271378     -0.887716875684     -0.309634841315     
9000000000.0        -0.889920938456     -0.306842387158     0.109987092966      -0.318003578306     0.109987092966      -0.318003578306     -0.889920938456     -0.306842387158     
9100000000.0        -0.892063689066     -0.3040877247       0.107842835968      -0.315377758961     0.107842835968      -0.315377758961     -0.892063689066     -0.3040877247       
9200000000.0        -0.89414728609      -0.301370361958     0.105757714758      -0.312789321112     0.105757714758      -0.312789321112     -0.89414728609      -0.301370361958     
9300000000.0        -0.896173798598     -0.298689797993     0.103729660234      -0.310237763592     0.103729660234      -0.310237763592     -0.896173798598     -0.298689797993     
9400000000.0        -0.898145210288     -0.296045524749     0.101756688672      -0.307722578143     0.101756688672      -0.307722578143     -0.898145210288     -0.296045524749     
9500000000.0        -0.900063423416     -0.293437028717     0.0998368977821     -0.305243251068     0.0998368977821     -0.305243251068     -0.900063423416     -0.293437028717     
9600000000.0        -0.901930262542     -0.29086379243      0.0979684629752     -0.302799264735     0.0979684629752     -0.302799264735     -0.901930262542     -0.29086379243      
9700000000.0        -0.903747478089     -0.288325295803     0.0961496337984     -0.300390098913     0.0961496337984     -0.300390098913     -0.903747478089     -0.288325295803     
9800000000.0        -0.905516749727     -0.285821017348     0.0943787305506     -0.298015231987     0.0943787305506     -0.298015231987     -0.905516749727     -0.285821017348     
9900000000.0        -0.907239689595     -0.283350435251     0.0926541410616     -0.295674142033     0.0926541410616     -0.295674142033     -0.907239689595     -0.283350435251     
10000000000.0       -0.908917845366     -0.280913028346     0.0909743176289     -0.293366307794     0.0909743176289     -0.293366307794     -0.908917845366     -0.280913028346     
