# Hz S RI R 50.00 
100000000.0         0.0037839749169     -2.93111217391e-05  0.996206597711      -0.00323961640855   0.996206597711      -0.00323961640855   0.0037839749169     -2.93111217391e-05  
200000000.0         0.00380740976007    -5.87768022246e-05  0.996164035888      -0.00647903390713   0.996164035888      -0.00647903390713   0.00380740976007    -5.87768022246e-05  
300000000.0         0.00382402858248    -8.83331399109e-05  0.996117590436      -0.00971828685209   0.996117590436      -0.00971828685209   0.00382402858248    -8.8333139911e-05   
400000000.0         0.00383710454157    -0.000117958149304  0.996063988264      -0.0129573664057    0.996063988264      -0.0129573664057    0.00383710454157    -0.000117958149304  
500000000.0         0.00384789736469    -0.000147639441694  0.996001969804      -0.0161962534961    0.996001969804      -0.0161962534961    0.00384789736469    -0.000147639441694  
600000000.0         0.00385704904251    -0.000177368819976  0.995930893316      -0.0194349244464    0.995930893316      -0.0194349244464    0.00385704904251    -0.000177368819976  
700000000.0         0.00386493851227    -0.000207140352948  0.995850380201      -0.022673353015     0.995850380201      -0.022673353015     0.00386493851227    -0.000207140352948  
800000000.0         0.00387181106393    -0.000236949489354  0.995760185598      -0.0259115113493    0.995760185598      -0.0259115113493    0.00387181106393    -0.000236949489354  
900000000.0         0.0038778359398     -0.000266792585858  0.995660140784      -0.0291493705025    0.995660140784      -0.0291493705025    0.0038778359398     -0.000266792585858  
1000000000.0        0.00388313552099    -0.000296666630084  0.995550123989      -0.0323869007426    0.995550123989      -0.0323869007426    0.00388313552099    -0.000296666630084  
1100000000.0        0.00388780154648    -0.00032656906605   0.995430044178      -0.0356240717499    0.995430044178      -0.0356240717499    0.00388780154648    -0.00032656906605   
1200000000.0        0.00389190477429    -0.00035649767856   0.995299831389      -0.0388608527502    0.995299831389      -0.0388608527502    0.00389190477429    -0.00035649767856   
1300000000.0        0.00389550105777    -0.000386450513082  0.995159430659      -0.042097212609     0.995159430659      -0.042097212609     0.00389550105777    -0.000386450513082  
1400000000.0        0.00389863533817    -0.000416425818466  0.995008798035      -0.0453331199003    0.995008798035      -0.0453331199003    0.00389863533817    -0.000416425818466  
1500000000.0        0.00390134436423    -0.000446422004924  0.994847897849      -0.0485685429575    0.994847897849      -0.0485685429575    0.00390134436424    -0.000446422004924  
1600000000.0        0.00390365860171    -0.000476437612307  0.994676700814      -0.0518034499128    0.994676700814      -0.0518034499128    0.00390365860171    -0.000476437612307  
1700000000.0        0.00390560360883    -0.000506471285848  0.994495182646      -0.0550378087285    0.994495182646      -0.0550378087285    0.00390560360883    -0.000506471285848  
1800000000.0        0.0039072010495     -0.000536521757204  0.994303323055      -0.0582715872211    0.994303323055      -0.0582715872211    0.0039072010495     -0.000536521757204  
1900000000.0        0.00390846945404    -0.00056658782947   0.994101104982      -0.0615047530813    0.994101104982      -0.0615047530813    0.00390846945404    -0.00056658782947   
2000000000.0        0.00390942480031    -0.000596668365146  0.99388851402       -0.0647372738903    0.99388851402       -0.0647372738903    0.00390942480031    -0.000596668365146  
2100000000.0        0.00391008096421    -0.000626762276377  0.993665537963      -0.0679691171337    0.993665537963      -0.0679691171337    0.00391008096421    -0.000626762276377  
2200000000.0        0.00391045007374    -0.000656868516975  0.993432166452      -0.071200250212     0.993432166452      -0.071200250212     0.00391045007374    -0.000656868516975  
2300000000.0        0.00391054279065    -0.000686986075831  0.993188390695      -0.0744306404513    0.993188390695      -0.0744306404513    0.00391054279065    -0.000686986075831  
2400000000.0        0.00391036853683    -0.000717113971394  0.992934203242      -0.0776602551107    0.992934203242      -0.0776602551107    0.00391036853683    -0.000717113971394  
2500000000.0        0.00390993567826    -0.000747251247066  0.9926695978        -0.0808890613896    0.9926695978        -0.0808890613896    0.00390993567826    -0.000747251247066  
2600000000.0        0.00390925167568    -0.000777396967326  0.99239456908       -0.0841170264343    0.99239456908       -0.0841170264343    0.00390925167568    -0.000777396967326  
2700000000.0        0.0039083232091     -0.000807550214395  0.992109112679      -0.0873441173429    0.992109112679      -0.0873441173429    0.0039083232091     -0.000807550214395  
2800000000.0        0.00390715628151    -0.000837710085437  0.991813224973      -0.0905703011703    0.991813224973      -0.0905703011703    0.00390715628151    -0.000837710085437  
2900000000.0        0.00390575630573    -0.000867875690108  0.991506903031      -0.0937955449321    0.991506903031      -0.0937955449321    0.00390575630573    -0.000867875690108  
3000000000.0        0.00390412817782    -0.000898046148497  0.99119014454       -0.0970198156091    0.99119014454       -0.0970198156091    0.00390412817782    -0.000898046148497  
3100000000.0        0.0039022763393     -0.000928220589303  0.990862947747      -0.10024308015      0.990862947747      -0.10024308015      0.0039022763393     -0.000928220589303  
3200000000.0        0.00390020483036    -0.000958398148266  0.990525311405      -0.103465305474     0.990525311405      -0.103465305474     0.00390020483036    -0.000958398148266  
3300000000.0        0.0038979173354     -0.000988577966821  0.990177234725      -0.106686458476     0.990177234725      -0.106686458476     0.0038979173354     -0.000988577966821  
3400000000.0        0.00389541722249    -0.00101875919088   0.989818717339      -0.109906506024     0.989818717339      -0.109906506024     0.00389541722249    -0.00101875919088   
3500000000.0        0.00389270757734    -0.00104894096982   0.989449759267      -0.113125414969     0.989449759267      -0.113125414969     0.00389270757734    -0.00104894096982   
3600000000.0        0.00388979123305    -0.00107912245554   0.989070360887      -0.11634315214      0.989070360887      -0.11634315214      0.00388979123305    -0.00107912245554   
3700000000.0        0.00388667079598    -0.00110930280168   0.988680522908      -0.119559684348     0.988680522908      -0.119559684348     0.00388667079598    -0.00110930280168   
3800000000.0        0.00388334866848    -0.00113948116288   0.988280246348      -0.12277497839      0.988280246348      -0.12277497839      0.00388334866848    -0.00113948116288   
3900000000.0        0.00387982706892    -0.0011696566942    0.987869532518      -0.125989001051     0.987869532518      -0.125989001051     0.00387982706892    -0.0011696566942    
4000000000.0        0.0038761080493     -0.00119982855056   0.987448382997      -0.129201719099     0.987448382997      -0.129201719099     0.0038761080493     -0.00119982855056   
4100000000.0        0.00387219351098    -0.00122999588622   0.987016799624      -0.132413099295     0.987016799624      -0.132413099295     0.00387219351098    -0.00122999588622   
4200000000.0        0.00386808521853    -0.00126015785438   0.986574784481      -0.135623108388     0.986574784481      -0.135623108388     0.00386808521853    -0.00126015785438   
4300000000.0        0.00386378481215    -0.00129031360681   0.986122339881      -0.138831713122     0.986122339881      -0.138831713122     0.00386378481215    -0.00129031360681   
4400000000.0        0.00385929381878    -0.00132046229349   0.985659468356      -0.142038880231     0.985659468356      -0.142038880231     0.00385929381878    -0.00132046229349   
4500000000.0        0.00385461366201    -0.00135060306235   0.985186172649      -0.145244576443     0.985186172649      -0.145244576443     0.00385461366201    -0.00135060306235   
4600000000.0        0.00384974567101    -0.00138073505896   0.984702455707      -0.148448768484     0.984702455707      -0.148448768484     0.00384974567101    -0.00138073505896   
4700000000.0        0.00384469108861    -0.00141085742638   0.984208320667      -0.151651423073     0.984208320667      -0.151651423073     0.00384469108861    -0.00141085742638   
4800000000.0        0.00383945107849    -0.00144096930485   0.983703770857      -0.154852506927     0.983703770857      -0.154852506927     0.00383945107849    -0.00144096930485   
4900000000.0        0.00383402673181    -0.00147106983174   0.983188809783      -0.158051986763     0.983188809783      -0.158051986763     0.00383402673181    -0.00147106983174   
5000000000.0        0.00382841907316    -0.0015011581413    0.982663441125      -0.161249829295     0.982663441125      -0.161249829295     0.00382841907316    -0.0015011581413    
5100000000.0        0.00382262906594    -0.00153123336456   0.982127668736      -0.164446001238     0.982127668736      -0.164446001238     0.00382262906594    -0.00153123336456   
5200000000.0        0.00381665761732    -0.00156129462926   0.98158149663       -0.167640469305     0.98158149663       -0.167640469305     0.00381665761732    -0.00156129462926   
5300000000.0        0.00381050558272    -0.00159134105967   0.981024928983      -0.170833200214     0.981024928983      -0.170833200214     0.00381050558271    -0.00159134105967   
5400000000.0        0.00380417376992    -0.00162137177658   0.980457970127      -0.174024160683     0.980457970127      -0.174024160683     0.00380417376992    -0.00162137177658   
5500000000.0        0.00379766294283    -0.0016513858972    0.979880624548      -0.177213317433     0.979880624548      -0.177213317433     0.00379766294283    -0.0016513858972    
5600000000.0        0.00379097382493    -0.00168138253511   0.97929289688       -0.180400637189     0.97929289688       -0.180400637189     0.00379097382493    -0.00168138253511   
5700000000.0        0.00378410710242    -0.00171136080019   0.978694791904      -0.183586086681     0.978694791904      -0.183586086681     0.00378410710242    -0.00171136080019   
5800000000.0        0.00377706342717    -0.00174131979865   0.978086314544      -0.186769632642     0.978086314544      -0.186769632642     0.00377706342717    -0.00174131979865   
5900000000.0        0.00376984341935    -0.00177125863294   0.977467469868      -0.189951241814     0.977467469868      -0.189951241814     0.00376984341935    -0.00177125863294   
6000000000.0        0.00376244766998    -0.00180117640175   0.97683826308       -0.19313088094      0.97683826308       -0.19313088094      0.00376244766998    -0.00180117640175   
6100000000.0        0.00375487674314    -0.00183107220003   0.97619869952       -0.196308516775     0.97619869952       -0.196308516775     0.00375487674314    -0.00183107220003   
6200000000.0        0.00374713117813    -0.00186094511895   0.975548784666      -0.199484116078     0.975548784666      -0.199484116078     0.00374713117813    -0.00186094511895   
6300000000.0        0.00373921149142    -0.00189079424593   0.974888524126      -0.202657645619     0.974888524126      -0.202657645619     0.00373921149142    -0.00189079424593   
6400000000.0        0.00373111817849    -0.00192061866464   0.97421792364       -0.205829072173     0.97421792364       -0.205829072173     0.00373111817849    -0.00192061866464   
6500000000.0        0.00372285171547    -0.00195041745503   0.973536989078      -0.208998362526     0.973536989078      -0.208998362526     0.00372285171547    -0.00195041745503   
6600000000.0        0.00371441256076    -0.00198018969332   0.972845726436      -0.212165483476     0.972845726436      -0.212165483476     0.00371441256076    -0.00198018969332   
6700000000.0        0.00370580115647    -0.00200993445206   0.972144141841      -0.215330401826     0.972144141841      -0.215330401826     0.00370580115647    -0.00200993445206   
6800000000.0        0.00369701792976    -0.00203965080015   0.97143224154       -0.218493084395     0.97143224154       -0.218493084395     0.00369701792976    -0.00203965080015   
6900000000.0        0.00368806329416    -0.00206933780285   0.970710031909      -0.22165349801      0.970710031909      -0.22165349801      0.00368806329416    -0.00206933780285   
7000000000.0        0.00367893765074    -0.00209899452187   0.969977519444      -0.224811609511     0.969977519444      -0.224811609511     0.00367893765074    -0.00209899452187   
7100000000.0        0.0036696413892     -0.00212862001535   0.969234710764      -0.227967385749     0.969234710764      -0.227967385749     0.0036696413892     -0.00212862001535   
7200000000.0        0.00366017488891    -0.00215821333796   0.968481612611      -0.231120793591     0.968481612611      -0.231120793591     0.00366017488891    -0.00215821333796   
7300000000.0        0.00365053851993    -0.00218777354091   0.967718231844      -0.234271799913     0.967718231844      -0.234271799913     0.00365053851993    -0.00218777354091   
7400000000.0        0.00364073264386    -0.00221729967202   0.966944575444      -0.237420371608     0.966944575444      -0.237420371608     0.00364073264386    -0.00221729967202   
7500000000.0        0.00363075761475    -0.00224679077576   0.96616065051       -0.240566475583     0.96616065051       -0.240566475583     0.00363075761475    -0.00224679077576   
7600000000.0        0.00362061377987    -0.00227624589331   0.965366464258      -0.243710078757     0.965366464258      -0.243710078757     0.00362061377987    -0.00227624589331   
7700000000.0        0.00361030148047    -0.00230566406263   0.964562024022      -0.246851148067     0.964562024022      -0.246851148067     0.00361030148047    -0.00230566406263   
7800000000.0        0.00359982105252    -0.00233504431849   0.963747337254      -0.249989650464     0.963747337254      -0.249989650464     0.00359982105252    -0.00233504431849   
7900000000.0        0.00358917282736    -0.00236438569257   0.962922411518      -0.253125552917     0.962922411518      -0.253125552917     0.00358917282736    -0.00236438569257   
8000000000.0        0.00357835713231    -0.00239368721348   0.962087254498      -0.256258822409     0.962087254498      -0.256258822409     0.00357835713231    -0.00239368721348   
8100000000.0        0.00356737429133    -0.00242294790686   0.96124187399       -0.259389425941     0.96124187399       -0.259389425941     0.00356737429133    -0.00242294790686   
8200000000.0        0.0035562246255     -0.00245216679543   0.960386277905      -0.262517330533     0.960386277905      -0.262517330533     0.0035562246255     -0.00245216679543   
8300000000.0        0.00354490845364    -0.00248134289907   0.959520474268      -0.265642503221     0.959520474268      -0.265642503221     0.00354490845364    -0.00248134289907   
8400000000.0        0.00353342609274    -0.00251047523486   0.958644471217      -0.268764911059     0.958644471217      -0.268764911059     0.00353342609274    -0.00251047523486   
8500000000.0        0.00352177785845    -0.00253956281717   0.957758277004      -0.271884521121     0.957758277004      -0.271884521121     0.00352177785845    -0.00253956281717   
8600000000.0        0.00350996406559    -0.00256860465776   0.956861899992      -0.2750013005       0.956861899992      -0.2750013005       0.00350996406559    -0.00256860465776   
8700000000.0        0.00349798502849    -0.00259759976578   0.955955348658      -0.278115216308     0.955955348658      -0.278115216308     0.00349798502849    -0.00259759976578   
8800000000.0        0.00348584106145    -0.00262654714792   0.955038631589      -0.281226235677     0.955038631589      -0.281226235677     0.00348584106145    -0.00262654714792   
8900000000.0        0.00347353247909    -0.00265544580844   0.954111757485      -0.28433432576      0.954111757485      -0.28433432576      0.00347353247909    -0.00265544580844   
9000000000.0        0.00346105959677    -0.00268429474924   0.953174735155      -0.287439453729     0.953174735155      -0.287439453729     0.00346105959677    -0.00268429474924   
9100000000.0        0.00344842273084    -0.00271309296998   0.952227573521      -0.290541586781     0.952227573521      -0.290541586781     0.00344842273084    -0.00271309296998   
9200000000.0        0.00343562219906    -0.00274183946811   0.951270281615      -0.29364069213      0.951270281615      -0.29364069213      0.00343562219906    -0.00274183946811   
9300000000.0        0.00342265832086    -0.00277053323896   0.950302868577      -0.296736737016     0.950302868577      -0.296736737016     0.00342265832086    -0.00277053323896   
9400000000.0        0.00340953141766    -0.00279917327585   0.949325343661      -0.299829688698     0.949325343661      -0.299829688698     0.00340953141766    -0.00279917327585   
9500000000.0        0.00339624181313    -0.00282775857011   0.948337716226      -0.302919514462     0.948337716226      -0.302919514462     0.00339624181313    -0.00282775857011   
9600000000.0        0.00338278983347    -0.00285628811122   0.947339995744      -0.306006181613     0.947339995744      -0.306006181613     0.00338278983347    -0.00285628811122   
9700000000.0        0.00336917580766    -0.00288476088684   0.946332191794      -0.309089657482     0.946332191794      -0.309089657482     0.00336917580766    -0.00288476088684   
9800000000.0        0.00335540006771    -0.00291317588294   0.945314314065      -0.312169909423     0.945314314065      -0.312169909423     0.00335540006771    -0.00291317588294   
9900000000.0        0.00334146294889    -0.00294153208382   0.944286372354      -0.315246904817     0.944286372354      -0.315246904817     0.00334146294889    -0.00294153208382   
10000000000.0       0.00332736478994    -0.00296982847226   0.943248376568      -0.318320611065     0.943248376568      -0.318320611065     0.00332736478994    -0.00296982847226   
