# Hz S RI R 50.00 
100000000.0         0.0700971576041     0.00274030480514    0.929900512067      -0.00368820944104   0.929900512067      -0.00368820944104   0.0700971576041     0.00274030480514    
200000000.0         0.0705576320226     0.00547445291411    0.929437785907      -0.00737026564071   0.929437785907      -0.00737026564071   0.0705576320226     0.00547445291411    
300000000.0         0.0709225867972     0.00820466772007    0.929069657681      -0.0110483956157    0.929069657681      -0.0110483956157    0.0709225867972     0.00820466772007    
400000000.0         0.071249094202      0.0109315865999     0.92873905489       -0.0147232400027    0.92873905489       -0.0147232400027    0.071249094202      0.0109315865999     
500000000.0         0.0715591829994     0.013655477894      0.92842394857       -0.0183950702198    0.92842394857       -0.0183950702198    0.0715591829994     0.013655477894      
600000000.0         0.0718641062967     0.0163764465664     0.928113085425      -0.0220639941915    0.928113085425      -0.0220639941915    0.0718641062967     0.0163764465664     
700000000.0         0.0721705182229     0.0190945081008     0.927799811137      -0.0257300302764    0.927799811137      -0.0257300302764    0.0721705182229     0.0190945081008     
800000000.0         0.0724827306934     0.0218096227908     0.927479813602      -0.0293931415772    0.927479813602      -0.0293931415772    0.0724827306934     0.0218096227908     
900000000.0         0.0728037192788     0.0245217141714     0.927150117059      -0.0330532543849    0.927150117059      -0.0330532543849    0.0728037192788     0.0245217141714     
1000000000.0        0.0731356335672     0.0272306799431     0.926808571721      -0.0367102691117    0.926808571721      -0.0367102691117    0.0731356335672     0.0272306799431     
1100000000.0        0.0734800811439     0.0299363989214     0.926453569799      -0.0403640672471    0.926453569799      -0.0403640672471    0.0734800811439     0.0299363989214     
1200000000.0        0.0738382969678     0.0326387357008     0.926083876123      -0.0440145160272    0.926083876123      -0.0440145160272    0.0738382969678     0.0326387357008     
1300000000.0        0.0742112500351     0.0353375439223     0.925698521476      -0.0476614717057    0.925698521476      -0.0476614717057    0.0742112500351     0.0353375439223     
1400000000.0        0.0745997135547     0.0380326686417     0.92529673242       -0.0513047819257    0.92529673242       -0.0513047819257    0.0745997135547     0.0380326686417     
1500000000.0        0.0750043128125     0.0407239480982     0.924877883431      -0.0549442874908    0.924877883431      -0.0549442874908    0.0750043128125     0.0407239480982     
1600000000.0        0.0754255588208     0.0434112150667     0.924441463248      -0.0585798237194    0.924441463248      -0.0585798237194    0.0754255588208     0.0434112150667     
1700000000.0        0.0758638725913     0.0460942979152     0.923987050603      -0.0622112215039    0.923987050603      -0.0622112215039    0.0758638725913     0.0460942979152     
1800000000.0        0.0763196030391     0.0487730214458     0.923514296312      -0.0658383081538    0.923514296312      -0.0658383081538    0.0763196030391     0.0487730214458     
1900000000.0        0.0767930404461     0.0514472075767     0.923022909815      -0.0694609080781    0.923022909815      -0.0694609080781    0.0767930404461     0.0514472075767     
2000000000.0        0.0772844267602     0.0541166759017     0.922512648874      -0.0730788433466    0.922512648874      -0.0730788433466    0.0772844267602     0.0541166759017     
2100000000.0        0.0777939635944     0.0567812441565     0.921983311578      -0.076691934157     0.921983311578      -0.076691934157     0.0777939635944     0.0567812441565     
2200000000.0        0.0783218185236     0.0594407286113     0.921434730041      -0.0802999992287    0.921434730041      -0.0802999992287    0.0783218185236     0.0594407286113     
2300000000.0        0.0788681301034     0.0620949444066     0.920866765386      -0.0839028561391    0.920866765386      -0.0839028561391    0.0788681301034     0.0620949444066     
2400000000.0        0.0794330119145     0.0647437058414     0.9202793037        -0.0875003216122    0.9202793037        -0.0875003216122    0.0794330119145     0.0647437058414     
2500000000.0        0.0800165558541     0.067386826624      0.919672252744      -0.091092211771     0.919672252744      -0.091092211771     0.0800165558541     0.067386826624      
2600000000.0        0.0806188348411     0.0700241200926     0.919045539243      -0.0946783423575    0.919045539243      -0.0946783423575    0.0806188348411     0.0700241200926     
2700000000.0        0.0812399050579     0.0726553994096     0.918399106651      -0.0982585289286    0.918399106651      -0.0982585289286    0.0812399050579     0.0726553994096     
2800000000.0        0.0818798078225     0.0752804777356     0.917732913272      -0.10183258703      0.917732913272      -0.10183258703      0.0818798078225     0.0752804777356     
2900000000.0        0.0825385711643     0.0778991683845     0.917046930689      -0.105400332351     0.917046930689      -0.105400332351     0.0825385711643     0.0778991683845     
3000000000.0        0.0832162111596     0.0805112849645     0.916341142427      -0.108961580868     0.916341142427      -0.108961580868     0.0832162111596     0.0805112849645     
3100000000.0        0.0839127330704     0.0831166415058     0.915615542814      -0.112516148971     0.915615542814      -0.112516148971     0.0839127330704     0.0831166415058     
3200000000.0        0.0846281323222     0.0857150525772     0.914870136003      -0.116063853581     0.914870136003      -0.116063853581     0.0846281323222     0.0857150525772     
3300000000.0        0.0853623953479     0.0883063333932     0.914104935127      -0.119604512256     0.914104935127      -0.119604512256     0.0853623953479     0.0883063333932     
3400000000.0        0.0861155003202     0.0908902999131     0.913319961569      -0.123137943293     0.913319961569      -0.123137943293     0.0861155003202     0.0908902999131     
3500000000.0        0.0868874177918     0.093466768932      0.912515244321      -0.126663965817     0.912515244321      -0.126663965817     0.0868874177918     0.093466768932      
3600000000.0        0.0876781112558     0.0960355581668     0.911690819422      -0.13018239987      0.911690819422      -0.13018239987      0.0876781112558     0.0960355581668     
3700000000.0        0.0884875376409     0.0985964863348     0.910846729466      -0.133693066486     0.910846729466      -0.133693066486     0.0884875376409     0.0985964863348     
3800000000.0        0.08931564775       0.101149373228      0.909983023158      -0.137195787768     0.909983023158      -0.137195787768     0.08931564775       0.101149373228      
3900000000.0        0.0901623866496     0.103694039785      0.909099754932      -0.140690386961     0.909099754932      -0.140690386961     0.0901623866496     0.103694039785      
4000000000.0        0.0910276940195     0.106230308154      0.908196984593      -0.144176688512     0.908196984593      -0.144176688512     0.0910276940195     0.106230308154      
4100000000.0        0.0919115044658     0.108758001756      0.907274777012      -0.147654518136     0.907274777012      -0.147654518136     0.0919115044658     0.108758001756      
4200000000.0        0.0928137478037     0.111276945343      0.906333201838      -0.151123702876     0.906333201838      -0.151123702876     0.0928137478037     0.111276945343      
4300000000.0        0.0937343493136     0.113786965056      0.905372333241      -0.154584071155     0.905372333241      -0.154584071155     0.0937343493136     0.113786965056      
4400000000.0        0.0946732299739     0.116287888474      0.904392249685      -0.158035452831     0.904392249685      -0.158035452831     0.0946732299739     0.116287888474      
4500000000.0        0.0956303066741     0.118779544668      0.903393033709      -0.161477679247     0.903393033709      -0.161477679247     0.0956303066741     0.118779544668      
4600000000.0        0.0966054924096     0.121261764244      0.902374771737      -0.164910583282     0.902374771737      -0.164910583282     0.0966054924096     0.121261764244      
4700000000.0        0.0975986964613     0.123734379394      0.901337553892      -0.16833399939      0.901337553892      -0.16833399939      0.0975986964613     0.123734379394      
4800000000.0        0.0986098245617     0.126197223936      0.900281473839      -0.171747763648     0.900281473839      -0.171747763648     0.0986098245617     0.126197223936      
4900000000.0        0.0996387790486     0.128650133353      0.899206628621      -0.175151713798     0.899206628621      -0.175151713798     0.0996387790486     0.128650133353      
5000000000.0        0.100685459009      0.131092944838      0.898113118523      -0.178545689282     0.898113118523      -0.178545689282     0.100685459009      0.131092944838      
5100000000.0        0.10174976041       0.133525497328      0.897001046938      -0.181929531285     0.897001046938      -0.181929531285     0.10174976041       0.133525497328      
5200000000.0        0.102831576231      0.135947631541      0.895870520237      -0.185303082769     0.895870520237      -0.185303082769     0.102831576231      0.135947631541      
5300000000.0        0.103930796572      0.138359190009      0.894721647654      -0.188666188506     0.894721647654      -0.188666188506     0.103930796572      0.138359190009      
5400000000.0        0.105047308773      0.140760017112      0.893554541174      -0.192018695111     0.893554541174      -0.192018695111     0.105047308773      0.140760017112      
5500000000.0        0.106180997516      0.143149959111      0.892369315431      -0.195360451077     0.892369315431      -0.195360451077     0.106180997516      0.143149959111      
5600000000.0        0.107331744925      0.145528864172      0.891166087603      -0.198691306799     0.891166087603      -0.198691306799     0.107331744925      0.145528864172      
5700000000.0        0.108499430658      0.1478965824        0.889944977319      -0.202011114608     0.889944977319      -0.202011114608     0.108499430658      0.1478965824        
5800000000.0        0.109683932005      0.150252965866      0.88870610657       -0.205319728795     0.88870610657       -0.205319728795     0.109683932005      0.150252965866      
5900000000.0        0.110885123967      0.152597868629      0.887449599622      -0.208617005637     0.887449599622      -0.208617005637     0.110885123967      0.152597868629      
6000000000.0        0.112102879346      0.154931146761      0.886175582928      -0.211902803424     0.886175582928      -0.211902803424     0.112102879346      0.154931146761      
6100000000.0        0.113337068818      0.157252658376      0.884884185056      -0.215176982479     0.884884185056      -0.215176982479     0.113337068818      0.157252658376      
6200000000.0        0.114587561016      0.159562263645      0.883575536604      -0.218439405184     0.883575536604      -0.218439405184     0.114587561016      0.159562263645      
6300000000.0        0.1158542226        0.16185982482       0.882249770133      -0.221689935996     0.882249770133      -0.221689935996     0.1158542226        0.16185982482       
6400000000.0        0.117136918333      0.164145206255      0.880907020089      -0.224928441471     0.880907020089      -0.224928441471     0.117136918333      0.164145206255      
6500000000.0        0.118435511147      0.166418274423      0.879547422737      -0.228154790283     0.879547422737      -0.228154790283     0.118435511147      0.166418274423      
6600000000.0        0.119749862212      0.168678897934      0.878171116091      -0.231368853239     0.878171116091      -0.231368853239     0.119749862212      0.168678897934      
6700000000.0        0.121079831003      0.170926947551      0.876778239851      -0.234570503297     0.876778239851      -0.234570503297     0.121079831003      0.170926947551      
6800000000.0        0.122425275361      0.173162296207      0.875368935336      -0.237759615581     0.875368935336      -0.237759615581     0.122425275361      0.173162296207      
6900000000.0        0.123786051559      0.175384819018      0.873943345424      -0.240936067397     0.873943345424      -0.240936067397     0.123786051559      0.175384819018      
7000000000.0        0.12516201436       0.177594393298      0.872501614491      -0.244099738245     0.872501614491      -0.244099738245     0.12516201436       0.177594393298      
7100000000.0        0.126553017077      0.179790898569      0.87104388835       -0.247250509832     0.87104388835       -0.247250509832     0.126553017077      0.179790898569      
7200000000.0        0.127958911634      0.181974216578      0.869570314191      -0.250388266084     0.869570314191      -0.250388266084     0.127958911634      0.181974216578      
7300000000.0        0.129379548617      0.184144231298      0.868081040532      -0.253512893156     0.868081040532      -0.253512893156     0.129379548617      0.184144231298      
7400000000.0        0.130814777336      0.186300828949      0.866576217153      -0.256624279444     0.866576217153      -0.256624279444     0.130814777336      0.186300828949      
7500000000.0        0.132264445876      0.188443897997      0.865055995049      -0.259722315589     0.865055995049      -0.259722315589     0.132264445876      0.188443897997      
7600000000.0        0.133728401153      0.19057332917       0.863520526372      -0.262806894489     0.863520526372      -0.262806894489     0.133728401153      0.19057332917       
7700000000.0        0.135206488964      0.192689015456      0.861969964379      -0.265877911306     0.861969964379      -0.265877911306     0.135206488964      0.192689015456      
7800000000.0        0.136698554042      0.19479085212       0.860404463383      -0.268935263469     0.860404463383      -0.268935263469     0.136698554042      0.19479085212       
7900000000.0        0.138204440104      0.196878736698      0.858824178696      -0.271978850683     0.858824178696      -0.271978850683     0.138204440104      0.196878736698      
8000000000.0        0.139723989904      0.19895256901       0.857229266587      -0.27500857493      0.857229266587      -0.27500857493      0.139723989904      0.19895256901       
8100000000.0        0.14125704528       0.201012251158      0.855619884226      -0.278024340474     0.855619884226      -0.278024340474     0.14125704528       0.201012251158      
8200000000.0        0.142803447202      0.203057687533      0.853996189637      -0.281026053866     0.853996189637      -0.281026053866     0.142803447202      0.203057687533      
8300000000.0        0.144363035825      0.205088784813      0.852358341651      -0.284013623941     0.852358341651      -0.284013623941     0.144363035825      0.205088784813      
8400000000.0        0.145935650528      0.207105451966      0.850706499862      -0.286986961825     0.850706499862      -0.286986961825     0.145935650528      0.207105451966      
8500000000.0        0.147521129968      0.209107600252      0.849040824572      -0.28994598093      0.849040824572      -0.28994598093      0.147521129968      0.209107600252      
8600000000.0        0.149119312119      0.211095143219      0.847361476755      -0.292890596957     0.847361476755      -0.292890596957     0.149119312119      0.211095143219      
8700000000.0        0.150730034325      0.213067996704      0.845668618006      -0.295820727895     0.845668618006      -0.295820727895     0.150730034325      0.213067996704      
8800000000.0        0.152353133336      0.215026078832      0.843962410498      -0.298736294014     0.843962410498      -0.298736294014     0.152353133336      0.215026078832      
8900000000.0        0.153988445357      0.21696931001       0.842243016939      -0.301637217872     0.842243016939      -0.301637217872     0.153988445357      0.21696931001       
9000000000.0        0.155635806089      0.218897612928      0.840510600528      -0.304523424301     0.840510600528      -0.304523424301     0.155635806089      0.218897612928      
9100000000.0        0.157295050774      0.22081091255       0.838765324911      -0.307394840412     0.838765324911      -0.307394840412     0.157295050774      0.22081091255       
9200000000.0        0.158966014233      0.222709136115      0.837007354145      -0.310251395583     0.837007354145      -0.310251395583     0.158966014233      0.222709136115      
9300000000.0        0.16064853091       0.224592213127      0.835236852649      -0.31309302146      0.835236852649      -0.31309302146      0.16064853091       0.224592213127      
9400000000.0        0.162342434913      0.22646007535       0.833453985167      -0.315919651946     0.833453985167      -0.315919651946     0.162342434913      0.22646007535       
9500000000.0        0.164047560054      0.228312656802      0.831658916729      -0.318731223197     0.831658916729      -0.318731223197     0.164047560054      0.228312656802      
9600000000.0        0.165763739884      0.230149893749      0.82985181261       -0.321527673613     0.82985181261       -0.321527673613     0.165763739884      0.230149893749      
9700000000.0        0.167490807741      0.231971724693      0.828032838289      -0.324308943833     0.828032838289      -0.324308943833     0.167490807741      0.231971724693      
9800000000.0        0.169228596778      0.233778090369      0.826202159414      -0.327074976723     0.826202159414      -0.327074976723     0.169228596778      0.233778090369      
9900000000.0        0.170976940011      0.235568933729      0.824359941765      -0.329825717368     0.824359941765      -0.329825717368     0.170976940011      0.235568933729      
10000000000.0       0.172735670347      0.237344199939      0.82250635121       -0.332561113064     0.82250635121       -0.332561113064     0.172735670347      0.237344199939      
