# Hz S RI R 50.00 
100000000.0         0.000294489170148   -0.000698931360808  0.999700179084      -0.00143321976425   0.999700179084      -0.00143321976425   0.000294489170148   -0.000698931360808  
200000000.0         0.000292452892892   -0.0013978717084    0.999693336906      -0.00286645058969   0.999693336906      -0.00286645058969   0.000292452892893   -0.0013978717084    
300000000.0         0.000287893131097   -0.00209682209908   0.999684471179      -0.0042996999298    0.999684471179      -0.0042996999298    0.000287893131097   -0.00209682209908   
400000000.0         0.000281066644276   -0.00279578234166   0.999673324736      -0.00573297156794   0.999673324736      -0.00573297156794   0.000281066644276   -0.00279578234166   
500000000.0         0.000272071979661   -0.00349475140333   0.999659798558      -0.00716626764641   0.999659798558      -0.00716626764641   0.000272071979661   -0.00349475140333   
600000000.0         0.000260959172398   -0.00419372765849   0.999643842091      -0.00859958927151   0.999643842091      -0.00859958927151   0.000260959172397   -0.00419372765849   
700000000.0         0.000247757609176   -0.00489270903271   0.99962542539       -0.0100329368091    0.99962542539       -0.0100329368091    0.000247757609176   -0.00489270903271   
800000000.0         0.000232486190147   -0.00559169309176   0.999604528965      -0.0114663100544    0.999604528965      -0.0114663100544    0.000232486190147   -0.00559169309176   
900000000.0         0.00021515785088    -0.0062906771037    0.99958113927       -0.0128997083434    0.99958113927       -0.0128997083434    0.00021515785088    -0.0062906771037    
1000000000.0        0.000195781853462   -0.0069896580832    0.99955524641       -0.0143331306297    0.99955524641       -0.0143331306297    0.000195781853461   -0.0069896580832    
1100000000.0        0.00017436505964    -0.00768863282477   0.999526842878      -0.0157665755405    0.999526842878      -0.0157665755405    0.00017436505964    -0.00768863282477   
1200000000.0        0.000150912689421   -0.00838759792859   0.999495922797      -0.0172000414191    0.999495922797      -0.0172000414191    0.000150912689421   -0.00838759792859   
1300000000.0        0.000125428798386   -0.00908654982118   0.99946248145       -0.0186335263585    0.99946248145       -0.0186335263585    0.000125428798386   -0.00908654982118   
1400000000.0        9.7916591518e-05    -0.00978548477211   0.999426514964      -0.0200670282279    0.999426514964      -0.0200670282279    9.79165915176e-05   -0.00978548477211   
1500000000.0        6.8378637236e-05    -0.0104843989079    0.999388020103      -0.0215005446943    0.999388020103      -0.0215005446943    6.8378637236e-05    -0.0104843989079    
1600000000.0        3.68170178084e-05   -0.0111832882234    0.999346994119      -0.0229340732411    0.999346994119      -0.0229340732411    3.68170178084e-05   -0.0111832882234    
1700000000.0        3.23343794717e-06   -0.0118821485921    0.999303434644      -0.0243676111828    0.999303434644      -0.0243676111828    3.23343794739e-06   -0.0118821485921    
1800000000.0        -3.23706950771e-05  -0.0125809757745    0.999257339617      -0.0258011556786    0.999257339617      -0.0258011556786    -3.23706950771e-05  -0.0125809757745    
1900000000.0        -6.99942111075e-05  -0.0132797654255    0.99920870722       -0.0272347037434    0.99920870722       -0.0272347037434    -6.99942111074e-05  -0.0132797654255    
2000000000.0        -0.000109636130882  -0.0139785131011    0.999157535836      -0.0286682522574    0.999157535836      -0.0286682522574    -0.000109636130882  -0.0139785131011    
2100000000.0        -0.000151295630082  -0.0146772142641    0.999103824016      -0.0301017979752    0.999103824016      -0.0301017979752    -0.000151295630082  -0.0146772142641    
2200000000.0        -0.000194972010953  -0.0153758642892    0.99904757045       -0.031535337533     0.99904757045       -0.031535337533     -0.000194972010953  -0.0153758642892    
2300000000.0        -0.00024066467963   -0.0160744584678    0.99898877395       -0.0329688674556    0.99898877395       -0.0329688674556    -0.00024066467963   -0.0160744584678    
2400000000.0        -0.000288373127809  -0.0167729920121    0.998927433427      -0.0344023841627    0.998927433427      -0.0344023841627    -0.000288373127809  -0.0167729920121    
2500000000.0        -0.000338096917766  -0.0174714600589    0.998863547883      -0.0358358839739    0.998863547883      -0.0358358839739    -0.000338096917766  -0.0174714600589    
2600000000.0        -0.000389835670012  -0.0181698576731    0.998797116397      -0.0372693631143    0.998797116397      -0.0372693631143    -0.000389835670012  -0.0181698576731    
2700000000.0        -0.000443589053     -0.0188681798508    0.998728138118      -0.0387028177185    0.998728138118      -0.0387028177185    -0.000443589053     -0.0188681798508    
2800000000.0        -0.000499356774495  -0.0195664215224    0.998656612255      -0.0401362438353    0.998656612255      -0.0401362438353    -0.000499356774495  -0.0195664215224    
2900000000.0        -0.000557138574276  -0.0202645775552    0.998582538073      -0.041569637431     0.998582538073      -0.041569637431     -0.000557138574276  -0.0202645775552    
3000000000.0        -0.000616934217903  -0.0209626427559    0.998505914889      -0.0430029943935    0.998505914889      -0.0430029943935    -0.000616934217903  -0.0209626427559    
3100000000.0        -0.00067874349139   -0.0216606118729    0.998426742063      -0.044436310535     0.998426742063      -0.044436310535     -0.000678743491389  -0.0216606118729    
3200000000.0        -0.000742566196581  -0.0223584795987    0.998345018999      -0.0458695815954    0.998345018999      -0.0458695815954    -0.000742566196581  -0.0223584795987    
3300000000.0        -0.000808402147155  -0.0230562405716    0.998260745141      -0.0473028032452    0.998260745141      -0.0473028032452    -0.000808402147155  -0.0230562405716    
3400000000.0        -0.000876251165119  -0.023753889378     0.998173919971      -0.0487359710877    0.998173919971      -0.0487359710877    -0.000876251165119  -0.023753889378     
3500000000.0        -0.000946113077733  -0.0244514205539    0.998084543002      -0.0501690806621    0.998084543002      -0.0501690806621    -0.000946113077733  -0.0244514205539    
3600000000.0        -0.0010179877148    -0.0251488285867    0.997992613784      -0.0516021274453    0.997992613784      -0.0516021274453    -0.0010179877148    -0.0251488285867    
3700000000.0        -0.00109187490624   -0.0258461079169    0.997898131896      -0.0530351068542    0.997898131896      -0.0530351068542    -0.00109187490624   -0.0258461079169    
3800000000.0        -0.00116777447996   -0.0265432529396    0.997801096949      -0.0544680142481    0.997801096949      -0.0544680142481    -0.00116777447996   -0.0265432529396    
3900000000.0        -0.00124568625991   -0.0272402580059    0.997701508582      -0.0559008449302    0.997701508582      -0.0559008449302    -0.00124568625991   -0.0272402580059    
4000000000.0        -0.00132561006439   -0.0279371174242    0.997599366462      -0.0573335941499    0.997599366462      -0.0573335941499    -0.00132561006439   -0.0279371174242    
4100000000.0        -0.00140754570442   -0.0286338254619    0.997494670284      -0.0587662571039    0.997494670284      -0.0587662571039    -0.00140754570442   -0.0286338254619    
4200000000.0        -0.00149149298239   -0.0293303763459    0.99738741977       -0.0601988289386    0.99738741977       -0.0601988289386    -0.00149149298239   -0.0293303763459    
4300000000.0        -0.00157745169072   -0.0300267642649    0.997277614665      -0.0616313047514    0.997277614665      -0.0616313047514    -0.00157745169072   -0.0300267642649    
4400000000.0        -0.00166542161074   -0.0307229833695    0.997165254745      -0.0630636795921    0.997165254745      -0.0630636795921    -0.00166542161074   -0.0307229833695    
4500000000.0        -0.00175540251155   -0.031419027774     0.997050339806      -0.0644959484643    0.997050339806      -0.0644959484643    -0.00175540251155   -0.031419027774     
4600000000.0        -0.00184739414905   -0.032114891557     0.996932869671      -0.0659281063273    0.996932869671      -0.0659281063273    -0.00184739414905   -0.032114891557     
4700000000.0        -0.00194139626507   -0.0328105687629    0.996812844189      -0.0673601480967    0.996812844189      -0.0673601480967    -0.00194139626507   -0.0328105687629    
4800000000.0        -0.00203740858647   -0.0335060534025    0.996690263231      -0.0687920686461    0.996690263231      -0.0687920686461    -0.00203740858647   -0.0335060534025    
4900000000.0        -0.00213543082439   -0.0342013394542    0.996565126693      -0.0702238628086    0.996565126693      -0.0702238628086    -0.00213543082439   -0.0342013394542    
5000000000.0        -0.00223546267349   -0.0348964208646    0.996437434494      -0.0716555253771    0.996437434494      -0.0716555253771    -0.00223546267349   -0.0348964208646    
5100000000.0        -0.00233750381133   -0.0355912915498    0.996307186579      -0.0730870511065    0.996307186579      -0.0730870511065    -0.00233750381133   -0.0355912915498    
5200000000.0        -0.00244155389769   -0.036285945396     0.996174382914      -0.074518434714     0.996174382914      -0.074518434714     -0.00244155389769   -0.036285945396     
5300000000.0        -0.00254761257401   -0.0369803762606    0.996039023492      -0.0759496708803    0.996039023492      -0.0759496708803    -0.00254761257401   -0.0369803762606    
5400000000.0        -0.00265567946281   -0.0376745779725    0.995901108327      -0.0773807542512    0.995901108327      -0.0773807542512    -0.00265567946281   -0.0376745779725    
5500000000.0        -0.0027657541672    -0.0383685443334    0.995760637457      -0.0788116794377    0.995760637457      -0.0788116794377    -0.0027657541672    -0.0383685443334    
5600000000.0        -0.00287783627036   -0.0390622691184    0.995617610945      -0.0802424410177    0.995617610945      -0.0802424410177    -0.00287783627036   -0.0390622691184    
5700000000.0        -0.00299192533511   -0.0397557460766    0.995472028876      -0.0816730335364    0.995472028876      -0.0816730335364    -0.00299192533511   -0.0397557460766    
5800000000.0        -0.00310802090346   -0.040448968932     0.995323891359      -0.0831034515076    0.995323891359      -0.0831034515076    -0.00310802090346   -0.040448968932     
5900000000.0        -0.00322612249619   -0.0411419313841    0.995173198528      -0.0845336894142    0.995173198528      -0.0845336894142    -0.00322612249619   -0.0411419313841    
6000000000.0        -0.00334622961247   -0.0418346271088    0.995019950539      -0.0859637417096    0.995019950539      -0.0859637417096    -0.00334622961247   -0.0418346271088    
6100000000.0        -0.00346834172951   -0.0425270497587    0.994864147573      -0.0873936028178    0.994864147573      -0.0873936028178    -0.00346834172951   -0.0425270497587    
6200000000.0        -0.00359245830218   -0.0432191929641    0.994705789833      -0.0888232671348    0.994705789833      -0.0888232671348    -0.00359245830218   -0.0432191929641    
6300000000.0        -0.0037185787627    -0.0439110503335    0.994544877548      -0.0902527290289    0.994544877548      -0.0902527290289    -0.0037185787627    -0.0439110503335    
6400000000.0        -0.00384670252029   -0.0446026154541    0.99438141097       -0.0916819828421    0.99438141097       -0.0916819828421    -0.00384670252029   -0.0446026154541    
6500000000.0        -0.00397682896093   -0.0452938818926    0.994215390376      -0.0931110228901    0.994215390376      -0.0931110228901    -0.00397682896094   -0.0452938818926    
6600000000.0        -0.00410895744702   -0.0459848431958    0.994046816064      -0.0945398434635    0.994046816064      -0.0945398434635    -0.00410895744702   -0.0459848431958    
6700000000.0        -0.00424308731711   -0.046675492891     0.993875688359      -0.0959684388284    0.993875688359      -0.0959684388284    -0.00424308731711   -0.046675492891     
6800000000.0        -0.00437921788566   -0.0473658244869    0.993702007611      -0.0973968032271    0.993702007611      -0.0973968032271    -0.00437921788566   -0.0473658244869    
6900000000.0        -0.0045173484428    -0.0480558314738    0.993525774191      -0.0988249308787    0.993525774191      -0.0988249308787    -0.0045173484428    -0.0480558314738    
7000000000.0        -0.00465747825406   -0.0487455073244    0.993346988496      -0.10025281598      0.993346988496      -0.10025281598      -0.00465747825406   -0.0487455073244    
7100000000.0        -0.00479960656015   -0.049434845494     0.993165650949      -0.101680452705     0.993165650949      -0.101680452705     -0.00479960656015   -0.049434845494     
7200000000.0        -0.00494373257677   -0.0501238394216    0.992981761995      -0.103107835208     0.992981761995      -0.103107835208     -0.00494373257677   -0.0501238394216    
7300000000.0        -0.00508985549437   -0.05081248253      0.992795322105      -0.104534957621     0.992795322105      -0.104534957621     -0.00508985549437   -0.05081248253      
7400000000.0        -0.00523797447795   -0.0515007682264    0.992606331775      -0.105961814058     0.992606331775      -0.105961814058     -0.00523797447795   -0.0515007682264    
7500000000.0        -0.00538808866691   -0.0521886899029    0.992414791525      -0.107388398611     0.992414791525      -0.107388398611     -0.00538808866691   -0.0521886899029    
7600000000.0        -0.00554019717481   -0.052876240937     0.992220701899      -0.108814705357     0.992220701899      -0.108814705357     -0.00554019717481   -0.052876240937     
7700000000.0        -0.00569429908923   -0.0535634146921    0.992024063468      -0.11024072835      0.992024063468      -0.11024072835      -0.00569429908923   -0.0535634146921    
7800000000.0        -0.0058503934716    -0.054250204518     0.991824876826      -0.111666461629     0.991824876826      -0.111666461629     -0.0058503934716    -0.054250204518     
7900000000.0        -0.00600847935703   -0.0549366037515    0.991623142595      -0.113091899217     0.991623142595      -0.113091899217     -0.00600847935703   -0.0549366037515    
8000000000.0        -0.00616855575417   -0.0556226057164    0.991418861418      -0.114517035117     0.991418861418      -0.114517035117     -0.00616855575417   -0.0556226057164    
8100000000.0        -0.00633062164503   -0.0563082037245    0.991212033967      -0.115941863319     0.991212033967      -0.115941863319     -0.00633062164503   -0.0563082037245    
8200000000.0        -0.00649467598486   -0.0569933910757    0.991002660938      -0.117366377796     0.991002660938      -0.117366377796     -0.00649467598486   -0.0569933910757    
8300000000.0        -0.00666071770205   -0.0576781610587    0.990790743051      -0.118790572506     0.990790743051      -0.118790572506     -0.00666071770205   -0.0576781610587    
8400000000.0        -0.00682874569792   -0.0583625069511    0.990576281053      -0.120214441392     0.990576281053      -0.120214441392     -0.00682874569792   -0.0583625069511    
8500000000.0        -0.00699875884667   -0.0590464220202    0.990359275717      -0.121637978385     0.990359275717      -0.121637978385     -0.00699875884667   -0.0590464220202    
8600000000.0        -0.00717075599521   -0.0597298995232    0.990139727839      -0.123061177399     0.990139727839      -0.123061177399     -0.00717075599521   -0.0597298995232    
8700000000.0        -0.00734473596309   -0.0604129327076    0.989917638244      -0.124484032338     0.989917638244      -0.124484032338     -0.00734473596309   -0.0604129327076    
8800000000.0        -0.00752069754234   -0.0610955148117    0.989693007781      -0.125906537092     0.989693007781      -0.125906537092     -0.00752069754234   -0.0610955148117    
8900000000.0        -0.00769863949743   -0.061777639065     0.989465837324      -0.127328685538     0.989465837324      -0.127328685538     -0.00769863949743   -0.061777639065     
9000000000.0        -0.00787856056509   -0.0624592986888    0.989236127774      -0.128750471544     0.989236127774      -0.128750471544     -0.00787856056509   -0.0624592986888    
9100000000.0        -0.0080604594543    -0.063140486896     0.989003880058      -0.130171888964     0.989003880058      -0.130171888964     -0.0080604594543    -0.063140486896     
9200000000.0        -0.00824433484613   -0.0638211968921    0.988769095128      -0.131592931642     0.988769095128      -0.131592931642     -0.00824433484613   -0.0638211968921    
9300000000.0        -0.00843018539371   -0.0645014218753    0.988531773963      -0.133013593412     0.988531773963      -0.133013593412     -0.00843018539371   -0.0645014218753    
9400000000.0        -0.0086180097221    -0.0651811550372    0.988291917567      -0.134433868099     0.988291917567      -0.134433868099     -0.0086180097221    -0.0651811550372    
9500000000.0        -0.00880780642824   -0.0658603895624    0.98804952697       -0.135853749515     0.98804952697       -0.135853749515     -0.00880780642824   -0.0658603895624    
9600000000.0        -0.00899957408086   -0.06653911863      0.987804603231      -0.137273231467     0.987804603231      -0.137273231467     -0.00899957408086   -0.06653911863      
9700000000.0        -0.00919331122044   -0.0672173354128    0.98755714743       -0.13869230775      0.98755714743       -0.13869230775      -0.00919331122044   -0.0672173354128    
9800000000.0        -0.0093890163591    -0.0678950330787    0.987307160679      -0.140110972154     0.987307160679      -0.140110972154     -0.0093890163591    -0.0678950330787    
9900000000.0        -0.00958668798057   -0.0685722047903    0.987054644111      -0.141529218458     0.987054644111      -0.141529218458     -0.00958668798057   -0.0685722047903    
10000000000.0       -0.00978632454012   -0.0692488437056    0.986799598889      -0.142947040435     0.986799598889      -0.142947040435     -0.00978632454012   -0.0692488437056    
