# Hz S RI R 50.00 
100000000.0         0.000195462301559   -0.00914871781433   0.999596936414      -0.0102211634813    0.999596936414      -0.0102211634813    0.000195462301559   -0.00914871781433   
200000000.0         -9.24763773896e-05  -0.0182918872371    0.999303214896      -0.0204368020322    0.999303214896      -0.0204368020322    -9.24763773894e-05  -0.0182918872371    
300000000.0         -0.000567581725454  -0.027424248222     0.998822209942      -0.0306416800447    0.998822209942      -0.0306416800447    -0.000567581725453  -0.027424248222     
400000000.0         -0.00122909446988   -0.0365405406024    0.99815416489       -0.0408305569224    0.99815416489       -0.0408305569224    -0.00122909446988   -0.0365405406024    
500000000.0         -0.00207621760417   -0.0456355223851    0.997299678507      -0.0509982084113    0.997299678507      -0.0509982084113    -0.00207621760417   -0.0456355223851    
600000000.0         -0.00310800740313   -0.0547039822763    0.996259593523      -0.0611394398777    0.996259593523      -0.0611394398777    -0.00310800740313   -0.0547039822763    
700000000.0         -0.00432334737858   -0.0637407504899    0.995034966733      -0.0712490974556    0.995034966733      -0.0712490974556    -0.00432334737858   -0.0637407504899    
800000000.0         -0.00572094061768   -0.0727407087257    0.993627056272      -0.0813220782139    0.993627056272      -0.0813220782139    -0.00572094061768   -0.0727407087257    
900000000.0         -0.00729930833702   -0.0816987996129    0.992037314001      -0.0913533397183    0.992037314001      -0.0913533397183    -0.00729930833702   -0.0816987996129    
1000000000.0        -0.00905679119387   -0.0906100357321    0.990267379606      -0.101337909134     0.990267379606      -0.101337909134     -0.00905679119387   -0.0906100357321    
1100000000.0        -0.0109915521079    -0.0994695082619    0.988319075236      -0.11127089193      0.988319075236      -0.11127089193      -0.0109915521079    -0.0994695082619    
1200000000.0        -0.0131015800612    -0.10827239526      0.986194400185      -0.121147480202     0.986194400185      -0.121147480202     -0.0131015800612    -0.10827239526      
1300000000.0        -0.0153846946149    -0.117013969579     0.983895525429      -0.130962960626     0.983895525429      -0.130962960626     -0.0153846946149    -0.117013969579     
1400000000.0        -0.017838550999     -0.125689606407     0.981424787908      -0.140712722016     0.981424787908      -0.140712722016     -0.017838550999     -0.125689606407     
1500000000.0        -0.0204606456807    -0.134294790414     0.978784684535      -0.150392262507     0.978784684535      -0.150392262507     -0.0204606456807    -0.134294790414     
1600000000.0        -0.0232483223498    -0.142825122509     0.975977865915      -0.159997196313     0.975977865915      -0.159997196313     -0.0232483223498    -0.142825122509     
1700000000.0        -0.0261987782667    -0.151276326168     0.97300712978       -0.169523260083     0.97300712978       -0.169523260083     -0.0261987782667    -0.151276326168     
1800000000.0        -0.0293090709316    -0.159644253339     0.969875414166      -0.178966318814     0.969875414166      -0.178966318814     -0.0293090709316    -0.159644253339     
1900000000.0        -0.0325761250347    -0.167924889912     0.966585790341      -0.188322371328     0.966585790341      -0.188322371328     -0.0325761250347    -0.167924889912     
2000000000.0        -0.0359967396497    -0.176114360731     0.963141455527      -0.197587555301     0.963141455527      -0.197587555301     -0.0359967396497    -0.176114360731     
2100000000.0        -0.0395675956374    -0.184208934157     0.959545725419      -0.206758151829     0.959545725419      -0.206758151829     -0.0395675956374    -0.184208934157     
2200000000.0        -0.0432852632219    -0.192205026166     0.955802026563      -0.215830589537     0.955802026563      -0.215830589537     -0.0432852632219    -0.192205026166     
2300000000.0        -0.0471462097099    -0.200099203979     0.951913888586      -0.224801448213     0.951913888586      -0.224801448213     -0.0471462097099    -0.200099203979     
2400000000.0        -0.0511468073164    -0.207888189232     0.947884936341      -0.233667461983     0.947884936341      -0.233667461983     -0.0511468073164    -0.207888189232     
2500000000.0        -0.0552833410685    -0.21556886067      0.943718881973      -0.242425522016     0.943718881973      -0.242425522016     -0.0552833410685    -0.21556886067      
2600000000.0        -0.0595520167536    -0.223138256391     0.939419516944      -0.251072678766     0.939419516944      -0.251072678766     -0.0595520167536    -0.223138256391     
2700000000.0        -0.0639489688842    -0.230593575622     0.934990704058      -0.259606143755     0.934990704058      -0.259606143755     -0.0639489688842    -0.230593575622     
2800000000.0        -0.0684702686476    -0.237932180043     0.930436369487      -0.268023290908     0.930436369487      -0.268023290908     -0.0684702686476    -0.237932180043     
2900000000.0        -0.0731119318158    -0.245151594682     0.92576049485       -0.276321657436     0.92576049485       -0.276321657436     -0.0731119318158    -0.245151594682     
3000000000.0        -0.0778699265855    -0.252249508359     0.920967109368      -0.2844989443       0.920967109368      -0.2844989443       -0.0778699265855    -0.252249508359     
3100000000.0        -0.0827401813256    -0.259223773727     0.916060282096      -0.292553016246     0.916060282096      -0.292553016246     -0.0827401813256    -0.259223773727     
3200000000.0        -0.0877185922066    -0.266072406896     0.911044114296      -0.300481901434     0.911044114296      -0.300481901434     -0.0877185922066    -0.266072406896     
3300000000.0        -0.0928010306901    -0.272793586673     0.905922731936      -0.308283790681     0.905922731936      -0.308283790681     -0.0928010306901    -0.272793586673     
3400000000.0        -0.0979833508565    -0.279385653417     0.900700278353      -0.315957036319     0.900700278353      -0.315957036319     -0.0979833508565    -0.279385653417     
3500000000.0        -0.103261396553     -0.285847107549     0.895380907108      -0.323500150707     0.895380907108      -0.323500150707     -0.103261396553     -0.285847107549     
3600000000.0        -0.108631008342     -0.292176607707     0.889968775025      -0.33091180439      0.889968775025      -0.33091180439      -0.108631008342     -0.292176607707     
3700000000.0        -0.114088030238     -0.298372968593     0.884468035456      -0.338190823946     0.884468035456      -0.338190823946     -0.114088030238     -0.298372968593     
3800000000.0        -0.11962831621      -0.304435158508     0.878882831772      -0.345336189523     0.878882831772      -0.345336189523     -0.11962831621      -0.304435158508     
3900000000.0        -0.125247736449     -0.310362296614     0.873217291094      -0.352347032103     0.873217291094      -0.352347032103     -0.125247736449     -0.310362296614     
4000000000.0        -0.130942183375     -0.316153649921     0.86747551828       -0.359222630497     0.86747551828       -0.359222630497     -0.130942183375     -0.316153649921     
4100000000.0        -0.13670757739      -0.321808630048     0.861661590177      -0.365962408096     0.861661590177      -0.365962408096     -0.13670757739      -0.321808630048     
4200000000.0        -0.142539872351     -0.327326789752     0.855779550136      -0.372565929414     0.855779550136      -0.372565929414     -0.142539872351     -0.327326789752     
4300000000.0        -0.148435060775     -0.332707819261     0.849833402814      -0.379032896414     0.849833402814      -0.379032896414     -0.148435060775     -0.332707819261     
4400000000.0        -0.154389178755     -0.337951542429     0.843827109251      -0.385363144668     0.843827109251      -0.385363144668     -0.154389178755     -0.337951542429     
4500000000.0        -0.160398310595     -0.343057912726     0.837764582234      -0.391556639349     0.837764582234      -0.391556639349     -0.160398310595     -0.343057912726     
4600000000.0        -0.166458593155     -0.34802700909      0.831649681952      -0.397613471085     0.831649681952      -0.397613471085     -0.166458593155     -0.34802700909      
4700000000.0        -0.172566219914     -0.352859031665     0.825486211932      -0.403533851694     0.825486211932      -0.403533851694     -0.172566219914     -0.352859031665     
4800000000.0        -0.178717444732     -0.357554297427     0.819277915275      -0.409318109816     0.819277915275      -0.409318109816     -0.178717444732     -0.357554297427     
4900000000.0        -0.184908585341     -0.362113235731     0.813028471162      -0.414966686464     0.813028471162      -0.414966686464     -0.184908585341     -0.362113235731     
5000000000.0        -0.191136026543     -0.366536383799     0.806741491658      -0.420480130502     0.806741491658      -0.420480130502     -0.191136026543     -0.366536383799     
5100000000.0        -0.197396223134     -0.370824382148     0.800420518786      -0.425859094085     0.800420518786      -0.425859094085     -0.197396223134     -0.370824382148     
5200000000.0        -0.203685702546     -0.374977969992     0.794069021883      -0.431104328061     0.794069021883      -0.431104328061     -0.203685702546     -0.374977969992     
5300000000.0        -0.21000106723      -0.37899798063      0.78769039522       -0.436216677353     0.78769039522       -0.436216677353     -0.21000106723      -0.37899798063      
5400000000.0        -0.216338996766     -0.382885336822     0.781287955884      -0.441197076346     0.781287955884      -0.441197076346     -0.216338996766     -0.382885336822     
5500000000.0        -0.222696249723     -0.38664104619      0.774864941926      -0.44604654428      0.774864941926      -0.44604654428      -0.222696249723     -0.38664104619      
5600000000.0        -0.229069665267     -0.39026619663      0.768424510745      -0.450766180669     0.768424510745      -0.450766180669     -0.229069665267     -0.39026619663      
5700000000.0        -0.235456164533     -0.393761951772     0.761969737719      -0.455357160761     0.761969737719      -0.455357160761     -0.235456164533     -0.393761951772     
5800000000.0        -0.241852751759     -0.39712954648      0.75550361507       -0.459820731037     0.75550361507       -0.459820731037     -0.241852751759     -0.39712954648      
5900000000.0        -0.248256515204     -0.400370282418     0.749029050946      -0.46415820478      0.749029050946      -0.46415820478      -0.248256515204     -0.400370282418     
6000000000.0        -0.254664627848     -0.403485523676     0.742548868718      -0.4683709577       0.742548868718      -0.4683709577       -0.254664627848     -0.403485523676     
6100000000.0        -0.261074347886     -0.406476692478     0.736065806488      -0.472460423648     0.736065806488      -0.472460423648     -0.261074347886     -0.406476692478     
6200000000.0        -0.267483019034     -0.409345264977     0.72958251678       -0.476428090403     0.72958251678       -0.476428090403     -0.267483019034     -0.409345264977     
6300000000.0        -0.273888070646     -0.412092767131     0.723101566427      -0.480275495559     0.723101566427      -0.480275495559     -0.273888070646     -0.412092767131     
6400000000.0        -0.280287017654     -0.414720770694     0.716625436622      -0.484004222507     0.716625436622      -0.484004222507     -0.280287017654     -0.414720770694     
6500000000.0        -0.286677460351     -0.417230889292     0.710156523147      -0.487615896523     0.710156523147      -0.487615896523     -0.286677460351     -0.417230889292     
6600000000.0        -0.293057084011     -0.419624774624     0.703697136739      -0.49111218096      0.703697136739      -0.49111218096      -0.293057084011     -0.419624774624     
6700000000.0        -0.299423658365     -0.421904112764     0.697249503624      -0.494494773554     0.697249503624      -0.494494773554     -0.299423658365     -0.421904112764     
6800000000.0        -0.305775036949     -0.424070620584     0.690815766162      -0.497765402851     0.690815766162      -0.497765402851     -0.305775036949     -0.424070620584     
6900000000.0        -0.312109156313     -0.426126042299     0.68439798364       -0.500925824749     0.68439798364       -0.500925824749     -0.312109156313     -0.426126042299     
7000000000.0        -0.318424035128     -0.428072146123     0.677998133169      -0.503977819158     0.677998133169      -0.503977819158     -0.318424035128     -0.428072146123     
7100000000.0        -0.32471777317      -0.429910721061     0.671618110688      -0.506923186789     0.671618110688      -0.506923186789     -0.32471777317      -0.429910721061     
7200000000.0        -0.330988550218     -0.431643573815     0.665259732076      -0.509763746063     0.665259732076      -0.509763746063     -0.330988550218     -0.431643573815     
7300000000.0        -0.337234624858     -0.433272525816     0.658924734347      -0.512501330144     0.658924734347      -0.512501330144     -0.337234624858     -0.433272525816     
7400000000.0        -0.3434543332       -0.434799410388     0.652614776926      -0.515137784104     0.652614776926      -0.515137784104     -0.3434543332       -0.434799410388     
7500000000.0        -0.349646087527     -0.436226070025     0.646331443002      -0.5176749622       0.646331443002      -0.5176749622       -0.349646087527     -0.436226070025     
7600000000.0        -0.35580837488      -0.4375543538       0.640076240949      -0.520114725284     0.640076240949      -0.520114725284     -0.35580837488      -0.4375543538       
7700000000.0        -0.361939755576     -0.438786114898     0.633850605797      -0.522458938334     0.633850605797      -0.522458938334     -0.361939755576     -0.438786114898     
7800000000.0        -0.368038861684     -0.439923208261     0.627655900763      -0.524709468107     0.627655900763      -0.524709468107     -0.368038861684     -0.439923208261     
7900000000.0        -0.374104395453     -0.440967488362     0.621493418822      -0.526868180905     0.621493418822      -0.526868180905     -0.374104395453     -0.440967488362     
8000000000.0        -0.380135127696     -0.441920807092     0.615364384317      -0.528936940471     0.615364384317      -0.528936940471     -0.380135127696     -0.441920807092     
8100000000.0        -0.386129896154     -0.442785011766     0.609269954603      -0.530917605988     0.609269954603      -0.530917605988     -0.386129896154     -0.442785011766     
8200000000.0        -0.392087603826     -0.443561943238     0.603211221709      -0.532812030199     0.603211221709      -0.532812030199     -0.392087603826     -0.443561943238     
8300000000.0        -0.398007217277     -0.444253434131     0.597189214033      -0.534622057639     0.597189214033      -0.534622057639     -0.398007217277     -0.444253434131     
8400000000.0        -0.403887764937     -0.444861307172     0.591204898043      -0.536349522965     0.591204898043      -0.536349522965     -0.403887764937     -0.444861307172     
8500000000.0        -0.409728335387     -0.445387373632     0.585259179989      -0.537996249404     0.585259179989      -0.537996249404     -0.409728335387     -0.445387373632     
8600000000.0        -0.415528075634     -0.445833431871     0.579352907627      -0.539564047294     0.579352907627      -0.539564047294     -0.415528075634     -0.445833431871     
8700000000.0        -0.421286189395     -0.446201265981     0.573486871938      -0.541054712728     0.573486871938      -0.541054712728     -0.421286189395     -0.446201265981     
8800000000.0        -0.427001935372     -0.44649264452      0.567661808848      -0.542470026289     0.567661808848      -0.542470026289     -0.427001935372     -0.44649264452      
8900000000.0        -0.43267462554      -0.446709319348     0.561878400943      -0.543811751889     0.561878400943      -0.543811751889     -0.43267462554      -0.446709319348     
9000000000.0        -0.438303623441     -0.446853024544     0.556137279172      -0.545081635682     0.556137279172      -0.545081635682     -0.438303623441     -0.446853024544     
9100000000.0        -0.443888342494     -0.446925475413     0.550439024538      -0.546281405077     0.550439024538      -0.546281405077     -0.443888342494     -0.446925475413     
9200000000.0        -0.449428244317     -0.446928367575     0.544784169775      -0.547412767823     0.544784169775      -0.547412767823     -0.449428244317     -0.446928367575     
9300000000.0        -0.454922837066     -0.446863376133     0.539173201008      -0.548477411183     0.539173201008      -0.548477411183     -0.454922837066     -0.446863376133     
9400000000.0        -0.4603716738       -0.446732154923     0.533606559391      -0.549477001176     0.533606559391      -0.549477001176     -0.4603716738       -0.446732154923     
9500000000.0        -0.465774350859     -0.446536335824     0.528084642721      -0.550413181898     0.528084642721      -0.550413181898     -0.465774350859     -0.446536335824     
9600000000.0        -0.47113050628      -0.446277528151     0.522607807031      -0.551287574907     0.522607807031      -0.551287574907     -0.47113050628      -0.446277528151     
9700000000.0        -0.47643981822      -0.445957318109     0.517176368155      -0.552101778684     0.517176368155      -0.552101778684     -0.47643981822      -0.445957318109     
9800000000.0        -0.48170200343      -0.445577268309     0.511790603266      -0.552857368146     0.511790603266      -0.552857368146     -0.48170200343      -0.445577268309     
9900000000.0        -0.486916815735     -0.44513891735      0.506450752387      -0.553555894227     0.506450752387      -0.553555894227     -0.486916815735     -0.44513891735      
10000000000.0       -0.492084044559     -0.444643779447     0.501157019866      -0.554198883514     0.501157019866      -0.554198883514     -0.492084044559     -0.444643779447     
