# Hz S RI R 50.00 
100000000.0         0.00112063900648    0.000202818988532   0.998874705238      -0.00211952600792   0.998874705238      -0.00211952600792   0.00112063900648    0.000202818988532   
200000000.0         0.00112852628134    0.000405595113562   0.998859486866      -0.00423903450376   0.998859486866      -0.00423903450376   0.00112852628134    0.000405595113562   
300000000.0         0.00113530432605    0.000608334589512   0.99884170204       -0.00635854511898   0.99884170204       -0.00635854511898   0.00113530432605    0.000608334589512   
400000000.0         0.00114194473182    0.00081103558995    0.998820378731      -0.00847806483405   0.998820378731      -0.00847806483405   0.00114194473182    0.00081103558995    
500000000.0         0.00114882126781    0.00101369473086    0.998795142649      -0.0105975967295    0.998795142649      -0.0105975967295    0.00114882126781    0.00101369473086    
600000000.0         0.00115612429926    0.00121630807204    0.998765802838      -0.0127171417863    0.998765802838      -0.0127171417863    0.00115612429926    0.00121630807204    
700000000.0         0.00116396609119    0.0014188714484     0.998732246385      -0.0148366996265    0.998732246385      -0.0148366996265    0.00116396609119    0.0014188714484     
800000000.0         0.00117241922521    0.00162138061049    0.998694400002      -0.0169562688989    0.998694400002      -0.0169562688989    0.00117241922521    0.00162138061049    
900000000.0         0.00118153369788    0.00182383129249    0.998652212938      -0.0190758475094    0.998652212938      -0.0190758475094    0.00118153369788    0.00182383129249    
1000000000.0        0.00119134558424    0.00202621924791    0.99860564832       -0.0211954327712    0.99860564832       -0.0211954327712    0.00119134558424    0.00202621924791    
1100000000.0        0.00120188185201    0.00222854026904    0.998554678341      -0.0233150215091    0.998554678341      -0.0233150215091    0.00120188185201    0.00222854026904    
1200000000.0        0.00121316322927    0.00243079019792    0.998499281395      -0.0254346101353    0.998499281395      -0.0254346101353    0.00121316322927    0.00243079019792    
1300000000.0        0.00122520600811    0.00263296493234    0.998439440281      -0.0275541947073    0.998439440281      -0.0275541947073    0.00122520600811    0.00263296493234    
1400000000.0        0.00123802322982    0.00283506042901    0.998375141012      -0.0296737709716    0.998375141012      -0.0296737709716    0.00123802322982    0.00283506042901    
1500000000.0        0.00125162549228    0.00303707270483    0.998306372021      -0.0317933344002    0.998306372021      -0.0317933344002    0.00125162549228    0.00303707270483    
1600000000.0        0.001266021517      0.00323899783726    0.998233123586      -0.0339128802185    0.998233123586      -0.0339128802185    0.001266021517      0.00323899783726    
1700000000.0        0.00128121855758    0.00344083196382    0.99815538743       -0.0360324034302    0.99815538743       -0.0360324034302    0.00128121855758    0.00344083196382    
1800000000.0        0.00129722270073    0.00364257128137    0.998073156419      -0.0381518988364    0.998073156419      -0.0381518988364    0.00129722270073    0.00364257128137    
1900000000.0        0.00131403909236    0.00384421204484    0.997986424339      -0.0402713610532    0.997986424339      -0.0402713610532    0.00131403909236    0.00384421204484    
2000000000.0        0.00133167211034    0.00404575056612    0.997895185726      -0.0423907845259    0.997895185726      -0.0423907845259    0.00133167211034    0.00404575056612    
2100000000.0        0.00135012549848    0.0042471832126     0.99779943573       -0.0445101635419    0.99779943573       -0.0445101635419    0.00135012549848    0.0042471832126     
2200000000.0        0.00136940247196    0.00444850640578    0.997699170012      -0.0466294922417    0.997699170012      -0.0466294922417    0.00136940247196    0.00444850640578    
2300000000.0        0.00138950580118    0.00464971661988    0.997594384667      -0.0487487646285    0.997594384667      -0.0487487646285    0.00138950580118    0.00464971661988    
2400000000.0        0.00141043787927    0.00485081038044    0.997485076149      -0.0508679745769    0.997485076149      -0.0508679745769    0.00141043787927    0.00485081038044    
2500000000.0        0.00143220077695    0.00505178426288    0.997371241223      -0.0529871158407    0.997371241223      -0.0529871158407    0.00143220077695    0.00505178426288    
2600000000.0        0.00145479628756    0.00525263489116    0.997252876922      -0.0551061820596    0.997252876922      -0.0551061820596    0.00145479628756    0.00525263489116    
2700000000.0        0.00147822596425    0.00545335893648    0.997129980506      -0.0572251667659    0.997129980506      -0.0572251667659    0.00147822596425    0.00545335893648    
2800000000.0        0.00150249115106    0.00565395311596    0.997002549436      -0.0593440633893    0.997002549436      -0.0593440633893    0.00150249115106    0.00565395311596    
2900000000.0        0.00152759300898    0.0058544141914     0.996870581349      -0.061462865263     0.996870581349      -0.061462865263     0.00152759300898    0.0058544141914     
3000000000.0        0.00155353253795    0.00605473896807    0.996734074032      -0.0635815656277    0.996734074032      -0.0635815656277    0.00155353253795    0.00605473896807    
3100000000.0        0.00158031059561    0.00625492429355    0.996593025412      -0.0657001576363    0.996593025412      -0.0657001576363    0.00158031059561    0.00625492429355    
3200000000.0        0.00160792791332    0.00645496705659    0.996447433534      -0.0678186343578    0.996447433534      -0.0678186343578    0.00160792791332    0.00645496705659    
3300000000.0        0.00163638510995    0.00665486418602    0.996297296553      -0.0699369887806    0.996297296553      -0.0699369887806    0.00163638510995    0.00665486418602    
3400000000.0        0.00166568270377    0.00685461264972    0.996142612718      -0.0720552138163    0.996142612718      -0.0720552138163    0.00166568270377    0.00685461264972    
3500000000.0        0.00169582112283    0.00705420945354    0.995983380368      -0.074173302303     0.995983380368      -0.074173302303     0.00169582112283    0.00705420945354    
3600000000.0        0.00172680071393    0.00725365164038    0.995819597918      -0.0762912470075    0.995819597918      -0.0762912470075    0.00172680071393    0.00725365164038    
3700000000.0        0.00175862175059    0.00745293628922    0.995651263858      -0.0784090406287    0.995651263858      -0.0784090406287    0.00175862175059    0.00745293628922    
3800000000.0        0.00179128443994    0.00765206051417    0.99547837674       -0.0805266758       0.99547837674       -0.0805266758       0.00179128443994    0.00765206051417    
3900000000.0        0.00182478892891    0.00785102146363    0.995300935178      -0.0826441450913    0.995300935178      -0.0826441450913    0.00182478892891    0.00785102146363    
4000000000.0        0.00185913530964    0.00804981631938    0.995118937842      -0.0847614410119    0.995118937842      -0.0847614410119    0.00185913530964    0.00804981631938    
4100000000.0        0.00189432362435    0.00824844229578    0.99493238345       -0.0868785560121    0.99493238345       -0.0868785560121    0.00189432362435    0.00824844229578    
4200000000.0        0.00193035386962    0.00844689663894    0.99474127077       -0.0889954824852    0.99474127077       -0.0889954824852    0.00193035386962    0.00844689663894    
4300000000.0        0.00196722600027    0.00864517662596    0.994545598613      -0.0911122127697    0.994545598613      -0.0911122127697    0.00196722600027    0.00864517662596    
4400000000.0        0.00200493993283    0.00884327956414    0.994345365831      -0.0932287391509    0.994345365831      -0.0932287391509    0.00200493993283    0.00884327956414    
4500000000.0        0.00204349554864    0.00904120279027    0.994140571313      -0.0953450538624    0.994140571313      -0.0953450538624    0.00204349554864    0.00904120279027    
4600000000.0        0.00208289269671    0.00923894366991    0.993931213988      -0.0974611490881    0.993931213988      -0.0974611490881    0.00208289269671    0.00923894366991    
4700000000.0        0.00212313119622    0.00943649959669    0.993717292816      -0.0995770169631    0.993717292816      -0.0995770169631    0.00212313119622    0.00943649959669    
4800000000.0        0.00216421083886    0.00963386799162    0.993498806789      -0.101692649576     0.993498806789      -0.101692649576     0.00216421083886    0.00963386799162    
4900000000.0        0.00220613139092    0.00983104630246    0.993275754933      -0.103808038969     0.993275754933      -0.103808038969     0.00220613139092    0.00983104630246    
5000000000.0        0.0022488925952     0.0100280320031     0.993048136301      -0.10592317714      0.993048136301      -0.10592317714      0.0022488925952     0.0100280320031     
5100000000.0        0.0022924941728     0.0102248225929     0.992815949972      -0.108038056045     0.992815949972      -0.108038056045     0.0022924941728     0.0102248225929     
5200000000.0        0.00233693582467    0.010421415596      0.992579195057      -0.110152667597     0.992579195057      -0.110152667597     0.00233693582467    0.010421415596      
5300000000.0        0.00238221723311    0.010617808561      0.992337870688      -0.112267003668     0.992337870688      -0.112267003668     0.00238221723311    0.010617808561      
5400000000.0        0.0024283380631     0.0108139990601     0.992091976025      -0.114381056091     0.992091976025      -0.114381056091     0.0024283380631     0.0108139990601     
5500000000.0        0.00247529796358    0.0110099846887     0.99184151025       -0.11649481666      0.99184151025       -0.11649481666      0.00247529796358    0.0110099846887     
5600000000.0        0.00252309656855    0.0112057630648     0.991586472568      -0.118608277131     0.991586472568      -0.118608277131     0.00252309656855    0.0112057630648     
5700000000.0        0.00257173349818    0.0114013318286     0.99132686221       -0.120721429223     0.99132686221       -0.120721429223     0.00257173349818    0.0114013318286     
5800000000.0        0.00262120835973    0.0115966886416     0.991062678424      -0.122834264619     0.991062678424      -0.122834264619     0.00262120835973    0.0115966886416     
5900000000.0        0.00267152074852    0.0117918311867     0.990793920483      -0.124946774969     0.990793920483      -0.124946774969     0.00267152074852    0.0117918311867     
6000000000.0        0.00272267024875    0.011986757167      0.99052058768       -0.127058951887     0.99052058768       -0.127058951887     0.00272267024875    0.011986757167      
6100000000.0        0.00277465643425    0.0121814643061     0.990242679327      -0.129170786953     0.990242679327      -0.129170786953     0.00277465643425    0.0121814643061     
6200000000.0        0.00282747886928    0.0123759503468     0.989960194759      -0.131282271717     0.989960194759      -0.131282271717     0.00282747886928    0.0123759503468     
6300000000.0        0.00288113710915    0.0125702130514     0.989673133327      -0.133393397694     0.989673133327      -0.133393397694     0.00288113710915    0.0125702130514     
6400000000.0        0.00293563070091    0.0127642502007     0.989381494405      -0.135504156369     0.989381494405      -0.135504156369     0.00293563070091    0.0127642502007     
6500000000.0        0.00299095918388    0.0129580595939     0.989085277383      -0.137614539199     0.989085277383      -0.137614539199     0.00299095918388    0.0129580595939     
6600000000.0        0.00304712209027    0.0131516390478     0.988784481672      -0.139724537608     0.988784481672      -0.139724537608     0.00304712209027    0.0131516390478     
6700000000.0        0.00310411894567    0.013344986397      0.988479106701      -0.141834142992     0.988479106701      -0.141834142992     0.00310411894567    0.013344986397      
6800000000.0        0.00316194926953    0.0135380994927     0.988169151916      -0.143943346719     0.988169151916      -0.143943346719     0.00316194926953    0.0135380994927     
6900000000.0        0.00322061257566    0.013730976203      0.987854616783      -0.146052140128     0.987854616783      -0.146052140128     0.00322061257566    0.013730976203      
7000000000.0        0.0032801083726     0.013923614412      0.987535500785      -0.148160514531     0.987535500785      -0.148160514531     0.0032801083726     0.013923614412      
7100000000.0        0.00334043616409    0.0141160120197     0.987211803423      -0.150268461215     0.987211803423      -0.150268461215     0.00334043616409    0.0141160120197     
7200000000.0        0.00340159544941    0.0143081669417     0.986883524216      -0.152375971438     0.986883524216      -0.152375971438     0.00340159544941    0.0143081669417     
7300000000.0        0.00346358572376    0.0145000771082     0.9865506627        -0.154483036434     0.9865506627        -0.154483036434     0.00346358572376    0.0145000771082     
7400000000.0        0.00352640647859    0.0146917404647     0.98621321843       -0.156589647411     0.98621321843       -0.156589647411     0.00352640647859    0.0146917404647     
7500000000.0        0.00359005720194    0.0148831549706     0.985871190976      -0.158695795554     0.985871190976      -0.158695795554     0.00359005720194    0.0148831549706     
7600000000.0        0.0036545373787     0.0150743185995     0.985524579927      -0.16080147202      0.985524579927      -0.16080147202      0.0036545373787     0.0150743185995     
7700000000.0        0.00371984649094    0.0152652293384     0.985173384889      -0.162906667947     0.985173384889      -0.162906667947     0.00371984649094    0.0152652293384     
7800000000.0        0.00378598401819    0.015455885188      0.984817605485      -0.165011374446     0.984817605485      -0.165011374446     0.00378598401819    0.015455885188      
7900000000.0        0.00385294943762    0.0156462841617     0.984457241356      -0.167115582607     0.984457241356      -0.167115582607     0.00385294943762    0.0156462841617     
8000000000.0        0.00392074222439    0.0158364242856     0.984092292158      -0.169219283496     0.984092292158      -0.169219283496     0.00392074222439    0.0158364242856     
8100000000.0        0.00398936185179    0.0160263035982     0.983722757566      -0.171322468158     0.983722757566      -0.171322468158     0.00398936185179    0.0160263035982     
8200000000.0        0.0040588077915     0.0162159201499     0.983348637273      -0.173425127617     0.983348637273      -0.173425127617     0.0040588077915     0.0162159201499     
8300000000.0        0.0041290795138     0.0164052720029     0.982969930985      -0.175527252874     0.982969930985      -0.175527252874     0.0041290795138     0.0164052720029     
8400000000.0        0.00420017648774    0.0165943572307     0.982586638429      -0.177628834911     0.982586638429      -0.177628834911     0.00420017648774    0.0165943572307     
8500000000.0        0.00427209818136    0.0167831739182     0.982198759348      -0.179729864687     0.982198759348      -0.179729864687     0.00427209818136    0.0167831739182     
8600000000.0        0.00434484406184    0.0169717201607     0.981806293501      -0.181830333143     0.981806293501      -0.181830333143     0.00434484406184    0.0169717201607     
8700000000.0        0.00441841359567    0.0171599940643     0.981409240664      -0.183930231198     0.981409240664      -0.183930231198     0.00441841359567    0.0171599940643     
8800000000.0        0.00449280624883    0.0173479937453     0.981007600632      -0.186029549755     0.981007600632      -0.186029549755     0.00449280624883    0.0173479937453     
8900000000.0        0.00456802148691    0.0175357173299     0.980601373214      -0.188128279693     0.980601373214      -0.188128279693     0.0045680214869     0.0175357173299     
9000000000.0        0.00464405877527    0.017723162954      0.98019055824       -0.190226411876     0.98019055824       -0.190226411876     0.00464405877526    0.017723162954      
9100000000.0        0.00472091757918    0.0179103287631     0.979775155553      -0.192323937148     0.979775155553      -0.192323937148     0.00472091757918    0.0179103287631     
9200000000.0        0.00479859736395    0.0180972129115     0.979355165015      -0.194420846334     0.979355165015      -0.194420846334     0.00479859736395    0.0180972129115     
9300000000.0        0.00487709759505    0.0182838135627     0.978930586506      -0.196517130242     0.978930586506      -0.196517130242     0.00487709759505    0.0182838135627     
9400000000.0        0.00495641773819    0.0184701288887     0.978501419921      -0.198612779663     0.978501419921      -0.198612779663     0.00495641773819    0.0184701288887     
9500000000.0        0.00503655725951    0.0186561570699     0.978067665174      -0.200707785367     0.978067665174      -0.200707785367     0.00503655725951    0.0186561570699     
9600000000.0        0.0051175156256     0.018841896295      0.977629322196      -0.202802138112     0.977629322196      -0.202802138112     0.0051175156256     0.018841896295      
9700000000.0        0.00519929230365    0.0190273447602     0.977186390933      -0.204895828634     0.977186390933      -0.204895828634     0.00519929230365    0.0190273447602     
9800000000.0        0.00528188676155    0.0192125006698     0.976738871352      -0.206988847657     0.976738871352      -0.206988847657     0.00528188676155    0.0192125006698     
9900000000.0        0.00536529846793    0.0193973622351     0.976286763434      -0.209081185884     0.976286763434      -0.209081185884     0.00536529846793    0.0193973622351     
10000000000.0       0.0054495268923     0.0195819276748     0.975830067178      -0.211172834006     0.975830067178      -0.211172834006     0.0054495268923     0.0195819276748     
