# Hz S RI R 50.00 
100000000.0         0.00770111629551    0.00157843972654    0.992283612083      -0.00604960463186   0.992283612083      -0.00604960463186   0.00770111629551    0.00157843972654    
200000000.0         0.00777896250247    0.00315586565774    0.99217144998       -0.0120981477917    0.99217144998       -0.0120981477917    0.00777896250247    0.00315586565774    
300000000.0         0.00786266556145    0.00473234288613    0.992033385096      -0.0181456617388    0.992033385096      -0.0181456617388    0.00786266556145    0.00473234288613    
400000000.0         0.00795884835098    0.00630773283304    0.99186279257       -0.0241919694241    0.99186279257       -0.0241919694241    0.00795884835098    0.00630773283305    
500000000.0         0.00807005166709    0.00788185010872    0.991657129257      -0.0302368441317    0.991657129257      -0.0302368441317    0.00807005166709    0.00788185010872    
600000000.0         0.00819756141986    0.00945448890143    0.991415106532      -0.0362800368417    0.991415106532      -0.0362800368417    0.00819756141986    0.00945448890143    
700000000.0         0.00834212722666    0.0110254324414     0.991135971704      -0.0423212861873    0.991135971704      -0.0423212861873    0.00834212722666    0.0110254324414     
800000000.0         0.00850422462807    0.0125944573943     0.990819245811      -0.0483603231417    0.990819245811      -0.0483603231417    0.00850422462807    0.0125944573943     
900000000.0         0.0086841718166     0.0141613362301     0.990464606901      -0.0543968735786    0.990464606901      -0.0543968735786    0.0086841718166     0.0141613362301     
1000000000.0        0.00888218879211    0.0157258386379     0.990071830885      -0.0604306598198    0.990071830885      -0.0604306598198    0.00888218879211    0.0157258386379     
1100000000.0        0.00909843023971    0.0172877324356     0.989640758667      -0.0664614016416    0.989640758667      -0.0664614016416    0.00909843023971    0.0172877324356     
1200000000.0        0.00933300511818    0.0188467841911     0.989171276562      -0.0724888169688    0.989171276562      -0.0724888169688    0.00933300511818    0.0188467841911     
1300000000.0        0.0095859889835     0.020402759667      0.988663303981      -0.0785126223761    0.988663303981      -0.0785126223761    0.0095859889835     0.020402759667      
1400000000.0        0.00985743208981    0.0219554241534     0.988116785339      -0.0845325334635    0.988116785339      -0.0845325334635    0.00985743208981    0.0219554241534     
1500000000.0        0.0101473649111     0.0235045427236     0.987531684531      -0.0905482651494    0.987531684531      -0.0905482651494    0.0101473649111     0.0235045427236     
1600000000.0        0.0104558020218     0.0250498804398     0.986907981067      -0.0965595319031    0.986907981067      -0.0965595319031    0.0104558020218     0.0250498804398     
1700000000.0        0.0107827448953     0.0265912025203     0.986245667273      -0.102566047937     0.986245667273      -0.102566047937     0.0107827448953     0.0265912025203     
1800000000.0        0.0111281839694     0.0281282744808     0.985544746231      -0.108567527365     0.985544746231      -0.108567527365     0.0111281839694     0.0281282744808     
1900000000.0        0.0114921002011     0.0296608622555     0.984805230231      -0.114563684343     0.984805230231      -0.114563684343     0.0114921002011     0.0296608622555     
2000000000.0        0.0118744662568     0.0311887323028     0.984027139583      -0.120554233185     0.984027139583      -0.120554233185     0.0118744662568     0.0311887323028     
2100000000.0        0.01227524744       0.0327116516996     0.983210501696      -0.126538888469     0.983210501696      -0.126538888469     0.01227524744       0.0327116516996     
2200000000.0        0.0126944024239     0.0342293882264     0.982355350349      -0.132517365134     0.982355350349      -0.132517365134     0.0126944024239     0.0342293882264     
2300000000.0        0.0131318838369     0.0357417104449     0.981461725108      -0.138489378563     0.981461725108      -0.138489378563     0.0131318838369     0.0357417104449     
2400000000.0        0.0135876387388     0.0372483877704     0.980529670855      -0.144454644661     0.980529670855      -0.144454644661     0.0135876387388     0.0372483877704     
2500000000.0        0.0140616090097     0.0387491905381     0.979559237404      -0.150412879929     0.979559237404      -0.150412879929     0.0140616090097     0.0387491905381     
2600000000.0        0.0145537316739     0.0402438900667     0.978550479178      -0.156363801533     0.978550479178      -0.156363801533     0.0145537316739     0.0402438900667     
2700000000.0        0.0150639391702     0.0417322587184     0.977503454945      -0.162307127363     0.977503454945      -0.162307127363     0.0150639391702     0.0417322587184     
2800000000.0        0.0155921595815     0.0432140699552     0.97641822759       -0.168242576096     0.97641822759       -0.168242576096     0.0155921595815     0.0432140699552     
2900000000.0        0.0161383168307     0.0446890983939     0.975294863924      -0.174169867255     0.975294863924      -0.174169867255     0.0161383168307     0.0446890983939     
3000000000.0        0.0167023308502     0.0461571198584     0.974133434517      -0.180088721257     0.974133434517      -0.180088721257     0.0167023308502     0.0461571198584     
3100000000.0        0.017284117729      0.0476179114304     0.972934013555      -0.185998859469     0.972934013555      -0.185998859469     0.017284117729      0.0476179114304     
3200000000.0        0.0178835898424     0.0490712514978     0.971696678711      -0.191900004259     0.971696678711      -0.191900004259     0.0178835898424     0.0490712514978     
3300000000.0        0.0185006559673     0.0505169198029     0.970421511036      -0.197791879039     0.970421511036      -0.197791879039     0.0185006559673     0.0505169198029     
3400000000.0        0.0191352213852     0.0519546974881     0.969108594859      -0.203674208316     0.969108594859      -0.203674208316     0.0191352213852     0.0519546974881     
3500000000.0        0.0197871879746     0.0533843671407     0.967758017696      -0.209546717734     0.967758017696      -0.209546717734     0.0197871879746     0.0533843671407     
3600000000.0        0.0204564542962     0.0548057128369     0.966369870166      -0.215409134117     0.966369870166      -0.215409134117     0.0204564542962     0.0548057128369     
3700000000.0        0.0211429156703     0.0562185201847     0.964944245923      -0.221261185514     0.964944245923      -0.221261185514     0.0211429156703     0.0562185201847     
3800000000.0        0.0218464642483     0.0576225763653     0.963481241582      -0.227102601236     0.963481241582      -0.227102601236     0.0218464642483     0.0576225763653     
3900000000.0        0.0225669890797     0.059017670174      0.961980956656      -0.232933111898     0.961980956656      -0.232933111898     0.0225669890797     0.059017670174      
4000000000.0        0.023304376175      0.0604035920602     0.960443493498      -0.238752449457     0.960443493498      -0.238752449457     0.023304376175      0.0604035920602     
4100000000.0        0.0240585085642     0.0617801341666     0.958868957243      -0.244560347247     0.958868957243      -0.244560347247     0.0240585085642     0.0617801341666     
4200000000.0        0.0248292663534     0.0631470903673     0.957257455755      -0.25035654002      0.957257455755      -0.25035654002      0.0248292663534     0.0631470903673     
4300000000.0        0.0256165267784     0.0645042563052     0.95560909958       -0.25614076398      0.95560909958       -0.25614076398      0.0256165267784     0.0645042563052     
4400000000.0        0.0264201642559     0.0658514294289     0.953924001891      -0.261912756814     0.953924001891      -0.261912756814     0.0264201642559     0.0658514294289     
4500000000.0        0.0272400504333     0.0671884090285     0.952202278445      -0.26767225773      0.952202278445      -0.26767225773      0.0272400504333     0.0671884090285     
4600000000.0        0.0280760542368     0.068514996271      0.95044404754       -0.27341900749      0.95044404754       -0.27341900749      0.0280760542368     0.068514996271      
4700000000.0        0.0289280419181     0.0698309942342     0.948649429965      -0.279152748439     0.948649429965      -0.279152748439     0.0289280419181     0.0698309942342     
4800000000.0        0.0297958771001     0.0711362079413     0.946818548964      -0.284873224539     0.946818548964      -0.284873224539     0.0297958771001     0.0711362079413     
4900000000.0        0.0306794208216     0.0724304443933     0.944951530188      -0.290580181396     0.944951530188      -0.290580181396     0.0306794208216     0.0724304443933     
5000000000.0        0.0315785315814     0.0737135126014     0.943048501659      -0.296273366296     0.943048501659      -0.296273366296     0.0315785315814     0.0737135126014     
5100000000.0        0.0324930653812     0.0749852236188     0.941109593727      -0.301952528225     0.941109593727      -0.301952528225     0.0324930653812     0.0749852236188     
5200000000.0        0.0334228757685     0.0762453905716     0.939134939029      -0.307617417905     0.939134939029      -0.307617417905     0.0334228757685     0.0762453905716     
5300000000.0        0.0343678138789     0.077493828689      0.937124672455      -0.313267787817     0.937124672455      -0.313267787817     0.0343678138789     0.077493828689      
5400000000.0        0.0353277284777     0.0787303553329     0.935078931102      -0.318903392231     0.935078931102      -0.318903392231     0.0353277284777     0.0787303553329     
5500000000.0        0.0363024660014     0.0799547900264     0.93299785424       -0.324523987225     0.93299785424       -0.324523987225     0.0363024660014     0.0799547900264     
5600000000.0        0.0372918705992     0.0811669544826     0.930881583275      -0.330129330718     0.930881583275      -0.330129330718     0.0372918705992     0.0811669544826     
5700000000.0        0.0382957841735     0.0823666726316     0.928730261705      -0.33571918249      0.928730261705      -0.33571918249      0.0382957841735     0.0823666726316     
5800000000.0        0.0393140464211     0.0835537706475     0.926544035088      -0.341293304207     0.926544035088      -0.341293304207     0.0393140464211     0.0835537706475     
5900000000.0        0.040346494874      0.0847280769744     0.924323051001      -0.346851459441     0.924323051001      -0.346851459441     0.040346494874      0.0847280769744     
6000000000.0        0.0413929649394     0.0858894223518     0.922067459005      -0.352393413696     0.922067459005      -0.352393413696     0.0413929649394     0.0858894223518     
6100000000.0        0.0424532899408     0.0870376398397     0.919777410604      -0.357918934429     0.919777410604      -0.357918934429     0.0424532899408     0.0870376398397     
6200000000.0        0.0435273011578     0.0881725648423     0.917453059211      -0.363427791065     0.917453059211      -0.363427791065     0.0435273011578     0.0881725648423     
6300000000.0        0.044614827867      0.0892940351313     0.91509456011       -0.368919755026     0.91509456011       -0.368919755026     0.044614827867      0.0892940351313     
6400000000.0        0.0457156973822     0.0904018908691     0.912702070416      -0.374394599742     0.912702070416      -0.374394599742     0.0457156973822     0.0904018908691     
6500000000.0        0.0468297350945     0.0914959746303     0.910275749041      -0.379852100674     0.910275749041      -0.379852100674     0.0468297350945     0.0914959746303     
6600000000.0        0.0479567645127     0.0925761314234     0.907815756655      -0.38529203533      0.907815756655      -0.38529203533      0.0479567645127     0.0925761314234     
6700000000.0        0.0490966073036     0.0936422087111     0.905322255652      -0.390714183284     0.905322255652      -0.390714183284     0.0490966073036     0.0936422087111     
6800000000.0        0.0502490833325     0.0946940564309     0.902795410106      -0.396118326189     0.902795410106      -0.396118326189     0.0502490833325     0.0946940564309     
6900000000.0        0.0514140107032     0.0957315270135     0.900235385742      -0.401504247796     0.900235385742      -0.401504247796     0.0514140107032     0.0957315270135     
7000000000.0        0.0525912057984     0.0967544754023     0.897642349894      -0.406871733966     0.897642349894      -0.406871733966     0.0525912057984     0.0967544754023     
7100000000.0        0.05378048332       0.0977627590709     0.895016471468      -0.412220572687     0.895016471468      -0.412220572687     0.05378048332       0.0977627590709     
7200000000.0        0.0549816563296     0.0987562380403     0.892357920908      -0.417550554085     0.892357920908      -0.417550554085     0.0549816563296     0.0987562380403     
7300000000.0        0.0561945362884     0.099734774896      0.889666870155      -0.422861470438     0.889666870155      -0.422861470438     0.0561945362884     0.099734774896      
7400000000.0        0.0574189330978     0.100698234803      0.886943492614      -0.428153116187     0.886943492614      -0.428153116187     0.0574189330978     0.100698234803      
7500000000.0        0.0586546551399     0.101646485523      0.884187963114      -0.43342528795      0.884187963114      -0.43342528795      0.0586546551399     0.101646485523      
7600000000.0        0.0599015093172     0.102579397425      0.881400457872      -0.43867778453      0.881400457872      -0.43867778453      0.0599015093172     0.102579397425      
7700000000.0        0.0611593010936     0.103496843505      0.878581154457      -0.443910406926     0.878581154457      -0.443910406926     0.0611593010936     0.103496843505      
7800000000.0        0.0624278345339     0.104398699395      0.875730231753      -0.449122958343     0.875730231753      -0.449122958343     0.0624278345339     0.104398699395      
7900000000.0        0.0637069123447     0.105284843375      0.872847869921      -0.454315244197     0.872847869921      -0.454315244197     0.0637069123447     0.105284843375      
8000000000.0        0.0649963359144     0.106155156389      0.869934250364      -0.459487072131     0.869934250364      -0.459487072131     0.0649963359144     0.106155156389      
8100000000.0        0.066295905353      0.107009522053      0.866989555688      -0.464638252011     0.866989555688      -0.464638252011     0.066295905353      0.107009522053      
8200000000.0        0.0676054195328     0.107847826668      0.864013969669      -0.469768595945     0.864013969669      -0.469768595945     0.0676054195328     0.107847826668      
8300000000.0        0.068924676128      0.108669959225      0.861007677213      -0.474877918277     0.861007677213      -0.474877918277     0.068924676128      0.108669959225      
8400000000.0        0.070253471655      0.109475811423      0.857970864322      -0.479966035602     0.857970864322      -0.479966035602     0.070253471655      0.109475811423      
8500000000.0        0.0715916015123     0.11026527767       0.854903718059      -0.485032766764     0.854903718059      -0.485032766764     0.0715916015123     0.11026527767       
8600000000.0        0.07293886002       0.111038255093      0.851806426507      -0.490077932864     0.851806426507      -0.490077932864     0.07293886002       0.111038255093      
8700000000.0        0.0742950404601     0.111794643547      0.848679178737      -0.495101357262     0.848679178737      -0.495101357262     0.0742950404601     0.111794643547      
8800000000.0        0.0756599351158     0.112534345624      0.845522164773      -0.500102865579     0.845522164773      -0.500102865579     0.0756599351158     0.112534345624      
8900000000.0        0.0770333353112     0.113257266651      0.842335575553      -0.505082285699     0.842335575553      -0.505082285699     0.0770333353112     0.113257266651      
9000000000.0        0.0784150314509     0.113963314705      0.839119602894      -0.510039447771     0.839119602894      -0.510039447771     0.0784150314509     0.113963314705      
9100000000.0        0.079804813059      0.114652400613      0.835874439461      -0.514974184212     0.835874439461      -0.514974184212     0.079804813059      0.114652400613      
9200000000.0        0.0812024688186     0.115324437956      0.832600278725      -0.519886329702     0.832600278725      -0.519886329702     0.0812024688186     0.115324437956      
9300000000.0        0.0826077866109     0.115979343076      0.829297314934      -0.524775721189     0.829297314934      -0.524775721189     0.0826077866109     0.115979343076      
9400000000.0        0.0840205535539     0.116617035075      0.825965743074      -0.529642197883     0.825965743074      -0.529642197883     0.0840205535539     0.116617035075      
9500000000.0        0.0854405560415     0.117237435822      0.822605758838      -0.534485601259     0.822605758838      -0.534485601259     0.0854405560415     0.117237435822      
9600000000.0        0.0868675797818     0.117840469951      0.819217558589      -0.539305775051     0.819217558589      -0.539305775051     0.0868675797818     0.117840469951      
9700000000.0        0.0883014098357     0.118426064866      0.815801339324      -0.544102565252     0.815801339324      -0.544102565252     0.0883014098357     0.118426064866      
9800000000.0        0.0897418306552     0.118994150738      0.812357298646      -0.548875820108     0.812357298646      -0.548875820108     0.0897418306552     0.118994150738      
9900000000.0        0.0911886261218     0.11954466051       0.808885634726      -0.553625390117     0.808885634726      -0.553625390117     0.0911886261218     0.11954466051       
10000000000.0       0.0926415795837     0.120077529893      0.805386546269      -0.55835112802      0.805386546269      -0.55835112802      0.0926415795837     0.120077529893      
