# Hz S RI R 50.00 
100000000.0         0.0227131129057     0.00341753035101    0.977278280168      -0.00647854709034   0.977278280168      -0.00647854709034   0.0227131129057     0.00341753035101    
200000000.0         0.02292718013       0.00683139773517    0.977047162344      -0.0129534402335    0.977047162344      -0.0129534402335    0.02292718013       0.00683139773517    
300000000.0         0.023147300412      0.0102421170628     0.976800546141      -0.0194252104881    0.976800546141      -0.0194252104881    0.023147300412      0.0102421170628     
400000000.0         0.0233927420878     0.0136494189339     0.976519161408      -0.0258936020265    0.976519161408      -0.0258936020265    0.0233927420878     0.0136494189339     
500000000.0         0.0236708926858     0.0170528528848     0.976195618507      -0.0323581766589    0.976195618507      -0.0323581766589    0.0236708926858     0.0170528528848     
600000000.0         0.0239854838465     0.0204518892966     0.975826183354      -0.0388184161888    0.975826183354      -0.0388184161888    0.0239854838465     0.0204518892966     
700000000.0         0.0243386826239     0.0238459560991     0.975408686104      -0.0452737593446    0.975408686104      -0.0452737593446    0.0243386826239     0.0238459560991     
800000000.0         0.024731854854      0.0272344559034     0.974941757774      -0.0517236190465    0.974941757774      -0.0517236190465    0.024731854854      0.0272344559034     
900000000.0         0.025165905089      0.0306167753056     0.974424490303      -0.0581673917991    0.974424490303      -0.0581673917991    0.025165905089      0.0306167753056     
1000000000.0        0.0256414489311     0.0339922904903     0.973856264215      -0.0646044633561    0.973856264215      -0.0646044633561    0.0256414489311     0.0339922904903     
1100000000.0        0.0261589088556     0.0373603708752     0.9732366528        -0.0710342124097    0.9732366528        -0.0710342124097    0.0261589088556     0.0373603708752     
1200000000.0        0.0267185713346     0.0407203816312     0.972565364984      -0.0774560131447    0.972565364984      -0.0774560131447    0.0267185713346     0.0407203816312     
1300000000.0        0.0273206228045     0.0440716855146     0.971842209364      -0.0838692370967    0.971842209364      -0.0838692370967    0.0273206228045     0.0440716855146     
1400000000.0        0.0279651733342     0.0474136442562     0.97106707054       -0.0902732545621    0.97106707054       -0.0902732545621    0.0279651733342     0.0474136442562     
1500000000.0        0.0286522727845     0.050745619655      0.970239892956      -0.096667435708     0.970239892956      -0.096667435708     0.0286522727845     0.050745619655      
1600000000.0        0.029381922187      0.0540669744648     0.969360669519      -0.103051151473     0.969360669519      -0.103051151473     0.029381922187      0.0540669744648     
1700000000.0        0.030154081976      0.0573770731343     0.968429433371      -0.109423774317     0.968429433371      -0.109423774317     0.030154081976      0.0573770731343     
1800000000.0        0.0309686780858     0.0606752824393     0.967446251789      -0.115784678865     0.967446251789      -0.115784678865     0.0309686780858     0.0606752824393     
1900000000.0        0.0318256065627     0.0639609720329     0.966411221575      -0.122133242463     0.966411221575      -0.122133242463     0.0318256065627     0.0639609720329     
2000000000.0        0.0327247371226     0.0672335149338     0.965324465498      -0.128468845673     0.965324465498      -0.128468845673     0.0327247371226     0.0672335149338     
2100000000.0        0.0336659159415     0.0704922879652     0.964186129506      -0.134790872719     0.964186129506      -0.134790872719     0.0336659159415     0.0704922879652     
2200000000.0        0.0346489678836     0.0737366721539     0.962996380495      -0.141098711887     0.962996380495      -0.141098711887     0.0346489678836     0.0737366721539     
2300000000.0        0.0356736983057     0.0769660530984     0.961755404506      -0.147391755904     0.961755404506      -0.147391755904     0.0356736983057     0.0769660530984     
2400000000.0        0.0367398945423     0.0801798213098     0.960463405242      -0.153669402272     0.960463405242      -0.153669402272     0.0367398945423     0.0801798213098     
2500000000.0        0.0378473271441     0.0833773725293     0.959120602826      -0.159931053598     0.959120602826      -0.159931053598     0.0378473271441     0.0833773725293     
2600000000.0        0.0389957509262     0.0865581080285     0.957727232759      -0.166176117892     0.957727232759      -0.166176117892     0.0389957509262     0.0865581080285     
2700000000.0        0.0401849058662     0.0897214348903     0.956283545014      -0.172404008849     0.956283545014      -0.172404008849     0.0401849058662     0.0897214348903     
2800000000.0        0.0414145178845     0.0928667662769     0.954789803264      -0.178614146121     0.954789803264      -0.178614146121     0.0414145178845     0.0928667662769     
2900000000.0        0.0426842995307     0.0959935216831     0.95324628419       -0.184805955569     0.95324628419       -0.184805955569     0.0426842995307     0.0959935216831     
3000000000.0        0.0439939505938     0.0991011271779     0.951653276872      -0.190978869509     0.951653276872      -0.190978869509     0.0439939505938     0.0991011271779     
3100000000.0        0.0453431586522     0.102189015635      0.950011082242      -0.19713232694      0.950011082242      -0.19713232694      0.0453431586522     0.102189015635      
3200000000.0        0.0467315995736     0.10525662695       0.94832001258       -0.203265773766     0.94832001258       -0.203265773766     0.0467315995736     0.10525662695       
3300000000.0        0.0481589379745     0.108303408256      0.946580391058      -0.209378663004     0.946580391058      -0.209378663004     0.0481589379745     0.108303408256      
3400000000.0        0.0496248276472     0.111328814115      0.94479255131       -0.215470454985     0.94479255131       -0.215470454985     0.0496248276472     0.111328814115      
3500000000.0        0.0511289119585     0.114332306719      0.942956837035      -0.221540617549     0.942956837035      -0.221540617549     0.0511289119585     0.114332306719      
3600000000.0        0.0526708242266     0.117313356065      0.941073601619      -0.227588626221     0.941073601619      -0.227588626221     0.0526708242266     0.117313356065      
3700000000.0        0.0542501880786     0.120271440132      0.939143207781      -0.233613964391     0.939143207781      -0.233613964391     0.0542501880786     0.120271440132      
3800000000.0        0.0558666177922     0.123206045048      0.937166027223      -0.239616123475     0.937166027223      -0.239616123475     0.0558666177922     0.123206045048      
3900000000.0        0.0575197186253     0.126116665247      0.935142440309      -0.245594603077     0.935142440309      -0.245594603077     0.0575197186253     0.126116665247      
4000000000.0        0.0592090871328     0.129002803619      0.933072835743      -0.251548911136     0.933072835743      -0.251548911136     0.0592090871328     0.129002803619      
4100000000.0        0.0609343114755     0.131863971655      0.930957610261      -0.257478564068     0.930957610261      -0.257478564068     0.0609343114755     0.131863971655      
4200000000.0        0.0626949717202     0.134699689578      0.92879716833       -0.2633830869       0.92879716833       -0.2633830869       0.0626949717202     0.134699689578      
4300000000.0        0.0644906401332     0.137509486474      0.926591921858      -0.269262013401     0.926591921858      -0.269262013401     0.0644906401332     0.137509486474      
4400000000.0        0.0663208814679     0.140292900414      0.924342289898      -0.275114886195     0.924342289898      -0.275114886195     0.0663208814679     0.140292900414      
4500000000.0        0.0681852532471     0.143049478561      0.922048698373      -0.280941256879     0.922048698373      -0.280941256879     0.0681852532471     0.143049478561      
4600000000.0        0.0700833060413     0.145778777283      0.919711579796      -0.286740686124     0.919711579796      -0.286740686124     0.0700833060413     0.145778777283      
4700000000.0        0.0720145837425     0.148480362247      0.917331372991      -0.292512743776     0.917331372991      -0.292512743776     0.0720145837425     0.148480362247      
4800000000.0        0.0739786238344     0.151153808513      0.914908522828      -0.298257008944     0.914908522828      -0.298257008944     0.0739786238344     0.151153808513      
4900000000.0        0.0759749576602     0.15379870062       0.912443479952      -0.303973070085     0.912443479952      -0.303973070085     0.0759749576602     0.15379870062       
5000000000.0        0.0780031106864     0.156414632662      0.909936700519      -0.309660525081     0.909936700519      -0.309660525081     0.0780031106864     0.156414632662      
5100000000.0        0.0800626027648     0.159001208361      0.907388645933      -0.315318981308     0.907388645933      -0.315318981308     0.0800626027648     0.159001208361      
5200000000.0        0.0821529483909     0.161558041132      0.904799782589      -0.320948055703     0.904799782589      -0.320948055703     0.0821529483909     0.161558041132      
5300000000.0        0.0842736569607     0.164084754139      0.902170581614      -0.326547374814     0.902170581614      -0.326547374814     0.0842736569607     0.164084754139      
5400000000.0        0.0864242330252     0.16658098035       0.899501518611      -0.332116574857     0.899501518611      -0.332116574857     0.0864242330252     0.16658098035       
5500000000.0        0.0886041765414     0.169046362578      0.896793073409      -0.337655301755     0.896793073409      -0.337655301755     0.0886041765414     0.169046362578      
5600000000.0        0.0908129831222     0.171480553523      0.894045729815      -0.343163211177     0.894045729815      -0.343163211177     0.0908129831222     0.171480553523      
5700000000.0        0.0930501442838     0.173883215804      0.891259975359      -0.348639968567     0.891259975359      -0.348639968567     0.0930501442838     0.173883215804      
5800000000.0        0.0953151476899     0.176254021983      0.888436301055      -0.354085249171     0.888436301055      -0.354085249171     0.0953151476899     0.176254021983      
5900000000.0        0.097607477395      0.178592654589      0.885575201157      -0.359498738054     0.885575201157      -0.359498738054     0.097607477395      0.178592654589      
6000000000.0        0.099926614084      0.180898806127      0.882677172914      -0.364880130111     0.882677172914      -0.364880130111     0.099926614084      0.180898806127      
6100000000.0        0.10227203531       0.183172179091      0.879742716336      -0.370229130077     0.879742716336      -0.370229130077     0.10227203531       0.183172179091      
6200000000.0        0.10464321573       0.185412485965      0.876772333956      -0.375545452523     0.876772333956      -0.375545452523     0.10464321573       0.185412485965      
6300000000.0        0.107039627336      0.187619449218      0.873766530596      -0.380828821854     0.873766530596      -0.380828821854     0.107039627336      0.187619449218      
6400000000.0        0.109460739689      0.189792801294      0.870725813138      -0.386078972296     0.870725813138      -0.386078972296     0.109460739689      0.189792801294      
6500000000.0        0.111906020141      0.191932284604      0.867650690295      -0.391295647882     0.867650690295      -0.391295647882     0.111906020141      0.191932284604      
6600000000.0        0.114374934064      0.194037651499      0.864541672384      -0.396478602425     0.864541672384      -0.396478602425     0.114374934064      0.194037651499      
6700000000.0        0.11686694507       0.196108664248      0.861399271105      -0.401627599497     0.861399271105      -0.401627599497     0.11686694507       0.196108664248      
6800000000.0        0.11938151523       0.198145095006      0.85822399932       -0.406742412393     0.85822399932       -0.406742412393     0.11938151523       0.198145095006      
6900000000.0        0.12191810529       0.200146725784      0.855016370839      -0.411822824093     0.855016370839      -0.411822824093     0.12191810529       0.200146725784      
7000000000.0        0.124476174886      0.202113348401      0.851776900201      -0.416868627223     0.851776900201      -0.416868627223     0.124476174886      0.202113348401      
7100000000.0        0.127055182749      0.204044764444      0.84850610247       -0.421879624002     0.84850610247       -0.421879624002     0.127055182749      0.204044764444      
7200000000.0        0.129654586916      0.205940785218      0.845204493019      -0.426855626196     0.845204493019      -0.426855626196     0.129654586916      0.205940785218      
7300000000.0        0.132273844932      0.20780123169       0.841872587336      -0.431796455058     0.841872587336      -0.431796455058     0.132273844932      0.20780123169       
7400000000.0        0.13491241405       0.20962593443       0.838510900812      -0.436701941267     0.838510900812      -0.436701941267     0.13491241405       0.20962593443       
7500000000.0        0.137569751426      0.211414733553      0.835119948555      -0.441571924863     0.835119948555      -0.441571924863     0.137569751426      0.211414733553      
7600000000.0        0.140245314315      0.213167478644      0.831700245185      -0.446406255178     0.831700245185      -0.446406255178     0.140245314315      0.213167478644      
7700000000.0        0.142938560256      0.214884028694      0.828252304651      -0.451204790764     0.828252304651      -0.451204790764     0.142938560256      0.214884028694      
7800000000.0        0.145648947264      0.216564252022      0.824776640041      -0.455967399311     0.824776640041      -0.455967399311     0.145648947264      0.216564252022      
7900000000.0        0.148375934007      0.218208026195      0.8212737634        -0.46069395757      0.8212737634        -0.46069395757      0.148375934007      0.218208026195      
8000000000.0        0.151118979987      0.21981523795       0.817744185549      -0.465384351265     0.817744185549      -0.465384351265     0.151118979987      0.21981523795       
8100000000.0        0.153877545715      0.221385783103      0.814188415909      -0.470038475007     0.814188415909      -0.470038475007     0.153877545715      0.221385783103      
8200000000.0        0.156651092881      0.222919566465      0.810606962331      -0.474656232201     0.810606962331      -0.474656232201     0.156651092881      0.222919566465      
8300000000.0        0.159439084521      0.224416501746      0.807000330924      -0.479237534951     0.807000330924      -0.479237534951     0.159439084521      0.224416501746      
8400000000.0        0.162240985181      0.22587651146       0.803369025897      -0.483782303961     0.803369025897      -0.483782303961     0.162240985181      0.22587651146       
8500000000.0        0.165056261077      0.22729952683       0.79971354939       -0.488290468436     0.79971354939       -0.488290468436     0.165056261077      0.22729952683       
8600000000.0        0.167884380248      0.228685487684      0.796034401324      -0.492761965978     0.796034401324      -0.492761965978     0.167884380248      0.228685487684      
8700000000.0        0.170724812711      0.230034342351      0.792332079246      -0.497196742475     0.792332079246      -0.497196742475     0.170724812711      0.230034342351      
8800000000.0        0.173577030605      0.231346047557      0.788607078181      -0.501594751997     0.788607078181      -0.501594751997     0.173577030605      0.231346047557      
8900000000.0        0.176440508338      0.232620568315      0.784859890485      -0.505955956682     0.784859890485      -0.505955956682     0.176440508338      0.232620568315      
9000000000.0        0.179314722722      0.233857877813      0.781091005707      -0.510280326624     0.781091005707      -0.510280326624     0.179314722722      0.233857877813      
9100000000.0        0.182199153114      0.235057957306      0.777300910452      -0.514567839753     0.777300910452      -0.514567839753     0.182199153114      0.235057957306      
9200000000.0        0.185093281541      0.236220795995      0.773490088247      -0.518818481719     0.773490088247      -0.518818481719     0.185093281541      0.236220795995      
9300000000.0        0.187996592834      0.237346390912      0.769659019413      -0.523032245776     0.769659019413      -0.523032245776     0.187996592834      0.237346390912      
9400000000.0        0.190908574746      0.238434746805      0.765808180941      -0.527209132652     0.765808180941      -0.527209132652     0.190908574746      0.238434746805      
9500000000.0        0.193828718074      0.239485876014      0.761938046371      -0.531349150433     0.761938046371      -0.531349150433     0.193828718074      0.239485876014      
9600000000.0        0.196756516775      0.240499798349      0.758049085674      -0.535452314433     0.758049085674      -0.535452314433     0.196756516775      0.240499798349      
9700000000.0        0.199691468073      0.24147654097       0.754141765142      -0.539518647071     0.754141765142      -0.539518647071     0.199691468073      0.24147654097       
9800000000.0        0.202633072574      0.242416138262      0.750216547277      -0.543548177741     0.750216547277      -0.543548177741     0.202633072574      0.242416138262      
9900000000.0        0.205580834359      0.243318631709      0.74627389069       -0.547540942685     0.74627389069       -0.547540942685     0.205580834359      0.243318631709      
10000000000.0       0.208534261094      0.244184069766      0.742314249995      -0.551496984861     0.742314249995      -0.551496984861     0.208534261094      0.244184069766      
