# Hz S RI R 50.00 
100000000.0         -8.15364481821e-07  -0.000267503984478  0.999999138464      -0.000267806749829  0.999999138464      -0.000267806749829  -8.15364481821e-07  -0.000267503984478  
200000000.0         -1.29660592074e-06  -0.000534948815618  0.999998656907      -0.000535554516603  0.999998656907      -0.000535554516603  -1.29660592085e-06  -0.000534948815618  
300000000.0         -1.92102980201e-06  -0.000802303728577  0.999998032246      -0.000803212617216  0.999998032246      -0.000803212617216  -1.92102980212e-06  -0.000802303728577  
400000000.0         -2.68825754945e-06  -0.00106954932794   0.999997264822      -0.00107076171319   0.999997264822      -0.00107076171319   -2.68825754934e-06  -0.00106954932794   
500000000.0         -3.59806311701e-06  -0.00133667067512   0.999996354843      -0.00133818690847   0.999996354843      -0.00133818690847   -3.59806311734e-06  -0.00133667067512   
600000000.0         -4.65020642748e-06  -0.00160365701563   0.999995302544      -0.00160547748059   0.999995302544      -0.00160547748059   -4.65020642726e-06  -0.00160365701563   
700000000.0         -5.84442753671e-06  -0.00187049950537   0.999994108179      -0.00187262460921   0.999994108179      -0.00187262460921   -5.84442753671e-06  -0.00187049950537   
800000000.0         -7.18047529258e-06  -0.00213719239291   0.999992771997      -0.00213962255984   0.999992771997      -0.00213962255984   -7.18047529247e-06  -0.00213719239291   
900000000.0         -8.65808274897e-06  -0.0024037319509    0.999991294262      -0.00240646761645   0.999991294262      -0.00240646761645   -8.65808274897e-06  -0.0024037319509    
1000000000.0        -1.02769928693e-05  -0.00267011588486   0.999989675231      -0.00267315749108   0.999989675231      -0.00267315749108   -1.02769928695e-05  -0.00267011588486   
1100000000.0        -1.20369530697e-05  -0.00293634344681   0.999987915154      -0.00293969143832   0.999987915154      -0.00293969143832   -1.20369530696e-05  -0.00293634344681   
1200000000.0        -1.39377159449e-05  -0.00320241507147   0.999986014278      -0.00320606989213   0.999986014278      -0.00320606989213   -1.39377159448e-05  -0.00320241507147   
1300000000.0        -1.59790472124e-05  -0.00346833217161   0.999983972838      -0.00347229426169   0.999983972838      -0.00347229426169   -1.59790472124e-05  -0.00346833217161   
1400000000.0        -1.81607172842e-05  -0.00373409666054   0.999981791061      -0.00373836645447   0.999981791061      -0.00373836645447   -1.81607172847e-05  -0.00373409666054   
1500000000.0        -2.04825115834e-05  -0.00399971154324   0.999979469162      -0.00400428946766   0.999979469162      -0.00400428946766   -2.04825115833e-05  -0.00399971154324   
1600000000.0        -2.29442234468e-05  -0.00426518012052   0.999977007348      -0.00427006659285   0.999977007348      -0.00427006659285   -2.29442234467e-05  -0.00426518012052   
1700000000.0        -2.55456583373e-05  -0.00453050603453   0.999974405812      -0.0045357014617    0.999974405812      -0.0045357014617    -2.55456583372e-05  -0.00453050603453   
1800000000.0        -2.82866339237e-05  -0.0047956934619    0.999971664738      -0.00480119823947   0.999971664738      -0.00480119823947   -2.8286633924e-05   -0.0047956934619    
1900000000.0        -3.11669782966e-05  -0.00506074649993   0.999968784295      -0.00506656101137   0.999968784295      -0.00506656101137   -3.11669782969e-05  -0.00506074649993   
2000000000.0        -3.41865301059e-05  -0.00532566957573   0.999965764647      -0.00533179419197   0.999965764647      -0.00533179419197   -3.41865301059e-05  -0.00532566957573   
2100000000.0        -3.73451405999e-05  -0.00559046732123   0.999962605941      -0.0055969024003    0.999962605941      -0.0055969024003    -3.73451406004e-05  -0.00559046732123   
2200000000.0        -4.06426690132e-05  -0.00585514414111   0.999959308317      -0.00586189002799   0.999959308317      -0.00586189002799   -4.06426690129e-05  -0.00585514414111   
2300000000.0        -4.40789855344e-05  -0.00611970462207   0.999955871906      -0.00612676164865   0.999955871906      -0.00612676164865   -4.40789855344e-05  -0.00611970462207   
2400000000.0        -4.76539698978e-05  -0.00638415325995   0.999952296828      -0.00639152174508   0.999952296828      -0.00639152174508   -4.76539698975e-05  -0.00638415325995   
2500000000.0        -5.13675100819e-05  -0.00664849452796   0.999948583195      -0.00665617477758   0.999948583195      -0.00665617477758   -5.13675100823e-05  -0.00664849452796   
2600000000.0        -5.52195026664e-05  -0.00691273274021   0.999944731109      -0.00692072504755   0.999944731109      -0.00692072504755   -5.52195026665e-05  -0.00691273274021   
2700000000.0        -5.92098530841e-05  -0.00717687224499   0.999940740666      -0.00718517689085   0.999940740666      -0.00718517689085   -5.92098530844e-05  -0.00717687224499   
2800000000.0        -6.3338471785e-05   -0.00744091708372   0.999936611955      -0.00744953433675   0.999936611955      -0.00744953433675   -6.33384717852e-05  -0.00744091708372   
2900000000.0        -6.76052776148e-05  -0.00770487129782   0.999932345057      -0.00771380141489   0.999932345057      -0.00771380141489   -6.76052776146e-05  -0.00770487129782   
3000000000.0        -7.20101959336e-05  -0.00796873876963   0.999927940047      -0.00797798199616   0.999927940047      -0.00797798199616   -7.20101959335e-05  -0.00796873876963   
3100000000.0        -7.65531576106e-05  -0.00823252326782   0.999923396994      -0.00824207983817   0.999923396994      -0.00824207983817   -7.65531576108e-05  -0.00823252326782   
3200000000.0        -8.12340982371e-05  -0.00849622829393   0.999918715961      -0.00850609843182   0.999918715961      -0.00850609843182   -8.12340982372e-05  -0.00849622829393   
3300000000.0        -8.60529600092e-05  -0.00875985737228   0.999913897008      -0.00877004129113   0.999913897008      -0.00877004129113   -8.60529600095e-05  -0.00875985737228   
3400000000.0        -9.10096880657e-05  -0.00902341374297   0.999908940188      -0.00903391164636   0.999908940188      -0.00903391164636   -9.10096880655e-05  -0.00902341374297   
3500000000.0        -9.61042339699e-05  -0.00928690064043   0.999903845551      -0.00929771272247   0.999903845551      -0.00929771272247   -9.61042339699e-05  -0.00928690064043   
3600000000.0        -0.000101336550806  -0.00955032099786   0.999898613142      -0.0095614474436    0.999898613142      -0.0095614474436    -0.000101336550806  -0.00955032099786   
3700000000.0        -0.000106706596974  -0.00981367772003   0.999893243005      -0.00982511870585   0.999893243005      -0.00982511870585   -0.000106706596974  -0.00981367772003   
3800000000.0        -0.000112214333217  -0.0100769735185    0.999887735177      -0.0100887292125    0.999887735177      -0.0100887292125    -0.000112214333217  -0.0100769735185    
3900000000.0        -0.000117859724323  -0.0103402110251    0.999882089693      -0.0103522815874    0.999882089693      -0.0103522815874    -0.000117859724323  -0.0103402110251    
4000000000.0        -0.000123642736737  -0.010603392673     0.999876306589      -0.0106157782562    0.999876306589      -0.0106157782562    -0.000123642736737  -0.010603392673     
4100000000.0        -0.000129563340788  -0.0108665208666    0.999870385893      -0.0108792216161    0.999870385893      -0.0108792216161    -0.000129563340788  -0.0108665208666    
4200000000.0        -0.000135621507137  -0.0111295977605    0.999864327634      -0.0111426138149    0.999864327634      -0.0111426138149    -0.000135621507137  -0.0111295977605    
4300000000.0        -0.000141817211107  -0.0113926255489    0.999858131838      -0.0114059570402    0.999858131838      -0.0114059570402    -0.000141817211107  -0.0113926255489    
4400000000.0        -0.000148150427733  -0.0116556061816    0.999851798528      -0.0116692532356    0.999851798528      -0.0116692532356    -0.000148150427733  -0.0116556061816    
4500000000.0        -0.000154621134664  -0.0119185415688    0.999845327728      -0.0119325043052    0.999845327728      -0.0119325043052    -0.000154621134664  -0.0119185415688    
4600000000.0        -0.000161229311888  -0.0121814335409    0.999838719458      -0.012195712074     0.999838719458      -0.012195712074     -0.000161229311888  -0.0121814335409    
4700000000.0        -0.000167974939275  -0.0124442837577    0.999831973737      -0.0124588781964    0.999831973737      -0.0124588781964    -0.000167974939275  -0.0124442837577    
4800000000.0        -0.000174857999101  -0.012707093851     0.999825090584      -0.012722004299     0.999825090584      -0.012722004299     -0.000174857999101  -0.012707093851     
4900000000.0        -0.000181878474276  -0.0129698653327    0.999818070015      -0.0129850918889    0.999818070015      -0.0129850918889    -0.000181878474276  -0.0129698653327    
5000000000.0        -0.000189036349259  -0.0132325996582    0.999810912046      -0.013248142417     0.999810912046      -0.013248142417     -0.000189036349259  -0.0132325996582    
5100000000.0        -0.000196331608869  -0.0134952981691    0.999803616692      -0.0135111572205    0.999803616692      -0.0135111572205    -0.000196331608868  -0.0134952981691    
5200000000.0        -0.000203764239533  -0.0137579621729    0.999796183967      -0.0137741376026    0.999796183967      -0.0137741376026    -0.000203764239533  -0.0137579621729    
5300000000.0        -0.000211334227781  -0.0140205928749    0.999788613884      -0.0140370847647    0.999788613884      -0.0140370847647    -0.000211334227781  -0.0140205928749    
5400000000.0        -0.000219041560553  -0.0142831914006    0.999780906456      -0.0142999998287    0.999780906456      -0.0142999998287    -0.000219041560552  -0.0142831914006    
5500000000.0        -0.000226886227201  -0.014545758887     0.999773061694      -0.0145628839279    0.999773061694      -0.0145628839279    -0.000226886227201  -0.014545758887     
5600000000.0        -0.000234868215263  -0.014808296312     0.99976507961       -0.0148257380369    0.99976507961       -0.0148257380369    -0.000234868215263  -0.014808296312     
5700000000.0        -0.000242987514045  -0.0150708046534    0.999756960215      -0.0150885631301    0.999756960215      -0.0150885631301    -0.000242987514045  -0.0150708046534    
5800000000.0        -0.000251244113693  -0.0153332848378    0.999748703519      -0.0153513601313    0.999748703519      -0.0153513601313    -0.000251244113693  -0.0153332848378    
5900000000.0        -0.000259638002944  -0.0155957376896    0.999740309533      -0.0156141298619    0.999740309533      -0.0156141298619    -0.000259638002943  -0.0155957376896    
6000000000.0        -0.000268169172515  -0.0158581640332    0.999731778267      -0.0158768731434    0.999731778267      -0.0158768731434    -0.000268169172515  -0.0158581640332    
6100000000.0        -0.000276837613503  -0.0161205646532    0.999723109729      -0.0161395907579    0.999723109729      -0.0161395907579    -0.000276837613504  -0.0161205646532    
6200000000.0        -0.000285643315361  -0.0163829402261    0.999714303929      -0.0164022833794    0.999714303929      -0.0164022833794    -0.000285643315361  -0.0163829402261    
6300000000.0        -0.000294586270247  -0.0166452914682    0.999705360877      -0.0166649517219    0.999705360877      -0.0166649517219    -0.000294586270247  -0.0166452914682    
6400000000.0        -0.000303666468242  -0.0169076189881    0.999696280581      -0.0169275963916    0.999696280581      -0.0169275963916    -0.000303666468242  -0.0169076189881    
6500000000.0        -0.000312883901302  -0.0171699234053    0.999687063049      -0.0171902180061    0.999687063049      -0.0171902180061    -0.000312883901302  -0.0171699234053    
6600000000.0        -0.000322238559953  -0.017432205263     0.999677708292      -0.0174528171062    0.999677708292      -0.0174528171062    -0.000322238559952  -0.017432205263     
6700000000.0        -0.000331730436927  -0.0176944651297    0.999668216316      -0.0177153942588    0.999668216316      -0.0177153942588    -0.000331730436927  -0.0176944651297    
6800000000.0        -0.000341359522865  -0.0179567034803    0.99965858713       -0.0179779499367    0.99965858713       -0.0179779499367    -0.000341359522866  -0.0179567034803    
6900000000.0        -0.00035112580938   -0.0182189207866    0.999648820744      -0.0182404846101    0.999648820744      -0.0182404846101    -0.000351125809381  -0.0182189207866    
7000000000.0        -0.000361029287776  -0.018481117481     0.999638917166      -0.0185029987097    0.999638917166      -0.0185029987097    -0.000361029287777  -0.018481117481     
7100000000.0        -0.000371069950213  -0.0187432939956    0.999628876403      -0.0187654926661    0.999628876403      -0.0187654926661    -0.000371069950213  -0.0187432939956    
7200000000.0        -0.000381247787839  -0.0190054507086    0.999618698465      -0.0190279668558    0.999618698465      -0.0190279668558    -0.000381247787839  -0.0190054507086    
7300000000.0        -0.000391562792111  -0.0192675879813    0.99960838336       -0.0192904216387    0.99960838336       -0.0192904216387    -0.000391562792111  -0.0192675879813    
7400000000.0        -0.000402014955506  -0.0195297061803    0.999597931095      -0.0195528573802    0.999597931095      -0.0195528573802    -0.000402014955506  -0.0195297061803    
7500000000.0        -0.000412604268097  -0.0197918055903    0.999587341681      -0.0198152743635    0.999587341681      -0.0198152743635    -0.000412604268097  -0.0197918055903    
7600000000.0        -0.000423330721781  -0.0200538865212    0.999576615125      -0.0200776728974    0.999576615125      -0.0200776728974    -0.000423330721781  -0.0200538865212    
7700000000.0        -0.000434194307947  -0.0203159492575    0.999565751437      -0.0203400532652    0.999565751437      -0.0203400532652    -0.000434194307947  -0.0203159492575    
7800000000.0        -0.00044519501806   -0.0205779940638    0.999554750624      -0.0206024157302    0.999554750624      -0.0206024157302    -0.00044519501806   -0.0205779940638    
7900000000.0        -0.000456332843294  -0.0208400211848    0.999543612696      -0.0208647605361    0.999543612696      -0.0208647605361    -0.000456332843294  -0.0208400211848    
8000000000.0        -0.000467607774699  -0.0211020308452    0.999532337662      -0.0211270879067    0.999532337662      -0.0211270879067    -0.000467607774699  -0.0211020308452    
8100000000.0        -0.000479019803088  -0.0213640232529    0.99952092553       -0.0213893980488    0.99952092553       -0.0213893980488    -0.000479019803088  -0.0213640232529    
8200000000.0        -0.000490568919558  -0.0216259986099    0.999509376309      -0.0216516911636    0.999509376309      -0.0216516911636    -0.000490568919558  -0.0216259986099    
8300000000.0        -0.000502255114322  -0.0218879570843    0.999497690011      -0.0219139674181    0.999497690011      -0.0219139674181    -0.000502255114322  -0.0218879570843    
8400000000.0        -0.00051407837873   -0.022149898861     0.999485866642      -0.0221762269965    0.999485866642      -0.0221762269965    -0.00051407837873   -0.022149898861     
8500000000.0        -0.00052603870298   -0.0224118240884    0.999473906213      -0.0224384700463    0.999473906213      -0.0224384700463    -0.00052603870298   -0.0224118240884    
8600000000.0        -0.00053813607833   -0.0226737329285    0.999461808732      -0.0227006967289    0.999461808732      -0.0227006967289    -0.00053813607833   -0.0226737329285    
8700000000.0        -0.000550370493382  -0.0229356254758    0.999449574212      -0.0229629071378    0.999449574212      -0.0229629071378    -0.000550370493383  -0.0229356254758    
8800000000.0        -0.000562741940307  -0.0231975018953    0.999437202659      -0.0232251014374    0.999437202659      -0.0232251014374    -0.000562741940307  -0.0231975018953    
8900000000.0        -0.000575250407622  -0.0234593622643    0.999424694086      -0.0234872797043    0.999424694086      -0.0234872797043    -0.000575250407622  -0.0234593622643    
9000000000.0        -0.000587895886058  -0.0237212067024    0.999412048501      -0.0237494420576    0.999412048501      -0.0237494420576    -0.000587895886058  -0.0237212067024    
9100000000.0        -0.000600678365337  -0.0239830352981    0.999399265915      -0.0240115885852    0.999399265915      -0.0240115885852    -0.000600678365337  -0.0239830352981    
9200000000.0        -0.000613597834361  -0.0242448481203    0.999386346339      -0.024273719355     0.999386346339      -0.024273719355     -0.000613597834361  -0.0242448481203    
9300000000.0        -0.000626654283913  -0.0245066452687    0.999373289783      -0.0245358344666    0.999373289783      -0.0245358344666    -0.000626654283913  -0.0245066452687    
9400000000.0        -0.000639847702118  -0.0247684267836    0.999360096257      -0.0247979339596    0.999360096257      -0.0247979339596    -0.000639847702118  -0.0247684267836    
9500000000.0        -0.000653178079965  -0.0250301927592    0.999346765771      -0.0250600179276    0.999346765771      -0.0250600179276    -0.000653178079965  -0.0250301927592    
9600000000.0        -0.000666645404869  -0.0252919432132    0.999333298338      -0.0253220863879    0.999333298338      -0.0253220863879    -0.00066664540487   -0.0252919432132    
9700000000.0        -0.000680249665613  -0.0255536781859    0.999319693969      -0.0255841393802    0.999319693969      -0.0255841393802    -0.000680249665613  -0.0255536781859    
9800000000.0        -0.000693990853418  -0.0258153977628    0.999305952672      -0.0258461769898    0.999305952672      -0.0258461769898    -0.000693990853418  -0.0258153977628    
9900000000.0        -0.000707868954265  -0.0260771019221    0.999292074462      -0.0261081991942    0.999292074462      -0.0261081991942    -0.000707868954265  -0.0260771019221    
10000000000.0       -0.000721883958186  -0.026338790718     0.999278059349      -0.0263702060474    0.999278059349      -0.0263702060474    -0.000721883958186  -0.026338790718     
