# Hz S RI R 50.00 
100000000.0         0.00134672770567    -0.00250517650361   0.998604407335      -0.00636053889819   0.998604407335      -0.00636053889819   0.00134672770567    -0.00250517650361   
200000000.0         0.00130384807765    -0.00501000017059   0.998520786802      -0.0127206173173    0.998520786802      -0.0127206173173    0.00130384807765    -0.00501000017059   
300000000.0         0.0012267232475     -0.00751405163364   0.998392788826      -0.0190798792697    0.998392788826      -0.0190798792697    0.0012267232475     -0.00751405163364   
400000000.0         0.00111654757482    -0.0100169192234    0.998219241694      -0.0254379336354    0.998219241694      -0.0254379336354    0.00111654757482    -0.0100169192234    
500000000.0         0.000973793425822   -0.0125181902287    0.997999706307      -0.0317943767143    0.997999706307      -0.0317943767143    0.000973793425821   -0.0125181902287    
600000000.0         0.000798715877528   -0.0150174504753    0.997733971803      -0.0381487976315    0.997733971803      -0.0381487976315    0.000798715877528   -0.0150174504753    
700000000.0         0.000591480968024   -0.0175142845242    0.997421927535      -0.0445007807825    0.997421927535      -0.0445007807825    0.000591480968024   -0.0175142845242    
800000000.0         0.000352212502374   -0.0200082759499    0.997063516441      -0.0508499072222    0.997063516441      -0.0508499072222    0.000352212502374   -0.0200082759499    
900000000.0         8.10128998592e-05   -0.0224990076104    0.996658714321      -0.0571957555668    0.996658714321      -0.0571957555668    8.10128998594e-05   -0.0224990076104    
1000000000.0        -0.000222026232165  -0.0249860618937    0.99620751937       -0.0635379026357    0.99620751937       -0.0635379026357    -0.000222026232165  -0.0249860618937    
1100000000.0        -0.00055681821542   -0.0274690209416    0.995709946371      -0.0698759239394    0.995709946371      -0.0698759239394    -0.00055681821542   -0.0274690209416    
1200000000.0        -0.00092327779239   -0.0299474668555    0.995166023252      -0.0762093940691    0.995166023252      -0.0762093940691    -0.00092327779239   -0.0299474668555    
1300000000.0        -0.00132131891807   -0.0324209818862    0.99457578892       -0.0825378870224    0.99457578892       -0.0825378870224    -0.00132131891807   -0.0324209818862    
1400000000.0        -0.00175085330911   -0.0348891486124    0.993939291844      -0.0888609764816    0.993939291844      -0.0888609764816    -0.00175085330911   -0.0348891486124    
1500000000.0        -0.00221178945715   -0.0373515501093    0.993256589093      -0.0951782360602    0.993256589093      -0.0951782360602    -0.00221178945715   -0.0373515501093    
1600000000.0        -0.00270403193905   -0.0398077701083    0.992527745651      -0.101489239524     0.992527745651      -0.101489239524     -0.00270403193905   -0.0398077701083    
1700000000.0        -0.00322748092386   -0.0422573931519    0.991752833931      -0.107793560993     0.991752833931      -0.107793560993     -0.00322748092386   -0.0422573931519    
1800000000.0        -0.00378203181456   -0.0447000047412    0.990931933405      -0.114090775128     0.990931933405      -0.114090775128     -0.00378203181456   -0.0447000047412    
1900000000.0        -0.00436757498452   -0.0471351914804    0.990065130325      -0.12038045731      0.990065130325      -0.12038045731      -0.00436757498452   -0.0471351914804    
2000000000.0        -0.00498399558249   -0.0495625412158    0.989152517506      -0.126662183798     0.989152517506      -0.126662183798     -0.00498399558249   -0.0495625412158    
2100000000.0        -0.00563117338799   -0.0519816431728    0.988194194146      -0.132935531896     0.988194194146      -0.132935531896     -0.00563117338799   -0.0519816431728    
2200000000.0        -0.00630898270494   -0.0543920880879    0.987190265687      -0.139200080095     0.987190265687      -0.139200080095     -0.00630898270494   -0.0543920880879    
2300000000.0        -0.00701729228457   -0.0567934683397    0.986140843684      -0.145455408226     0.986140843684      -0.145455408226     -0.00701729228457   -0.0567934683397    
2400000000.0        -0.00775596527139   -0.0591853780759    0.985046045708      -0.151701097595     0.985046045708      -0.151701097595     -0.00775596527139   -0.0591853780759    
2500000000.0        -0.00852485916747   -0.0615674133386    0.983905995246      -0.157936731117     0.983905995246      -0.157936731117     -0.00852485916747   -0.0615674133386    
2600000000.0        -0.00932382581172   -0.0639391721871    0.982720821615      -0.164161893453     0.982720821615      -0.164161893453     -0.00932382581172   -0.0639391721871    
2700000000.0        -0.0101527113714    -0.0663002548184    0.981490659889      -0.170376171132     0.981490659889      -0.170376171132     -0.0101527113714    -0.0663002548184    
2800000000.0        -0.011011356344     -0.0686502636859    0.980215650817      -0.176579152682     0.980215650817      -0.176579152682     -0.011011356344     -0.0686502636859    
2900000000.0        -0.011899595568     -0.070988803616     0.978895940757      -0.182770428742     0.978895940757      -0.182770428742     -0.011899595568     -0.070988803616     
3000000000.0        -0.0128172582406    -0.0733154819223    0.977531681605      -0.18894959219      0.977531681605      -0.18894959219      -0.0128172582406    -0.0733154819223    
3100000000.0        -0.0137641679432    -0.0756299085183    0.976123030726      -0.195116238252     0.976123030726      -0.195116238252     -0.0137641679432    -0.0756299085183    
3200000000.0        -0.0147401426712    -0.0779316960284    0.974670150887      -0.201269964617     0.974670150887      -0.201269964617     -0.0147401426712    -0.0779316960284    
3300000000.0        -0.0157449948704    -0.0802204598963    0.973173210191      -0.207410371549     0.973173210191      -0.207410371549     -0.0157449948704    -0.0802204598963    
3400000000.0        -0.0167785314769    -0.0824958184917    0.971632382008      -0.213537061992     0.971632382008      -0.213537061992     -0.0167785314769    -0.0824958184917    
3500000000.0        -0.0178405539624    -0.0847573932158    0.970047844909      -0.219649641677     0.970047844909      -0.219649641677     -0.0178405539624    -0.0847573932158    
3600000000.0        -0.0189308583819    -0.0870048086037    0.968419782593      -0.225747719225     0.968419782593      -0.225747719225     -0.0189308583819    -0.0870048086037    
3700000000.0        -0.0200492354267    -0.0892376924257    0.966748383821      -0.231830906248     0.966748383821      -0.231830906248     -0.0200492354267    -0.0892376924257    
3800000000.0        -0.0211954704792    -0.0914556757868    0.965033842345      -0.237898817448     0.965033842345      -0.237898817448     -0.0211954704792    -0.0914556757868    
3900000000.0        -0.0223693436717    -0.093658393223     0.963276356834      -0.24395107071      0.963276356834      -0.24395107071      -0.0223693436717    -0.093658393223     
4000000000.0        -0.0235706299477    -0.0958454827974    0.9614761308        -0.249987287199     0.9614761308        -0.249987287199     -0.0235706299477    -0.0958454827974    
4100000000.0        -0.024799099126     -0.098016586193     0.959633372528      -0.256007091452     0.959633372528      -0.256007091452     -0.024799099126     -0.098016586193     
4200000000.0        -0.0260545159675    -0.100171348804     0.957748294994      -0.262010111464     0.957748294994      -0.262010111464     -0.0260545159675    -0.100171348804     
4300000000.0        -0.0273366402442    -0.102309419823     0.955821115792      -0.267995978779     0.955821115792      -0.267995978779     -0.0273366402442    -0.102309419823     
4400000000.0        -0.0286452268105    -0.104430452334     0.953852057055      -0.27396432857      0.953852057055      -0.27396432857      -0.0286452268105    -0.104430452334     
4500000000.0        -0.0299800256764    -0.106534103388     0.951841345372      -0.279914799727     0.951841345372      -0.279914799727     -0.0299800256764    -0.106534103388     
4600000000.0        -0.0313407820837    -0.108620034096     0.949789211708      -0.285847034932     0.949789211708      -0.285847034932     -0.0313407820837    -0.108620034096     
4700000000.0        -0.0327272365829    -0.110687909701     0.947695891325      -0.29176068074      0.947695891325      -0.29176068074      -0.0327272365829    -0.110687909701     
4800000000.0        -0.0341391251127    -0.112737399663     0.945561623692      -0.297655387654     0.945561623692      -0.297655387654     -0.0341391251127    -0.112737399663     
4900000000.0        -0.0355761790811    -0.114768177732     0.943386652403      -0.303530810197     0.943386652403      -0.303530810197     -0.0355761790811    -0.114768177732     
5000000000.0        -0.0370381254478    -0.116779922022     0.941171225089      -0.309386606983     0.941171225089      -0.309386606983     -0.0370381254478    -0.116779922022     
5100000000.0        -0.0385246868087    -0.118772315086     0.938915593334      -0.315222440788     0.938915593334      -0.315222440788     -0.0385246868087    -0.118772315086     
5200000000.0        -0.0400355814817    -0.120745043983     0.936620012581      -0.321037978614     0.936620012581      -0.321037978614     -0.0400355814817    -0.120745043983     
5300000000.0        -0.0415705235935    -0.122697800347     0.934284742045      -0.32683289175      0.934284742045      -0.32683289175      -0.0415705235935    -0.122697800347     
5400000000.0        -0.0431292231682    -0.12463028045      0.931910044623      -0.332606855839     0.931910044623      -0.332606855839     -0.0431292231682    -0.12463028045      
5500000000.0        -0.0447113862169    -0.12654218527      0.929496186798      -0.338359550936     0.929496186798      -0.338359550936     -0.0447113862169    -0.12654218527      
5600000000.0        -0.0463167148285    -0.128433220545     0.927043438551      -0.344090661558     0.927043438551      -0.344090661558     -0.0463167148285    -0.128433220545     
5700000000.0        -0.0479449072618    -0.130303096839     0.924552073263      -0.349799876749     0.924552073263      -0.349799876749     -0.0479449072618    -0.130303096839     
5800000000.0        -0.0495956580379    -0.132151529591     0.922022367625      -0.355486890122     0.922022367625      -0.355486890122     -0.0495956580379    -0.132151529591     
5900000000.0        -0.0512686580348    -0.133978239175     0.919454601537      -0.361151399914     0.919454601537      -0.361151399914     -0.0512686580348    -0.133978239175     
6000000000.0        -0.0529635945812    -0.135782950945     0.916849058017      -0.366793109031     0.916849058017      -0.366793109031     -0.0529635945812    -0.135782950945     
6100000000.0        -0.0546801515529    -0.137565395292     0.914206023099      -0.372411725094     0.914206023099      -0.372411725094     -0.0546801515529    -0.137565395292     
6200000000.0        -0.0564180094683    -0.139325307685     0.911525785743      -0.37800696048      0.911525785743      -0.37800696048      -0.0564180094683    -0.139325307685     
6300000000.0        -0.0581768455857    -0.141062428717     0.908808637728      -0.383578532362     0.908808637728      -0.383578532362     -0.0581768455857    -0.141062428717     
6400000000.0        -0.0599563340007    -0.142776504149     0.906054873563      -0.389126162745     0.906054873563      -0.389126162745     -0.0599563340007    -0.142776504149     
6500000000.0        -0.061756145744     -0.144467284948     0.903264790379      -0.394649578506     0.903264790379      -0.394649578506     -0.061756145744     -0.144467284948     
6600000000.0        -0.0635759488802    -0.146134527326     0.900438687838      -0.400148511419     0.900438687838      -0.400148511419     -0.0635759488802    -0.146134527326     
6700000000.0        -0.0654154086064    -0.147777992775     0.897576868027      -0.405622698191     0.897576868027      -0.405622698191     -0.0654154086064    -0.147777992775     
6800000000.0        -0.0672741873515    -0.149397448098     0.894679635363      -0.41107188049      0.894679635363      -0.41107188049      -0.0672741873515    -0.149397448098     
6900000000.0        -0.0691519448756    -0.150992665444     0.89174729649       -0.416495804964     0.89174729649       -0.416495804964     -0.0691519448756    -0.150992665444     
7000000000.0        -0.0710483383696    -0.152563422333     0.88878016018       -0.421894223273     0.88878016018       -0.421894223273     -0.0710483383696    -0.152563422333     
7100000000.0        -0.0729630225552    -0.154109501683     0.885778537233      -0.427266892102     0.885778537233      -0.427266892102     -0.0729630225552    -0.154109501683     
7200000000.0        -0.0748956497846    -0.155630691834     0.882742740377      -0.432613573184     0.882742740377      -0.432613573184     -0.0748956497846    -0.155630691834     
7300000000.0        -0.0768458701405    -0.157126786571     0.879673084168      -0.437934033314     0.879673084168      -0.437934033314     -0.0768458701405    -0.157126786571     
7400000000.0        -0.078813331536     -0.158597585141     0.876569884887      -0.443228044363     0.876569884887      -0.443228044363     -0.078813331536     -0.158597585141     
7500000000.0        -0.0807976798142    -0.160042892271     0.873433460447      -0.448495383292     0.873433460447      -0.448495383292     -0.0807976798142    -0.160042892271     
7600000000.0        -0.0827985588481    -0.161462518186     0.870264130284      -0.453735832157     0.870264130284      -0.453735832157     -0.0827985588481    -0.161462518186     
7700000000.0        -0.08481561064      -0.162856278617     0.867062215266      -0.458949178117     0.867062215266      -0.458949178117     -0.08481561064      -0.162856278617     
7800000000.0        -0.0868484754205    -0.164223994814     0.863828037588      -0.464135213442     0.863828037588      -0.464135213442     -0.0868484754205    -0.164223994814     
7900000000.0        -0.0888967917476    -0.165565493556     0.860561920678      -0.469293735512     0.860561920678      -0.469293735512     -0.0888967917476    -0.165565493556     
8000000000.0        -0.0909601966049    -0.166880607155     0.857264189093      -0.474424546817     0.857264189093      -0.474424546817     -0.0909601966049    -0.166880607155     
8100000000.0        -0.0930383255001    -0.168169173461     0.853935168427      -0.479527454958     0.853935168427      -0.479527454958     -0.0930383255001    -0.168169173461     
8200000000.0        -0.0951308125624    -0.169431035865     0.850575185211      -0.484602272642     0.850575185211      -0.484602272642     -0.0951308125624    -0.169431035865     
8300000000.0        -0.0972372906397    -0.1706660433       0.847184566813      -0.489648817674     0.847184566813      -0.489648817674     -0.0972372906397    -0.1706660433       
8400000000.0        -0.099357391395     -0.171874050237     0.843763641348      -0.49466691295      0.843763641348      -0.49466691295      -0.099357391395     -0.171874050237     
8500000000.0        -0.101490745403     -0.17305491668      0.840312737578      -0.499656386449     0.840312737578      -0.499656386449     -0.101490745403     -0.17305491668      
8600000000.0        -0.103636982244     -0.174208508167     0.836832184819      -0.504617071216     0.836832184819      -0.504617071216     -0.103636982244     -0.174208508167     
8700000000.0        -0.1057957306       -0.175334695755     0.833322312845      -0.509548805353     0.833322312845      -0.509548805353     -0.1057957306       -0.175334695755     
8800000000.0        -0.107966618348     -0.176433356013     0.829783451798      -0.514451431998     0.829783451798      -0.514451431998     -0.107966618348     -0.176433356013     
8900000000.0        -0.110149272653     -0.177504371014     0.826215932091      -0.519324799311     0.826215932091      -0.519324799311     -0.110149272653     -0.177504371014     
9000000000.0        -0.112343320061     -0.178547628315     0.822620084321      -0.52416876045      0.822620084321      -0.52416876045      -0.112343320061     -0.178547628315     
9100000000.0        -0.11454838659      -0.17956302095      0.818996239175      -0.528983173554     0.818996239175      -0.528983173554     -0.11454838659      -0.17956302095      
9200000000.0        -0.116764097818     -0.180550447405     0.815344727341      -0.533767901713     0.815344727341      -0.533767901713     -0.116764097818     -0.180550447405     
9300000000.0        -0.118990078978     -0.181509811608     0.811665879421      -0.538522812948     0.811665879421      -0.538522812948     -0.118990078978     -0.181509811608     
9400000000.0        -0.121225955043     -0.1824410229       0.807960025838      -0.543247780182     0.807960025838      -0.543247780182     -0.121225955043     -0.1824410229       
9500000000.0        -0.123471350812     -0.18334399602      0.804227496757      -0.54794268121      0.804227496757      -0.54794268121      -0.123471350812     -0.18334399602      
9600000000.0        -0.125725891003     -0.184218651081     0.800468621992      -0.55260739867      0.800468621992      -0.55260739867      -0.125725891003     -0.184218651081     
9700000000.0        -0.127989200329     -0.185064913541     0.796683730927      -0.557241820009     0.796683730927      -0.557241820009     -0.127989200329     -0.185064913541     
9800000000.0        -0.130260903594     -0.185882714179     0.792873152428      -0.561845837449     0.792873152428      -0.561845837449     -0.130260903594     -0.185882714179     
9900000000.0        -0.132540625766     -0.186671989068     0.789037214764      -0.566419347954     0.789037214764      -0.566419347954     -0.132540625766     -0.186671989068     
10000000000.0       -0.134827992064     -0.187432679545     0.785176245526      -0.570962253193     0.785176245526      -0.570962253193     -0.134827992064     -0.187432679545     
