# Hz S RI R 50.00 
100000000.0         0.039787968703      0.00420829360045    0.960207879818      -0.0059484383219    0.960207879818      -0.0059484383219    0.039787968703      0.00420829360045    
200000000.0         0.0401180651704     0.00841043955927    0.959871561278      -0.0118907477166    0.959871561278      -0.0118907477166    0.0401180651704     0.00841043955927    
300000000.0         0.0404321648334     0.0126078046284     0.959548168177      -0.0178283116449    0.959548168177      -0.0178283116449    0.0404321648334     0.0126078046284     
400000000.0         0.040763521237      0.0168003414378     0.959204446223      -0.0237610975841    0.959204446223      -0.0237610975841    0.040763521237      0.0168003414378     
500000000.0         0.0411249062072     0.0209876753925     0.958827622787      -0.0296887448496    0.958827622787      -0.0296887448496    0.0411249062072     0.0209876753925     
600000000.0         0.041522790328      0.0251692883877     0.958411226408      -0.0356107486338    0.958411226408      -0.0356107486338    0.041522790328      0.0251692883877     
700000000.0         0.0419609496578     0.029344584961      0.957951480063      -0.041526526324     0.957951480063      -0.041526526324     0.0419609496578     0.029344584961      
800000000.0         0.0424417826283     0.0335129231345     0.957445984259      -0.0474354484436    0.957445984259      -0.0474354484436    0.0424417826283     0.0335129231345     
900000000.0         0.0429668966252     0.0376736311279     0.956893130458      -0.0533368554304    0.956893130458      -0.0533368554304    0.0429668966252     0.0376736311279     
1000000000.0        0.0435374054353     0.0418260173871     0.956291803618      -0.0592300677112    0.956291803618      -0.0592300677112    0.0435374054353     0.0418260173871     
1100000000.0        0.0441540946743     0.0459693770754     0.955641216771      -0.0651143922264    0.955641216771      -0.0651143922264    0.0441540946743     0.0459693770754     
1200000000.0        0.044817520425      0.0501029965308     0.954940812382      -0.0709891269137    0.954940812382      -0.0709891269137    0.044817520425      0.0501029965308     
1300000000.0        0.0455280713525     0.0542261564792     0.954190200231      -0.076853563942     0.954190200231      -0.076853563942     0.0455280713525     0.0542261564792     
1400000000.0        0.0462860095858     0.0583381344479     0.953389116535      -0.0827069921398    0.953389116535      -0.0827069921398    0.0462860095858     0.0583381344479     
1500000000.0        0.0470914986287     0.0624382066409     0.952537396035      -0.0885486988858    0.952537396035      -0.0885486988858    0.0470914986287     0.0624382066409     
1600000000.0        0.047944623014      0.0665256494431     0.951634952341      -0.0943779716231    0.951634952341      -0.0943779716231    0.047944623014      0.0665256494431     
1700000000.0        0.0488454025196     0.0705997406573     0.950681763717      -0.100194099106     0.950681763717      -0.100194099106     0.0488454025196     0.0705997406573     
1800000000.0        0.0497938026947     0.0746597605456     0.949677862555      -0.10599637245      0.949677862555      -0.10599637245      0.0497938026947     0.0746597605456     
1900000000.0        0.0507897428191     0.0787049927236     0.948623327417      -0.111784086032     0.948623327417      -0.111784086032     0.0507897428191     0.0787049927236     
2000000000.0        0.0518331020358     0.0827347249414     0.947518276897      -0.117556538279     0.947518276897      -0.117556538279     0.0518331020358     0.0827347249414     
2100000000.0        0.0529237241595     0.0867482497762     0.946362864821      -0.123313032364     0.946362864821      -0.123313032364     0.0529237241595     0.0867482497762     
2200000000.0        0.0540614215084     0.090744865253      0.945157276407      -0.129052876832     0.945157276407      -0.129052876832     0.0540614215084     0.090744865253      
2300000000.0        0.0552459780039     0.0947238754087     0.943901725173      -0.134775386172     0.943901725173      -0.134775386172     0.0552459780039     0.0947238754087     
2400000000.0        0.056477151715      0.098684590807      0.942596450386      -0.14047988133      0.942596450386      -0.14047988133      0.056477151715      0.098684590807      
2500000000.0        0.0577546769754     0.102626329014      0.941241714949      -0.146165690191     0.941241714949      -0.146165690191     0.0577546769754     0.102626329014      
2600000000.0        0.0590782661696     0.106548415038      0.939837803615      -0.151832148023     0.939837803615      -0.151832148023     0.0590782661696     0.106548415038      
2700000000.0        0.0604476112579     0.110450181741      0.938385021458      -0.157478597888     0.938385021458      -0.157478597888     0.0604476112579     0.110450181741      
2800000000.0        0.061862385096      0.114330970221      0.936883692561      -0.163104391031     0.936883692561      -0.163104391031     0.061862385096      0.114330970221      
2900000000.0        0.0633222425893     0.118190130174      0.935334158854      -0.16870888724      0.935334158854      -0.16870888724      0.0633222425893     0.118190130174      
3000000000.0        0.0648268217159     0.122027020229      0.933736779095      -0.174291455189     0.933736779095      -0.174291455189     0.0648268217159     0.122027020229      
3100000000.0        0.0663757444413     0.125841008271      0.932091927955      -0.179851472755     0.932091927955      -0.179851472755     0.0663757444413     0.125841008271      
3200000000.0        0.0679686175466     0.129631471738      0.93039999519       -0.185388327324     0.93039999519       -0.185388327324     0.0679686175466     0.129631471738      
3300000000.0        0.0696050333844     0.133397797906      0.928661384885      -0.190901416076     0.928661384885      -0.190901416076     0.0696050333844     0.133397797906      
3400000000.0        0.0712845705759     0.137139384153      0.926876514756      -0.196390146247     0.926876514756      -0.196390146247     0.0712845705759     0.137139384153      
3500000000.0        0.0730067946589     0.140855638216      0.925045815501      -0.201853935393     0.925045815501      -0.201853935393     0.0730067946589     0.140855638216      
3600000000.0        0.0747712586948     0.144545978422      0.923169730199      -0.207292211617     0.923169730199      -0.207292211617     0.0747712586948     0.144545978422      
3700000000.0        0.0765775038411     0.148209833913      0.921248713728      -0.212704413801     0.921248713728      -0.212704413801     0.0765775038411     0.148209833913      
3800000000.0        0.0784250598955     0.151846644857      0.919283232231      -0.218089991813     0.919283232231      -0.218089991813     0.0784250598955     0.151846644857      
3900000000.0        0.0803134458148     0.155455862641      0.917273762588      -0.223448406703     0.917273762588      -0.223448406703     0.0803134458148     0.155455862641      
4000000000.0        0.0822421702135     0.159036950054      0.915220791923      -0.228779130891     0.915220791923      -0.228779130891     0.0822421702135     0.159036950054      
4100000000.0        0.0842107318435     0.162589381459      0.913124817125      -0.234081648332     0.913124817125      -0.234081648332     0.0842107318435     0.162589381459      
4200000000.0        0.0862186200591     0.166112642948      0.910986344377      -0.239355454679     0.910986344377      -0.239355454679     0.0862186200591     0.166112642948      
4300000000.0        0.0882653152681     0.169606232491      0.90880588871       -0.244600057432     0.90880588871       -0.244600057432     0.0882653152681     0.169606232491      
4400000000.0        0.0903502893709     0.173069660067      0.906583973564      -0.249814976065     0.906583973564      -0.249814976065     0.0903502893709     0.173069660067      
4500000000.0        0.0924730061892     0.17650244779       0.904321130355      -0.254999742158     0.904321130355      -0.254999742158     0.0924730061892     0.17650244779       
4600000000.0        0.0946329218847     0.179904130016      0.90201789806       -0.260153899501     0.90201789806       -0.260153899501     0.0946329218847     0.179904130016      
4700000000.0        0.0968294853704     0.183274253443      0.899674822804      -0.265277004203     0.899674822804      -0.265277004203     0.0968294853704     0.183274253443      
4800000000.0        0.0990621387128     0.186612377203      0.89729245746       -0.270368624771     0.89729245746       -0.270368624771     0.0990621387128     0.186612377203      
4900000000.0        0.101330317528      0.189918072939      0.894871361248      -0.275428342198     0.894871361248      -0.275428342198     0.101330317528      0.189918072939      
5000000000.0        0.103633451369      0.193190924868      0.892412099351      -0.280455750026     0.892412099351      -0.280455750026     0.103633451369      0.193190924868      
5100000000.0        0.105970964111      0.196430529843      0.88991524253       -0.285450454403     0.88991524253       -0.285450454403     0.105970964111      0.196430529843      
5200000000.0        0.108342274327      0.199636497398      0.887381366749      -0.290412074133     0.887381366749      -0.290412074133     0.108342274327      0.199636497398      
5300000000.0        0.110746795654      0.202808449782      0.884811052802      -0.295340240712     0.884811052802      -0.295340240712     0.110746795654      0.202808449782      
5400000000.0        0.113183937166      0.205946021988      0.882204885949      -0.300234598353     0.882204885949      -0.300234598353     0.113183937166      0.205946021988      
5500000000.0        0.115653103727      0.20904886177       0.879563455556      -0.305094804006     0.879563455556      -0.305094804006     0.115653103727      0.20904886177       
5600000000.0        0.118153696349      0.21211662965       0.876887354742      -0.309920527364     0.876887354742      -0.309920527364     0.118153696349      0.21211662965       
5700000000.0        0.120685112538      0.215148998914      0.874177180028      -0.314711450863     0.874177180028      -0.314711450863     0.120685112538      0.215148998914      
5800000000.0        0.123246746638      0.218145655603      0.871433530994      -0.319467269671     0.871433530994      -0.319467269671     0.123246746638      0.218145655603      
5900000000.0        0.125837990172      0.221106298494      0.868657009943      -0.324187691667     0.868657009943      -0.324187691667     0.125837990172      0.221106298494      
6000000000.0        0.128458232169      0.224030639069      0.865848221563      -0.328872437415     0.865848221563      -0.328872437415     0.128458232169      0.224030639069      
6100000000.0        0.131106859499      0.226918401479      0.863007772607      -0.333521240127     0.863007772607      -0.333521240127     0.131106859499      0.226918401479      
6200000000.0        0.133783257186      0.2297693225        0.860136271563      -0.338133845617     0.860136271563      -0.338133845617     0.133783257186      0.2297693225        
6300000000.0        0.13648680873       0.232583151477      0.857234328344      -0.342710012248     0.857234328344      -0.342710012248     0.13648680873       0.232583151477      
6400000000.0        0.139216896418      0.235359650266      0.854302553972      -0.347249510873     0.854302553972      -0.347249510873     0.139216896418      0.235359650266      
6500000000.0        0.141972901625      0.238098593161      0.851341560277      -0.351752124764     0.851341560277      -0.351752124764     0.141972901625      0.238098593161      
6600000000.0        0.144754205118      0.240799766824      0.848351959593      -0.35621764954      0.848351959593      -0.35621764954      0.144754205118      0.240799766824      
6700000000.0        0.147560187345      0.243462970196      0.845334364468      -0.36064589308      0.845334364468      -0.36064589308      0.147560187345      0.243462970196      
6800000000.0        0.150390228727      0.246088014411      0.842289387375      -0.365036675438     0.842289387375      -0.365036675438     0.150390228727      0.246088014411      
6900000000.0        0.153243709938      0.248674722698      0.839217640427      -0.369389828742     0.839217640427      -0.369389828742     0.153243709938      0.248674722698      
7000000000.0        0.156120012178      0.251222930278      0.836119735106      -0.373705197093     0.836119735106      -0.373705197093     0.156120012178      0.251222930278      
7100000000.0        0.15901851745       0.253732484255      0.832996281988      -0.377982636458     0.832996281988      -0.377982636458     0.15901851745       0.253732484255      
7200000000.0        0.161938608814      0.256203243499      0.829847890482      -0.382222014553     0.829847890482      -0.382222014553     0.161938608814      0.256203243499      
7300000000.0        0.164879670654      0.25863507853       0.826675168571      -0.386423210725     0.826675168571      -0.386423210725     0.164879670654      0.25863507853       
7400000000.0        0.167841088921      0.261027871387      0.823478722563      -0.39058611582      0.823478722563      -0.39058611582      0.167841088921      0.261027871387      
7500000000.0        0.170822251384      0.263381515499      0.820259156842      -0.394710632062     0.820259156842      -0.394710632062     0.170822251384      0.263381515499      
7600000000.0        0.173822547864      0.265695915549      0.81701707363       -0.398796672905     0.81701707363       -0.398796672905     0.173822547864      0.265695915549      
7700000000.0        0.17684137047       0.267970987332      0.813753072758      -0.402844162903     0.813753072758      -0.402844162903     0.17684137047       0.267970987332      
7800000000.0        0.179878113822      0.27020665761       0.810467751436      -0.406853037558     0.810467751436      -0.406853037558     0.179878113822      0.27020665761       
7900000000.0        0.182932175271      0.27240286396       0.807161704033      -0.410823243173     0.807161704033      -0.410823243173     0.182932175271      0.27240286396       
8000000000.0        0.186002955114      0.274559554625      0.803835521868      -0.414754736696     0.803835521868      -0.414754736696     0.186002955114      0.274559554625      
8100000000.0        0.189089856795      0.276676688353      0.800489793         -0.418647485568     0.800489793         -0.418647485568     0.189089856795      0.276676688353      
8200000000.0        0.192192287111      0.278754234236      0.797125102027      -0.422501467555     0.797125102027      -0.422501467555     0.192192287111      0.278754234236      
8300000000.0        0.195309656402      0.280792171549      0.793742029895      -0.426316670592     0.793742029895      -0.426316670592     0.195309656402      0.280792171549      
8400000000.0        0.198441378739      0.282790489577      0.790341153708      -0.430093092606     0.790341153708      -0.430093092606     0.198441378739      0.282790489577      
8500000000.0        0.201586872101      0.284749187451      0.786923046551      -0.433830741356     0.786923046551      -0.433830741356     0.201586872101      0.284749187451      
8600000000.0        0.204745558557      0.286668273969      0.783488277311      -0.437529634253     0.783488277311      -0.437529634253     0.204745558557      0.286668273969      
8700000000.0        0.207916864423      0.288547767427      0.78003741051       -0.441189798187     0.78003741051       -0.441189798187     0.207916864423      0.288547767427      
8800000000.0        0.211100220433      0.290387695436      0.776571006149      -0.444811269353     0.776571006149      -0.444811269353     0.211100220433      0.290387695436      
8900000000.0        0.214295061885      0.292188094746      0.773089619544      -0.448394093065     0.773089619544      -0.448394093065     0.214295061885      0.292188094746      
9000000000.0        0.217500828796      0.293949011063      0.769593801186      -0.45193832358      0.769593801186      -0.45193832358      0.217500828796      0.293949011063      
9100000000.0        0.220716966041      0.295670498868      0.76608409659       -0.455444023915     0.76608409659       -0.455444023915     0.220716966041      0.295670498868      
9200000000.0        0.223942923489      0.297352621231      0.762561046166      -0.45891126566      0.762561046166      -0.45891126566      0.223942923489      0.297352621231      
9300000000.0        0.227178156131      0.298995449626      0.759025185085      -0.462340128794     0.759025185085      -0.462340128794     0.227178156131      0.298995449626      
9400000000.0        0.230422124208      0.300599063746      0.755477043158      -0.465730701502     0.755477043158      -0.465730701502     0.230422124208      0.300599063746      
9500000000.0        0.233674293323      0.302163551314      0.751917144714      -0.469083079982     0.751917144714      -0.469083079982     0.233674293323      0.302163551314      
9600000000.0        0.236934134555      0.303689007895      0.748346008491      -0.472397368261     0.748346008491      -0.472397368261     0.236934134555      0.303689007895      
9700000000.0        0.240201124566      0.30517553671       0.744764147531      -0.475673678007     0.744764147531      -0.475673678007     0.240201124566      0.30517553671       
9800000000.0        0.243474745695      0.306623248448      0.741172069078      -0.478912128338     0.741172069078      -0.478912128338     0.243474745695      0.306623248448      
9900000000.0        0.246754486058      0.308032261071      0.737570274484      -0.482112845637     0.737570274484      -0.482112845637     0.246754486058      0.308032261071      
10000000000.0       0.250039839632      0.309402699634      0.733959259122      -0.485275963359     0.733959259122      -0.485275963359     0.250039839632      0.309402699634      
