# Hz S RI R 50.00 
100000000.0         0.00308457047737    0.00128589722233    0.996907065034      -0.00429037266534   0.996907065034      -0.00429037266534   0.00308457047737    0.00128589722233    
200000000.0         0.00312030905495    0.00257147022753    0.996854925099      -0.00858046432193   0.996854925099      -0.00858046432193   0.00312030905495    0.00257147022753    
300000000.0         0.00316171705588    0.00385670900756    0.996788077661      -0.0128702880437    0.996788077661      -0.0128702880437    0.00316171705588    0.00385670900756    
400000000.0         0.00321145812588    0.00514154457326    0.996703857496      -0.0171597887789    0.996703857496      -0.0171597887789    0.00321145812588    0.00514154457326    
500000000.0         0.00327055527411    0.00642589461275    0.996601239695      -0.0214488934767    0.996601239695      -0.0214488934767    0.00327055527411    0.00642589461275    
600000000.0         0.0033395275459     0.00770967112266    0.996479703021      -0.0257375202964    0.996479703021      -0.0257375202964    0.0033395275459     0.00770967112266    
700000000.0         0.00341867888751    0.00899278312493    0.996338941075      -0.0300255821318    0.996338941075      -0.0300255821318    0.00341867888751    0.00899278312493    
800000000.0         0.00350820353908    0.0102751379161     0.996178756921      -0.0343129883475    0.996178756921      -0.0343129883475    0.00350820353908    0.0102751379161     
900000000.0         0.00360823294561    0.0115566417329     0.995999016188      -0.0385996457658    0.995999016188      -0.0385996457658    0.00360823294561    0.0115566417329     
1000000000.0        0.00371885952737    0.0128372001438     0.995799623322      -0.0428854592862    0.995799623322      -0.0428854592862    0.00371885952737    0.0128372001438     
1100000000.0        0.00384014988934    0.0141167182957     0.99558050838       -0.0471703323005    0.99558050838       -0.0471703323005    0.00384014988934    0.0141167182957     
1200000000.0        0.00397215269002    0.0153951010797     0.995341619179      -0.0514541669881    0.995341619179      -0.0514541669881    0.00397215269002    0.0153951010797     
1300000000.0        0.00411490359079    0.0166722532455     0.99508291635       -0.0557368645329    0.99508291635       -0.0557368645329    0.00411490359079    0.0166722532455     
1400000000.0        0.00426842850848    0.0179480794855     0.994804370099      -0.0600183252901    0.994804370099      -0.0600183252901    0.00426842850848    0.0179480794855     
1500000000.0        0.00443274583154    0.019222484497      0.994505957997      -0.0642984489166    0.994505957997      -0.0642984489166    0.00443274583154    0.019222484497      
1600000000.0        0.00460786797648    0.0204953730303     0.994187663429      -0.0685771344764    0.994187663429      -0.0685771344764    0.00460786797648    0.0204953730303     
1700000000.0        0.0047938025098     0.0217666499267     0.993849474481      -0.0728542805272    0.993849474481      -0.0728542805272    0.0047938025098     0.0217666499267     
1800000000.0        0.00499055297488    0.0230362201496     0.993491383118      -0.0771297851928    0.993491383118      -0.0771297851928    0.00499055297488    0.0230362201496     
1900000000.0        0.00519811951354    0.0243039888093     0.993113384569      -0.0814035462244    0.993113384569      -0.0814035462244    0.00519811951354    0.0243039888093     
2000000000.0        0.00541649934138    0.0255698611847     0.992715476857      -0.0856754610543    0.992715476857      -0.0856754610543    0.00541649934138    0.0255698611847     
2100000000.0        0.00564568711693    0.0268337427417     0.992297660431      -0.0899454268417    0.992297660431      -0.0899454268417    0.00564568711693    0.0268337427417     
2200000000.0        0.00588567523244    0.0280955391492     0.991859937886      -0.0942133405138    0.991859937886      -0.0942133405138    0.00588567523244    0.0280955391492     
2300000000.0        0.00613645404566    0.0293551562932     0.991402313732      -0.0984790988024    0.991402313732      -0.0984790988024    0.00613645404566    0.0293551562932     
2400000000.0        0.00639801206694    0.0306125002897     0.99092479421       -0.102742598276     0.99092479421       -0.102742598276     0.00639801206694    0.0306125002897     
2500000000.0        0.00667033611167    0.0318674774964     0.990427387148      -0.107003735371     0.990427387148      -0.107003735371     0.00667033611167    0.0318674774964     
2600000000.0        0.00695341142588    0.0331199945232     0.989910101834      -0.111262406418     0.989910101834      -0.111262406418     0.00695341142588    0.0331199945232     
2700000000.0        0.00724722179052    0.0343699582423     0.989372948918      -0.115518507665     0.989372948918      -0.115518507665     0.00724722179052    0.0343699582423     
2800000000.0        0.00755174960895    0.0356172757977     0.988815940328      -0.119771935305     0.988815940328      -0.119771935305     0.00755174960895    0.0356172757977     
2900000000.0        0.00786697598082    0.0368618546138     0.988239089196      -0.124022585491     0.988239089196      -0.124022585491     0.00786697598082    0.0368618546138     
3000000000.0        0.00819288076496    0.0381036024042     0.987642409805      -0.128270354364     0.987642409805      -0.128270354364     0.00819288076496    0.0381036024042     
3100000000.0        0.00852944263344    0.0393424271794     0.98702591753       -0.132515138065     0.98702591753       -0.132515138065     0.00852944263344    0.0393424271794     
3200000000.0        0.00887663911814    0.040578237255      0.986389628799      -0.136756832756     0.986389628799      -0.136756832756     0.00887663911814    0.040578237255      
3300000000.0        0.0092344466514     0.0418109412591     0.985733561054      -0.140995334637     0.985733561054      -0.140995334637     0.00923444665141    0.0418109412591     
3400000000.0        0.00960284060156    0.0430404481395     0.985057732718      -0.14523053996      0.985057732718      -0.14523053996      0.00960284060156    0.0430404481395     
3500000000.0        0.00998179530427    0.0442666671712     0.984362163166      -0.149462345046     0.984362163166      -0.149462345046     0.00998179530427    0.0442666671712     
3600000000.0        0.0103712840904     0.0454895079632     0.983646872699      -0.1536906463       0.983646872699      -0.1536906463       0.0103712840904     0.0454895079632     
3700000000.0        0.0107712793108     0.0467088804653     0.982911882523      -0.157915340223     0.982911882523      -0.157915340223     0.0107712793108     0.0467088804653     
3800000000.0        0.0111817523586     0.0479246949753     0.982157214725      -0.162136323427     0.982157214725      -0.162136323427     0.0111817523586     0.0479246949753     
3900000000.0        0.0116026736894     0.0491368621449     0.981382892261      -0.166353492646     0.981382892261      -0.166353492646     0.0116026736894     0.0491368621449     
4000000000.0        0.0120340128398     0.050345292987      0.980588938934      -0.170566744752     0.980588938934      -0.170566744752     0.0120340128398     0.050345292987      
4100000000.0        0.0124757384436     0.0515498988814     0.979775379384      -0.174775976762     0.979775379384      -0.174775976762     0.0124757384436     0.0515498988814     
4200000000.0        0.012927818248      0.0527505915819     0.978942239069      -0.178981085853     0.978942239069      -0.178981085853     0.012927818248      0.0527505915819     
4300000000.0        0.013390219127      0.0539472832222     0.978089544259      -0.183181969375     0.978089544259      -0.183181969375     0.013390219127      0.0539472832222     
4400000000.0        0.0138629070954     0.0551398863221     0.977217322018      -0.187378524855     0.977217322018      -0.187378524855     0.0138629070954     0.0551398863221     
4500000000.0        0.0143458473205     0.0563283137937     0.976325600198      -0.191570650015     0.976325600198      -0.191570650015     0.0143458473205     0.0563283137937     
4600000000.0        0.0148390041341     0.0575124789476     0.975414407428      -0.195758242778     0.975414407428      -0.195758242778     0.0148390041341     0.0575124789476     
4700000000.0        0.0153423410435     0.0586922954987     0.974483773103      -0.19994120128      0.974483773103      -0.19994120128      0.0153423410435     0.0586922954987     
4800000000.0        0.0158558207414     0.0598676775725     0.973533727377      -0.204119423879     0.973533727377      -0.204119423879     0.0158558207414     0.0598676775725     
4900000000.0        0.0163794051163     0.0610385397108     0.972564301154      -0.208292809163     0.972564301154      -0.208292809163     0.0163794051163     0.0610385397108     
5000000000.0        0.0169130552615     0.0622047968775     0.97157552608       -0.212461255963     0.97157552608       -0.212461255963     0.0169130552615     0.0622047968775     
5100000000.0        0.0174567314844     0.0633663644644     0.970567434534      -0.216624663358     0.970567434534      -0.216624663358     0.0174567314844     0.0633663644644     
5200000000.0        0.0180103933149     0.0645231582972     0.969540059624      -0.220782930686     0.969540059624      -0.220782930686     0.0180103933149     0.0645231582972     
5300000000.0        0.0185739995143     0.0656750946411     0.968493435177      -0.224935957553     0.968493435177      -0.224935957553     0.0185739995143     0.0656750946411     
5400000000.0        0.0191475080828     0.0668220902062     0.967427595732      -0.229083643841     0.967427595732      -0.229083643841     0.0191475080828     0.0668220902062     
5500000000.0        0.0197308762678     0.0679640621533     0.966342576537      -0.233225889715     0.966342576537      -0.233225889715     0.0197308762678     0.0679640621533     
5600000000.0        0.0203240605717     0.0691009280996     0.965238413538      -0.237362595633     0.965238413538      -0.237362595633     0.0203240605717     0.0691009280996     
5700000000.0        0.0209270167589     0.0702326061238     0.964115143374      -0.241493662353     0.964115143374      -0.241493662353     0.0209270167589     0.0702326061238     
5800000000.0        0.0215396998638     0.0713590147719     0.962972803372      -0.24561899094      0.962972803372      -0.24561899094      0.0215396998638     0.0713590147719     
5900000000.0        0.0221620641977     0.0724800730622     0.961811431542      -0.249738482777     0.961811431542      -0.249738482777     0.0221620641977     0.0724800730622     
6000000000.0        0.0227940633557     0.0735957004912     0.960631066565      -0.253852039567     0.960631066565      -0.253852039567     0.0227940633557     0.0735957004912     
6100000000.0        0.0234356502244     0.0747058170383     0.959431747795      -0.257959563346     0.959431747795      -0.257959563346     0.0234356502244     0.0747058170383     
6200000000.0        0.0240867769879     0.0758103431714     0.958213515247      -0.262060956484     0.958213515247      -0.262060956484     0.0240867769879     0.0758103431714     
6300000000.0        0.0247473951356     0.0769091998518     0.956976409595      -0.266156121701     0.956976409595      -0.266156121701     0.0247473951356     0.0769091998518     
6400000000.0        0.0254174554681     0.0780023085396     0.955720472162      -0.270244962063     0.955720472162      -0.270244962063     0.0254174554681     0.0780023085396     
6500000000.0        0.0260969081045     0.0790895911986     0.95444574492       -0.274327380997     0.95444574492       -0.274327380997     0.0260969081045     0.0790895911986     
6600000000.0        0.0267857024887     0.0801709703012     0.953152270479      -0.278403282295     0.953152270479      -0.278403282295     0.0267857024887     0.0801709703012     
6700000000.0        0.0274837873964     0.0812463688337     0.951840092084      -0.282472570119     0.951840092084      -0.282472570119     0.0274837873964     0.0812463688337     
6800000000.0        0.0281911109413     0.0823157103009     0.950509253608      -0.286535149011     0.950509253608      -0.286535149011     0.0281911109413     0.0823157103009     
6900000000.0        0.0289076205817     0.0833789187311     0.949159799547      -0.290590923895     0.949159799547      -0.290590923895     0.0289076205817     0.0833789187311     
7000000000.0        0.0296332631272     0.0844359186805     0.947791775016      -0.294639800087     0.947791775016      -0.294639800087     0.0296332631272     0.0844359186805     
7100000000.0        0.0303679847451     0.0854866352387     0.946405225739      -0.298681683297     0.946405225739      -0.298681683297     0.0303679847451     0.0854866352387     
7200000000.0        0.0311117309667     0.0865309940326     0.945000198048      -0.30271647964      0.945000198048      -0.30271647964      0.0311117309667     0.0865309940326     
7300000000.0        0.031864446694      0.0875689212315     0.943576738874      -0.306744095637     0.943576738874      -0.306744095637     0.031864446694      0.0875689212315     
7400000000.0        0.0326260762062     0.0886003435512     0.942134895743      -0.310764438224     0.942134895743      -0.310764438224     0.0326260762062     0.0886003435512     
7500000000.0        0.0333965631657     0.089625188259      0.940674716769      -0.314777414756     0.940674716769      -0.314777414756     0.0333965631657     0.089625188259      
7600000000.0        0.0341758506251     0.0906433831778     0.939196250651      -0.318782933012     0.939196250651      -0.318782933012     0.0341758506251     0.0906433831778     
7700000000.0        0.0349638810331     0.0916548566907     0.937699546663      -0.322780901202     0.937699546663      -0.322780901202     0.0349638810331     0.0916548566907     
7800000000.0        0.0357605962412     0.0926595377449     0.936184654652      -0.326771227971     0.936184654652      -0.326771227971     0.0357605962412     0.0926595377449     
7900000000.0        0.0365659375102     0.0936573558565     0.934651625031      -0.330753822407     0.934651625031      -0.330753822407     0.0365659375102     0.0936573558565     
8000000000.0        0.0373798455165     0.0946482411143     0.933100508773      -0.33472859404      0.933100508773      -0.33472859404      0.0373798455165     0.0946482411143     
8100000000.0        0.0382022603584     0.0956321241838     0.931531357406      -0.338695452853     0.931531357406      -0.338695452853     0.0382022603584     0.0956321241838     
8200000000.0        0.0390331215627     0.0966089363119     0.929944223004      -0.342654309285     0.929944223004      -0.342654309285     0.0390331215627     0.0966089363119     
8300000000.0        0.0398723680911     0.0975786093303     0.928339158187      -0.346605074233     0.928339158187      -0.346605074233     0.0398723680911     0.0975786093303     
8400000000.0        0.0407199383466     0.0985410756595     0.92671621611       -0.350547659061     0.92671621611       -0.350547659061     0.0407199383466     0.0985410756595     
8500000000.0        0.0415757701799     0.099496268313      0.92507545046       -0.354481975602     0.92507545046       -0.354481975602     0.0415757701799     0.099496268313      
8600000000.0        0.042439800896      0.100444120901      0.923416915449      -0.358407936163     0.923416915449      -0.358407936163     0.042439800896      0.100444120901      
8700000000.0        0.0433119672605     0.101384567633      0.921740665809      -0.36232545353      0.921740665809      -0.36232545353      0.0433119672605     0.101384567633      
8800000000.0        0.044192205506      0.102317543325      0.920046756783      -0.366234440971     0.920046756783      -0.366234440971     0.044192205506      0.102317543325      
8900000000.0        0.0450804513389     0.103242983398      0.918335244124      -0.37013481224      0.918335244124      -0.37013481224      0.0450804513389     0.103242983398      
9000000000.0        0.0459766399453     0.104160823885      0.916606184087      -0.374026481583     0.916606184087      -0.374026481583     0.0459766399453     0.104160823885      
9100000000.0        0.0468807059982     0.105071001435      0.914859633421      -0.377909363742     0.914859633421      -0.377909363742     0.0468807059982     0.105071001435      
9200000000.0        0.0477925836634     0.105973453314      0.913095649365      -0.381783373957     0.913095649365      -0.381783373957     0.0477925836634     0.105973453314      
9300000000.0        0.0487122066061     0.106868117408      0.911314289643      -0.385648427969     0.911314289643      -0.385648427969     0.0487122066061     0.106868117408      
9400000000.0        0.0496395079976     0.107754932231      0.909515612456      -0.389504442027     0.909515612456      -0.389504442027     0.0496395079976     0.107754932231      
9500000000.0        0.0505744205219     0.108633836922      0.907699676476      -0.39335133289      0.907699676476      -0.39335133289      0.0505744205219     0.108633836922      
9600000000.0        0.0515168763816     0.109504771253      0.905866540843      -0.397189017831     0.905866540843      -0.397189017831     0.0515168763816     0.109504771253      
9700000000.0        0.0524668073052     0.110367675629      0.904016265154      -0.401017414639     0.904016265154      -0.401017414639     0.0524668073052     0.110367675629      
9800000000.0        0.0534241445529     0.111222491094      0.902148909461      -0.404836441623     0.902148909461      -0.404836441623     0.0534241445529     0.111222491094      
9900000000.0        0.0543888189238     0.11206915933       0.900264534263      -0.408646017617     0.900264534263      -0.408646017617     0.0543888189238     0.11206915933       
10000000000.0       0.055360760762      0.112907622664      0.898363200503      -0.412446061981     0.898363200503      -0.412446061981     0.055360760762      0.112907622664      
