# Hz S RI R 50.00 
100000000.0         -0.00045882552319   -0.0211563428791    0.99951894984       -0.0211816156284    0.99951894984       -0.0211816156284    -0.00045882552319   -0.0211563428791    
200000000.0         -0.00182231626028   -0.0422537569088    0.998155306186      -0.042304303285     0.998155306186      -0.042304303285     -0.00182231626028   -0.0422537569088    
300000000.0         -0.0040725404737    -0.0632357729779    0.995904966612      -0.0633115943243    0.995904966612      -0.0633115943243    -0.0040725404737    -0.0632357729779    
400000000.0         -0.007197373185     -0.0840469899562    0.992780037004      -0.0841480879783    0.992780037004      -0.0841480879783    -0.007197373185     -0.0840469899562    
500000000.0         -0.0111801594171    -0.104633538707     0.988797165028      -0.10475991542      0.988797165028      -0.10475991542      -0.0111801594171    -0.104633538707     
600000000.0         -0.0159999310535    -0.12494352871      0.983977315093      -0.125095186407     0.983977315093      -0.125095186407     -0.0159999310535    -0.12494352871      
700000000.0         -0.0216316782905    -0.144927461674     0.978345494825      -0.145104402898     0.978345494825      -0.145104402898     -0.0216316782905    -0.144927461674     
800000000.0         -0.0280466671137    -0.164538603844     0.971930436836      -0.164740831369     0.971930436836      -0.164740831369     -0.0280466671137    -0.164538603844     
900000000.0         -0.0352127951432    -0.183733311107     0.964764242541      -0.183960827925     0.964764242541      -0.183960827925     -0.0352127951432    -0.183733311107     
1000000000.0        -0.0430949778422    -0.202471302669     0.956881995786      -0.202724111973     0.956881995786      -0.202724111973     -0.0430949778422    -0.202471302669     
1100000000.0        -0.0516555567992    -0.220715880601     0.948321354465      -0.220993985775     0.948321354465      -0.220993985775     -0.0516555567992    -0.220715880601     
1200000000.0        -0.0608547217317    -0.238434094063     0.939122128463      -0.238737498671     0.939122128463      -0.238737498671     -0.0608547217317    -0.238434094063     
1300000000.0        -0.0706509380609    -0.255596848395     0.929325852048      -0.255925556171     0.929325852048      -0.255925556171     -0.0706509380609    -0.255596848395     
1400000000.0        -0.081001372304     -0.272178960522     0.918975358454      -0.272532975365     0.918975358454      -0.272532975365     -0.081001372304     -0.272178960522     
1500000000.0        -0.0918623081582    -0.288159163296     0.90811436378       -0.288538489257     0.90811436378       -0.288538489257     -0.0918623081582    -0.288159163296     
1600000000.0        -0.103189546898     -0.30352006227      0.896787066585      -0.303924703551     0.896787066585      -0.303924703551     -0.103189546898     -0.30352006227      
1700000000.0        -0.114938786599     -0.318248049265     0.885037768654      -0.318678010207     0.885037768654      -0.318678010207     -0.114938786599     -0.318248049265     
1800000000.0        -0.127065975649     -0.332333177574     0.872910521479      -0.332788462654     0.872910521479      -0.332788462654     -0.127065975649     -0.332333177574     
1900000000.0        -0.139527636976     -0.345769004073     0.860448802036      -0.346249617896     0.860448802036      -0.346249617896     -0.139527636976     -0.345769004073     
2000000000.0        -0.152281160407     -0.358552403679     0.847695220409      -0.359058350977     0.847695220409      -0.359058350977     -0.152281160407     -0.358552403679     
2100000000.0        -0.165285061502     -0.370683361633     0.834691260966      -0.371214647255     0.834691260966      -0.371214647255     -0.165285061502     -0.370683361633     
2200000000.0        -0.178499206071     -0.382164748932     0.821477057831      -0.382721377842     0.821477057831      -0.382721377842     -0.178499206071     -0.382164748932     
2300000000.0        -0.191885000374     -0.393002086026     0.808091204687      -0.393584063296     0.808091204687      -0.393584063296     -0.191885000374     -0.393002086026     
2400000000.0        -0.205405547683     -0.403203299503     0.794570598214      -0.403810630311     0.794570598214      -0.403810630311     -0.205405547683     -0.403203299503     
2500000000.0        -0.219025772459     -0.412778476098     0.780950313906      -0.413411165724     0.780950313906      -0.413411165724     -0.219025772459     -0.412778476098     
2600000000.0        -0.232712513892     -0.421739617867     0.767263512536      -0.422397671685     0.767263512536      -0.422397671685     -0.232712513892     -0.421739617867     
2700000000.0        -0.246434590877     -0.430100401865     0.753541375174      -0.430783825344     0.753541375174      -0.430783825344     -0.246434590877     -0.430100401865     
2800000000.0        -0.2601628408       -0.437875947175     0.739813064401      -0.438584745873     0.739813064401      -0.438584745873     -0.2601628408       -0.437875947175     
2900000000.0        -0.273870134656     -0.445082591598     0.726105709197      -0.445816771158     0.726105709197      -0.445816771158     -0.273870134656     -0.445082591598     
3000000000.0        -0.287531371099     -0.451737679866     0.712444410882      -0.452497246014     0.712444410882      -0.452497246014     -0.287531371099     -0.451737679866     
3100000000.0        -0.301123452073     -0.457859364763     0.698852267489      -0.458644323304     0.698852267489      -0.458644323304     -0.301123452073     -0.457859364763     
3200000000.0        -0.314625242589     -0.46346642213      0.685350413986      -0.464276778943     0.685350413986      -0.464276778943     -0.314625242589     -0.46346642213      
3300000000.0        -0.328017517143     -0.468578080364     0.671958075863      -0.469413841402     0.671958075863      -0.469413841402     -0.328017517143     -0.468578080364     
3400000000.0        -0.341282895118     -0.473213864694     0.658692633715      -0.474075035979     0.658692633715      -0.474075035979     -0.341282895118     -0.473213864694     
3500000000.0        -0.354405767383     -0.477393456234     0.64556969666       -0.478280043855     0.64556969666       -0.478280043855     -0.354405767383     -0.477393456234     
3600000000.0        -0.367372216086     -0.481136565572     0.632603182537      -0.482048575682     0.632603182537      -0.482048575682     -0.367372216086     -0.481136565572     
3700000000.0        -0.380169929467     -0.484462820484     0.619805403093      -0.485400259297     0.619805403093      -0.485400259297     -0.380169929467     -0.484462820484     
3800000000.0        -0.39278811333      -0.487391667183     0.60718715251       -0.488354540972     0.60718715251       -0.488354540972     -0.39278811333      -0.487391667183     
3900000000.0        -0.405217400602     -0.489942284417     0.594757797854      -0.49093059951      0.594757797854      -0.49093059951      -0.405217400602     -0.489942284417     
4000000000.0        -0.417449760217     -0.492133509639     0.582525370178      -0.493147272417     0.582525370178      -0.493147272417     -0.417449760217     -0.492133509639     
4100000000.0        -0.429478406418     -0.493983776411     0.570496655232      -0.495022993309     0.570496655232      -0.495022993309     -0.429478406418     -0.493983776411     
4200000000.0        -0.441297709341     -0.495511062198     0.558677282872      -0.496575739696     0.558677282872      -0.496575739696     -0.441297709341     -0.495511062198     
4300000000.0        -0.452903107655     -0.496732845653     0.547071814421      -0.49782299028      0.547071814421      -0.49782299028      -0.452903107655     -0.496732845653     
4400000000.0        -0.464291023844     -0.497666072555     0.535683827386      -0.498781690884     0.535683827386      -0.498781690884     -0.464291023844     -0.497666072555     
4500000000.0        -0.475458782609     -0.498327129536     0.524515997062      -0.49946822818      0.524515997062      -0.49946822818      -0.475458782609     -0.498327129536     
4600000000.0        -0.486404532742     -0.498731824783     0.513570174651      -0.4998984104       0.513570174651      -0.4998984104       -0.486404532742     -0.498731824783     
4700000000.0        -0.497127172749     -0.498895374958     0.502847461639      -0.500087454239     0.502847461639      -0.500087454239     -0.497127172749     -0.498895374958     
4800000000.0        -0.507626280385     -0.49883239757      0.492348280268      -0.500049977244     0.492348280268      -0.500049977244     -0.507626280385     -0.49883239757      
4900000000.0        -0.517902046193     -0.498556908149     0.48207243999       -0.49979999498      0.48207243999       -0.49979999498      -0.517902046193     -0.498556908149     
5000000000.0        -0.527955211106     -0.498082321564     0.472019199867      -0.499350922348     0.472019199867      -0.499350922348     -0.527955211106     -0.498082321564     
5100000000.0        -0.537787008072     -0.497421456911     0.462187326948      -0.498715578475     0.462187326948      -0.498715578475     -0.537787008072     -0.497421456911     
5200000000.0        -0.547399107659     -0.496586545442     0.452575150659      -0.497906194642     0.452575150659      -0.497906194642     -0.547399107659     -0.496586545442     
5300000000.0        -0.55679356754      -0.495589241034     0.443180613327      -0.496934424752     0.443180613327      -0.496934424752     -0.55679356754      -0.495589241034     
5400000000.0        -0.565972785729     -0.494440632785     0.434001316931      -0.495811357929     0.434001316931      -0.495811357929     -0.565972785729     -0.494440632785     
5500000000.0        -0.574939457447     -0.493151259326     0.425034566248      -0.49454753283      0.425034566248      -0.49454753283      -0.574939457447     -0.493151259326     
5600000000.0        -0.583696535431     -0.491731124517     0.416277408539      -0.493152953336     0.416277408539      -0.493152953336     -0.583696535431     -0.491731124517     
5700000000.0        -0.59224719354      -0.490189714202     0.407726669943      -0.491637105311     0.407726669943      -0.491637105311     -0.59224719354      -0.490189714202     
5800000000.0        -0.600594793469     -0.488536013765     0.39937898876       -0.49000897416      0.39937898876       -0.49000897416      -0.600594793469     -0.488536013765     
5900000000.0        -0.6087428544       -0.486778526247     0.391230845808      -0.488277062943     0.391230845808      -0.488277062943     -0.6087428544       -0.486778526247     
6000000000.0        -0.616695025404     -0.484925290811     0.383278592013      -0.486449410838     0.383278592013      -0.486449410838     -0.616695025404     -0.484925290811     
6100000000.0        -0.624455060416     -0.482983901382     0.375518473438      -0.484533611787     0.375518473438      -0.484533611787     -0.624455060416     -0.482983901382     
6200000000.0        -0.632026795617     -0.480961525315     0.367946653901      -0.482536833157     0.367946653901      -0.482536833157     -0.632026795617     -0.480961525315     
6300000000.0        -0.639414129042     -0.478864921949     0.360559235364      -0.480465834303     0.360559235364      -0.480465834303     -0.639414129042     -0.478864921949     
6400000000.0        -0.646621002255     -0.47670046095      0.35335227626       -0.478326984901     0.35335227626       -0.478326984901     -0.646621002255     -0.47670046095      
6500000000.0        -0.653651383941     -0.474474140346     0.346321807906      -0.476126282989     0.346321807906      -0.476126282989     -0.653651383941     -0.474474140346     
6600000000.0        -0.66050925525      -0.472191604184     0.339463849149      -0.473869372625     0.339463849149      -0.473869372625     -0.66050925525      -0.472191604184     
6700000000.0        -0.667198596768     -0.469858159741     0.332774419401      -0.471561561093     0.332774419401      -0.471561561093     -0.667198596768     -0.469858159741     
6800000000.0        -0.67372337697      -0.467478794256     0.326249550187      -0.469207835641     0.326249550187      -0.469207835641     -0.67372337697      -0.467478794256     
6900000000.0        -0.680087542035     -0.465058191132     0.319885295326      -0.466812879677     0.319885295326      -0.466812879677     -0.680087542035     -0.465058191132     
7000000000.0        -0.686295006903     -0.462600745588     0.313677739878      -0.464381088426     0.313677739878      -0.464381088426     -0.686295006903     -0.462600745588     
7100000000.0        -0.692349647464     -0.460110579744     0.30762300795       -0.461916584011     0.30762300795       -0.461916584011     -0.692349647464     -0.460110579744     
7200000000.0        -0.698255293779     -0.45759155712      0.301717269481      -0.459423229957     0.301717269481      -0.459423229957     -0.698255293779     -0.45759155712      
7300000000.0        -0.704015724233     -0.455047296556     0.295956746086      -0.456904645106     0.295956746086      -0.456904645106     -0.704015724233     -0.455047296556     
7400000000.0        -0.70963466054      -0.452481185537     0.290337716049      -0.454364216944     0.290337716049      -0.454364216944     -0.70963466054      -0.452481185537     
7500000000.0        -0.715115763508     -0.449896392937     0.284856518562      -0.451805114346     0.284856518562      -0.451805114346     -0.715115763508     -0.449896392937     
7600000000.0        -0.720462629501     -0.447295881186     0.279509557261      -0.449230299743     0.279509557261      -0.449230299743     -0.720462629501     -0.447295881186     
7700000000.0        -0.725678787518     -0.444682417875     0.274293303145      -0.446642540724     0.274293303145      -0.446642540724     -0.725678787518     -0.444682417875     
7800000000.0        -0.730767696835     -0.442058586799     0.269204296939      -0.444044421083     0.269204296939      -0.444044421083     -0.730767696835     -0.442058586799     
7900000000.0        -0.735732745143     -0.439426798471     0.264239150949      -0.44143835133      0.264239150949      -0.44143835133      -0.735732745143     -0.439426798471     
8000000000.0        -0.740577247141     -0.436789300097     0.259394550477      -0.43882657867      0.259394550477      -0.43882657867      -0.740577247141     -0.436789300097     
8100000000.0        -0.745304443517     -0.434148185066     0.254667254835      -0.436211196486     0.254667254835      -0.436211196486     -0.745304443517     -0.434148185066     
8200000000.0        -0.749917500296     -0.43150540193      0.250054097996      -0.433594153326     0.250054097996      -0.433594153326     -0.749917500296     -0.43150540193      
8300000000.0        -0.754419508493     -0.428862762927     0.245551988946      -0.430977261424     0.245551988946      -0.430977261424     -0.754419508493     -0.428862762927     
8400000000.0        -0.758813484051     -0.426221952046     0.241157911742      -0.428362204763     0.241157911742      -0.428362204763     -0.758813484051     -0.426221952046     
8500000000.0        -0.763102368016     -0.423584532663     0.236868925336      -0.425750546712     0.236868925336      -0.425750546712     -0.763102368016     -0.423584532663     
8600000000.0        -0.767289026935     -0.420951954759     0.232682163181      -0.423143737246     0.232682163181      -0.423143737246     -0.767289026935     -0.420951954759     
8700000000.0        -0.771376253436     -0.418325561742     0.22859483265       -0.420543119766     0.22859483265       -0.420543119766     -0.771376253436     -0.418325561742     
8800000000.0        -0.775366766971     -0.415706596897     0.224604214289      -0.417949937549     0.224604214289      -0.417949937549     -0.775366766971     -0.415706596897     
8900000000.0        -0.779263214702     -0.413096209466     0.220707660939      -0.415365339829     0.220707660939      -0.415365339829     -0.779263214702     -0.413096209466     
9000000000.0        -0.783068172501     -0.4104954604       0.216902596723      -0.412790387547     0.216902596723      -0.412790387547     -0.783068172501     -0.4104954604       
9100000000.0        -0.786784146065     -0.407905327768     0.213186515948      -0.410226058764     0.213186515948      -0.410226058764     -0.786784146065     -0.407905327768     
9200000000.0        -0.790413572101     -0.405326711875     0.209556981905      -0.407673253775     0.209556981905      -0.407673253775     -0.790413572101     -0.405326711875     
9300000000.0        -0.793958819594     -0.402760440072     0.206011625608      -0.40513279992      0.206011625608      -0.40513279992      -0.793958819594     -0.402760440072     
9400000000.0        -0.797422191131     -0.400207271299     0.202548144472      -0.40260545613      0.202548144472      -0.40260545613      -0.797422191131     -0.400207271299     
9500000000.0        -0.800805924268     -0.39766790036      0.199164300939      -0.400091917197     0.199164300939      -0.400091917197     -0.800805924268     -0.39766790036      
9600000000.0        -0.804112192942     -0.395142961949     0.195857921073      -0.397592817804     0.195857921073      -0.397592817804     -0.804112192942     -0.395142961949     
9700000000.0        -0.807343108898     -0.392633034441     0.192626893128      -0.395108736314     0.192626893128      -0.395108736314     -0.807343108898     -0.392633034441     
9800000000.0        -0.810500723149     -0.390138643462     0.189469166092      -0.392640198341     0.189469166092      -0.392640198341     -0.810500723149     -0.390138643462     
9900000000.0        -0.813587027438     -0.387660265246     0.186382748221      -0.390187680108     0.186382748221      -0.390187680108     -0.813587027438     -0.387660265246     
10000000000.0       -0.816603955712     -0.385198329796     0.183365705568      -0.387751611605     0.183365705568      -0.387751611605     -0.816603955712     -0.385198329796     
