# Hz S RI R 50.00 
100000000.0         4.4034393698e-05    4.09918431162e-06   0.999954795618      -0.000170337293569  0.999954795618      -0.000170337293569  4.40343936983e-05   4.09918431161e-06   
200000000.0         4.42581412246e-05   8.19691786011e-06   0.999954374239      -0.000340678767995  0.999954374239      -0.000340678767995  4.42581412246e-05   8.19691786013e-06   
300000000.0         4.44050491046e-05   1.22925712899e-05   0.999954002047      -0.000511026656517  0.999954002047      -0.000511026656517  4.44050491046e-05   1.22925712899e-05   
400000000.0         4.45137445684e-05   1.63856633411e-05   0.999953640406      -0.000681382656375  0.999953640406      -0.000681382656375  4.45137445684e-05   1.63856633411e-05   
500000000.0         4.45990776279e-05   2.04758064019e-05   0.999953274459      -0.000851748195139  0.999953274459      -0.000851748195139  4.45990776279e-05   2.04758064019e-05   
600000000.0         4.46686082705e-05   2.45626750779e-05   0.999952896635      -0.00102212452862   0.999952896635      -0.00102212452862   4.46686082705e-05   2.45626750779e-05   
700000000.0         4.4726793909e-05    2.86459945869e-05   0.999952502466      -0.00119251278516   0.999952502466      -0.00119251278516   4.47267939085e-05   2.86459945869e-05   
800000000.0         4.47765164542e-05   3.27255302052e-05   0.999952089059      -0.00136291399526   0.999952089059      -0.00136291399526   4.47765164542e-05   3.27255302053e-05   
900000000.0         4.48197619831e-05   3.6801081125e-05    0.999951654417      -0.00153332911015   0.999951654417      -0.00153332911015   4.48197619831e-05   3.6801081125e-05    
1000000000.0        4.48579647414e-05   4.08724769365e-05   0.999951197094      -0.00170375901383   0.999951197094      -0.00170375901383   4.48579647414e-05   4.08724769365e-05   
1100000000.0        4.48921984066e-05   4.49395732261e-05   0.999950716003      -0.00187420453372   0.999950716003      -0.00187420453372   4.48921984066e-05   4.49395732261e-05   
1200000000.0        4.49232899327e-05   4.90022493076e-05   0.999950210304      -0.00204466644769   0.999950210304      -0.00204466644769   4.49232899329e-05   4.90022493076e-05   
1300000000.0        4.49518910819e-05   5.30604057327e-05   0.999949679333      -0.00221514549012   0.999949679333      -0.00221514549012   4.49518910819e-05   5.30604057327e-05   
1400000000.0        4.49785254637e-05   5.71139627789e-05   0.999949122552      -0.00238564235639   0.999949122552      -0.00238564235639   4.49785254635e-05   5.71139627789e-05   
1500000000.0        4.50036205295e-05   6.11628586719e-05   0.999948539519      -0.00255615770702   0.999948539519      -0.00255615770702   4.50036205295e-05   6.11628586719e-05   
1600000000.0        4.50275300501e-05   6.5207048652e-05    0.999947929868      -0.00272669217052   0.999947929868      -0.00272669217052   4.50275300499e-05   6.5207048652e-05    
1700000000.0        4.50505502894e-05   6.924650313e-05     0.999947293286      -0.00289724634688   0.999947293286      -0.00289724634688   4.50505502894e-05   6.924650313e-05     
1800000000.0        4.50729319237e-05   7.32812073533e-05   0.999946629509      -0.00306782080928   0.999946629509      -0.00306782080928   4.50729319237e-05   7.32812073533e-05   
1900000000.0        4.50948889767e-05   7.73111604512e-05   0.999945938307      -0.00323841610623   0.999945938307      -0.00323841610623   4.50948889767e-05   7.73111604512e-05   
2000000000.0        4.51166056676e-05   8.13363741458e-05   0.999945219481      -0.00340903276384   0.999945219481      -0.00340903276384   4.51166056679e-05   8.13363741458e-05   
2100000000.0        4.51382416864e-05   8.53568724858e-05   0.999944472856      -0.00357967128701   0.999944472856      -0.00357967128701   4.51382416864e-05   8.53568724858e-05   
2200000000.0        4.51599363582e-05   8.93726911797e-05   0.999943698277      -0.00375033216086   0.999943698277      -0.00375033216086   4.51599363582e-05   8.93726911797e-05   
2300000000.0        4.51818119529e-05   9.33838767962e-05   0.999942895605      -0.00392101585218   0.999942895605      -0.00392101585218   4.51818119529e-05   9.33838767962e-05   
2400000000.0        4.5203976347e-05    9.739048632e-05     0.999942064718      -0.00409172281052   0.999942064718      -0.00409172281052   4.5203976347e-05    9.739048632e-05     
2500000000.0        4.52265251734e-05   0.000101392586708   0.999941205503      -0.00426245346913   0.999941205503      -0.00426245346913   4.52265251731e-05   0.000101392586708   
2600000000.0        4.52495436019e-05   0.000105390254332   0.99994031786       -0.00443320824603   0.99994031786       -0.00443320824603   4.52495436016e-05   0.000105390254332   
2700000000.0        4.52731077916e-05   0.000109383574581   0.999939401695      -0.00460398754482   0.999939401695      -0.00460398754482   4.52731077918e-05   0.000109383574581   
2800000000.0        4.52972861147e-05   0.000113372641596   0.999938456924      -0.00477479175535   0.999938456924      -0.00477479175535   4.52972861147e-05   0.000113372641596   
2900000000.0        4.53221401688e-05   0.000117357557722   0.99993748347       -0.00494562125462   0.99993748347       -0.00494562125462   4.53221401688e-05   0.000117357557722   
3000000000.0        4.53477256472e-05   0.000121338433186   0.999936481259      -0.00511647640741   0.999936481259      -0.00511647640741   4.53477256472e-05   0.000121338433186   
3100000000.0        4.53740930562e-05   0.000125315385959   0.999935450225      -0.00528735756672   0.999935450225      -0.00528735756672   4.53740930562e-05   0.000125315385959   
3200000000.0        4.54012883571e-05   0.000129288541159   0.999934390305      -0.00545826507463   0.999934390305      -0.00545826507463   4.54012883571e-05   0.000129288541159   
3300000000.0        4.54293534824e-05   0.000133258030956   0.999933301442      -0.00562919926266   0.999933301442      -0.00562919926266   4.54293534824e-05   0.000133258030956   
3400000000.0        4.54583268126e-05   0.000137223994395   0.999932183579      -0.00580016045216   0.999932183579      -0.00580016045216   4.54583268126e-05   0.000137223994395   
3500000000.0        4.54882435657e-05   0.00014118657688    0.999931036665      -0.00597114895501   0.999931036665      -0.00597114895501   4.54882435657e-05   0.00014118657688    
3600000000.0        4.55191361546e-05   0.000145145930025   0.999929860651      -0.00614216507402   0.999929860651      -0.00614216507402   4.55191361546e-05   0.000145145930025   
3700000000.0        4.55510344828e-05   0.000149102211629   0.999928655491      -0.00631320910307   0.999928655491      -0.00631320910307   4.55510344828e-05   0.000149102211629   
3800000000.0        4.55839662146e-05   0.000153055585062   0.99992742114       -0.00648428132795   0.99992742114       -0.00648428132795   4.55839662148e-05   0.000153055585062   
3900000000.0        4.56179570139e-05   0.00015700621956    0.999926157555      -0.00665538202616   0.999926157555      -0.00665538202616   4.56179570143e-05   0.00015700621956    
4000000000.0        4.56530307449e-05   0.00016095428952    0.999924864697      -0.00682651146779   0.999924864697      -0.00682651146779   4.56530307449e-05   0.00016095428952    
4100000000.0        4.56892096588e-05   0.000164899974692   0.999923542527      -0.00699766991548   0.999923542527      -0.00699766991548   4.5689209659e-05    0.000164899974692   
4200000000.0        4.57265145599e-05   0.000168843459756   0.999922191007      -0.00716885762493   0.999922191007      -0.00716885762493   4.57265145599e-05   0.000168843459756   
4300000000.0        4.57649649452e-05   0.000172784934335   0.999920810101      -0.00734007484503   0.999920810101      -0.00734007484503   4.5764964945e-05    0.000172784934335   
4400000000.0        4.58045791421e-05   0.000176724592789   0.999919399775      -0.00751132181814   0.999919399775      -0.00751132181814   4.58045791421e-05   0.000176724592789   
4500000000.0        4.58453744201e-05   0.000180662633889   0.999917959994      -0.00768259878058   0.999917959994      -0.00768259878058   4.58453744201e-05   0.000180662633889   
4600000000.0        4.58873670939e-05   0.000184599260905   0.999916490727      -0.00785390596259   0.999916490727      -0.00785390596259   4.58873670937e-05   0.000184599260905   
4700000000.0        4.59305726264e-05   0.000188534681322   0.999914991942      -0.00802524358871   0.999914991942      -0.00802524358871   4.59305726264e-05   0.000188534681322   
4800000000.0        4.59750057042e-05   0.000192469106747   0.999913463607      -0.00819661187797   0.999913463607      -0.00819661187797   4.59750057042e-05   0.000192469106747   
4900000000.0        4.60206803232e-05   0.000196402752797   0.999911905693      -0.00836801104409   0.999911905693      -0.00836801104409   4.60206803232e-05   0.000196402752797   
5000000000.0        4.6067609851e-05    0.000200335838927   0.999910318171      -0.00853944129571   0.999910318171      -0.00853944129571   4.60676098513e-05   0.000200335838927   
5100000000.0        4.61158070992e-05   0.000204268588338   0.999908701011      -0.00871090283654   0.999908701011      -0.00871090283654   4.61158070992e-05   0.000204268588338   
5200000000.0        4.61652843722e-05   0.000208201227883   0.999907054185      -0.00888239586559   0.999907054185      -0.00888239586559   4.61652843724e-05   0.000208201227883   
5300000000.0        4.62160535279e-05   0.00021213398791    0.999905377666      -0.0090539205773    0.999905377666      -0.0090539205773    4.62160535279e-05   0.00021213398791    
5400000000.0        4.62681260212e-05   0.00021606710217    0.999903671427      -0.00922547716176   0.999903671427      -0.00922547716176   4.62681260209e-05   0.00021606710217    
5500000000.0        4.63215129498e-05   0.000220000807775   0.999901935441      -0.00939706580479   0.999901935441      -0.00939706580479   4.63215129498e-05   0.000220000807775   
5600000000.0        4.63762250966e-05   0.000223935345002   0.999900169681      -0.00956868668816   0.999900169681      -0.00956868668816   4.63762250966e-05   0.000223935345002   
5700000000.0        4.64322729647e-05   0.000227870957239   0.999898374123      -0.00974033998976   0.999898374123      -0.00974033998976   4.64322729647e-05   0.000227870957239   
5800000000.0        4.6489666812e-05    0.000231807890971   0.999896548741      -0.0099120258836    0.999896548741      -0.0099120258836    4.6489666812e-05    0.000231807890971   
5900000000.0        4.65484166821e-05   0.000235746395497   0.999894693508      -0.0100837445402    0.999894693508      -0.0100837445402    4.65484166821e-05   0.000235746395497   
6000000000.0        4.66085324391e-05   0.000239686723061   0.999892808402      -0.0102554961264    0.999892808402      -0.0102554961264    4.66085324389e-05   0.000239686723061   
6100000000.0        4.66700237851e-05   0.000243629128698   0.999890893396      -0.0104272808056    0.999890893396      -0.0104272808056    4.66700237849e-05   0.000243629128698   
6200000000.0        4.67329002927e-05   0.000247573870087   0.999888948467      -0.0105990987383    0.999888948467      -0.0105990987383    4.67329002927e-05   0.000247573870087   
6300000000.0        4.67971714264e-05   0.000251521207539   0.999886973591      -0.0107709500813    0.999886973591      -0.0107709500813    4.67971714264e-05   0.000251521207539   
6400000000.0        4.68628465617e-05   0.000255471403897   0.999884968743      -0.0109428349887    0.999884968743      -0.0109428349887    4.68628465617e-05   0.000255471403897   
6500000000.0        4.69299350077e-05   0.000259424724534   0.9998829339        -0.0111147536116    0.9998829339        -0.0111147536116    4.69299350074e-05   0.000259424724534   
6600000000.0        4.69984460232e-05   0.000263381437191   0.999880869039      -0.0112867060982    0.999880869039      -0.0112867060982    4.69984460234e-05   0.000263381437191   
6700000000.0        4.70683888383e-05   0.000267341811957   0.999878774137      -0.0114586925939    0.999878774137      -0.0114586925939    4.70683888385e-05   0.000267341811957   
6800000000.0        4.71397726669e-05   0.000271306121236   0.999876649169      -0.0116307132415    0.999876649169      -0.0116307132415    4.71397726667e-05   0.000271306121236   
6900000000.0        4.72126067195e-05   0.000275274639594   0.999874494114      -0.0118027681813    0.999874494114      -0.0118027681813    4.72126067195e-05   0.000275274639594   
7000000000.0        4.72869002246e-05   0.000279247643765   0.999872308948      -0.011974857551     0.999872308948      -0.011974857551     4.72869002242e-05   0.000279247643765   
7100000000.0        4.73626624344e-05   0.000283225412679   0.999870093649      -0.0121469814858    0.999870093649      -0.0121469814858    4.73626624344e-05   0.000283225412679   
7200000000.0        4.74399026416e-05   0.000287208227214   0.999867848194      -0.0123191401189    0.999867848194      -0.0123191401189    4.74399026418e-05   0.000287208227214   
7300000000.0        4.75186301903e-05   0.000291196370287   0.99986557256       -0.012491333581     0.99986557256       -0.012491333581     4.75186301903e-05   0.000291196370287   
7400000000.0        4.75988544841e-05   0.000295190126752   0.999863266725      -0.0126635620007    0.999863266725      -0.0126635620007    4.75988544844e-05   0.000295190126752   
7500000000.0        4.76805850005e-05   0.000299189783365   0.999860930666      -0.0128358255045    0.999860930666      -0.0128358255045    4.76805850005e-05   0.000299189783365   
7600000000.0        4.77638312959e-05   0.000303195628743   0.999858564362      -0.0130081242169    0.999858564362      -0.0130081242169    4.77638312959e-05   0.000303195628743   
7700000000.0        4.78486030184e-05   0.000307207953291   0.99985616779       -0.0131804582604    0.99985616779       -0.0131804582604    4.78486030182e-05   0.000307207953291   
7800000000.0        4.79349099158e-05   0.000311227049182   0.999853740927      -0.0133528277555    0.999853740927      -0.0133528277555    4.79349099158e-05   0.000311227049182   
7900000000.0        4.80227618391e-05   0.00031525321024    0.999851283753      -0.0135252328211    0.999851283753      -0.0135252328211    4.80227618391e-05   0.00031525321024    
8000000000.0        4.81121687577e-05   0.000319286732117   0.999848796244      -0.013697673574     0.999848796244      -0.013697673574     4.81121687579e-05   0.000319286732117   
8100000000.0        4.82031407596e-05   0.000323327911892   0.999846278379      -0.0138701501297    0.999846278379      -0.0138701501297    4.82031407596e-05   0.000323327911892   
8200000000.0        4.82956880621e-05   0.000327377048408   0.999843730136      -0.0140426626015    0.999843730136      -0.0140426626015    4.82956880621e-05   0.000327377048408   
8300000000.0        4.83898210148e-05   0.000331434441945   0.999841151492      -0.0142152111016    0.999841151492      -0.0142152111016    4.83898210146e-05   0.000331434441945   
8400000000.0        4.84855501097e-05   0.000335500394385   0.999838542426      -0.0143877957403    0.999838542426      -0.0143877957403    4.84855501099e-05   0.000335500394385   
8500000000.0        4.85828859857e-05   0.00033957520904    0.999835902917      -0.0145604166265    0.999835902917      -0.0145604166265    4.85828859857e-05   0.00033957520904    
8600000000.0        4.86818394303e-05   0.000343659190687   0.999833232941      -0.0147330738676    0.999833232941      -0.0147330738676    4.86818394301e-05   0.000343659190687   
8700000000.0        4.87824213895e-05   0.000347752645475   0.999830532478      -0.0149057675696    0.999830532478      -0.0149057675696    4.87824213895e-05   0.000347752645475   
8800000000.0        4.88846429696e-05   0.000351855881026   0.999827801505      -0.0150784978371    0.999827801505      -0.0150784978371    4.88846429696e-05   0.000351855881026   
8900000000.0        4.89885154453e-05   0.000355969206218   0.99982504          -0.0152512647734    0.99982504          -0.0152512647734    4.89885154455e-05   0.000355969206218   
9000000000.0        4.90940502595e-05   0.000360092931289   0.999822247943      -0.0154240684805    0.999822247943      -0.0154240684805    4.90940502593e-05   0.000360092931289   
9100000000.0        4.92012590287e-05   0.000364227367772   0.99981942531       -0.015596909059     0.99981942531       -0.015596909059     4.92012590292e-05   0.000364227367772   
9200000000.0        4.93101535519e-05   0.000368372828405   0.999816572081      -0.0157697866085    0.999816572081      -0.0157697866085    4.93101535521e-05   0.000368372828405   
9300000000.0        4.9420745807e-05    0.000372529627205   0.999813688232      -0.0159427012273    0.999813688232      -0.0159427012273    4.94207458068e-05   0.000372529627205   
9400000000.0        4.95330479586e-05   0.000376698079406   0.999810773744      -0.0161156530125    0.999810773744      -0.0161156530125    4.95330479586e-05   0.000376698079406   
9500000000.0        4.96470723619e-05   0.000380878501363   0.999807828592      -0.0162886420604    0.999807828592      -0.0162886420604    4.96470723621e-05   0.000380878501363   
9600000000.0        4.97628315639e-05   0.000385071210656   0.999804852757      -0.0164616684657    0.999804852757      -0.0164616684657    4.97628315639e-05   0.000385071210656   
9700000000.0        4.98803383062e-05   0.000389276525868   0.999801846215      -0.0166347323225    0.999801846215      -0.0166347323225    4.98803383062e-05   0.000389276525868   
9800000000.0        4.9999605533e-05    0.000393494766835   0.999798808946      -0.0168078337236    0.999798808946      -0.0168078337236    4.9999605533e-05    0.000393494766835   
9900000000.0        5.01206463852e-05   0.000397726254364   0.999795740926      -0.0169809727611    0.999795740926      -0.0169809727611    5.01206463857e-05   0.000397726254364   
10000000000.0       5.02434742129e-05   0.000401971310334   0.999792642135      -0.0171541495258    0.999792642135      -0.0171541495258    5.02434742129e-05   0.000401971310334   
