# Hz S RI R 50.00 
100000000.0         0.037197738298      0.00324664989706    0.962798920184      -0.00467704028152   0.962798920184      -0.00467704028152   0.037197738298      0.00324664989706    
200000000.0         0.0374811749442     0.00648901889082    0.962511069272      -0.00934980386478   0.962511069272      -0.00934980386478   0.0374811749442     0.00648901889082    
300000000.0         0.0377322349991     0.00972831013268    0.962253521806      -0.0140195000756    0.962253521806      -0.0140195000756    0.0377322349991     0.00972831013268    
400000000.0         0.0379821392655     0.0129646952542     0.961995056638      -0.0186863062861    0.961995056638      -0.0186863062861    0.0379821392655     0.0129646952542     
500000000.0         0.0382429095639     0.0161981067177     0.961723651603      -0.0233501604819    0.961723651603      -0.0233501604819    0.0382429095639     0.0161981067177     
600000000.0         0.0385206658979     0.0194283715779     0.961433186334      -0.0280108951005    0.961433186334      -0.0280108951005    0.0385206658979     0.0194283715779     
700000000.0         0.0388190089319     0.0226552595357     0.961120059782      -0.0326682851238    0.961120059782      -0.0326682851238    0.0388190089319     0.0226552595357     
800000000.0         0.0391402551766     0.025878505254      0.960781955021      -0.0373220704164    0.960781955021      -0.0373220704164    0.0391402551766     0.025878505254      
900000000.0         0.0394859872367     0.0290978203746     0.960417288996      -0.0419719677585    0.960417288996      -0.0419719677585    0.0394859872367     0.0290978203746     
1000000000.0        0.0398573328552     0.0323129006654     0.960024933485      -0.0466176780031    0.960024933485      -0.0466176780031    0.0398573328552     0.0323129006654     
1100000000.0        0.040255120105      0.0355234305894     0.959604059896      -0.0512588906533    0.959604059896      -0.0512588906533    0.040255120105      0.0355234305894     
1200000000.0        0.0406799699092     0.0387290863939     0.959154046754      -0.0558952869571    0.959154046754      -0.0558952869571    0.0406799699092     0.0387290863939     
1300000000.0        0.0411323542817     0.0419295382947     0.958674421452      -0.0605265420967    0.958674421452      -0.0605265420967    0.0411323542817     0.0419295382947     
1400000000.0        0.0416126346328     0.0451244520793     0.958164821953      -0.065152326795     0.958164821953      -0.065152326795     0.0416126346328     0.0451244520793     
1500000000.0        0.0421210878901     0.0483134903208     0.957624970662      -0.0697723085328    0.957624970662      -0.0697723085328    0.0421210878901     0.0483134903208     
1600000000.0        0.042657924862      0.0514963133234     0.957054656066      -0.0743861524969    0.957054656066      -0.0743861524969    0.042657924862      0.0514963133234     
1700000000.0        0.0432233034861     0.0546725798763     0.956453719483      -0.0789935223361    0.956453719483      -0.0789935223361    0.0432233034861     0.0546725798763     
1800000000.0        0.0438173386048     0.057841947868      0.955822045287      -0.0835940807771    0.955822045287      -0.0835940807771    0.0438173386048     0.057841947868      
1900000000.0        0.044440109323      0.0610040747965     0.955159553552      -0.0881874901368    0.955159553552      -0.0881874901368    0.044440109323      0.0610040747965     
2000000000.0        0.0450916646424     0.0641586182004     0.954466194415      -0.0927734127542    0.954466194415      -0.0927734127542    0.0450916646424     0.0641586182004     
2100000000.0        0.0457720278449     0.0673052360294     0.953741943691      -0.0973515113622    0.953741943691      -0.0973515113622    0.0457720278449     0.0673052360294     
2200000000.0        0.0464811999514     0.0704435869655     0.95298679942       -0.10192144941      0.95298679942       -0.10192144941      0.0464811999514     0.0704435869655     
2300000000.0        0.0472191624863     0.0735733307076     0.952200779096      -0.10648289135      0.952200779096      -0.10648289135      0.0472191624863     0.0735733307076     
2400000000.0        0.0479858797136     0.0766941282237     0.951383917437      -0.111035502886     0.951383917437      -0.111035502886     0.0479858797136     0.0766941282237     
2500000000.0        0.0487813004664     0.0798056419792     0.950536264547      -0.11557895121      0.950536264547      -0.11557895121      0.0487813004664     0.0798056419792     
2600000000.0        0.049605359658      0.0829075361431     0.949657884414      -0.120112905201     0.949657884414      -0.120112905201     0.049605359658      0.0829075361431     
2700000000.0        0.0504579795436     0.0859994767774     0.948748853643      -0.124637035622     0.948748853643      -0.124637035622     0.0504579795436     0.0859994767774     
2800000000.0        0.0513390707834     0.0890811320113     0.947809260392      -0.129151015289     0.947809260392      -0.129151015289     0.0513390707834     0.0890811320113     
2900000000.0        0.0522485333452     0.0921521722034     0.946839203475      -0.133654519237     0.946839203475      -0.133654519237     0.0522485333452     0.0921521722034     
3000000000.0        0.0531862572792     0.0952122700916     0.945838791579      -0.138147224871     0.945838791579      -0.138147224871     0.0531862572792     0.0952122700916     
3100000000.0        0.0541521233868     0.0982611009348     0.944808142604      -0.142628812104     0.944808142604      -0.142628812104     0.0541521233868     0.0982611009348     
3200000000.0        0.0551460038044     0.101298342646      0.943747383071      -0.147098963495     0.943747383071      -0.147098963495     0.0551460038044     0.101298342646      
3300000000.0        0.0561677625149     0.104323675915      0.942656647616      -0.151557364371     0.942656647616      -0.151557364371     0.0561677625149     0.104323675915      
3400000000.0        0.0572172558015     0.107336784331      0.941536078535      -0.156003702948     0.941536078535      -0.156003702948     0.0572172558015     0.107336784331      
3500000000.0        0.0582943326515     0.110337354491      0.940385825378      -0.160437670439     0.940385825378      -0.160437670439     0.0582943326515     0.110337354491      
3600000000.0        0.0593988351191     0.113325076108      0.939206044588      -0.164858961169     0.939206044588      -0.164858961169     0.0593988351191     0.113325076108      
3700000000.0        0.0605305986535     0.116299642112      0.937996899174      -0.169267272667     0.937996899174      -0.169267272667     0.0605305986535     0.116299642112      
3800000000.0        0.0616894523978     0.119260748747      0.936758558407      -0.173662305772     0.936758558407      -0.173662305772     0.0616894523978     0.119260748747      
3900000000.0        0.0628752194627     0.122208095663      0.935491197555      -0.178043764718     0.935491197555      -0.178043764718     0.0628752194627     0.122208095663      
4000000000.0        0.0640877171788     0.125141386005      0.934194997621      -0.182411357227     0.934194997621      -0.182411357227     0.0640877171788     0.125141386005      
4100000000.0        0.0653267573309     0.128060326493      0.932870145115      -0.186764794589     0.932870145115      -0.186764794589     0.0653267573309     0.128060326493      
4200000000.0        0.0665921463768     0.130964627508      0.931516831834      -0.191103791749     0.931516831834      -0.191103791749     0.0665921463768     0.130964627508      
4300000000.0        0.0678836856519     0.133854003163      0.930135254655      -0.195428067374     0.930135254655      -0.195428067374     0.0678836856519     0.133854003163      
4400000000.0        0.0692011715633     0.13672817138       0.928725615344      -0.199737343935     0.928725615344      -0.199737343935     0.0692011715633     0.13672817138       
4500000000.0        0.070544395772      0.139586853957      0.927288120372      -0.204031347772     0.927288120372      -0.204031347772     0.070544395772      0.139586853957      
4600000000.0        0.0719131453684     0.142429776635      0.925822980738      -0.208309809163     0.925822980738      -0.208309809163     0.0719131453684     0.142429776635      
4700000000.0        0.0733072030382     0.145256669163      0.924330411808      -0.212572462382     0.924330411808      -0.212572462382     0.0733072030382     0.145256669163      
4800000000.0        0.0747263472226     0.148067265354      0.922810633149      -0.216819045768     0.922810633149      -0.216819045768     0.0747263472226     0.148067265354      
4900000000.0        0.0761703522724     0.150861303146      0.921263868378      -0.221049301774     0.921263868378      -0.221049301774     0.0761703522724     0.150861303146      
5000000000.0        0.0776389885964     0.153638524656      0.919690345013      -0.225262977026     0.919690345013      -0.225262977026     0.0776389885964     0.153638524656      
5100000000.0        0.0791320228056     0.156398676227      0.918090294329      -0.229459822372     0.918090294329      -0.229459822372     0.0791320228056     0.156398676227      
5200000000.0        0.0806492178533     0.159141508483      0.916463951217      -0.233639592934     0.916463951217      -0.233639592934     0.0806492178533     0.159141508483      
5300000000.0        0.0821903331709     0.161866776368      0.914811554051      -0.237802048147     0.914811554051      -0.237802048147     0.0821903331709     0.161866776368      
5400000000.0        0.083755124801      0.164574239192      0.913133344548      -0.241946951811     0.913133344548      -0.241946951811     0.083755124801      0.164574239192      
5500000000.0        0.0853433455273     0.167263660675      0.911429567646      -0.246074072123     0.911429567646      -0.246074072123     0.0853433455273     0.167263660675      
5600000000.0        0.0869547450017     0.169934808975      0.909700471373      -0.25018318172      0.909700471373      -0.25018318172      0.0869547450017     0.169934808975      
5700000000.0        0.0885890698689     0.172587456734      0.907946306722      -0.254274057711     0.907946306722      -0.254274057711     0.0885890698689     0.172587456734      
5800000000.0        0.0902460638889     0.175221381103      0.906167327529      -0.258346481712     0.906167327529      -0.258346481712     0.0902460638889     0.175221381103      
5900000000.0        0.0919254680575     0.177836363773      0.904363790355      -0.262400239874     0.904363790355      -0.262400239874     0.0919254680575     0.177836363773      
6000000000.0        0.0936270207242     0.180432191006      0.902535954361      -0.266435122913     0.902535954361      -0.266435122913     0.0936270207241     0.180432191006      
6100000000.0        0.0953504577091     0.183008653655      0.900684081201      -0.27045092613      0.900684081201      -0.27045092613      0.0953504577091     0.183008653655      
6200000000.0        0.097095512418      0.185565547191      0.898808434897      -0.27444744944      0.898808434897      -0.27444744944      0.097095512418      0.185565547191      
6300000000.0        0.0988619159551     0.18810267172       0.896909281734      -0.278424497387     0.896909281734      -0.278424497387     0.0988619159551     0.18810267172       
6400000000.0        0.100649397235      0.190619832         0.894986890143      -0.282381879164     0.894986890143      -0.282381879164     0.100649397235      0.190619832         
6500000000.0        0.102457683094      0.193116837462      0.893041530592      -0.286319408628     0.893041530592      -0.286319408628     0.102457683094      0.193116837462      
6600000000.0        0.104286498395      0.195593502216      0.891073475479      -0.290236904315     0.891073475479      -0.290236904315     0.104286498395      0.195593502216      
6700000000.0        0.106135566143      0.198049645066      0.889082999021      -0.294134189446     0.889082999021      -0.294134189446     0.106135566143      0.198049645066      
6800000000.0        0.108004607582      0.20048508952       0.88707037715       -0.298011091941     0.88707037715       -0.298011091941     0.108004607582      0.20048508952       
6900000000.0        0.109893342305      0.202899663789      0.885035887408      -0.301867444424     0.885035887408      -0.301867444424     0.109893342305      0.202899663789      
7000000000.0        0.111801488359      0.205293200802      0.882979808843      -0.305703084225     0.882979808843      -0.305703084225     0.111801488359      0.205293200802      
7100000000.0        0.113728762343      0.207665538199      0.880902421904      -0.309517853384     0.880902421904      -0.309517853384     0.113728762343      0.207665538199      
7200000000.0        0.115674879512      0.210016518336      0.878804008345      -0.313311598651     0.878804008345      -0.313311598651     0.115674879512      0.210016518336      
7300000000.0        0.117639553876      0.21234598828       0.876684851121      -0.317084171485     0.876684851121      -0.317084171485     0.117639553876      0.21234598828       
7400000000.0        0.119622498301      0.214653799809      0.87454523429       -0.320835428047     0.87454523429       -0.320835428047     0.119622498301      0.214653799809      
7500000000.0        0.121623424601      0.216939809402      0.872385442917      -0.324565229196     0.872385442917      -0.324565229196     0.121623424601      0.216939809402      
7600000000.0        0.123642043639      0.219203878232      0.870205762974      -0.328273440482     0.870205762974      -0.328273440482     0.123642043639      0.219203878232      
7700000000.0        0.125678065423      0.221445872157      0.86800648125       -0.331959932135     0.86800648125       -0.331959932135     0.125678065423      0.221445872157      
7800000000.0        0.127731199192      0.22366566171       0.865787885254      -0.335624579053     0.865787885254      -0.335624579053     0.127731199192      0.22366566171       
7900000000.0        0.12980115352       0.22586312208       0.863550263122      -0.339267260788     0.863550263122      -0.339267260788     0.12980115352       0.22586312208       
8000000000.0        0.131887636395      0.228038133102      0.861293903528      -0.342887861533     0.861293903528      -0.342887861533     0.131887636395      0.228038133102      
8100000000.0        0.13399035532       0.230190579238      0.859019095592      -0.346486270101     0.859019095592      -0.346486270101     0.13399035532       0.230190579238      
8200000000.0        0.136109017394      0.232320349558      0.856726128792      -0.350062379911     0.856726128792      -0.350062379911     0.136109017394      0.232320349558      
8300000000.0        0.138243329402      0.234427337718      0.854415292876      -0.353616088964     0.854415292876      -0.353616088964     0.138243329402      0.234427337718      
8400000000.0        0.140392997903      0.236511441941      0.852086877776      -0.357147299821     0.852086877776      -0.357147299821     0.140392997903      0.236511441941      
8500000000.0        0.142557729311      0.238572564991      0.849741173524      -0.360655919581     0.849741173524      -0.360655919581     0.142557729311      0.238572564991      
8600000000.0        0.144737229981      0.24061061415       0.847378470167      -0.364141859854     0.847378470167      -0.364141859854     0.144737229981      0.24061061415       
8700000000.0        0.146931206292      0.242625501187      0.844999057686      -0.367605036738     0.844999057686      -0.367605036738     0.146931206292      0.242625501187      
8800000000.0        0.149139364725      0.244617142334      0.842603225914      -0.371045370785     0.842603225914      -0.371045370785     0.149139364725      0.244617142334      
8900000000.0        0.151361411944      0.246585458254      0.840191264456      -0.374462786973     0.840191264456      -0.374462786973     0.151361411944      0.246585458254      
9000000000.0        0.153597054875      0.248530374011      0.837763462613      -0.37785721468      0.837763462613      -0.37785721468      0.153597054875      0.248530374011      
9100000000.0        0.15584600078       0.250451819039      0.835320109303      -0.381228587645     0.835320109303      -0.381228587645     0.15584600078       0.250451819039      
9200000000.0        0.158107957335      0.252349727102      0.832861492987      -0.384576843938     0.832861492987      -0.384576843938     0.158107957335      0.252349727102      
9300000000.0        0.160382632704      0.254224036268      0.830387901595      -0.387901925922     0.830387901595      -0.387901925922     0.160382632704      0.254224036268      
9400000000.0        0.162669735608      0.256074688865      0.827899622452      -0.391203780221     0.827899622452      -0.391203780221     0.162669735608      0.256074688865      
9500000000.0        0.164968975399      0.257901631451      0.825396942206      -0.394482357681     0.825396942206      -0.394482357681     0.164968975399      0.257901631451      
9600000000.0        0.167280062131      0.259704814767      0.822880146763      -0.397737613327     0.822880146763      -0.397737613327     0.167280062131      0.259704814767      
9700000000.0        0.169602706625      0.261484193705      0.820349521214      -0.400969506333     0.820349521214      -0.400969506333     0.169602706625      0.261484193705      
9800000000.0        0.171936620536      0.263239727263      0.817805349768      -0.40417799997      0.817805349768      -0.40417799997      0.171936620536      0.263239727263      
9900000000.0        0.174281516423      0.264971378505      0.815247915691      -0.407363061574     0.815247915691      -0.407363061574     0.174281516423      0.264971378505      
10000000000.0       0.176637107806      0.266679114519      0.812677501235      -0.410524662498     0.812677501235      -0.410524662498     0.176637107806      0.266679114519      
