# Hz S RI R 50.00 
100000000.0         0.00185730116014    9.14607863118e-05   0.998136564985      -0.00248037996429   0.998136564985      -0.00248037996429   0.00185730116014    9.14607863117e-05   
200000000.0         0.00186925893373    0.000182854102845   0.998113762688      -0.00496069708697   0.998113762688      -0.00496069708697   0.00186925893373    0.000182854102845   
300000000.0         0.00187840653016    0.000274199576361   0.998088059616      -0.00744097258525   0.998088059616      -0.00744097258525   0.00187840653016    0.000274199576361   
400000000.0         0.00188635388717    0.000365501040156   0.998057845482      -0.0099212085171    0.998057845482      -0.0099212085171    0.00188635388717    0.000365501040156   
500000000.0         0.00189372057188    0.000456758908663   0.998022500316      -0.0124014018253    0.998022500316      -0.0124014018253    0.00189372057188    0.000456758908663   
600000000.0         0.00190082227352    0.000547972185667   0.997981707983      -0.0148815469328    0.997981707983      -0.0148815469328    0.00190082227352    0.000547972185667   
700000000.0         0.00190784526342    0.000639139161808   0.997935281729      -0.0173616367386    0.997935281729      -0.0173616367386    0.00190784526342    0.000639139161808   
800000000.0         0.00191491004875    0.000730257727088   0.997883100529      -0.0198416631091    0.997883100529      -0.0198416631091    0.00191491004875    0.000730257727088   
900000000.0         0.00192209970621    0.000821325532417   0.997825080765      -0.0223216171578    0.997825080765      -0.0223216171578    0.00192209970621    0.000821325532417   
1000000000.0        0.00192947423977    0.000912340081718   0.997761161865      -0.0248014894202    0.997761161865      -0.0248014894202    0.00192947423977    0.000912340081718   
1100000000.0        0.00193707855967    0.00100329878802    0.99769129833       -0.0272812699705    0.99769129833       -0.0272812699705    0.00193707855967    0.00100329878802    
1200000000.0        0.00194494723572    0.00109419900927    0.997615454986      -0.0297609485045    0.997615454986      -0.0297609485045    0.00194494723572    0.00109419900927    
1300000000.0        0.00195310748695    0.00118503807214    0.997533603993      -0.0322405144       0.997533603993      -0.0322405144       0.00195310748694    0.00118503807214    
1400000000.0        0.00196158114633    0.00127581328838    0.997445722883      -0.0347199567623    0.997445722883      -0.0347199567623    0.00196158114633    0.00127581328838    
1500000000.0        0.00197038599919    0.00136652196616    0.997351793226      -0.0371992644603    0.997351793226      -0.0371992644603    0.00197038599919    0.00136652196616    
1600000000.0        0.00197953672311    0.00145716141833    0.997251799692      -0.0396784261545    0.997251799692      -0.0396784261545    0.00197953672311    0.00145716141833    
1700000000.0        0.00198904556503    0.00154772896821    0.997145729371      -0.0421574303199    0.997145729371      -0.0421574303199    0.00198904556503    0.00154772896821    
1800000000.0        0.00199892284017    0.00163822195385    0.997033571281      -0.0446362652649    0.997033571281      -0.0446362652649    0.00199892284017    0.00163822195385    
1900000000.0        0.00200917730674    0.00172863773126    0.996915315994      -0.0471149191472    0.996915315994      -0.0471149191472    0.00200917730674    0.00172863773126    
2000000000.0        0.00201981645214    0.00181897367663    0.996790955348      -0.0495933799869    0.996790955348      -0.0495933799869    0.00201981645214    0.00181897367663    
2100000000.0        0.00203084671506    0.00190922718803    0.996660482229      -0.0520716356777    0.996660482229      -0.0520716356777    0.00203084671506    0.00190922718803    
2200000000.0        0.00204227365994    0.00199939568668    0.996523890397      -0.0545496739971    0.996523890397      -0.0545496739971    0.00204227365994    0.00199939568668    
2300000000.0        0.00205410211592    0.00208947661774    0.996381174349      -0.0570274826144    0.996381174349      -0.0570274826144    0.00205410211592    0.00208947661774    
2400000000.0        0.00206633628856    0.00217946745095    0.996232329206      -0.0595050490987    0.996232329206      -0.0595050490987    0.00206633628856    0.00217946745095    
2500000000.0        0.00207897985056    0.00226936568102    0.996077350626      -0.0619823609247    0.996077350626      -0.0619823609247    0.00207897985056    0.00226936568102    
2600000000.0        0.00209203601626    0.00235916882787    0.995916234729      -0.0644594054794    0.995916234729      -0.0644594054794    0.00209203601626    0.00235916882787    
2700000000.0        0.00210550760315    0.0024488744367     0.995748978038      -0.0669361700666    0.995748978038      -0.0669361700666    0.00210550760315    0.0024488744367     
2800000000.0        0.00211939708317    0.00253848007805    0.995575577427      -0.0694126419119    0.995575577427      -0.0694126419119    0.00211939708317    0.00253848007805    
2900000000.0        0.00213370662566    0.0026279833477     0.99539603008       -0.0718888081669    0.99539603008       -0.0718888081669    0.00213370662566    0.0026279833477     
3000000000.0        0.00214843813377    0.00271738186658    0.995210333452      -0.0743646559129    0.995210333452      -0.0743646559129    0.00214843813377    0.00271738186658    
3100000000.0        0.00216359327532    0.00280667328057    0.995018485246      -0.0768401721644    0.995018485246      -0.0768401721644    0.00216359327532    0.00280667328057    
3200000000.0        0.00217917350913    0.00289585526031    0.99482048338       -0.0793153438725    0.99482048338       -0.0793153438725    0.00217917350913    0.00289585526031    
3300000000.0        0.00219518010776    0.00298492550094    0.994616325972      -0.0817901579273    0.994616325972      -0.0817901579273    0.00219518010776    0.00298492550094    
3400000000.0        0.00221161417704    0.00307388172191    0.994406011313      -0.0842646011611    0.994406011313      -0.0842646011611    0.00221161417704    0.00307388172191    
3500000000.0        0.00222847667307    0.00316272166664    0.994189537858      -0.0867386603505    0.994189537858      -0.0867386603505    0.00222847667307    0.00316272166664    
3600000000.0        0.002245768417      0.00325144310227    0.99396690421       -0.089212322219     0.99396690421       -0.089212322219     0.002245768417      0.00325144310227    
3700000000.0        0.00226349010799    0.00334004381936    0.993738109104      -0.0916855734389    0.993738109104      -0.0916855734389    0.00226349010799    0.00334004381936    
3800000000.0        0.00228164233457    0.0034285216316     0.9935031514        -0.0941584006332    0.9935031514        -0.0941584006332    0.00228164233457    0.0034285216316     
3900000000.0        0.00230022558467    0.00351687437549    0.993262030075      -0.0966307903776    0.993262030075      -0.0966307903776    0.00230022558468    0.00351687437549    
4000000000.0        0.0023192402545     0.00360509991005    0.993014744209      -0.0991027292023    0.993014744209      -0.0991027292023    0.0023192402545     0.00360509991005    
4100000000.0        0.0023386866564     0.00369319611651    0.992761292983      -0.101574203593     0.992761292983      -0.101574203593     0.0023386866564     0.00369319611651    
4200000000.0        0.00235856502588    0.00378116089801    0.99250167567       -0.104045199994     0.99250167567       -0.104045199994     0.00235856502588    0.00378116089801    
4300000000.0        0.00237887552788    0.0038689921793     0.99223589163       -0.106515704807     0.99223589163       -0.106515704807     0.00237887552788    0.0038689921793     
4400000000.0        0.00239961826239    0.00395668790639    0.991963940306      -0.108985704396     0.991963940306      -0.108985704396     0.00239961826239    0.00395668790639    
4500000000.0        0.00242079326947    0.00404424604632    0.991685821215      -0.111455185084     0.991685821215      -0.111455185084     0.00242079326947    0.00404424604632    
4600000000.0        0.00244240053384    0.00413166458683    0.991401533951      -0.113924133158     0.991401533951      -0.113924133158     0.00244240053384    0.00413166458683    
4700000000.0        0.00246443998893    0.00421894153606    0.991111078175      -0.116392534869     0.991111078175      -0.116392534869     0.00246443998893    0.00421894153606    
4800000000.0        0.00248691152063    0.00430607492225    0.990814453616      -0.118860376434     0.990814453616      -0.118860376434     0.00248691152063    0.00430607492225    
4900000000.0        0.00250981497068    0.00439306279349    0.990511660065      -0.121327644033     0.990511660065      -0.121327644033     0.00250981497068    0.00439306279349    
5000000000.0        0.0025331501397     0.00447990321741    0.990202697375      -0.123794323816     0.990202697375      -0.123794323816     0.0025331501397     0.00447990321741    
5100000000.0        0.00255691679       0.0045665942809     0.989887565457      -0.126260401899     0.989887565457      -0.126260401899     0.00255691679       0.0045665942809     
5200000000.0        0.00258111464814    0.00465313408984    0.989566264278      -0.128725864367     0.989566264278      -0.128725864367     0.00258111464814    0.00465313408984    
5300000000.0        0.00260574340727    0.00473952076884    0.989238793861      -0.131190697276     0.989238793861      -0.131190697276     0.00260574340727    0.00473952076884    
5400000000.0        0.00263080272929    0.00482575246094    0.988905154279      -0.13365488665      0.988905154279      -0.13365488665      0.00263080272929    0.00482575246094    
5500000000.0        0.00265629224677    0.0049118273274     0.988565345657      -0.136118418487     0.988565345657      -0.136118418487     0.00265629224677    0.0049118273274     
5600000000.0        0.00268221156484    0.00499774354738    0.988219368172      -0.138581278754     0.988219368172      -0.138581278754     0.00268221156484    0.00499774354738    
5700000000.0        0.0027085602628     0.00508349931773    0.987867222047      -0.141043453392     0.987867222047      -0.141043453392     0.0027085602628     0.00508349931773    
5800000000.0        0.00273533789569    0.00516909285272    0.987508907552      -0.143504928317     0.987508907552      -0.143504928317     0.00273533789569    0.00516909285272    
5900000000.0        0.00276254399573    0.00525452238379    0.987144425004      -0.145965689415     0.987144425004      -0.145965689415     0.00276254399573    0.00525452238379    
6000000000.0        0.00279017807364    0.00533978615932    0.986773774765      -0.148425722552     0.986773774765      -0.148425722552     0.00279017807364    0.00533978615932    
6100000000.0        0.00281823961987    0.00542488244437    0.986396957242      -0.150885013564     0.986396957242      -0.150885013564     0.00281823961987    0.00542488244437    
6200000000.0        0.00284672810573    0.00550980952046    0.986013972884      -0.153343548266     0.986013972884      -0.153343548266     0.00284672810573    0.00550980952046    
6300000000.0        0.0028756429845     0.00559456568534    0.985624822184      -0.155801312448     0.985624822184      -0.155801312448     0.0028756429845     0.00559456568534    
6400000000.0        0.00290498369236    0.00567914925274    0.985229505676      -0.158258291879     0.985229505676      -0.158258291879     0.00290498369236    0.00567914925274    
6500000000.0        0.00293474964938    0.00576355855216    0.984828023936      -0.160714472302     0.984828023936      -0.160714472302     0.00293474964938    0.00576355855216    
6600000000.0        0.00296494026034    0.00584779192865    0.984420377581      -0.163169839441     0.984420377581      -0.163169839441     0.00296494026034    0.00584779192865    
6700000000.0        0.00299555491557    0.00593184774258    0.984006567268      -0.165624378997     0.984006567268      -0.165624378997     0.00299555491557    0.00593184774258    
6800000000.0        0.0030265929917     0.00601572436943    0.983586593694      -0.168078076652     0.983586593694      -0.168078076652     0.0030265929917     0.00601572436943    
6900000000.0        0.00305805385239    0.00609942019957    0.983160457596      -0.170530918064     0.983160457596      -0.170530918064     0.00305805385239    0.00609942019957    
7000000000.0        0.00308993684896    0.00618293363807    0.982728159749      -0.172982888874     0.982728159749      -0.172982888874     0.00308993684896    0.00618293363807    
7100000000.0        0.00312224132108    0.00626626310445    0.982289700968      -0.175433974702     0.982289700968      -0.175433974702     0.00312224132108    0.00626626310445    
7200000000.0        0.00315496659732    0.00634940703255    0.981845082106      -0.17788416115      0.981845082106      -0.17788416115      0.00315496659732    0.00634940703255    
7300000000.0        0.00318811199571    0.00643236387025    0.981394304053      -0.180333433799     0.981394304053      -0.180333433799     0.00318811199571    0.00643236387025    
7400000000.0        0.00322167682431    0.00651513207931    0.980937367738      -0.182781778213     0.980937367738      -0.182781778213     0.00322167682431    0.00651513207931    
7500000000.0        0.00325566038164    0.00659771013517    0.980474274128      -0.185229179939     0.980474274128      -0.185229179939     0.00325566038164    0.00659771013517    
7600000000.0        0.00329006195725    0.00668009652676    0.980005024227      -0.187675624505     0.980005024227      -0.187675624505     0.00329006195725    0.00668009652676    
7700000000.0        0.00332488083205    0.00676228975631    0.979529619075      -0.190121097421     0.979529619075      -0.190121097421     0.00332488083205    0.00676228975631    
7800000000.0        0.00336011627884    0.00684428833915    0.979048059751      -0.192565584184     0.979048059751      -0.192565584184     0.00336011627884    0.00684428833915    
7900000000.0        0.00339576756265    0.00692609080354    0.97856034737       -0.19500907027      0.97856034737       -0.19500907027      0.00339576756265    0.00692609080354    
8000000000.0        0.00343183394111    0.00700769569045    0.978066483082      -0.197451541141     0.978066483082      -0.197451541141     0.00343183394111    0.00700769569045    
8100000000.0        0.00346831466488    0.00708910155345    0.977566468078      -0.199892982243     0.977566468078      -0.199892982243     0.00346831466488    0.00708910155345    
8200000000.0        0.00350520897791    0.00717030695847    0.97706030358       -0.202333379008     0.97706030358       -0.202333379008     0.00350520897791    0.00717030695847    
8300000000.0        0.00354251611783    0.00725131048362    0.976547990849      -0.204772716849     0.976547990849      -0.204772716849     0.00354251611783    0.00725131048362    
8400000000.0        0.00358023531624    0.00733211071908    0.976029531185      -0.207210981169     0.976029531185      -0.207210981169     0.00358023531624    0.00733211071908    
8500000000.0        0.00361836579899    0.00741270626685    0.975504925918      -0.209648157353     0.975504925918      -0.209648157353     0.00361836579899    0.00741270626685    
8600000000.0        0.00365690678647    0.00749309574064    0.97497417642       -0.212084230774     0.97497417642       -0.212084230774     0.00365690678647    0.00749309574064    
8700000000.0        0.00369585749391    0.00757327776565    0.974437284095      -0.214519186789     0.974437284095      -0.214519186789     0.00369585749391    0.00757327776565    
8800000000.0        0.0037352171316     0.00765325097847    0.973894250384      -0.216953010744     0.973894250384      -0.216953010744     0.0037352171316     0.00765325097847    
8900000000.0        0.00377498490513    0.00773301402684    0.973345076766      -0.21938568797      0.973345076766      -0.21938568797      0.00377498490513    0.00773301402684    
9000000000.0        0.00381516001568    0.00781256556955    0.972789764754      -0.221817203784     0.972789764754      -0.221817203784     0.00381516001568    0.00781256556955    
9100000000.0        0.00385574166016    0.00789190427624    0.972228315895      -0.224247543494     0.972228315895      -0.224247543494     0.00385574166016    0.00789190427624    
9200000000.0        0.00389672903151    0.00797102882726    0.971660731776      -0.226676692391     0.971660731776      -0.226676692391     0.00389672903151    0.00797102882726    
9300000000.0        0.00393812131883    0.0080499379135     0.971087014017      -0.229104635759     0.971087014017      -0.229104635759     0.00393812131883    0.0080499379135     
9400000000.0        0.00397991770765    0.00812863023626    0.970507164274      -0.231531358864     0.970507164274      -0.231531358864     0.00397991770765    0.00812863023626    
9500000000.0        0.00402211738004    0.00820710450707    0.969921184239      -0.233956846966     0.969921184239      -0.233956846966     0.00402211738004    0.00820710450707    
9600000000.0        0.00406471951485    0.00828535944755    0.96932907564       -0.23638108531      0.96932907564       -0.23638108531      0.00406471951485    0.00828535944755    
9700000000.0        0.00410772328787    0.00836339378926    0.968730840241      -0.238804059132     0.968730840241      -0.238804059132     0.00410772328787    0.00836339378926    
9800000000.0        0.00415112787196    0.00844120627354    0.96812647984       -0.241225753655     0.96812647984       -0.241225753655     0.00415112787196    0.00844120627354    
9900000000.0        0.00419493243726    0.00851879565137    0.967515996273      -0.243646154094     0.967515996273      -0.243646154094     0.00419493243726    0.00851879565137    
10000000000.0       0.00423913615131    0.00859616068325    0.966899391411      -0.246065245652     0.966899391411      -0.246065245652     0.00423913615131    0.00859616068325    
