# Hz S RI R 50.00 
100000000.0         0.0969628524311     0.00306235817629    0.90303402991       -0.00437381215307   0.90303402991       -0.00437381215307   0.0969628524311     0.00306235817629    
200000000.0         0.0975814400551     0.00611485155266    0.902411542303      -0.0087377684327    0.902411542303      -0.0087377684327    0.0975814400551     0.00611485155266    
300000000.0         0.0980719668787     0.00916104809203    0.901915332349      -0.013095445165     0.901915332349      -0.013095445165     0.0980719668787     0.00916104809203    
400000000.0         0.0985111796634     0.012201968181      0.90146865265       -0.0174478701645    0.90146865265       -0.0174478701645    0.0985111796634     0.012201968181      
500000000.0         0.0989286959518     0.0152380394468     0.901041885086      -0.0217954780188    0.901041885086      -0.0217954780188    0.0989286959518     0.0152380394468     
600000000.0         0.099339639782      0.0182694271791     0.900619905064      -0.026138440673     0.900619905064      -0.026138440673     0.099339639782      0.0182694271791     
700000000.0         0.0997529485245     0.0212961530788     0.90019377466       -0.0304767862626    0.90019377466       -0.0304767862626    0.0997529485245     0.0212961530788     
800000000.0         0.100174408024      0.0243181503799     0.899757707464      -0.0348104542849    0.899757707464      -0.0348104542849    0.100174408024      0.0243181503799     
900000000.0         0.100608005425      0.0273352934903     0.899307715753      -0.0391393252724    0.899307715753      -0.0391393252724    0.100608005425      0.0273352934903     
1000000000.0        0.101056615578      0.0303474155718     0.898840924075      -0.0434632383961    0.898840924075      -0.0434632383961    0.101056615578      0.0303474155718     
1100000000.0        0.101522382977      0.0333543197326     0.89835518731       -0.0477820026747    0.89835518731       -0.0477820026747    0.101522382977      0.0333543197326     
1200000000.0        0.102006949566      0.0363557865482     0.897848862864      -0.0520954045085    0.897848862864      -0.0520954045085    0.102006949566      0.0363557865482     
1300000000.0        0.10251159819       0.0393515793378     0.897320667207      -0.0564032129659    0.897320667207      -0.0564032129659    0.10251159819       0.0393515793378     
1400000000.0        0.103037346987      0.0423414479959     0.89676958149       -0.0607051836232    0.89676958149       -0.0607051836232    0.103037346987      0.0423414479959     
1500000000.0        0.103585013765      0.04532513186       0.896194787164      -0.0650010614388    0.896194787164      -0.0650010614388    0.103585013765      0.04532513186       
1600000000.0        0.104155261262      0.0483023619091     0.895595620715      -0.0692905829572    0.895595620715      -0.0692905829572    0.104155261262      0.0483023619091     
1700000000.0        0.104748629801      0.0512728624873     0.894971541012      -0.073573478038     0.894971541012      -0.073573478038     0.104748629801      0.0512728624873     
1800000000.0        0.10536556138       0.0542363526816     0.894322105216      -0.0778494712366    0.894322105216      -0.0778494712366    0.10536556138       0.0542363526816     
1900000000.0        0.10600641779       0.0571925474408     0.893646950659      -0.0821182829273    0.893646950659      -0.0821182829273    0.10600641779       0.0571925474408     
2000000000.0        0.106671494479      0.0601411584991     0.892945780985      -0.0863796302296    0.892945780985      -0.0863796302296    0.106671494479      0.0601411584991     
2100000000.0        0.107361031324      0.0630818951491     0.89221835537       -0.090633227784     0.89221835537       -0.090633227784     0.107361031324      0.0630818951491     
2200000000.0        0.10807522112       0.0660144648963     0.891464480041      -0.0948787884087    0.891464480041      -0.0948787884087    0.10807522112       0.0660144648963     
2300000000.0        0.108814216343      0.0689385740203     0.890684001509      -0.0991160236626    0.890684001509      -0.0991160236626    0.108814216343      0.0689385740203     
2400000000.0        0.109578134607      0.0718539280605     0.889876801106      -0.103344644334     0.889876801106      -0.103344644334     0.109578134607      0.0718539280605     
2500000000.0        0.110367063116      0.0747602322412     0.889042790543      -0.107564360865     0.889042790543      -0.107564360865     0.110367063116      0.0747602322412     
2600000000.0        0.111181062323      0.0776571918458     0.888181908247      -0.11177488373      0.888181908247      -0.11177488373      0.111181062323      0.0776571918458     
2700000000.0        0.112020168963      0.0805445125507     0.887294116325      -0.11597592377      0.887294116325      -0.11597592377      0.112020168963      0.0805445125507     
2800000000.0        0.112884398599      0.083421900723      0.886379398018      -0.120167192491     0.886379398018      -0.120167192491     0.112884398599      0.083421900723      
2900000000.0        0.113773747765      0.0862890636904     0.885437755565      -0.124348402333     0.885437755565      -0.124348402333     0.113773747765      0.0862890636904     
3000000000.0        0.114688195789      0.089145709985      0.88446920837       -0.12851926692      0.88446920837       -0.12851926692      0.114688195789      0.089145709985      
3100000000.0        0.115627706349      0.0919915495659     0.883473791454      -0.13267950128      0.883473791454      -0.13267950128      0.115627706349      0.0919915495659     
3200000000.0        0.11659222882       0.0948262940244     0.882451554103      -0.136828822051     0.882451554103      -0.136828822051     0.11659222882       0.0948262940244     
3300000000.0        0.117581699433      0.0976496567714     0.88140255871       -0.140966947671     0.88140255871       -0.140966947671     0.117581699433      0.0976496567714     
3400000000.0        0.118596042292      0.100461353212      0.880326879758      -0.145093598551     0.880326879758      -0.145093598551     0.118596042292      0.100461353212      
3500000000.0        0.119635170269      0.103261100907      0.879224602931      -0.149208497241     0.879224602931      -0.149208497241     0.119635170269      0.103261100907      
3600000000.0        0.12069898578       0.106048619724      0.878095824324      -0.153311368576     0.878095824324      -0.153311368576     0.12069898578       0.106048619724      
3700000000.0        0.121787381492      0.108823631977      0.87694064975       -0.157401939822     0.87694064975       -0.157401939822     0.121787381492      0.108823631977      
3800000000.0        0.122900240939      0.111585862558      0.875759194117      -0.161479940807     0.875759194117      -0.161479940807     0.122900240939      0.111585862558      
3900000000.0        0.124037439083      0.114335039063      0.874551580867      -0.165545104043     0.874551580867      -0.165545104043     0.124037439083      0.114335039063      
4000000000.0        0.125198842813      0.117070891905      0.87331794148       -0.169597164844     0.87331794148       -0.169597164844     0.125198842813      0.117070891905      
4100000000.0        0.126384311406      0.119793154426      0.872058415011      -0.173635861438     0.872058415011      -0.173635861438     0.126384311406      0.119793154426      
4200000000.0        0.127593696937      0.122501562995      0.870773147678      -0.177660935066     0.870773147678      -0.177660935066     0.127593696937      0.122501562995      
4300000000.0        0.12882684466       0.125195857114      0.869462292484      -0.181672130085     0.869462292484      -0.181672130085     0.12882684466       0.125195857114      
4400000000.0        0.130083593359      0.127875779502      0.868126008868      -0.185669194055     0.868126008868      -0.185669194055     0.130083593359      0.127875779502      
4500000000.0        0.131363775667      0.130541076185      0.866764462379      -0.18965187783      0.866764462379      -0.18965187783      0.131363775667      0.130541076185      
4600000000.0        0.132667218363      0.133191496576      0.865377824385      -0.193619935638     0.865377824385      -0.193619935638     0.132667218363      0.133191496576      
4700000000.0        0.133993742655      0.135826793557      0.863966271786      -0.19757312516      0.863966271786      -0.19757312516      0.133993742655      0.135826793557      
4800000000.0        0.135343164437      0.138446723545      0.862529986764      -0.201511207603     0.862529986764      -0.201511207603     0.135343164437      0.138446723545      
4900000000.0        0.136715294531      0.141051046569      0.861069156529      -0.205433947769     0.861069156529      -0.205433947769     0.136715294531      0.141051046569      
5000000000.0        0.138109938918      0.143639526327      0.859583973098      -0.209341114122     0.859583973098      -0.209341114122     0.138109938918      0.143639526327      
5100000000.0        0.139526898958      0.146211930255      0.858074633075      -0.213232478847     0.858074633075      -0.213232478847     0.139526898958      0.146211930255      
5200000000.0        0.14096597159       0.148768029579      0.856541337442      -0.21710781791      0.856541337442      -0.21710781791      0.14096597159       0.148768029579      
5300000000.0        0.142426949532      0.151307599373      0.854984291368      -0.220966911114     0.854984291368      -0.220966911114     0.142426949532      0.151307599373      
5400000000.0        0.143909621467      0.153830418606      0.85340370402       -0.224809542144     0.85340370402       -0.224809542144     0.143909621467      0.153830418606      
5500000000.0        0.145413772219      0.156336270195      0.851799788384      -0.228635498624     0.851799788384      -0.228635498624     0.145413772219      0.156336270195      
5600000000.0        0.146939182929      0.158824941046      0.850172761094      -0.232444572155     0.850172761094      -0.232444572155     0.146939182929      0.158824941046      
5700000000.0        0.148485631216      0.161296222094      0.848522842267      -0.236236558358     0.848522842267      -0.236236558358     0.148485631216      0.161296222094      
5800000000.0        0.15005289134       0.163749908348      0.846850255344      -0.240011256914     0.846850255344      -0.240011256914     0.15005289134       0.163749908348      
5900000000.0        0.151640734348      0.166185798918      0.845155226938      -0.243768471602     0.845155226938      -0.243768471602     0.151640734348      0.166185798918      
6000000000.0        0.153248928231      0.168603697056      0.843437986683      -0.247508010326     0.843437986683      -0.247508010326     0.153248928231      0.168603697056      
6100000000.0        0.154877238064      0.17100341018       0.84169876709       -0.251229685151     0.84169876709       -0.251229685151     0.154877238064      0.17100341018       
6200000000.0        0.156525426145      0.173384749906      0.83993780341       -0.254933312329     0.83993780341       -0.254933312329     0.156525426145      0.173384749906      
6300000000.0        0.158193252131      0.175747532069      0.838155333496      -0.25861871232      0.838155333496      -0.25861871232      0.158193252131      0.175747532069      
6400000000.0        0.159880473173      0.178091576747      0.836351597672      -0.262285709822     0.836351597672      -0.262285709822     0.159880473173      0.178091576747      
6500000000.0        0.161586844041      0.180416708281      0.8345268386        -0.265934133784     0.8345268386        -0.265934133784     0.161586844041      0.180416708281      
6600000000.0        0.163312117255      0.182722755293      0.832681301161      -0.269563817428     0.832681301161      -0.269563817428     0.163312117255      0.182722755293      
6700000000.0        0.165056043201      0.185009550697      0.830815232325      -0.273174598261     0.830815232325      -0.273174598261     0.165056043201      0.185009550697      
6800000000.0        0.166818370257      0.187276931718      0.828928881037      -0.276766318089     0.828928881037      -0.276766318089     0.166818370257      0.187276931718      
6900000000.0        0.168598844909      0.189524739895      0.827022498094      -0.280338823028     0.827022498094      -0.280338823028     0.168598844909      0.189524739895      
7000000000.0        0.170397211865      0.191752821095      0.825096336032      -0.283891963509     0.825096336032      -0.283891963509     0.170397211865      0.191752821095      
7100000000.0        0.172213214168      0.193961025514      0.823150649016      -0.28742559429      0.823150649016      -0.28742559429      0.172213214168      0.193961025514      
7200000000.0        0.174046593307      0.196149207685      0.821185692723      -0.290939574453     0.821185692723      -0.290939574453     0.174046593307      0.196149207685      
7300000000.0        0.175897089327      0.198317226475      0.819201724241      -0.294433767409     0.819201724241      -0.294433767409     0.175897089327      0.198317226475      
7400000000.0        0.177764440931      0.200464945088      0.817199001956      -0.297908040897     0.817199001956      -0.297908040897     0.177764440931      0.200464945088      
7500000000.0        0.179648385588      0.202592231062      0.815177785452      -0.301362266983     0.815177785452      -0.301362266983     0.179648385588      0.202592231062      
7600000000.0        0.181548659635      0.204698956262      0.813138335408      -0.304796322053     0.813138335408      -0.304796322053     0.181548659635      0.204698956262      
7700000000.0        0.183464998376      0.206784996874      0.811080913495      -0.308210086807     0.811080913495      -0.308210086807     0.183464998376      0.206784996874      
7800000000.0        0.18539713618       0.2088502334        0.809005782281      -0.311603446253     0.809005782281      -0.311603446253     0.18539713618       0.2088502334        
7900000000.0        0.187344806581      0.210894550643      0.806913205128      -0.314976289694     0.806913205128      -0.314976289694     0.187344806581      0.210894550643      
8000000000.0        0.18930774237       0.212917837699      0.804803446107      -0.318328510716     0.804803446107      -0.318328510716     0.18930774237       0.212917837699      
8100000000.0        0.19128567569       0.214919987941      0.802676769893      -0.321660007179     0.802676769893      -0.321660007179     0.19128567569       0.214919987941      
8200000000.0        0.193278338127      0.216900899002      0.800533441683      -0.324970681196     0.800533441683      -0.324970681196     0.193278338127      0.216900899002      
8300000000.0        0.195285460799      0.218860472761      0.798373727099      -0.328260439116     0.798373727099      -0.328260439116     0.195285460799      0.218860472761      
8400000000.0        0.197306774446      0.220798615324      0.796197892103      -0.331529191511     0.796197892103      -0.331529191511     0.197306774446      0.220798615324      
8500000000.0        0.199342009518      0.222715237         0.794006202912      -0.33477685315      0.794006202912      -0.33477685315      0.199342009518      0.222715237         
8600000000.0        0.201390896253      0.224610252283      0.791798925906      -0.338003342978     0.791798925906      -0.338003342978     0.201390896253      0.224610252283      
8700000000.0        0.203453164771      0.226483579826      0.789576327555      -0.341208584095     0.789576327555      -0.341208584095     0.203453164771      0.226483579826      
8800000000.0        0.205528545145      0.228335142417      0.787338674326      -0.344392503729     0.787338674326      -0.344392503729     0.205528545145      0.228335142417      
8900000000.0        0.207616767491      0.230164866953      0.785086232611      -0.347555033212     0.785086232611      -0.347555033212     0.207616767491      0.230164866953      
9000000000.0        0.209717562039      0.231972684413      0.782819268645      -0.350696107949     0.782819268645      -0.350696107949     0.209717562039      0.231972684413      
9100000000.0        0.211830659213      0.233758529825      0.780538048426      -0.353815667392     0.780538048426      -0.353815667392     0.211830659213      0.233758529825      
9200000000.0        0.213955789708      0.235522342243      0.778242837646      -0.356913655007     0.778242837646      -0.356913655007     0.213955789708      0.235522342243      
9300000000.0        0.216092684563      0.237264064706      0.775933901611      -0.359990018247     0.775933901611      -0.359990018247     0.216092684563      0.237264064706      
9400000000.0        0.218241075231      0.238983644215      0.773611505173      -0.363044708515     0.773611505173      -0.363044708515     0.218241075231      0.238983644215      
9500000000.0        0.220400693654      0.240681031692      0.771275912654      -0.366077681132     0.771275912654      -0.366077681132     0.220400693654      0.240681031692      
9600000000.0        0.222571272327      0.242356181947      0.768927387782      -0.369088895301     0.768927387782      -0.369088895301     0.222571272327      0.242356181947      
9700000000.0        0.224752544372      0.244009053645      0.766566193619      -0.372078314073     0.766566193619      -0.372078314073     0.224752544372      0.244009053645      
9800000000.0        0.2269442436        0.245639609263      0.764192592497      -0.375045904308     0.764192592497      -0.375045904308     0.2269442436        0.245639609263      
9900000000.0        0.229146104576      0.247247815058      0.761806845952      -0.377991636637     0.761806845952      -0.377991636637     0.229146104576      0.247247815058      
10000000000.0       0.231357862685      0.248833641025      0.75940921466       -0.380915485426     0.75940921466       -0.380915485426     0.231357862685      0.248833641025      
