# Hz S RI R 50.00 
100000000.0         -0.0144253031317    -0.118760273088     0.985529390434      -0.118896643049     0.985529390434      -0.118896643049     -0.0144253031317    -0.118760273088     
200000000.0         -0.0551434665183    -0.227668521992     0.944810888646      -0.227941286897     0.944810888646      -0.227941286897     -0.0551434665183    -0.227668521992     
300000000.0         -0.115934055175     -0.319468834268     0.884020020301      -0.319878032914     0.884020020301      -0.319878032914     -0.115934055175     -0.319468834268     
400000000.0         -0.188934111763     -0.390701461814     0.8110197038        -0.391247143937     0.8110197038        -0.391247143937     -0.188934111763     -0.390701461814     
500000000.0         -0.266737323214     -0.441424307053     0.733216237279      -0.442106531804     0.733216237279      -0.442106531804     -0.266737323214     -0.441424307053     
600000000.0         -0.343653642726     -0.474024253557     0.656299659948      -0.474843088453     0.656299659948      -0.474843088453     -0.343653642726     -0.474024253557     
700000000.0         -0.41601792817      -0.491921148374     0.583935109459      -0.492876668494     0.583935109459      -0.492876668494     -0.41601792817      -0.491921148374     
800000000.0         -0.481901915149     -0.498624947323     0.518050847307      -0.499717234645     0.518050847307      -0.499717234645     -0.481901915149     -0.498624947323     
900000000.0         -0.540617226286     -0.497228404914     0.459335248859      -0.498457547759     0.459335248859      -0.498457547759     -0.540617226286     -0.497228404914     
1000000000.0        -0.592245692807     -0.490226444601     0.407706481429      -0.491592537149     0.407706481429      -0.491592537149     -0.592245692807     -0.490226444601     
1100000000.0        -0.637285705894     -0.479521329938     0.362666152729      -0.481024471795     0.362666152729      -0.481024471795     -0.637285705894     -0.479521329938     
1200000000.0        -0.676419425015     -0.466508682252     0.32353210243       -0.468148978065     0.32353210243       -0.468148978065     -0.676419425015     -0.466508682252     
1300000000.0        -0.710374312514     -0.45218394126      0.289576867497      -0.453961500372     0.289576867497      -0.453961500372     -0.710374312514     -0.45218394126      
1400000000.0        -0.739848567165     -0.437241048909     0.260102248588      -0.439155985039     0.260102248588      -0.439155985039     -0.739848567165     -0.437241048909     
1500000000.0        -0.765476089591     -0.422153523766     0.23447434461       -0.424205954723     0.23447434461       -0.424205954723     -0.765476089591     -0.422153523766     
1600000000.0        -0.787814207        -0.407236939171     0.21213582795       -0.409426986587     0.21213582795       -0.409426986587     -0.787814207        -0.407236939171     
1700000000.0        -0.807343575676     -0.392695299969     0.192606041976      -0.395023089055     0.192606041976      -0.395023089055     -0.807343575676     -0.392695299969     
1800000000.0        -0.824473978816     -0.378654683624     0.175475203188      -0.381120342947     0.175475203188      -0.381120342947     -0.824473978816     -0.378654683624     
1900000000.0        -0.839552477545     -0.365187290233     0.16039625019       -0.367790951511     0.16039625019       -0.367790951511     -0.839552477545     -0.365187290233     
2000000000.0        -0.852872026095     -0.352328473821     0.147076228507      -0.355070271731     0.147076228507      -0.355070271731     -0.852872026095     -0.352328473821     
2100000000.0        -0.864679618925     -0.34008872539      0.135268143461      -0.342968797395     0.135268143461      -0.342968797395     -0.864679618925     -0.34008872539      
2200000000.0        -0.875183570515     -0.328462062796     0.124763680369      -0.331480548987     0.124763680369      -0.331480548987     -0.875183570515     -0.328462062796     
2300000000.0        -0.884559812772     -0.317431879042     0.115386907141      -0.320588921987     0.115386907141      -0.320588921987     -0.884559812772     -0.317431879042     
2400000000.0        -0.892957237328     -0.30697499937      0.106988931968      -0.310270743983     0.106988931968      -0.310270743983     -0.892957237328     -0.30697499937      
2500000000.0        -0.900502173851     -0.297064478668     0.0994434250225     -0.300499072082     0.0994434250225     -0.300499072082     -0.900502173851     -0.297064478668     
2600000000.0        -0.90730211732      -0.287671514205     0.0926428911707     -0.29124510566      0.0926428911707     -0.29124510566      -0.90730211732      -0.287671514205     
2700000000.0        -0.913448817856     -0.27876673782      0.0864955801482     -0.282479478565     0.0864955801482     -0.282479478565     -0.913448817856     -0.27876673782      
2800000000.0        -0.919020837334     -0.270321073505     0.0809229299399     -0.274173116698     0.0809229299399     -0.274173116698     -0.919020837334     -0.270321073505     
2900000000.0        -0.924085664043     -0.26230629131      0.0758574521238     -0.266297791938     0.0758574521238     -0.266297791938     -0.924085664043     -0.26230629131      
3000000000.0        -0.928701462969     -0.254695349853     0.0712409815856     -0.258826464655     0.0712409815856     -0.258826464655     -0.928701462969     -0.254695349853     
3100000000.0        -0.932918526563     -0.247462592482     0.0670232257509     -0.251733479881     0.0670232257509     -0.251733479881     -0.932918526563     -0.247462592482     
3200000000.0        -0.936780479602     -0.240583842981     0.0631605597213     -0.244994663023     0.0631605597213     -0.244994663023     -0.936780479602     -0.240583842981     
3300000000.0        -0.940325282166     -0.234036433178     0.0596150232998     -0.238587347478     0.0596150232998     -0.238587347478     -0.940325282166     -0.234036433178     
3400000000.0        -0.943586066718     -0.227799185243     0.0563534839083     -0.232490356936     0.0563534839083     -0.232490356936     -0.943586066718     -0.227799185243     
3500000000.0        -0.94659183867      -0.221852364693     0.0533469360222     -0.226683958394     0.0533469360222     -0.226683958394     -0.94659183867      -0.221852364693     
3600000000.0        -0.949368064387     -0.216177615313     0.0505699131659     -0.221149797081     0.0505699131659     -0.221149797081     -0.949368064387     -0.216177615313     
3700000000.0        -0.951937166173     -0.210757883793     0.0479999929277     -0.215870821099     0.0479999929277     -0.215870821099     -0.951937166173     -0.210757883793     
3800000000.0        -0.95431894019      -0.205577339453     0.045617379036      -0.210831201155     0.045617379036      -0.210831201155     -0.95431894019      -0.205577339453     
3900000000.0        -0.956530910377     -0.200621292708     0.0434045474463     -0.20601624903      0.0434045474463     -0.20601624903      -0.956530910377     -0.200621292708     
4000000000.0        -0.958588629042     -0.195876114724     0.0413459457443     -0.201412337237     0.0413459457443     -0.201412337237     -0.958588629042     -0.195876114724     
4100000000.0        -0.960505932928     -0.191329159812     0.0394277370836     -0.197006821423     0.0394277370836     -0.197006821423     -0.960505932928     -0.191329159812     
4200000000.0        -0.962295161964     -0.186968691557     0.0376375814291     -0.192787966501     0.0376375814291     -0.192787966501     -0.962295161964     -0.186968691557     
4300000000.0        -0.963967346691     -0.182783813207     0.0359644481377     -0.188744877037     0.0359644481377     -0.188744877037     -0.963967346691     -0.182783813207     
4400000000.0        -0.965532369273     -0.178764402581     0.0343984549418     -0.184867432166     0.0343984549418     -0.184867432166     -0.965532369273     -0.178764402581     
4500000000.0        -0.96699910221      -0.174901051541     0.0329307292373     -0.181146225073     0.0329307292373     -0.181146225073     -0.96699910221      -0.174901051541     
4600000000.0        -0.968375528153     -0.171185009966     0.0315532882691     -0.177572506954     0.0315532882691     -0.177572506954     -0.968375528153     -0.171185009966     
4700000000.0        -0.969668843668     -0.167608134032     0.0302589353706     -0.174138135313     0.0302589353706     -0.174138135313     -0.969668843668     -0.167608134032     
4800000000.0        -0.970885549312     -0.164162838603     0.0290411698783     -0.170835526348     0.0290411698783     -0.170835526348     -0.970885549312     -0.164162838603     
4900000000.0        -0.972031528049     -0.160842053474     0.0278941087266     -0.167657611198     0.0278941087266     -0.167657611198     -0.972031528049     -0.160842053474     
5000000000.0        -0.973112113645     -0.157639183204     0.0268124180453     -0.164597795782     0.0268124180453     -0.164597795782     -0.973112113645     -0.157639183204     
5100000000.0        -0.974132150486     -0.154548070286     0.0257912533429     -0.161649923961     0.0257912533429     -0.161649923961     -0.974132150486     -0.154548070286     
5200000000.0        -0.975096046006     -0.151562961377     0.0248262070806     -0.158808243779     0.0248262070806     -0.158808243779     -0.975096046006     -0.151562961377     
5300000000.0        -0.976007816737     -0.148678476364     0.0239132626219     -0.15606737653      0.0239132626219     -0.15606737653      -0.976007816737     -0.148678476364     
5400000000.0        -0.976871128844     -0.145889580018     0.0230487536951     -0.153422288405     0.0230487536951     -0.153422288405     -0.976871128844     -0.145889580018     
5500000000.0        -0.977689333885     -0.143191556015     0.0222293286351     -0.150868264525     0.0222293286351     -0.150868264525     -0.977689333885     -0.143191556015     
5600000000.0        -0.978465500417     -0.140579983135     0.0214519187766     -0.148400885134     0.0214519187766     -0.148400885134     -0.978465500417     -0.140579983135     
5700000000.0        -0.979202441991     -0.138050713436     0.0207137104615     -0.146016003776     0.0207137104615     -0.146016003776     -0.979202441991     -0.138050713436     
5800000000.0        -0.979902741987     -0.13559985223      0.0200121201999     -0.143709727274     0.0200121201999     -0.143709727274     -0.979902741987     -0.13559985223      
5900000000.0        -0.980568775699     -0.133223739721     0.0193447725881     -0.141478397367     0.0193447725881     -0.141478397367     -0.980568775699     -0.133223739721     
6000000000.0        -0.981202729998     -0.130918934136     0.0187094806422     -0.139318573841     0.0187094806422     -0.139318573841     -0.981202729998     -0.130918934136     
6100000000.0        -0.981806620884     -0.128682196228     0.0181042282519     -0.137227019036     0.0181042282519     -0.137227019036     -0.981806620884     -0.128682196228     
6200000000.0        -0.982382309159     -0.126510475034     0.0175271544993     -0.1352006836       0.0175271544993     -0.1352006836       -0.982382309159     -0.126510475034     
6300000000.0        -0.982931514475     -0.124400894769     0.016976539621      -0.13323669339      0.016976539621      -0.13323669339      -0.982931514475     -0.124400894769     
6400000000.0        -0.98345582791      -0.122350742765     0.0164507924203     -0.131332337403     0.0164507924203     -0.131332337403     -0.98345582791      -0.122350742765     
6500000000.0        -0.983956723284     -0.120357458357     0.015948438963      -0.129485056672     0.015948438963      -0.129485056672     -0.983956723284     -0.120357458357     
6600000000.0        -0.984435567316     -0.118418622637     0.0154681124092     -0.127692434013     0.0154681124092     -0.127692434013     -0.984435567316     -0.118418622637     
6700000000.0        -0.984893628793     -0.116531949004     0.0150085438539     -0.125952184577     0.0150085438539     -0.125952184577     -0.984893628793     -0.116531949004     
6800000000.0        -0.985332086826     -0.114695274433     0.0145685540636     -0.124262147124     0.0145685540636     -0.124262147124     -0.985332086826     -0.114695274433     
6900000000.0        -0.985752038322     -0.112906551415     0.0141470460112     -0.122620275958     0.0141470460112     -0.122620275958     -0.985752038322     -0.112906551415     
7000000000.0        -0.98615450473      -0.111163840496     0.0137429981229     -0.121024633469     0.0137429981229     -0.121024633469     -0.98615450473      -0.111163840496     
7100000000.0        -0.986540438162     -0.109465303382     0.0133554581599     -0.119473383233     0.0133554581599     -0.119473383233     -0.986540438162     -0.109465303382     
7200000000.0        -0.986910726947     -0.107809196541     0.0129835376692     -0.117964783626     0.0129835376692     -0.117964783626     -0.986910726947     -0.107809196541     
7300000000.0        -0.987266200662     -0.106193865285     0.0126264069431     -0.116497181892     0.0126264069431     -0.116497181892     -0.987266200662     -0.106193865285     
7400000000.0        -0.987607634723     -0.104617738274     0.0122832904355     -0.115069008658     0.0122832904355     -0.115069008658     -0.987607634723     -0.104617738274     
7500000000.0        -0.987935754558     -0.103079322414     0.0119534625888     -0.113678772827     0.0119534625888     -0.113678772827     -0.987935754558     -0.103079322414     
7600000000.0        -0.988251239406     -0.101577198127     0.0116362440289     -0.112325056848     0.0116362440289     -0.112325056848     -0.988251239406     -0.101577198127     
7700000000.0        -0.988554725795     -0.100110014939     0.0113309980932     -0.111006512306     0.0113309980932     -0.111006512306     -0.988554725795     -0.100110014939     
7800000000.0        -0.988846810712     -0.0986764873893    0.0110371276583     -0.10972185583      0.0110371276583     -0.10972185583      -0.988846810712     -0.0986764873893    
7900000000.0        -0.989128054504     -0.0972753912126    0.0107540722377     -0.108469865278     0.0107540722377     -0.108469865278     -0.989128054504     -0.0972753912126    
8000000000.0        -0.989398983538     -0.0959055597896    0.0104813053248     -0.107249376183     0.0104813053248     -0.107249376183     -0.989398983538     -0.0959055597896    
8100000000.0        -0.989660092634     -0.0945658808331    0.0102183319567     -0.106059278442     0.0102183319567     -0.106059278442     -0.989660092634     -0.0945658808331    
8200000000.0        -0.989911847303     -0.0932552932979    0.00996468647924    -0.104898513228     0.00996468647924    -0.104898513228     -0.989911847303     -0.0932552932979    
8300000000.0        -0.990154685796     -0.0919727844965    0.00971993049365    -0.103766070099     0.00971993049365    -0.103766070099     -0.990154685796     -0.0919727844965    
8400000000.0        -0.990389020997     -0.0907173874037    0.00948365096877    -0.10266098431      0.00948365096877    -0.10266098431      -0.990389020997     -0.0907173874037    
8500000000.0        -0.990615242157     -0.0894881781381    0.00925545850361    -0.10158233429      0.00925545850361    -0.10158233429      -0.990615242157     -0.0894881781381    
8600000000.0        -0.990833716495     -0.0882842736045    0.00903498572674    -0.100529239288     0.00903498572674    -0.100529239288     -0.990833716495     -0.0882842736045    
8700000000.0        -0.991044790675     -0.0871048292892    0.00882188582044    -0.0995008571631    0.00882188582044    -0.0995008571631    -0.991044790675     -0.0871048292892    
8800000000.0        -0.991248792166     -0.0859490371929    0.00861583115858    -0.0984963823222    0.00861583115858    -0.0984963823222    -0.991248792166     -0.0859490371929    
8900000000.0        -0.991446030502     -0.0848161238949    0.00841651204839    -0.0975150437823    0.00841651204839    -0.0975150437823    -0.991446030502     -0.0848161238949    
9000000000.0        -0.991636798446     -0.0837053487371    0.00822363556724    -0.0965561033542    0.00822363556724    -0.0965561033542    -0.991636798446     -0.0837053487371    
9100000000.0        -0.991821373064     -0.0826160021196    0.00803692448622    -0.0956188539389    0.00803692448622    -0.0956188539389    -0.991821373064     -0.0826160021196    
9200000000.0        -0.992000016722     -0.0815474039009    0.0078561162733     -0.0947026179276    0.0078561162733     -0.0947026179276    -0.992000016722     -0.0815474039009    
9300000000.0        -0.992172978013     -0.0804989018946    0.00768096216944    -0.093806745698     0.00768096216944    -0.093806745698     -0.992172978013     -0.0804989018946    
9400000000.0        -0.992340492609     -0.0794698704562    0.00751122633157    -0.0929306142015    0.00751122633157    -0.0929306142015    -0.992340492609     -0.0794698704562    
9500000000.0        -0.99250278406      -0.0784597091539    0.007346685037      -0.0920736256341    0.007346685037      -0.0920736256341    -0.99250278406      -0.0784597091539    
9600000000.0        -0.992660064535     -0.0774678415176    0.00718712594435    -0.091235206185     0.00718712594435    -0.091235206185     -0.992660064535     -0.0774678415176    
9700000000.0        -0.992812535503     -0.0764937138612    0.00703234740638    -0.0904148048594    0.00703234740638    -0.0904148048594    -0.992812535503     -0.0764937138612    
9800000000.0        -0.992960388377     -0.0755367941723    0.00688215783061    -0.0896118923678    0.00688215783061    -0.0896118923678    -0.992960388377     -0.0755367941723    
9900000000.0        -0.993103805109     -0.0745965710664    0.00673637508411    -0.0888259600805    0.00673637508411    -0.0888259600805    -0.993103805109     -0.0745965710664    
10000000000.0       -0.993242958742     -0.0736725527995    0.00659482593877    -0.0880565190406    0.00659482593877    -0.0880565190406    -0.993242958742     -0.0736725527995    
