# Hz S RI R 50.00 
100000000.0         0.100261486804      0.00322553249144    0.899733996938      -0.00508991025961   0.899733996938      -0.00508991025961   0.100261486804      0.00322553249144    
200000000.0         0.100909018265      0.00643952297927    0.899079342451      -0.0101682812823    0.899079342451      -0.0101682812823    0.100909018265      0.00643952297927    
300000000.0         0.101431108246      0.0096460044186     0.898546521002      -0.0152391544431    0.898546521002      -0.0152391544431    0.101431108246      0.0096460044186     
400000000.0         0.101906734016      0.0128460624119     0.898056554031      -0.0203036235276    0.898056554031      -0.0203036235276    0.101906734016      0.0128460624119     
500000000.0         0.102366344803      0.0160400979842     0.897578991141      -0.0253620976251    0.897578991141      -0.0253620976251    0.102366344803      0.0160400979842     
600000000.0         0.102825469394      0.0192282097686     0.897098302406      -0.0304146833541    0.897098302406      -0.0304146833541    0.102825469394      0.0192282097686     
700000000.0         0.103293268266      0.0224103312976     0.896605326208      -0.0354613221755    0.896605326208      -0.0354613221755    0.103293268266      0.0224103312976     
800000000.0         0.103775657605      0.0255862947187     0.896094145184      -0.0405018541204    0.896094145184      -0.0405018541204    0.103775657605      0.0255862947187     
900000000.0         0.104276701422      0.0287558650592     0.895560694098      -0.0455360520634    0.895560694098      -0.0455360520634    0.104276701422      0.0287558650592     
1000000000.0        0.104799317727      0.0319187605579     0.895002053653      -0.0505636420599    0.895002053653      -0.0505636420599    0.104799317727      0.0319187605579     
1100000000.0        0.105345671379      0.0350746656211     0.894416057638      -0.0555843163061    0.894416057638      -0.0555843163061    0.105345671379      0.0350746656211     
1200000000.0        0.105917408349      0.0382232395403     0.893801058657      -0.0605977418604    0.893801058657      -0.0605977418604    0.105917408349      0.0382232395403     
1300000000.0        0.106515803207      0.0413641226208     0.893155780636      -0.065603566774     0.893155780636      -0.065603566774     0.106515803207      0.0413641226208     
1400000000.0        0.107141856157      0.0444969406437     0.892479221786      -0.0706014245551    0.892479221786      -0.0706014245551    0.107141856157      0.0444969406437     
1500000000.0        0.1077963592        0.0476213082164     0.891770588436      -0.075590937521     0.891770588436      -0.075590937521     0.1077963592        0.0476213082164     
1600000000.0        0.108479942662      0.0507368313515     0.891029248506      -0.080571719378     0.891029248506      -0.080571719378     0.108479942662      0.0507368313515     
1700000000.0        0.10919310875       0.0538431094985     0.890254697943      -0.0855433772548    0.890254697943      -0.0855433772548    0.10919310875       0.0538431094985     
1800000000.0        0.109936256318      0.0569397371761     0.889446535958      -0.0905055133347    0.889446535958      -0.0905055133347    0.109936256318      0.0569397371761     
1900000000.0        0.110709699495      0.0600263053059     0.888604446397      -0.0954577261911    0.888604446397      -0.0954577261911    0.110709699495      0.0600263053059     
2000000000.0        0.11151368195       0.0631024023215     0.887728183472      -0.100399611897     0.887728183472      -0.100399611897     0.11151368195       0.0631024023215     
2100000000.0        0.112348387974      0.0661676151019     0.886817560678      -0.105330764957     0.886817560678      -0.105330764957     0.112348387974      0.0661676151019     
2200000000.0        0.11321395123       0.0692215297692     0.885872442045      -0.110250779109     0.885872442045      -0.110250779109     0.11321395123       0.0692215297692     
2300000000.0        0.114110461725      0.0722637323768     0.884892735164      -0.115159248011     0.884892735164      -0.115159248011     0.114110461725      0.0722637323768     
2400000000.0        0.115037971452      0.0752938095107     0.883878385541      -0.120055765841     0.883878385541      -0.120055765841     0.115037971452      0.0752938095107     
2500000000.0        0.11599649899       0.0783113488192     0.882829372001      -0.12493992783      0.882829372001      -0.12493992783      0.11599649899       0.0783113488192     
2600000000.0        0.116986033301      0.081315939484      0.881745702887      -0.12981133073      0.881745702887      -0.12981133073      0.116986033301      0.081315939484      
2700000000.0        0.118006536888      0.084307172642      0.880627412905      -0.13466957324      0.880627412905      -0.13466957324      0.118006536888      0.084307172642      
2800000000.0        0.119057948448      0.0872846417666     0.879474560466      -0.139514256385     0.879474560466      -0.139514256385     0.119057948448      0.0872846417666     
2900000000.0        0.120140185117      0.0902479430133     0.878287225443      -0.144344983862     0.878287225443      -0.144344983862     0.120140185117      0.0902479430133     
3000000000.0        0.121253144389      0.0931966755357     0.877065507254      -0.149161362354     0.877065507254      -0.149161362354     0.121253144389      0.0931966755357     
3100000000.0        0.12239670576       0.0961304417757     0.87580952321       -0.153963001826     0.87580952321       -0.153963001826     0.12239670576       0.0961304417757     
3200000000.0        0.123570732163      0.0990488477301     0.874519407089      -0.158749515787     0.874519407089      -0.158749515787     0.123570732163      0.0990488477301     
3300000000.0        0.124775071209      0.101951503198      0.873195307891      -0.163520521536     0.873195307891      -0.163520521536     0.124775071209      0.101951503198      
3400000000.0        0.126009556282      0.104838022013      0.871837388736      -0.1682756404       0.871837388736      -0.1682756404       0.126009556282      0.104838022013      
3500000000.0        0.12727400751       0.10770802225       0.870445825905      -0.173014497938     0.870445825905      -0.173014497938     0.12727400751       0.10770802225       
3600000000.0        0.128568232625      0.110561126434      0.869020807968      -0.177736724145     0.869020807968      -0.177736724145     0.128568232625      0.110561126434      
3700000000.0        0.129892027737      0.113396961719      0.867562535018      -0.18244195364      0.867562535018      -0.18244195364      0.129892027737      0.113396961719      
3800000000.0        0.131245178027      0.116215160065      0.866071217973      -0.187129825836     0.866071217973      -0.187129825836     0.131245178027      0.116215160065      
3900000000.0        0.132627458382      0.119015358403      0.864547077944      -0.191799985108     0.864547077944      -0.191799985108     0.132627458382      0.119015358403      
4000000000.0        0.134038633968      0.121797198787      0.862990345659      -0.196452080944     0.862990345659      -0.196452080944     0.134038633968      0.121797198787      
4100000000.0        0.135478460756      0.124560328538      0.861401260934      -0.201085768088     0.861401260934      -0.201085768088     0.135478460756      0.124560328538      
4200000000.0        0.136946686016      0.127304400378      0.859780072189      -0.205700706677     0.859780072189      -0.205700706677     0.136946686016      0.127304400378      
4300000000.0        0.138443048757      0.13002907256       0.858127035996      -0.210296562369     0.858127035996      -0.210296562369     0.138443048757      0.13002907256       
4400000000.0        0.139967280157      0.132734008984      0.856442416656      -0.214873006457     0.856442416656      -0.214873006457     0.139967280157      0.132734008984      
4500000000.0        0.141519103948      0.13541887931       0.85472648581       -0.219429715985     0.85472648581       -0.219429715985     0.141519103948      0.13541887931       
4600000000.0        0.143098236791      0.138083359062      0.852979522068      -0.22396637385      0.852979522068      -0.22396637385      0.143098236791      0.138083359062      
4700000000.0        0.144704388619      0.140727129724      0.851201810658      -0.2284826689       0.851201810658      -0.2284826689       0.144704388619      0.140727129724      
4800000000.0        0.14633726297       0.143349878832      0.849393643103      -0.232978296024     0.849393643103      -0.232978296024     0.14633726297       0.143349878832      
4900000000.0        0.1479965573        0.14595130006       0.847555316899      -0.237452956237     0.847555316899      -0.237452956237     0.1479965573        0.14595130006       
5000000000.0        0.149681963281      0.148531093295      0.845687135221      -0.241906356759     0.845687135221      -0.241906356759     0.149681963281      0.148531093295      
5100000000.0        0.151393167087      0.151088964713      0.843789406636      -0.246338211085     0.843789406636      -0.246338211085     0.151393167087      0.151088964713      
5200000000.0        0.153129849669      0.153624626843      0.841862444828      -0.250748239054     0.841862444828      -0.250748239054     0.153129849669      0.153624626843      
5300000000.0        0.154891687018      0.15613779863       0.839906568331      -0.25513616691      0.839906568331      -0.25513616691      0.154891687018      0.15613779863       
5400000000.0        0.156678350422      0.158628205489      0.837922100279      -0.259501727356     0.837922100279      -0.259501727356     0.156678350422      0.158628205489      
5500000000.0        0.158489506709      0.16109557936       0.835909368157      -0.263844659606     0.835909368157      -0.263844659606     0.158489506709      0.16109557936       
5600000000.0        0.160324818485      0.163539658747      0.833868703564      -0.26816470943      0.833868703564      -0.26816470943      0.160324818485      0.163539658747      
5700000000.0        0.16218394437       0.165960188762      0.831800441977      -0.272461629192     0.831800441977      -0.272461629192     0.16218394437       0.165960188762      
5800000000.0        0.164066539215      0.168356921163      0.829704922535      -0.276735177891     0.829704922535      -0.276735177891     0.164066539215      0.168356921163      
5900000000.0        0.165972254326      0.170729614379      0.827582487812      -0.280985121184     0.827582487812      -0.280985121184     0.165972254326      0.170729614379      
6000000000.0        0.167900737674      0.173078033541      0.825433483607      -0.28521123142      0.825433483607      -0.28521123142      0.167900737674      0.173078033541      
6100000000.0        0.169851634105      0.175401950502      0.82325825874       -0.289413287656     0.82325825874       -0.289413287656     0.169851634105      0.175401950502      
6200000000.0        0.171824585538      0.177701143854      0.821057164842      -0.293591075675     0.821057164842      -0.293591075675     0.171824585538      0.177701143854      
6300000000.0        0.173819231166      0.179975398942      0.818830556164      -0.297744388001     0.818830556164      -0.297744388001     0.173819231166      0.179975398942      
6400000000.0        0.17583520765       0.182224507871      0.816578789378      -0.301873023905     0.816578789378      -0.301873023905     0.17583520765       0.182224507871      
6500000000.0        0.177872149306      0.184448269511      0.814302223391      -0.305976789412     0.814302223391      -0.305976789412     0.177872149306      0.184448269511      
6600000000.0        0.179929688289      0.186646489499      0.812001219159      -0.310055497297     0.812001219159      -0.310055497297     0.179929688289      0.186646489499      
6700000000.0        0.182007454779      0.188818980236      0.809676139503      -0.314108967087     0.809676139503      -0.314108967087     0.182007454779      0.188818980236      
6800000000.0        0.184105077153      0.190965560876      0.807327348935      -0.31813702505      0.807327348935      -0.31813702505      0.184105077153      0.190965560876      
6900000000.0        0.186222182162      0.19308605732       0.804955213482      -0.322139504184     0.804955213482      -0.322139504184     0.186222182162      0.19308605732       
7000000000.0        0.1883583951        0.195180302197      0.802560100515      -0.326116244204     0.802560100515      -0.326116244204     0.1883583951        0.195180302197      
7100000000.0        0.190513339971      0.197248134848      0.800142378583      -0.330067091522     0.800142378583      -0.330067091522     0.190513339971      0.197248134848      
7200000000.0        0.192686639654      0.199289401307      0.797702417247      -0.333991899226     0.797702417247      -0.333991899226     0.192686639654      0.199289401307      
7300000000.0        0.19487791606       0.201303954271      0.795240586922      -0.337890527056     0.795240586922      -0.337890527056     0.19487791606       0.201303954271      
7400000000.0        0.197086790291      0.203291653075      0.79275725872       -0.341762841371     0.79275725872       -0.341762841371     0.197086790291      0.203291653075      
7500000000.0        0.199312882795      0.205252363659      0.790252804292      -0.345608715124     0.790252804292      -0.345608715124     0.199312882795      0.205252363659      
7600000000.0        0.201555813514      0.207185958537      0.787727595681      -0.349428027822     0.787727595681      -0.349428027822     0.201555813514      0.207185958537      
7700000000.0        0.203815202032      0.209092316753      0.785182005174      -0.353220665493     0.785182005174      -0.353220665493     0.203815202032      0.209092316753      
7800000000.0        0.206090667721      0.210971323849      0.782616405154      -0.356986520639     0.782616405154      -0.356986520639     0.206090667721      0.210971323849      
7900000000.0        0.208381829879      0.212822871813      0.780031167962      -0.360725492198     0.780031167962      -0.360725492198     0.208381829879      0.212822871813      
8000000000.0        0.210688307875      0.214646859043      0.777426665754      -0.364437485498     0.777426665754      -0.364437485498     0.210688307875      0.214646859043      
8100000000.0        0.213009721274      0.216443190288      0.774803270372      -0.368122412204     0.774803270372      -0.368122412204     0.213009721274      0.216443190288      
8200000000.0        0.215345689979      0.218211776605      0.772161353205      -0.371780190271     0.772161353205      -0.371780190271     0.215345689979      0.218211776605      
8300000000.0        0.217695834356      0.219952535304      0.769501285061      -0.375410743888     0.769501285061      -0.375410743888     0.217695834356      0.219952535304      
8400000000.0        0.220059775358      0.221665389887      0.766823436043      -0.379014003422     0.766823436043      -0.379014003422     0.220059775358      0.221665389887      
8500000000.0        0.222437134652      0.223350269998      0.764128175423      -0.382589905361     0.764128175423      -0.382589905361     0.222437134652      0.223350269998      
8600000000.0        0.22482753474       0.225007111356      0.761415871521      -0.386138392253     0.761415871521      -0.386138392253     0.22482753474       0.225007111356      
8700000000.0        0.227230599071      0.226635855698      0.758686891587      -0.389659412644     0.758686891587      -0.389659412644     0.227230599071      0.226635855698      
8800000000.0        0.229645952162      0.228236450711      0.755941601689      -0.39315292101      0.755941601689      -0.39315292101      0.229645952162      0.228236450711      
8900000000.0        0.232073219704      0.229808849966      0.753180366598      -0.396618877697     0.753180366598      -0.396618877697     0.232073219704      0.229808849966      
9000000000.0        0.234512028675      0.231353012854      0.75040354968       -0.400057248845     0.75040354968       -0.400057248845     0.234512028675      0.231353012854      
9100000000.0        0.236962007443      0.232868904512      0.747611512788      -0.403468006327     0.747611512788      -0.403468006327     0.236962007443      0.232868904512      
9200000000.0        0.239422785869      0.234356495752      0.744804616164      -0.406851127669     0.744804616164      -0.406851127669     0.239422785869      0.234356495752      
9300000000.0        0.241893995409      0.235815762992      0.741983218331      -0.41020659598      0.741983218331      -0.41020659598      0.241893995409      0.235815762992      
9400000000.0        0.244375269208      0.237246688178      0.739147676004      -0.413534399881     0.739147676004      -0.413534399881     0.244375269208      0.237246688178      
9500000000.0        0.246866242197      0.238649258708      0.736298343987      -0.416834533423     0.736298343987      -0.416834533423     0.246866242197      0.238649258708      
9600000000.0        0.249366551181      0.24002346736       0.733435575088      -0.420106996013     0.733435575088      -0.420106996013     0.249366551181      0.24002346736       
9700000000.0        0.251875834931      0.241369312207      0.730559720026      -0.423351792336     0.730559720026      -0.423351792336     0.251875834931      0.241369312207      
9800000000.0        0.25439373427       0.242686796541      0.727671127345      -0.426568932273     0.727671127345      -0.426568932273     0.25439373427       0.242686796541      
9900000000.0        0.25691989215       0.243975928795      0.724770143333      -0.429758430823     0.724770143333      -0.429758430823     0.25691989215       0.243975928795      
10000000000.0       0.25945395374       0.245236722457      0.721857111939      -0.432920308017     0.721857111939      -0.432920308017     0.25945395374       0.245236722457      
