# Hz S RI R 50.00 
100000000.0         0.00026614208844    0.000113830712086   0.999732514286      -0.000427978231904  0.999732514286      -0.000427978231904  0.00026614208844    0.000113830712086   
200000000.0         0.000267925321031   0.000227659003247   0.999730288719      -0.000855959564922  0.999730288719      -0.000855959564922  0.000267925321031   0.000227659003247   
300000000.0         0.000269336140991   0.000341485324635   0.999728336846      -0.00128394734978   0.999728336846      -0.00128394734978   0.000269336140991   0.000341485324635   
400000000.0         0.00027060591296    0.000455309701279   0.999726427287      -0.00171194382615   0.999726427287      -0.00171194382615   0.000270605912961   0.000455309701279   
500000000.0         0.00027182368428    0.000569132086715   0.99972447098       -0.00213995081255   0.99972447098       -0.00213995081255   0.00027182368428    0.000569132086715   
600000000.0         0.000273034840389   0.000682952415952   0.999722422522      -0.00256796987843   0.999722422522      -0.00256796987843   0.000273034840388   0.000682952415952   
700000000.0         0.000274266174849   0.000796770621697   0.999720255102      -0.00299600242261   0.999720255102      -0.00299600242261   0.000274266174849   0.000796770621697   
800000000.0         0.000275535035836   0.00091058664167    0.99971795135       -0.00342404971616   0.99971795135       -0.00342404971616   0.000275535035836   0.00091058664167    
900000000.0         0.000276853397204   0.00102440042164    0.999715499272      -0.00385211292956   0.999715499272      -0.00385211292956   0.000276853397204   0.00102440042164    
1000000000.0        0.000278229921406   0.00113821191638    0.999712890184      -0.00428019315166   0.999712890184      -0.00428019315166   0.000278229921406   0.00113821191638    
1100000000.0        0.00027967110574    0.00125202109078    0.999710117563      -0.0047082914024    0.999710117563      -0.0047082914024    0.00027967110574    0.00125202109078    
1200000000.0        0.000281181965191   0.00136582791972    0.99970717637       -0.00513640864306   0.99970717637       -0.00513640864306   0.000281181965191   0.00136582791972    
1300000000.0        0.000282766461844   0.00147963238804    0.999704062619      -0.00556454578392   0.999704062619      -0.00556454578392   0.000282766461844   0.00147963238804    
1400000000.0        0.000284427787068   0.00159343449046    0.99970077309       -0.0059927036903    0.99970077309       -0.0059927036903    0.000284427787068   0.00159343449046    
1500000000.0        0.000286168553708   0.00170723423147    0.999697305145      -0.00642088318741   0.999697305145      -0.00642088318741   0.000286168553708   0.00170723423147    
1600000000.0        0.000287990931027   0.00182103162481    0.999693656585      -0.00684908506462   0.999693656585      -0.00684908506462   0.000287990931027   0.00182103162481    
1700000000.0        0.000289896741923   0.00193482669354    0.999689825559      -0.00727731007861   0.999689825559      -0.00727731007861   0.000289896741923   0.00193482669354    
1800000000.0        0.000291887534523   0.00204861946951    0.99968581049       -0.00770555895649   0.99968581049       -0.00770555895649   0.000291887534523   0.00204861946951    
1900000000.0        0.000293964635939   0.00216240999325    0.99968161002       -0.00813383239816   0.99968161002       -0.00813383239816   0.000293964635939   0.00216240999325    
2000000000.0        0.000296129193342   0.00227619831366    0.999677222972      -0.00856213107846   0.999677222972      -0.00856213107846   0.000296129193342   0.00227619831366    
2100000000.0        0.000298382205785   0.00238998448778    0.999672648314      -0.00899045564908   0.999672648314      -0.00899045564908   0.000298382205785   0.00238998448778    
2200000000.0        0.00030072454924    0.00250376858057    0.99966788514       -0.00941880674014   0.99966788514       -0.00941880674014   0.00030072454924    0.00250376858057    
2300000000.0        0.000303156996475   0.0026175506646     0.999662932644      -0.00984718496177   0.999662932644      -0.00984718496177   0.000303156996475   0.0026175506646     
2400000000.0        0.000305680233077   0.00273133081993    0.999657790107      -0.0102755909053    0.999657790107      -0.0102755909053    0.000305680233077   0.00273133081993    
2500000000.0        0.000308294870424   0.00284510913382    0.999652456886      -0.0107040251446    0.999652456886      -0.0107040251446    0.000308294870424   0.00284510913382    
2600000000.0        0.000311001456353   0.00295888570061    0.999646932398      -0.0111324882368    0.999646932398      -0.0111324882368    0.000311001456353   0.00295888570061    
2700000000.0        0.000313800483939   0.00307266062144    0.999641216117      -0.0115609807236    0.999641216117      -0.0115609807236    0.000313800483939   0.00307266062144    
2800000000.0        0.000316692398832   0.00318643400409    0.999635307561      -0.0119895031321    0.999635307561      -0.0119895031321    0.000316692398832   0.00318643400409    
2900000000.0        0.000319677605391   0.00330020596283    0.999629206293      -0.0124180559752    0.999629206293      -0.0124180559752    0.000319677605391   0.00330020596283    
3000000000.0        0.000322756471863   0.00341397661824    0.999622911908      -0.012846639753     0.999622911908      -0.012846639753     0.000322756471862   0.00341397661824    
3100000000.0        0.000325929334788   0.00352774609702    0.999616424035      -0.0132752549528    0.999616424035      -0.0132752549528    0.000325929334788   0.00352774609702    
3200000000.0        0.00032919650275    0.00364151453185    0.999609742329      -0.0137039020502    0.999609742329      -0.0137039020502    0.00032919650275    0.00364151453185    
3300000000.0        0.000332558259595   0.00375528206123    0.999602866471      -0.0141325815093    0.999602866471      -0.0141325815093    0.000332558259595   0.00375528206123    
3400000000.0        0.00033601486722    0.00386904882934    0.999595796162      -0.0145612937837    0.999595796162      -0.0145612937837    0.00033601486722    0.00386904882934    
3500000000.0        0.00033956656797    0.00398281498594    0.999588531123      -0.0149900393163    0.999588531123      -0.0149900393163    0.00033956656797    0.00398281498594    
3600000000.0        0.000343213586735   0.00409658068614    0.999581071093      -0.0154188185405    0.999581071093      -0.0154188185405    0.000343213586735   0.00409658068614    
3700000000.0        0.000346956132784   0.00421034609037    0.999573415826      -0.0158476318802    0.999573415826      -0.0158476318802    0.000346956132784   0.00421034609037    
3800000000.0        0.000350794401362   0.00432411136414    0.999565565089      -0.0162764797503    0.999565565089      -0.0162764797503    0.000350794401362   0.00432411136414    
3900000000.0        0.000354728575107   0.0044378766781     0.999557518662      -0.016705362557     0.999557518662      -0.016705362557     0.000354728575107   0.0044378766781     
4000000000.0        0.000358758825294   0.00455164220772    0.999549276337      -0.0171342806983    0.999549276337      -0.0171342806983    0.000358758825294   0.00455164220772    
4100000000.0        0.000362885312942   0.0046654081333     0.999540837915      -0.0175632345642    0.999540837915      -0.0175632345642    0.000362885312942   0.0046654081333     
4200000000.0        0.000367108189793   0.00477917463984    0.999532203207      -0.0179922245372    0.999532203207      -0.0179922245372    0.000367108189793   0.00477917463984    
4300000000.0        0.000371427599189   0.00489294191693    0.999523372031      -0.0184212509923    0.999523372031      -0.0184212509923    0.000371427599189   0.00489294191693    
4400000000.0        0.000375843676853   0.0050067101586     0.999514344215      -0.0188503142975    0.999514344215      -0.0188503142975    0.000375843676853   0.0050067101586     
4500000000.0        0.000380356551585   0.00512047956333    0.99950511959       -0.019279414814     0.99950511959       -0.019279414814     0.000380356551585   0.00512047956333    
4600000000.0        0.000384966345903   0.00523425033383    0.999495697998      -0.0197085528966    0.999495697998      -0.0197085528966    0.000384966345903   0.00523425033383    
4700000000.0        0.000389673176598   0.00534802267707    0.999486079282      -0.0201377288936    0.999486079282      -0.0201377288936    0.000389673176598   0.00534802267707    
4800000000.0        0.00039447715525    0.00546179680408    0.999476263293      -0.0205669431473    0.999476263293      -0.0205669431473    0.00039447715525    0.00546179680408    
4900000000.0        0.000399378388691   0.00557557292993    0.999466249886      -0.0209961959941    0.999466249886      -0.0209961959941    0.000399378388691   0.00557557292993    
5000000000.0        0.000404376979428   0.00568935127362    0.999456038921      -0.0214254877648    0.999456038921      -0.0214254877648    0.000404376979428   0.00568935127362    
5100000000.0        0.000409473026016   0.00580313205805    0.999445630261      -0.0218548187847    0.999445630261      -0.0218548187847    0.000409473026016   0.00580313205805    
5200000000.0        0.000414666623413   0.00591691550984    0.999435023772      -0.0222841893739    0.999435023772      -0.0222841893739    0.000414666623413   0.00591691550984    
5300000000.0        0.000419957863292   0.00603070185934    0.999424219324      -0.0227135998472    0.999424219324      -0.0227135998472    0.000419957863292   0.00603070185934    
5400000000.0        0.000425346834328   0.00614449134053    0.999413216791      -0.0231430505146    0.999413216791      -0.0231430505146    0.000425346834328   0.00614449134053    
5500000000.0        0.000430833622469   0.00625828419093    0.999402016049      -0.0235725416814    0.999402016049      -0.0235725416814    0.000430833622469   0.00625828419093    
5600000000.0        0.000436418311172   0.00637208065158    0.999390616976      -0.0240020736481    0.999390616976      -0.0240020736481    0.000436418311172   0.00637208065158    
5700000000.0        0.00044210098163    0.00648588096688    0.999379019452      -0.0244316467108    0.999379019452      -0.0244316467108    0.00044210098163    0.00648588096688    
5800000000.0        0.000447881712972   0.00659968538467    0.999367223361      -0.0248612611613    0.999367223361      -0.0248612611613    0.000447881712972   0.00659968538467    
5900000000.0        0.000453760582458   0.00671349415595    0.999355228587      -0.0252909172873    0.999355228587      -0.0252909172873    0.000453760582459   0.00671349415595    
6000000000.0        0.000459737665646   0.00682730753507    0.999343035017      -0.0257206153721    0.999343035017      -0.0257206153721    0.000459737665646   0.00682730753507    
6100000000.0        0.000465813036556   0.00694112577946    0.999330642538      -0.0261503556955    0.999330642538      -0.0261503556955    0.000465813036556   0.00694112577946    
6200000000.0        0.000471986767818   0.00705494914969    0.999318051041      -0.0265801385331    0.999318051041      -0.0265801385331    0.000471986767818   0.00705494914969    
6300000000.0        0.00047825893081    0.00716877790936    0.999305260417      -0.027009964157     0.999305260417      -0.027009964157     0.00047825893081    0.00716877790936    
6400000000.0        0.000484629595786   0.00728261232507    0.999292270556      -0.0274398328356    0.999292270556      -0.0274398328356    0.000484629595786   0.00728261232507    
6500000000.0        0.000491098831991   0.00739645266634    0.999279081354      -0.0278697448339    0.999279081354      -0.0278697448339    0.000491098831991   0.00739645266634    
6600000000.0        0.000497666707777   0.00751029920559    0.999265692703      -0.0282997004136    0.999265692703      -0.0282997004136    0.000497666707777   0.00751029920559    
6700000000.0        0.000504333290697   0.00762415221806    0.9992521045        -0.0287296998327    0.9992521045        -0.0287296998327    0.000504333290697   0.00762415221806    
6800000000.0        0.000511098647609   0.00773801198176    0.99923831664       -0.0291597433465    0.99923831664       -0.0291597433465    0.000511098647609   0.00773801198176    
6900000000.0        0.000517962844762   0.00785187877744    0.999224329019      -0.029589831207     0.999224329019      -0.029589831207     0.000517962844762   0.00785187877744    
7000000000.0        0.000524925947875   0.00796575288852    0.999210141536      -0.030019963663     0.999210141536      -0.030019963663     0.000524925947875   0.00796575288852    
7100000000.0        0.000531988022221   0.00807963460107    0.999195754088      -0.0304501409607    0.999195754088      -0.0304501409607    0.000531988022221   0.00807963460107    
7200000000.0        0.000539149132695   0.00819352420374    0.999181166574      -0.0308803633431    0.999181166574      -0.0308803633431    0.000539149132695   0.00819352420374    
7300000000.0        0.000546409343887   0.00830742198772    0.999166378892      -0.0313106310508    0.999166378892      -0.0313106310508    0.000546409343887   0.00830742198772    
7400000000.0        0.00055376872014    0.00842132824669    0.999151390942      -0.0317409443214    0.999151390942      -0.0317409443214    0.00055376872014    0.00842132824669    
7500000000.0        0.000561227325616   0.00853524327681    0.999136202623      -0.0321713033901    0.999136202623      -0.0321713033901    0.000561227325615   0.00853524327681    
7600000000.0        0.000568785224344   0.00864916737663    0.999120813836      -0.0326017084894    0.999120813836      -0.0326017084894    0.000568785224343   0.00864916737663    
7700000000.0        0.000576442480283   0.00876310084711    0.999105224481      -0.0330321598493    0.999105224481      -0.0330321598493    0.000576442480283   0.00876310084711    
7800000000.0        0.000584199157366   0.0088770439915     0.999089434458      -0.0334626576975    0.999089434458      -0.0334626576975    0.000584199157366   0.0088770439915     
7900000000.0        0.000592055319547   0.00899099711538    0.999073443668      -0.0338932022594    0.999073443668      -0.0338932022594    0.000592055319547   0.00899099711538    
8000000000.0        0.000600011030847   0.00910496052658    0.999057252012      -0.0343237937579    0.999057252012      -0.0343237937579    0.000600011030847   0.00910496052658    
8100000000.0        0.000608066355394   0.00921893453514    0.999040859389      -0.0347544324138    0.999040859389      -0.0347544324138    0.000608066355394   0.00921893453514    
8200000000.0        0.000616221357465   0.00933291945331    0.999024265702      -0.0351851184457    0.999024265702      -0.0351851184457    0.000616221357465   0.00933291945331    
8300000000.0        0.00062447610152    0.00944691559545    0.99900747085       -0.0356158520701    0.99900747085       -0.0356158520701    0.00062447610152    0.00944691559545    
8400000000.0        0.00063283065224    0.00956092327809    0.998990474736      -0.0360466335015    0.998990474736      -0.0360466335015    0.000632830652241   0.00956092327809    
8500000000.0        0.000641285074561   0.00967494281978    0.998973277259      -0.0364774629523    0.998973277259      -0.0364774629523    0.000641285074561   0.00967494281978    
8600000000.0        0.000649839433699   0.00978897454117    0.99895587832       -0.0369083406328    0.99895587832       -0.0369083406328    0.000649839433699   0.00978897454117    
8700000000.0        0.00065849379519    0.0099030187649     0.99893827782       -0.0373392667518    0.99893827782       -0.0373392667518    0.00065849379519    0.0099030187649     
8800000000.0        0.000667248224912   0.0100170758156     0.998920475659      -0.0377702415159    0.998920475659      -0.0377702415159    0.000667248224912   0.0100170758156     
8900000000.0        0.000676102789113   0.0101311460199     0.998902471738      -0.0382012651299    0.998902471738      -0.0382012651299    0.000676102789113   0.0101311460199     
9000000000.0        0.000685057554436   0.0102452297062     0.998884265957      -0.038632337797     0.998884265957      -0.038632337797     0.000685057554436   0.0102452297062     
9100000000.0        0.000694112587947   0.010359327205      0.998865858216      -0.0390634597186    0.998865858216      -0.0390634597186    0.000694112587947   0.010359327205      
9200000000.0        0.000703267957153   0.0104734388485     0.998847248414      -0.0394946310942    0.998847248414      -0.0394946310942    0.000703267957153   0.0104734388485     
9300000000.0        0.000712523730029   0.0105875649709     0.998828436452      -0.0399258521221    0.998828436452      -0.0399258521221    0.000712523730029   0.0105875649709     
9400000000.0        0.000721879975035   0.010701705908      0.998809422227      -0.0403571229986    0.998809422227      -0.0403571229986    0.000721879975035   0.010701705908      
9500000000.0        0.000731336761141   0.0108158619976     0.998790205641      -0.0407884439185    0.998790205641      -0.0407884439185    0.00073133676114    0.0108158619976     
9600000000.0        0.000740894157839   0.010930033579      0.99877078659       -0.0412198150753    0.99877078659       -0.0412198150753    0.000740894157838   0.010930033579      
9700000000.0        0.000750552235167   0.0110442209935     0.998751164974      -0.0416512366607    0.998751164974      -0.0416512366607    0.000750552235167   0.0110442209935     
9800000000.0        0.000760311063727   0.011158424584      0.998731340691      -0.0420827088652    0.998731340691      -0.0420827088652    0.000760311063727   0.011158424584      
9900000000.0        0.000770170714697   0.0112726446949     0.998711313639      -0.0425142318776    0.998711313639      -0.0425142318776    0.000770170714697   0.0112726446949     
10000000000.0       0.00078013125985    0.0113868816725     0.998691083715      -0.0429458058856    0.998691083715      -0.0429458058856    0.00078013125985    0.0113868816725     
