# Hz S RI R 50.00 
100000000.0         0.00418048341762    0.00175389933148    0.995816302443      -0.00312515994601   0.995816302443      -0.00312515994601   0.00418048341762    0.00175389933148    
200000000.0         0.0042240923062     0.00350745628836    0.995768596297      -0.00624999704504   0.995768596297      -0.00624999704504   0.00422409230619    0.00350745628836    
300000000.0         0.0042713573228     0.0052607032022     0.995715350702      -0.00937455573362   0.995715350702      -0.00937455573362   0.0042713573228     0.0052607032022     
400000000.0         0.00432589069694    0.00701360081435    0.995652953175      -0.0124988061891    0.995652953175      -0.0124988061891    0.00432589069694    0.00701360081435    
500000000.0         0.0043890819994     0.008766093166      0.995580013845      -0.0156227005295    0.995580013845      -0.0156227005295    0.0043890819994     0.008766093166      
600000000.0         0.00446163818525    0.0105181169147     0.995495825411      -0.0187461825927    0.995495825411      -0.0187461825927    0.00446163818525    0.0105181169147     
700000000.0         0.00454397507095    0.0122696046943     0.995399971672      -0.0218691915317    0.995399971672      -0.0218691915317    0.00454397507095    0.0122696046943     
800000000.0         0.00463636020054    0.0140204866797     0.995292184658      -0.0249916635232    0.995292184658      -0.0249916635232    0.00463636020054    0.0140204866797     
900000000.0         0.00473897645115    0.0157706914324     0.99517228103       -0.0281135327061    0.99517228103       -0.0281135327061    0.00473897645115    0.0157706914324     
1000000000.0        0.00485195426963    0.0175201464035     0.995040129844      -0.0312347317518    0.995040129844      -0.0312347317518    0.00485195426963    0.0175201464035     
1100000000.0        0.00497538959053    0.0192687782561     0.994895634635      -0.0343551922353    0.994895634635      -0.0343551922353    0.00497538959053    0.0192687782561     
1200000000.0        0.00510935451141    0.021016513083      0.994738722741      -0.0374748448915    0.994738722741      -0.0374748448915    0.00510935451141    0.021016513083      
1300000000.0        0.0052539040086     0.0227632765608     0.994569338591      -0.0405936197986    0.994569338591      -0.0405936197986    0.0052539040086     0.0227632765608     
1400000000.0        0.00540908035079    0.0245089940625     0.994387439291      -0.0437114465154    0.994387439291      -0.0437114465154    0.00540908035079    0.0245089940625     
1500000000.0        0.00557491610647    0.0262535907429     0.994192991617      -0.0468282541864    0.994192991617      -0.0468282541864    0.00557491610647    0.0262535907429     
1600000000.0        0.00575143625599    0.0279969916045     0.993985969907      -0.0499439716245    0.993985969907      -0.0499439716245    0.00575143625599    0.0279969916045     
1700000000.0        0.00593865971373    0.0297391215503     0.993766354535      -0.053058527378     0.993766354535      -0.053058527378     0.00593865971373    0.0297391215503     
1800000000.0        0.00613660044974    0.031479905426      0.993534130794      -0.0561718497853    0.993534130794      -0.0561718497853    0.00613660044974    0.031479905426      
1900000000.0        0.0063452683325     0.0332192680556     0.993289288052      -0.0592838670209    0.993289288052      -0.0592838670209    0.0063452683325     0.0332192680556     
2000000000.0        0.00656466977311    0.034957134271      0.993031819109      -0.0623945071341    0.993031819109      -0.0623945071341    0.00656466977311    0.034957134271      
2100000000.0        0.00679480822521    0.0366934289371     0.992761719697      -0.0655036980828    0.992761719697      -0.0655036980828    0.00679480822521    0.0366934289371     
2200000000.0        0.00703568457832    0.0384280769737     0.992478988089      -0.0686113677624    0.992478988089      -0.0686113677624    0.00703568457832    0.0384280769737     
2300000000.0        0.00728729747111    0.040161003375      0.992183624784      -0.0717174440318    0.992183624784      -0.0717174440318    0.00728729747111    0.040161003375      
2400000000.0        0.00754964354381    0.0418921332264     0.991875632257      -0.0748218547364    0.991875632257      -0.0748218547364    0.00754964354381    0.0418921332264     
2500000000.0        0.00782271764357    0.0436213917202     0.991555014754      -0.077924527729     0.991555014754      -0.077924527729     0.00782271764357    0.0436213917202     
2600000000.0        0.00810651299322    0.0453487041692     0.991221778123      -0.0810253908879    0.991221778123      -0.0810253908879    0.00810651299322    0.0453487041692     
2700000000.0        0.00840102133118    0.0470739960194     0.990875929672      -0.084124372135     0.990875929672      -0.084124372135     0.00840102133118    0.0470739960194     
2800000000.0        0.00870623302825    0.0487971928621     0.99051747806       -0.0872213994509    0.99051747806       -0.0872213994509    0.00870623302825    0.0487971928621     
2900000000.0        0.00902213718616    0.0505182204447     0.99014643319       -0.0903164008899    0.99014643319       -0.0903164008899    0.00902213718616    0.0505182204447     
3000000000.0        0.00934872172095    0.0522370046809     0.989762806132      -0.0934093045937    0.989762806132      -0.0934093045937    0.00934872172095    0.0522370046809     
3100000000.0        0.00968597343439    0.0539534716602     0.989366609051      -0.0965000388044    0.989366609051      -0.0965000388044    0.00968597343439    0.0539534716602     
3200000000.0        0.0100338780752     0.0556675476573     0.988957855142      -0.0995885318762    0.988957855142      -0.0995885318762    0.0100338780752     0.0556675476573     
3300000000.0        0.0103924203922     0.0573791591407     0.988536558585      -0.102674712287     0.988536558585      -0.102674712287     0.0103924203922     0.0573791591407     
3400000000.0        0.0107615841803     0.0590882327809     0.988102734492      -0.10575850865      0.988102734492      -0.10575850865      0.0107615841803     0.0590882327809     
3500000000.0        0.0111413523211     0.0607946954583     0.987656398868      -0.108839849722     0.987656398868      -0.108839849722     0.0111413523211     0.0607946954583     
3600000000.0        0.0115317068186     0.0624984742713     0.987197568581      -0.111918664417     0.987197568581      -0.111918664417     0.0115317068186     0.0624984742713     
3700000000.0        0.0119326288304     0.064199496543      0.986726261325      -0.114994881811     0.986726261325      -0.114994881811     0.0119326288304     0.064199496543      
3800000000.0        0.0123440986958     0.065897689829      0.986242495594      -0.118068431156     0.986242495594      -0.118068431156     0.0123440986958     0.065897689829      
3900000000.0        0.0127660959614     0.0675929819239     0.985746290657      -0.121139241885     0.985746290657      -0.121139241885     0.0127660959614     0.0675929819239     
4000000000.0        0.013198599403      0.0692853008682     0.985237666538      -0.124207243622     0.985237666538      -0.124207243622     0.013198599403      0.0692853008682     
4100000000.0        0.0136415870467     0.0709745749549     0.984716643991      -0.127272366191     0.984716643991      -0.127272366191     0.0136415870467     0.0709745749549     
4200000000.0        0.0140950361869     0.0726607327357     0.984183244488      -0.130334539622     0.984183244488      -0.130334539622     0.0140950361869     0.0726607327357     
4300000000.0        0.0145589234036     0.0743437030277     0.983637490196      -0.133393694163     0.983637490196      -0.133393694163     0.0145589234036     0.0743437030277     
4400000000.0        0.0150332245782     0.076023414919      0.983079403964      -0.13644976028      0.983079403964      -0.13644976028      0.0150332245782     0.076023414919      
4500000000.0        0.0155179149071     0.0776997977749     0.982509009312      -0.139502668674     0.982509009312      -0.139502668674     0.0155179149071     0.0776997977749     
4600000000.0        0.0160129689159     0.0793727812438     0.981926330414      -0.142552350279     0.981926330414      -0.142552350279     0.0160129689159     0.0793727812438     
4700000000.0        0.0165183604712     0.0810422952629     0.981331392084      -0.145598736274     0.981331392084      -0.145598736274     0.0165183604712     0.0810422952629     
4800000000.0        0.0170340627924     0.0827082700638     0.980724219773      -0.148641758091     0.980724219773      -0.148641758091     0.0170340627924     0.0827082700638     
4900000000.0        0.0175600484627     0.0843706361782     0.980104839548      -0.151681347418     0.980104839548      -0.151681347418     0.0175600484627     0.0843706361782     
5000000000.0        0.018096289439      0.086029324443      0.979473278089      -0.154717436206     0.979473278089      -0.154717436206     0.018096289439      0.086029324443      
5100000000.0        0.018642757062      0.0876842660061     0.978829562678      -0.157749956678     0.978829562678      -0.157749956678     0.018642757062      0.0876842660061     
5200000000.0        0.0191994220651     0.0893353923311     0.978173721187      -0.160778841335     0.978173721187      -0.160778841335     0.0191994220651     0.0893353923311     
5300000000.0        0.0197662545836     0.090982635203      0.977505782073      -0.163804022956     0.977505782073      -0.163804022956     0.0197662545836     0.090982635203      
5400000000.0        0.0203432241627     0.0926259267329     0.976825774367      -0.166825434615     0.976825774367      -0.166825434615     0.0203432241627     0.0926259267329     
5500000000.0        0.0209302997659     0.0942651993632     0.97613372767       -0.169843009676     0.97613372767       -0.169843009676     0.0209302997659     0.0942651993632     
5600000000.0        0.0215274497828     0.0959003858725     0.975429672139      -0.172856681805     0.975429672139      -0.172856681805     0.0215274497828     0.0959003858725     
5700000000.0        0.0221346420365     0.0975314193802     0.974713638487      -0.175866384974     0.974713638487      -0.175866384974     0.0221346420365     0.0975314193802     
5800000000.0        0.0227518437908     0.0991582333516     0.973985657969      -0.178872053467     0.973985657969      -0.178872053467     0.0227518437908     0.0991582333516     
5900000000.0        0.0233790217577     0.100780761602      0.973245762379      -0.181873621884     0.973245762379      -0.181873621884     0.0233790217577     0.100780761602      
6000000000.0        0.0240161421042     0.102398938303      0.972493984043      -0.184871025148     0.972493984043      -0.184871025148     0.0240161421042     0.102398938303      
6100000000.0        0.0246631704587     0.104012697984      0.971730355812      -0.18786419851      0.971730355812      -0.18786419851      0.0246631704587     0.104012697984      
6200000000.0        0.025320071918      0.105621975539      0.970954911053      -0.190853077552     0.970954911053      -0.190853077552     0.025320071918      0.105621975539      
6300000000.0        0.0259868110539     0.107226706231      0.970167683648      -0.193837598196     0.970167683648      -0.193837598196     0.0259868110539     0.107226706231      
6400000000.0        0.0266633519191     0.108826825696      0.969368707981      -0.196817696704     0.969368707981      -0.196817696704     0.0266633519191     0.108826825696      
6500000000.0        0.0273496580539     0.110422269945      0.968558018938      -0.199793309688     0.968558018938      -0.199793309688     0.0273496580539     0.110422269945      
6600000000.0        0.0280456924923     0.112012975373      0.967735651898      -0.20276437411      0.967735651898      -0.20276437411      0.0280456924923     0.112012975373      
6700000000.0        0.0287514177679     0.113598878756      0.966901642727      -0.205730827289     0.966901642727      -0.205730827289     0.0287514177679     0.113598878756      
6800000000.0        0.0294667959203     0.115179917265      0.966056027771      -0.208692606908     0.966056027771      -0.208692606908     0.0294667959203     0.115179917265      
6900000000.0        0.0301917885007     0.116756028459      0.965198843853      -0.211649651012     0.965198843853      -0.211649651012     0.0301917885007     0.116756028459      
7000000000.0        0.0309263565782     0.118327150297      0.964330128265      -0.21460189802      0.964330128265      -0.21460189802      0.0309263565782     0.118327150297      
7100000000.0        0.0316704607452     0.119893221137      0.963449918764      -0.217549286723     0.963449918764      -0.217549286723     0.0316704607452     0.119893221137      
7200000000.0        0.0324240611239     0.121454179744      0.962558253563      -0.220491756292     0.962558253563      -0.220491756292     0.0324240611239     0.121454179744      
7300000000.0        0.0331871173714     0.12300996529       0.96165517133       -0.22342924628      0.96165517133       -0.22342924628      0.0331871173714     0.12300996529       
7400000000.0        0.0339595886858     0.124560517359      0.960740711178      -0.226361696628     0.960740711178      -0.226361696628     0.0339595886858     0.124560517359      
7500000000.0        0.0347414338121     0.126105775951      0.959814912662      -0.229289047667     0.959814912662      -0.229289047667     0.0347414338121     0.126105775951      
7600000000.0        0.0355326110476     0.127645681483      0.958877815772      -0.232211240124     0.958877815772      -0.232211240124     0.0355326110476     0.127645681483      
7700000000.0        0.0363330782476     0.129180174799      0.957929460927      -0.235128215123     0.957929460927      -0.235128215123     0.0363330782476     0.129180174799      
7800000000.0        0.0371427928313     0.130709197163      0.956969888972      -0.238039914192     0.956969888972      -0.238039914192     0.0371427928313     0.130709197163      
7900000000.0        0.0379617117871     0.132232690272      0.95599914117       -0.240946279265     0.95599914117       -0.240946279265     0.0379617117871     0.132232690272      
8000000000.0        0.0387897916788     0.133750596255      0.955017259198      -0.243847252684     0.955017259198      -0.243847252684     0.0387897916788     0.133750596255      
8100000000.0        0.0396269886505     0.135262857674      0.954024285139      -0.246742777205     0.954024285139      -0.246742777205     0.0396269886505     0.135262857674      
8200000000.0        0.0404732584327     0.136769417533      0.953020261479      -0.249632796001     0.953020261479      -0.249632796001     0.0404732584327     0.136769417533      
8300000000.0        0.0413285563477     0.138270219273      0.952005231101      -0.252517252665     0.952005231101      -0.252517252665     0.0413285563477     0.138270219273      
8400000000.0        0.0421928373154     0.139765206783      0.950979237279      -0.255396091212     0.950979237279      -0.255396091212     0.0421928373154     0.139765206783      
8500000000.0        0.0430660558586     0.141254324398      0.949942323671      -0.258269256083     0.949942323671      -0.258269256083     0.0430660558586     0.141254324398      
8600000000.0        0.0439481661087     0.142737516904      0.948894534317      -0.26113669215      0.948894534317      -0.26113669215      0.0439481661087     0.142737516904      
8700000000.0        0.0448391218113     0.144214729537      0.947835913631      -0.263998344716     0.947835913631      -0.263998344716     0.0448391218113     0.144214729537      
8800000000.0        0.0457388763317     0.145685907991      0.946766506395      -0.26685415952      0.946766506395      -0.26685415952      0.0457388763317     0.145685907991      
8900000000.0        0.0466473826605     0.147150998418      0.945686357755      -0.26970408274      0.945686357755      -0.26970408274      0.0466473826605     0.147150998418      
9000000000.0        0.0475645934194     0.14860994743       0.944595513217      -0.272548060992     0.944595513217      -0.272548060992     0.0475645934194     0.14860994743       
9100000000.0        0.048490460866      0.1500627021        0.943494018636      -0.27538604134      0.943494018636      -0.27538604134      0.048490460866      0.1500627021        
9200000000.0        0.0494249369003     0.151509209971      0.942381920216      -0.278217971291     0.942381920216      -0.278217971291     0.0494249369003     0.151509209971      
9300000000.0        0.0503679730696     0.152949419049      0.941259264504      -0.281043798802     0.941259264504      -0.281043798802     0.0503679730696     0.152949419049      
9400000000.0        0.0513195205743     0.154383277812      0.94012609838       -0.283863472282     0.94012609838       -0.283863472282     0.0513195205743     0.154383277812      
9500000000.0        0.0522795302734     0.155810735212      0.938982469056      -0.286676940593     0.938982469056      -0.286676940593     0.0522795302734     0.155810735212      
9600000000.0        0.05324795269       0.157231740672      0.93782842407       -0.289484153055     0.93782842407       -0.289484153055     0.05324795269       0.157231740672      
9700000000.0        0.0542247380167     0.158646244093      0.936664011278      -0.292285059443     0.936664011278      -0.292285059443     0.0542247380167     0.158646244093      
9800000000.0        0.0552098361216     0.160054195854      0.93548927885       -0.295079609997     0.93548927885       -0.295079609997     0.0552098361216     0.160054195854      
9900000000.0        0.0562031965532     0.161455546816      0.934304275267      -0.297867755416     0.934304275267      -0.297867755416     0.0562031965532     0.161455546816      
10000000000.0       0.0572047685464     0.162850248318      0.933109049309      -0.300649446868     0.933109049309      -0.300649446868     0.0572047685464     0.162850248318      
