# Hz S RI R 50.00 
100000000.0         0.0703725636367     0.00345126538977    0.929624997167      -0.00445259261095   0.929624997167      -0.00445259261095   0.0703725636367     0.00345126538977    
200000000.0         0.0708517706121     0.00689480232187    0.929143322661      -0.00889746933868   0.929143322661      -0.00889746933868   0.0708517706121     0.00689480232187    
300000000.0         0.0712464086468     0.0103332178864     0.928745188379      -0.0133372461716    0.928745188379      -0.0133372461716    0.0712464086468     0.0103332178864     
400000000.0         0.0716137139066     0.0137671623114     0.928373357835      -0.0177725808884    0.928373357835      -0.0177725808884    0.0716137139066     0.0137671623114     
500000000.0         0.0719757598205     0.0171968307149     0.928005757296      -0.0222036754778    0.928005757296      -0.0222036754778    0.0719757598205     0.0171968307149     
600000000.0         0.0723438069913     0.0206222169847     0.927631125851      -0.026630530253     0.927631125851      -0.026630530253     0.0723438069913     0.0206222169847     
700000000.0         0.0727245000779     0.0240432050482     0.927242818526      -0.0310530352408    0.927242818526      -0.0310530352408    0.0727245000779     0.0240432050482     
800000000.0         0.0731221316755     0.0274596112632     0.926836542397      -0.0354710126447    0.926836542397      -0.0354710126447    0.0731221316755     0.0274596112632     
900000000.0         0.073539651231      0.0308712072343     0.926409347674      -0.0398842397072    0.926409347674      -0.0398842397072    0.073539651231      0.0308712072343     
1000000000.0        0.0739791768855     0.0342777333633     0.925959115859      -0.0442924622947    0.925959115859      -0.0442924622947    0.0739791768855     0.0342777333633     
1100000000.0        0.0744422802421     0.0376789074931     0.92548427497       -0.0486954035649    0.92548427497       -0.0486954035649    0.0744422802421     0.0376789074931     
1200000000.0        0.0749301561934     0.0410744307312     0.924983629723      -0.0530927698095    0.924983629723      -0.0530927698095    0.0749301561934     0.0410744307312     
1300000000.0        0.0754437298599     0.0444639915474     0.924456254583      -0.0574842545667    0.924456254583      -0.0574842545667    0.0754437298599     0.0444639915474     
1400000000.0        0.075983726943      0.0478472687632     0.923901423418      -0.0618695416221    0.923901423418      -0.0618695416221    0.075983726943      0.0478472687632     
1500000000.0        0.0765507217104     0.0512239337989     0.92331856151       -0.0662483072657    0.92331856151       -0.0662483072657    0.0765507217104     0.0512239337989     
1600000000.0        0.0771451707345     0.0545936524067     0.922707211819      -0.0706202220333    0.922707211819      -0.0706202220333    0.0771451707345     0.0545936524067     
1700000000.0        0.0777674372344     0.0579560860391     0.922067010636      -0.0749849520815    0.922067010636      -0.0749849520815    0.0777674372344     0.0579560860391     
1800000000.0        0.0784178090366     0.0613108929502     0.921397669629      -0.0793421602951    0.921397669629      -0.0793421602951    0.0784178090366     0.0613108929502     
1900000000.0        0.0790965120886     0.0646577290983     0.920698962324      -0.0836915071947    0.920698962324      -0.0836915071947    0.0790965120886     0.0646577290983     
2000000000.0        0.0798037208047     0.0679962488975     0.919970713761      -0.0880326516929    0.919970713761      -0.0880326516929    0.0798037208047     0.0679962488975     
2100000000.0        0.0805395661086     0.0713261058537     0.919212792451      -0.0923652517339    0.919212792451      -0.0923652517339    0.0805395661086     0.0713261058537     
2200000000.0        0.0813041417746     0.0746469531076     0.918425104038      -0.0966889648402    0.918425104038      -0.0966889648402    0.0813041417746     0.0746469531076     
2300000000.0        0.0820975094893     0.0779584439069     0.917607586231      -0.101003448588     0.917607586231      -0.101003448588     0.0820975094893     0.0779584439069     
2400000000.0        0.0829197029403     0.0812602320187     0.916760204722      -0.105308361022     0.916760204722      -0.105308361022     0.0829197029403     0.0812602320187     
2500000000.0        0.0837707311531     0.0845519720947     0.915882949846      -0.109603361024     0.915882949846      -0.109603361024     0.0837707311531     0.0845519720947     
2600000000.0        0.0846505812429     0.0878333199975     0.914975833827      -0.113888108639     0.914975833827      -0.113888108639     0.0846505812429     0.0878333199975     
2700000000.0        0.0855592207034     0.0911039330936     0.914038888494      -0.118162265375     0.914038888494      -0.118162265375     0.0855592207034     0.0911039330936     
2800000000.0        0.0864965993289     0.0943634705192     0.913072163357      -0.122425494466     0.913072163357      -0.122425494466     0.0864965993289     0.0943634705192     
2900000000.0        0.0874626508406     0.0976115934226     0.912075723978      -0.126677461119     0.912075723978      -0.126677461119     0.0874626508406     0.0976115934226     
3000000000.0        0.088457294274      0.100847965187      0.911049650588      -0.130917832735     0.911049650588      -0.130917832735     0.088457294274      0.100847965187      
3100000000.0        0.0894804351718     0.104072251634      0.909994036892      -0.13514627912      0.909994036892      -0.13514627912      0.0894804351718     0.104072251634      
3200000000.0        0.090531966616      0.107284121215      0.908908989039      -0.139362472672     0.908908989039      -0.139362472672     0.090531966616      0.107284121215      
3300000000.0        0.0916117701286     0.110483245189      0.907794624716      -0.143566088563     0.907794624716      -0.143566088563     0.0916117701286     0.110483245189      
3400000000.0        0.0927197164622     0.113669297785      0.906651072363      -0.147756804899     0.906651072363      -0.147756804899     0.0927197164622     0.113669297785      
3500000000.0        0.0938556662982     0.116841956354      0.905478470475      -0.151934302882     0.905478470475      -0.151934302882     0.0938556662982     0.116841956354      
3600000000.0        0.0950194708684     0.120000901521      0.904276966974      -0.156098266953     0.904276966974      -0.156098266953     0.0950194708684     0.120000901521      
3700000000.0        0.0962109725111     0.123145817315      0.903046718662      -0.160248384927     0.903046718662      -0.160248384927     0.0962109725111     0.123145817315      
3800000000.0        0.097430005172      0.126276391299      0.901787890712      -0.164384348124     0.901787890712      -0.164384348124     0.097430005172      0.126276391299      
3900000000.0        0.0986763948579     0.129392314689      0.900500656221      -0.168505851493     0.900500656221      -0.168505851493     0.0986763948579     0.129392314689      
4000000000.0        0.0999499600501     0.132493282474      0.899185195791      -0.172612593722     0.899185195791      -0.172612593722     0.0999499600501     0.132493282474      
4100000000.0        0.101250512083      0.135578993516      0.897841697154      -0.17670427735      0.897841697154      -0.17670427735      0.101250512083      0.135578993516      
4200000000.0        0.102577855494      0.138649150656      0.896470354822      -0.180780608871     0.896470354822      -0.180780608871     0.102577855494      0.138649150656      
4300000000.0        0.103931788345      0.141703460813      0.895071369764      -0.184841298826     0.895071369764      -0.184841298826     0.103931788345      0.141703460813      
4400000000.0        0.105312102524      0.14474163507       0.893644949105      -0.188886061901     0.893644949105      -0.188886061901     0.105312102524      0.14474163507       
4500000000.0        0.106718584027      0.147763388762      0.892191305846      -0.192914617008     0.892191305846      -0.192914617008     0.106718584027      0.147763388762      
4600000000.0        0.108151013219      0.15076844156       0.890710658598      -0.196926687371     0.890710658598      -0.196926687371     0.108151013219      0.15076844156       
4700000000.0        0.109609165089      0.153756517543      0.889203231335      -0.200922000604     0.889203231335      -0.200922000604     0.109609165089      0.153756517543      
4800000000.0        0.111092809478      0.156727345276      0.887669253157      -0.204900288779     0.887669253157      -0.204900288779     0.111092809478      0.156727345276      
4900000000.0        0.11260171131       0.159680657873      0.886108958069      -0.208861288501     0.886108958069      -0.208861288501     0.11260171131       0.159680657873      
5000000000.0        0.114135630802      0.162616193065      0.88452258476       -0.212804740967     0.88452258476       -0.212804740967     0.114135630802      0.162616193065      
5100000000.0        0.115694323668      0.165533693259      0.882910376407      -0.216730392032     0.882910376407      -0.216730392032     0.115694323668      0.165533693259      
5200000000.0        0.11727754132       0.168432905591      0.881272580474      -0.220637992262     0.881272580474      -0.220637992262     0.11727754132       0.168432905591      
5300000000.0        0.118885031052      0.171313581986      0.879609448521      -0.224527296989     0.879609448521      -0.224527296989     0.118885031052      0.171313581986      
5400000000.0        0.120516536225      0.1741754792        0.877921236028      -0.228398066356     0.877921236028      -0.228398066356     0.120516536225      0.1741754792        
5500000000.0        0.122171796444      0.177018358867      0.876208202212      -0.232250065372     0.876208202212      -0.232250065372     0.122171796444      0.177018358867      
5600000000.0        0.123850547728      0.179841987544      0.87447060986       -0.236083063945     0.87447060986       -0.236083063945     0.123850547728      0.179841987544      
5700000000.0        0.125552522674      0.182646136746      0.872708725162      -0.239896836925     0.872708725162      -0.239896836925     0.125552522674      0.182646136746      
5800000000.0        0.127277450624      0.185430582983      0.870922817547      -0.24369116414      0.870922817547      -0.24369116414      0.127277450624      0.185430582983      
5900000000.0        0.129025057817      0.18819510779       0.869113159529      -0.247465830428     0.869113159529      -0.247465830428     0.129025057817      0.18819510779       
6000000000.0        0.130795067547      0.19093949776       0.867280026554      -0.251220625662     0.867280026554      -0.251220625662     0.130795067547      0.19093949776       
6100000000.0        0.132587200309      0.193663544562      0.865423696844      -0.254955344785     0.865423696844      -0.254955344785     0.132587200309      0.193663544562      
6200000000.0        0.13440117395       0.196367044973      0.863544451256      -0.258669787822     0.863544451256      -0.258669787822     0.13440117395       0.196367044973      
6300000000.0        0.136236703809      0.199049800891      0.861642573136      -0.262363759909     0.861642573136      -0.262363759909     0.136236703809      0.199049800891      
6400000000.0        0.138093502862      0.201711619351      0.85971834818       -0.266037071304     0.85971834818       -0.266037071304     0.138093502862      0.201711619351      
6500000000.0        0.139971281855      0.204352312546      0.857772064293      -0.269689537404     0.857772064293      -0.269689537404     0.139971281855      0.204352312546      
6600000000.0        0.141869749443      0.206971697828      0.855804011454      -0.273320978755     0.855804011454      -0.273320978755     0.141869749443      0.206971697828      
6700000000.0        0.143788612322      0.209569597723      0.853814481588      -0.276931221061     0.853814481588      -0.276931221061     0.143788612322      0.209569597723      
6800000000.0        0.14572757536       0.212145839935      0.851803768427      -0.280520095189     0.851803768427      -0.280520095189     0.14572757536       0.212145839935      
6900000000.0        0.147686341724      0.214700257349      0.849772167389      -0.284087437173     0.849772167389      -0.284087437173     0.147686341724      0.214700257349      
7000000000.0        0.149664613007      0.217232688026      0.847719975451      -0.287633088212     0.847719975451      -0.287633088212     0.149664613007      0.217232688026      
7100000000.0        0.151662089353      0.21974297521       0.845647491019      -0.291156894673     0.845647491019      -0.291156894673     0.151662089353      0.21974297521       
7200000000.0        0.153678469575      0.222230967314      0.843555013815      -0.294658708078     0.843555013815      -0.294658708078     0.153678469575      0.222230967314      
7300000000.0        0.15571345128       0.224696517919      0.841442844751      -0.298138385106     0.841442844751      -0.298138385106     0.15571345128       0.224696517919      
7400000000.0        0.15776673098       0.22713948576       0.839311285815      -0.301595787577     0.839311285815      -0.301595787577     0.15776673098       0.22713948576       
7500000000.0        0.159838004215      0.229559734715      0.837160639952      -0.305030782443     0.837160639952      -0.305030782443     0.159838004215      0.229559734715      
7600000000.0        0.161926965662      0.231957133793      0.834991210954      -0.308443241772     0.834991210954      -0.308443241772     0.161926965662      0.231957133793      
7700000000.0        0.164033309246      0.234331557114      0.832803303345      -0.311833042734     0.832803303345      -0.311833042734     0.164033309246      0.234331557114      
7800000000.0        0.166156728254      0.236682883893      0.830597222274      -0.31520006758      0.830597222274      -0.31520006758      0.166156728254      0.236682883893      
7900000000.0        0.16829691544       0.239010998417      0.828373273403      -0.318544203624     0.828373273403      -0.318544203624     0.16829691544       0.239010998417      
8000000000.0        0.170453563132      0.241315790021      0.826131762808      -0.321865343216     0.826131762808      -0.321865343216     0.170453563132      0.241315790021      
8100000000.0        0.172626363335      0.243597153068      0.823872996867      -0.325163383721     0.823872996867      -0.325163383721     0.172626363335      0.243597153068      
8200000000.0        0.174815007834      0.245854986916      0.821597282161      -0.328438227492     0.821597282161      -0.328438227492     0.174815007834      0.245854986916      
8300000000.0        0.177019188296      0.248089195893      0.819304925377      -0.331689781838     0.819304925377      -0.331689781838     0.177019188296      0.248089195893      
8400000000.0        0.179238596365      0.250299689266      0.816996233202      -0.334917958999     0.816996233202      -0.334917958999     0.179238596365      0.250299689266      
8500000000.0        0.181472923763      0.252486381205      0.814671512235      -0.338122676107     0.814671512235      -0.338122676107     0.181472923763      0.252486381205      
8600000000.0        0.183721862381      0.254649190755      0.812331068884      -0.341303855158     0.812331068884      -0.341303855158     0.183721862381      0.254649190755      
8700000000.0        0.185985104374      0.256788041793      0.809975209278      -0.344461422972     0.809975209278      -0.344461422972     0.185985104374      0.256788041793      
8800000000.0        0.188262342251      0.258902862997      0.807604239176      -0.34759531116      0.807604239176      -0.34759531116      0.188262342251      0.258902862997      
8900000000.0        0.190553268967      0.260993587803      0.805218463876      -0.350705456078     0.805218463876      -0.350705456078     0.190553268967      0.260993587803      
9000000000.0        0.192857578004      0.263060154364      0.802818188127      -0.353791798795     0.802818188127      -0.353791798795     0.192857578004      0.263060154364      
9100000000.0        0.195174963465      0.26510250551       0.800403716045      -0.356854285046     0.800403716045      -0.356854285046     0.195174963465      0.26510250551       
9200000000.0        0.197505120151      0.267120588705      0.79797535103       -0.359892865189     0.79797535103       -0.359892865189     0.197505120151      0.267120588705      
9300000000.0        0.199847743646      0.269114356         0.795533395682      -0.362907494162     0.795533395682      -0.362907494162     0.199847743646      0.269114356         
9400000000.0        0.202202530394      0.271083763988      0.793078151722      -0.365898131435     0.793078151722      -0.365898131435     0.202202530394      0.271083763988      
9500000000.0        0.204569177783      0.273028773755      0.790609919916      -0.368864740965     0.790609919916      -0.368864740965     0.204569177783      0.273028773755      
9600000000.0        0.206947384212      0.274949350836      0.788128999996      -0.371807291148     0.788128999996      -0.371807291148     0.206947384212      0.274949350836      
9700000000.0        0.209336849176      0.27684546516       0.785635690585      -0.374725754764     0.785635690585      -0.374725754764     0.209336849176      0.27684546516       
9800000000.0        0.21173727333       0.278717091002      0.783130289129      -0.377620108935     0.783130289129      -0.377620108935     0.21173727333       0.278717091002      
9900000000.0        0.214148358562      0.280564206932      0.780613091821      -0.380490335066     0.780613091821      -0.380490335066     0.214148358562      0.280564206932      
10000000000.0       0.216569808065      0.282386795759      0.778084393537      -0.383336418796     0.778084393537      -0.383336418796     0.216569808065      0.282386795759      
