# Hz S RI R 50.00 
100000000.0         0.000171077640469   -0.0028416354654    0.999800354546      -0.00367675567989   0.999800354546      -0.00367675567989   0.000171077640469   -0.0028416354654    
200000000.0         0.000137823979913   -0.00568312071592   0.999763548201      -0.00735337706496   0.999763548201      -0.00735337706496   0.000137823979913   -0.00568312071592   
300000000.0         8.33525656709e-05   -0.00852430044492   0.999705470091      -0.0110297215087    0.999705470091      -0.0110297215087    8.33525656709e-05   -0.00852430044492   
400000000.0         7.82612238548e-06   -0.0113650092719    0.999625963164      -0.0147056330533    0.999625963164      -0.0147056330533    7.82612238548e-06   -0.0113650092719    
500000000.0         -8.86894011201e-05  -0.0142050765544    0.999524970513      -0.0183809491525    0.999524970513      -0.0183809491525    -8.86894011201e-05  -0.0142050765544    
600000000.0         -0.000206156412761  -0.0170443281779    0.999402467182      -0.0220555029793    0.999402467182      -0.0220555029793    -0.000206156412761  -0.0170443281779    
700000000.0         -0.000344548260899  -0.0198825874941    0.999258442901      -0.0257291246084    0.999258442901      -0.0257291246084    -0.000344548260899  -0.0198825874941    
800000000.0         -0.000503842856238  -0.022719675902     0.999092895831      -0.0294016417348    0.999092895831      -0.0294016417348    -0.000503842856238  -0.022719675902     
900000000.0         -0.00068401981507   -0.025555413243     0.998905829801      -0.0330728801578    0.998905829801      -0.0330728801578    -0.00068401981507   -0.025555413243     
1000000000.0        -0.000885058998546  -0.0283896180905    0.998697252927      -0.0367426641306    0.998697252927      -0.0367426641306    -0.000885058998546  -0.0283896180905    
1100000000.0        -0.00110693969087   -0.0312221079731    0.998467176852      -0.0404108166274    0.998467176852      -0.0404108166274    -0.00110693969087   -0.0312221079731    
1200000000.0        -0.00134964010221   -0.0340526995538    0.998215616306      -0.0440771595556    0.998215616306      -0.0440771595556    -0.00134964010221   -0.0340526995538    
1300000000.0        -0.00161313705015   -0.0368812087793    0.997942588837      -0.0477415139305    0.997942588837      -0.0477415139305    -0.00161313705015   -0.0368812087793    
1400000000.0        -0.00189740574594   -0.0397074510071    0.997648114634      -0.051403700023     0.997648114634      -0.051403700023     -0.00189740574594   -0.0397074510071    
1500000000.0        -0.00220241964555   -0.0425312411165    0.997332216414      -0.0550635374867    0.997332216414      -0.0550635374867    -0.00220241964555   -0.0425312411165    
1600000000.0        -0.00252815034245   -0.0453523936072    0.996994919346      -0.0587208454705    0.996994919346      -0.0587208454705    -0.00252815034245   -0.0453523936072    
1700000000.0        -0.00287456748869   -0.0481707226889    0.996636250998      -0.0623754427197    0.996636250998      -0.0623754427197    -0.00287456748869   -0.0481707226889    
1800000000.0        -0.00324163873544   -0.0509860423626    0.996256241293      -0.0660271476668    0.996256241293      -0.0660271476668    -0.00324163873544   -0.0509860423626    
1900000000.0        -0.0036293296876    -0.0537981664966    0.995854922488      -0.0696757785158    0.995854922488      -0.0696757785158    -0.0036293296876    -0.0537981664966    
2000000000.0        -0.00403760386885   -0.0566069088971    0.995432329152      -0.0733211533207    0.995432329152      -0.0733211533207    -0.00403760386885   -0.0566069088971    
2100000000.0        -0.00446642269451   -0.0594120833751    0.994988498145      -0.0769630900575    0.994988498145      -0.0769630900575    -0.00446642269451   -0.0594120833751    
2200000000.0        -0.00491574545059   -0.0622135038091    0.994523468612      -0.0806014066941    0.994523468612      -0.0806014066941    -0.00491574545059   -0.0622135038091    
2300000000.0        -0.00538552927764   -0.0650109842062    0.994037281967      -0.0842359212548    0.994037281967      -0.0842359212548    -0.00538552927764   -0.0650109842062    
2400000000.0        -0.00587572915868   -0.0678043387594    0.993529981887      -0.0878664518832    0.993529981887      -0.0878664518832    -0.00587572915868   -0.0678043387594    
2500000000.0        -0.00638629791037   -0.0705933819037    0.993001614301      -0.0914928169015    0.993001614301      -0.0914928169015    -0.00638629791037   -0.0705933819037    
2600000000.0        -0.00691718617697   -0.0733779283697    0.992452227385      -0.0951148348683    0.992452227385      -0.0951148348683    -0.00691718617696   -0.0733779283697    
2700000000.0        -0.00746834242674   -0.0761577932362    0.991881871547      -0.0987323246339    0.991881871547      -0.0987323246339    -0.00746834242674   -0.0761577932362    
2800000000.0        -0.00803971295049   -0.0789327919802    0.991290599429      -0.102345105394     0.991290599429      -0.102345105394     -0.00803971295049   -0.0789327919802    
2900000000.0        -0.00863124186191   -0.0817027405272    0.990678465889      -0.105952996741     0.990678465889      -0.105952996741     -0.00863124186191   -0.0817027405272    
3000000000.0        -0.0092428710997    -0.0844674552986    0.990045527997      -0.109555818717     0.990045527997      -0.109555818717     -0.0092428710997    -0.0844674552986    
3100000000.0        -0.00987454043118   -0.087226753259     0.989391845025      -0.113153391861     0.989391845025      -0.113153391861     -0.00987454043118   -0.087226753259     
3200000000.0        -0.0105261874573    -0.0899804519627    0.988717478437      -0.116745537256     0.988717478437      -0.116745537256     -0.0105261874573    -0.0899804519627    
3300000000.0        -0.0111977476191    -0.0927283695978    0.988022491878      -0.12033207658      0.988022491878      -0.12033207658      -0.0111977476191    -0.0927283695978    
3400000000.0        -0.0118891542052    -0.0954703250311    0.98730695116       -0.123912832148     0.98730695116       -0.123912832148     -0.0118891542052    -0.0954703250311    
3500000000.0        -0.0126003383604    -0.0982061378512    0.986570924257      -0.127487626959     0.986570924257      -0.127487626959     -0.0126003383604    -0.0982061378512    
3600000000.0        -0.013331229096     -0.100935628411     0.985814481287      -0.131056284741     0.985814481287      -0.131056284741     -0.013331229096     -0.100935628411     
3700000000.0        -0.0140817533002    -0.103658617869     0.985037694498      -0.134618629991     0.985037694498      -0.134618629991     -0.0140817533002    -0.103658617869     
3800000000.0        -0.0148518357502    -0.106374928231     0.98424063826       -0.138174488019     0.98424063826       -0.138174488019     -0.0148518357502    -0.106374928231     
3900000000.0        -0.015641399125     -0.10908438239      0.983423389044      -0.141723684992     0.983423389044      -0.141723684992     -0.015641399125     -0.10908438239      
4000000000.0        -0.0164503640191    -0.111786804165     0.98258602541       -0.145266047971     0.98258602541       -0.145266047971     -0.0164503640191    -0.111786804165     
4100000000.0        -0.0172786489573    -0.11448201834      0.981728627992      -0.14880140495      0.981728627992      -0.14880140495      -0.0172786489573    -0.11448201834      
4200000000.0        -0.01812617041      -0.117169850704     0.980851279476      -0.152329584903     0.980851279476      -0.152329584903     -0.01812617041      -0.117169850704     
4300000000.0        -0.0189928428096    -0.119850128086     0.97995406459       -0.155850417812     0.97995406459       -0.155850417812     -0.0189928428096    -0.119850128086     
4400000000.0        -0.0198785785674    -0.122522678393     0.979037070079      -0.159363734711     0.979037070079      -0.159363734711     -0.0198785785674    -0.122522678393     
4500000000.0        -0.0207832880918    -0.125187330644     0.978100384693      -0.162869367725     0.978100384693      -0.162869367725     -0.0207832880918    -0.125187330644     
4600000000.0        -0.0217068798067    -0.12784391501      0.977144099161      -0.166367150098     0.977144099161      -0.166367150098     -0.0217068798067    -0.12784391501      
4700000000.0        -0.0226492601709    -0.130492262844     0.976168306175      -0.169856916238     0.976168306175      -0.169856916238     -0.0226492601709    -0.130492262844     
4800000000.0        -0.0236103336978    -0.133132206718     0.975173100369      -0.173338501746     0.975173100369      -0.173338501746     -0.0236103336978    -0.133132206718     
4900000000.0        -0.0245900029769    -0.135763580454     0.974158578297      -0.17681174345      0.974158578297      -0.17681174345      -0.0245900029769    -0.135763580454     
5000000000.0        -0.0255881686942    -0.138386219161     0.973124838411      -0.180276479443     0.973124838411      -0.180276479443     -0.0255881686942    -0.138386219161     
5100000000.0        -0.0266047296549    -0.140999959261     0.97207198104       -0.183732549114     0.97207198104       -0.183732549114     -0.0266047296549    -0.140999959261     
5200000000.0        -0.0276395828058    -0.143604638528     0.971000108363      -0.187179793175     0.971000108363      -0.187179793175     -0.0276395828058    -0.143604638528     
5300000000.0        -0.0286926232585    -0.146200096111     0.969909324391      -0.190618053702     0.969909324391      -0.190618053702     -0.0286926232585    -0.146200096111     
5400000000.0        -0.029763744313     -0.14878617257      0.96879973494       -0.194047174157     0.96879973494       -0.194047174157     -0.029763744313     -0.14878617257      
5500000000.0        -0.0308528374825    -0.151362709903     0.967671447605      -0.197466999424     0.967671447605      -0.197466999424     -0.0308528374825    -0.151362709903     
5600000000.0        -0.031959792518     -0.153929551576     0.966524571738      -0.200877375835     0.966524571738      -0.200877375835     -0.031959792518     -0.153929551576     
5700000000.0        -0.0330844974337    -0.156486542549     0.965359218419      -0.204278151199     0.965359218419      -0.204278151199     -0.0330844974337    -0.156486542549     
5800000000.0        -0.0342268385332    -0.159033529306     0.964175500432      -0.207669174833     0.964175500432      -0.207669174833     -0.0342268385332    -0.159033529306     
5900000000.0        -0.0353867004354    -0.16157035988      0.962973532239      -0.211050297585     0.962973532239      -0.211050297585     -0.0353867004354    -0.16157035988      
6000000000.0        -0.0365639661021    -0.164096883881     0.961753429951      -0.214421371865     0.961753429951      -0.214421371865     -0.0365639661021    -0.164096883881     
6100000000.0        -0.0377585168647    -0.16661295252      0.960515311301      -0.217782251667     0.960515311301      -0.217782251667     -0.0377585168647    -0.16661295252      
6200000000.0        -0.0389702324523    -0.169118418632     0.959259295617      -0.221132792597     0.959259295617      -0.221132792597     -0.0389702324523    -0.169118418632     
6300000000.0        -0.0401989910198    -0.171613136706     0.957985503792      -0.224472851895     0.957985503792      -0.224472851895     -0.0401989910198    -0.171613136706     
6400000000.0        -0.0414446691766    -0.174096962902     0.956694058257      -0.227802288462     0.956694058257      -0.227802288462     -0.0414446691766    -0.174096962902     
6500000000.0        -0.0427071420152    -0.176569755077     0.955385082951      -0.231120962881     0.955385082951      -0.231120962881     -0.0427071420152    -0.176569755077     
6600000000.0        -0.0439862831411    -0.179031372807     0.954058703292      -0.234428737438     0.954058703292      -0.234428737438     -0.0439862831411    -0.179031372807     
6700000000.0        -0.0452819647021    -0.181481677406     0.952715046147      -0.237725476149     0.952715046147      -0.237725476149     -0.0452819647021    -0.181481677406     
6800000000.0        -0.0465940574182    -0.183920531949     0.951354239803      -0.241011044774     0.951354239803      -0.241011044774     -0.0465940574182    -0.183920531949     
6900000000.0        -0.0479224306124    -0.186347801292     0.949976413932      -0.244285310843     0.949976413932      -0.244285310843     -0.0479224306124    -0.186347801292     
7000000000.0        -0.0492669522408    -0.188763352091     0.948581699567      -0.247548143672     0.948581699567      -0.247548143672     -0.0492669522408    -0.188763352091     
7100000000.0        -0.0506274889239    -0.191167052818     0.947170229066      -0.250799414384     0.947170229066      -0.250799414384     -0.0506274889239    -0.191167052818     
7200000000.0        -0.0520039059773    -0.193558773781     0.945742136085      -0.254038995927     0.945742136085      -0.254038995927     -0.0520039059773    -0.193558773781     
7300000000.0        -0.0533960674436    -0.195938387143     0.944297555541      -0.257266763088     0.944297555541      -0.257266763088     -0.0533960674436    -0.195938387143     
7400000000.0        -0.0548038361237    -0.198305766933     0.942836623585      -0.260482592515     0.942836623585      -0.260482592515     -0.0548038361237    -0.198305766933     
7500000000.0        -0.0562270736089    -0.200660789069     0.941359477568      -0.263686362731     0.941359477568      -0.263686362731     -0.0562270736089    -0.200660789069     
7600000000.0        -0.0576656403125    -0.203003331367     0.93986625601       -0.266877954146     0.93986625601       -0.266877954146     -0.0576656403125    -0.203003331367     
7700000000.0        -0.0591193955024    -0.205333273556     0.938357098567      -0.270057249077     0.938357098567      -0.270057249077     -0.0591193955024    -0.205333273556     
7800000000.0        -0.0605881973334    -0.207650497295     0.936832145998      -0.273224131758     0.936832145998      -0.273224131758     -0.0605881973334    -0.207650497295     
7900000000.0        -0.0620719028796    -0.209954886184     0.935291540134      -0.276378488356     0.935291540134      -0.276378488356     -0.0620719028796    -0.209954886184     
8000000000.0        -0.0635703681671    -0.212246325775     0.933735423845      -0.279520206979     0.933735423845      -0.279520206979     -0.0635703681671    -0.212246325775     
8100000000.0        -0.0650834482068    -0.214524703586     0.932163941004      -0.282649177694     0.932163941004      -0.282649177694     -0.0650834482068    -0.214524703586     
8200000000.0        -0.0666109970272    -0.216789909109     0.93057723646       -0.285765292532     0.93057723646       -0.285765292532     -0.0666109970272    -0.216789909109     
8300000000.0        -0.0681528677074    -0.219041833822     0.928975455999      -0.288868445503     0.928975455999      -0.288868445503     -0.0681528677074    -0.219041833822     
8400000000.0        -0.06970891241      -0.2212803712       0.927358746316      -0.291958532604     0.927358746316      -0.291958532604     -0.06970891241      -0.2212803712       
8500000000.0        -0.0712789824143    -0.22350541672      0.925727254979      -0.295035451826     0.925727254979      -0.295035451826     -0.0712789824143    -0.22350541672      
8600000000.0        -0.0728629281492    -0.225716867871     0.924081130396      -0.298099103167     0.924081130396      -0.298099103167     -0.0728629281492    -0.225716867871     
8700000000.0        -0.0744605992267    -0.227914624164     0.922420521782      -0.301149388634     0.922420521782      -0.301149388634     -0.0744605992267    -0.227914624164     
8800000000.0        -0.0760718444743    -0.230098587132     0.920745579127      -0.304186212254     0.920745579127      -0.304186212254     -0.0760718444743    -0.230098587132     
8900000000.0        -0.0776965119691    -0.232268660343     0.919056453162      -0.30720948008      0.919056453162      -0.30720948008      -0.0776965119691    -0.232268660343     
9000000000.0        -0.0793344490698    -0.234424749404     0.917353295326      -0.310219100195     0.917353295326      -0.310219100195     -0.0793344490698    -0.234424749404     
9100000000.0        -0.0809855024508    -0.236566761961     0.915636257733      -0.313214982716     0.915636257733      -0.313214982716     -0.0809855024508    -0.236566761961     
9200000000.0        -0.0826495181344    -0.238694607709     0.913905493137      -0.316197039802     0.913905493137      -0.316197039802     -0.0826495181344    -0.238694607709     
9300000000.0        -0.0843263415241    -0.240808198393     0.912161154904      -0.319165185656     0.912161154904      -0.319165185656     -0.0843263415241    -0.240808198393     
9400000000.0        -0.0860158174375    -0.24290744781      0.910403396974      -0.322119336525     0.910403396974      -0.322119336525     -0.0860158174375    -0.24290744781      
9500000000.0        -0.0877177901388    -0.244992271812     0.90863237383       -0.325059410708     0.90863237383       -0.325059410708     -0.0877177901388    -0.244992271812     
9600000000.0        -0.0894321033719    -0.247062588309     0.906848240467      -0.327985328551     0.906848240467      -0.327985328551     -0.0894321033719    -0.247062588309     
9700000000.0        -0.0911586003924    -0.249118317268     0.905051152355      -0.330897012455     0.905051152355      -0.330897012455     -0.0911586003924    -0.249118317268     
9800000000.0        -0.0928971240004    -0.251159380711     0.903241265413      -0.333794386872     0.903241265413      -0.333794386872     -0.0928971240004    -0.251159380711     
9900000000.0        -0.0946475165727    -0.253185702723     0.901418735972      -0.336677378305     0.901418735972      -0.336677378305     -0.0946475165727    -0.253185702723     
10000000000.0       -0.096409620095     -0.255197209442     0.899583720742      -0.339545915311     0.899583720742      -0.339545915311     -0.096409620095     -0.255197209442     
