# Hz S RI R 50.00 
100000000.0         0.0144360737806     0.00121647211892    0.985562402722      -0.00167043197295   0.985562402722      -0.00167043197295   0.0144360737806     0.00121647211892    
200000000.0         0.0145359647175     0.00243237884317    0.985461781183      -0.00334030098326   0.985461781183      -0.00334030098326   0.0145359647175     0.00243237884317    
300000000.0         0.0146145335752     0.00364792771055    0.985382274598      -0.0050098161       0.985382274598      -0.0050098161       0.0146145335752     0.00364792771055    
400000000.0         0.0146842006045     0.00486318029762    0.985311462699      -0.00667904012262   0.985311462699      -0.00667904012262   0.0146842006045     0.00486318029762    
500000000.0         0.0147497595429     0.00607816417896    0.985244551729      -0.00834800169408   0.985244551729      -0.00834800169408   0.0147497595429     0.00607816417896    
600000000.0         0.0148136601513     0.00729289185396    0.98517909191       -0.0100167142816    0.98517909191       -0.0100167142816    0.0148136601513     0.00729289185396    
700000000.0         0.0148773523555     0.00850736754855    0.985113633297      -0.0116851830057    0.985113633297      -0.0116851830057    0.0148773523555     0.00850736754855    
800000000.0         0.0149417772399     0.00972159037114    0.985047234783      -0.0133534078126    0.985047234783      -0.0133534078126    0.0149417772399     0.00972159037114    
900000000.0         0.0150075858449     0.0109355560082     0.984979245307      -0.0150213851807    0.984979245307      -0.0150213851807    0.0150075858449     0.0109355560082     
1000000000.0        0.015075250161      0.0121492577285     0.984909192857      -0.0166891091323    0.984909192857      -0.0166891091323    0.015075250161      0.0121492577285     
1100000000.0        0.0151451248781     0.0133626870207     0.984836722718      -0.0183565718766    0.984836722718      -0.0183565718766    0.0151451248781     0.0133626870207     
1200000000.0        0.0152174842104     0.0145758340209     0.984761560651      -0.0200237642418    0.984761560651      -0.0200237642418    0.0152174842104     0.0145758340209     
1300000000.0        0.0152925450819     0.0157886878106     0.984683489707      -0.0216906759762    0.984683489707      -0.0216906759762    0.0152925450819     0.0157886878106     
1400000000.0        0.0153704823791     0.0170012366326     0.984602334973      -0.0233572959668    0.984602334973      -0.0233572959668    0.0153704823791     0.0170012366326     
1500000000.0        0.0154514393517     0.0182134680506     0.984517953171      -0.0250236124012    0.984517953171      -0.0250236124012    0.0154514393517     0.0182134680506     
1600000000.0        0.0155355349239     0.0194253690714     0.984430225348      -0.0266896128913    0.984430225348      -0.0266896128913    0.0155355349239     0.0194253690714     
1700000000.0        0.0156228689665     0.0206369262388     0.984339051604      -0.0283552845695    0.984339051604      -0.0283552845695    0.0156228689665     0.0206369262388     
1800000000.0        0.015713526185      0.0218481257087     0.984244347201      -0.0300206141639    0.984244347201      -0.0300206141639    0.015713526185      0.0218481257087     
1900000000.0        0.0158075790424     0.023058953308      0.984146039647      -0.0316855880599    0.984146039647      -0.0316855880599    0.0158075790424     0.023058953308      
2000000000.0        0.0159050899939     0.0242693945843     0.984044066451      -0.0333501923491    0.984044066451      -0.0333501923491    0.0159050899939     0.0242693945843     
2100000000.0        0.0160061132214     0.0254794348445     0.9839383734        -0.0350144128705    0.9839383734        -0.0350144128705    0.0160061132214     0.0254794348445     
2200000000.0        0.0161106959988     0.026689059189      0.983828913185      -0.0366782352441    0.983828913185      -0.0366782352441    0.0161106959988     0.026689059189      
2300000000.0        0.0162188797783     0.0278982525387     0.983715644318      -0.0383416448996    0.983715644318      -0.0383416448996    0.0162188797783     0.0278982525387     
2400000000.0        0.0163307010655     0.0291069996592     0.983598530257      -0.0400046271001    0.983598530257      -0.0400046271001    0.0163307010655     0.0291069996592     
2500000000.0        0.0164461921303     0.0303152851802     0.983477538694      -0.0416671669635    0.983477538694      -0.0416671669635    0.0164461921303     0.0303152851802     
2600000000.0        0.0165653815909     0.0315230936134     0.983352640975      -0.0433292494795    0.983352640975      -0.0433292494795    0.0165653815909     0.0315230936134     
2700000000.0        0.016688294896      0.0327304093669     0.98322381161       -0.0449908595254    0.98322381161       -0.0449908595254    0.016688294896      0.0327304093669     
2800000000.0        0.0168149547273     0.0339372167587     0.983091027879      -0.0466519818794    0.983091027879      -0.0466519818794    0.0168149547273     0.0339372167587     
2900000000.0        0.0169453813371     0.0351435000277     0.982954269489      -0.0483126012323    0.982954269489      -0.0483126012323    0.0169453813371     0.0351435000277     
3000000000.0        0.0170795928335     0.0363492433439     0.98281351829       -0.0499727021982    0.98281351829       -0.0499727021982    0.0170795928335     0.0363492433439     
3100000000.0        0.017217605423      0.0375544308174     0.982668758033      -0.0516322693231    0.982668758033      -0.0516322693231    0.017217605423      0.0375544308174     
3200000000.0        0.0173594336175     0.038759046506      0.982519974164      -0.053291287094     0.982519974164      -0.053291287094     0.0173594336175     0.038759046506      
3300000000.0        0.0175050904126     0.0399630744226     0.982367153642      -0.0549497399452    0.982367153642      -0.0549497399452    0.0175050904126     0.0399630744226     
3400000000.0        0.0176545874407     0.0411664985415     0.982210284792      -0.056607612266     0.982210284792      -0.056607612266     0.0176545874407     0.0411664985415     
3500000000.0        0.0178079351053     0.042369302804      0.982049357163      -0.0582648884058    0.982049357163      -0.0582648884058    0.0178079351053     0.042369302804      
3600000000.0        0.017965142696      0.0435714711237     0.98188436142       -0.0599215526798    0.98188436142       -0.0599215526798    0.017965142696      0.0435714711237     
3700000000.0        0.0181262184911     0.0447729873911     0.981715289239      -0.0615775893742    0.981715289239      -0.0615775893742    0.0181262184911     0.0447729873911     
3800000000.0        0.018291169846      0.0459738354781     0.981542133215      -0.0632329827504    0.981542133215      -0.0632329827504    0.018291169846      0.0459738354781     
3900000000.0        0.0184600032722     0.0471739992417     0.98136488679       -0.0648877170489    0.98136488679       -0.0648877170489    0.0184600032722     0.0471739992417     
4000000000.0        0.0186327245066     0.048373462528      0.981183544176      -0.0665417764939    0.981183544176      -0.0665417764939    0.0186327245066     0.048373462528      
4100000000.0        0.0188093385733     0.0495722091749     0.9809981003        -0.0681951452957    0.9809981003        -0.0681951452957    0.0188093385733     0.0495722091749     
4200000000.0        0.0189898498384     0.0507702230158     0.980808550746      -0.069847807655     0.980808550746      -0.069847807655     0.0189898498384     0.0507702230158     
4300000000.0        0.0191742620588     0.0519674878822     0.980614891706      -0.071499747765     0.980614891706      -0.071499747765     0.0191742620588     0.0519674878822     
4400000000.0        0.0193625784262     0.0531639876062     0.980417119934      -0.0731509498148    0.980417119934      -0.0731509498148    0.0193625784262     0.0531639876062     
4500000000.0        0.0195548016063     0.0543597060233     0.980215232714      -0.0748013979916    0.980215232714      -0.0748013979916    0.0195548016063     0.0543597060233     
4600000000.0        0.0197509337745     0.0555546269745     0.980009227817      -0.0764510764837    0.980009227817      -0.0764510764837    0.0197509337745     0.0555546269745     
4700000000.0        0.0199509766472     0.0567487343083     0.979799103472      -0.078099969482     0.979799103472      -0.078099969482     0.0199509766472     0.0567487343083     
4800000000.0        0.0201549315113     0.0579420118832     0.979584858338      -0.0797480611826    0.979584858338      -0.0797480611826    0.0201549315113     0.0579420118832     
4900000000.0        0.0203627992497     0.0591344435693     0.979366491476      -0.081395335789     0.979366491476      -0.081395335789     0.0203627992497     0.0591344435693     
5000000000.0        0.0205745803658     0.06032601325       0.979144002328      -0.0830417775135    0.979144002328      -0.0830417775135    0.0205745803658     0.06032601325       
5100000000.0        0.0207902750043     0.0615167048238     0.978917390692      -0.0846873705794    0.978917390692      -0.0846873705794    0.0207902750043     0.0615167048238     
5200000000.0        0.0210098829716     0.0627065022063     0.978686656704      -0.0863320992226    0.978686656704      -0.0863320992226    0.0210098829716     0.0627065022063     
5300000000.0        0.0212334037532     0.0638953893311     0.978451800821      -0.0879759476929    0.978451800821      -0.0879759476929    0.0212334037532     0.0638953893311     
5400000000.0        0.0214608365307     0.0650833501515     0.978212823803      -0.0896189002563    0.978212823803      -0.0896189002563    0.0214608365307     0.0650833501515     
5500000000.0        0.0216921801966     0.0662703686422     0.977969726699      -0.0912609411956    0.977969726699      -0.0912609411956    0.0216921801966     0.0662703686422     
5600000000.0        0.0219274333682     0.0674564288002     0.977722510831      -0.0929020548124    0.977722510831      -0.0929020548124    0.0219274333682     0.0674564288002     
5700000000.0        0.0221665944005     0.0686415146461     0.977471177785      -0.0945422254282    0.977471177785      -0.0945422254282    0.0221665944005     0.0686415146461     
5800000000.0        0.0224096613978     0.0698256102258     0.977215729395      -0.0961814373858    0.977215729395      -0.0961814373858    0.0224096613978     0.0698256102258     
5900000000.0        0.0226566322249     0.0710086996109     0.976956167734      -0.0978196750503    0.976956167734      -0.0978196750503    0.0226566322249     0.0710086996109     
6000000000.0        0.0229075045167     0.0721907669004     0.976692495107      -0.0994569228105    0.976692495107      -0.0994569228105    0.0229075045167     0.0721907669004     
6100000000.0        0.023162275688      0.0733717962217     0.976424714036      -0.10109316508      0.976424714036      -0.10109316508      0.023162275688      0.0733717962217     
6200000000.0        0.0234209429417     0.0745517717313     0.976152827254      -0.102728386299     0.976152827254      -0.102728386299     0.0234209429417     0.0745517717313     
6300000000.0        0.0236835032771     0.0757306776161     0.975876837698      -0.104362570933     0.975876837698      -0.104362570933     0.0236835032771     0.0757306776161     
6400000000.0        0.0239499534974     0.0769084980944     0.975596748502      -0.105995703476     0.975596748502      -0.105995703476     0.0239499534974     0.0769084980944     
6500000000.0        0.0242202902165     0.0780852174166     0.975312562986      -0.107627768453     0.975312562986      -0.107627768453     0.0242202902165     0.0780852174166     
6600000000.0        0.0244945098655     0.0792608198661     0.975024284654      -0.109258750416     0.975024284654      -0.109258750416     0.0244945098655     0.0792608198661     
6700000000.0        0.024772608699      0.0804352897606     0.974731917185      -0.11088863395      0.974731917185      -0.11088863395      0.024772608699      0.0804352897606     
6800000000.0        0.0250545828004     0.0816086114523     0.974435464429      -0.11251740367      0.974435464429      -0.11251740367      0.0250545828004     0.0816086114523     
6900000000.0        0.0253404280877     0.0827807693293     0.974134930403      -0.114145044224     0.974134930403      -0.114145044224     0.0253404280877     0.0827807693293     
7000000000.0        0.025630140318      0.083951747816      0.97383031928       -0.115771540295     0.97383031928       -0.115771540295     0.025630140318      0.083951747816      
7100000000.0        0.0259237150925     0.0851215313741     0.973521635391      -0.117396876599     0.973521635391      -0.117396876599     0.0259237150925     0.0851215313741     
7200000000.0        0.0262211478608     0.0862901045032     0.97320888322       -0.119021037886     0.97320888322       -0.119021037886     0.0262211478608     0.0862901045032     
7300000000.0        0.0265224339251     0.0874574517418     0.972892067393      -0.120644008944     0.972892067393      -0.120644008944     0.0265224339251     0.0874574517418     
7400000000.0        0.026827568444      0.0886235576676     0.972571192683      -0.122265774597     0.972571192683      -0.122265774597     0.026827568444      0.0886235576676     
7500000000.0        0.0271365464365     0.0897884068986     0.972246264002      -0.123886319705     0.972246264002      -0.123886319705     0.0271365464365     0.0897884068986     
7600000000.0        0.0274493627851     0.0909519840935     0.971917286395      -0.125505629167     0.971917286395      -0.125505629167     0.0274493627851     0.0909519840935     
7700000000.0        0.0277660122392     0.0921142739527     0.971584265043      -0.127123687922     0.971584265043      -0.127123687922     0.0277660122392     0.0921142739527     
7800000000.0        0.0280864894185     0.0932752612185     0.971247205253      -0.128740480946     0.971247205253      -0.128740480946     0.0280864894185     0.0932752612185     
7900000000.0        0.0284107888157     0.0944349306761     0.970906112463      -0.130355993257     0.970906112463      -0.130355993257     0.0284107888157     0.0944349306761     
8000000000.0        0.0287389047993     0.095593267154      0.970560992229      -0.131970209913     0.970560992229      -0.131970209913     0.0287389047993     0.095593267154      
8100000000.0        0.0290708316167     0.0967502555249     0.970211850233      -0.133583116014     0.970211850233      -0.133583116014     0.0290708316167     0.0967502555249     
8200000000.0        0.029406563396      0.097905880706      0.969858692272      -0.135194696701     0.969858692272      -0.135194696701     0.029406563396      0.097905880706      
8300000000.0        0.0297460941492     0.0990601276595     0.969501524261      -0.13680493716      0.969501524261      -0.13680493716      0.0297460941492     0.0990601276595     
8400000000.0        0.030089417774      0.100212981394      0.969140352227      -0.138413822617     0.969140352227      -0.138413822617     0.030089417774      0.100212981394      
8500000000.0        0.0304365280563     0.101364426963      0.968775182309      -0.140021338345     0.968775182309      -0.140021338345     0.0304365280563     0.101364426963      
8600000000.0        0.0307874186721     0.102514449469      0.968406020757      -0.14162746966      0.968406020757      -0.14162746966      0.0307874186721     0.102514449469      
8700000000.0        0.0311420831899     0.103663034061      0.968032873926      -0.143232201922     0.968032873926      -0.143232201922     0.0311420831899     0.103663034061      
8800000000.0        0.031500515072      0.104810165935      0.967655748277      -0.144835520539     0.967655748277      -0.144835520539     0.031500515072      0.104810165935      
8900000000.0        0.0318627076771     0.105955830336      0.967274650376      -0.146437410964     0.967274650376      -0.146437410964     0.0318627076771     0.105955830336      
9000000000.0        0.0322286542616     0.107100012559      0.966889586888      -0.148037858696     0.966889586888      -0.148037858696     0.0322286542616     0.107100012559      
9100000000.0        0.0325983479814     0.108242697947      0.966500564581      -0.149636849283     0.966500564581      -0.149636849283     0.0325983479814     0.108242697947      
9200000000.0        0.0329717818936     0.109383871895      0.966107590319      -0.151234368318     0.966107590319      -0.151234368318     0.0329717818936     0.109383871895      
9300000000.0        0.0333489489582     0.110523519846      0.965710671064      -0.152830401446     0.965710671064      -0.152830401446     0.0333489489582     0.110523519846      
9400000000.0        0.0337298420396     0.111661627296      0.965309813872      -0.154424934358     0.965309813872      -0.154424934358     0.0337298420396     0.111661627296      
9500000000.0        0.0341144539079     0.112798179792      0.964905025895      -0.156017952795     0.964905025895      -0.156017952795     0.0341144539079     0.112798179792      
9600000000.0        0.0345027772403     0.113933162931      0.964496314375      -0.157609442548     0.964496314375      -0.157609442548     0.0345027772403     0.113933162931      
9700000000.0        0.0348948046231     0.115066562366      0.964083686646      -0.159199389458     0.964083686646      -0.159199389458     0.0348948046231     0.115066562366      
9800000000.0        0.035290528552      0.1161983638        0.963667150132      -0.160787779417     0.963667150132      -0.160787779417     0.035290528552      0.1161983638        
9900000000.0        0.0356899414345     0.117328552989      0.963246712344      -0.162374598368     0.963246712344      -0.162374598368     0.0356899414345     0.117328552989      
10000000000.0       0.0360930355903     0.118457115745      0.962822380883      -0.163959832306     0.962822380883      -0.163959832306     0.0360930355903     0.118457115745      
