# Hz S RI R 50.00 
100000000.0         0.000332011262604   -0.0155032637835    0.99911811626       -0.0166530955264    0.99911811626       -0.0166530955264    0.000332011262604   -0.0155032637835    
200000000.0         -0.000453750396202  -0.0309809618894    0.998322129167      -0.0332806363061    0.998322129167      -0.0332806363061    -0.000453750396202  -0.0309809618894    
300000000.0         -0.00175393274706   -0.0464086179986    0.997012488169      -0.0498581779788    0.997012488169      -0.0498581779788    -0.00175393274706   -0.0464086179986    
400000000.0         -0.00356407446608   -0.0617619991422    0.995192608356      -0.0663615134317    0.995192608356      -0.0663615134317    -0.00356407446608   -0.0617619991422    
500000000.0         -0.00587852793155   -0.0770172386912    0.992867735528      -0.0827668001562    0.992867735528      -0.0827668001562    -0.00587852793155   -0.0770172386912    
600000000.0         -0.00869027578629   -0.0921509537413    0.990044682493      -0.0990506784808    0.990044682493      -0.0990506784808    -0.00869027578629   -0.0921509537413    
700000000.0         -0.0119909249341    -0.107140356815     0.986731721596      -0.115190383612     0.986731721596      -0.115190383612     -0.0119909249341    -0.107140356815     
800000000.0         -0.0157707464604    -0.121963361172     0.982938503453      -0.131163851114     0.982938503453      -0.131163851114     -0.0157707464604    -0.121963361172     
900000000.0         -0.0200187360577    -0.136598678896     0.978675978141      -0.1469498151       0.978675978141      -0.1469498151       -0.0200187360577    -0.136598678896     
1000000000.0        -0.0247226870759    -0.151025910969     0.973956312846      -0.162527898366     0.973956312846      -0.162527898366     -0.0247226870759    -0.151025910969     
1100000000.0        -0.0298692727142    -0.165225628647     0.968792804507      -0.177878693815     0.968792804507      -0.177878693815     -0.0298692727142    -0.165225628647     
1200000000.0        -0.0354441352523    -0.179179445574     0.963199787513      -0.192983836604     0.963199787513      -0.192983836604     -0.0354441352523    -0.179179445574     
1300000000.0        -0.0414319807296    -0.192870080219     0.957192537096      -0.207826066598     0.957192537096      -0.207826066598     -0.0414319807296    -0.192870080219     
1400000000.0        -0.0478166776907    -0.20628140834      0.950787169313      -0.222389280865     0.950787169313      -0.222389280865     -0.0478166776907    -0.20628140834      
1500000000.0        -0.054581358728     -0.219398505359     0.944000538652      -0.236658576052     0.944000538652      -0.236658576052     -0.054581358728     -0.219398505359     
1600000000.0        -0.0617085236233    -0.232207678619     0.936850134277      -0.25062028067      0.936850134277      -0.25062028067      -0.0617085236233    -0.232207678619     
1700000000.0        -0.0691801429576    -0.244696489693     0.929353975988      -0.264261977399     0.929353975988      -0.264261977399     -0.0691801429576    -0.244696489693     
1800000000.0        -0.0769777611264    -0.256853766963     0.921530510884      -0.277572515686     0.921530510884      -0.277572515686     -0.0769777611264    -0.256853766963     
1900000000.0        -0.0850825977728    -0.268669608864     0.913398511693      -0.290542014989     0.913398511693      -0.290542014989     -0.0850825977728    -0.268669608864     
2000000000.0        -0.0934756467364    -0.280135378241     0.904976977637      -0.30316185915      0.904976977637      -0.30316185915      -0.0934756467364    -0.280135378241     
2100000000.0        -0.102137771705     -0.291243688375     0.896285038637      -0.315424682419     0.896285038637      -0.315424682419     -0.102137771705     -0.291243688375     
2200000000.0        -0.111049797856     -0.301988381296     0.887341863568      -0.327324347774     0.887341863568      -0.327324347774     -0.111049797856     -0.301988381296     
2300000000.0        -0.120192598863     -0.312364499047     0.878166573155      -0.338855918193     0.878166573155      -0.338855918193     -0.120192598863     -0.312364499047     
2400000000.0        -0.129547178768     -0.322368248625     0.868778158033      -0.350015621595     0.868778158033      -0.350015621595     -0.129547178768     -0.322368248625     
2500000000.0        -0.13909474829      -0.331996961316     0.859195402385      -0.360800810184     0.859195402385      -0.360800810184     -0.13909474829      -0.331996961316     
2600000000.0        -0.148816795264     -0.341249047194     0.849436813447      -0.371209914948     0.849436813447      -0.371209914948     -0.148816795264     -0.341249047194     
2700000000.0        -0.158695148995     -0.35012394551      0.839520557123      -0.381242396052     0.839520557123      -0.381242396052     -0.158695148995     -0.35012394551      
2800000000.0        -0.168712038382     -0.358622071722     0.829464399824      -0.390898689874     0.829464399824      -0.390898689874     -0.168712038382     -0.358622071722     
2900000000.0        -0.178850143786     -0.36674476187      0.819285656575      -0.400180153379     0.819285656575      -0.400180153379     -0.178850143786     -0.36674476187      
3000000000.0        -0.189092642653     -0.374494214982     0.809001145364      -0.409089006533     0.809001145364      -0.409089006533     -0.189092642653     -0.374494214982     
3100000000.0        -0.199423249006     -0.381873434157     0.79862714764       -0.417628273381     0.79862714764       -0.417628273381     -0.199423249006     -0.381873434157     
3200000000.0        -0.209826246949     -0.388886166918     0.788179374782      -0.425801722415     0.788179374782      -0.425801722415     -0.209826246949     -0.388886166918     
3300000000.0        -0.220286518411     -0.39553684541      0.777672940344      -0.433613806759     0.777672940344      -0.433613806759     -0.220286518411     -0.39553684541      
3400000000.0        -0.230789565367     -0.401830526916     0.767122337827      -0.441069604703     0.767122337827      -0.441069604703     -0.230789565367     -0.401830526916     
3500000000.0        -0.241321526833     -0.40777283518      0.756541423663      -0.448174761017     0.756541423663      -0.448174761017     -0.241321526833     -0.40777283518      
3600000000.0        -0.251869190954     -0.413369902907     0.745943405126      -0.454935429459     0.745943405126      -0.454935429459     -0.251869190954     -0.413369902907     
3700000000.0        -0.262420002513     -0.418628315806     0.73534083281       -0.461358216818     0.73534083281       -0.461358216818     -0.262420002513     -0.418628315806     
3800000000.0        -0.272962066222     -0.42355505846      0.724745597332      -0.467450128788     0.724745597332      -0.467450128788     -0.272962066222     -0.42355505846      
3900000000.0        -0.283484146137     -0.428157462287     0.71416892991       -0.47321851793      0.71416892991       -0.47321851793      -0.283484146137     -0.428157462287     
4000000000.0        -0.293975661578     -0.432443155782     0.703621406437      -0.478671033915     0.703621406437      -0.478671033915     -0.293975661578     -0.432443155782     
4100000000.0        -0.304426679889     -0.436420017191     0.693112954717      -0.483815576204     0.693112954717      -0.483815576204     -0.304426679889     -0.436420017191     
4200000000.0        -0.314827906401     -0.44009612976      0.682652864496      -0.488660249295     0.682652864496      -0.488660249295     -0.314827906401     -0.44009612976      
4300000000.0        -0.325170671932     -0.443479739608     0.672249799954      -0.493213320599     0.672249799954      -0.493213320599     -0.325170671932     -0.443479739608     
4400000000.0        -0.335446918153     -0.44657921629      0.661911814344      -0.497483181005     0.661911814344      -0.497483181005     -0.335446918153     -0.44657921629      
4500000000.0        -0.345649181121     -0.449403016062     0.651646366449      -0.50147830815      0.651646366449      -0.50147830815      -0.345649181121     -0.449403016062     
4600000000.0        -0.355770573282     -0.451959647831     0.641460338573      -0.505207232366     0.641460338573      -0.505207232366     -0.355770573282     -0.451959647831     
4700000000.0        -0.365804764215     -0.454257641767     0.631360055801      -0.508678505296     0.631360055801      -0.508678505296     -0.365804764215     -0.454257641767     
4800000000.0        -0.375745960364     -0.456305520511     0.62135130626       -0.511900671107     0.62135130626       -0.511900671107     -0.375745960364     -0.456305520511     
4900000000.0        -0.385588884003     -0.45811177292      0.61143936215       -0.514882240231     0.61143936215       -0.514882240231     -0.385588884003     -0.45811177292      
5000000000.0        -0.395328751643     -0.459684830256     0.601629001341      -0.51763166556      0.601629001341      -0.51763166556      -0.395328751643     -0.459684830256     
5100000000.0        -0.404961252069     -0.46103304473      0.591924529325      -0.52015732099      0.591924529325      -0.52015732099      -0.404961252069     -0.46103304473      
5200000000.0        -0.414482524198     -0.462164670287     0.582329801361      -0.52246748221      0.582329801361      -0.52246748221      -0.414482524198     -0.462164670287     
5300000000.0        -0.423889134902     -0.463087845535     0.572848244648      -0.524570309629     0.572848244648      -0.524570309629     -0.423889134902     -0.463087845535     
5400000000.0        -0.433178056937     -0.46381057869      0.563482880396      -0.52647383333      0.563482880396      -0.52647383333      -0.433178056937     -0.46381057869      
5500000000.0        -0.442346647102     -0.464340734429     0.554236345665      -0.528185939913     0.554236345665      -0.528185939913     -0.442346647102     -0.464340734429     
5600000000.0        -0.451392624727     -0.464686022519     0.545110914868      -0.529714361138     0.545110914868      -0.529714361138     -0.451392624727     -0.464686022519     
5700000000.0        -0.4603140506       -0.464853988118     0.536108520854      -0.531066664222     0.536108520854      -0.531066664222     -0.4603140506       -0.464853988118     
5800000000.0        -0.469109306374     -0.464852003622     0.527230775491      -0.532250243685     0.527230775491      -0.532250243685     -0.469109306374     -0.464852003622     
5900000000.0        -0.477777074557     -0.464687261937     0.518478989673      -0.533272314633     0.518478989673      -0.533272314633     -0.477777074557     -0.464687261937     
6000000000.0        -0.486316319111     -0.464366771083     0.50985419273       -0.534139907351     0.50985419273       -0.534139907351     -0.486316319111     -0.464366771083     
6100000000.0        -0.494726266708     -0.463897349992     0.501357151156      -0.534859863115     0.501357151156      -0.534859863115     -0.494726266708     -0.463897349992     
6200000000.0        -0.50300638868      -0.463285625428     0.492988386668      -0.535438831108     0.492988386668      -0.535438831108     -0.50300638868      -0.463285625428     
6300000000.0        -0.511156383679     -0.462538029903     0.484748193539      -0.535883266334     0.484748193539      -0.535883266334     -0.511156383679     -0.462538029903     
6400000000.0        -0.519176161067     -0.461660800508     0.47663665521       -0.536199428461     0.47663665521       -0.536199428461     -0.519176161067     -0.461660800508     
6500000000.0        -0.527065825045     -0.460659978564     0.468653660155      -0.536393381464     0.468653660155      -0.536393381464     -0.527065825045     -0.460659978564     
6600000000.0        -0.534825659516     -0.459541410016     0.460798917023      -0.536470994026     0.460798917023      -0.536470994026     -0.534825659516     -0.459541410016     
6700000000.0        -0.54245611369      -0.458310746474     0.453071969024      -0.536437940579     0.453071969024      -0.536437940579     -0.54245611369      -0.458310746474     
6800000000.0        -0.549957788417     -0.456973446846     0.445472207599      -0.53629970294      0.445472207599      -0.53629970294      -0.549957788417     -0.456973446846     
6900000000.0        -0.557331423238     -0.455534779482     0.437998885365      -0.536061572456     0.437998885365      -0.536061572456     -0.557331423238     -0.455534779482     
7000000000.0        -0.564577884144     -0.453999824767     0.430651128358      -0.535728652598     0.430651128358      -0.535728652598     -0.564577884144     -0.453999824767     
7100000000.0        -0.571698152019     -0.452373478108     0.423427947585      -0.535305861951     0.423427947585      -0.535305861951     -0.571698152019     -0.452373478108     
7200000000.0        -0.578693311755     -0.450660453252     0.416328249909      -0.534797937535     0.416328249909      -0.534797937535     -0.578693311755     -0.450660453252     
7300000000.0        -0.585564542013     -0.448865285896     0.409350848287      -0.534209438412     0.409350848287      -0.534209438412     -0.585564542013     -0.448865285896     
7400000000.0        -0.592313105607     -0.446992337529     0.402494471379      -0.533544749539     0.402494471379      -0.533544749539     -0.592313105607     -0.446992337529     
7500000000.0        -0.598940340502     -0.445045799482     0.39575777256       -0.532808085807     0.39575777256       -0.532808085807     -0.598940340502     -0.445045799482     
7600000000.0        -0.605447651373     -0.443029697128     0.389139338346      -0.532003496256     0.389139338346      -0.532003496256     -0.605447651373     -0.443029697128     
7700000000.0        -0.611836501733     -0.440947894216     0.382637696273      -0.5311348684       0.382637696273      -0.5311348684       -0.611836501733     -0.440947894216     
7800000000.0        -0.618108406585     -0.438804097291     0.376251322243      -0.530205932658     0.376251322243      -0.530205932658     -0.618108406585     -0.438804097291     
7900000000.0        -0.624264925577     -0.436601860188     0.369978647361      -0.529220266841     0.369978647361      -0.529220266841     -0.624264925577     -0.436601860188     
8000000000.0        -0.630307656643     -0.434344588563     0.363818064302      -0.528181300694     0.363818064302      -0.528181300694     -0.630307656643     -0.434344588563     
8100000000.0        -0.636238230091     -0.432035544445     0.35776793321       -0.527092320441     0.35776793321       -0.527092320441     -0.636238230091     -0.432035544445     
8200000000.0        -0.642058303137     -0.429677850785     0.351826587173      -0.525956473343     0.351826587173      -0.525956473343     -0.642058303137     -0.429677850785     
8300000000.0        -0.647769554835     -0.427274495986     0.345992337285      -0.524776772227     0.345992337285      -0.524776772227     -0.647769554835     -0.427274495986     
8400000000.0        -0.653373681404     -0.424828338407     0.340263477319      -0.52355609999      0.340263477319      -0.52355609999      -0.653373681404     -0.424828338407     
8500000000.0        -0.658872391913     -0.422342110807     0.334638288039      -0.522297214049     0.334638288039      -0.522297214049     -0.658872391913     -0.422342110807     
8600000000.0        -0.664267404314     -0.419818424741     0.329115041166      -0.521002750738     0.329115041166      -0.521002750738     -0.664267404314     -0.419818424741     
8700000000.0        -0.669560441797     -0.417259774884     0.323692003023      -0.519675229629     0.323692003023      -0.519675229629     -0.669560441797     -0.417259774884     
8800000000.0        -0.674753229448     -0.414668543272     0.318367437872      -0.518317057782     0.318367437872      -0.518317057782     -0.674753229448     -0.414668543272     
8900000000.0        -0.679847491195     -0.412047003468     0.313139610968      -0.516930533908     0.313139610968      -0.516930533908     -0.679847491195     -0.412047003468     
9000000000.0        -0.684844947016     -0.40939732463      0.30800679135       -0.515517852444     0.30800679135       -0.515517852444     -0.684844947016     -0.40939732463      
9100000000.0        -0.689747310402     -0.406721575484     0.302967254373      -0.514081107522     0.302967254373      -0.514081107522     -0.689747310402     -0.406721575484     
9200000000.0        -0.694556286047     -0.404021728205     0.298019284018      -0.512622296855     0.298019284018      -0.512622296855     -0.694556286047     -0.404021728205     
9300000000.0        -0.699273567768     -0.401299662184     0.29316117497       -0.511143325508     0.29316117497       -0.511143325508     -0.699273567768     -0.401299662184     
9400000000.0        -0.703900836612     -0.398557167701     0.288391234508      -0.509646009569     0.288391234508      -0.509646009569     -0.703900836612     -0.398557167701     
9500000000.0        -0.708439759168     -0.395795949482     0.283707784194      -0.508132079712     0.283707784194      -0.508132079712     -0.708439759168     -0.395795949482     
9600000000.0        -0.712891986042     -0.39301763016      0.279109161391      -0.506603184657     0.279109161391      -0.506603184657     -0.712891986042     -0.39301763016      
9700000000.0        -0.717259150504     -0.390223753617     0.274593720616      -0.505060894516     0.274593720616      -0.505060894516     -0.717259150504     -0.390223753617     
9800000000.0        -0.721542867288     -0.387415788227     0.270159834741      -0.503506704037     0.270159834741      -0.503506704037     -0.721542867288     -0.387415788227     
9900000000.0        -0.725744731523     -0.384595129988     0.265805896055      -0.501942035739     0.265805896055      -0.501942035739     -0.725744731523     -0.384595129988     
10000000000.0       -0.729866317804     -0.381763105549     0.261530317192      -0.500368242941     0.261530317192      -0.500368242941     -0.729866317804     -0.381763105549     
