# Hz S RI R 50.00 
100000000.0         -0.0104174207574    -0.101346213558     0.989405287447      -0.1015709458       0.989405287447      -0.1015709458       -0.0104174207574    -0.101346213558     
200000000.0         -0.0404577495925    -0.196512046902     0.959363668153      -0.196961527041     0.959363668153      -0.196961527041     -0.0404577495925    -0.196512046902     
300000000.0         -0.0866047897943    -0.280546943426     0.913215589226      -0.281221198187     0.913215589226      -0.281221198187     -0.0866047897943    -0.280546943426     
400000000.0         -0.144187633284     -0.350417384393     0.855631806344      -0.351316450142     0.855631806344      -0.351316450142     -0.144187633284     -0.350417384393     
500000000.0         -0.208329709609     -0.405111109866     0.791488831545      -0.406235031925     0.791488831545      -0.406235031925     -0.208329709609     -0.405111109866     
600000000.0         -0.274746811326     -0.445250736254     0.725070842605      -0.446599568466     0.725070842605      -0.446599568466     -0.274746811326     -0.445250736254     
700000000.0         -0.340155764548     -0.472496338563     0.659660995949      -0.474070142972     0.659660995949      -0.474070142972     -0.340155764548     -0.472496338563     
800000000.0         -0.402340337495     -0.488978155005     0.597475512072      -0.49077700161      0.597475512072      -0.49077700161      -0.402340337495     -0.488978155005     
900000000.0         -0.460008659958     -0.496881359117     0.539806253404      -0.498905325675     0.539806253404      -0.498905325675     -0.460008659958     -0.496881359117     
1000000000.0        -0.512570090369     -0.49820121782      0.487243855886      -0.500450389677     0.487243855886      -0.500450389677     -0.512570090369     -0.49820121782      
1100000000.0        -0.559913989766     -0.494633358728     0.439898954252      -0.497107828676     0.439898954252      -0.497107828676     -0.559913989766     -0.494633358728     
1200000000.0        -0.602228266574     -0.487551151872     0.397583636801      -0.49025102003      0.397583636801      -0.49025102003      -0.602228266574     -0.487551151872     
1300000000.0        -0.639866487653     -0.478029930389     0.359944334073      -0.480955304091     0.359944334073      -0.480955304091     -0.639866487653     -0.478029930389     
1400000000.0        -0.67325818495      -0.466890909797     0.326551512011      -0.470041903495     0.326551512011      -0.470041903495     -0.67325818495      -0.466890909797     
1500000000.0        -0.702852391132     -0.454749143661     0.296956136202      -0.458125878839     0.296956136202      -0.458125878839     -0.702852391132     -0.454749143661     
1600000000.0        -0.729084592599     -0.442057773727     0.27072271878       -0.445660378822     0.27072271878       -0.445660378822     -0.729084592599     -0.442057773727     
1700000000.0        -0.752359189758     -0.429145563842     0.247446858085      -0.432974174175     0.247446858085      -0.432974174175     -0.752359189758     -0.429145563842     
1800000000.0        -0.773041711251     -0.416247212276     0.226763024391      -0.420301969981     0.226763024391      -0.420301969981     -0.773041711251     -0.416247212276     
1900000000.0        -0.791456859006     -0.403527088716     0.208346514822      -0.407808142686     0.208346514822      -0.407808142686     -0.791456859006     -0.403527088716     
2000000000.0        -0.807889830074     -0.391097451179     0.191912131484      -0.395604957011     0.191912131484      -0.395604957011     -0.807889830074     -0.391097451179     
2100000000.0        -0.822589314724     -0.379032238927     0.177211183355      -0.383766358866     0.177211183355      -0.383766358866     -0.822589314724     -0.379032238927     
2200000000.0        -0.835771204066     -0.367377419923     0.164027778642      -0.372338322822     0.164027778642      -0.372338322822     -0.835771204066     -0.367377419923     
2300000000.0        -0.847622447624     -0.356158703793     0.152174967196      -0.361346565068     0.152174967196      -0.361346565068     -0.847622447624     -0.356158703793     
2400000000.0        -0.85830475553      -0.34538726429      0.14149103831       -0.350802265878     0.14149103831       -0.350802265878     -0.85830475553      -0.34538726429      
2500000000.0        -0.867957994505     -0.335063969548     0.131836124726      -0.340706299874     0.131836124726      -0.340706299874     -0.867957994505     -0.335063969548     
2600000000.0        -0.876703217859     -0.325182499289     0.123089172636      -0.33105235323      0.123089172636      -0.33105235323      -0.876703217859     -0.325182499289     
2700000000.0        -0.884645321255     -0.315731634467     0.115145285898      -0.321829213323     0.115145285898      -0.321829213323     -0.884645321255     -0.315731634467     
2800000000.0        -0.891875343443     -0.306696932828     0.107913425314      -0.313022444291     0.107913425314      -0.313022444291     -0.891875343443     -0.306696932828     
2900000000.0        -0.898472444146     -0.298061949396     0.10131443073       -0.304615607529     0.10131443073       -0.304615607529     -0.898472444146     -0.298061949396     
3000000000.0        -0.904505596021     -0.289809120025     0.0952793290713     -0.296591145233     0.0952793290713     -0.296591145233     -0.904505596021     -0.289809120025     
3100000000.0        -0.910035027664     -0.281920395694     0.0897478913423     -0.288931014705     0.0897478913423     -0.288931014705     -0.910035027664     -0.281920395694     
3200000000.0        -0.915113452253     -0.274377692598     0.0846674039732     -0.281617138442     0.0846674039732     -0.281617138442     -0.915113452253     -0.274377692598     
3300000000.0        -0.919787113048     -0.267163206321     0.0799916233214     -0.274631718315     0.0799916233214     -0.274631718315     -0.919787113048     -0.267163206321     
3400000000.0        -0.924096673149     -0.26025962592      0.0756798859119     -0.267957449649     0.0756798859119     -0.267957449649     -0.924096673149     -0.26025962592      
3500000000.0        -0.92807797324      -0.25365027454      0.0716963506935     -0.261577661846     0.0716963506935     -0.261577661846     -0.92807797324      -0.25365027454      
3600000000.0        -0.931762677616     -0.247319196349     0.0680093530059     -0.255476405319     0.0680093530059     -0.255476405319     -0.931762677616     -0.247319196349     
3700000000.0        -0.935178825759     -0.241251204481     0.064590853005      -0.249638499435     0.064590853005      -0.249638499435     -0.935178825759     -0.241251204481     
3800000000.0        -0.938351304049     -0.235431900924     0.0614159639523     -0.244049552406     0.0614159639523     -0.244049552406     -0.938351304049     -0.235431900924     
3900000000.0        -0.941302249909     -0.229847676451     0.0584625480683     -0.238695961223     0.0584625480683     -0.238695961223     -0.941302249909     -0.229847676451     
4000000000.0        -0.944051398741     -0.224485696619     0.0557108695925     -0.233564897657     0.0557108695925     -0.233564897657     -0.944051398741     -0.224485696619     
4100000000.0        -0.946616382366     -0.219333878284     0.0531432963467     -0.228644284771     0.0531432963467     -0.228644284771     -0.946616382366     -0.219333878284     
4200000000.0        -0.949012986278     -0.214380859905     0.0507440424796     -0.223922767229     0.0507440424796     -0.223922767229     -0.949012986278     -0.214380859905     
4300000000.0        -0.951255371873     -0.209615968047     0.0484989462365     -0.219389677802     0.0484989462365     -0.219389677802     -0.951255371873     -0.209615968047     
4400000000.0        -0.953356268834     -0.205029181842     0.046395277572      -0.215035001827     0.046395277572      -0.215035001827     -0.953356268834     -0.205029181842     
4500000000.0        -0.955327142046     -0.200611096664     0.0444215712389     -0.210849340887     0.0444215712389     -0.210849340887     -0.955327142046     -0.200611096664     
4600000000.0        -0.957178336713     -0.196352887922     0.042567481667      -0.206823876598     0.042567481667      -0.206823876598     -0.957178336713     -0.196352887922     
4700000000.0        -0.958919204802     -0.192246275598     0.0408236565197     -0.20295033516      0.0408236565197     -0.20295033516      -0.958919204802     -0.192246275598     
4800000000.0        -0.960558215448     -0.188283489963     0.0391816262892     -0.199220953063     0.0391816262892     -0.199220953063     -0.960558215448     -0.188283489963     
4900000000.0        -0.962103051552     -0.184457238734     0.0376337076981     -0.195628444253     0.0376337076981     -0.195628444253     -0.962103051552     -0.184457238734     
5000000000.0        -0.963560694477     -0.18076067586      0.036172919004      -0.192165968916     0.036172919004      -0.192165968916     -0.963560694477     -0.18076067586      
5100000000.0        -0.964937498451     -0.177187372005     0.0347929055934     -0.188827103961     0.0347929055934     -0.188827103961     -0.964937498451     -0.177187372005     
5200000000.0        -0.966239256067     -0.173731286768     0.0334878744838     -0.185605815246     0.0334878744838     -0.185605815246     -0.966239256067     -0.173731286768     
5300000000.0        -0.967471256052     -0.170386742625     0.0322525365556     -0.182496431517     0.0322525365556     -0.182496431517     -0.967471256052     -0.170386742625     
5400000000.0        -0.968638334307     -0.167148400553     0.031082055506      -0.179493620034     0.031082055506      -0.179493620034     -0.968638334307     -0.167148400553     
5500000000.0        -0.969744919108     -0.16401123727      0.0299720026565     -0.176592363815     0.0299720026565     -0.176592363815     -0.969744919108     -0.16401123727      
5600000000.0        -0.970795071179     -0.16097052403      0.0289183168722     -0.173787940427     0.0289183168722     -0.173787940427     -0.970795071179     -0.16097052403      
5700000000.0        -0.971792519309     -0.158021806881     0.0279172689494     -0.171075902251     0.0279172689494     -0.171075902251     -0.971792519309     -0.158021806881     
5800000000.0        -0.972740692043     -0.155160888306     0.0269654299198     -0.16845205812      0.0269654299198     -0.16845205812      -0.972740692043     -0.155160888306     
5900000000.0        -0.973642745947     -0.152383810163     0.0260596427915     -0.165912456262     0.0260596427915     -0.165912456262     -0.973642745947     -0.152383810163     
6000000000.0        -0.974501590838     -0.149686837844     0.0251969973133     -0.163453368461     0.0251969973133     -0.163453368461     -0.974501590838     -0.149686837844     
6100000000.0        -0.975319912359     -0.147066445557     0.0243748074014     -0.161071275336     0.0243748074014     -0.161071275336     -0.975319912359     -0.147066445557     
6200000000.0        -0.976100192204     -0.144519302669     0.0235905909157     -0.158762852694     0.0235905909157     -0.158762852694     -0.976100192204     -0.144519302669     
6300000000.0        -0.976844726262     -0.142042261031     0.0228420515144     -0.156524958843     0.0228420515144     -0.156524958843     -0.976844726262     -0.142042261031     
6400000000.0        -0.977555640922     -0.139632343199     0.0221270623466     -0.154354622828     0.0221270623466     -0.154354622828     -0.977555640922     -0.139632343199     
6500000000.0        -0.978234907754     -0.13728673151      0.021443651377      -0.152249033499     0.021443651377      -0.152249033499     -0.978234907754     -0.13728673151      
6600000000.0        -0.978884356729     -0.135002757929     0.0207899881594     -0.150205529362     0.0207899881594     -0.150205529362     -0.978884356729     -0.135002757929     
6700000000.0        -0.97950568816      -0.132777894621     0.0201643718994     -0.148221589151     0.0201643718994     -0.148221589151     -0.97950568816      -0.132777894621     
6800000000.0        -0.980100483488     -0.130609745188     0.019565220666      -0.146294823069     0.019565220666      -0.146294823069     -0.980100483488     -0.130609745188     
6900000000.0        -0.980670215049     -0.128496036524     0.0189910616279     -0.144422964643     0.0189910616279     -0.144422964643     -0.980670215049     -0.128496036524     
7000000000.0        -0.981216254915     -0.126434611239     0.0184405222071     -0.142603863146     0.0184405222071     -0.142603863146     -0.981216254915     -0.126434611239     
7100000000.0        -0.981739882928     -0.124423420613     0.017912322051      -0.140835476557     0.017912322051      -0.140835476557     -0.981739882928     -0.124423420613     
7200000000.0        -0.982242293987     -0.122460518036     0.0174052657403     -0.139115865        0.0174052657403     -0.139115865        -0.982242293987     -0.122460518036     
7300000000.0        -0.982724604681     -0.120544052898     0.0169182361564     -0.137443184632     0.0169182361564     -0.137443184632     -0.982724604681     -0.120544052898     
7400000000.0        -0.983187859333     -0.118672264899     0.0164501884409     -0.13581568196      0.0164501884409     -0.13581568196      -0.983187859333     -0.118672264899     
7500000000.0        -0.983633035502     -0.11684347874      0.0160001444893     -0.13423168853      0.0160001444893     -0.13423168853      -0.983633035502     -0.11684347874      
7600000000.0        -0.984061049012     -0.115056099177     0.015567187924      -0.132689615982     0.015567187924      -0.132689615982     -0.984061049012     -0.115056099177     
7700000000.0        -0.984472758544     -0.113308606402     0.0151504595023     -0.131187951431     0.0151504595023     -0.131187951431     -0.984472758544     -0.113308606402     
7800000000.0        -0.984868969836     -0.111599551731     0.0147491529142     -0.12972525316      0.0147491529142     -0.12972525316      -0.984868969836     -0.111599551731     
7900000000.0        -0.985250439531     -0.109927553573     0.0143625109358     -0.128300146589     0.0143625109358     -0.128300146589     -0.985250439531     -0.109927553573     
8000000000.0        -0.985617878707     -0.108291293671     0.0139898219024     -0.126911320513     0.0139898219024     -0.126911320513     -0.985617878707     -0.108291293671     
8100000000.0        -0.985971956105     -0.106689513576     0.0136304164722     -0.12555752358      0.0136304164722     -0.12555752358      -0.985971956105     -0.106689513576     
8200000000.0        -0.986313301109     -0.105121011349     0.013283664654      -0.124237561001     0.013283664654      -0.124237561001     -0.986313301109     -0.105121011349     
8300000000.0        -0.986642506475     -0.103584638485     0.012948973074      -0.122950291458     0.012948973074      -0.122950291458     -0.986642506475     -0.103584638485     
8400000000.0        -0.986960130847     -0.102079297012     0.0126257824611     -0.121694624226     0.0126257824611     -0.121694624226     -0.986960130847     -0.102079297012     
8500000000.0        -0.987266701074     -0.100603936791     0.0123135653295     -0.120469516454     0.0123135653295     -0.120469516454     -0.987266701074     -0.100603936791     
8600000000.0        -0.987562714344     -0.0991575529687    0.012011823843      -0.119273970633     0.012011823843      -0.119273970633     -0.987562714344     -0.0991575529687    
8700000000.0        -0.987848640159     -0.0977391835989    0.0117200878432     -0.118107032212     0.0117200878432     -0.118107032212     -0.987848640159     -0.0977391835989    
8800000000.0        -0.98812492215      -0.0963479074005    0.0114379130295     -0.116967787359     0.0114379130295     -0.116967787359     -0.98812492215      -0.0963479074005    
8900000000.0        -0.988391979768     -0.0949828416572    0.0111648792752     -0.115855360862     0.0111648792752     -0.115855360862     -0.988391979768     -0.0949828416572    
9000000000.0        -0.988650209831     -0.0936431402407    0.0109005890709     -0.114768914151     0.0109005890709     -0.114768914151     -0.988650209831     -0.0936431402407    
9100000000.0        -0.988899987974     -0.0923279917534    0.010644666082      -0.113707643447     0.010644666082      -0.113707643447     -0.988899987974     -0.0923279917534    
9200000000.0        -0.989141669983     -0.0910366177797    0.0103967538128     -0.11267077801      0.0103967538128     -0.11267077801      -0.989141669983     -0.0910366177797    
9300000000.0        -0.989375593031     -0.0897682712407    0.0101565143668     -0.111657578496     0.0101565143668     -0.111657578496     -0.989375593031     -0.0897682712407    
9400000000.0        -0.989602076832     -0.0885222348443    0.00992362729683    -0.11066733541      0.00992362729683    -0.11066733541      -0.989602076832     -0.0885222348443    
9500000000.0        -0.989821424708     -0.087297819625     0.00969778853617    -0.109699367646     0.00969778853617    -0.109699367646     -0.989821424708     -0.087297819625     
9600000000.0        -0.99003392458      -0.086094363567     0.00947870940548    -0.108753021111     0.00947870940548    -0.108753021111     -0.99003392458      -0.086094363567     
9700000000.0        -0.990239849897     -0.0849112303054    0.00926611568883    -0.107827667427     0.00926611568883    -0.107827667427     -0.990239849897     -0.0849112303054    
9800000000.0        -0.990439460488     -0.0837478079008    0.00905974677353    -0.106922702708     0.00905974677353    -0.106922702708     -0.990439460488     -0.0837478079008    
9900000000.0        -0.990633003372     -0.0826035076822    0.0088593548489     -0.106037546405     0.0088593548489     -0.106037546405     -0.990633003372     -0.0826035076822    
10000000000.0       -0.990820713499     -0.081477763154     0.00866470415926    -0.105171640214     0.00866470415926    -0.105171640214     -0.990820713499     -0.081477763154     
