# Hz S RI R 50.00 
100000000.0         0.0181904336587     0.00285805005298    0.981802524318      -0.00550958288072   0.981802524318      -0.00550958288072   0.0181904336587     0.00285805005298    
200000000.0         0.0183559644341     0.00571367814569    0.981623876684      -0.0110167538352    0.981623876684      -0.0110167538352    0.0183559644341     0.00571367814569    
300000000.0         0.0185219535631     0.00856728923063    0.981437694835      -0.0165219309206    0.981437694835      -0.0165219309206    0.0185219535631     0.00856728923063    
400000000.0         0.0187039180943     0.0114187570289     0.981228460595      -0.0220249984796    0.981228460595      -0.0220249984796    0.0187039180943     0.0114187570289     
500000000.0         0.0189078192987     0.0142678323514     0.980990211392      -0.0275257166946    0.980990211392      -0.0275257166946    0.0189078192987     0.0142678323514     
600000000.0         0.0191366802984     0.0171142120421     0.980719922606      -0.0330237909632    0.980719922606      -0.0330237909632    0.0191366802984     0.0171142120421     
700000000.0         0.0193922687715     0.0199575637722     0.980415824863      -0.0385188969121    0.980415824863      -0.0385188969121    0.0193922687715     0.0199575637722     
800000000.0         0.0196757112036     0.0227975375792     0.980076789775      -0.0440106920674    0.980076789775      -0.0440106920674    0.0196757112036     0.0227975375792     
900000000.0         0.0199877664284     0.0256337721042     0.979702056398      -0.0494988221782    0.979702056398      -0.0494988221782    0.0199877664284     0.0256337721042     
1000000000.0        0.0203289643013     0.0284658983221     0.979291092561      -0.0549829250067    0.979291092561      -0.0549829250067    0.0203289643013     0.0284658983221     
1100000000.0        0.0206996828007     0.0312935419456     0.978843517764      -0.0604626327762    0.978843517764      -0.0604626327762    0.0206996828007     0.0312935419456     
1200000000.0        0.0211001939818     0.0341163250671     0.978359057222      -0.065937573847     0.978359057222      -0.065937573847     0.0211001939818     0.0341163250671     
1300000000.0        0.0215306928988     0.0369338673354     0.977837512946      -0.0714073739186    0.977837512946      -0.0714073739186    0.0215306928988     0.0369338673354     
1400000000.0        0.0219913166264     0.0397457868328     0.977278744722      -0.0768716569285    0.977278744722      -0.0768716569285    0.0219913166264     0.0397457868328     
1500000000.0        0.0224821572313     0.0425517007524     0.976682657139      -0.0823300457457    0.976682657139      -0.0823300457457    0.0224821572313     0.0425517007524     
1600000000.0        0.0230032708939     0.045351225937      0.976049190468      -0.0877821627239    0.976049190468      -0.0877821627239    0.0230032708939     0.045351225937      
1700000000.0        0.0235546844924     0.0481439793188     0.975378314081      -0.0932276301527    0.975378314081      -0.0932276301527    0.0235546844924     0.0481439793188     
1800000000.0        0.0241364004658     0.0509295782871     0.974670021584      -0.0986660706355    0.974670021584      -0.0986660706355    0.0241364004658     0.0509295782871     
1900000000.0        0.0247484004772     0.0537076410028     0.973924327159      -0.104097107412     0.973924327159      -0.104097107412     0.0247484004772     0.0537076410028     
2000000000.0        0.0253906482252     0.0564777866707     0.973141262751      -0.109520364637     0.973141262751      -0.109520364637     0.0253906482252     0.0564777866707     
2100000000.0        0.0260630916359     0.0592396357807     0.972320875877      -0.11493546763      0.972320875877      -0.11493546763      0.0260630916359     0.0592396357807     
2200000000.0        0.0267656645973     0.0619928103238     0.971463227892      -0.120342043095     0.971463227892      -0.120342043095     0.0267656645973     0.0619928103238     
2300000000.0        0.0274982883511     0.0647369339875     0.970568392598      -0.125739719319     0.970568392598      -0.125739719319     0.0274982883511     0.0647369339875     
2400000000.0        0.0282608726248     0.0674716323351     0.969636455111      -0.13112812636      0.969636455111      -0.13112812636      0.0282608726248     0.0674716323351     
2500000000.0        0.0290533165617     0.0701965329715     0.968667510933      -0.136506896211     0.968667510933      -0.136506896211     0.0290533165617     0.0701965329715     
2600000000.0        0.0298755094966     0.072911265697      0.967661665179      -0.141875662961     0.967661665179      -0.141875662961     0.0298755094966     0.072911265697      
2700000000.0        0.0307273316068     0.0756154626526     0.96661903192       -0.147234062941     0.96661903192       -0.147234062941     0.0307273316068     0.0756154626526     
2800000000.0        0.0316086544678     0.0783087584556     0.965539733634      -0.152581734865     0.965539733634      -0.152581734865     0.0316086544678     0.0783087584556     
2900000000.0        0.0325193415297     0.0809907903293     0.964423900726      -0.157918319956     0.964423900726      -0.157918319956     0.0325193415297     0.0809907903293     
3000000000.0        0.0334592485314     0.0836611982255     0.963271671117      -0.163243462078     0.963271671117      -0.163243462078     0.0334592485314     0.0836611982255     
3100000000.0        0.0344282238635     0.0863196249414     0.962083189879      -0.168556807848     0.962083189879      -0.168556807848     0.0344282238635     0.0863196249414     
3200000000.0        0.0354261088903     0.0889657162318     0.960858608915      -0.173858006754     0.960858608915      -0.173858006754     0.0354261088903     0.0889657162318     
3300000000.0        0.0364527382367     0.0915991209163     0.95959808667       -0.179146711261     0.95959808667       -0.179146711261     0.0364527382367     0.0915991209163     
3400000000.0        0.0375079400476     0.0942194909822     0.958301787876      -0.184422576919     0.958301787876      -0.184422576919     0.0375079400476     0.0942194909822     
3500000000.0        0.0385915362234     0.0968264816837     0.956969883313      -0.189685262457     0.956969883313      -0.189685262457     0.0385915362234     0.0968264816837     
3600000000.0        0.0397033426366     0.0994197516367     0.955602549593      -0.194934429884     0.955602549593      -0.194934429884     0.0397033426366     0.0994197516367     
3700000000.0        0.0408431693309     0.101998962911      0.954199968963      -0.20016974458      0.954199968963      -0.20016974458      0.0408431693309     0.101998962911      
3800000000.0        0.0420108207083     0.104563781119      0.952762329118      -0.205390875385     0.952762329118      -0.205390875385     0.0420108207083     0.104563781119      
3900000000.0        0.0432060957027     0.107113875499      0.951289823024      -0.210597494684     0.951289823024      -0.210597494684     0.0432060957027     0.107113875499      
4000000000.0        0.0444287879455     0.109648919         0.949782648757      -0.215789278493     0.949782648757      -0.215789278493     0.0444287879455     0.109648919         
4100000000.0        0.0456786859215     0.112168588359      0.948241009345      -0.220965906532     0.948241009345      -0.220965906532     0.0456786859215     0.112168588359      
4200000000.0        0.0469555731187     0.114672564177      0.946665112618      -0.226127062307     0.946665112618      -0.226127062307     0.0469555731187     0.114672564177      
4300000000.0        0.0482592281718     0.117160530992      0.945055171066      -0.231272433184     0.945055171066      -0.231272433184     0.0482592281718     0.117160530992      
4400000000.0        0.049589425         0.119632177354      0.943411401699      -0.236401710456     0.943411401699      -0.236401710456     0.049589425         0.119632177354      
4500000000.0        0.0509459329416     0.122087195884      0.941734025916      -0.24151458941      0.941734025916      -0.24151458941      0.0509459329416     0.122087195884      
4600000000.0        0.0523285168833     0.124525283349      0.940023269372      -0.246610769399     0.940023269372      -0.246610769399     0.0523285168833     0.124525283349      
4700000000.0        0.0537369373878     0.126946140717      0.938279361852      -0.251689953899     0.938279361852      -0.251689953899     0.0537369373878     0.126946140717      
4800000000.0        0.0551709508169     0.129349473221      0.93650253715       -0.256751850569     0.93650253715       -0.256751850569     0.0551709508169     0.129349473221      
4900000000.0        0.0566303094539     0.131734990416      0.934693032942      -0.261796171311     0.934693032942      -0.261796171311     0.0566303094539     0.131734990416      
5000000000.0        0.0581147616222     0.13410240623       0.932851090671      -0.266822632324     0.932851090671      -0.266822632324     0.0581147616222     0.13410240623       
5100000000.0        0.0596240518034     0.136451439022      0.930976955428      -0.271830954152     0.930976955428      -0.271830954152     0.0596240518034     0.136451439022      
5200000000.0        0.0611579207527     0.138781811628      0.929070875836      -0.276820861741     0.929070875836      -0.276820861741     0.0611579207527     0.138781811628      
5300000000.0        0.0627161056132     0.141093251411      0.927133103937      -0.28179208448      0.927133103937      -0.28179208448      0.0627161056132     0.141093251411      
5400000000.0        0.0642983400295     0.143385490301      0.925163895075      -0.286744356248     0.925163895075      -0.286744356248     0.0642983400295     0.143385490301      
5500000000.0        0.0659043542586     0.145658264844      0.923163507789      -0.291677415455     0.923163507789      -0.291677415455     0.0659043542586     0.145658264844      
5600000000.0        0.0675338752818     0.147911316238      0.921132203701      -0.296591005083     0.921132203701      -0.296591005083     0.0675338752818     0.147911316238      
5700000000.0        0.0691866269134     0.150144390369      0.919070247401      -0.301484872725     0.919070247401      -0.301484872725     0.0691866269134     0.150144390369      
5800000000.0        0.0708623299105     0.152357237852      0.916977906345      -0.306358770614     0.916977906345      -0.306358770614     0.0708623299105     0.152357237852      
5900000000.0        0.0725607020803     0.154549614059      0.914855450744      -0.311212455661     0.914855450744      -0.311212455661     0.0725607020803     0.154549614059      
6000000000.0        0.0742814583879     0.156721279152      0.912703153456      -0.316045689483     0.912703153456      -0.316045689483     0.0742814583879     0.156721279152      
6100000000.0        0.0760243110623     0.158871998109      0.910521289878      -0.32085823843      0.910521289878      -0.32085823843      0.0760243110623     0.158871998109      
6200000000.0        0.0777889697024     0.161001540753      0.908310137844      -0.325649873614     0.908310137844      -0.325649873614     0.0777889697024     0.161001540753      
6300000000.0        0.0795751413819     0.163109681772      0.906069977517      -0.330420370926     0.906069977517      -0.330420370926     0.0795751413819     0.163109681772      
6400000000.0        0.0813825307537     0.165196200746      0.903801091287      -0.335169511063     0.903801091287      -0.335169511063     0.0813825307537     0.165196200746      
6500000000.0        0.0832108401533     0.167260882159      0.901503763662      -0.339897079543     0.901503763662      -0.339897079543     0.0832108401533     0.167260882159      
6600000000.0        0.0850597697016     0.169303515423      0.899178281173      -0.344602866721     0.899178281173      -0.344602866721     0.0850597697016     0.169303515423      
6700000000.0        0.0869290174074     0.171323894887      0.896824932263      -0.349286667807     0.896824932263      -0.349286667807     0.0869290174074     0.171323894887      
6800000000.0        0.0888182792685     0.173321819853      0.894444007192      -0.353948282875     0.894444007192      -0.353948282875     0.0888182792685     0.173321819853      
6900000000.0        0.0907272493726     0.175297094587      0.892035797933      -0.358587516871     0.892035797933      -0.358587516871     0.0907272493726     0.175297094587      
7000000000.0        0.0926556199973     0.177249528325      0.88960059807       -0.363204179626     0.88960059807       -0.363204179626     0.0926556199973     0.177249528325      
7100000000.0        0.0946030817092     0.17917893528       0.887138702705      -0.367798085856     0.887138702705      -0.367798085856     0.0946030817092     0.17917893528       
7200000000.0        0.0965693234622     0.181085134647      0.884650408352      -0.372369055169     0.884650408352      -0.372369055169     0.0965693234622     0.181085134647      
7300000000.0        0.0985540326955     0.182967950605      0.882136012843      -0.376916912067     0.882136012843      -0.376916912067     0.0985540326955     0.182967950605      
7400000000.0        0.10055689543       0.184827212317      0.87959581523       -0.38144148594      0.87959581523       -0.38144148594      0.10055689543       0.184827212317      
7500000000.0        0.102577596365      0.18666275393       0.877030115689      -0.385942611072     0.877030115689      -0.385942611072     0.102577596365      0.18666275393       
7600000000.0        0.104615818972      0.188474414567      0.874439215424      -0.390420126628     0.874439215424      -0.390420126628     0.104615818972      0.188474414567      
7700000000.0        0.106671245591      0.190262038325      0.871823416574      -0.394873876654     0.871823416574      -0.394873876654     0.106671245591      0.190262038325      
7800000000.0        0.108743557521      0.192025474269      0.869183022117      -0.399303710065     0.869183022117      -0.399303710065     0.108743557521      0.192025474269      
7900000000.0        0.110832435114      0.193764576416      0.86651833578       -0.403709480634     0.86651833578       -0.403709480634     0.110832435114      0.193764576416      
8000000000.0        0.112937557869      0.195479203732      0.863829661943      -0.408091046986     0.863829661943      -0.408091046986     0.112937557869      0.195479203732      
8100000000.0        0.115058604516      0.197169220113      0.861117305553      -0.412448272575     0.861117305553      -0.412448272575     0.115058604516      0.197169220113      
8200000000.0        0.117195253111      0.198834494374      0.858381572034      -0.416781025677     0.858381572034      -0.416781025677     0.117195253111      0.198834494374      
8300000000.0        0.119347181124      0.200474900231      0.855622767193      -0.421089179368     0.855622767193      -0.421089179368     0.119347181124      0.200474900231      
8400000000.0        0.121514065523      0.202090316283      0.852841197137      -0.425372611504     0.852841197137      -0.425372611504     0.121514065523      0.202090316283      
8500000000.0        0.123695582862      0.203680625992      0.850037168187      -0.429631204706     0.850037168187      -0.429631204706     0.123695582862      0.203680625992      
8600000000.0        0.125891409367      0.205245717665      0.847210986787      -0.433864846332     0.847210986787      -0.433864846332     0.125891409367      0.205245717665      
8700000000.0        0.12810122102       0.206785484426      0.844362959428      -0.438073428454     0.844362959428      -0.438073428454     0.12810122102       0.206785484426      
8800000000.0        0.13032469364       0.208299824194      0.841493392556      -0.442256847837     0.841493392556      -0.442256847837     0.13032469364       0.208299824194      
8900000000.0        0.132561502966      0.20978863966       0.838602592495      -0.446415005906     0.838602592495      -0.446415005906     0.132561502966      0.20978863966       
9000000000.0        0.134811324739      0.211251838256      0.835690865365      -0.450547808722     0.835690865365      -0.450547808722     0.134811324739      0.211251838256      
9100000000.0        0.137073834779      0.212689332126      0.832758517003      -0.45465516695      0.832758517003      -0.45465516695      0.137073834779      0.212689332126      
9200000000.0        0.139348709062      0.214101038099      0.829805852882      -0.45873699583      0.829805852882      -0.45873699583      0.139348709062      0.214101038099      
9300000000.0        0.141635623801      0.215486877658      0.826833178037      -0.462793215142     0.826833178037      -0.462793215142     0.141635623801      0.215486877658      
9400000000.0        0.143934255519      0.216846776901      0.823840796987      -0.466823749174     0.823840796987      -0.466823749174     0.143934255519      0.216846776901      
9500000000.0        0.146244281123      0.218180666514      0.820829013659      -0.470828526685     0.820829013659      -0.470828526685     0.146244281123      0.218180666514      
9600000000.0        0.148565377978      0.219488481735      0.817798131319      -0.47480748087      0.817798131319      -0.47480748087      0.148565377978      0.219488481735      
9700000000.0        0.150897223978      0.220770162314      0.814748452494      -0.478760549324     0.814748452494      -0.478760549324     0.150897223978      0.220770162314      
9800000000.0        0.153239497618      0.222025652477      0.811680278906      -0.482687673999     0.811680278906      -0.482687673999     0.153239497618      0.222025652477      
9900000000.0        0.15559187806       0.22325490089       0.808593911399      -0.48658880117      0.808593911399      -0.48658880117      0.15559187806       0.22325490089       
10000000000.0       0.157954045203      0.224457860617      0.805489649874      -0.490463881387     0.805489649874      -0.490463881387     0.157954045203      0.224457860617      
