# Hz S RI R 50.00 
100000000.0         0.000118349653956   -0.000162482717451  0.999879288116      -0.000789537388461  0.999879288116      -0.000789537388461  0.000118349653957   -0.000162482717451  
200000000.0         0.000118314039812   -0.000324984848343  0.999877054938      -0.0015791130181    0.999877054938      -0.0015791130181    0.000118314039812   -0.000324984848343  
300000000.0         0.000117812685133   -0.000487515312576  0.999874380648      -0.00236874729333   0.999874380648      -0.00236874729333   0.000117812685133   -0.000487515312576  
400000000.0         0.00011694877292    -0.0006500807346    0.999871161697      -0.00315845540498   0.999871161697      -0.00315845540498   0.00011694877292    -0.0006500807346    
500000000.0         0.000115761850461   -0.000812686443479  0.999867358108      -0.0039482499494    0.999867358108      -0.0039482499494    0.000115761850461   -0.000812686443479  
600000000.0         0.000114271946202   -0.000975336867922  0.999862949372      -0.00473814181695   0.999862949372      -0.00473814181695   0.000114271946202   -0.000975336867922  
700000000.0         0.000112490775854   -0.00113803574945   0.999857923244      -0.00552814064564   0.999857923244      -0.00552814064564   0.000112490775855   -0.00113803574945   
800000000.0         0.000110425829734   -0.0013007862742    0.999852271666      -0.0063182550928    0.999852271666      -0.0063182550928    0.000110425829734   -0.0013007862742    
900000000.0         0.000108082191849   -0.00146359116138   0.999845988952      -0.00710849301394   0.999845988952      -0.00710849301394   0.000108082191849   -0.00146359116138   
1000000000.0        0.000105463461867   -0.0016264527297    0.999839070866      -0.00789886159173   0.999839070866      -0.00789886159173   0.000105463461867   -0.0016264527297    
1100000000.0        0.000102572267626   -0.00178937294567   0.999831514119      -0.00868936742961   0.999831514119      -0.00868936742961   0.000102572267626   -0.00178937294567   
1200000000.0        9.94105707139e-05   -0.00195235346273   0.999823316062      -0.0094800166253    0.999823316062      -0.0094800166253    9.94105707139e-05   -0.00195235346273   
1300000000.0        9.59798588618e-05   -0.00211539565244   0.999814474496      -0.0102708148286    0.999814474496      -0.0102708148286    9.59798588618e-05   -0.00211539565244   
1400000000.0        9.22812725765e-05   -0.00227850063048   0.999804987551      -0.0110617672885    0.999804987551      -0.0110617672885    9.22812725765e-05   -0.00227850063048   
1500000000.0        8.83156915876e-05   -0.00244166927837   0.999794853599      -0.0118528788924    0.999794853599      -0.0118528788924    8.83156915874e-05   -0.00244166927837   
1600000000.0        8.4083795711e-05    -0.00260490226216   0.999784071198      -0.0126441541985    0.999784071198      -0.0126441541985    8.4083795711e-05    -0.00260490226216   
1700000000.0        7.95861088283e-05   -0.00276820004866   0.999772639046      -0.0134355974642    0.999772639046      -0.0134355974642    7.95861088287e-05   -0.00276820004866   
1800000000.0        7.48230314209e-05   -0.00293156291947   0.999760555953      -0.0142272126704    0.999760555953      -0.0142272126704    7.48230314207e-05   -0.00293156291947   
1900000000.0        6.97948651067e-05   -0.00309499098355   0.999747820817      -0.0150190035419    0.999747820817      -0.0150190035419    6.97948651067e-05   -0.00309499098355   
2000000000.0        6.45018314835e-05   -0.00325848418843   0.999734432605      -0.0158109735669    0.999734432605      -0.0158109735669    6.45018314838e-05   -0.00325848418843   
2100000000.0        5.8944086837e-05    -0.00342204233017   0.999720390344      -0.0166031260128    0.999720390344      -0.0166031260128    5.8944086837e-05    -0.00342204233017   
2200000000.0        5.3121733762e-05    -0.00358566506256   0.999705693107      -0.0173954639413    0.999705693107      -0.0173954639413    5.3121733762e-05    -0.00358566506256   
2300000000.0        4.70348304944e-05   -0.00374935190523   0.999690340005      -0.0181879902214    0.999690340005      -0.0181879902214    4.70348304946e-05   -0.00374935190523   
2400000000.0        4.06833984743e-05   -0.00391310225131   0.999674330181      -0.0189807075416    0.999674330181      -0.0189807075416    4.06833984743e-05   -0.00391310225131   
2500000000.0        3.40674285366e-05   -0.00407691537419   0.999657662807      -0.0197736184204    0.999657662807      -0.0197736184204    3.40674285368e-05   -0.00407691537419   
2600000000.0        2.71868860477e-05   -0.00424079043415   0.999640337075      -0.0205667252167    0.999640337075      -0.0205667252167    2.71868860477e-05   -0.00424079043415   
2700000000.0        2.00417151901e-05   -0.00440472648392   0.999622352199      -0.0213600301384    0.999622352199      -0.0213600301384    2.00417151903e-05   -0.00440472648392   
2800000000.0        1.26318425722e-05   -0.00456872247448   0.999603707409      -0.0221535352511    0.999603707409      -0.0221535352511    1.26318425722e-05   -0.00456872247448   
2900000000.0        4.95718029003e-06   -0.00473277725991   0.999584401949      -0.0229472424856    0.999584401949      -0.0229472424856    4.95718029003e-06   -0.00473277725991   
3000000000.0        -2.98237145102e-06  -0.00489688960228   0.999564435075      -0.023741153645     0.999564435075      -0.023741153645     -2.98237145102e-06  -0.00489688960228   
3100000000.0        -1.11869220785e-05  -0.00506105817597   0.999543806055      -0.0245352704117    0.999543806055      -0.0245352704117    -1.11869220781e-05  -0.00506105817597   
3200000000.0        -1.96565886995e-05  -0.00522528157188   0.999522514168      -0.0253295943527    0.999522514168      -0.0253295943527    -1.96565886996e-05  -0.00522528157188   
3300000000.0        -2.83914944057e-05  -0.00538955830139   0.999500558698      -0.0261241269263    0.999500558698      -0.0261241269263    -2.83914944057e-05  -0.00538955830139   
3400000000.0        -3.73917667734e-05  -0.00555388679991   0.999477938939      -0.0269188694868    0.999477938939      -0.0269188694868    -3.73917667736e-05  -0.00555388679991   
3500000000.0        -4.66575365561e-05  -0.00571826543042   0.999454654194      -0.0277138232898    0.999454654194      -0.0277138232898    -4.66575365557e-05  -0.00571826543042   
3600000000.0        -5.61889365196e-05  -0.00588269248672   0.999430703768      -0.0285089894969    0.999430703768      -0.0285089894969    -5.61889365199e-05  -0.00588269248672   
3700000000.0        -6.59861004153e-05  -0.00604716619645   0.999406086975      -0.0293043691796    0.999406086975      -0.0293043691796    -6.59861004149e-05  -0.00604716619645   
3800000000.0        -7.60491620514e-05  -0.00621168472411   0.999380803133      -0.0300999633244    0.999380803133      -0.0300999633244    -7.60491620514e-05  -0.00621168472411   
3900000000.0        -8.63782544727e-05  -0.00637624617366   0.999354851566      -0.0308957728358    0.999354851566      -0.0308957728358    -8.63782544727e-05  -0.00637624617366   
4000000000.0        -9.69735092184e-05  -0.00654084859133   0.999328231603      -0.0316917985406    0.999328231603      -0.0316917985406    -9.69735092184e-05  -0.00654084859133   
4100000000.0        -0.00010783505565   -0.00670548996791   0.999300942575      -0.0324880411909    0.999300942575      -0.0324880411909    -0.00010783505565   -0.00670548996791   
4200000000.0        -0.000118963020345  -0.00687016824122   0.99927298382       -0.0332845014678    0.99927298382       -0.0332845014678    -0.000118963020345  -0.00687016824122   
4300000000.0        -0.000130357526548  -0.00703488129836   0.999244354678      -0.0340811799844    0.999244354678      -0.0340811799844    -0.000130357526548  -0.00703488129836   
4400000000.0        -0.00014201869367   -0.00719962697776   0.999215054495      -0.0348780772885    0.999215054495      -0.0348780772885    -0.00014201869367   -0.00719962697776   
4500000000.0        -0.000153946636822  -0.00736440307125   0.999185082619      -0.0356751938658    0.999185082619      -0.0356751938658    -0.000153946636823  -0.00736440307125   
4600000000.0        -0.000166141466411  -0.00752920732603   0.999154438403      -0.0364725301422    0.999154438403      -0.0364725301422    -0.000166141466411  -0.00752920732603   
4700000000.0        -0.00017860328774   -0.00769403744644   0.999123121202      -0.0372700864865    0.999123121202      -0.0372700864865    -0.00017860328774   -0.00769403744644   
4800000000.0        -0.000191332200661  -0.00785889109578   0.999091130377      -0.0380678632129    0.999091130377      -0.0380678632129    -0.00019133220066   -0.00785889109578   
4900000000.0        -0.000204328299248  -0.00802376589796   0.999058465288      -0.038865860583     0.999058465288      -0.038865860583     -0.000204328299248  -0.00802376589796   
5000000000.0        -0.0002175916715    -0.0081886594391    0.999025125304      -0.0396640788082    0.999025125304      -0.0396640788082    -0.0002175916715    -0.0081886594391    
5100000000.0        -0.000231122399051  -0.00835356926906   0.998991109794      -0.0404625180517    0.998991109794      -0.0404625180517    -0.000231122399051  -0.00835356926906   
5200000000.0        -0.000244920556925  -0.00851849290295   0.99895641813       -0.0412611784305    0.99895641813       -0.0412611784305    -0.000244920556924  -0.00851849290295   
5300000000.0        -0.000258986213284  -0.00868342782247   0.99892104969       -0.0420600600172    0.99892104969       -0.0420600600172    -0.000258986213284  -0.00868342782247   
5400000000.0        -0.000273319429216  -0.00884837147728   0.998885003853      -0.0428591628418    0.998885003853      -0.0428591628418    -0.000273319429215  -0.00884837147728   
5500000000.0        -0.000287920258515  -0.00901332128629   0.998848280002      -0.0436584868935    0.998848280002      -0.0436584868935    -0.000287920258515  -0.00901332128629   
5600000000.0        -0.000302788747502  -0.00917827463887   0.998810877523      -0.0444580321223    0.998810877523      -0.0444580321223    -0.000302788747502  -0.00917827463887   
5700000000.0        -0.000317924934833  -0.00934322889604   0.998772795806      -0.0452577984406    0.998772795806      -0.0452577984406    -0.000317924934833  -0.00934322889604   
5800000000.0        -0.00033332885133   -0.00950818139162   0.998734034245      -0.0460577857244    0.998734034245      -0.0460577857244    -0.00033332885133   -0.00950818139162   
5900000000.0        -0.000349000519832  -0.00967312943327   0.998694592235      -0.0468579938153    0.998694592235      -0.0468579938153    -0.000349000519832  -0.00967312943327   
6000000000.0        -0.000364939955037  -0.00983807030357   0.998654469176      -0.0476584225212    0.998654469176      -0.0476584225212    -0.000364939955037  -0.00983807030357   
6100000000.0        -0.000381147163368  -0.010003001261     0.998613664471      -0.0484590716182    0.998613664471      -0.0484590716182    -0.000381147163368  -0.010003001261     
6200000000.0        -0.000397622142846  -0.0101679195408    0.998572177527      -0.0492599408514    0.998572177527      -0.0492599408514    -0.000397622142846  -0.0101679195408    
6300000000.0        -0.000414364882956  -0.0103328223562    0.998530007754      -0.0500610299364    0.998530007754      -0.0500610299364    -0.000414364882956  -0.0103328223562    
6400000000.0        -0.000431375364544  -0.010497706899     0.998487154564      -0.0508623385601    0.998487154564      -0.0508623385601    -0.000431375364544  -0.010497706899     
6500000000.0        -0.000448653559702  -0.0106625703403    0.998443617375      -0.0516638663823    0.998443617375      -0.0516638663823    -0.000448653559702  -0.0106625703403    
6600000000.0        -0.000466199431668  -0.0108274098318    0.998399395606      -0.0524656130364    0.998399395606      -0.0524656130364    -0.000466199431668  -0.0108274098318    
6700000000.0        -0.000484012934728  -0.0109922225063    0.99835448868       -0.0532675781302    0.99835448868       -0.0532675781302    -0.000484012934729  -0.0109922225063    
6800000000.0        -0.00050209401413   -0.0111570054782    0.998308896025      -0.0540697612475    0.998308896025      -0.0540697612475    -0.00050209401413   -0.0111570054782    
6900000000.0        -0.000520442605991  -0.0113217558447    0.998262617071      -0.0548721619483    0.998262617071      -0.0548721619483    -0.000520442605991  -0.0113217558447    
7000000000.0        -0.000539058637225  -0.0114864706864    0.998215651251      -0.0556747797704    0.998215651251      -0.0556747797704    -0.000539058637225  -0.0114864706864    
7100000000.0        -0.000557942025458  -0.0116511470677    0.998167998004      -0.0564776142296    0.998167998004      -0.0564776142296    -0.000557942025458  -0.0116511470677    
7200000000.0        -0.000577092678962  -0.0118157820375    0.998119656769      -0.0572806648209    0.998119656769      -0.0572806648209    -0.000577092678962  -0.0118157820375    
7300000000.0        -0.000596510496586  -0.0119803726301    0.998070626991      -0.0580839310193    0.998070626991      -0.0580839310193    -0.000596510496586  -0.0119803726301    
7400000000.0        -0.000616195367687  -0.0121449158657    0.998020908118      -0.0588874122802    0.998020908118      -0.0588874122802    -0.000616195367687  -0.0121449158657    
7500000000.0        -0.000636147172079  -0.0123094087507    0.997970499601      -0.0596911080406    0.997970499601      -0.0596911080406    -0.000636147172079  -0.0123094087507    
7600000000.0        -0.000656365779964  -0.0124738482787    0.997919400895      -0.0604950177194    0.997919400895      -0.0604950177194    -0.000656365779964  -0.0124738482787    
7700000000.0        -0.000676851051885  -0.0126382314307    0.997867611458      -0.0612991407182    0.997867611458      -0.0612991407182    -0.000676851051886  -0.0126382314307    
7800000000.0        -0.000697602838672  -0.0128025551757    0.997815130753      -0.062103476422     0.997815130753      -0.062103476422     -0.000697602838672  -0.0128025551757    
7900000000.0        -0.000718620981394  -0.0129668164714    0.997761958246      -0.0629080241996    0.997761958246      -0.0629080241996    -0.000718620981394  -0.0129668164714    
8000000000.0        -0.000739905311311  -0.0131310122642    0.997708093405      -0.0637127834046    0.997708093405      -0.0637127834046    -0.000739905311311  -0.0131310122642    
8100000000.0        -0.000761455649833  -0.0132951394905    0.997653535703      -0.0645177533755    0.997653535703      -0.0645177533755    -0.000761455649833  -0.0132951394905    
8200000000.0        -0.000783271808474  -0.0134591950761    0.997598284617      -0.0653229334364    0.997598284617      -0.0653229334364    -0.000783271808474  -0.0134591950761    
8300000000.0        -0.000805353588821  -0.0136231759376    0.997542339627      -0.0661283228978    0.997542339627      -0.0661283228978    -0.000805353588821  -0.0136231759376    
8400000000.0        -0.000827700782487  -0.0137870789822    0.997485700217      -0.0669339210565    0.997485700217      -0.0669339210565    -0.000827700782487  -0.0137870789822    
8500000000.0        -0.000850313171083  -0.0139509011083    0.997428365874      -0.0677397271969    0.997428365874      -0.0677397271969    -0.000850313171083  -0.0139509011083    
8600000000.0        -0.000873190526185  -0.0141146392061    0.997370336088      -0.0685457405904    0.997370336088      -0.0685457405904    -0.000873190526185  -0.0141146392061    
8700000000.0        -0.000896332609297  -0.0142782901577    0.997311610355      -0.069351960497     0.997311610355      -0.069351960497     -0.000896332609297  -0.0142782901577    
8800000000.0        -0.000919739171824  -0.0144418508374    0.997252188174      -0.0701583861648    0.997252188174      -0.0701583861648    -0.000919739171824  -0.0144418508374    
8900000000.0        -0.000943409955049  -0.0146053181124    0.997192069045      -0.0709650168309    0.997192069045      -0.0709650168309    -0.000943409955048  -0.0146053181124    
9000000000.0        -0.000967344690096  -0.0147686888431    0.997131252475      -0.0717718517216    0.997131252475      -0.0717718517216    -0.000967344690096  -0.0147686888431    
9100000000.0        -0.000991543097919  -0.014931959883     0.997069737973      -0.0725788900529    0.997069737973      -0.0725788900529    -0.000991543097919  -0.014931959883     
9200000000.0        -0.00101600488926   -0.0150951280796    0.997007525052      -0.0733861310307    0.997007525052      -0.0733861310307    -0.00101600488926   -0.0150951280796    
9300000000.0        -0.00104072976466   -0.0152581902744    0.996944613229      -0.0741935738513    0.996944613229      -0.0741935738513    -0.00104072976466   -0.0152581902744    
9400000000.0        -0.00106571741439   -0.0154211433033    0.996881002024      -0.0750012177017    0.996881002024      -0.0750012177017    -0.00106571741439   -0.0154211433033    
9500000000.0        -0.00109096751846   -0.0155839839967    0.996816690962      -0.0758090617599    0.996816690962      -0.0758090617599    -0.00109096751846   -0.0155839839967    
9600000000.0        -0.00111647974662   -0.0157467091802    0.99675167957       -0.0766171051951    0.99675167957       -0.0766171051951    -0.00111647974662   -0.0157467091802    
9700000000.0        -0.00114225375831   -0.0159093156745    0.99668596738       -0.0774253471682    0.99668596738       -0.0774253471682    -0.00114225375831   -0.0159093156745    
9800000000.0        -0.00116828920264   -0.0160718002958    0.996619553928      -0.0782337868319    0.996619553928      -0.0782337868319    -0.00116828920264   -0.0160718002958    
9900000000.0        -0.00119458571842   -0.0162341598563    0.996552438751      -0.0790424233312    0.996552438751      -0.0790424233312    -0.00119458571842   -0.0162341598563    
10000000000.0       -0.00122114293408   -0.0163963911641    0.996484621393      -0.0798512558034    0.996484621393      -0.0798512558034    -0.00122114293408   -0.0163963911641    
