# Hz S RI R 50.00 
100000000.0         0.00369792818858    0.000830856671295   0.996298205392      -0.00246627143895   0.996298205392      -0.00246627143895   0.00369792818858    0.000830856671295   
200000000.0         0.00372790862868    0.00166153139538    0.996262680553      -0.00493236323504   0.996262680553      -0.00493236323504   0.00372790862868    0.00166153139538    
300000000.0         0.00375549517823    0.0024920672328     0.996226871509      -0.00739832117437   0.996226871509      -0.00739832117437   0.00375549517823    0.0024920672328     
400000000.0         0.00378388812103    0.00332246488459    0.99618757784       -0.00986414758185   0.99618757784       -0.00986414758185   0.00378388812103    0.00332246488459    
500000000.0         0.00381431964412    0.00415271526585    0.996143567201      -0.0123298344434    0.996143567201      -0.0123298344434    0.00381431964412    0.00415271526585    
600000000.0         0.00384741779572    0.00498280498558    0.996094211366      -0.0147953690792    0.996094211366      -0.0147953690792    0.00384741779572    0.00498280498558    
700000000.0         0.0038835532011     0.00581271830925    0.996039139509      -0.0172607362037    0.996039139509      -0.0172607362037    0.0038835532011     0.00581271830925    
800000000.0         0.00392296559508    0.0066424380658     0.995978111677      -0.0197259188911    0.995978111677      -0.0197259188911    0.00392296559508    0.0066424380658     
900000000.0         0.00396582015668    0.00747194613361    0.99591096245       -0.0221908991006    0.99591096245       -0.0221908991006    0.00396582015668    0.00747194613361    
1000000000.0        0.00401223606168    0.00830122372723    0.995837572397      -0.0246556579894    0.995837572397      -0.0246556579894    0.00401223606168    0.00830122372723    
1100000000.0        0.00406230235318    0.00913025157906    0.995757852197      -0.0271201761148    0.995757852197      -0.0271201761148    0.00406230235318    0.00913025157906    
1200000000.0        0.00411608739751    0.00995901006075    0.995671733191      -0.0295844335703    0.995671733191      -0.0295844335703    0.00411608739751    0.00995901006075    
1300000000.0        0.00417364483279    0.0107874792677     0.99557916143       -0.0320484100827    0.99557916143       -0.0320484100827    0.00417364483279    0.0107874792677     
1400000000.0        0.00423501747844    0.0116156390801     0.995480093766      -0.0345120850819    0.995480093766      -0.0345120850819    0.00423501747844    0.0116156390801     
1500000000.0        0.00430023999895    0.012443469208      0.99537449519       -0.0369754377547    0.99537449519       -0.0369754377547    0.00430023999895    0.012443469208      
1600000000.0        0.00436934077441    0.0132709492259     0.995262336961      -0.0394384470849    0.995262336961      -0.0394384470849    0.00436934077441    0.0132709492259     
1700000000.0        0.00444234324842    0.0140980585995     0.995143595261      -0.0419010918863    0.995143595261      -0.0419010918863    0.00444234324842    0.0140980585995     
1800000000.0        0.00451926692107    0.0149247767062     0.995018250197      -0.0443633508278    0.995018250197      -0.0443633508278    0.00451926692107    0.0149247767062     
1900000000.0        0.00460012809478    0.0157510828528     0.994886285059      -0.0468252024544    0.994886285059      -0.0468252024544    0.00460012809478    0.0157510828528     
2000000000.0        0.00468494044406    0.0165769562886     0.994747685751      -0.0492866252049    0.994747685751      -0.0492866252049    0.00468494044406    0.0165769562886     
2100000000.0        0.00477371545739    0.0174023762173     0.994602440348      -0.0517475974261    0.994602440348      -0.0517475974261    0.00477371545739    0.0174023762173     
2200000000.0        0.0048664627846     0.0182273218061     0.99445053875       -0.0542080973848    0.99445053875       -0.0542080973848    0.0048664627846     0.0182273218061     
2300000000.0        0.00496319051319    0.0190517721939     0.994291972403      -0.0566681032785    0.994291972403      -0.0566681032785    0.00496319051319    0.0190517721939     
2400000000.0        0.0050639053906     0.0198757064981     0.994126734081      -0.0591275932443    0.994126734081      -0.0591275932443    0.0050639053906     0.0198757064981     
2500000000.0        0.00516861300479    0.0206991038207     0.993954817703      -0.0615865453668    0.993954817703      -0.0615865453668    0.00516861300479    0.0206991038207     
2600000000.0        0.00527731793223    0.0215219432528     0.993776218186      -0.0640449376847    0.993776218186      -0.0640449376847    0.00527731793223    0.0215219432528     
2700000000.0        0.00539002386027    0.0223442038798     0.993590931323      -0.0665027481971    0.993590931323      -0.0665027481971    0.00539002386027    0.0223442038798     
2800000000.0        0.00550673368897    0.0231658647848     0.99339895368       -0.0689599548688    0.99339895368       -0.0689599548688    0.00550673368897    0.0231658647848     
2900000000.0        0.00562744961663    0.0239869050527     0.993200282513      -0.0714165356352    0.993200282513      -0.0714165356352    0.00562744961663    0.0239869050527     
3000000000.0        0.00575217321187    0.0248073037725     0.992994915695      -0.0738724684064    0.992994915695      -0.0738724684064    0.00575217321187    0.0248073037725     
3100000000.0        0.00588090547501    0.0256270400409     0.992782851653      -0.0763277310715    0.992782851653      -0.0763277310715    0.00588090547501    0.0256270400409     
3200000000.0        0.0060136468903     0.0264460929645     0.992564089319      -0.0787823015019    0.992564089319      -0.0787823015019    0.0060136468903     0.0264460929645     
3300000000.0        0.006150397471      0.0272644416623     0.992338628083      -0.0812361575546    0.992338628083      -0.0812361575546    0.006150397471      0.0272644416623     
3400000000.0        0.00629115679809    0.0280820652677     0.992106467754      -0.0836892770756    0.992106467754      -0.0836892770756    0.00629115679809    0.0280820652677     
3500000000.0        0.00643592405396    0.0288989429305     0.991867608531      -0.0861416379019    0.991867608531      -0.0861416379019    0.00643592405396    0.0288989429305     
3600000000.0        0.00658469805171    0.029715053819      0.991622050966      -0.0885932178652    0.991622050966      -0.0885932178652    0.00658469805171    0.029715053819      
3700000000.0        0.00673747726074    0.0305303771212     0.991369795945      -0.0910439947933    0.991369795945      -0.0910439947933    0.00673747726074    0.0305303771212     
3800000000.0        0.0068942598293     0.0313448920472     0.991110844663      -0.0934939465129    0.991110844663      -0.0934939465129    0.0068942598293     0.0313448920472     
3900000000.0        0.0070550436043     0.0321585778297     0.990845198605      -0.0959430508517    0.990845198605      -0.0959430508517    0.0070550436043     0.0321585778297     
4000000000.0        0.00721982614883    0.0329714137263     0.990572859529      -0.0983912856401    0.990572859529      -0.0983912856401    0.00721982614883    0.0329714137263     
4100000000.0        0.00738860475777    0.0337833790203     0.990293829448      -0.100838628714     0.990293829448      -0.100838628714     0.00738860475777    0.0337833790203     
4200000000.0        0.00756137647164    0.0345944530225     0.990008110619      -0.103285057914     0.990008110619      -0.103285057914     0.00756137647164    0.0345944530225     
4300000000.0        0.00773813808897    0.0354046150716     0.989715705531      -0.105730551091     0.989715705531      -0.105730551091     0.00773813808897    0.0354046150716     
4400000000.0        0.0079188861774     0.0362138445365     0.989416616891      -0.108175086106     0.989416616891      -0.108175086106     0.0079188861774     0.0362138445365     
4500000000.0        0.00810361708368    0.0370221208162     0.989110847617      -0.11061864083      0.989110847617      -0.11061864083      0.00810361708368    0.0370221208162     
4600000000.0        0.00829232694263    0.037829423342      0.988798400827      -0.113061193147     0.988798400827      -0.113061193147     0.00829232694263    0.037829423342      
4700000000.0        0.00848501168526    0.0386357315776     0.988479279834      -0.115502720957     0.988479279834      -0.115502720957     0.00848501168526    0.0386357315776     
4800000000.0        0.00868166704615    0.0394410250209     0.988153488135      -0.117943202173     0.988153488135      -0.117943202173     0.00868166704615    0.0394410250209     
4900000000.0        0.0088822885701     0.0402452832043     0.987821029406      -0.120382614729     0.987821029406      -0.120382614729     0.0088822885701     0.0402452832043     
5000000000.0        0.00908687161826    0.0410484856963     0.987481907498      -0.122820936575     0.987481907498      -0.122820936575     0.00908687161826    0.0410484856963     
5100000000.0        0.00929541137366    0.0418506121018     0.987136126429      -0.125258145679     0.987136126429      -0.125258145679     0.00929541137366    0.0418506121018     
5200000000.0        0.00950790284629    0.0426516420635     0.986783690378      -0.127694220033     0.986783690378      -0.127694220033     0.00950790284629    0.0426516420635     
5300000000.0        0.00972434087778    0.0434515552623     0.986424603685      -0.130129137649     0.986424603685      -0.130129137649     0.00972434087778    0.0434515552623     
5400000000.0        0.0099447201457     0.0442503314187     0.986058870841      -0.132562876562     0.986058870841      -0.132562876562     0.0099447201457     0.0442503314187     
5500000000.0        0.0101690351675     0.0450479502933     0.98568649649       -0.134995414834     0.98568649649       -0.134995414834     0.0101690351675     0.0450479502933     
5600000000.0        0.0103972803041     0.0458443916875     0.985307485419      -0.137426730548     0.985307485419      -0.137426730548     0.0103972803041     0.0458443916875     
5700000000.0        0.0106294497634     0.0466396354448     0.984921842563      -0.139856801816     0.984921842563      -0.139856801816     0.0106294497634     0.0466396354448     
5800000000.0        0.0108655376033     0.047433661451      0.984529572991      -0.142285606776     0.984529572991      -0.142285606776     0.0108655376033     0.047433661451      
5900000000.0        0.0111055377347     0.0482264496354     0.984130681915      -0.144713123597     0.984130681915      -0.144713123597     0.0111055377347     0.0482264496354     
6000000000.0        0.0113494439241     0.0490179799715     0.983725174678      -0.147139330473     0.983725174678      -0.147139330473     0.0113494439241     0.0490179799715     
6100000000.0        0.0115972497963     0.0498082324774     0.983313056756      -0.149564205631     0.983313056756      -0.149564205631     0.0115972497963     0.0498082324774     
6200000000.0        0.0118489488367     0.0505971872172     0.982894333756      -0.151987727328     0.982894333756      -0.151987727328     0.0118489488367     0.0505971872172     
6300000000.0        0.0121045343934     0.0513848243012     0.982469011412      -0.154409873855     0.982469011412      -0.154409873855     0.0121045343934     0.0513848243012     
6400000000.0        0.0123639996795     0.0521711238866     0.982037095582      -0.156830623534     0.982037095582      -0.156830623534     0.0123639996795     0.0521711238866     
6500000000.0        0.0126273377748     0.0529560661786     0.981598592251      -0.159249954721     0.981598592251      -0.159249954721     0.0126273377748     0.0529560661786     
6600000000.0        0.0128945416281     0.0537396314309     0.981153507523      -0.161667845807     0.981153507523      -0.161667845807     0.0128945416281     0.0537396314309     
6700000000.0        0.0131656040583     0.0545217999463     0.980701847625      -0.16408427522      0.980701847625      -0.16408427522      0.0131656040583     0.0545217999463     
6800000000.0        0.0134405177569     0.0553025520776     0.980243618899      -0.166499221421     0.980243618899      -0.166499221421     0.0134405177569     0.0553025520776     
6900000000.0        0.0137192752888     0.0560818682279     0.979778827809      -0.168912662911     0.979778827809      -0.168912662911     0.0137192752888     0.0560818682279     
7000000000.0        0.0140018690942     0.0568597288519     0.97930748093       -0.171324578228     0.97930748093       -0.171324578228     0.0140018690942     0.0568597288519     
7100000000.0        0.0142882914899     0.0576361144559     0.978829584954      -0.173734945949     0.978829584954      -0.173734945949     0.0142882914899     0.0576361144559     
7200000000.0        0.0145785346707     0.0584110055988     0.978345146685      -0.176143744691     0.978345146685      -0.176143744691     0.0145785346707     0.0584110055988     
7300000000.0        0.0148725907109     0.0591843828929     0.977854173041      -0.17855095311      0.977854173041      -0.17855095311      0.0148725907109     0.0591843828929     
7400000000.0        0.0151704515652     0.0599562270041     0.977356671047      -0.180956549904     0.977356671047      -0.180956549904     0.0151704515652     0.0599562270041     
7500000000.0        0.01547210907       0.0607265186529     0.97685264784       -0.183360513814     0.97685264784       -0.183360513814     0.01547210907       0.0607265186529     
7600000000.0        0.0157775549448     0.061495238615      0.976342110664      -0.185762823621     0.976342110664      -0.185762823621     0.0157775549448     0.061495238615      
7700000000.0        0.016086780793      0.0622623677217     0.975825066872      -0.188163458152     0.975825066872      -0.188163458152     0.016086780793      0.0622623677217     
7800000000.0        0.0163997781032     0.0630278868608     0.975301523921      -0.190562396275     0.975301523921      -0.190562396275     0.0163997781032     0.0630278868608     
7900000000.0        0.01671653825       0.0637917769769     0.974771489375      -0.192959616906     0.974771489375      -0.192959616906     0.01671653825       0.0637917769769     
8000000000.0        0.0170370524953     0.0645540190724     0.974234970903      -0.195355099004     0.974234970903      -0.195355099004     0.0170370524953     0.0645540190724     
8100000000.0        0.0173613119889     0.0653145942078     0.973691976274      -0.197748821575     0.973691976274      -0.197748821575     0.0173613119889     0.0653145942078     
8200000000.0        0.0176893077698     0.0660734835023     0.973142513362      -0.200140763673     0.973142513362      -0.200140763673     0.0176893077698     0.0660734835023     
8300000000.0        0.0180210307669     0.0668306681348     0.972586590144      -0.202530904398     0.972586590144      -0.202530904398     0.0180210307669     0.0668306681348     
8400000000.0        0.0183564718001     0.0675861293438     0.972024214695      -0.204919222897     0.972024214695      -0.204919222897     0.0183564718001     0.0675861293438     
8500000000.0        0.0186956215808     0.0683398484287     0.971455395191      -0.20730569837      0.971455395191      -0.20730569837      0.0186956215808     0.0683398484287     
8600000000.0        0.0190384707132     0.0690918067498     0.970880139907      -0.209690310061     0.970880139907      -0.209690310061     0.0190384707132     0.0690918067498     
8700000000.0        0.0193850096948     0.0698419857292     0.970298457218      -0.212073037269     0.970298457218      -0.212073037269     0.0193850096948     0.0698419857292     
8800000000.0        0.0197352289173     0.0705903668513     0.969710355593      -0.214453859342     0.969710355593      -0.214453859342     0.0197352289173     0.0705903668513     
8900000000.0        0.0200891186675     0.0713369316633     0.969115843602      -0.216832755677     0.969115843602      -0.216832755677     0.0200891186675     0.0713369316633     
9000000000.0        0.020446669128      0.072081661776      0.968514929907      -0.219209705726     0.968514929907      -0.219209705726     0.020446669128      0.072081661776      
9100000000.0        0.0208078703779     0.072824538864      0.96790762327       -0.221584688994     0.96790762327       -0.221584688994     0.0208078703779     0.072824538864      
9200000000.0        0.0211727123938     0.0735655446663     0.967293932544      -0.223957685036     0.967293932544      -0.223957685036     0.0211727123938     0.0735655446663     
9300000000.0        0.0215411850502     0.0743046609872     0.966673866677      -0.226328673464     0.966673866677      -0.226328673464     0.0215411850502     0.0743046609872     
9400000000.0        0.0219132781204     0.0750418696965     0.96604743471       -0.228697633943     0.96604743471       -0.228697633943     0.0219132781204     0.0750418696965     
9500000000.0        0.0222889812775     0.0757771527302     0.965414645777      -0.231064546193     0.965414645777      -0.231064546193     0.0222889812775     0.0757771527302     
9600000000.0        0.0226682840945     0.0765104920909     0.964775509105      -0.233429389989     0.964775509105      -0.233429389989     0.0226682840945     0.0765104920909     
9700000000.0        0.0230511760456     0.0772418698484     0.964130034011      -0.235792145165     0.964130034011      -0.235792145165     0.0230511760456     0.0772418698484     
9800000000.0        0.0234376465066     0.0779712681402     0.963478229901      -0.238152791607     0.963478229901      -0.238152791607     0.0234376465066     0.0779712681402     
9900000000.0        0.0238276847555     0.0786986691722     0.962820106274      -0.240511309264     0.962820106274      -0.240511309264     0.0238276847555     0.0786986691722     
10000000000.0       0.0242212799736     0.0794240552189     0.962155672716      -0.242867678137     0.962155672716      -0.242867678137     0.0242212799736     0.0794240552189     
