# Hz S RI R 50.00 
100000000.0         3.56102359267e-06   -3.64513720061e-05  0.999995341469      -5.92727395436e-05  0.999995341469      -5.92727395436e-05  3.56102359245e-06   -3.64513720062e-05  
200000000.0         3.53581124046e-06   -7.29056226086e-05  0.999995259993      -0.000118549283477  0.999995259993      -0.000118549283477  3.53581124046e-06   -7.29056226086e-05  
300000000.0         3.49910214847e-06   -0.000109364241733  0.999995180839      -0.000177831601972  0.999995180839      -0.000177831601972  3.49910214825e-06   -0.000109364241733  
400000000.0         3.45444253957e-06   -0.000145828323854  0.999995100449      -0.000237121162123  0.999995100449      -0.000237121162123  3.45444253935e-06   -0.000145828323854  
500000000.0         3.40319318304e-06   -0.000182298785335  0.999995017457      -0.000296419199705  0.999995017457      -0.000296419199705  3.40319318304e-06   -0.000182298785335  
600000000.0         3.3460439699e-06    -0.000218776408348  0.999994931163      -0.000355726782041  0.999994931163      -0.000355726782041  3.34604397012e-06   -0.000218776408348  
700000000.0         3.28340000921e-06   -0.000255261893055  0.999994841157      -0.000415044869794  0.999994841157      -0.000415044869794  3.28340000899e-06   -0.000255261893055  
800000000.0         3.21552129723e-06   -0.000291755861133  0.999994747169      -0.000474374326226  0.999994747169      -0.000474374326226  3.21552129723e-06   -0.000291755861133  
900000000.0         3.14258561107e-06   -0.000328258871399  0.999994649014      -0.000533715936576  0.999994649014      -0.000533715936576  3.14258561085e-06   -0.000328258871399  
1000000000.0        3.06471986455e-06   -0.000364771430813  0.999994546555      -0.000593070421699  0.999994546555      -0.000593070421699  3.06471986455e-06   -0.000364771430813  
1100000000.0        2.98201800741e-06   -0.000401294001227  0.99999443969       -0.000652438446737  0.99999443969       -0.000652438446737  2.98201800741e-06   -0.000401294001227  
1200000000.0        2.89455122915e-06   -0.000437827003288  0.999994328339      -0.000711820626498  0.999994328339      -0.000711820626498  2.89455122915e-06   -0.000437827003288  
1300000000.0        2.80237459127e-06   -0.000474370824608  0.999994212436      -0.00077121753477   0.999994212436      -0.00077121753477   2.80237459127e-06   -0.000474370824608  
1400000000.0        2.70553119175e-06   -0.000510925816209  0.99999409193       -0.000830629701691  0.99999409193       -0.000830629701691  2.70553119175e-06   -0.000510925816209  
1500000000.0        2.60405548924e-06   -0.000547492303358  0.999993966776      -0.000890057625335  0.999993966776      -0.000890057625335  2.60405548902e-06   -0.000547492303358  
1600000000.0        2.49797495466e-06   -0.000584070579884  0.999993836937      -0.000949501766647  0.999993836937      -0.000949501766647  2.49797495444e-06   -0.000584070579884  
1700000000.0        2.38731181201e-06   -0.000620660919366  0.99999370238       -0.00100896256116   0.99999370238       -0.00100896256116   2.38731181201e-06   -0.000620660919366  
1800000000.0        2.27208407955e-06   -0.000657263569447  0.999993563077      -0.00106844041376   0.999993563077      -0.00106844041376   2.27208407932e-06   -0.000657263569447  
1900000000.0        2.15230633827e-06   -0.000693878755923  0.999993419003      -0.00112793570315   0.999993419003      -0.00112793570315   2.15230633849e-06   -0.000693878755923  
2000000000.0        2.02799042093e-06   -0.00073050668505   0.999993270137      -0.0011874487845    0.999993270137      -0.0011874487845    2.02799042071e-06   -0.00073050668505   
2100000000.0        1.89914585991e-06   -0.000767147543365  0.999993116458      -0.00124697998954   0.999993116458      -0.00124697998954   1.89914585969e-06   -0.000767147543365  
2200000000.0        1.76578034439e-06   -0.000803801500708  0.999992957948      -0.00130652962987   0.999992957948      -0.00130652962987   1.76578034417e-06   -0.000803801500708  
2300000000.0        1.62789992042e-06   -0.000840468711108  0.99999279459       -0.00136609799805   0.99999279459       -0.00136609799805   1.62789992042e-06   -0.000840468711108  
2400000000.0        1.48550933354e-06   -0.000877149309942  0.999992626369      -0.00142568536497   0.999992626369      -0.00142568536497   1.48550933354e-06   -0.000877149309942  
2500000000.0        1.33861217355e-06   -0.000913843419263  0.99999245327       -0.00148529198537   0.99999245327       -0.00148529198537   1.33861217355e-06   -0.000913843419263  
2600000000.0        1.18721107456e-06   -0.000950551146734  0.99999227528       -0.00154491809693   0.99999227528       -0.00154491809693   1.18721107456e-06   -0.000950551146734  
2700000000.0        1.03130781604e-06   -0.000987272587583  0.999992092387      -0.00160456392235   0.999992092387      -0.00160456392235   1.03130781626e-06   -0.000987272587583  
2800000000.0        8.70903465122e-07   -0.00102400782229   0.999991904578      -0.00166422966722   0.999991904578      -0.00166422966722   8.70903465122e-07   -0.00102400782229   
2900000000.0        7.05998474126e-07   -0.00106075692087   0.999991711843      -0.00172391552441   0.999991711843      -0.00172391552441   7.05998474126e-07   -0.00106075692087   
3000000000.0        5.36592737799e-07   -0.00109751994087   0.99999151417       -0.00178362167216   0.99999151417       -0.00178362167216   5.36592737799e-07   -0.00109751994087   
3100000000.0        3.62685684596e-07   -0.00113429692948   0.999991311549      -0.00184334827632   0.999991311549      -0.00184334827632   3.62685684596e-07   -0.00113429692948   
3200000000.0        1.84276329085e-07   -0.00117108792302   0.999991103971      -0.00190309548992   0.999991103971      -0.00190309548992   1.84276328863e-07   -0.00117108792302   
3300000000.0        1.36332145573e-09   -0.00120789294691   0.999990891426      -0.00196286345324   0.999990891426      -0.00196286345324   1.36332101164e-09   -0.00120789294691   
3400000000.0        -1.86054995965e-07  -0.0012447120191    0.999990673906      -0.00202265229731   0.999990673906      -0.00202265229731   -1.86054996187e-07  -0.0012447120191    
3500000000.0        -3.77980572064e-07  -0.00128154514705   0.9999904514        -0.00208246214098   0.9999904514        -0.00208246214098   -3.77980572286e-07  -0.00128154514705   
3600000000.0        -5.74415591204e-07  -0.0013183923296    0.999990223901      -0.00214229309286   0.999990223901      -0.00214229309286   -5.74415591204e-07  -0.0013183923296    
3700000000.0        -7.75362457017e-07  -0.00135525355745   0.9999899914        -0.00220214525183   0.9999899914        -0.00220214525183   -7.75362457017e-07  -0.00135525355745   
3800000000.0        -9.80823758545e-07  -0.00139212881327   0.999989753889      -0.00226201870729   0.999989753889      -0.00226201870729   -9.80823758545e-07  -0.00139212881327   
3900000000.0        -1.19080225258e-06  -0.00142901807156   0.999989511361      -0.00232191353901   0.999989511361      -0.00232191353901   -1.19080225269e-06  -0.00142901807156   
4000000000.0        -1.40530084336e-06  -0.00146592130019   0.999989263808      -0.00238182981874   0.999989263808      -0.00238182981874   -1.40530084325e-06  -0.00146592130019   
4100000000.0        -1.62432254525e-06  -0.00150283846041   0.999989011222      -0.00244176761032   0.999989011222      -0.00244176761032   -1.62432254514e-06  -0.00150283846041   
4200000000.0        -1.84787050272e-06  -0.00153976950524   0.999988753597      -0.00250172696804   0.999988753597      -0.00250172696804   -1.84787050306e-06  -0.00153976950524   
4300000000.0        -2.07594793944e-06  -0.00157671438272   0.999988490924      -0.00256170793998   0.999988490924      -0.00256170793998   -2.07594793922e-06  -0.00157671438272   
4400000000.0        -2.30855816441e-06  -0.00161367303368   0.999988223198      -0.00262171056586   0.999988223198      -0.00262171056586   -2.30855816452e-06  -0.00161367303368   
4500000000.0        -2.54570456193e-06  -0.00165064539418   0.999987950411      -0.00268173487942   0.999987950411      -0.00268173487942   -2.54570456193e-06  -0.00165064539418   
4600000000.0        -2.78739055959e-06  -0.00168763139314   0.999987672556      -0.0027417809062    0.999987672556      -0.0027417809062    -2.78739055981e-06  -0.00168763139314   
4700000000.0        -3.03361965248e-06  -0.00172463095533   0.999987389628      -0.0028018486665    0.999987389628      -0.0028018486665    -3.03361965237e-06  -0.00172463095533   
4800000000.0        -3.28439535591e-06  -0.00176164399974   0.999987101619      -0.0028619381738    0.999987101619      -0.0028619381738    -3.28439535635e-06  -0.00176164399974   
4900000000.0        -3.53972122991e-06  -0.00179867043967   0.999986808524      -0.00292204943489   0.999986808524      -0.00292204943489   -3.53972122991e-06  -0.00179867043967   
5000000000.0        -3.79960084762e-06  -0.00183571018512   0.999986510335      -0.0029821824523    0.999986510335      -0.0029821824523    -3.79960084773e-06  -0.00183571018512   
5100000000.0        -4.06403781128e-06  -0.00187276314079   0.999986207048      -0.0030423372223    0.999986207048      -0.0030423372223    -4.06403781128e-06  -0.00187276314079   
5200000000.0        -4.33303571934e-06  -0.00190982920621   0.999985898656      -0.00310251373508   0.999985898656      -0.00310251373508   -4.33303571956e-06  -0.00190982920621   
5300000000.0        -4.60659818413e-06  -0.00194690827761   0.999985585153      -0.00316271197668   0.999985585153      -0.00316271197668   -4.60659818435e-06  -0.00194690827761   
5400000000.0        -4.88472881688e-06  -0.00198400024699   0.999985266533      -0.003222931928     0.999985266533      -0.003222931928     -4.88472881666e-06  -0.00198400024699   
5500000000.0        -5.16743121881e-06  -0.00202110500177   0.999984942792      -0.00328317356457   0.999984942792      -0.00328317356457   -5.16743121848e-06  -0.00202110500177   
5600000000.0        -5.45470898206e-06  -0.0020582224265    0.999984613922      -0.00334343685822   0.999984613922      -0.00334343685822   -5.45470898206e-06  -0.0020582224265    
5700000000.0        -5.74656569274e-06  -0.00209535240189   0.999984279919      -0.00340372177617   0.999984279919      -0.00340372177617   -5.74656569285e-06  -0.00209535240189   
5800000000.0        -6.04300490814e-06  -0.00213249480461   0.999983940777      -0.00346402828083   0.999983940777      -0.00346402828083   -6.04300490836e-06  -0.00213249480461   
5900000000.0        -6.34403016841e-06  -0.0021696495086    0.999983596491      -0.00352435633115   0.999983596491      -0.00352435633115   -6.34403016875e-06  -0.0021696495086    
6000000000.0        -6.64964499475e-06  -0.00220681638475   0.999983247055      -0.00358470588227   0.999983247055      -0.00358470588227   -6.64964499475e-06  -0.00220681638475   
6100000000.0        -6.95985286936e-06  -0.00224399530046   0.999982892465      -0.00364507688519   0.999982892465      -0.00364507688519   -6.95985286925e-06  -0.00224399530046   
6200000000.0        -7.27465725225e-06  -0.00228118612066   0.999982532716      -0.00370546928775   0.999982532716      -0.00370546928775   -7.27465725225e-06  -0.00228118612066   
6300000000.0        -7.59406156914e-06  -0.00231838870672   0.999982167802      -0.00376588303354   0.999982167802      -0.00376588303354   -7.59406156903e-06  -0.00231838870672   
6400000000.0        -7.9180692083e-06   -0.00235560291811   0.999981797719      -0.00382631806362   0.999981797719      -0.00382631806362   -7.9180692083e-06   -0.00235560291811   
6500000000.0        -8.24668352273e-06  -0.00239282861153   0.999981422461      -0.00388677431565   0.999981422461      -0.00388677431565   -8.24668352273e-06  -0.00239282861153   
6600000000.0        -8.57990782133e-06  -0.00243006564116   0.999981042024      -0.00394725172416   0.999981042024      -0.00394725172416   -8.57990782133e-06  -0.00243006564116   
6700000000.0        -8.91774537803e-06  -0.00246731385847   0.999980656403      -0.00400775022037   0.999980656403      -0.00400775022037   -8.91774537781e-06  -0.00246731385847   
6800000000.0        -9.26019941672e-06  -0.00250457311342   0.999980265595      -0.00406826973339   0.999980265595      -0.00406826973339   -9.26019941683e-06  -0.00250457311342   
6900000000.0        -9.60727311872e-06  -0.00254184325301   0.999979869593      -0.00412881018885   0.999979869593      -0.00412881018885   -9.60727311872e-06  -0.00254184325301   
7000000000.0        -9.95896962119e-06  -0.00257912412274   0.999979468394      -0.00418937151025   0.999979468394      -0.00418937151025   -9.95896962119e-06  -0.00257912412274   
7100000000.0        -1.0315292006e-05   -0.00261641556606   0.999979061993      -0.00424995361859   0.999979061993      -0.00424995361859   -1.03152920065e-05  -0.00261641556606   
7200000000.0        -1.06762433143e-05  -0.00265371742435   0.999978650387      -0.0043105564322    0.999978650387      -0.0043105564322    -1.06762433142e-05  -0.00265371742435   
7300000000.0        -1.10418265299e-05  -0.00269102953696   0.99997823357       -0.00437117986689   0.99997823357       -0.00437117986689   -1.10418265297e-05  -0.00269102953696   
7400000000.0        -1.14120445865e-05  -0.00272835174221   0.999977811539      -0.00443182383693   0.999977811539      -0.00443182383693   -1.14120445867e-05  -0.00272835174221   
7500000000.0        -1.17869003655e-05  -0.00276568387622   0.99997738429       -0.00449248825392   0.99997738429       -0.00449248825392   -1.17869003653e-05  -0.00276568387622   
7600000000.0        -1.21663966911e-05  -0.0028030257736    0.999976951818      -0.00455317302744   0.999976951818      -0.00455317302744   -1.21663966912e-05  -0.0028030257736    
7700000000.0        -1.25505363365e-05  -0.00284037726727   0.99997651412       -0.00461387806493   0.99997651412       -0.00461387806493   -1.25505363365e-05  -0.00284037726727   
7800000000.0        -1.29393220181e-05  -0.00287773818974   0.999976071191      -0.00467460327295   0.999976071191      -0.00467460327295   -1.29393220181e-05  -0.00287773818974   
7900000000.0        -1.33327563921e-05  -0.00291510837071   0.999975623029      -0.00473534855479   0.999975623029      -0.00473534855479   -1.33327563921e-05  -0.00291510837071   
8000000000.0        -1.373084206e-05    -0.00295248763943   0.999975169629      -0.00479611381289   0.999975169629      -0.00479611381289   -1.37308420599e-05  -0.00295248763943   
8100000000.0        -1.41335815667e-05  -0.00298987582399   0.999974710988      -0.00485689894806   0.999974710988      -0.00485689894806   -1.41335815667e-05  -0.00298987582399   
8200000000.0        -1.45409773918e-05  -0.00302727275073   0.999974247102      -0.00491770385894   0.999974247102      -0.00491770385894   -1.45409773918e-05  -0.00302727275073   
8300000000.0        -1.49530319627e-05  -0.00306467824534   0.999973777967      -0.00497852844313   0.999973777967      -0.00497852844313   -1.49530319629e-05  -0.00306467824534   
8400000000.0        -1.53697476423e-05  -0.00310209213228   0.999973303581      -0.00503937259658   0.999973303581      -0.00503937259658   -1.5369747642e-05   -0.00310209213228   
8500000000.0        -1.57911267347e-05  -0.00313951423534   0.999972823939      -0.00510023621417   0.999972823939      -0.00510023621417   -1.57911267349e-05  -0.00313951423534   
8600000000.0        -1.62171714808e-05  -0.00317694437672   0.999972339039      -0.00516111918882   0.999972339039      -0.00516111918882   -1.62171714806e-05  -0.00317694437672   
8700000000.0        -1.6647884062e-05   -0.00321438237806   0.999971848877      -0.0052220214125    0.999971848877      -0.0052220214125    -1.6647884062e-05   -0.00321438237806   
8800000000.0        -1.70832665962e-05  -0.00325182806032   0.99997135345       -0.00528294277612   0.99997135345       -0.00528294277612   -1.70832665962e-05  -0.00325182806032   
8900000000.0        -1.75233211401e-05  -0.00328928124325   0.999970852756      -0.005343883169     0.999970852756      -0.005343883169     -1.752332114e-05    -0.00328928124325   
9000000000.0        -1.79680496877e-05  -0.00332674174632   0.99997034679       -0.00540484247988   0.99997034679       -0.00540484247988   -1.79680496878e-05  -0.00332674174632   
9100000000.0        -1.84174541678e-05  -0.00336420938778   0.99996983555       -0.00546582059585   0.99996983555       -0.00546582059585   -1.84174541683e-05  -0.00336420938778   
9200000000.0        -1.88715364502e-05  -0.0034016839856    0.999969319033      -0.00552681740341   0.999969319033      -0.00552681740341   -1.88715364503e-05  -0.0034016839856    
9300000000.0        -1.93302983357e-05  -0.00343916535691   0.999968797237      -0.0055878327879    0.999968797237      -0.0055878327879    -1.93302983358e-05  -0.00343916535691   
9400000000.0        -1.97937415681e-05  -0.00347665331843   0.999968270158      -0.00564886663387   0.999968270158      -0.00564886663387   -1.97937415684e-05  -0.00347665331843   
9500000000.0        -2.0261867818e-05   -0.00351414768601   0.999967737795      -0.00570991882471   0.999967737795      -0.00570991882471   -2.02618678182e-05  -0.00351414768601   
9600000000.0        -2.07346786996e-05  -0.0035516482753    0.999967200143      -0.00577098924328   0.999967200143      -0.00577098924328   -2.07346787001e-05  -0.0035516482753    
9700000000.0        -2.121217576e-05    -0.00358915490121   0.999966657201      -0.00583207777137   0.999966657201      -0.00583207777137   -2.12121757603e-05  -0.00358915490121   
9800000000.0        -2.1694360483e-05   -0.00362666737871   0.999966108966      -0.0058931842905    0.999966108966      -0.0058931842905    -2.16943604829e-05  -0.00362666737871   
9900000000.0        -2.21812342833e-05  -0.00366418552149   0.999965555436      -0.00595430868065   0.999965555436      -0.00595430868065   -2.21812342833e-05  -0.00366418552149   
10000000000.0       -2.26727985175e-05  -0.00370170914388   0.999964996609      -0.00601545082211   0.999964996609      -0.00601545082211   -2.26727985178e-05  -0.00370170914388   
