# Hz S RI R 50.00 
100000000.0         -4.34867566634e-05  -0.00634937107347   0.999949063931      -0.00635957681269   0.999949063931      -0.00635957681269   -4.34867566634e-05  -0.00634937107347   
200000000.0         -0.000170909202778  -0.0126969148591    0.999821590422      -0.0127173268632    0.999821590422      -0.0127173268632    -0.000170909202778  -0.0126969148591    
300000000.0         -0.000379003930807  -0.019041028513     0.999613457338      -0.0190716475791    0.999613457338      -0.0190716475791    -0.000379003930807  -0.019041028513     
400000000.0         -0.000667655582335  -0.0253801271896    0.999324773638      -0.0254209543249    0.999324773638      -0.0254209543249    -0.000667655582335  -0.0253801271896    
500000000.0         -0.00103670985675   -0.0317126379584    0.998955691171      -0.0317636743483    0.998955691171      -0.0317636743483    -0.00103670985675   -0.0317126379584    
600000000.0         -0.00148597262408   -0.0380369985881    0.998506402824      -0.0380982455754    0.998506402824      -0.0380982455754    -0.00148597262408   -0.0380369985881    
700000000.0         -0.00201521001996   -0.0443516574945    0.997977141729      -0.0444231165646    0.997977141729      -0.0444231165646    -0.00201521001996   -0.0443516574945    
800000000.0         -0.0026241487697    -0.0506550742317    0.997368180693      -0.0507367470002    0.997368180693      -0.0507367470002    -0.0026241487697    -0.0506550742317    
900000000.0         -0.00331247659919   -0.0569457202214    0.996679831665      -0.0570376084245    0.996679831665      -0.0570376084245    -0.00331247659919   -0.0569457202214    
1000000000.0        -0.00407984270562   -0.0632220796179    0.995912445217      -0.0633241851037    0.995912445217      -0.0633241851037    -0.00407984270562   -0.0632220796179    
1100000000.0        -0.00492585826305   -0.0694826502416    0.99506641          -0.0695949749628    0.99506641          -0.0695949749628    -0.00492585826305   -0.0694826502416    
1200000000.0        -0.00585009697767   -0.0757259445576    0.994142152176      -0.0758484905653    0.994142152176      -0.0758484905653    -0.00585009697767   -0.0757259445576    
1300000000.0        -0.00685209567395   -0.0819504906626    0.993140134815      -0.0820832601001    0.993140134815      -0.0820832601001    -0.00685209567395   -0.0819504906626    
1400000000.0        -0.00793135492276   -0.0881548332795    0.992060857263      -0.0882978283774    0.992060857263      -0.0882978283774    -0.00793135492276   -0.0881548332795    
1500000000.0        -0.00908733970248   -0.0943375347526    0.990904854473      -0.0944907578236    0.990904854473      -0.0944907578236    -0.00908733970248   -0.0943375347526    
1600000000.0        -0.0103194800963    -0.100497176014     0.989672696307      -0.100660629449     0.989672696307      -0.100660629449     -0.0103194800963    -0.100497176014     
1700000000.0        -0.0116271720227    -0.106632357546     0.988364986799      -0.106806043809     0.988364986799      -0.106806043809     -0.0116271720227    -0.106632357546     
1800000000.0        -0.0130097779991    -0.112741700315     0.986982363392      -0.112925621939     0.986982363392      -0.112925621939     -0.0130097779991    -0.112741700315     
1900000000.0        -0.0144666279371    -0.118823846682     0.985525496141      -0.119018006268     0.985525496141      -0.119018006268     -0.0144666279371    -0.118823846682     
2000000000.0        -0.0159970199658    -0.124877461278     0.983995086888      -0.125081861489     0.983995086888      -0.125081861489     -0.0159970199658    -0.124877461278     
2100000000.0        -0.0176002212861    -0.130901231865     0.982391868407      -0.131115875423     0.982391868407      -0.131115875423     -0.0176002212861    -0.130901231865     
2200000000.0        -0.0192754690482    -0.136893870141     0.980716603527      -0.137118759824     0.980716603527      -0.137118759824     -0.0192754690482    -0.136893870141     
2300000000.0        -0.0210219712576    -0.14285411253      0.978970084223      -0.14308925117      0.978970084223      -0.14308925117      -0.0210219712576    -0.14285411253      
2400000000.0        -0.0228389077021    -0.148780720929     0.97715313069       -0.149026111408     0.97715313069       -0.149026111408     -0.0228389077021    -0.148780720929     
2500000000.0        -0.0247254309007    -0.154672483414     0.975266590395      -0.154928128663     0.975266590395      -0.154928128663     -0.0247254309007    -0.154672483414     
2600000000.0        -0.026680667073     -0.160528214917     0.973311337106      -0.16079411791      0.973311337106      -0.16079411791      -0.026680667073     -0.160528214917     
2700000000.0        -0.0287037171266    -0.166346757858     0.971288269904      -0.166622921613     0.971288269904      -0.166622921613     -0.0287037171266    -0.166346757858     
2800000000.0        -0.0307936576587    -0.172126982737     0.96919831218       -0.172413410313     0.96919831218       -0.172413410313     -0.0307936576587    -0.172126982737     
2900000000.0        -0.0329495419751    -0.177867788695     0.967042410619      -0.178164483189     0.967042410619      -0.178164483189     -0.0329495419751    -0.177867788695     
3000000000.0        -0.0351704011171    -0.183568104016     0.964821534173      -0.18387506856      0.964821534173      -0.18387506856      -0.0351704011171    -0.183568104016     
3100000000.0        -0.0374552449046    -0.189226886611     0.962536673014      -0.189544124373     0.962536673014      -0.189544124373     -0.0374552449046    -0.189226886611     
3200000000.0        -0.0398030629831    -0.194843124446     0.960188837489      -0.195170638622     0.960188837489      -0.195170638622     -0.0398030629831    -0.194843124446     
3300000000.0        -0.0422128258806    -0.200415835932     0.957779057065      -0.200753629752     0.957779057065      -0.200753629752     -0.0422128258806    -0.200415835932     
3400000000.0        -0.0446834860664    -0.205944070276     0.955308379266      -0.206292146995     0.955308379266      -0.206292146995     -0.0446834860664    -0.205944070276     
3500000000.0        -0.0472139790174    -0.21142690779      0.952777868611      -0.211785270692     0.952777868611      -0.211785270692     -0.0472139790174    -0.21142690779      
3600000000.0        -0.0498032242831    -0.216863460164     0.950188605546      -0.217232112554     0.950188605546      -0.217232112554     -0.0498032242831    -0.216863460164     
3700000000.0        -0.052450126549     -0.222252870686     0.94754168538       -0.222631815894     0.94754168538       -0.222631815894     -0.052450126549     -0.222252870686     
3800000000.0        -0.0551535767031    -0.227594314437     0.944838217222      -0.227983555813     0.944838217222      -0.227983555813     -0.0551535767031    -0.227594314437     
3900000000.0        -0.0579124528939    -0.23288699844      0.942079322921      -0.233286539355     0.942079322921      -0.233286539355     -0.0579124528939    -0.23288699844      
4000000000.0        -0.0607256215854    -0.238130161767     0.939266136008      -0.238540005609     0.939266136008      -0.238540005609     -0.0607256215854    -0.238130161767     
4100000000.0        -0.0635919386065    -0.243323075616     0.936399800652      -0.243743225788     0.936399800652      -0.243743225788     -0.0635919386065    -0.243323075616     
4200000000.0        -0.0665102501889    -0.248465043338     0.933481470618      -0.248895503261     0.933481470618      -0.248895503261     -0.0665102501889    -0.248465043338     
4300000000.0        -0.0694793940005    -0.253555400446     0.930512308237      -0.253996173552     0.930512308237      -0.253996173552     -0.0694793940005    -0.253555400446     
4400000000.0        -0.0724982001608    -0.258593514566     0.927493483387      -0.259044604301     0.927493483387      -0.259044604301     -0.0724982001608    -0.258593514566     
4500000000.0        -0.0755654922518    -0.263578785371     0.924426172482      -0.264040195191     0.924426172482      -0.264040195191     -0.0755654922518    -0.263578785371     
4600000000.0        -0.0786800883089    -0.268510644471     0.921311557487      -0.268982377842     0.921311557487      -0.268982377842     -0.0786800883089    -0.268510644471     
4700000000.0        -0.0818408018016    -0.273388555276     0.918150824929      -0.273870615673     0.918150824929      -0.273870615673     -0.0818408018016    -0.273388555276     
4800000000.0        -0.0850464425939    -0.278212012819     0.914945164943      -0.278704403725     0.914945164943      -0.278704403725     -0.0850464425939    -0.278212012819     
4900000000.0        -0.0882958178913    -0.282980543556     0.911695770322      -0.283483268458     0.911695770322      -0.283483268458     -0.0882958178913    -0.282980543556     
5000000000.0        -0.0915877331695    -0.287693705132     0.908403835589      -0.288206767524     0.908403835589      -0.288206767524     -0.0915877331695    -0.287693705132     
5100000000.0        -0.0949209930806    -0.292351086119     0.905070556091      -0.292874489498     0.905070556091      -0.292874489498     -0.0949209930806    -0.292351086119     
5200000000.0        -0.098294402344     -0.296952305726     0.901697127106      -0.297486053594     0.901697127106      -0.297486053594     -0.098294402344     -0.296952305726     
5300000000.0        -0.101706766613     -0.301497013483     0.898284742981      -0.302041109341     0.898284742981      -0.302041109341     -0.101706766613     -0.301497013483     
5400000000.0        -0.105156893324     -0.305984888899     0.894834596278      -0.306539336252     0.894834596278      -0.306539336252     -0.105156893324     -0.305984888899     
5500000000.0        -0.108643592518     -0.310415641096     0.891347876956      -0.310980443449     0.891347876956      -0.310980443449     -0.108643592518     -0.310415641096     
5600000000.0        -0.112165677644     -0.314789008424     0.887825771563      -0.315364169279     0.887825771563      -0.315364169279     -0.112165677644     -0.314789008424     
5700000000.0        -0.115721966339     -0.319104758045     0.884269462463      -0.319690280905     0.884269462463      -0.319690280905     -0.115721966339     -0.319104758045     
5800000000.0        -0.11931128118      -0.323362685506     0.880680127078      -0.32395857387      0.880680127078      -0.32395857387      -0.11931128118      -0.323362685506     
5900000000.0        -0.122932450417     -0.327562614289     0.877058937157      -0.328168871654     0.877058937157      -0.328168871654     -0.122932450417     -0.327562614289     
6000000000.0        -0.126584308679     -0.331704395342     0.873407058071      -0.332321025201     0.873407058071      -0.332321025201     -0.126584308679     -0.331704395342     
6100000000.0        -0.130265697652     -0.335787906595     0.869725648131      -0.336414912435     0.869725648131      -0.336414912435     -0.130265697652     -0.335787906595     
6200000000.0        -0.133975466743     -0.339813052459     0.866015857933      -0.340450437763     0.866015857933      -0.340450437763     -0.133975466743     -0.339813052459     
6300000000.0        -0.1377124737       -0.343779763312     0.862278829725      -0.344427531557     0.862278829725      -0.344427531557     -0.1377124737       -0.343779763312     
6400000000.0        -0.141475585229     -0.347687994972     0.858515696804      -0.348346149627     0.858515696804      -0.348346149627     -0.141475585229     -0.347687994972     
6500000000.0        -0.145263677565     -0.351537728155     0.854727582933      -0.352206272683     0.854727582933      -0.352206272683     -0.145263677565     -0.351537728155     
6600000000.0        -0.14907563703      -0.355328967925     0.850915601789      -0.356007905781     0.850915601789      -0.356007905781     -0.14907563703      -0.355328967925     
6700000000.0        -0.152910360564     -0.359061743136     0.847080856432      -0.359751077765     0.847080856432      -0.359751077765     -0.152910360564     -0.359061743136     
6800000000.0        -0.156766756225     -0.362736105858     0.843224438804      -0.363435840698     0.843224438804      -0.363435840698     -0.156766756225     -0.362736105858     
6900000000.0        -0.16064374367      -0.366352130805     0.839347429248      -0.367062269283     0.839347429248      -0.367062269283     -0.16064374367      -0.366352130805     
7000000000.0        -0.164540254606     -0.369909914751     0.835450896056      -0.370630460283     0.835450896056      -0.370630460283     -0.164540254606     -0.369909914751     
7100000000.0        -0.168455233219     -0.373409575935     0.831535895043      -0.374140531929     0.831535895043      -0.374140531929     -0.168455233219     -0.373409575935     
7200000000.0        -0.172387636578     -0.37685125348      0.827603469138      -0.37759262333      0.827603469138      -0.37759262333      -0.172387636578     -0.37685125348      
7300000000.0        -0.176336435014     -0.380235106783     0.823654648011      -0.380986893873     0.823654648011      -0.380986893873     -0.176336435014     -0.380235106783     
7400000000.0        -0.180300612472     -0.383561314925     0.819690447717      -0.384323522627     0.819690447717      -0.384323522627     -0.180300612472     -0.383561314925     
7500000000.0        -0.184279166847     -0.386830076068     0.81571187036       -0.387602707741     0.81571187036       -0.387602707741     -0.184279166847     -0.386830076068     
7600000000.0        -0.188271110286     -0.39004160685      0.811719903794      -0.390824665839     0.811719903794      -0.390824665839     -0.188271110286     -0.39004160685      
7700000000.0        -0.192275469476     -0.393196141786     0.807715521329      -0.393989631425     0.807715521329      -0.393989631425     -0.192275469476     -0.393196141786     
7800000000.0        -0.196291285907     -0.396293932669     0.80369968148       -0.397097856277     0.80369968148       -0.397097856277     -0.196291285907     -0.396293932669     
7900000000.0        -0.200317616106     -0.399335247966     0.799673327715      -0.400149608848     0.799673327715      -0.400149608848     -0.200317616106     -0.399335247966     
8000000000.0        -0.204353531861     -0.402320372226     0.795637388249      -0.403145173672     0.795637388249      -0.403145173672     -0.204353531861     -0.402320372226     
8100000000.0        -0.208398120416     -0.405249605483     0.791592775836      -0.40608485077      0.791592775836      -0.40608485077      -0.208398120416     -0.405249605483     
8200000000.0        -0.212450484643     -0.408123262667     0.787540387605      -0.408968955056     0.787540387605      -0.408968955056     -0.212450484643     -0.408123262667     
8300000000.0        -0.216509743206     -0.41094167302      0.783481104893      -0.411797815757     0.783481104893      -0.411797815757     -0.216509743206     -0.41094167302      
8400000000.0        -0.220575030687     -0.413705179514     0.779415793116      -0.414571775829     0.779415793116      -0.414571775829     -0.220575030687     -0.413705179514     
8500000000.0        -0.224645497712     -0.416414138275     0.775345301648      -0.417291191383     0.775345301648      -0.417291191383     -0.224645497712     -0.416414138275     
8600000000.0        -0.228720311046     -0.419068918017     0.771270463726      -0.419956431117     0.771270463726      -0.419956431117     -0.228720311046     -0.419068918017     
8700000000.0        -0.23279865367      -0.421669899477     0.767192096368      -0.42256787575      0.767192096368      -0.42256787575      -0.23279865367      -0.421669899477     
8800000000.0        -0.23687972485      -0.424217474861     0.763111000307      -0.425125917474     0.763111000307      -0.425125917474     -0.23687972485      -0.424217474861     
8900000000.0        -0.240962740181     -0.426712047298     0.759027959949      -0.4276309594       0.759027959949      -0.4276309594       -0.240962740181     -0.426712047298     
9000000000.0        -0.245046931612     -0.429154030296     0.754943743345      -0.430083415019     0.754943743345      -0.430083415019     -0.245046931612     -0.429154030296     
9100000000.0        -0.24913154747      -0.431543847216     0.750859102168      -0.432483707675     0.750859102168      -0.432483707675     -0.24913154747      -0.431543847216     
9200000000.0        -0.253215852449     -0.433881930745     0.746774771724      -0.434832270037     0.746774771724      -0.434832270037     -0.253215852449     -0.433881930745     
9300000000.0        -0.257299127602     -0.436168722383     0.742691470959      -0.43712954359      0.742691470959      -0.43712954359      -0.257299127602     -0.436168722383     
9400000000.0        -0.261380670308     -0.438404671942     0.738609902497      -0.439375978126     0.738609902497      -0.439375978126     -0.261380670308     -0.438404671942     
9500000000.0        -0.265459794227     -0.440590237046     0.734530752675      -0.441572031252     0.734530752675      -0.441572031252     -0.265459794227     -0.440590237046     
9600000000.0        -0.269535829252     -0.442725882649     0.730454691602      -0.443718167904     0.730454691602      -0.443718167904     -0.269535829252     -0.442725882649     
9700000000.0        -0.273608121432     -0.444812080557     0.726382373227      -0.445814859871     0.726382373227      -0.445814859871     -0.273608121432     -0.444812080557     
9800000000.0        -0.2776760329       -0.446849308969     0.72231443542       -0.447862585333     0.72231443542       -0.447862585333     -0.2776760329       -0.446849308969     
9900000000.0        -0.281738941776     -0.448838052014     0.718251500058      -0.4498618284       0.718251500058      -0.4498618284       -0.281738941776     -0.448838052014     
10000000000.0       -0.285796242072     -0.450778799311     0.714194173132      -0.451813078675     0.714194173132      -0.451813078675     -0.285796242072     -0.450778799311     
