# Hz S RI R 50.00 
100000000.0         0.137296289332      0.00263573000196    0.862699340343      -0.00443206599609   0.862699340343      -0.00443206599609   0.137296289332      0.00263573000196    
200000000.0         0.138112974557      0.0052582659913     0.861875884497      -0.00885093943317   0.861875884497      -0.00885093943317   0.138112974557      0.0052582659913     
300000000.0         0.138743239277      0.0078725977578     0.861235446741      -0.0132616168557    0.861235446741      -0.0132616168557    0.138743239277      0.0078725977578     
400000000.0         0.139291081375      0.0104802595112     0.860674027634      -0.0176656389791    0.860674027634      -0.0176656389791    0.139291081375      0.0104802595112     
500000000.0         0.139796645649      0.0130819814181     0.86015148104       -0.0220637423503    0.86015148104       -0.0220637423503    0.139796645649      0.0130819814181     
600000000.0         0.140280440774      0.0156781376928     0.859647297041      -0.0264563074804    0.859647297041      -0.0264563074804    0.140280440774      0.0156781376928     
700000000.0         0.140754594444      0.0182689075892     0.859149346747      -0.0308435198604    0.859149346747      -0.0308435198604    0.140754594444      0.0182689075892     
800000000.0         0.141226965929      0.0208543501001     0.858649769701      -0.0352254446729    0.858649769701      -0.0352254446729    0.141226965929      0.0208543501001     
900000000.0         0.141702979199      0.0234344441005     0.858143140733      -0.0396020669439    0.858143140733      -0.0396020669439    0.141702979199      0.0234344441005     
1000000000.0        0.142186553067      0.0260091121359     0.857625539807      -0.0439733153378    0.857625539807      -0.0439733153378    0.142186553067      0.0260091121359     
1100000000.0        0.142680618759      0.0285782355492     0.857094034436      -0.0483390772887    0.857094034436      -0.0483390772887    0.142680618759      0.0285782355492     
1200000000.0        0.143187428631      0.031141664631      0.856546370959      -0.0526992091534    0.856546370959      -0.0526992091534    0.143187428631      0.031141664631      
1300000000.0        0.143708750577      0.0336992257244     0.855980780126      -0.0570535433199    0.855980780126      -0.0570535433199    0.143708750577      0.0336992257244     
1400000000.0        0.14424599594       0.0362507263742     0.855395849183      -0.061401893358     0.855395849183      -0.061401893358     0.14424599594       0.0362507263742     
1500000000.0        0.144800306758      0.0387959591676     0.854790434623      -0.0657440578617    0.854790434623      -0.0657440578617    0.144800306758      0.0387959591676     
1600000000.0        0.1453726171        0.0413347046691     0.854163600846      -0.0700798233858    0.854163600846      -0.0700798233858    0.1453726171        0.0413347046691     
1700000000.0        0.145963697309      0.0438667337125     0.853514575911      -0.0744089667386    0.853514575911      -0.0744089667386    0.145963697309      0.0438667337125     
1800000000.0        0.146574186642      0.0463918092228     0.852842718899      -0.0787312568054    0.852842718899      -0.0787312568054    0.146574186642      0.0463918092228     
1900000000.0        0.14720461781       0.0489096876898     0.852147495363      -0.0830464560222    0.852147495363      -0.0830464560222    0.14720461781       0.0489096876898     
2000000000.0        0.147855435761      0.0514201203764     0.851428458556      -0.0873543215852    0.851428458556      -0.0873543215852    0.147855435761      0.0514201203764     
2100000000.0        0.148527012257      0.0539228543233     0.850685234837      -0.0916546064557    0.850685234837      -0.0916546064557    0.148527012257      0.0539228543233     
2200000000.0        0.149219657363      0.0564176331942     0.849917512196      -0.0959470602059    0.849917512196      -0.0959470602059    0.149219657363      0.0564176331942     
2300000000.0        0.149933628593      0.0589041979945     0.849125031094      -0.100231429738     0.849125031094      -0.100231429738     0.149933628593      0.0589041979945     
2400000000.0        0.150669138294      0.0613822876893     0.848307577086      -0.104507459904     0.848307577086      -0.104507459904     0.150669138294      0.0613822876893     
2500000000.0        0.15142635965       0.0638516397386     0.847464974816      -0.108774894037     0.847464974816      -0.108774894037     0.15142635965       0.0638516397386     
2600000000.0        0.152205431614      0.0663119905656     0.846597083078      -0.113033474424     0.846597083078      -0.113033474424     0.152205431614      0.0663119905656     
2700000000.0        0.153006463011      0.0687630759698     0.845703790721      -0.11728294272      0.845703790721      -0.11728294272      0.153006463011      0.0687630759698     
2800000000.0        0.153829535947      0.0712046314932     0.84478501323       -0.121523040308     0.84478501323       -0.121523040308     0.153829535947      0.0712046314932     
2900000000.0        0.154674708696      0.0736363927479     0.843840689846      -0.125753508633     0.843840689846      -0.125753508633     0.154674708696      0.0736363927479     
3000000000.0        0.155542018143      0.0760580957105     0.842870781121      -0.129974089496     0.842870781121      -0.129974089496     0.155542018143      0.0760580957105     
3100000000.0        0.156431481861      0.0784694769887     0.841875266835      -0.134184525316     0.841875266835      -0.134184525316     0.156431481861      0.0784694769887     
3200000000.0        0.15734309991       0.0808702740629     0.840854144203      -0.138384559376     0.840854144203      -0.138384559376     0.15734309991       0.0808702740629     
3300000000.0        0.158276856379      0.0832602255079     0.839807426332      -0.142573936046     0.839807426332      -0.142573936046     0.158276856379      0.0832602255079     
3400000000.0        0.159232720733      0.0856390711954     0.838735140868      -0.146752400978     0.838735140868      -0.146752400978     0.159232720733      0.0856390711954     
3500000000.0        0.160210648989      0.0880065524806     0.837637328827      -0.150919701303     0.837637328827      -0.150919701303     0.160210648989      0.0880065524806     
3600000000.0        0.161210584746      0.0903624123754     0.83651404356       -0.155075585795     0.83651404356       -0.155075585795     0.161210584746      0.0903624123754     
3700000000.0        0.162232460098      0.0927063957079     0.835365349839      -0.159219805036     0.835365349839      -0.159219805036     0.162232460098      0.0927063957079     
3800000000.0        0.163276196445      0.0950382492718     0.834191323049      -0.163352111565     0.834191323049      -0.163352111565     0.163276196445      0.0950382492718     
3900000000.0        0.164341705212      0.0973577219645     0.832992048467      -0.167472260012     0.832992048467      -0.167472260012     0.164341705212      0.0973577219645     
4000000000.0        0.165428888497      0.0996645649176     0.831767620615      -0.171580007234     0.831767620615      -0.171580007234     0.165428888497      0.0996645649176     
4100000000.0        0.166537639652      0.101958531618      0.830518142675      -0.175675112432     0.830518142675      -0.175675112432     0.166537639652      0.101958531618      
4200000000.0        0.167667843809      0.10423937802       0.829243725967      -0.179757337264     0.829243725967      -0.179757337264     0.167667843809      0.10423937802       
4300000000.0        0.168819378358      0.106506862657      0.827944489468      -0.183826445958     0.827944489468      -0.183826445958     0.168819378358      0.106506862657      
4400000000.0        0.169992113382      0.108760746735      0.826620559379      -0.187882205406     0.826620559379      -0.187882205406     0.169992113382      0.108760746735      
4500000000.0        0.171185912057      0.111000794235      0.825272068722      -0.19192438526      0.825272068722      -0.19192438526      0.171185912057      0.111000794235      
4600000000.0        0.172400631015      0.113226771996      0.823899156979      -0.195952758024     0.823899156979      -0.195952758024     0.172400631015      0.113226771996      
4700000000.0        0.173636120685      0.115438449801      0.822501969749      -0.199967099135     0.822501969749      -0.199967099135     0.173636120685      0.115438449801      
4800000000.0        0.174892225608      0.117635600458      0.821080658435      -0.203967187044     0.821080658435      -0.203967187044     0.174892225608      0.117635600458      
4900000000.0        0.176168784723      0.119817999873      0.819635379956      -0.207952803287     0.819635379956      -0.207952803287     0.176168784723      0.119817999873      
5000000000.0        0.177465631642      0.121985427119      0.818166296472      -0.211923732561     0.818166296472      -0.211923732561     0.177465631642      0.121985427119      
5100000000.0        0.178782594906      0.124137664504      0.816673575128      -0.215879762784     0.816673575128      -0.215879762784     0.178782594906      0.124137664504      
5200000000.0        0.180119498221      0.126274497636      0.815157387818      -0.219820685163     0.815157387818      -0.219820685163     0.180119498221      0.126274497636      
5300000000.0        0.181476160682      0.128395715474      0.813617910959      -0.223746294248     0.813617910959      -0.223746294248     0.181476160682      0.128395715474      
5400000000.0        0.182852396992      0.130501110393      0.812055325276      -0.227656387989     0.812055325276      -0.227656387989     0.182852396992      0.130501110393      
5500000000.0        0.184248017659      0.132590478228      0.810469815601      -0.231550767789     0.810469815601      -0.231550767789     0.184248017659      0.132590478228      
5600000000.0        0.185662829186      0.134663618326      0.808861570681      -0.235429238548     0.808861570681      -0.235429238548     0.185662829186      0.134663618326      
5700000000.0        0.187096634261      0.136720333591      0.807230782995      -0.239291608715     0.807230782995      -0.239291608715     0.187096634261      0.136720333591      
5800000000.0        0.188549231925      0.138760430527      0.805577648578      -0.243137690324     0.805577648578      -0.243137690324     0.188549231925      0.138760430527      
5900000000.0        0.190020417743      0.140783719274      0.803902366856      -0.246967299036     0.803902366856      -0.246967299036     0.190020417743      0.140783719274      
6000000000.0        0.191509983963      0.142790013651      0.80220514048       -0.250780254176     0.80220514048       -0.250780254176     0.191509983963      0.142790013651      
6100000000.0        0.193017719671      0.144779131183      0.800486175179      -0.254576378765     0.800486175179      -0.254576378765     0.193017719671      0.144779131183      
6200000000.0        0.194543410941      0.146750893137      0.798745679603      -0.258355499553     0.798745679603      -0.258355499553     0.194543410941      0.146750893137      
6300000000.0        0.196086840975      0.148705124548      0.796983865184      -0.262117447045     0.796983865184      -0.262117447045     0.196086840975      0.148705124548      
6400000000.0        0.197647790247      0.150641654246      0.795200945996      -0.265862055529     0.795200945996      -0.265862055529     0.197647790247      0.150641654246      
6500000000.0        0.199226036635      0.152560314881      0.793397138617      -0.269589163099     0.793397138617      -0.269589163099     0.199226036635      0.152560314881      
6600000000.0        0.200821355551      0.154460942941      0.791572662004      -0.273298611674     0.791572662004      -0.273298611674     0.200821355551      0.154460942941      
6700000000.0        0.202433520068      0.156343378772      0.78972773736       -0.27699024702      0.78972773736       -0.27699024702      0.202433520068      0.156343378772      
6800000000.0        0.204062301044      0.158207466598      0.787862588016      -0.280663918765     0.787862588016      -0.280663918765     0.204062301044      0.158207466598      
6900000000.0        0.205707467242      0.160053054529      0.785977439306      -0.284319480411     0.785977439306      -0.284319480411     0.205707467242      0.160053054529      
7000000000.0        0.207368785447      0.161879994579      0.784072518452      -0.287956789349     0.784072518452      -0.287956789349     0.207368785447      0.161879994579      
7100000000.0        0.209046020577      0.163688142673      0.782148054452      -0.291575706867     0.782148054452      -0.291575706867     0.209046020577      0.163688142673      
7200000000.0        0.210738935799      0.165477358657      0.780204277966      -0.295176098161     0.780204277966      -0.295176098161     0.210738935799      0.165477358657      
7300000000.0        0.212447292633      0.167247506299      0.778241421204      -0.298757832334     0.778241421204      -0.298757832334     0.212447292633      0.167247506299      
7400000000.0        0.214170851062      0.168998453301      0.776259717829      -0.302320782407     0.776259717829      -0.302320782407     0.214170851062      0.168998453301      
7500000000.0        0.215909369634      0.170730071294      0.774259402843      -0.305864825318     0.774259402843      -0.305864825318     0.215909369634      0.170730071294      
7600000000.0        0.217662605561      0.172442235841      0.772240712491      -0.30938984192      0.772240712491      -0.30938984192      0.217662605561      0.172442235841      
7700000000.0        0.219430314823      0.174134826437      0.770203884161      -0.312895716983     0.770203884161      -0.312895716983     0.219430314823      0.174134826437      
7800000000.0        0.221212252261      0.1758077265        0.768149156285      -0.316382339185     0.768149156285      -0.316382339185     0.221212252261      0.1758077265        
7900000000.0        0.223008171676      0.177460823373      0.766076768242      -0.319849601112     0.766076768242      -0.319849601112     0.223008171676      0.177460823373      
8000000000.0        0.224817825919      0.179094008311      0.76398696027       -0.32329739925      0.76398696027       -0.32329739925      0.224817825919      0.179094008311      
8100000000.0        0.226640966984      0.180707176477      0.761879973368      -0.32672563397      0.761879973368      -0.32672563397      0.226640966984      0.180707176477      
8200000000.0        0.228477346096      0.182300226927      0.759756049212      -0.330134209527     0.759756049212      -0.330134209527     0.228477346096      0.182300226927      
8300000000.0        0.230326713803      0.183873062601      0.757615430062      -0.333523034039     0.757615430062      -0.333523034039     0.230326713803      0.183873062601      
8400000000.0        0.232188820054      0.185425590312      0.75545835868       -0.336892019481     0.75545835868       -0.336892019481     0.232188820054      0.185425590312      
8500000000.0        0.234063414293      0.186957720725      0.75328507824       -0.340241081663     0.75328507824       -0.340241081663     0.234063414293      0.186957720725      
8600000000.0        0.235950245532      0.188469368346      0.751095832254      -0.34357014022      0.751095832254      -0.34357014022      0.235950245532      0.188469368346      
8700000000.0        0.23784906244       0.1899604515        0.74889086448       -0.346879118587     0.74889086448       -0.346879118587     0.23784906244       0.1899604515        
8800000000.0        0.239759613416      0.191430892317      0.746670418851      -0.350167943986     0.746670418851      -0.350167943986     0.239759613416      0.191430892317      
8900000000.0        0.241681646672      0.192880616706      0.744434739394      -0.353436547401     0.744434739394      -0.353436547401     0.241681646672      0.192880616706      
9000000000.0        0.243614910303      0.194309554336      0.742184070152      -0.356684863558     0.742184070152      -0.356684863558     0.243614910303      0.194309554336      
9100000000.0        0.245559152369      0.195717638614      0.739918655113      -0.359912830899     0.739918655113      -0.359912830899     0.245559152369      0.195717638614      
9200000000.0        0.24751412096       0.197104806657      0.737638738131      -0.363120391562     0.737638738131      -0.363120391562     0.24751412096       0.197104806657      
9300000000.0        0.249479564274      0.198470999269      0.735344562862      -0.366307491352     0.735344562862      -0.366307491352     0.249479564274      0.198470999269      
9400000000.0        0.251455230684      0.199816160916      0.733036372687      -0.369474079711     0.733036372687      -0.369474079711     0.251455230684      0.199816160916      
9500000000.0        0.253440868804      0.201140239693      0.730714410645      -0.372620109699     0.730714410645      -0.372620109699     0.253440868804      0.201140239693      
9600000000.0        0.255436227562      0.2024431873        0.728378919368      -0.375745537955     0.728378919368      -0.375745537955     0.255436227562      0.2024431873        
9700000000.0        0.257441056261      0.203724959012      0.726030141014      -0.378850324674     0.726030141014      -0.378850324674     0.257441056261      0.203724959012      
9800000000.0        0.259455104643      0.204985513643      0.723668317201      -0.381934433571     0.723668317201      -0.381934433571     0.259455104643      0.204985513643      
9900000000.0        0.261478122954      0.206224813519      0.721293688946      -0.384997831851     0.721293688946      -0.384997831851     0.261478122954      0.206224813519      
10000000000.0       0.263509862003      0.207442824445      0.718906496604      -0.388040490177     0.718906496604      -0.388040490177     0.263509862003      0.207442824445      
