# Hz S RI R 50.00 
100000000.0         0.00133162199734    7.6843848554e-05    0.998650661682      -0.00498624471706   0.998650661682      -0.00498624471706   0.00133162199734    7.68438485539e-05   
200000000.0         0.00133941831852    0.000153557800706   0.998602033808      -0.00997241919817   0.998602033808      -0.00997241919817   0.00133941831852    0.000153557800706   
300000000.0         0.0013456621708     0.000230143084917   0.998530839195      -0.0149585200513    0.998530839195      -0.0149585200513    0.0013456621708     0.000230143084917   
400000000.0         0.00135150580541    0.000306584774062   0.998435920566      -0.0199445003526    0.998435920566      -0.0199445003526    0.00135150580541    0.000306584774062   
500000000.0         0.00135739090095    0.000382866477412   0.998316830479      -0.0249302975491    0.998316830479      -0.0249302975491    0.00135739090095    0.000382866477412   
600000000.0         0.00136354107893    0.000458972169419   0.998173339007      -0.0299158399711    0.998173339007      -0.0299158399711    0.00136354107893    0.000458972169419   
700000000.0         0.00137008703949    0.000534886645409   0.998005308741      -0.0349010496987    0.998005308741      -0.0349010496987    0.00137008703949    0.000534886645409   
800000000.0         0.00137711221735    0.00061059563633    0.997812649251      -0.0398858441337    0.997812649251      -0.0398858441337    0.00137711221735    0.00061059563633    
900000000.0         0.00138467310903    0.000686085815169   0.997595296843      -0.0448701369765    0.997595296843      -0.0448701369765    0.00138467310903    0.000686085815169   
1000000000.0        0.00139280957907    0.000761344765733   0.997353204333      -0.0498538388845    0.997353204333      -0.0498538388845    0.00139280957907    0.000761344765733   
1100000000.0        0.00140155059325    0.000836360938868   0.99708633538       -0.0548368579426    0.99708633538       -0.0548368579426    0.00140155059325    0.000836360938868   
1200000000.0        0.0014109176389     0.000911123605823   0.996794661121      -0.0598191000152    0.996794661121      -0.0598191000152    0.0014109176389     0.000911123605823   
1300000000.0        0.00142092688076    0.000985622812733   0.996478158069      -0.064800469017     0.996478158069      -0.064800469017     0.00142092688076    0.000985622812733   
1400000000.0        0.00143159058158    0.00105984933755    0.996136806738      -0.0697808671286    0.996136806738      -0.0697808671286    0.00143159058158    0.00105984933755    
1500000000.0        0.00144291807335    0.00113379464999    0.995770590716      -0.0747601949719    0.995770590716      -0.0747601949719    0.00144291807335    0.00113379464999    
1600000000.0        0.00145491644234    0.00120745087441    0.995379496015      -0.0797383517541    0.995379496015      -0.0797383517541    0.00145491644234    0.00120745087441    
1700000000.0        0.00146759102534    0.00128081075554    0.994963510612      -0.0847152353898    0.994963510612      -0.0847152353898    0.00146759102534    0.00128081075554    
1800000000.0        0.00148094577757    0.00135386762664    0.994522624115      -0.0896907426044    0.994522624115      -0.0896907426044    0.00148094577757    0.00135386762664    
1900000000.0        0.00149498355112    0.00142661538016    0.994056827512      -0.0946647690232    0.994056827512      -0.0946647690232    0.00149498355112    0.00142661538016    
2000000000.0        0.0015097063095     0.00149904844017    0.993566112989      -0.0996372092498    0.993566112989      -0.0996372092498    0.0015097063095     0.00149904844017    
2100000000.0        0.00152511529576    0.00157116173689    0.993050473782      -0.104607956934     0.993050473782      -0.104607956934     0.00152511529576    0.00157116173689    
2200000000.0        0.00154121116603    0.00164295068265    0.992509904076      -0.109576904832     0.992509904076      -0.109576904832     0.00154121116603    0.00164295068265    
2300000000.0        0.0015579940972     0.0017144111494     0.991944398915      -0.114543944863     0.991944398915      -0.114543944863     0.0015579940972     0.0017144111494     
2400000000.0        0.00157546387467    0.00178553944753    0.991353954136      -0.119508968153     0.991353954136      -0.119508968153     0.00157546387467    0.00178553944753    
2500000000.0        0.0015936199647     0.00185633230579    0.990738566322      -0.124471865085     0.990738566322      -0.124471865085     0.0015936199647     0.00185633230579    
2600000000.0        0.00161246157476    0.00192678685232    0.990098232755      -0.129432525333     0.990098232755      -0.129432525333     0.00161246157476    0.00192678685232    
2700000000.0        0.00163198770417    0.00199690059664    0.98943295139       -0.134390837904     0.98943295139       -0.134390837904     0.00163198770417    0.00199690059664    
2800000000.0        0.00165219718716    0.00206667141247    0.988742720824      -0.139346691167     0.988742720824      -0.139346691167     0.00165219718716    0.00206667141247    
2900000000.0        0.00167308872966    0.00213609752131    0.988027540278      -0.144299972888     0.988027540278      -0.144299972888     0.00167308872966    0.00213609752131    
3000000000.0        0.00169466094098    0.00220517747684    0.98728740958       -0.149250570255     0.98728740958       -0.149250570255     0.00169466094098    0.00220517747684    
3100000000.0        0.00171691236125    0.00227391014987    0.986522329156      -0.154198369907     0.986522329156      -0.154198369907     0.00171691236125    0.00227391014987    
3200000000.0        0.00173984148551    0.0023422947139     0.985732300015      -0.159143257957     0.985732300015      -0.159143257957     0.00173984148551    0.0023422947139     
3300000000.0        0.00176344678468    0.00241033063134    0.984917323743      -0.164085120018     0.984917323743      -0.164085120018     0.00176344678468    0.00241033063134    
3400000000.0        0.00178772672418    0.0024780176401     0.9840774025        -0.169023841223     0.9840774025        -0.169023841223     0.00178772672418    0.0024780176401     
3500000000.0        0.00181267978041    0.00254535574074    0.983212539011      -0.173959306243     0.983212539011      -0.173959306243     0.00181267978041    0.00254535574074    
3600000000.0        0.0018383044554     0.00261234518407    0.982322736567      -0.178891399311     0.982322736567      -0.178891399311     0.0018383044554     0.00261234518407    
3700000000.0        0.00186459928996    0.00267898645906    0.98140799902       -0.183820004238     0.98140799902       -0.183820004238     0.00186459928996    0.00267898645906    
3800000000.0        0.00189156287541    0.00274528028127    0.980468330782      -0.188745004427     0.980468330782      -0.188745004427     0.00189156287541    0.00274528028127    
3900000000.0        0.00191919386419    0.0028112275815     0.979503736827      -0.193666282897     0.979503736827      -0.193666282897     0.00191919386419    0.0028112275815     
4000000000.0        0.00194749097939    0.00287682949491    0.978514222688      -0.19858372229      0.978514222688      -0.19858372229      0.00194749097939    0.00287682949491    
4100000000.0        0.00197645302344    0.00294208735032    0.977499794457      -0.203497204892     0.977499794457      -0.203497204892     0.00197645302344    0.00294208735032    
4200000000.0        0.00200607888585    0.00300700265988    0.97646045879       -0.208406612644     0.97646045879       -0.208406612644     0.00200607888585    0.00300700265988    
4300000000.0        0.00203636755041    0.00307157710905    0.975396222901      -0.213311827157     0.975396222901      -0.213311827157     0.00203636755041    0.00307157710905    
4400000000.0        0.00206731810157    0.00313581254672    0.97430709457       -0.218212729722     0.97430709457       -0.218212729722     0.00206731810157    0.00313581254672    
4500000000.0        0.00209892973033    0.00319971097574    0.973193082143      -0.223109201328     0.973193082143      -0.223109201328     0.00209892973033    0.00319971097574    
4600000000.0        0.00213120173961    0.00326327454354    0.972054194529      -0.228001122668     0.972054194529      -0.228001122668     0.00213120173961    0.00326327454354    
4700000000.0        0.00216413354905    0.00332650553305    0.970890441208      -0.232888374153     0.970890441208      -0.232888374153     0.00216413354905    0.00332650553305    
4800000000.0        0.00219772469946    0.00338940635383    0.969701832229      -0.237770835923     0.969701832229      -0.237770835923     0.00219772469946    0.00338940635383    
4900000000.0        0.00223197485683    0.00345197953338    0.968488378215      -0.242648387859     0.968488378215      -0.242648387859     0.00223197485683    0.00345197953338    
5000000000.0        0.00226688381595    0.00351422770866    0.96725009036       -0.24752090959      0.96725009036       -0.24752090959      0.00226688381595    0.00351422770866    
5100000000.0        0.0023024515037     0.00357615361776    0.965986980437      -0.252388280504     0.965986980437      -0.252388280504     0.0023024515037     0.00357615361776    
5200000000.0        0.00233867798207    0.00363776009183    0.964699060798      -0.25725037976      0.964699060798      -0.25725037976      0.00233867798207    0.00363776009183    
5300000000.0        0.00237556345077    0.00369905004705    0.963386344373      -0.262107086292     0.963386344373      -0.262107086292     0.00237556345077    0.00369905004705    
5400000000.0        0.00241310824967    0.00376002647691    0.962048844676      -0.266958278826     0.962048844676      -0.266958278826     0.00241310824967    0.00376002647691    
5500000000.0        0.00245131286093    0.0038206924445     0.960686575807      -0.271803835879     0.960686575807      -0.271803835879     0.00245131286093    0.0038206924445     
5600000000.0        0.00249017791089    0.00388105107507    0.959299552452      -0.276643635774     0.959299552452      -0.276643635774     0.00249017791089    0.00388105107507    
5700000000.0        0.00252970417174    0.00394110554869    0.957887789888      -0.281477556649     0.957887789888      -0.281477556649     0.00252970417174    0.00394110554869    
5800000000.0        0.00256989256294    0.004000859093      0.95645130398       -0.286305476458     0.95645130398       -0.286305476458     0.00256989256294    0.004000859093      
5900000000.0        0.00261074415247    0.0040603149762     0.954990111189      -0.291127272986     0.954990111189      -0.291127272986     0.00261074415247    0.0040603149762     
6000000000.0        0.0026522601579     0.00411947650005    0.953504228572      -0.295942823854     0.953504228572      -0.295942823854     0.0026522601579     0.00411947650005    
6100000000.0        0.00269444194719    0.00417834699313    0.951993673782      -0.300752006523     0.951993673782      -0.300752006523     0.00269444194719    0.00417834699313    
6200000000.0        0.00273729103939    0.00423692980407    0.950458465073      -0.305554698308     0.950458465073      -0.305554698308     0.00273729103939    0.00423692980407    
6300000000.0        0.00278080910516    0.00429522829506    0.948898621301      -0.310350776378     0.948898621301      -0.310350776378     0.00278080910516    0.00429522829506    
6400000000.0        0.00282499796707    0.00435324583533    0.947314161923      -0.315140117769     0.947314161923      -0.315140117769     0.00282499796707    0.00435324583533    
6500000000.0        0.00286985959983    0.00441098579485    0.945705107006      -0.319922599385     0.945705107006      -0.319922599385     0.00286985959983    0.00441098579485    
6600000000.0        0.00291539613028    0.00446845153809    0.944071477221      -0.324698098009     0.944071477221      -0.324698098009     0.00291539613028    0.00446845153809    
6700000000.0        0.0029616098373     0.00452564641787    0.94241329385       -0.329466490307     0.94241329385       -0.329466490307     0.0029616098373     0.00452564641787    
6800000000.0        0.00300850315154    0.0045825737694     0.940730578786      -0.334227652835     0.940730578786      -0.334227652835     0.00300850315154    0.0045825737694     
6900000000.0        0.00305607865505    0.00463923690428    0.939023354534      -0.338981462046     0.939023354534      -0.338981462046     0.00305607865505    0.00463923690428    
7000000000.0        0.00310433908076    0.00469563910476    0.937291644217      -0.343727794293     0.937291644217      -0.343727794293     0.00310433908076    0.00469563910476    
7100000000.0        0.00315328731181    0.00475178361797    0.935535471571      -0.34846652584      0.935535471571      -0.34846652584      0.00315328731181    0.00475178361797    
7200000000.0        0.00320292638079    0.00480767365034    0.933754860953      -0.353197532862     0.933754860953      -0.353197532862     0.00320292638079    0.00480767365034    
7300000000.0        0.00325325946884    0.00486331236202    0.931949837339      -0.357920691456     0.931949837339      -0.357920691456     0.00325325946884    0.00486331236202    
7400000000.0        0.00330428990469    0.00491870286148    0.930120426325      -0.362635877642     0.930120426325      -0.362635877642     0.00330428990469    0.00491870286148    
7500000000.0        0.00335602116347    0.00497384820018    0.928266654135      -0.367342967373     0.928266654135      -0.367342967373     0.00335602116347    0.00497384820018    
7600000000.0        0.00340845686557    0.00502875136727    0.926388547612      -0.372041836537     0.926388547612      -0.372041836537     0.00340845686557    0.00502875136727    
7700000000.0        0.0034616007752     0.00508341528445    0.92448613423       -0.376732360964     0.92448613423       -0.376732360964     0.0034616007752     0.00508341528445    
7800000000.0        0.00351545679904    0.00513784280091    0.922559442089      -0.381414416429     0.922559442089      -0.381414416429     0.00351545679904    0.00513784280091    
7900000000.0        0.00357002898464    0.0051920366883     0.920608499918      -0.386087878661     0.920608499918      -0.386087878661     0.00357002898464    0.0051920366883     
8000000000.0        0.00362532151882    0.00524599963586    0.918633337079      -0.390752623347     0.918633337079      -0.390752623347     0.00362532151882    0.00524599963586    
8100000000.0        0.00368133872592    0.00529973424558    0.916633983565      -0.395408526132     0.916633983565      -0.395408526132     0.00368133872592    0.00529973424558    
8200000000.0        0.00373808506594    0.00535324302744    0.914610470001      -0.400055462634     0.914610470001      -0.400055462634     0.00373808506594    0.00535324302744    
8300000000.0        0.00379556513266    0.00540652839483    0.912562827651      -0.404693308438     0.912562827651      -0.404693308438     0.00379556513266    0.00540652839483    
8400000000.0        0.00385378365158    0.00545959265987    0.910491088412      -0.409321939109     0.910491088412      -0.409321939109     0.00385378365158    0.00545959265987    
8500000000.0        0.00391274547788    0.005512438029      0.908395284821      -0.413941230193     0.908395284821      -0.413941230193     0.00391274547788    0.005512438029      
8600000000.0        0.00397245559414    0.00556506659855    0.906275450054      -0.418551057222     0.906275450054      -0.418551057222     0.00397245559414    0.00556506659855    
8700000000.0        0.00403291910813    0.0056174803504     0.904131617925      -0.42315129572      0.904131617925      -0.42315129572      0.00403291910813    0.0056174803504     
8800000000.0        0.00409414125045    0.00566968114771    0.901963822893      -0.427741821206     0.901963822893      -0.427741821206     0.00409414125045    0.00566968114771    
8900000000.0        0.00415612737203    0.00572167073079    0.899772100058      -0.432322509202     0.899772100058      -0.432322509202     0.00415612737202    0.00572167073079    
9000000000.0        0.00421888294167    0.00577345071299    0.897556485163      -0.436893235231     0.897556485163      -0.436893235231     0.00421888294167    0.00577345071299    
9100000000.0        0.00428241354345    0.00582502257667    0.895317014599      -0.44145387483      0.895317014599      -0.44145387483      0.00428241354345    0.00582502257667    
9200000000.0        0.00434672487398    0.00587638766931    0.893053725401      -0.446004303547     0.893053725401      -0.446004303547     0.00434672487398    0.00587638766931    
9300000000.0        0.0044118227397     0.00592754719957    0.890766655253      -0.450544396949     0.890766655253      -0.450544396949     0.0044118227397     0.00592754719957    
9400000000.0        0.00447771305406    0.00597850223363    0.888455842487      -0.455074030629     0.888455842487      -0.455074030629     0.00447771305406    0.00597850223363    
9500000000.0        0.0045444018346     0.00602925369138    0.886121326084      -0.459593080204     0.886121326084      -0.459593080204     0.0045444018346     0.00602925369138    
9600000000.0        0.00461189519999    0.00607980234286    0.883763145677      -0.464101421323     0.883763145677      -0.464101421323     0.00461189519999    0.00607980234286    
9700000000.0        0.00468019936698    0.0061301488047     0.881381341551      -0.468598929673     0.881381341551      -0.468598929673     0.00468019936698    0.0061301488047     
9800000000.0        0.00474932064732    0.00618029353665    0.878975954642      -0.47308548098      0.878975954642      -0.47308548098      0.00474932064732    0.00618029353665    
9900000000.0        0.00481926544456    0.00623023683819    0.876547026541      -0.477560951014     0.876547026541      -0.477560951014     0.00481926544456    0.00623023683819    
10000000000.0       0.00489004025079    0.00627997884523    0.874094599494      -0.482025215596     0.874094599494      -0.482025215596     0.00489004025079    0.00627997884523    
