# Hz S RI R 50.00 
100000000.0         0.000312219565335   -0.0058445354424    0.999577011177      -0.00803249272072   0.999577011177      -0.00803249272072   0.000312219565334   -0.0058445354424    
200000000.0         0.000167123530521   -0.0116873425704    0.99941976588       -0.0160633358729    0.99941976588       -0.0160633358729    0.000167123530521   -0.0116873425704    
300000000.0         -7.24420663145e-05  -0.0175266897166    0.999164528105      -0.0240908663727    0.999164528105      -0.0240908663727    -7.24420663146e-05  -0.0175266897166    
400000000.0         -0.000406063749068  -0.0233608063825    0.998811077139      -0.0321133671283    0.998811077139      -0.0321133671283    -0.000406063749068  -0.0233608063825    
500000000.0         -0.000833479685654  -0.0291879035391    0.998359429819      -0.0401290964429    0.998359429819      -0.0401290964429    -0.000833479685653  -0.0291879035391    
600000000.0         -0.00135444368384   -0.0350061821128    0.997809706277      -0.0481362989106    0.997809706277      -0.0481362989106    -0.00135444368384   -0.0350061821128    
700000000.0         -0.00196869036501   -0.0408138380977    0.997162096179      -0.0561332116487    0.997162096179      -0.0561332116487    -0.00196869036501   -0.0408138380977    
800000000.0         -0.00267592235509   -0.0466090662345    0.996416846539      -0.0641180686095    0.996416846539      -0.0641180686095    -0.00267592235509   -0.0466090662345    
900000000.0         -0.00347580457688   -0.0523900629489    0.995574256325      -0.0720891039221    0.995574256325      -0.0720891039221    -0.00347580457688   -0.0523900629489    
1000000000.0        -0.00436796141411   -0.0581550288617    0.994634673673      -0.0800445546778    0.994634673673      -0.0800445546778    -0.00436796141411   -0.0581550288617    
1100000000.0        -0.00535197523485   -0.0639021710254    0.993598494249      -0.0879826633659    0.993598494249      -0.0879826633659    -0.00535197523485   -0.0639021710254    
1200000000.0        -0.00642738564247   -0.0696297049736    0.992466160143      -0.0959016800732    0.992466160143      -0.0959016800732    -0.00642738564247   -0.0696297049736    
1300000000.0        -0.00759368915841   -0.0753358566356    0.991238159025      -0.103799864515     0.991238159025      -0.103799864515     -0.00759368915841   -0.0753358566356    
1400000000.0        -0.00885033918511   -0.0810188641461    0.98991502342       -0.111675487935     0.98991502342       -0.111675487935     -0.00885033918511   -0.0810188641461    
1500000000.0        -0.0101967461661    -0.08667697957      0.988497330032      -0.119526834912     0.988497330032      -0.119526834912     -0.0101967461661    -0.08667697957      
1600000000.0        -0.0116322778939    -0.0923084705557    0.98698569907       -0.127352205065     0.98698569907       -0.127352205065     -0.0116322778939    -0.0923084705557    
1700000000.0        -0.0131562599363    -0.0979116219256    0.985380793566      -0.135149914708     0.985380793566      -0.135149914708     -0.0131562599363    -0.0979116219256    
1800000000.0        -0.0147679761601    -0.103484737207     0.983683318656      -0.142918298415     0.983683318656      -0.142918298415     -0.0147679761601    -0.103484737207     
1900000000.0        -0.0164666693399    -0.109026140112     0.981894020832      -0.150655710542     0.981894020832      -0.150655710542     -0.0164666693399    -0.109026140112     
2000000000.0        -0.0182515418412    -0.114534175958     0.98001368715       -0.158360526685     0.98001368715       -0.158360526685     -0.0182515418412    -0.114534175958     
2100000000.0        -0.0201217563708    -0.120007213047     0.978043144392      -0.166031145082     0.978043144392      -0.166031145082     -0.0201217563708    -0.120007213047     
2200000000.0        -0.0220764367888    -0.125443643985     0.975983258192      -0.17366598796      0.975983258192      -0.17366598796      -0.0220764367888    -0.125443643985     
2300000000.0        -0.0241146689764    -0.130841886958     0.973834932115      -0.181263502834     0.973834932115      -0.181263502834     -0.0241146689764    -0.130841886958     
2400000000.0        -0.0262355017563    -0.136200386953     0.971599106695      -0.188822163749     0.971599106695      -0.188822163749     -0.0262355017563    -0.136200386953     
2500000000.0        -0.028437947861     -0.141517616926     0.969276758432      -0.196340472468     0.969276758432      -0.196340472468     -0.028437947861     -0.141517616926     
2600000000.0        -0.0307209849459    -0.146792078928     0.966868898752      -0.203816959609     0.966868898752      -0.203816959609     -0.0307209849459    -0.146792078928     
2700000000.0        -0.0330835566443    -0.152022305169     0.964376572929      -0.211250185727     0.964376572929      -0.211250185727     -0.0330835566443    -0.152022305169     
2800000000.0        -0.0355245736599    -0.157206859031     0.961800858974      -0.218638742344     0.961800858974      -0.218638742344     -0.0355245736599    -0.157206859031     
2900000000.0        -0.038042914895     -0.162344336033     0.959142866491      -0.225981252921     0.959142866491      -0.225981252921     -0.038042914895     -0.162344336033     
3000000000.0        -0.0406374286111    -0.167433364739     0.956403735503      -0.233276373777     0.956403735503      -0.233276373777     -0.0406374286111    -0.167433364739     
3100000000.0        -0.0433069336185    -0.172472607605     0.953584635247      -0.240522794957     0.953584635247      -0.240522794957     -0.0433069336185    -0.172472607605     
3200000000.0        -0.0460502204926    -0.177460761784     0.950686762957      -0.247719241031     0.950686762957      -0.247719241031     -0.0460502204926    -0.177460761784     
3300000000.0        -0.0488660528138    -0.182396559867     0.947711342604      -0.254864471856     0.947711342604      -0.254864471856     -0.0488660528138    -0.182396559867     
3400000000.0        -0.0517531684285    -0.187278770569     0.944659623638      -0.261957283265     0.944659623638      -0.261957283265     -0.0517531684285    -0.187278770569     
3500000000.0        -0.0547102807276    -0.192106199362     0.941532879697      -0.26899650771      0.941532879697      -0.26899650771      -0.0547102807276    -0.192106199362     
3600000000.0        -0.0577360799413    -0.196877689054     0.938332407307      -0.275981014843     0.938332407307      -0.275981014843     -0.0577360799413    -0.196877689054     
3700000000.0        -0.0608292344459    -0.201592120304     0.935059524572      -0.282909712048     0.935059524572      -0.282909712048     -0.0608292344459    -0.201592120304     
3800000000.0        -0.0639883920809    -0.206248412093     0.93171556985       -0.289781544908     0.93171556985       -0.289781544908     -0.0639883920809    -0.206248412093     
3900000000.0        -0.067212181474     -0.21084552213      0.928301900426      -0.29659549762      0.928301900426      -0.29659549762      -0.067212181474     -0.21084552213      
4000000000.0        -0.0704992133702    -0.215382447208     0.924819891179      -0.303350593363     0.924819891179      -0.303350593363     -0.0704992133702    -0.215382447208     
4100000000.0        -0.0738480819645    -0.219858223507     0.921270933241      -0.310045894594     0.921270933241      -0.310045894594     -0.0738480819645    -0.219858223507     
4200000000.0        -0.0772573662333    -0.224271926836     0.917656432671      -0.316680503307     0.917656432671      -0.316680503307     -0.0772573662333    -0.224271926836     
4300000000.0        -0.0807256312648    -0.228622672834     0.913977809112      -0.323253561229     0.913977809112      -0.323253561229     -0.0807256312648    -0.228622672834     
4400000000.0        -0.0842514295834    -0.232909617103     0.910236494472      -0.329764249964     0.910236494472      -0.329764249964     -0.0842514295834    -0.232909617103     
4500000000.0        -0.0878333024688    -0.237131955303     0.906433931596      -0.336211791088     0.906433931596      -0.336211791088     -0.0878333024688    -0.237131955303     
4600000000.0        -0.0914697812643    -0.24128892319      0.902571572958      -0.342595446194     0.902571572958      -0.342595446194     -0.0914697812643    -0.24128892319      
4700000000.0        -0.0951593886753    -0.245379796606     0.898650879361      -0.348914516882     0.898650879361      -0.348914516882     -0.0951593886753    -0.245379796606     
4800000000.0        -0.098900640054     -0.24940389142      0.894673318647      -0.355168344706     0.894673318647      -0.355168344706     -0.098900640054     -0.24940389142      
4900000000.0        -0.102692044669     -0.253360563421     0.890640364425      -0.36135631107      0.890640364425      -0.36135631107      -0.102692044669     -0.253360563421     
5000000000.0        -0.10653210696      -0.257249208167     0.886553494819      -0.36747783708      0.886553494819      -0.36747783708      -0.10653210696      -0.257249208167     
5100000000.0        -0.110419327767     -0.261069260789     0.882414191229      -0.373532383351     0.882414191229      -0.373532383351     -0.110419327767     -0.261069260789     
5200000000.0        -0.114352205552     -0.264820195753     0.878223937115      -0.379519449767     0.878223937115      -0.379519449767     -0.114352205552     -0.264820195753     
5300000000.0        -0.118329237584     -0.268501526574     0.873984216801      -0.385438575206     0.873984216801      -0.385438575206     -0.118329237584     -0.268501526574     
5400000000.0        -0.122348921112     -0.272112805497     0.86969651431       -0.391289337221     0.86969651431       -0.391289337221     -0.122348921112     -0.272112805497     
5500000000.0        -0.126409754505     -0.275653623139     0.86536231221       -0.397071351677     0.86536231221       -0.397071351677     -0.126409754505     -0.275653623139     
5600000000.0        -0.130510238376     -0.279123608088     0.860983090499      -0.402784272361     0.860983090499      -0.402784272361     -0.130510238376     -0.279123608088     
5700000000.0        -0.134648876668     -0.28252242647      0.856560325511      -0.408427790549     0.856560325511      -0.408427790549     -0.134648876668     -0.28252242647      
5800000000.0        -0.138824177718     -0.285849781487     0.85209548885       -0.414001634542     0.85209548885       -0.414001634542     -0.138824177718     -0.285849781487     
5900000000.0        -0.143034655289     -0.289105412912     0.847590046357      -0.419505569167     0.847590046357      -0.419505569167     -0.143034655289     -0.289105412912     
6000000000.0        -0.147278829576     -0.292289096564     0.8430454571        -0.424939395252     0.8430454571        -0.424939395252     -0.147278829576     -0.292289096564     
6100000000.0        -0.151555228177     -0.295400643746     0.838463172404      -0.430302949067     0.838463172404      -0.430302949067     -0.151555228177     -0.295400643746     
6200000000.0        -0.155862387031     -0.298439900666     0.833844634908      -0.435596101744     0.833844634908      -0.435596101744     -0.155862387031     -0.298439900666     
6300000000.0        -0.160198851331     -0.301406747818     0.829191277652      -0.440818758662     0.829191277652      -0.440818758662     -0.160198851331     -0.301406747818     
6400000000.0        -0.164563176395     -0.304301099354     0.824504523199      -0.44597085882      0.824504523199      -0.44597085882      -0.164563176395     -0.304301099354     
6500000000.0        -0.168953928511     -0.307122902426     0.819785782795      -0.451052374177     0.819785782795      -0.451052374177     -0.168953928511     -0.307122902426     
6600000000.0        -0.173369685742     -0.309872136509     0.815036455553      -0.456063308981     0.815036455553      -0.456063308981     -0.173369685742     -0.309872136509     
6700000000.0        -0.177809038705     -0.312548812703     0.810257927681      -0.461003699071     0.810257927681      -0.461003699071     -0.177809038705     -0.312548812703     
6800000000.0        -0.182270591309     -0.315152973029     0.805451571734      -0.465873611169     0.805451571734      -0.465873611169     -0.182270591309     -0.315152973029     
6900000000.0        -0.186752961461     -0.317684689691     0.800618745908      -0.470673142151     0.800618745908      -0.470673142151     -0.186752961461     -0.317684689691     
7000000000.0        -0.191254781738     -0.320144064343     0.795760793368      -0.475402418308     0.795760793368      -0.475402418308     -0.191254781738     -0.320144064343     
7100000000.0        -0.195774700027     -0.322531227331     0.790879041603      -0.480061594594     0.790879041603      -0.480061594594     -0.195774700027     -0.322531227331     
7200000000.0        -0.200311380125     -0.324846336931     0.785974801821      -0.48465085386      0.785974801821      -0.48465085386      -0.200311380125     -0.324846336931     
7300000000.0        -0.20486350231      -0.327089578574     0.781049368381      -0.489170406084     0.781049368381      -0.489170406084     -0.20486350231      -0.327089578574     
7400000000.0        -0.209429763881     -0.329261164068     0.776104018248      -0.493620487591     0.776104018248      -0.493620487591     -0.209429763881     -0.329261164068     
7500000000.0        -0.214008879653     -0.331361330809     0.771140010493      -0.498001360264     0.771140010493      -0.498001360264     -0.214008879653     -0.331361330809     
7600000000.0        -0.218599582431     -0.333390340987     0.766158585818      -0.502313310755     0.766158585818      -0.502313310755     -0.218599582431     -0.333390340987     
7700000000.0        -0.223200623446     -0.335348480797     0.76116096612       -0.506556649688     0.76116096612       -0.506556649688     -0.223200623446     -0.335348480797     
7800000000.0        -0.227810772761     -0.337236059632     0.756148354079      -0.510731710864     0.756148354079      -0.510731710864     -0.227810772761     -0.337236059632     
7900000000.0        -0.232428819638     -0.339053409296     0.751121932786      -0.514838850462     0.751121932786      -0.514838850462     -0.232428819638     -0.339053409296     
8000000000.0        -0.237053572886     -0.340800883195     0.746082865398      -0.51887844624      0.746082865398      -0.51887844624      -0.237053572886     -0.340800883195     
8100000000.0        -0.241683861168     -0.342478855547     0.741032294826      -0.52285089674      0.741032294826      -0.52285089674      -0.241683861168     -0.342478855547     
8200000000.0        -0.246318533282     -0.344087720585     0.735971343447      -0.526756620491     0.735971343447      -0.526756620491     -0.246318533282     -0.344087720585     
8300000000.0        -0.250956458413     -0.345627891766     0.730901112855      -0.530596055223     0.730901112855      -0.530596055223     -0.250956458413     -0.345627891766     
8400000000.0        -0.255596526354     -0.347099800988     0.725822683631      -0.534369657077     0.725822683631      -0.534369657077     -0.255596526354     -0.347099800988     
8500000000.0        -0.260237647705     -0.348503897804     0.720737115148      -0.538077899827     0.720737115148      -0.538077899827     -0.260237647705     -0.348503897804     
8600000000.0        -0.264878754033     -0.349840648655     0.715645445401      -0.541721274102     0.715645445401      -0.541721274102     -0.264878754033     -0.349840648655     
8700000000.0        -0.269518798019     -0.351110536097     0.71054869086       -0.545300286625     0.71054869086       -0.545300286625     -0.269518798019     -0.351110536097     
8800000000.0        -0.27415675357      -0.352314058046     0.705447846356      -0.54881545945      0.705447846356      -0.54881545945      -0.27415675357      -0.352314058046     
8900000000.0        -0.278791615911     -0.353451727027     0.700343884984      -0.552267329214     0.700343884984      -0.552267329214     -0.278791615911     -0.353451727027     
9000000000.0        -0.283422401648     -0.354524069434     0.695237758037      -0.555656446395     0.695237758037      -0.555656446395     -0.283422401648     -0.354524069434     
9100000000.0        -0.28804814881      -0.355531624801     0.690130394957      -0.558983374584     0.690130394957      -0.558983374584     -0.28804814881      -0.355531624801     
9200000000.0        -0.292667916875     -0.356474945084     0.685022703317      -0.562248689764     0.685022703317      -0.562248689764     -0.292667916875     -0.356474945084     
9300000000.0        -0.297280786761     -0.357354593951     0.679915568811      -0.565452979604     0.679915568811      -0.565452979604     -0.297280786761     -0.357354593951     
9400000000.0        -0.301885860805     -0.358171146088     0.674809855283      -0.56859684276      0.674809855283      -0.56859684276      -0.301885860805     -0.358171146088     
9500000000.0        -0.306482262724     -0.358925186516     0.669706404759      -0.571680888198     0.669706404759      -0.571680888198     -0.306482262724     -0.358925186516     
9600000000.0        -0.311069137548     -0.359617309923     0.664606037509      -0.574705734515     0.664606037509      -0.574705734515     -0.311069137548     -0.359617309923     
9700000000.0        -0.315645651541     -0.360248120004     0.659509552122      -0.577672009287     0.659509552122      -0.577672009287     -0.315645651541     -0.360248120004     
9800000000.0        -0.320210992105     -0.360818228819     0.654417725604      -0.580580348426     0.654417725604      -0.580580348426     -0.320210992105     -0.360818228819     
9900000000.0        -0.324764367663     -0.361328256166     0.649331313484      -0.583431395545     0.649331313484      -0.583431395545     -0.324764367663     -0.361328256166     
10000000000.0       -0.329305007526     -0.361778828963     0.644251049945      -0.586225801349     0.644251049945      -0.586225801349     -0.329305007526     -0.361778828963     
