# Hz S RI R 50.00 
100000000.0         0.0218868806552     0.00207394961411    0.978109285897      -0.00368893914871   0.978109285897      -0.00368893914871   0.0218868806552     0.00207394961411    
200000000.0         0.0220513170724     0.00414609424073    0.977939388085      -0.0073760764913    0.977939388085      -0.0073760764913    0.0220513170724     0.00414609424073    
300000000.0         0.0221932688433     0.00621697406241    0.977789346647      -0.0110619571025    0.977789346647      -0.0110619571025    0.0221932688433     0.00621697406241    
400000000.0         0.0223313945162     0.00828668810618    0.977640502733      -0.0147466841269    0.977640502733      -0.0147466841269    0.0223313945162     0.00828668810618    
500000000.0         0.0224728855701     0.0103552329886     0.977485664556      -0.018430257911     0.977485664556      -0.018430257911     0.0224728855701     0.0103552329886     
600000000.0         0.0226214098516     0.0124225600859     0.977321163933      -0.0221126333098    0.977321163933      -0.0221126333098    0.0226214098516     0.0124225600859     
700000000.0         0.0227791321423     0.014488596058      0.977144835721      -0.0257937402792    0.977144835721      -0.0257937402792    0.0227791321423     0.014488596058      
800000000.0         0.0229474520075     0.0165532523665     0.976955279965      -0.0294734934355    0.976955279965      -0.0294734934355    0.0229474520075     0.0165532523665     
900000000.0         0.0231273324935     0.0186164303885     0.976751533192      -0.0331517971961    0.976751533192      -0.0331517971961    0.0231273324935     0.0186164303885     
1000000000.0        0.0233194668183     0.0206780244472     0.976532901728      -0.0368285488291    0.976532901728      -0.0368285488291    0.0233194668183     0.0206780244472     
1100000000.0        0.0235243710775     0.0227379237402     0.976298868986      -0.0405036403955    0.976298868986      -0.0405036403955    0.0235243710775     0.0227379237402     
1200000000.0        0.0237424395095     0.0247960136349     0.976049040202      -0.044176960055     0.976049040202      -0.044176960055     0.0237424395095     0.0247960136349     
1300000000.0        0.0239739792829     0.0268521765759     0.975783107646      -0.0478483929824    0.975783107646      -0.0478483929824    0.0239739792829     0.0268521765759     
1400000000.0        0.0242192333716     0.0289062927456     0.97550082775       -0.0515178220336    0.97550082775       -0.0515178220336    0.0242192333716     0.0289062927456     
1500000000.0        0.0244783961505     0.0309582405565     0.975202005508      -0.0551851282446    0.975202005508      -0.0551851282446    0.0244783961505     0.0309582405565     
1600000000.0        0.0247516243541     0.0330078970304     0.974886483522      -0.0588501912144    0.974886483522      -0.0588501912144    0.0247516243541     0.0330078970304     
1700000000.0        0.0250390449781     0.0350551380954     0.974554134094      -0.0625128894057    0.974554134094      -0.0625128894057    0.0250390449781     0.0350551380954     
1800000000.0        0.0253407611051     0.0370998388227     0.974204853408      -0.0661731003856    0.974204853408      -0.0661731003856    0.0253407611051     0.0370998388227     
1900000000.0        0.0256568562829     0.0391418736203     0.973838557144      -0.0698307010215    0.973838557144      -0.0698307010215    0.0256568562829     0.0391418736203     
2000000000.0        0.0259873978731     0.0411811163928     0.973455177136      -0.0734855676432    0.973455177136      -0.0734855676432    0.0259873978731     0.0411811163928     
2100000000.0        0.0263324396501     0.0432174406749     0.973054658769      -0.0771375761789    0.973054658769      -0.0771375761789    0.0263324396501     0.0432174406749     
2200000000.0        0.0266920238469     0.0452507197457     0.972636958934      -0.080786602271     0.972636958934      -0.080786602271     0.0266920238469     0.0452507197457     
2300000000.0        0.027066182784      0.0472808267259     0.9722020444        -0.0844325213753    0.9722020444        -0.0844325213753    0.027066182784      0.0472808267259     
2400000000.0        0.0274549401822     0.0493076346635     0.971749890501      -0.0880752088474    0.971749890501      -0.0880752088474    0.0274549401822     0.0493076346635     
2500000000.0        0.0278583122308     0.0513310166081     0.971280480067      -0.0917145400191    0.971280480067      -0.0917145400191    0.0278583122308     0.0513310166081     
2600000000.0        0.0282763084644     0.0533508456776     0.970793802549      -0.0953503902656    0.970793802549      -0.0953503902656    0.0282763084644     0.0533508456776     
2700000000.0        0.02870893249       0.0553669951168     0.970289853289      -0.0989826350658    0.970289853289      -0.0989826350658    0.02870893249       0.0553669951168     
2800000000.0        0.0291561825936     0.0573793383514     0.969768632916      -0.102611150057     0.969768632916      -0.102611150057     0.0291561825936     0.0573793383514     
2900000000.0        0.0296180522509     0.0593877490367     0.969230146836      -0.106235811083     0.969230146836      -0.106235811083     0.0296180522509     0.0593877490367     
3000000000.0        0.0300945305597     0.0613921011015     0.968674404797      -0.109856494241     0.968674404797      -0.109856494241     0.0300945305597     0.0613921011015     
3100000000.0        0.0305856026088     0.0633922687893     0.96810142052       -0.113473075924     0.96810142052       -0.113473075924     0.0305856026088     0.0633922687893     
3200000000.0        0.0310912497946     0.0653881266965     0.967511211387      -0.117085432856     0.967511211387      -0.117085432856     0.0310912497946     0.0653881266965     
3300000000.0        0.0316114500943     0.0673795498071     0.966903798163      -0.12069344213      0.966903798163      -0.12069344213      0.0316114500942     0.0673795498071     
3400000000.0        0.032146178303      0.0693664135263     0.96627920476       -0.124296981243     0.96627920476       -0.124296981243     0.032146178303      0.0693664135263     
3500000000.0        0.032695406241      0.0713485937112     0.965637458032      -0.127895928124     0.965637458032      -0.127895928124     0.032695406241      0.0713485937112     
3600000000.0        0.0332591029354     0.0733259667002     0.96497858759       -0.131490161167     0.96497858759       -0.131490161167     0.0332591029354     0.0733259667002     
3700000000.0        0.0338372347801     0.0752984093405     0.964302625644      -0.135079559257     0.964302625644      -0.135079559257     0.0338372347801     0.0752984093405     
3800000000.0        0.0344297656781     0.0772657990149     0.963609606864      -0.138664001799     0.963609606864      -0.138664001799     0.0344297656781     0.0772657990149     
3900000000.0        0.0350366571677     0.0792280136664     0.962899568245      -0.14224336874      0.962899568245      -0.14224336874      0.0350366571677     0.0792280136664     
4000000000.0        0.0356578685359     0.0811849318228     0.962172549004      -0.145817540597     0.962172549004      -0.145817540597     0.0356578685359     0.0811849318228     
4100000000.0        0.0362933569201     0.0831364326189     0.96142859047       -0.149386398478     0.96142859047       -0.149386398478     0.0362933569201     0.0831364326189     
4200000000.0        0.0369430773996     0.0850823958192     0.960667735997      -0.152949824106     0.960667735997      -0.152949824106     0.0369430773996     0.0850823958192     
4300000000.0        0.0376069830792     0.0870227018387     0.959890030881      -0.156507699837     0.959890030881      -0.156507699837     0.0376069830792     0.0870227018387     
4400000000.0        0.0382850251648     0.0889572317637     0.95909552228       -0.160059908686     0.95909552228       -0.160059908686     0.0382850251648     0.0889572317637     
4500000000.0        0.0389771530328     0.0908858673712     0.958284259149      -0.163606334342     0.958284259149      -0.163606334342     0.0389771530328     0.0908858673712     
4600000000.0        0.039683314294      0.0928084911478     0.957456292175      -0.167146861192     0.957456292175      -0.167146861192     0.039683314294      0.0928084911478     
4700000000.0        0.0404034548521     0.0947249863086     0.956611673717      -0.170681374333     0.956611673717      -0.170681374333     0.0404034548521     0.0947249863086     
4800000000.0        0.0411375189581     0.0966352368146     0.955750457754      -0.174209759598     0.955750457754      -0.174209759598     0.0411375189581     0.0966352368146     
4900000000.0        0.0418854492611     0.0985391273901     0.95487269983       -0.177731903566     0.95487269983       -0.177731903566     0.0418854492611     0.0985391273901     
5000000000.0        0.042647186855      0.100436543539      0.953978457014      -0.181247693584     0.953978457014      -0.181247693584     0.042647186855      0.100436543539      
5100000000.0        0.0434226713233     0.102327371563      0.953067787848      -0.184757017782     0.953067787848      -0.184757017782     0.0434226713233     0.102327371563      
5200000000.0        0.04421184078       0.104211498574      0.952140752313      -0.188259765089     0.952140752313      -0.188259765089     0.04421184078       0.104211498574      
5300000000.0        0.0450146319094     0.106088812511      0.951197411784      -0.191755825244     0.951197411784      -0.191755825244     0.0450146319094     0.106088812511      
5400000000.0        0.0458309800027     0.107959202156      0.950237828993      -0.195245088821     0.950237828993      -0.195245088821     0.0458309800027     0.107959202156      
5500000000.0        0.0466608189933     0.109822557149      0.949262068001      -0.198727447232     0.949262068001      -0.198727447232     0.0466608189933     0.109822557149      
5600000000.0        0.0475040814905     0.111678767998      0.948270194154      -0.20220279275      0.948270194154      -0.20220279275      0.0475040814905     0.111678767998      
5700000000.0        0.0483606988116     0.113527726096      0.94726227406       -0.205671018519     0.94726227406       -0.205671018519     0.0483606988116     0.113527726096      
5800000000.0        0.0492306010124     0.115369323733      0.946238375553      -0.209132018565     0.946238375553      -0.209132018565     0.0492306010124     0.115369323733      
5900000000.0        0.0501137169168     0.117203454112      0.945198567664      -0.212585687815     0.945198567664      -0.212585687815     0.0501137169168     0.117203454112      
6000000000.0        0.0510099741455     0.119030011355      0.944142920596      -0.216031922104     0.944142920596      -0.216031922104     0.0510099741455     0.119030011355      
6100000000.0        0.051919299143      0.120848890521      0.943071505691      -0.21947061819      0.943071505691      -0.21947061819      0.051919299143      0.120848890521      
6200000000.0        0.0528416172047     0.122659987615      0.94198439541       -0.222901673765     0.94198439541       -0.222901673765     0.0528416172047     0.122659987615      
6300000000.0        0.0537768525024     0.1244631996        0.9408816633        -0.226324987466     0.9408816633        -0.226324987466     0.0537768525024     0.1244631996        
6400000000.0        0.0547249281095     0.126258424409      0.939763383976      -0.22974045889      0.939763383976      -0.22974045889      0.0547249281095     0.126258424409      
6500000000.0        0.0556857660256     0.128045560954      0.93862963309       -0.233147988597     0.93862963309       -0.233147988597     0.0556857660256     0.128045560954      
6600000000.0        0.0566592872001     0.129824509138      0.937480487313      -0.236547478128     0.937480487313      -0.236547478128     0.0566592872001     0.129824509138      
6700000000.0        0.0576454115558     0.131595169864      0.936316024307      -0.239938830011     0.936316024307      -0.239938830011     0.0576454115558     0.131595169864      
6800000000.0        0.0586440580115     0.133357445046      0.935136322704      -0.243321947773     0.935136322704      -0.243321947773     0.0586440580115     0.133357445046      
6900000000.0        0.0596551445047     0.135111237615      0.933941462084      -0.246696735948     0.933941462084      -0.246696735948     0.0596551445047     0.135111237615      
7000000000.0        0.0606785880135     0.136856451536      0.932731522953      -0.250063100087     0.932731522953      -0.250063100087     0.0606785880135     0.136856451536      
7100000000.0        0.0617143045782     0.138592991806      0.931506586721      -0.253420946766     0.931506586721      -0.253420946766     0.0617143045782     0.138592991806      
7200000000.0        0.0627622093225     0.140320764472      0.930266735679      -0.256770183595     0.930266735679      -0.256770183595     0.0627622093225     0.140320764472      
7300000000.0        0.063822216475      0.142039676633      0.929012052981      -0.260110719227     0.929012052981      -0.260110719227     0.063822216475      0.142039676633      
7400000000.0        0.0648942393891     0.143749636453      0.927742622621      -0.263442463365     0.927742622621      -0.263442463365     0.0648942393891     0.143749636453      
7500000000.0        0.0659781905641     0.145450553164      0.926458529414      -0.26676532677      0.926458529414      -0.26676532677      0.0659781905641     0.145450553164      
7600000000.0        0.0670739816653     0.147142337076      0.925159858976      -0.270079221268     0.925159858976      -0.270079221268     0.0670739816653     0.147142337076      
7700000000.0        0.0681815235437     0.148824899583      0.923846697701      -0.273384059757     0.923846697701      -0.273384059757     0.0681815235437     0.148824899583      
7800000000.0        0.0693007262558     0.150498153169      0.922519132745      -0.276679756215     0.922519132745      -0.276679756215     0.0693007262558     0.150498153169      
7900000000.0        0.0704314990837     0.152162011418      0.921177252004      -0.279966225704     0.921177252004      -0.279966225704     0.0704314990837     0.152162011418      
8000000000.0        0.0715737505536     0.153816389016      0.919821144097      -0.28324338438      0.919821144097      -0.28324338438      0.0715737505536     0.153816389016      
8100000000.0        0.0727273884556     0.155461201758      0.918450898343      -0.286511149493     0.918450898343      -0.286511149493     0.0727273884556     0.155461201758      
8200000000.0        0.0738923198626     0.157096366557      0.917066604745      -0.2897694394       0.917066604745      -0.2897694394       0.0738923198626     0.157096366557      
8300000000.0        0.0750684511492     0.158721801442      0.915668353971      -0.293018173562     0.915668353971      -0.293018173562     0.0750684511492     0.158721801442      
8400000000.0        0.0762556880102     0.160337425572      0.914256237335      -0.296257272557     0.914256237335      -0.296257272557     0.0762556880102     0.160337425572      
8500000000.0        0.0774539354796     0.161943159233      0.912830346776      -0.29948665808      0.912830346776      -0.29948665808      0.0774539354796     0.161943159233      
8600000000.0        0.0786630979485     0.163538923847      0.911390774842      -0.302706252948     0.911390774842      -0.302706252948     0.0786630979485     0.163538923847      
8700000000.0        0.079883079184      0.165124641975      0.909937614673      -0.305915981104     0.909937614673      -0.305915981104     0.079883079184      0.165124641975      
8800000000.0        0.0811137823468     0.16670023732       0.908470959978      -0.309115767624     0.908470959978      -0.309115767624     0.0811137823468     0.16670023732       
8900000000.0        0.0823551100099     0.168265634732      0.906990905022      -0.312305538716     0.906990905022      -0.312305538716     0.0823551100099     0.168265634732      
9000000000.0        0.0836069641758     0.169820760212      0.905497544606      -0.315485221728     0.905497544606      -0.315485221728     0.0836069641758     0.169820760212      
9100000000.0        0.084869246295      0.171365540912      0.903990974048      -0.318654745145     0.903990974048      -0.318654745145     0.084869246295      0.171365540912      
9200000000.0        0.0861418572833     0.172899905141      0.902471289165      -0.3218140386       0.902471289165      -0.3218140386       0.0861418572833     0.172899905141      
9300000000.0        0.0874246975394     0.174423782367      0.900938586259      -0.324963032869     0.900938586259      -0.324963032869     0.0874246975394     0.174423782367      
9400000000.0        0.0887176669627     0.175937103218      0.899392962097      -0.328101659877     0.899392962097      -0.328101659877     0.0887176669627     0.175937103218      
9500000000.0        0.0900206649702     0.177439799485      0.897834513893      -0.331229852701     0.897834513893      -0.331229852701     0.0900206649702     0.177439799485      
9600000000.0        0.0913335905142     0.178931804123      0.89626333929       -0.334347545569     0.89626333929       -0.334347545569     0.0913335905142     0.178931804123      
9700000000.0        0.092656342099      0.180413051256      0.894679536348      -0.337454673863     0.894679536348      -0.337454673863     0.092656342099      0.180413051256      
9800000000.0        0.0939888177984     0.181883476174      0.893083203519      -0.34055117412      0.893083203519      -0.34055117412      0.0939888177984     0.181883476174      
9900000000.0        0.0953309152722     0.183343015334      0.891474439638      -0.343636984034     0.891474439638      -0.343636984034     0.0953309152722     0.183343015334      
10000000000.0       0.0966825317833     0.184791606367      0.8898533439        -0.346712042454     0.8898533439        -0.346712042454     0.0966825317833     0.184791606367      
