# Hz S RI R 50.00 
100000000.0         0.00103120248403    0.000278782134901   0.998967634783      -0.000441485749782  0.998967634783      -0.000441485749782  0.00103120248403    0.000278782134901   
200000000.0         0.00103835057117    0.000557554833311   0.998960297478      -0.000882963310126  0.998960297478      -0.000882963310126  0.00103835057117    0.000557554833311   
300000000.0         0.00104391676122    0.000836322152982   0.998954515585      -0.00132443740531   0.998954515585      -0.00132443740531   0.00104391676122    0.000836322152982   
400000000.0         0.00104879766544    0.00111508549394    0.99894939249       -0.0017659099498    0.99894939249       -0.0017659099498    0.00104879766544    0.00111508549394    
500000000.0         0.00105333884611    0.00139384562381    0.99894458263       -0.00220738214873   0.99894458263       -0.00220738214873   0.00105333884611    0.00139384562381    
600000000.0         0.00105771666458    0.00167260302568    0.998939909639      -0.0026488548725    0.998939909639      -0.0026488548725    0.00105771666458    0.00167260302568    
700000000.0         0.00106203537555    0.00195135802459    0.998935269261      -0.00309032879691   0.998935269261      -0.00309032879691   0.00106203537555    0.00195135802459    
800000000.0         0.00106636257136    0.00223011084709    0.998930593901      -0.00353180447055   0.998930593901      -0.00353180447055   0.00106636257136    0.00223011084709    
900000000.0         0.00107074496707    0.00250886165348    0.998925836841      -0.00397328235239   0.998925836841      -0.00397328235239   0.00107074496707    0.00250886165348    
1000000000.0        0.00107521640313    0.00278761055702    0.998920964238      -0.00441476283493   0.998920964238      -0.00441476283493   0.00107521640313    0.00278761055702    
1100000000.0        0.00107980229494    0.0030663576363     0.998915950673      -0.00485624625937   0.998915950673      -0.00485624625937   0.00107980229494    0.0030663576363     
1200000000.0        0.00108452228473    0.00334510294373    0.9989107765        -0.00529773292594   0.9989107765        -0.00529773292594   0.00108452228473    0.00334510294373    
1300000000.0        0.00108939191021    0.00362384651128    0.99890542618       -0.00573922310164   0.99890542618       -0.00573922310164   0.00108939191021    0.00362384651128    
1400000000.0        0.00109442370177    0.00390258835487    0.998899887177      -0.00618071702571   0.998899887177      -0.00618071702571   0.00109442370178    0.00390258835487    
1500000000.0        0.00109962793013    0.00418132847752    0.998894149219      -0.00662221491407   0.998894149219      -0.00662221491407   0.00109962793013    0.00418132847752    
1600000000.0        0.0011050131315     0.0044600668718     0.998888203764      -0.00706371696262   0.998888203764      -0.00706371696262   0.0011050131315     0.0044600668718     
1700000000.0        0.00111058648628    0.00473880352177    0.998882043629      -0.00750522334995   0.998882043629      -0.00750522334995   0.00111058648628    0.00473880352177    
1800000000.0        0.00111635409794    0.00501753840449    0.998875662706      -0.00794673423951   0.998875662706      -0.00794673423951   0.00111635409794    0.00501753840449    
1900000000.0        0.0011223212027     0.00529627149119    0.998869055755      -0.00838824978146   0.998869055755      -0.00838824978146   0.0011223212027     0.00529627149119    
2000000000.0        0.00112849232965    0.00557500274835    0.998862218244      -0.00882977011408   0.998862218244      -0.00882977011408   0.00112849232965    0.00557500274835    
2100000000.0        0.00113487142501    0.00585373213844    0.998855146221      -0.00927129536509   0.998855146221      -0.00927129536509   0.00113487142501    0.00585373213844    
2200000000.0        0.00114146194985    0.00613245962058    0.998847836222      -0.00971282565277   0.998847836222      -0.00971282565277   0.00114146194985    0.00613245962058    
2300000000.0        0.00114826695784    0.00641118515123    0.998840285189      -0.0101543610867    0.998840285189      -0.0101543610867    0.00114826695784    0.00641118515123    
2400000000.0        0.00115528915775    0.00668990868455    0.998832490408      -0.0105959017689    0.998832490408      -0.0105959017689    0.00115528915775    0.00668990868455    
2500000000.0        0.00116253096431    0.00696863017287    0.998824449461      -0.011037447794     0.998824449461      -0.011037447794     0.00116253096431    0.00696863017287    
2600000000.0        0.00116999453984    0.00724734956702    0.998816160181      -0.0114789992503    0.998816160181      -0.0114789992503    0.00116999453984    0.00724734956702    
2700000000.0        0.00117768182874    0.00752606681659    0.998807620618      -0.0119205562203    0.998807620618      -0.0119205562203    0.00117768182874    0.00752606681659    
2800000000.0        0.00118559458611    0.00780478187029    0.998798829013      -0.0123621187808    0.998798829013      -0.0123621187808    0.00118559458611    0.00780478187029    
2900000000.0        0.00119373440186    0.00808349467609    0.998789783772      -0.0128036870036    0.998789783772      -0.0128036870036    0.00119373440186    0.00808349467609    
3000000000.0        0.001202102721      0.00836220518147    0.998780483444      -0.0132452609559    0.998780483444      -0.0132452609559    0.001202102721      0.00836220518147    
3100000000.0        0.00121070086089    0.00864091333351    0.998770926708      -0.0136868407006    0.998770926708      -0.0136868407006    0.00121070086089    0.00864091333351    
3200000000.0        0.00121953002599    0.00891961907917    0.998761112355      -0.0141284262965    0.998761112355      -0.0141284262965    0.00121953002599    0.00891961907917    
3300000000.0        0.00122859132048    0.00919832236532    0.998751039274      -0.0145700177986    0.998751039274      -0.0145700177986    0.00122859132048    0.00919832236532    
3400000000.0        0.0012378857592     0.00947702313888    0.998740706448      -0.0150116152587    0.998740706448      -0.0150116152587    0.0012378857592     0.00947702313888    
3500000000.0        0.00124741427708    0.00975572134696    0.998730112934      -0.015453218725     0.998730112934      -0.015453218725     0.00124741427708    0.00975572134696    
3600000000.0        0.00125717773739    0.0100344169369     0.998719257867      -0.0158948282428    0.998719257867      -0.0158948282428    0.00125717773739    0.0100344169369     
3700000000.0        0.00126717693891    0.0103131098565     0.99870814044       -0.0163364438545    0.99870814044       -0.0163364438545    0.00126717693891    0.0103131098565     
3800000000.0        0.00127741262227    0.0105918000537     0.99869675991       -0.0167780656       0.99869675991       -0.0167780656       0.00127741262227    0.0105918000537     
3900000000.0        0.00128788547548    0.0108704874772     0.998685115582      -0.0172196935164    0.998685115582      -0.0172196935164    0.00128788547548    0.0108704874772     
4000000000.0        0.00129859613882    0.0111491720761     0.998673206811      -0.0176613276387    0.998673206811      -0.0176613276387    0.00129859613882    0.0111491720761     
4100000000.0        0.00130954520923    0.0114278538001     0.998661032996      -0.0181029679995    0.998661032996      -0.0181029679995    0.00130954520923    0.0114278538001     
4200000000.0        0.00132073324415    0.0117065325996     0.998648593572      -0.0185446146294    0.998648593572      -0.0185446146294    0.00132073324415    0.0117065325996     
4300000000.0        0.00133216076494    0.0119852084256     0.998635888015      -0.0189862675569    0.998635888015      -0.0189862675569    0.00133216076494    0.0119852084256     
4400000000.0        0.00134382826001    0.0122638812299     0.998622915829      -0.0194279268088    0.998622915829      -0.0194279268088    0.00134382826001    0.0122638812299     
4500000000.0        0.00135573618754    0.012542550965      0.998609676552      -0.0198695924101    0.998609676552      -0.0198695924101    0.00135573618754    0.012542550965      
4600000000.0        0.00136788497797    0.012821217584      0.998596169747      -0.020311264384     0.998596169747      -0.020311264384     0.00136788497797    0.012821217584      
4700000000.0        0.00138027503625    0.0130998810412     0.998582395005      -0.0207529427522    0.998582395005      -0.0207529427522    0.00138027503625    0.0130998810412     
4800000000.0        0.0013929067438     0.0133785412914     0.998568351938      -0.021194627535     0.998568351938      -0.021194627535     0.0013929067438     0.0133785412914     
4900000000.0        0.00140578046042    0.0136571982904     0.998554040181      -0.0216363187513    0.998554040181      -0.0216363187513    0.00140578046042    0.0136571982904     
5000000000.0        0.00141889652586    0.0139358519947     0.998539459389      -0.0220780164185    0.998539459389      -0.0220780164185    0.00141889652586    0.0139358519947     
5100000000.0        0.00143225526136    0.014214502362      0.998524609236      -0.0225197205528    0.998524609236      -0.0225197205528    0.00143225526136    0.014214502362      
5200000000.0        0.00144585697103    0.0144931493505     0.998509489411      -0.0229614311692    0.998509489411      -0.0229614311692    0.00144585697103    0.0144931493505     
5300000000.0        0.00145970194305    0.0147717929197     0.998494099621      -0.0234031482818    0.998494099621      -0.0234031482818    0.00145970194305    0.0147717929197     
5400000000.0        0.00147379045085    0.0150504330297     0.998478439587      -0.0238448719031    0.998478439587      -0.0238448719031    0.00147379045085    0.0150504330297     
5500000000.0        0.00148812275414    0.0153290696418     0.998462509043      -0.0242866020451    0.998462509043      -0.0242866020451    0.00148812275414    0.0153290696418     
5600000000.0        0.00150269909983    0.015607702718      0.998446307738      -0.0247283387186    0.998446307738      -0.0247283387186    0.00150269909983    0.015607702718      
5700000000.0        0.00151751972296    0.0158863322215     0.99842983543       -0.0251700819333    0.99842983543       -0.0251700819333    0.00151751972296    0.0158863322215     
5800000000.0        0.00153258484746    0.0161649581162     0.99841309189       -0.0256118316984    0.99841309189       -0.0256118316984    0.00153258484746    0.0161649581162     
5900000000.0        0.00154789468693    0.0164435803671     0.998396076899      -0.026053588022     0.998396076899      -0.026053588022     0.00154789468693    0.0164435803671     
6000000000.0        0.00156344944527    0.0167221989402     0.998378790247      -0.0264953509114    0.998378790247      -0.0264953509114    0.00156344944527    0.0167221989402     
6100000000.0        0.00157924931737    0.0170008138024     0.998361231733      -0.0269371203734    0.998361231733      -0.0269371203734    0.00157924931737    0.0170008138024     
6200000000.0        0.00159529448963    0.0172794249216     0.998343401167      -0.0273788964137    0.998343401167      -0.0273788964137    0.00159529448963    0.0172794249216     
6300000000.0        0.00161158514057    0.0175580322666     0.998325298362      -0.0278206790377    0.998325298362      -0.0278206790377    0.00161158514057    0.0175580322666     
6400000000.0        0.00162812144125    0.0178366358074     0.998306923143      -0.0282624682499    0.998306923143      -0.0282624682499    0.00162812144125    0.0178366358074     
6500000000.0        0.00164490355582    0.0181152355146     0.99828827534       -0.0287042640543    0.99828827534       -0.0287042640543    0.00164490355582    0.0181152355146     
6600000000.0        0.00166193164187    0.0183938313601     0.99826935479       -0.0291460664542    0.99826935479       -0.0291460664542    0.00166193164187    0.0183938313601     
6700000000.0        0.00167920585088    0.0186724233167     0.998250161335      -0.0295878754525    0.998250161335      -0.0295878754525    0.00167920585088    0.0186724233167     
6800000000.0        0.00169672632858    0.0189510113581     0.998230694824      -0.0300296910514    0.998230694824      -0.0300296910514    0.00169672632858    0.0189510113581     
6900000000.0        0.00171449321528    0.019229595459      0.99821095511       -0.0304715132528    0.99821095511       -0.0304715132528    0.00171449321528    0.019229595459      
7000000000.0        0.00173250664622    0.0195081755951     0.998190942054      -0.0309133420579    0.998190942054      -0.0309133420579    0.00173250664622    0.0195081755951     
7100000000.0        0.00175076675188    0.0197867517431     0.998170655519      -0.0313551774677    0.998170655519      -0.0313551774677    0.00175076675188    0.0197867517431     
7200000000.0        0.0017692736582     0.0200653238806     0.998150095372      -0.0317970194825    0.998150095372      -0.0317970194825    0.0017692736582     0.0200653238806     
7300000000.0        0.00178802748693    0.0203438919862     0.998129261488      -0.0322388681024    0.998129261488      -0.0322388681024    0.00178802748693    0.0203438919862     
7400000000.0        0.00180702835582    0.0206224560394     0.998108153741      -0.0326807233269    0.998108153741      -0.0326807233269    0.00180702835582    0.0206224560394     
7500000000.0        0.00182627637885    0.0209010160208     0.998086772014      -0.0331225851553    0.998086772014      -0.0331225851553    0.00182627637885    0.0209010160208     
7600000000.0        0.0018457716665     0.0211795719119     0.998065116188      -0.0335644535866    0.998065116188      -0.0335644535866    0.0018457716665     0.0211795719119     
7700000000.0        0.00186551432589    0.021458123695      0.998043186152      -0.0340063286192    0.998043186152      -0.0340063286192    0.00186551432589    0.021458123695      
7800000000.0        0.00188550446102    0.0217366713536     0.998020981796      -0.0344482102515    0.998020981796      -0.0344482102515    0.00188550446102    0.0217366713536     
7900000000.0        0.00190574217292    0.022015214872      0.997998503014      -0.0348900984813    0.997998503014      -0.0348900984813    0.00190574217292    0.022015214872      
8000000000.0        0.00192622755983    0.0222937542354     0.9979757497        -0.0353319933064    0.9979757497        -0.0353319933064    0.00192622755983    0.0222937542354     
8100000000.0        0.00194696071738    0.02257228943       0.997952721754      -0.0357738947241    0.997952721754      -0.0357738947241    0.00194696071738    0.02257228943       
8200000000.0        0.0019679417387     0.022850820443      0.997929419078      -0.0362158027316    0.997929419078      -0.0362158027316    0.0019679417387     0.022850820443      
8300000000.0        0.0019891707146     0.0231293472625     0.997905841574      -0.0366577173257    0.997905841574      -0.0366577173257    0.0019891707146     0.0231293472625     
8400000000.0        0.00201064773367    0.0234078698774     0.997881989149      -0.0370996385031    0.997881989149      -0.0370996385031    0.00201064773367    0.0234078698774     
8500000000.0        0.00203237288245    0.0236863882775     0.99785786171       -0.0375415662603    0.99785786171       -0.0375415662603    0.00203237288245    0.0236863882775     
8600000000.0        0.00205434624551    0.0239649024539     0.997833459167      -0.0379835005934    0.997833459167      -0.0379835005934    0.00205434624551    0.0239649024539     
8700000000.0        0.00207656790557    0.024243412398      0.997808781431      -0.0384254414985    0.997808781431      -0.0384254414985    0.00207656790557    0.024243412398      
8800000000.0        0.00209903794363    0.0245219181027     0.997783828417      -0.0388673889715    0.997783828417      -0.0388673889715    0.00209903794363    0.0245219181027     
8900000000.0        0.00212175643905    0.0248004195614     0.997758600039      -0.039309343008     0.997758600039      -0.039309343008     0.00212175643905    0.0248004195614     
9000000000.0        0.00214472346965    0.0250789167685     0.997733096214      -0.0397513036035    0.997733096214      -0.0397513036035    0.00214472346965    0.0250789167685     
9100000000.0        0.0021679391118     0.0253574097193     0.99770731686       -0.0401932707535    0.99770731686       -0.0401932707535    0.0021679391118     0.0253574097193     
9200000000.0        0.00219140344054    0.02563589841       0.997681261895      -0.040635244453     0.997681261895      -0.040635244453     0.00219140344054    0.02563589841       
9300000000.0        0.00221511652958    0.0259143828377     0.997654931242      -0.0410772246973    0.997654931242      -0.0410772246973    0.00221511652958    0.0259143828377     
9400000000.0        0.00223907845147    0.0261928630004     0.997628324822      -0.0415192114811    0.997628324822      -0.0415192114811    0.00223907845147    0.0261928630004     
9500000000.0        0.00226328927762    0.0264713388967     0.997601442557      -0.0419612047994    0.997601442557      -0.0419612047994    0.00226328927762    0.0264713388967     
9600000000.0        0.00228774907838    0.0267498105264     0.997574284373      -0.0424032046468    0.997574284373      -0.0424032046468    0.00228774907838    0.0267498105264     
9700000000.0        0.00231245792312    0.02702827789       0.997546850194      -0.042845211018     0.997546850194      -0.042845211018     0.00231245792312    0.02702827789       
9800000000.0        0.00233741588027    0.0273067409888     0.997519139947      -0.0432872239074    0.997519139947      -0.0432872239074    0.00233741588027    0.0273067409888     
9900000000.0        0.00236262301742    0.027585199825      0.997491153557      -0.0437292433094    0.997491153557      -0.0437292433094    0.00236262301742    0.027585199825      
10000000000.0       0.00238807940133    0.0278636544017     0.997462890954      -0.0441712692183    0.997462890954      -0.0441712692183    0.00238807940133    0.0278636544017     
