# Hz S RI R 50.00 
100000000.0         0.00251438381088    0.000868535246377   0.997478480464      -0.00354959660562   0.997478480464      -0.00354959660562   0.00251438381088    0.000868535246377   
200000000.0         0.00253916385206    0.00173687816204    0.997440370132      -0.0070990287876    0.997440370132      -0.0070990287876    0.00253916385206    0.00173687816204    
300000000.0         0.0025657168548     0.00260503967081    0.997393291532      -0.0106483222781    0.997393291532      -0.0106483222781    0.0025657168548     0.00260503967081    
400000000.0         0.00259621755258    0.00347299290866    0.997335068978      -0.0141974584926    0.997335068978      -0.0141974584926    0.00259621755259    0.00347299290866    
500000000.0         0.00263150215945    0.0043407025489     0.997264865112      -0.0177464070602    0.997264865112      -0.0177464070602    0.00263150215945    0.0043407025489     
600000000.0         0.00267199599528    0.00520812966985    0.997182253309      -0.0212951318213    0.997182253309      -0.0212951318213    0.00267199599528    0.00520812966985    
700000000.0         0.00271794922526    0.00607523347735    0.997086981949      -0.0248435931277    0.997086981949      -0.0248435931277    0.00271794922526    0.00607523347735    
800000000.0         0.00276952287066    0.00694197209134    0.996978888416      -0.0283917489763    0.996978888416      -0.0283917489763    0.00276952287066    0.00694197209134    
900000000.0         0.00282682709337    0.00780830296157    0.99685786083       -0.0319395556547    0.99685786083       -0.0319395556547    0.00282682709337    0.00780830296157    
1000000000.0        0.00288994059545    0.00867418310974    0.996723818652      -0.0354869681448    0.996723818652      -0.0354869681448    0.00288994059545    0.00867418310974    
1100000000.0        0.00295892139973    0.00953956928056    0.996576701913      -0.0390339403938    0.996576701913      -0.0390339403938    0.00295892139973    0.00953956928056    
1200000000.0        0.00303381327169    0.0104044180412     0.996416464797      -0.0425804255058    0.996416464797      -0.0425804255058    0.00303381327169    0.0104044180412     
1300000000.0        0.00311464975873    0.0112686858495     0.996243071607      -0.0461263758824    0.996243071607      -0.0461263758824    0.00311464975873    0.0112686858495     
1400000000.0        0.00320145684434    0.0121323291025     0.996056494122      -0.0496717433294    0.996056494122      -0.0496717433294    0.00320145684434    0.0121323291025     
1500000000.0        0.00329425475638    0.0129953041716     0.995856709786      -0.053216479141     0.995856709786      -0.053216479141     0.00329425475638    0.0129953041716     
1600000000.0        0.00339305923683    0.0138575674292     0.995643700447      -0.056760534166     0.995643700447      -0.056760534166     0.00339305923683    0.0138575674292     
1700000000.0        0.00349788245673    0.0147190752687     0.995417451444      -0.0603038588624    0.995417451444      -0.0603038588624    0.00349788245673    0.0147190752687     
1800000000.0        0.00360873369026    0.0155797841206     0.995177950942      -0.0638464033428    0.995177950942      -0.0638464033428    0.00360873369026    0.0155797841206     
1900000000.0        0.00372561982113    0.0164396504645     0.994925189419      -0.0673881174119    0.994925189419      -0.0673881174119    0.00372561982113    0.0164396504645     
2000000000.0        0.00384854572952    0.0172986308396     0.994659159294      -0.0709289505992    0.994659159294      -0.0709289505992    0.00384854572952    0.0172986308396     
2100000000.0        0.00397751459237    0.0181566818528     0.994379854621      -0.0744688521863    0.994379854621      -0.0744688521863    0.00397751459237    0.0181566818528     
2200000000.0        0.00411252811939    0.0190137601851     0.994087270859      -0.0780077712321    0.994087270859      -0.0780077712321    0.00411252811939    0.0190137601851     
2300000000.0        0.00425358674115    0.019869822598      0.993781404689      -0.0815456565931    0.993781404689      -0.0815456565931    0.00425358674115    0.019869822598      
2400000000.0        0.00440068976034    0.0207248259379     0.99346225386       -0.0850824569431    0.99346225386       -0.0850824569431    0.00440068976034    0.0207248259379     
2500000000.0        0.00455383547487    0.0215787271404     0.993129817075      -0.0886181207895    0.993129817075      -0.0886181207895    0.00455383547487    0.0215787271404     
2600000000.0        0.00471302127887    0.0224314832341     0.992784093887      -0.092152596489     0.992784093887      -0.092152596489     0.00471302127887    0.0224314832341     
2700000000.0        0.00487824374635    0.0232830513437     0.992425084617      -0.0956858322609    0.992425084617      -0.0956858322609    0.00487824374635    0.0232830513437     
2800000000.0        0.00504949870094    0.024133388693      0.992052790294      -0.0992177762001    0.992052790294      -0.0992177762001    0.00504949870094    0.024133388693      
2900000000.0        0.00522678127458    0.0249824526074     0.991667212587      -0.102748376288     0.991667212587      -0.102748376288     0.00522678127458    0.0249824526074     
3000000000.0        0.00541008595718    0.0258302005164     0.991268353768      -0.106277580404     0.991268353768      -0.106277580404     0.00541008595718    0.0258302005164     
3100000000.0        0.00559940663887    0.0266765899559     0.990856216664      -0.109805336333     0.990856216664      -0.109805336333     0.00559940663887    0.0266765899559     
3200000000.0        0.00579473664632    0.0275215785701     0.990430804628      -0.113331591778     0.990430804628      -0.113331591778     0.00579473664632    0.0275215785701     
3300000000.0        0.00599606877396    0.0283651241132     0.989992121503      -0.116856294366     0.989992121503      -0.116856294366     0.00599606877396    0.0283651241132     
3400000000.0        0.0062033953111     0.0292071844519     0.989540171605      -0.120379391657     0.989540171605      -0.120379391657     0.0062033953111     0.0292071844519     
3500000000.0        0.0064167080655     0.0300477175665     0.989074959692      -0.123900831149     0.989074959692      -0.123900831149     0.0064167080655     0.0300477175665     
3600000000.0        0.00663599838409    0.0308866815527     0.988596490951      -0.127420560289     0.988596490951      -0.127420560289     0.00663599838409    0.0308866815527     
3700000000.0        0.00686125717113    0.0317240346235     0.988104770981      -0.130938526476     0.988104770981      -0.130938526476     0.00686125717113    0.0317240346235     
3800000000.0        0.00709247490435    0.0325597351105     0.987599805773      -0.134454677071     0.987599805773      -0.134454677071     0.00709247490435    0.0325597351105     
3900000000.0        0.00732964164914    0.0333937414654     0.987081601704      -0.137968959398     0.987081601704      -0.137968959398     0.00732964164914    0.0333937414654     
4000000000.0        0.00757274707139    0.0342260122617     0.986550165521      -0.141481320754     0.986550165521      -0.141481320754     0.00757274707139    0.0342260122617     
4100000000.0        0.00782178044885    0.0350565061958     0.986005504332      -0.144991708413     0.986005504332      -0.144991708413     0.00782178044885    0.0350565061958     
4200000000.0        0.00807673068138    0.0358851820887     0.985447625598      -0.14850006963      0.985447625598      -0.14850006963      0.00807673068138    0.0358851820887     
4300000000.0        0.00833758630024    0.0367119988874     0.984876537122      -0.152006351647     0.984876537122      -0.152006351647     0.00833758630024    0.0367119988874     
4400000000.0        0.0086043354765     0.0375369156662     0.984292247046      -0.155510501698     0.984292247046      -0.155510501698     0.0086043354765     0.0375369156662     
4500000000.0        0.00887696602866    0.0383598916281     0.983694763842      -0.159012467014     0.983694763842      -0.159012467014     0.00887696602866    0.0383598916281     
4600000000.0        0.00915546542964    0.039180886106      0.983084096305      -0.162512194825     0.983084096305      -0.162512194825     0.00915546542964    0.039180886106      
4700000000.0        0.00943982081317    0.0399998585644     0.982460253551      -0.166009632366     0.982460253551      -0.166009632366     0.00943982081317    0.0399998585644     
4800000000.0        0.0097300189797     0.0408167686005     0.981823245006      -0.169504726882     0.981823245006      -0.169504726882     0.0097300189797     0.0408167686005     
4900000000.0        0.0100260464018     0.0416315759455     0.981173080412      -0.17299742563      0.981173080412      -0.17299742563      0.0100260464018     0.0416315759455     
5000000000.0        0.0103278892294     0.0424442404661     0.98050976981       -0.176487675883     0.98050976981       -0.176487675883     0.0103278892294     0.0424442404661     
5100000000.0        0.010635533294      0.0432547221657     0.979833323547      -0.179975424938     0.979833323547      -0.179975424938     0.010635533294      0.0432547221657     
5200000000.0        0.0109489641135     0.0440629811858     0.979143752267      -0.183460620111     0.979143752267      -0.183460620111     0.0109489641135     0.0440629811858     
5300000000.0        0.0112681668963     0.0448689778072     0.978441066909      -0.18694320875      0.978441066909      -0.18694320875      0.0112681668963     0.0448689778072     
5400000000.0        0.0115931265447     0.0456726724514     0.977725278703      -0.19042313823      0.977725278703      -0.19042313823      0.0115931265447     0.0456726724514     
5500000000.0        0.011923827659      0.046474025682      0.976996399171      -0.193900355964     0.976996399171      -0.193900355964     0.011923827659      0.046474025682      
5600000000.0        0.0122602545405     0.0472729982057     0.976254440119      -0.1973748094       0.976254440119      -0.1973748094       0.0122602545405     0.0472729982057     
5700000000.0        0.0126023911953     0.0480695508739     0.975499413638      -0.200846446028     0.975499413638      -0.200846446028     0.0126023911953     0.0480695508739     
5800000000.0        0.0129502213368     0.0488636446841     0.974731332102      -0.204315213382     0.974731332102      -0.204315213382     0.0129502213368     0.0488636446841     
5900000000.0        0.0133037283889     0.0496552407806     0.973950208163      -0.20778105904      0.973950208163      -0.20778105904      0.0133037283889     0.0496552407806     
6000000000.0        0.0136628954887     0.0504443004566     0.973156054751      -0.211243930635     0.973156054751      -0.211243930635     0.0136628954887     0.0504443004566     
6100000000.0        0.0140277054895     0.0512307851548     0.972348885072      -0.214703775847     0.972348885072      -0.214703775847     0.0140277054895     0.0512307851548     
6200000000.0        0.0143981409629     0.0520146564692     0.971528712605      -0.218160542416     0.971528712605      -0.218160542416     0.0143981409629     0.0520146564692     
6300000000.0        0.0147741842018     0.0527958761459     0.970695551103      -0.221614178137     0.970695551103      -0.221614178137     0.0147741842018     0.0527958761459     
6400000000.0        0.0151558172223     0.0535744060849     0.969849414586      -0.225064630868     0.969849414586      -0.225064630868     0.0151558172223     0.0535744060849     
6500000000.0        0.0155430217664     0.0543502083411     0.968990317344      -0.22851184853      0.968990317344      -0.22851184853      0.0155430217664     0.0543502083411     
6600000000.0        0.015935779304      0.0551232451256     0.968118273934      -0.231955779109     0.968118273934      -0.231955779109     0.015935779304      0.0551232451256     
6700000000.0        0.0163340710354     0.0558934788069     0.967233299178      -0.23539637066      0.967233299178      -0.23539637066      0.0163340710354     0.0558934788069     
6800000000.0        0.0167378778929     0.0566608719125     0.966335408162      -0.238833571312     0.966335408162      -0.238833571312     0.0167378778929     0.0566608719125     
6900000000.0        0.0171471805434     0.0574253871298     0.965424616233      -0.242267329265     0.965424616233      -0.242267329265     0.0171471805434     0.0574253871298     
7000000000.0        0.0175619593903     0.0581869873075     0.964500938999      -0.245697592794     0.964500938999      -0.245697592794     0.0175619593903     0.0581869873075     
7100000000.0        0.0179821945754     0.0589456354569     0.963564392329      -0.249124310256     0.963564392329      -0.249124310256     0.0179821945754     0.0589456354569     
7200000000.0        0.0184078659806     0.0597012947533     0.962614992349      -0.252547430087     0.962614992349      -0.252547430087     0.0184078659806     0.0597012947533     
7300000000.0        0.0188389532303     0.060453928537      0.961652755439      -0.255966900804     0.961652755439      -0.255966900804     0.0188389532303     0.060453928537      
7400000000.0        0.019275435693      0.0612035003145     0.960677698238      -0.259382671013     0.960677698238      -0.259382671013     0.019275435693      0.0612035003145     
7500000000.0        0.0197172924831     0.0619499737603     0.959689837637      -0.262794689406     0.959689837637      -0.262794689406     0.0197172924831     0.0619499737603     
7600000000.0        0.0201645024629     0.0626933127173     0.958689190779      -0.266202904764     0.958689190779      -0.266202904764     0.0201645024629     0.0626933127173     
7700000000.0        0.0206170442443     0.0634334811989     0.957675775059      -0.26960726596      0.957675775059      -0.26960726596      0.0206170442443     0.0634334811989     
7800000000.0        0.0210748961904     0.0641704433896     0.956649608121      -0.273007721962     0.956649608121      -0.273007721962     0.0210748961904     0.0641704433896     
7900000000.0        0.0215380364175     0.0649041636465     0.955610707858      -0.276404221834     0.955610707858      -0.276404221834     0.0215380364175     0.0649041636465     
8000000000.0        0.0220064427969     0.0656346065007     0.954559092412      -0.279796714736     0.954559092412      -0.279796714736     0.0220064427969     0.0656346065007     
8100000000.0        0.0224800929563     0.066361736658      0.953494780168      -0.283185149932     0.953494780168      -0.283185149932     0.0224800929563     0.066361736658      
8200000000.0        0.0229589642816     0.0670855190007     0.952417789758      -0.286569476784     0.952417789758      -0.286569476784     0.0229589642816     0.0670855190007     
8300000000.0        0.0234430339188     0.0678059185885     0.951328140056      -0.289949644761     0.951328140056      -0.289949644761     0.0234430339188     0.0678059185885     
8400000000.0        0.0239322787754     0.0685229006596     0.95022585018       -0.293325603436     0.95022585018       -0.293325603436     0.0239322787754     0.0685229006596     
8500000000.0        0.0244266755224     0.0692364306322     0.949110939487      -0.296697302491     0.949110939487      -0.296697302491     0.0244266755224     0.0692364306322     
8600000000.0        0.0249262005954     0.0699464741055     0.947983427575      -0.300064691718     0.947983427575      -0.300064691718     0.0249262005954     0.0699464741055     
8700000000.0        0.0254308301969     0.070652996861      0.946843334281      -0.30342772102      0.946843334281      -0.30342772102      0.0254308301969     0.070652996861      
8800000000.0        0.0259405402974     0.0713559648636     0.945690679677      -0.306786340413     0.945690679677      -0.306786340413     0.0259405402974     0.0713559648636     
8900000000.0        0.0264553066374     0.0720553442627     0.944525484074      -0.310140500029     0.944525484074      -0.310140500029     0.0264553066374     0.0720553442627     
9000000000.0        0.0269751047287     0.0727511013936     0.943347768016      -0.313490150116     0.943347768016      -0.313490150116     0.0269751047287     0.0727511013936     
9100000000.0        0.0274999098564     0.0734432027783     0.942157552279      -0.316835241042     0.942157552279      -0.316835241042     0.0274999098564     0.0734432027783     
9200000000.0        0.0280296970801     0.0741316151273     0.940954857875      -0.320175723295     0.940954857875      -0.320175723295     0.0280296970801     0.0741316151273     
9300000000.0        0.0285644412357     0.0748163053399     0.939739706045      -0.323511547484     0.939739706045      -0.323511547484     0.0285644412357     0.0748163053399     
9400000000.0        0.0291041169373     0.075497240506      0.938512118258      -0.326842664343     0.938512118258      -0.326842664343     0.0291041169373     0.075497240506      
9500000000.0        0.0296486985781     0.0761743879069     0.937272116215      -0.330169024731     0.937272116215      -0.330169024731     0.0296486985781     0.0761743879069     
9600000000.0        0.0301981603326     0.0768477150166     0.936019721842      -0.333490579635     0.936019721842      -0.333490579635     0.0301981603326     0.0768477150166     
9700000000.0        0.0307524761581     0.0775171895028     0.934754957291      -0.336807280168     0.934754957291      -0.336807280168     0.0307524761581     0.0775171895028     
9800000000.0        0.031311619796      0.0781827792281     0.93347784494       -0.340119077576     0.93347784494       -0.340119077576     0.031311619796      0.0781827792281     
9900000000.0        0.0318755647735     0.078844452251      0.932188407389      -0.343425923235     0.932188407389      -0.343425923235     0.0318755647735     0.078844452251      
10000000000.0       0.0324442844057     0.0795021768273     0.930886667461      -0.346727768655     0.930886667461      -0.346727768655     0.0324442844057     0.0795021768273     
