# Hz S RI R 50.00 
100000000.0         0.0128216353904     0.00249316655535    0.987176132847      -0.00339441687039   0.987176132847      -0.00339441687039   0.0128216353904     0.00249316655535    
200000000.0         0.0129308596946     0.00498519182018    0.987064860933      -0.00678770145066   0.987064860933      -0.00678770145066   0.0129308596946     0.00498519182018    
300000000.0         0.013034722878      0.007476333965      0.986958134195      -0.0101801179453    0.986958134195      -0.0101801179453    0.013034722878      0.007476333965      
400000000.0         0.0131442380159     0.00996658715079    0.986844939457      -0.0135716654677    0.986844939457      -0.0135716654677    0.0131442380159     0.00996658715079    
500000000.0         0.0132636459908     0.0124558841553     0.986721035721      -0.0169622812009    0.986721035721      -0.0169622812009    0.0132636459908     0.0124558841553     
600000000.0         0.0133951067744     0.0149441306349     0.986584262892      -0.0203518748471    0.986584262892      -0.0203518748471    0.0133951067744     0.0149441306349     
700000000.0         0.0135398924978     0.0174312174472     0.9864333487        -0.0237403410461    0.9864333487        -0.0237403410461    0.0135398924978     0.0174312174472     
800000000.0         0.0136988230387     0.0199170263772     0.986267473118      -0.0271275651596    0.986267473118      -0.0271275651596    0.0136988230387     0.0199170263772     
900000000.0         0.0138724600304     0.0224014332229     0.986086074351      -0.0305134263939    0.986086074351      -0.0305134263939    0.0138724600304     0.0224014332229     
1000000000.0        0.0140612052306     0.0248843096298     0.985888750467      -0.0338977996618    0.985888750467      -0.0338977996618    0.0140612052306     0.0248843096298     
1100000000.0        0.014265355219      0.0273655242631     0.9856752047        -0.0372805567744    0.9856752047        -0.0372805567744    0.014265355219      0.0273655242631     
1200000000.0        0.0144851340004     0.0298449435994     0.985445212849      -0.0406615672476    0.985445212849      -0.0406615672476    0.0144851340004     0.0298449435994     
1300000000.0        0.0147207135225     0.0323224324853     0.985198602759      -0.0440406988731    0.985198602759      -0.0440406988731    0.0147207135225     0.0323224324853     
1400000000.0        0.014972227167      0.0347978545462     0.984935240827      -0.0474178181367    0.984935240827      -0.0474178181367    0.014972227167      0.0347978545462     
1500000000.0        0.0152397789466     0.0372710724952     0.984655022812      -0.0507927905347    0.984655022812      -0.0507927905347    0.0152397789466     0.0372710724952     
1600000000.0        0.0155234499661     0.0397419483725     0.984357867367      -0.0541654808203    0.984357867367      -0.0541654808203    0.0155234499661     0.0397419483725     
1700000000.0        0.0158233030826     0.0422103437353     0.984043711384      -0.0575357531992    0.984043711384      -0.0575357531992    0.0158233030826     0.0422103437353     
1800000000.0        0.0161393863405     0.044676119812      0.983712506557      -0.0609034714882    0.983712506557      -0.0609034714882    0.0161393863405     0.044676119812      
1900000000.0        0.0164717355538     0.0471391376294     0.983364216799      -0.0642684992469    0.983364216799      -0.0642684992469    0.0164717355538     0.0471391376294     
2000000000.0        0.0168203762822     0.04959925812       0.98299881627       -0.0676306998883    0.98299881627       -0.0676306998883    0.0168203762822     0.04959925812       
2100000000.0        0.017185325365      0.0520563422127     0.982616287837      -0.0709899367733    0.982616287837      -0.0709899367733    0.017185325365      0.0520563422127     
2200000000.0        0.0175665921287     0.0545102509126     0.982216621872      -0.0743460732923    0.982216621872      -0.0743460732923    0.0175665921287     0.0545102509126     
2300000000.0        0.017964179351      0.0569608453694     0.981799815287      -0.0776989729375    0.981799815287      -0.0776989729375    0.017964179351      0.0569608453694     
2400000000.0        0.0183780840368     0.0594079869397     0.981365870756      -0.081048499366     0.981365870756      -0.081048499366     0.0183780840368     0.0594079869397     
2500000000.0        0.018808298051      0.0618515372414     0.980914796083      -0.0843945164576    0.980914796083      -0.0843945164576    0.018808298051      0.0618515372414     
2600000000.0        0.0192548086395     0.064291358204      0.980446603682      -0.0877368883662    0.980446603682      -0.0877368883662    0.0192548086395     0.064291358204      
2700000000.0        0.0197175988614     0.0667273121139     0.979961310146      -0.091075479567     0.979961310146      -0.091075479567     0.0197175988614     0.0667273121139     
2800000000.0        0.0201966479503     0.0691592616565     0.979458935883      -0.0944101548999    0.979458935883      -0.0944101548999    0.0201966479503     0.0691592616565     
2900000000.0        0.0206919316199     0.0715870699547     0.978939504813      -0.0977407796102    0.978939504813      -0.0977407796102    0.0206919316199     0.0715870699547     
3000000000.0        0.0212034223238     0.0740106006057     0.978403044105      -0.101067219386     0.978403044105      -0.101067219386     0.0212034223238     0.0740106006057     
3100000000.0        0.0217310894773     0.0764297177142     0.977849583961      -0.104389340392     0.977849583961      -0.104389340392     0.0217310894773     0.0764297177142     
3200000000.0        0.0222748996492     0.078844285925      0.977279157418      -0.107707009305     0.977279157418      -0.107707009305     0.0222748996492     0.078844285925      
3300000000.0        0.022834816728      0.0812541704531     0.976691800185      -0.111020093345     0.976691800185      -0.111020093345     0.022834816728      0.0812541704531     
3400000000.0        0.0234108020675     0.0836592371128     0.976087550499      -0.114328460302     0.976087550499      -0.114328460302     0.0234108020675     0.0836592371128     
3500000000.0        0.024002814614      0.0860593523446     0.975466448993      -0.117631978568     0.975466448993      -0.117631978568     0.024002814614      0.0860593523446     
3600000000.0        0.0246108110196     0.0884543832421     0.974828538589      -0.120930517163     0.974828538589      -0.120930517163     0.0246108110196     0.0884543832421     
3700000000.0        0.0252347457423     0.0908441975769     0.974173864393      -0.12422394576      0.974173864393      -0.12422394576      0.0252347457423     0.0908441975769     
3800000000.0        0.0258745711365     0.0932286638231     0.973502473606      -0.127512134712     0.973502473606      -0.127512134712     0.0258745711365     0.0932286638231     
3900000000.0        0.0265302375329     0.0956076511804     0.972814415445      -0.130794955073     0.972814415445      -0.130794955073     0.0265302375329     0.0956076511804     
4000000000.0        0.0272016933126     0.0979810295971     0.972109741071      -0.134072278624     0.972109741071      -0.134072278624     0.0272016933126     0.0979810295971     
4100000000.0        0.0278888849733     0.100348669792      0.971388503515      -0.137343977897     0.971388503515      -0.137343977897     0.0278888849733     0.100348669792      
4200000000.0        0.0285917571903     0.102710443273      0.970650757628      -0.14060992619      0.970650757628      -0.14060992619      0.0285917571903     0.102710443273      
4300000000.0        0.0293102528721     0.105066222364      0.969896560017      -0.143869997598     0.969896560017      -0.143869997598     0.0293102528721     0.105066222364      
4400000000.0        0.0300443132131     0.107415880216      0.969125968994      -0.147124067022     0.969125968994      -0.147124067022     0.0300443132131     0.107415880216      
4500000000.0        0.0307938777408     0.109759290835      0.968339044534      -0.1503720102       0.968339044534      -0.1503720102       0.0307938777408     0.109759290835      
4600000000.0        0.0315588843609     0.112096329094      0.967535848222      -0.153613703718     0.967535848222      -0.153613703718     0.0315588843609     0.112096329094      
4700000000.0        0.0323392693998     0.114426870754      0.966716443218      -0.156849025032     0.966716443218      -0.156849025032     0.0323392693998     0.114426870754      
4800000000.0        0.0331349676438     0.116750792483      0.965880894213      -0.160077852486     0.965880894213      -0.160077852486     0.0331349676438     0.116750792483      
4900000000.0        0.0339459123767     0.119067971872      0.965029267391      -0.16330006533      0.965029267391      -0.16330006533      0.0339459123767     0.119067971872      
5000000000.0        0.0347720354154     0.12137828745       0.964161630399      -0.166515543736     0.964161630399      -0.166515543736     0.0347720354154     0.12137828745       
5100000000.0        0.0356132671441     0.123681618702      0.963278052308      -0.169724168816     0.963278052308      -0.169724168816     0.0356132671441     0.123681618702      
5200000000.0        0.0364695365463     0.125977846088      0.96237860358       -0.172925822638     0.96237860358       -0.172925822638     0.0364695365463     0.125977846088      
5300000000.0        0.0373407712364     0.12826685105       0.961463356041      -0.176120388239     0.961463356041      -0.176120388239     0.0373407712364     0.12826685105       
5400000000.0        0.0382268974898     0.130548516037      0.960532382849      -0.179307749646     0.960532382849      -0.179307749646     0.0382268974898     0.130548516037      
5500000000.0        0.0391278402714     0.132822724513      0.959585758464      -0.182487791887     0.959585758464      -0.182487791887     0.0391278402714     0.132822724513      
5600000000.0        0.0400435232645     0.135089360971      0.958623558621      -0.185660401003     0.958623558621      -0.185660401003     0.0400435232645     0.135089360971      
5700000000.0        0.0409738688976     0.137348310953      0.957645860302      -0.188825464069     0.957645860302      -0.188825464069     0.0409738688976     0.137348310953      
5800000000.0        0.0419187983713     0.139599461056      0.95665274171       -0.191982869204     0.95665274171       -0.191982869204     0.0419187983713     0.139599461056      
5900000000.0        0.0428782316841     0.141842698949      0.955644282243      -0.195132505582     0.955644282243      -0.195132505582     0.0428782316841     0.141842698949      
6000000000.0        0.0438520876581     0.144077913386      0.954620562469      -0.198274263449     0.954620562469      -0.198274263449     0.0438520876581     0.144077913386      
6100000000.0        0.0448402839639     0.146304994216      0.9535816641        -0.201408034133     0.9535816641        -0.201408034133     0.0448402839639     0.146304994216      
6200000000.0        0.0458427371448     0.148523832396      0.952527669967      -0.204533710059     0.952527669967      -0.204533710059     0.0458427371448     0.148523832396      
6300000000.0        0.0468593626414     0.150734320004      0.951458663999      -0.207651184755     0.951458663999      -0.207651184755     0.0468593626414     0.150734320004      
6400000000.0        0.0478900748146     0.152936350249      0.950374731195      -0.210760352871     0.950374731195      -0.210760352871     0.0478900748146     0.152936350249      
6500000000.0        0.0489347869697     0.155129817478      0.949275957606      -0.213861110185     0.949275957606      -0.213861110185     0.0489347869697     0.155129817478      
6600000000.0        0.0499934113791     0.157314617193      0.948162430307      -0.216953353613     0.948162430307      -0.216953353613     0.0499934113791     0.157314617193      
6700000000.0        0.0510658593053     0.159490646059      0.947034237376      -0.220036981223     0.947034237376      -0.220036981223     0.0510658593053     0.159490646059      
6800000000.0        0.0521520410231     0.16165780191       0.945891467872      -0.223111892244     0.945891467872      -0.223111892244     0.0521520410231     0.16165780191       
6900000000.0        0.0532518658425     0.163815983763      0.944734211813      -0.226177987072     0.944734211813      -0.226177987072     0.0532518658425     0.163815983763      
7000000000.0        0.0543652421304     0.165965091824      0.943562560152      -0.229235167284     0.943562560152      -0.229235167284     0.0543652421304     0.165965091824      
7100000000.0        0.0554920773329     0.1681050275        0.942376604757      -0.232283335644     0.942376604757      -0.232283335644     0.0554920773329     0.1681050275        
7200000000.0        0.0566322779967     0.170235693401      0.941176438388      -0.235322396113     0.941176438388      -0.235322396113     0.0566322779967     0.170235693401      
7300000000.0        0.057785749791      0.172356993357      0.939962154677      -0.238352253854     0.939962154677      -0.238352253854     0.057785749791      0.172356993357      
7400000000.0        0.0589523975291     0.174468832418      0.938733848104      -0.241372815246     0.938733848104      -0.241372815246     0.0589523975291     0.174468832418      
7500000000.0        0.0601321251893     0.176571116863      0.937491613979      -0.244383987885     0.937491613979      -0.244383987885     0.0601321251893     0.176571116863      
7600000000.0        0.0613248359363     0.178663754212      0.936235548415      -0.247385680594     0.936235548415      -0.247385680594     0.0613248359363     0.178663754212      
7700000000.0        0.0625304321426     0.180746653225      0.934965748317      -0.250377803431     0.934965748317      -0.250377803431     0.0625304321426     0.180746653225      
7800000000.0        0.0637488154089     0.182819723912      0.933682311349      -0.253360267693     0.933682311349      -0.253360267693     0.0637488154089     0.182819723912      
7900000000.0        0.0649798865853     0.184882877542      0.932385335924      -0.256332985923     0.932385335924      -0.256332985923     0.0649798865853     0.184882877542      
8000000000.0        0.066223545792      0.186936026642      0.931074921174      -0.259295871916     0.931074921174      -0.259295871916     0.066223545792      0.186936026642      
8100000000.0        0.0674796924398     0.188979085008      0.929751166938      -0.262248840727     0.929751166938      -0.262248840727     0.0674796924398     0.188979085008      
8200000000.0        0.0687482252507     0.191011967707      0.928414173735      -0.265191808668     0.928414173735      -0.265191808668     0.0687482252507     0.191011967707      
8300000000.0        0.0700290422783     0.193034591081      0.927064042747      -0.268124693324     0.927064042747      -0.268124693324     0.0700290422783     0.193034591081      
8400000000.0        0.0713220409282     0.195046872754      0.925700875795      -0.271047413548     0.925700875795      -0.271047413548     0.0713220409282     0.195046872754      
8500000000.0        0.0726271179781     0.197048731636      0.924324775326      -0.273959889469     0.924324775326      -0.273959889469     0.0726271179781     0.197048731636      
8600000000.0        0.0739441695979     0.199040087923      0.922935844385      -0.276862042499     0.922935844385      -0.276862042499     0.0739441695979     0.199040087923      
8700000000.0        0.0752730913698     0.201020863104      0.921534186599      -0.279753795328     0.921534186599      -0.279753795328     0.0752730913698     0.201020863104      
8800000000.0        0.0766137783083     0.202990979962      0.920119906157      -0.282635071937     0.920119906157      -0.282635071937     0.0766137783083     0.202990979962      
8900000000.0        0.0779661248799     0.204950362578      0.918693107789      -0.285505797594     0.918693107789      -0.285505797594     0.0779661248799     0.204950362578      
9000000000.0        0.0793300250227     0.206898936333      0.917253896747      -0.288365898859     0.917253896747      -0.288365898859     0.0793300250227     0.206898936333      
9100000000.0        0.0807053721663     0.208836627909      0.915802378788      -0.291215303585     0.915802378788      -0.291215303585     0.0807053721663     0.208836627909      
9200000000.0        0.0820920592511     0.210763365294      0.914338660147      -0.294053940922     0.914338660147      -0.294053940922     0.0820920592511     0.210763365294      
9300000000.0        0.0834899787479     0.21267907778       0.912862847526      -0.296881741318     0.912862847526      -0.296881741318     0.0834899787479     0.21267907778       
9400000000.0        0.0848990226768     0.214583695965      0.91137504807       -0.299698636519     0.91137504807       -0.299698636519     0.0848990226768     0.214583695965      
9500000000.0        0.0863190826271     0.216477151755      0.909875369349      -0.302504559571     0.909875369349      -0.302504559571     0.0863190826271     0.216477151755      
9600000000.0        0.0877500497755     0.218359378366      0.90836391934       -0.305299444822     0.90836391934       -0.305299444822     0.0877500497755     0.218359378366      
9700000000.0        0.0891918149058     0.22023031032       0.906840806405      -0.308083227918     0.906840806405      -0.308083227918     0.0891918149058     0.22023031032       
9800000000.0        0.0906442684274     0.222089883448      0.905306139275      -0.310855845809     0.905306139275      -0.310855845809     0.0906442684274     0.222089883448      
9900000000.0        0.092107300394      0.223938034892      0.903760027032      -0.313617236745     0.903760027032      -0.313617236745     0.092107300394      0.223938034892      
10000000000.0       0.0935808005227     0.225774703099      0.902202579087      -0.316367340278     0.902202579087      -0.316367340278     0.0935808005227     0.225774703099      
