# Hz S RI R 50.00 
100000000.0         0.00155767992024    0.000378747438944   0.99843950495       -0.00156360026058   0.99843950495       -0.00156360026058   0.00155767992024    0.000378747438944   
200000000.0         0.00156929681207    0.000757450800796   0.998424668275      -0.0031271633181    0.998424668275      -0.0031271633181    0.00156929681207    0.000757450800796   
300000000.0         0.00157935522566    0.00113612173626    0.998409985356      -0.00469070515956   0.998409985356      -0.00469070515956   0.00157935522566    0.00113612173626    
400000000.0         0.00158920588208    0.00151476153022    0.998394105387      -0.00625423015614   0.998394105387      -0.00625423015614   0.00158920588208    0.00151476153022    
500000000.0         0.0015993687854     0.00189336911634    0.998376508264      -0.00781773969911   0.998376508264      -0.00781773969911   0.0015993687854     0.00189336911634    
600000000.0         0.00161010901706    0.00227194241269    0.998356928791      -0.00938123375304   0.998356928791      -0.00938123375304   0.00161010901706    0.00227194241269    
700000000.0         0.00162158307905    0.00265047879587    0.998335210339      -0.0109447114411    0.998335210339      -0.0109447114411    0.00162158307905    0.00265047879587    
800000000.0         0.00163389229362    0.00302897531814    0.998311251451      -0.0125081713291    0.998311251451      -0.0125081713291    0.00163389229362    0.00302897531814    
900000000.0         0.00164710657467    0.00340742882294    0.998284982062      -0.0140716115845    0.998284982062      -0.0140716115845    0.00164710657467    0.00340742882294    
1000000000.0        0.00166127647453    0.00378583601206    0.998256351464      -0.0156350300742    0.998256351464      -0.0156350300742    0.00166127647453    0.00378583601206    
1100000000.0        0.00167643987906    0.00416419348783    0.998225321603      -0.0171984244303    0.998225321603      -0.0171984244303    0.00167643987906    0.00416419348783    
1200000000.0        0.00169262599628    0.00454249778102    0.998191863093      -0.0187617920945    0.998191863093      -0.0187617920945    0.00169262599628    0.00454249778102    
1300000000.0        0.00170985786527    0.0049207453699     0.998155952713      -0.0203251303511    0.998155952713      -0.0203251303511    0.00170985786527    0.0049207453699     
1400000000.0        0.00172815400481    0.0052989326938     0.99811757175       -0.0218884363519    0.99811757175       -0.0218884363519    0.00172815400481    0.0052989326938     
1500000000.0        0.00174752953662    0.00567705616305    0.998076704881      -0.0234517071347    0.998076704881      -0.0234517071347    0.00174752953662    0.00567705616305    
1600000000.0        0.00176799697402    0.00605511216632    0.998033339387      -0.0250149396384    0.998033339387      -0.0250149396384    0.00176799697402    0.00605511216632    
1700000000.0        0.00178956679012    0.00643309707622    0.997987464578      -0.0265781307149    0.997987464578      -0.0265781307149    0.00178956679012    0.00643309707622    
1800000000.0        0.00181224783643    0.00681100725367    0.997939071383      -0.0281412771388    0.997939071383      -0.0281412771388    0.00181224783643    0.00681100725367    
1900000000.0        0.00183604765716    0.00718883905125    0.997888152028      -0.0297043756159    0.997888152028      -0.0297043756159    0.00183604765716    0.00718883905125    
2000000000.0        0.00186097272936    0.00756658881587    0.997834699803      -0.0312674227892    0.997834699803      -0.0312674227892    0.00186097272936    0.00756658881587    
2100000000.0        0.0018870286491     0.00794425289097    0.997778708871      -0.0328304152455    0.997778708871      -0.0328304152455    0.0018870286491     0.00794425289097    
2200000000.0        0.00191422027778    0.00832182761819    0.997720174126      -0.0343933495197    0.997720174126      -0.0343933495197    0.00191422027778    0.00832182761819    
2300000000.0        0.0019425518586     0.0086993093388     0.997659091072      -0.0359562220994    0.997659091072      -0.0359562220994    0.0019425518586     0.0086993093388     
2400000000.0        0.00197202711009    0.00907669439486    0.997595455734      -0.0375190294284    0.997595455734      -0.0375190294284    0.00197202711009    0.00907669439486    
2500000000.0        0.0020026493022     0.00945397913014    0.99752926458       -0.0390817679101    0.99752926458       -0.0390817679101    0.0020026493022     0.00945397913014    
2600000000.0        0.00203442131857    0.00983115989094    0.997460514459      -0.0406444339102    0.997460514459      -0.0406444339102    0.00203442131857    0.00983115989094    
2700000000.0        0.00206734570806    0.0102082330267     0.997389202552      -0.0422070237595    0.997389202552      -0.0422070237595    0.00206734570805    0.0102082330267     
2800000000.0        0.00210142472753    0.0105851948906     0.997315326324      -0.0437695337558    0.997315326324      -0.0437695337558    0.00210142472753    0.0105851948906     
2900000000.0        0.00213666037791    0.0109620418399     0.997238883494      -0.0453319601664    0.997238883494      -0.0453319601664    0.00213666037791    0.0109620418399     
3000000000.0        0.00217305443442    0.0113387702365     0.997159872         -0.0468942992297    0.997159872         -0.0468942992297    0.00217305443442    0.0113387702365     
3100000000.0        0.0022106084724     0.011715376447      0.997078289979      -0.0484565471565    0.997078289979      -0.0484565471565    0.0022106084724     0.011715376447      
3200000000.0        0.00224932388924    0.0120918568433     0.996994135738      -0.0500187001325    0.996994135738      -0.0500187001325    0.00224932388924    0.0120918568433     
3300000000.0        0.00228920192332    0.0124682078025     0.996907407743      -0.0515807543185    0.996907407743      -0.0515807543185    0.00228920192332    0.0124682078025     
3400000000.0        0.0023302436702     0.0128444257072     0.996818104595      -0.0531427058526    0.996818104595      -0.0531427058526    0.0023302436702     0.0128444257072     
3500000000.0        0.00237245009681    0.0132205069459     0.996726225024      -0.054704550851     0.996726225024      -0.054704550851     0.00237245009681    0.0132205069459     
3600000000.0        0.00241582205366    0.0135964479126     0.996631767868      -0.0562662854088    0.996631767868      -0.0562662854088    0.00241582205366    0.0135964479126     
3700000000.0        0.00246036028558    0.0139722450074     0.996534732073      -0.0578279056016    0.996534732073      -0.0578279056016    0.00246036028558    0.0139722450074     
3800000000.0        0.00250606544112    0.0143478946365     0.996435116672      -0.059389407486     0.996435116672      -0.059389407486     0.00250606544112    0.0143478946365     
3900000000.0        0.00255293808082    0.0147233932118     0.996332920787      -0.0609507871005    0.996332920787      -0.0609507871005    0.00255293808082    0.0147233932118     
4000000000.0        0.00260097868453    0.0150987371518     0.996228143616      -0.0625120404664    0.996228143616      -0.0625120404664    0.00260097868453    0.0150987371518     
4100000000.0        0.00265018765789    0.0154739228808     0.996120784428      -0.0640731635884    0.996120784428      -0.0640731635884    0.00265018765789    0.0154739228808     
4200000000.0        0.00270056533806    0.0158489468295     0.996010842558      -0.0656341524555    0.996010842558      -0.0656341524555    0.00270056533806    0.0158489468295     
4300000000.0        0.00275211199887    0.0162238054349     0.995898317401      -0.0671950030416    0.995898317401      -0.0671950030416    0.00275211199887    0.0162238054349     
4400000000.0        0.00280482785542    0.01659849514       0.995783208407      -0.068755711306     0.995783208407      -0.068755711306     0.00280482785542    0.01659849514       
4500000000.0        0.00285871306815    0.0169730123943     0.995665515081      -0.0703162731938    0.995665515081      -0.0703162731938    0.00285871306815    0.0169730123943     
4600000000.0        0.00291376774658    0.0173473536534     0.995545236973      -0.0718766846372    0.995545236973      -0.0718766846372    0.00291376774658    0.0173473536534     
4700000000.0        0.00296999195258    0.0177215153794     0.99542237368       -0.0734369415549    0.99542237368       -0.0734369415549    0.00296999195258    0.0177215153794     
4800000000.0        0.00302738570345    0.0180954940406     0.99529692484       -0.0749970398537    0.99529692484       -0.0749970398537    0.00302738570345    0.0180954940406     
4900000000.0        0.00308594897456    0.0184692861113     0.995168890131      -0.0765569754281    0.995168890131      -0.0765569754281    0.00308594897456    0.0184692861113     
5000000000.0        0.00314568170186    0.0188428880724     0.995038269269      -0.0781167441611    0.995038269269      -0.0781167441611    0.00314568170186    0.0188428880724     
5100000000.0        0.00320658378411    0.0192162964108     0.994905062004      -0.0796763419248    0.994905062004      -0.0796763419248    0.00320658378411    0.0192162964108     
5200000000.0        0.00326865508492    0.0195895076199     0.994769268119      -0.0812357645804    0.994769268119      -0.0812357645804    0.00326865508492    0.0195895076199     
5300000000.0        0.00333189543459    0.019962518199      0.994630887429      -0.0827950079789    0.994630887429      -0.0827950079789    0.00333189543459    0.019962518199      
5400000000.0        0.00339630463182    0.0203353246539     0.994489919776      -0.084354067961     0.994489919776      -0.084354067961     0.00339630463182    0.0203353246539     
5500000000.0        0.00346188244529    0.0207079234962     0.994346365034      -0.0859129403583    0.994346365034      -0.0859129403583    0.00346188244529    0.0207079234962     
5600000000.0        0.00352862861503    0.0210803112441     0.994200223101      -0.0874716209925    0.994200223101      -0.0874716209925    0.00352862861503    0.0210803112441     
5700000000.0        0.00359654285378    0.0214524844215     0.994051493901      -0.0890301056767    0.994051493901      -0.0890301056767    0.00359654285378    0.0214524844215     
5800000000.0        0.00366562484819    0.0218244395587     0.993900177383      -0.0905883902151    0.993900177383      -0.0905883902151    0.00366562484819    0.0218244395587     
5900000000.0        0.00373587425988    0.022196173192      0.993746273519      -0.0921464704037    0.993746273519      -0.0921464704037    0.00373587425988    0.022196173192      
6000000000.0        0.00380729072653    0.0225676818637     0.993589782303      -0.09370434203      0.993589782303      -0.09370434203      0.00380729072653    0.0225676818637     
6100000000.0        0.00387987386277    0.0229389621222     0.99343070375       -0.095262000874     0.99343070375       -0.095262000874     0.00387987386277    0.0229389621222     
6200000000.0        0.00395362326112    0.0233100105219     0.993269037897      -0.0968194427078    0.993269037897      -0.0968194427078    0.00395362326112    0.0233100105219     
6300000000.0        0.00402853849271    0.0236808236232     0.993104784799      -0.0983766632962    0.993104784799      -0.0983766632962    0.00402853849271    0.0236808236232     
6400000000.0        0.00410461910811    0.0240513979924     0.992937944533      -0.099933658397     0.992937944533      -0.099933658397     0.00410461910811    0.0240513979924     
6500000000.0        0.00418186463802    0.0244217302018     0.992768517192      -0.101490423761     0.992768517192      -0.101490423761     0.00418186463802    0.0244217302018     
6600000000.0        0.00426027459385    0.0247918168297     0.992596502887      -0.103046955132     0.992596502887      -0.103046955132     0.00426027459385    0.0247918168297     
6700000000.0        0.00433984846844    0.02516165446       0.992421901747      -0.104603248248     0.992421901747      -0.104603248248     0.00433984846844    0.02516165446       
6800000000.0        0.0044205857365     0.0255312396828     0.992244713919      -0.10615929884      0.992244713919      -0.10615929884      0.0044205857365     0.0255312396828     
6900000000.0        0.00450248585525    0.0259005690937     0.992064939565      -0.107715102633     0.992064939565      -0.107715102633     0.00450248585525    0.0259005690937     
7000000000.0        0.00458554826482    0.0262696392944     0.991882578862      -0.109270655346     0.991882578862      -0.109270655346     0.00458554826482    0.0262696392944     
7100000000.0        0.00466977238877    0.0266384468924     0.991697632005      -0.110825952694     0.991697632005      -0.110825952694     0.00466977238877    0.0266384468924     
7200000000.0        0.00475515763449    0.0270069885006     0.991510099202      -0.112380990384     0.991510099202      -0.112380990384     0.00475515763449    0.0270069885006     
7300000000.0        0.00484170339364    0.0273752607381     0.991319980677      -0.113935764119     0.991319980677      -0.113935764119     0.00484170339364    0.0273752607381     
7400000000.0        0.00492940904247    0.0277432602294     0.991127276668      -0.115490269596     0.991127276668      -0.115490269596     0.00492940904247    0.0277432602294     
7500000000.0        0.00501827394222    0.0281109836048     0.990931987427      -0.117044502509     0.990931987427      -0.117044502509     0.00501827394222    0.0281109836048     
7600000000.0        0.00510829743945    0.0284784275003     0.990734113219      -0.118598458543     0.990734113219      -0.118598458543     0.00510829743945    0.0284784275003     
7700000000.0        0.00519947886636    0.0288455885576     0.990533654325      -0.120152133383     0.990533654325      -0.120152133383     0.00519947886636    0.0288455885576     
7800000000.0        0.00529181754105    0.029212463424      0.990330611037      -0.121705522707     0.990330611037      -0.121705522707     0.00529181754105    0.029212463424      
7900000000.0        0.00538531276785    0.0295790487522     0.99012498366       -0.123258622188     0.99012498366       -0.123258622188     0.00538531276785    0.0295790487522     
8000000000.0        0.00547996383754    0.0299453412007     0.989916772514      -0.124811427497     0.989916772514      -0.124811427497     0.00547996383754    0.0299453412007     
8100000000.0        0.00557577002762    0.0303113374337     0.98970597793       -0.126363934298     0.98970597793       -0.126363934298     0.00557577002762    0.0303113374337     
8200000000.0        0.00567273060257    0.0306770341206     0.989492600251      -0.127916138253     0.989492600251      -0.127916138253     0.00567273060257    0.0306770341206     
8300000000.0        0.00577084481403    0.0310424279367     0.989276639834      -0.12946803502      0.989276639834      -0.12946803502      0.00577084481403    0.0310424279367     
8400000000.0        0.00587011190102    0.0314075155624     0.989058097045      -0.131019620252     0.989058097045      -0.131019620252     0.00587011190102    0.0314075155624     
8500000000.0        0.00597053109016    0.031772293684      0.988836972265      -0.132570889599     0.988836972265      -0.132570889599     0.00597053109016    0.031772293684      
8600000000.0        0.00607210159585    0.032136758993      0.988613265886      -0.134121838709     0.988613265886      -0.134121838709     0.00607210159585    0.032136758993      
8700000000.0        0.00617482262045    0.0325009081864     0.98838697831       -0.135672463224     0.98838697831       -0.135672463224     0.00617482262045    0.0325009081864     
8800000000.0        0.00627869335445    0.0328647379668     0.988158109952      -0.137222758785     0.988158109952      -0.137222758785     0.00627869335445    0.0328647379668     
8900000000.0        0.00638371297662    0.033228245042      0.987926661238      -0.138772721027     0.987926661238      -0.138772721027     0.00638371297662    0.033228245042      
9000000000.0        0.0064898806542     0.0335914261253     0.987692632605      -0.140322345586     0.987692632605      -0.140322345586     0.0064898806542     0.0335914261253     
9100000000.0        0.00659719554301    0.0339542779356     0.987456024502      -0.141871628091     0.987456024502      -0.141871628091     0.00659719554301    0.0339542779356     
9200000000.0        0.00670565678762    0.0343167971967     0.987216837386      -0.14342056417      0.987216837386      -0.14342056417      0.00670565678762    0.0343167971967     
9300000000.0        0.00681526352145    0.0346789806382     0.986975071729      -0.144969149449     0.986975071729      -0.144969149449     0.00681526352145    0.0346789806382     
9400000000.0        0.00692601486693    0.0350408249947     0.98673072801       -0.146517379551     0.98673072801       -0.146517379551     0.00692601486693    0.0350408249947     
9500000000.0        0.00703790993561    0.0354023270066     0.986483806722      -0.148065250094     0.986483806722      -0.148065250094     0.00703790993561    0.0354023270066     
9600000000.0        0.00715094782828    0.035763483419      0.986234308365      -0.149612756697     0.986234308365      -0.149612756697     0.00715094782828    0.035763483419      
9700000000.0        0.00726512763507    0.0361242909828     0.985982233453      -0.151159894975     0.985982233453      -0.151159894975     0.00726512763507    0.0361242909828     
9800000000.0        0.00738044843558    0.0364847464539     0.985727582509      -0.152706660541     0.985727582509      -0.152706660541     0.00738044843558    0.0364847464539     
9900000000.0        0.00749690929895    0.0368448465936     0.985470356066      -0.154253049005     0.985470356066      -0.154253049005     0.00749690929895    0.0368448465936     
10000000000.0       0.00761450928397    0.0372045881686     0.985210554666      -0.155799055975     0.985210554666      -0.155799055975     0.00761450928397    0.0372045881686     
