# Hz S RI R 50.00 
100000000.0         0.000916718343685   0.000558730482306   0.999081051552      -0.00145308283074   0.999081051552      -0.00145308283074   0.000916718343685   0.000558730482306   
200000000.0         0.000924869084973   0.00111743251179    0.999070870536      -0.00290615412755   0.999070870536      -0.00290615412755   0.000924869084973   0.00111743251179    
300000000.0         0.000933031258047   0.00167611118407    0.999059877827      -0.0043592282003    0.999059877827      -0.0043592282003    0.000933031258047   0.00167611118407    
400000000.0         0.000941999662873   0.00223476521623    0.999047278513      -0.00581231072021   0.999047278513      -0.00581231072021   0.000941999662873   0.00223476521623    
500000000.0         0.000952080212855   0.00279339188669    0.999032766547      -0.0072654047646    0.999032766547      -0.0072654047646    0.000952080212855   0.00279339188669    
600000000.0         0.000963428827941   0.00335198786624    0.999016185858      -0.00871851203826   0.999016185858      -0.00871851203826   0.000963428827941   0.00335198786624    
700000000.0         0.000976137554379   0.00391054951474    0.998997444235      -0.0101716333699    0.998997444235      -0.0101716333699    0.000976137554379   0.00391054951474    
800000000.0         0.000990265984885   0.00446907301705    0.998976481904      -0.0116247689693    0.998976481904      -0.0116247689693    0.000990265984885   0.00446907301705    
900000000.0         0.00100585524364    0.0050275544551     0.998953257548      -0.0130779185789    0.998953257548      -0.0130779185789    0.00100585524364    0.0050275544551     
1000000000.0        0.00102293507252    0.00558598984978    0.99892774122       -0.0145310815733    0.99892774122       -0.0145310815733    0.00102293507252    0.00558598984978    
1100000000.0        0.00104152776878    0.00614437518693    0.998899910407      -0.0159842570268    0.998899910407      -0.0159842570268    0.00104152776878    0.00614437518693    
1200000000.0        0.00106165053066    0.00670270643426    0.998869747685      -0.017437443763     0.998869747685      -0.017437443763     0.00106165053066    0.00670270643426    
1300000000.0        0.00108331693248    0.00726097955277    0.998837239244      -0.0188906403919    0.998837239244      -0.0188906403919    0.00108331693248    0.00726097955277    
1400000000.0        0.00110653789393    0.00781919050457    0.998802373919      -0.0203438453388    0.998802373919      -0.0203438453388    0.00110653789393    0.00781919050457    
1500000000.0        0.00113132234031    0.00837733525851    0.998765142532      -0.0217970568671    0.998765142532      -0.0217970568671    0.00113132234031    0.00837733525851    
1600000000.0        0.00115767766604    0.00893540979423    0.998725537429      -0.0232502730967    0.998725537429      -0.0232502730967    0.00115767766604    0.00893540979423    
1700000000.0        0.0011856100686     0.00949341010486    0.998683552143      -0.0247034920195    0.998683552143      -0.0247034920195    0.0011856100686     0.00949341010486    
1800000000.0        0.00121512479448    0.0100513321993     0.998639181155      -0.0261567115118    0.998639181155      -0.0261567115118    0.00121512479448    0.0100513321993     
1900000000.0        0.00124622632389    0.0106091721036     0.998592419702      -0.0276099293453    0.998592419702      -0.0276099293453    0.00124622632389    0.0106091721036     
2000000000.0        0.00127891851178    0.011166925862      0.998543263642      -0.0290631431966    0.998543263642      -0.0290631431966    0.00127891851178    0.011166925862      
2100000000.0        0.00131320469727    0.011724589538      0.998491709343      -0.0305163506543    0.998491709343      -0.0305163506543    0.00131320469727    0.011724589538      
2200000000.0        0.0013490877896     0.0122821592143     0.998437753598      -0.0319695492272    0.998437753598      -0.0319695492272    0.0013490877896     0.0122821592143     
2300000000.0        0.00138657033651    0.0128396309936     0.998381393556      -0.0334227363492    0.998381393556      -0.0334227363492    0.00138657033651    0.0128396309936     
2400000000.0        0.00142565457923    0.0133970009987     0.998322626668      -0.0348759093856    0.998322626668      -0.0348759093856    0.00142565457923    0.0133970009987     
2500000000.0        0.00146634249715    0.0139542653722     0.99826145064       -0.0363290656373    0.99826145064       -0.0363290656373    0.00146634249715    0.0139542653722     
2600000000.0        0.00150863584443    0.0145114202769     0.998197863404      -0.0377822023455    0.998197863404      -0.0377822023455    0.00150863584443    0.0145114202769     
2700000000.0        0.00155253618025    0.0150684618957     0.998131863078      -0.0392353166954    0.998131863078      -0.0392353166954    0.00155253618025    0.0150684618957     
2800000000.0        0.00159804489402    0.015625386431      0.998063447949      -0.0406884058195    0.998063447949      -0.0406884058195    0.00159804489402    0.015625386431      
2900000000.0        0.0016451632265     0.016182190105      0.997992616448      -0.0421414668012    0.997992616448      -0.0421414668012    0.0016451632265     0.016182190105      
3000000000.0        0.00169389228762    0.0167388691592     0.997919367135      -0.0435944966772    0.997919367135      -0.0435944966772    0.00169389228762    0.0167388691592     
3100000000.0        0.00174423307166    0.0172954198543     0.99784369868       -0.0450474924406    0.99784369868       -0.0450474924406    0.00174423307166    0.0172954198543     
3200000000.0        0.00179618647018    0.0178518384699     0.997765609856      -0.0465004510429    0.997765609856      -0.0465004510429    0.00179618647018    0.0178518384699     
3300000000.0        0.00184975328313    0.018408121304      0.997685099523      -0.0479533693964    0.997685099523      -0.0479533693964    0.00184975328313    0.018408121304      
3400000000.0        0.0019049342284     0.0189642646731     0.997602166621      -0.0494062443763    0.997602166621      -0.0494062443763    0.0019049342284     0.0189642646731     
3500000000.0        0.0019617299502     0.0195202649117     0.99751681016       -0.0508590728225    0.99751681016       -0.0508590728225    0.0019617299502     0.0195202649117     
3600000000.0        0.00202014102625    0.0200761183718     0.997429029218      -0.0523118515414    0.997429029218      -0.0523118515414    0.00202014102625    0.0200761183718     
3700000000.0        0.0020801679741     0.020631821423      0.997338822927      -0.0537645773073    0.997338822927      -0.0537645773073    0.0020801679741     0.020631821423      
3800000000.0        0.00214181125672    0.0211873704519     0.997246190474      -0.0552172468644    0.997246190474      -0.0552172468644    0.00214181125672    0.0211873704519     
3900000000.0        0.00220507128736    0.0217427618617     0.997151131095      -0.0566698569278    0.997151131095      -0.0566698569278    0.00220507128736    0.0217427618617     
4000000000.0        0.0022699484339     0.0222979920723     0.997053644067      -0.0581224041849    0.997053644067      -0.0581224041849    0.0022699484339     0.0222979920723     
4100000000.0        0.00233644302264    0.0228530575197     0.996953728709      -0.0595748852966    0.996953728709      -0.0595748852966    0.00233644302264    0.0228530575197     
4200000000.0        0.00240455534179    0.0234079546557     0.996851384377      -0.0610272968987    0.996851384377      -0.0610272968987    0.00240455534179    0.0234079546557     
4300000000.0        0.00247428564444    0.0239626799475     0.99674661046       -0.0624796356027    0.99674661046       -0.0624796356027    0.00247428564444    0.0239626799475     
4400000000.0        0.00254563415133    0.0245172298779     0.99663940638       -0.0639318979968    0.99663940638       -0.0639318979968    0.00254563415133    0.0245172298779     
4500000000.0        0.0026186010533     0.0250716009443     0.996529771585      -0.0653840806472    0.996529771585      -0.0653840806472    0.0026186010533     0.0250716009443     
4600000000.0        0.00269318651346    0.025625789659      0.996417705553      -0.0668361800987    0.996417705553      -0.0668361800987    0.00269318651346    0.025625789659      
4700000000.0        0.0027693906692     0.0261797925487     0.996303207786      -0.0682881928756    0.996303207786      -0.0682881928756    0.0027693906692     0.0261797925487     
4800000000.0        0.00284721363399    0.0267336061539     0.996186277809      -0.0697401154824    0.996186277809      -0.0697401154824    0.00284721363399    0.0267336061539     
4900000000.0        0.002926655499      0.0272872270292     0.996066915168      -0.071191944405     0.996066915168      -0.071191944405     0.002926655499      0.0272872270292     
5000000000.0        0.00300771633458    0.0278406517428     0.995945119431      -0.0726436761107    0.995945119431      -0.0726436761107    0.00300771633458    0.0278406517428     
5100000000.0        0.0030903961916     0.0283938768759     0.995820890185      -0.0740953070496    0.995820890185      -0.0740953070496    0.00309039619161    0.0283938768759     
5200000000.0        0.00317469510271    0.028946899023      0.995694227035      -0.0755468336549    0.995694227035      -0.0755468336549    0.00317469510271    0.028946899023      
5300000000.0        0.0032606130834     0.0294997147913     0.995565129601      -0.0769982523434    0.995565129601      -0.0769982523434    0.0032606130834     0.0294997147913     
5400000000.0        0.00334815013311    0.0300523208004     0.995433597523      -0.0784495595162    0.995433597523      -0.0784495595162    0.00334815013311    0.0300523208004     
5500000000.0        0.00343730623611    0.0306047136823     0.995299630452      -0.0799007515594    0.995299630452      -0.0799007515594    0.00343730623611    0.0306047136823     
5600000000.0        0.00352808136239    0.031156890081      0.995163228057      -0.0813518248444    0.995163228057      -0.0813518248444    0.00352808136239    0.031156890081      
5700000000.0        0.00362047546847    0.0317088466523     0.995024390019      -0.0828027757285    0.995024390019      -0.0828027757285    0.00362047546847    0.0317088466523     
5800000000.0        0.00371448849812    0.0322605800634     0.994883116031      -0.0842536005553    0.994883116031      -0.0842536005553    0.00371448849812    0.0322605800634     
5900000000.0        0.00381012038304    0.0328120869931     0.994739405801      -0.0857042956553    0.994739405801      -0.0857042956553    0.00381012038304    0.0328120869931     
6000000000.0        0.0039073710435     0.0333633641311     0.994593259047      -0.0871548573462    0.994593259047      -0.0871548573462    0.0039073710435     0.0333633641311     
6100000000.0        0.00400624038892    0.033914408178      0.994444675499      -0.0886052819333    0.994444675499      -0.0886052819333    0.00400624038892    0.033914408178      
6200000000.0        0.00410672831841    0.0344652158452     0.994293654897      -0.0900555657099    0.994293654897      -0.0900555657099    0.00410672831841    0.0344652158452     
6300000000.0        0.00420883472126    0.0350157838544     0.994140196994      -0.0915057049577    0.994140196994      -0.0915057049577    0.00420883472126    0.0350157838544     
6400000000.0        0.00431255947744    0.0355661089376     0.99398430155       -0.0929556959472    0.99398430155       -0.0929556959472    0.00431255947744    0.0355661089376     
6500000000.0        0.004417902458      0.0361161878368     0.993825968337      -0.094405534938     0.993825968337      -0.094405534938     0.004417902458      0.0361161878368     
6600000000.0        0.0045248635255     0.0366660173039     0.993665197135      -0.095855218179     0.993665197135      -0.095855218179     0.0045248635255     0.0366660173039     
6700000000.0        0.00463344253439    0.0372155941004     0.993501987734      -0.0973047419089    0.993501987734      -0.0973047419089    0.00463344253439    0.0372155941004     
6800000000.0        0.00474363933133    0.0377649149972     0.993336339931      -0.0987541023563    0.993336339931      -0.0987541023563    0.00474363933133    0.0377649149972     
6900000000.0        0.0048554537556     0.0383139767747     0.993168253533      -0.10020329574      0.993168253533      -0.10020329574      0.0048554537556     0.0383139767747     
7000000000.0        0.0049688856393     0.0388627762219     0.992997728356      -0.10165231827      0.992997728356      -0.10165231827      0.0049688856393     0.0388627762219     
7100000000.0        0.00508393480776    0.0394113101372     0.992824764221      -0.103101166146     0.992824764221      -0.103101166146     0.00508393480776    0.0394113101372     
7200000000.0        0.00520060107972    0.0399595753273     0.99264936096       -0.10454983556      0.99264936096       -0.10454983556      0.00520060107972    0.0399595753273     
7300000000.0        0.00531888426763    0.0405075686076     0.99247151841       -0.105998322693     0.99247151841       -0.105998322693     0.00531888426763    0.0405075686076     
7400000000.0        0.00543878417792    0.0410552868019     0.992291236417      -0.107446623721     0.992291236417      -0.107446623721     0.00543878417792    0.0410552868019     
7500000000.0        0.00556030061117    0.041602726742      0.992108514833      -0.108894734809     0.992108514833      -0.108894734809     0.00556030061117    0.041602726742      
7600000000.0        0.00568343336235    0.042149885268      0.991923353518      -0.110342652115     0.991923353518      -0.110342652115     0.00568343336235    0.042149885268      
7700000000.0        0.00580818222104    0.0426967592274     0.991735752338      -0.111790371788     0.991735752338      -0.111790371788     0.00580818222104    0.0426967592274     
7800000000.0        0.00593454697159    0.0432433454758     0.991545711166      -0.113237889971     0.991545711166      -0.113237889971     0.00593454697159    0.0432433454758     
7900000000.0        0.00606252739335    0.0437896408762     0.991353229881      -0.114685202798     0.991353229881      -0.114685202798     0.00606252739335    0.0437896408762     
8000000000.0        0.00619212326078    0.0443356422987     0.991158308371      -0.116132306396     0.991158308371      -0.116132306396     0.00619212326078    0.0443356422987     
8100000000.0        0.00632333434366    0.0448813466209     0.990960946526      -0.117579196885     0.990960946526      -0.117579196885     0.00632333434366    0.0448813466209     
8200000000.0        0.00645616040721    0.0454267507275     0.990761144245      -0.119025870379     0.990761144245      -0.119025870379     0.00645616040721    0.0454267507275     
8300000000.0        0.00659060121226    0.0459718515097     0.990558901432      -0.120472322982     0.990558901432      -0.120472322982     0.00659060121226    0.0459718515097     
8400000000.0        0.00672665651538    0.0465166458659     0.990354217999      -0.121918550795     0.990354217999      -0.121918550795     0.00672665651538    0.0465166458659     
8500000000.0        0.00686432606901    0.0470611307008     0.990147093862      -0.123364549909     0.990147093862      -0.123364549909     0.00686432606901    0.0470611307008     
8600000000.0        0.00700360962157    0.0476053029257     0.989937528942      -0.124810316412     0.989937528942      -0.124810316412     0.00700360962157    0.0476053029257     
8700000000.0        0.00714450691761    0.0481491594581     0.989725523167      -0.126255846381     0.989725523167      -0.126255846381     0.00714450691761    0.0481491594581     
8800000000.0        0.00728701769788    0.0486926972217     0.989511076471      -0.127701135892     0.989511076471      -0.127701135892     0.00728701769788    0.0486926972217     
8900000000.0        0.00743114169948    0.0492359131464     0.989294188793      -0.12914618101      0.989294188793      -0.12914618101      0.00743114169948    0.0492359131464     
9000000000.0        0.00757687865591    0.0497788041677     0.989074860078      -0.130590977798     0.989074860078      -0.130590977798     0.00757687865591    0.0497788041677     
9100000000.0        0.00772422829723    0.050321367227      0.988853090275      -0.132035522309     0.988853090275      -0.132035522309     0.00772422829723    0.050321367227      
9200000000.0        0.00787319035007    0.0508635992715     0.98862887934       -0.133479810594     0.98862887934       -0.133479810594     0.00787319035007    0.0508635992715     
9300000000.0        0.0080237645378     0.0514054972535     0.988402227234      -0.134923838696     0.988402227234      -0.134923838696     0.0080237645378     0.0514054972535     
9400000000.0        0.00817595058054    0.051947058131      0.988173133921      -0.136367602652     0.988173133921      -0.136367602652     0.00817595058054    0.051947058131      
9500000000.0        0.00832974819531    0.0524882788671     0.987941599375      -0.137811098495     0.987941599375      -0.137811098495     0.00832974819531    0.0524882788671     
9600000000.0        0.00848515709602    0.0530291564299     0.98770762357       -0.139254322251     0.98770762357       -0.139254322251     0.00848515709602    0.0530291564299     
9700000000.0        0.00864217699361    0.0535696877927     0.987471206489      -0.140697269942     0.987471206489      -0.140697269942     0.00864217699361    0.0535696877927     
9800000000.0        0.00880080759608    0.0541098699334     0.987232348118      -0.142139937582     0.987232348118      -0.142139937582     0.00880080759608    0.0541098699334     
9900000000.0        0.00896104860859    0.0546496998349     0.986991048449      -0.143582321183     0.986991048449      -0.143582321183     0.00896104860859    0.0546496998349     
10000000000.0       0.00912289973345    0.0551891744844     0.986747307479      -0.145024416748     0.986747307479      -0.145024416748     0.00912289973345    0.0551891744844     
