# Hz S RI R 50.00 
100000000.0         0.103216917342      0.00240100490386    0.896780222488      -0.00360527673968   0.896780222488      -0.00360527673968   0.103216917342      0.00240100490386    
200000000.0         0.103852425501      0.00479363695397    0.896141347503      -0.00720218179146   0.896141347503      -0.00720218179146   0.103852425501      0.00479363695397    
300000000.0         0.104340356392      0.00718108679488    0.895648542444      -0.0107939090842    0.895648542444      -0.0107939090842    0.104340356392      0.00718108679488    
400000000.0         0.104761912161      0.00956435086264    0.89522060467       -0.0143814581824    0.89522060467       -0.0143814581824    0.104761912161      0.00956435086264    
500000000.0         0.105148450871      0.0119439147524     0.894826175695      -0.0179653177319    0.894826175695      -0.0179653177319    0.105148450871      0.0119439147524     
600000000.0         0.105516001932      0.0143200377387     0.894449225729      -0.0215457500073    0.894449225729      -0.0215457500073    0.105516001932      0.0143200377387     
700000000.0         0.105874052275      0.0166928550076     0.894080267476      -0.0251228931584    0.894080267476      -0.0251228931584    0.105874052275      0.0166928550076     
800000000.0         0.106228756986      0.0190624250912     0.893713145496      -0.0286968086529    0.893713145496      -0.0286968086529    0.106228756986      0.0190624250912     
900000000.0         0.10658437052       0.0214287553557     0.893343604982      -0.0322675067698    0.893343604982      -0.0322675067698    0.10658437052       0.0214287553557     
1000000000.0        0.106943972971      0.0237918171007     0.892968565484      -0.0358349617025    0.892968565484      -0.0358349617025    0.106943972971      0.0237918171007     
1100000000.0        0.107309874243      0.0261515551561     0.892585716736      -0.039399121159     0.892585716736      -0.039399121159     0.107309874243      0.0261515551561     
1200000000.0        0.107683855146      0.0285078943163     0.892193277559      -0.0429599127977    0.892193277559      -0.0429599127977    0.107683855146      0.0285078943163     
1300000000.0        0.108067319234      0.03086074384       0.891789844018      -0.0465172487292    0.891789844018      -0.0465172487292    0.108067319234      0.03086074384       
1400000000.0        0.108461392726      0.033210000706      0.891374289501      -0.0500710287733    0.891374289501      -0.0500710287733    0.108461392726      0.033210000706      
1500000000.0        0.108866992651      0.0355555520379     0.890945696571      -0.0536211428848    0.890945696571      -0.0536211428848    0.108866992651      0.0355555520379     
1600000000.0        0.109284874773      0.0378972769525     0.890503309044      -0.0571674730031    0.890503309044      -0.0571674730031    0.109284874773      0.0378972769525     
1700000000.0        0.109715668151      0.0402350480003     0.890046497425      -0.0607098944931    0.890046497425      -0.0607098944931    0.109715668151      0.0402350480003     
1800000000.0        0.110159900642      0.0425687323061     0.889574733405      -0.0642482772865    0.889574733405      -0.0642482772865    0.110159900642      0.0425687323061     
1900000000.0        0.11061801807       0.0448981924893     0.889087570689      -0.0677824868029    0.889087570689      -0.0677824868029    0.11061801807       0.0448981924893     
2000000000.0        0.111090398898      0.0472232874146     0.888584630329      -0.0713123847007    0.888584630329      -0.0713123847007    0.111090398898      0.0472232874146     
2100000000.0        0.111577365613      0.0495438728144     0.888065589337      -0.0748378295003    0.888065589337      -0.0748378295003    0.111577365613      0.0495438728144     
2200000000.0        0.112079193691      0.0518598018092     0.887530171711      -0.0783586771042    0.887530171711      -0.0783586771042    0.112079193691      0.0518598018092     
2300000000.0        0.112596118743      0.054170925348      0.886978141303      -0.0818747812387    0.886978141303      -0.0818747812387    0.112596118743      0.054170925348      
2400000000.0        0.113128342268      0.0564770925852     0.886409296055      -0.0853859938302    0.886409296055      -0.0853859938302    0.113128342268      0.0564770925852     
2500000000.0        0.113676036332      0.0587781512048     0.885823463325      -0.0888921653301    0.885823463325      -0.0888921653301    0.113676036332      0.0587781512048     
2600000000.0        0.114239347413      0.0610739477026     0.885220496037      -0.092393144997     0.885220496037      -0.092393144997     0.114239347413      0.0610739477026     
2700000000.0        0.114818399586      0.063364327633      0.884600269501      -0.0958887811443    0.884600269501      -0.0958887811443    0.114818399586      0.063364327633      
2800000000.0        0.11541329718       0.0656491358276     0.883962678754      -0.099378921358     0.883962678754      -0.099378921358     0.11541329718       0.0656491358276     
2900000000.0        0.116024127007      0.0679282165883     0.883307636328      -0.102863412691     0.883307636328      -0.102863412691     0.116024127007      0.0679282165883     
3000000000.0        0.116650960258      0.0702014138605     0.88263507036       -0.106342101835     0.88263507036       -0.106342101835     0.116650960258      0.0702014138605     
3100000000.0        0.117293854106      0.0724685713884     0.88194492298       -0.109814835279     0.88194492298       -0.109814835279     0.117293854106      0.0724685713884     
3200000000.0        0.117952853091      0.0747295328559     0.881237148937      -0.113281459446     0.881237148937      -0.113281459446     0.117952853091      0.0747295328559     
3300000000.0        0.118627990303      0.0769841420141     0.880511714404      -0.116741820824     0.880511714404      -0.116741820824     0.118627990303      0.0769841420141     
3400000000.0        0.119319288413      0.0792322427976     0.879768595957      -0.120195766081     0.879768595957      -0.120195766081     0.119319288413      0.0792322427976     
3500000000.0        0.120026760567      0.0814736794317     0.879007779673      -0.123643142172     0.879007779673      -0.123643142172     0.120026760567      0.0814736794317     
3600000000.0        0.12075041117       0.0837082965301     0.878229260353      -0.12708379644      0.878229260353      -0.12708379644      0.12075041117       0.0837082965301     
3700000000.0        0.121490236576      0.0859359391862     0.877433040828      -0.1305175767       0.877433040828      -0.1305175767       0.121490236576      0.0859359391862     
3800000000.0        0.122246225688      0.088156453057      0.876619131355      -0.133944331333     0.876619131355      -0.133944331333     0.122246225688      0.088156453057      
3900000000.0        0.123018360505      0.0903696844418     0.875787549081      -0.137363909356     0.875787549081      -0.137363909356     0.123018360505      0.0903696844418     
4000000000.0        0.123806616593      0.0925754803544     0.874938317561      -0.140776160499     0.874938317561      -0.140776160499     0.123806616593      0.0925754803544     
4100000000.0        0.124610963517      0.0947736885924     0.87407146633       -0.144180935273     0.87407146633       -0.144180935273     0.124610963517      0.0947736885924     
4200000000.0        0.125431365221      0.0969641578008     0.873187030524      -0.147578085034     0.873187030524      -0.147578085034     0.125431365221      0.0969641578008     
4300000000.0        0.126267780378      0.099146737532      0.87228505053       -0.150967462042     0.87228505053       -0.150967462042     0.126267780378      0.099146737532      
4400000000.0        0.127120162695      0.101321278303      0.871365571678      -0.15434891952      0.871365571678      -0.15434891952      0.127120162695      0.101321278303      
4500000000.0        0.127988461202      0.10348763165       0.870428643956      -0.157722311706     0.870428643956      -0.157722311706     0.127988461202      0.10348763165       
4600000000.0        0.128872620505      0.105645650175      0.869474321753      -0.161087493906     0.869474321753      -0.161087493906     0.128872620505      0.105645650175      
4700000000.0        0.129772581021      0.1077951876        0.868502663627      -0.164444322539     0.868502663627      -0.164444322539     0.129772581021      0.1077951876        
4800000000.0        0.130688279193      0.109936098806      0.867513732087      -0.167792655182     0.867513732087      -0.167792655182     0.130688279193      0.109936098806      
4900000000.0        0.13161964769       0.112068239883      0.866507593398      -0.171132350619     0.866507593398      -0.171132350619     0.13161964769       0.112068239883      
5000000000.0        0.132566615583      0.114191468163      0.865484317398      -0.174463268874     0.865484317398      -0.174463268874     0.132566615583      0.114191468163      
5100000000.0        0.13352910852       0.116305642266      0.864443977329      -0.177785271256     0.864443977329      -0.177785271256     0.13352910852       0.116305642266      
5200000000.0        0.134507048877      0.118410622135      0.863386649683      -0.181098220395     0.863386649683      -0.181098220395     0.134507048877      0.118410622135      
5300000000.0        0.135500355904      0.120506269068      0.862312414055      -0.184401980275     0.862312414055      -0.184401980275     0.135500355904      0.120506269068      
5400000000.0        0.136508945862      0.122592445758      0.861221353009      -0.187696416271     0.861221353009      -0.187696416271     0.136508945862      0.122592445758      
5500000000.0        0.137532732148      0.124669016319      0.860113551952      -0.190981395179     0.860113551952      -0.190981395179     0.137532732148      0.124669016319      
5600000000.0        0.138571625414      0.126735846321      0.858989099013      -0.194256785246     0.858989099013      -0.194256785246     0.138571625414      0.126735846321      
5700000000.0        0.139625533678      0.128792802816      0.857848084933      -0.197522456202     0.857848084933      -0.197522456202     0.139625533678      0.128792802816      
5800000000.0        0.140694362432      0.130839754368      0.85669060296       -0.200778279285     0.85669060296       -0.200778279285     0.140694362432      0.130839754368      
5900000000.0        0.141778014737      0.13287657108       0.855516748748      -0.20402412727      0.855516748748      -0.20402412727      0.141778014737      0.13287657108       
6000000000.0        0.142876391321      0.134903124617      0.854326620263      -0.207259874493     0.854326620263      -0.207259874493     0.142876391321      0.134903124617      
6100000000.0        0.143989390667      0.136919288231      0.853120317695      -0.210485396875     0.853120317695      -0.210485396875     0.143989390667      0.136919288231      
6200000000.0        0.145116909102      0.138924936785      0.85189794337       -0.213700571944     0.85189794337       -0.213700571944     0.145116909102      0.138924936785      
6300000000.0        0.14625884087       0.140919946774      0.850659601669      -0.216905278861     0.850659601669      -0.216905278861     0.14625884087       0.140919946774      
6400000000.0        0.147415078219      0.142904196346      0.849405398954      -0.220099398434     0.849405398954      -0.220099398434     0.147415078219      0.142904196346      
6500000000.0        0.148585511472      0.14487756532       0.848135443486      -0.223282813146     0.848135443486      -0.223282813146     0.148585511472      0.14487756532       
6600000000.0        0.149770029096      0.146839935208      0.84684984536       -0.226455407164     0.84684984536       -0.226455407164     0.149770029096      0.146839935208      
6700000000.0        0.150968517777      0.148791189229      0.845548716433      -0.229617066366     0.845548716433      -0.229617066366     0.150968517777      0.148791189229      
6800000000.0        0.15218086248       0.150731212331      0.844232170257      -0.232767678352     0.844232170257      -0.232767678352     0.15218086248       0.150731212331      
6900000000.0        0.153406946518      0.152659891199      0.842900322016      -0.235907132461     0.842900322016      -0.235907132461     0.153406946518      0.152659891199      
7000000000.0        0.154646651612      0.154577114277      0.841553288463      -0.239035319788     0.841553288463      -0.239035319788     0.154646651612      0.154577114277      
7100000000.0        0.155899857953      0.156482771778      0.840191187861      -0.242152133194     0.840191187861      -0.242152133194     0.155899857953      0.156482771778      
7200000000.0        0.157166444255      0.158376755701      0.838814139924      -0.245257467325     0.838814139924      -0.245257467325     0.157166444255      0.158376755701      
7300000000.0        0.158446287819      0.160258959837      0.837422265759      -0.248351218616     0.837422265759      -0.248351218616     0.158446287819      0.160258959837      
7400000000.0        0.159739264582      0.162129279787      0.836015687813      -0.251433285311     0.836015687813      -0.251433285311     0.159739264582      0.162129279787      
7500000000.0        0.161045249175      0.163987612968      0.834594529821      -0.254503567469     0.834594529821      -0.254503567469     0.161045249175      0.163987612968      
7600000000.0        0.162364114971      0.165833858627      0.833158916747      -0.257561966975     0.833158916747      -0.257561966975     0.162364114971      0.165833858627      
7700000000.0        0.163695734139      0.167667917845      0.831708974742      -0.260608387546     0.831708974742      -0.260608387546     0.163695734139      0.167667917845      
7800000000.0        0.165039977693      0.16948969355       0.830244831088      -0.263642734746     0.830244831088      -0.263642734746     0.165039977693      0.16948969355       
7900000000.0        0.166396715539      0.171299090521      0.82876661415       -0.266664915988     0.82876661415       -0.266664915988     0.166396715539      0.171299090521      
8000000000.0        0.167765816524      0.1730960154        0.827274453331      -0.269674840542     0.827274453331      -0.269674840542     0.167765816524      0.1730960154        
8100000000.0        0.169147148484      0.174880376689      0.825768479024      -0.272672419543     0.825768479024      -0.272672419543     0.169147148484      0.174880376689      
8200000000.0        0.170540578286      0.176652084767      0.824248822566      -0.275657565994     0.824248822566      -0.275657565994     0.170540578286      0.176652084767      
8300000000.0        0.171945971875      0.178411051883      0.822715616195      -0.278630194771     0.822715616195      -0.278630194771     0.171945971875      0.178411051883      
8400000000.0        0.173363194317      0.180157192171      0.821168993004      -0.281590222629     0.821168993004      -0.281590222629     0.173363194317      0.180157192171      
8500000000.0        0.174792109841      0.181890421643      0.8196090869        -0.284537568203     0.8196090869        -0.284537568203     0.174792109841      0.181890421643      
8600000000.0        0.176232581886      0.1836106582        0.818036032559      -0.287472152014     0.818036032559      -0.287472152014     0.176232581886      0.1836106582        
8700000000.0        0.177684473134      0.185317821631      0.816449965388      -0.290393896466     0.816449965388      -0.290393896466     0.177684473134      0.185317821631      
8800000000.0        0.179147645558      0.187011833612      0.814851021483      -0.293302725851     0.814851021483      -0.293302725851     0.179147645558      0.187011833612      
8900000000.0        0.180621960459      0.188692617709      0.813239337588      -0.296198566349     0.813239337588      -0.296198566349     0.180621960459      0.188692617709      
9000000000.0        0.182107278506      0.190360099381      0.811615051056      -0.299081346028     0.811615051056      -0.299081346028     0.182107278506      0.190360099381      
9100000000.0        0.183603459772      0.192014205974      0.809978299812      -0.301950994845     0.809978299812      -0.301950994845     0.183603459772      0.192014205974      
9200000000.0        0.185110363776      0.193654866723      0.808329222313      -0.304807444642     0.808329222313      -0.304807444642     0.185110363776      0.193654866723      
9300000000.0        0.186627849519      0.195282012751      0.80666795751       -0.307650629147     0.80666795751       -0.307650629147     0.186627849519      0.195282012751      
9400000000.0        0.188155775519      0.196895577065      0.804994644814      -0.310480483969     0.804994644814      -0.310480483969     0.188155775519      0.196895577065      
9500000000.0        0.18969399985       0.198495494556      0.803309424058      -0.313296946599     0.803309424058      -0.313296946599     0.18969399985       0.198495494556      
9600000000.0        0.191242380174      0.20008170199       0.801612435462      -0.316099956404     0.801612435462      -0.316099956404     0.191242380174      0.20008170199       
9700000000.0        0.192800773779      0.201654138013      0.799903819595      -0.318889454625     0.799903819595      -0.318889454625     0.192800773779      0.201654138013      
9800000000.0        0.194369037615      0.203212743138      0.798183717347      -0.321665384371     0.798183717347      -0.321665384371     0.194369037615      0.203212743138      
9900000000.0        0.195947028323      0.204757459746      0.796452269887      -0.324427690614     0.796452269887      -0.324427690614     0.195947028323      0.204757459746      
10000000000.0       0.197534602271      0.206288232079      0.794709618634      -0.327176320187     0.794709618634      -0.327176320187     0.197534602271      0.206288232079      
