# Hz S RI R 50.00 
100000000.0         0.000442086447372   -0.00311453372399   0.999506063907      -0.00604764641894   0.999506063907      -0.00604764641894   0.000442086447372   -0.00311453372399   
200000000.0         0.000384281898048   -0.00622882654305   0.999429052235      -0.0120951636854    0.999429052235      -0.0120951636854    0.000384281898048   -0.00622882654305   
300000000.0         0.000287987359666   -0.00934252339773   0.999306557424      -0.0181422885435    0.999306557424      -0.0181422885435    0.000287987359666   -0.00934252339773   
400000000.0         0.000153606389743   -0.0124552308222    0.99913817481       -0.0241886929654    0.99913817481       -0.0241886929654    0.000153606389743   -0.0124552308222    
500000000.0         -1.87010031378e-05  -0.0155665337321    0.998923751101      -0.0302340167654    0.998923751101      -0.0302340167654    -1.87010031378e-05  -0.0155665337321    
600000000.0         -0.000228845749786  -0.0186760021612    0.998663213235      -0.0362778785493    0.998663213235      -0.0362778785493    -0.000228845749786  -0.0186760021612    
700000000.0         -0.000476765567498  -0.021783194903     0.998356525282      -0.0423198813091    0.998356525282      -0.0423198813091    -0.000476765567498  -0.021783194903     
800000000.0         -0.000762408655202  -0.0248876618068    0.998003672958      -0.0483596158258    0.998003672958      -0.0483596158258    -0.000762408655202  -0.0248876618068    
900000000.0         -0.00108572629681   -0.0279889453761    0.997604656899      -0.0543966629673    0.997604656899      -0.0543966629673    -0.00108572629681   -0.0279889453761    
1000000000.0        -0.00144666901043   -0.0310865819599    0.997159489363      -0.0604305953576    0.997159489363      -0.0604305953576    -0.00144666901043   -0.0310865819599    
1100000000.0        -0.00184518433051   -0.0341801026895    0.996668192489      -0.0664609786569    0.996668192489      -0.0664609786569    -0.00184518433051   -0.0341801026895    
1200000000.0        -0.00228121542668   -0.0372690342454    0.996130797326      -0.072487372585     0.996130797326      -0.072487372585     -0.00228121542668   -0.0372690342454    
1300000000.0        -0.00275470018825   -0.0403528995047    0.995547343267      -0.0785093317679    0.995547343267      -0.0785093317679    -0.00275470018825   -0.0403528995047    
1400000000.0        -0.00326557058607   -0.0434312181051    0.994917877729      -0.0845264064571    0.994917877729      -0.0845264064571    -0.00326557058607   -0.0434312181051    
1500000000.0        -0.00381375220924   -0.0465035069434    0.994242455955      -0.0905381431556    0.994242455955      -0.0905381431556    -0.00381375220924   -0.0465035069434    
1600000000.0        -0.00439916391775   -0.0495692806266    0.993521140904      -0.0965440851725    0.993521140904      -0.0965440851725    -0.00439916391775   -0.0495692806266    
1700000000.0        -0.00502171757542   -0.0526280518852    0.99275400319       -0.102543773122     0.99275400319       -0.102543773122     -0.00502171757542   -0.0526280518852    
1800000000.0        -0.00568131784071   -0.0556793319559    0.991941121054      -0.108536745379     0.991941121054      -0.108536745379     -0.00568131784071   -0.0556793319559    
1900000000.0        -0.00637786200101   -0.0587226309403    0.991082580344      -0.1145225385       0.991082580344      -0.1145225385       -0.00637786200101   -0.0587226309403    
2000000000.0        -0.00711123984034   -0.0617574581436    0.990178474515      -0.120500687615     0.990178474515      -0.120500687615     -0.00711123984034   -0.0617574581436    
2100000000.0        -0.00788133353401   -0.064783322396     0.989228904629      -0.126470726792     0.989228904629      -0.126470726792     -0.00788133353401   -0.064783322396     
2200000000.0        -0.00868801756514   -0.0677997323605    0.988233979354      -0.132432189389     0.988233979354      -0.132432189389     -0.00868801756514   -0.0677997323605    
2300000000.0        -0.00953115865985   -0.0708061968281    0.987193814967      -0.138384608383     0.987193814967      -0.138384608383     -0.00953115865985   -0.0708061968281    
2400000000.0        -0.0104106157382    -0.073802225002     0.986108535353      -0.144327516681     0.986108535353      -0.144327516681     -0.0104106157382    -0.073802225002     
2500000000.0        -0.0113262398795    -0.076787326773     0.984978271991      -0.150260447428     0.984978271991      -0.150260447428     -0.0113262398795    -0.076787326773     
2600000000.0        -0.0122778742992    -0.0797610129854    0.983803163952      -0.156182934295     0.983803163952      -0.156182934295     -0.0122778742992    -0.0797610129854    
2700000000.0        -0.0132653543386    -0.0827227956966    0.982583357876      -0.162094511759     0.982583357876      -0.162094511759     -0.0132653543386    -0.0827227956966    
2800000000.0        -0.0142885074631    -0.0856721884278    0.981319007951      -0.167994715375     0.981319007951      -0.167994715375     -0.0142885074631    -0.0856721884278    
2900000000.0        -0.0153471532713    -0.0886087064097    0.980010275888      -0.173883082038     0.980010275888      -0.173883082038     -0.0153471532713    -0.0886087064097    
3000000000.0        -0.0164411035124    -0.0915318668212    0.978657330885      -0.179759150237     0.978657330885      -0.179759150237     -0.0164411035124    -0.0915318668212    
3100000000.0        -0.0175701621123    -0.0944411890221    0.97726034959       -0.185622460304     0.97726034959       -0.185622460304     -0.0175701621123    -0.0944411890221    
3200000000.0        -0.018734125207     -0.0973361947811    0.975819516053      -0.191472554649     0.975819516053      -0.191472554649     -0.018734125207     -0.0973361947811    
3300000000.0        -0.0199327811841    -0.100216408497     0.974335021674      -0.197308977999     0.974335021674      -0.197308977999     -0.0199327811841    -0.100216408497     
3400000000.0        -0.021165910731     -0.103081357417     0.972807065153      -0.203131277624     0.972807065153      -0.203131277624     -0.021165910731     -0.103081357417     
3500000000.0        -0.0224332868899    -0.105930571846     0.971235852421      -0.208939003556     0.971235852421      -0.208939003556     -0.0224332868899    -0.105930571846     
3600000000.0        -0.0237346751193    -0.108763585356     0.969621596572      -0.214731708804     0.969621596572      -0.214731708804     -0.0237346751193    -0.108763585356     
3700000000.0        -0.0250698333622    -0.111579934985     0.967964517796      -0.220508949565     0.967964517796      -0.220508949565     -0.0250698333622    -0.111579934985     
3800000000.0        -0.0264385121188    -0.114379161437     0.966264843293      -0.226270285428     0.966264843293      -0.226270285428     -0.0264385121188    -0.114379161437     
3900000000.0        -0.0278404545267    -0.117160809271     0.964522807195      -0.232015279571     0.964522807195      -0.232015279571     -0.0278404545267    -0.117160809271     
4000000000.0        -0.0292753964452    -0.119924427091     0.962738650473      -0.237743498956     0.962738650473      -0.237743498956     -0.0292753964452    -0.119924427091     
4100000000.0        -0.0307430665453    -0.122669567728     0.960912620845      -0.243454514511     0.960912620845      -0.243454514511     -0.0307430665453    -0.122669567728     
4200000000.0        -0.0322431864048    -0.125395788414     0.959044972682      -0.249147901321     0.959044972682      -0.249147901321     -0.0322431864048    -0.125395788414     
4300000000.0        -0.0337754706083    -0.128102650961     0.957135966896      -0.254823238795     0.957135966896      -0.254823238795     -0.0337754706083    -0.128102650961     
4400000000.0        -0.0353396268512    -0.130789721924     0.955185870843      -0.260480110848     0.955185870843      -0.260480110848     -0.0353396268512    -0.130789721924     
4500000000.0        -0.0369353560486    -0.133456572766     0.953194958203      -0.266118106058     0.953194958203      -0.266118106058     -0.0369353560486    -0.133456572766     
4600000000.0        -0.0385623524488    -0.136102780018     0.95116350887       -0.271736817834     0.95116350887       -0.271736817834     -0.0385623524488    -0.136102780018     
4700000000.0        -0.0402203037499    -0.138727925431     0.949091808832      -0.277335844568     0.949091808832      -0.277335844568     -0.0402203037499    -0.138727925431     
4800000000.0        -0.0419088912208    -0.141331596125     0.946980150045      -0.282914789788     0.946980150045      -0.282914789788     -0.0419088912208    -0.141331596125     
4900000000.0        -0.0436277898258    -0.143913384733     0.944828830311      -0.288473262304     0.944828830311      -0.288473262304     -0.0436277898258    -0.143913384733     
5000000000.0        -0.0453766683529    -0.14647288954      0.942638153143      -0.294010876346     0.942638153143      -0.294010876346     -0.0453766683529    -0.14647288954      
5100000000.0        -0.0471551895448    -0.149009714617     0.940408427636      -0.299527251704     0.940408427636      -0.299527251704     -0.0471551895448    -0.149009714617     
5200000000.0        -0.0489630102334    -0.151523469952     0.938139968329      -0.305022013852     0.938139968329      -0.305022013852     -0.0489630102334    -0.151523469952     
5300000000.0        -0.0507997814775    -0.154013771571     0.935833095065      -0.310494794078     0.935833095065      -0.310494794078     -0.0507997814775    -0.154013771571     
5400000000.0        -0.0526651487027    -0.15648024166      0.933488132849      -0.315945229603     0.933488132849      -0.315945229603     -0.0526651487027    -0.15648024166      
5500000000.0        -0.0545587518442    -0.158922508679     0.931105411708      -0.321372963692     0.931105411708      -0.321372963692     -0.0545587518442    -0.158922508679     
5600000000.0        -0.0564802254923    -0.16134020747      0.928685266538      -0.326777645769     0.928685266538      -0.326777645769     -0.0564802254923    -0.16134020747      
5700000000.0        -0.0584291990394    -0.163732979365     0.926228036958      -0.332158931518     0.926228036958      -0.332158931518     -0.0584291990394    -0.163732979365     
5800000000.0        -0.0604052968298    -0.16610047228      0.923734067157      -0.337516482983     0.923734067157      -0.337516482983     -0.0604052968298    -0.16610047228      
5900000000.0        -0.0624081383114    -0.168442340815     0.921203705747      -0.342849968661     0.921203705747      -0.342849968661     -0.0624081383114    -0.168442340815     
6000000000.0        -0.0644373381884    -0.170758246342     0.918637305598      -0.348159063592     0.918637305598      -0.348159063592     -0.0644373381884    -0.170758246342     
6100000000.0        -0.0664925065766    -0.173047857088     0.916035223691      -0.353443449445     0.916035223691      -0.353443449445     -0.0664925065766    -0.173047857088     
6200000000.0        -0.0685732491594    -0.175310848216     0.913397820955      -0.358702814593     0.913397820955      -0.358702814593     -0.0685732491594    -0.175310848216     
6300000000.0        -0.0706791673453    -0.177546901901     0.910725462109      -0.363936854187     0.910725462109      -0.363936854187     -0.0706791673453    -0.177546901901     
6400000000.0        -0.0728098584269    -0.179755707399     0.908018515502      -0.369145270229     0.908018515502      -0.369145270229     -0.0728098584269    -0.179755707399     
6500000000.0        -0.07496491574      -0.181936961113     0.905277352952      -0.374327771629     0.905277352952      -0.374327771629     -0.07496491574      -0.181936961113     
6600000000.0        -0.0771439288244    -0.184090366652     0.902502349584      -0.379484074272     0.902502349584      -0.379484074272     -0.0771439288244    -0.184090366652     
6700000000.0        -0.0793464835848    -0.186215634886     0.899693883668      -0.384613901062     0.899693883668      -0.384613901062     -0.0793464835848    -0.186215634886     
6800000000.0        -0.0815721624527    -0.188312484002     0.896852336453      -0.389716981981     0.896852336453      -0.389716981981     -0.0815721624527    -0.188312484002     
6900000000.0        -0.083820544548     -0.190380639542     0.893978092006      -0.394793054124     0.893978092006      -0.394793054124     -0.083820544548     -0.190380639542     
7000000000.0        -0.0860912058411    -0.192419834452     0.89107153705       -0.399841861744     0.89107153705       -0.399841861744     -0.0860912058411    -0.192419834452     
7100000000.0        -0.0883837193159    -0.194429809113     0.888133060794      -0.404863156285     0.888133060794      -0.404863156285     -0.0883837193159    -0.194429809113     
7200000000.0        -0.0906976551312    -0.196410311377     0.885163054776      -0.40985669641      0.885163054776      -0.40985669641      -0.0906976551312    -0.196410311377     
7300000000.0        -0.0930325807831    -0.198361096593     0.882161912695      -0.41482224803      0.882161912695      -0.41482224803      -0.0930325807831    -0.198361096593     
7400000000.0        -0.0953880612668    -0.200281927631     0.879130030249      -0.41975958432      0.879130030249      -0.41975958432      -0.0953880612668    -0.200281927631     
7500000000.0        -0.0977636592377    -0.202172574899     0.876067804972      -0.424668485735     0.876067804972      -0.424668485735     -0.0977636592377    -0.202172574899     
7600000000.0        -0.100158935172     -0.204032816359     0.872975636072      -0.429548740028     0.872975636072      -0.429548740028     -0.100158935172     -0.204032816359     
7700000000.0        -0.102573447528     -0.205862437536     0.86985392427       -0.434400142248     0.86985392427       -0.434400142248     -0.102573447528     -0.205862437536     
7800000000.0        -0.105006752902     -0.207661231526     0.866703071638      -0.439222494749     0.866703071638      -0.439222494749     -0.105006752902     -0.207661231526     
7900000000.0        -0.107458406191     -0.209428998994     0.863523481437      -0.444015607186     0.863523481437      -0.444015607186     -0.107458406191     -0.209428998994     
8000000000.0        -0.109927960746     -0.211165548175     0.860315557963      -0.44877929651      0.860315557963      -0.44877929651      -0.109927960746     -0.211165548175     
8100000000.0        -0.112414968531     -0.212870694865     0.857079706388      -0.453513386956     0.857079706388      -0.453513386956     -0.112414968531     -0.212870694865     
8200000000.0        -0.114918980276     -0.214544262412     0.853816332599      -0.458217710032     0.853816332599      -0.458217710032     -0.114918980276     -0.214544262412     
8300000000.0        -0.11743954563      -0.216186081702     0.850525843048      -0.4628921045       0.850525843048      -0.4628921045       -0.11743954563      -0.216186081702     
8400000000.0        -0.119976213316     -0.217795991139     0.847208644598      -0.467536416353     0.847208644598      -0.467536416353     -0.119976213316     -0.217795991139     
8500000000.0        -0.122528531278     -0.219373836624     0.843865144367      -0.472150498789     0.843865144367      -0.472150498789     -0.122528531278     -0.219373836624     
8600000000.0        -0.125096046831     -0.220919471533     0.840495749581      -0.476734212185     0.840495749581      -0.476734212185     -0.125096046831     -0.220919471533     
8700000000.0        -0.12767830681      -0.222432756681     0.837100867425      -0.48128742406      0.837100867425      -0.48128742406      -0.12767830681      -0.222432756681     
8800000000.0        -0.130274857713     -0.223913560296     0.833680904895      -0.485810009042     0.833680904895      -0.485810009042     -0.130274857713     -0.223913560296     
8900000000.0        -0.132885245843     -0.22536175798      0.830236268654      -0.490301848823     0.830236268654      -0.490301848823     -0.132885245843     -0.22536175798      
9000000000.0        -0.135509017453     -0.226777232672     0.826767364885      -0.494762832122     0.826767364885      -0.494762832122     -0.135509017453     -0.226777232672     
9100000000.0        -0.138145718884     -0.228159874602     0.823274599159      -0.499192854632     0.823274599159      -0.499192854632     -0.138145718884     -0.228159874602     
9200000000.0        -0.140794896701     -0.22950958125      0.819758376286      -0.503591818976     0.819758376286      -0.503591818976     -0.140794896701     -0.22950958125      
9300000000.0        -0.14345609783      -0.230826257295     0.816219100184      -0.507959634649     0.816219100184      -0.507959634649     -0.14345609783      -0.230826257295     
9400000000.0        -0.146128869687     -0.232109814565     0.812657173744      -0.512296217965     0.812657173744      -0.512296217965     -0.146128869687     -0.232109814565     
9500000000.0        -0.148812760314     -0.233360171982     0.809072998697      -0.516601491997     0.809072998697      -0.516601491997     -0.148812760314     -0.233360171982     
9600000000.0        -0.151507318503     -0.234577255507     0.805466975485      -0.520875386517     0.805466975485      -0.520875386517     -0.151507318503     -0.234577255507     
9700000000.0        -0.154212093924     -0.235760998076     0.801839503131      -0.525117837928     0.801839503131      -0.525117837928     -0.154212093924     -0.235760998076     
9800000000.0        -0.156926637244     -0.236911339546     0.798190979119      -0.529328789201     0.798190979119      -0.529328789201     -0.156926637244     -0.236911339546     
9900000000.0        -0.159650500256     -0.238028226622     0.794521799267      -0.533508189803     0.794521799267      -0.533508189803     -0.159650500256     -0.238028226622     
10000000000.0       -0.162383235987     -0.239111612798     0.79083235761       -0.537655995626     0.79083235761       -0.537655995626     -0.162383235987     -0.239111612798     
