# Hz S RI R 50.00 
100000000.0         0.00671849718349    0.000793373388974   0.993280041025      -0.00120290240769   0.993280041025      -0.00120290240769   0.00671849718349    0.000793373388974   
200000000.0         0.00676537608977    0.00158656454812    0.993232532226      -0.00240562383804   0.993232532226      -0.00240562383804   0.00676537608977    0.00158656454812    
300000000.0         0.00680228177154    0.00237964007482    0.993194828543      -0.00360823172706   0.993194828543      -0.00360823172706   0.00680228177154    0.00237964007482    
400000000.0         0.00683503152674    0.00317261966819    0.99316111267       -0.00481074643907   0.99316111267       -0.00481074643907   0.00683503152674    0.00317261966819    
500000000.0         0.00686586935157    0.00396551211196    0.993129140602      -0.00601317733635   0.993129140602      -0.00601317733635   0.00686586935157    0.00396551211196    
600000000.0         0.00689594142332    0.00475832135357    0.993097766153      -0.00721552888861   0.993097766153      -0.00721552888861   0.00689594142332    0.00475832135357    
700000000.0         0.00692592581372    0.00555104868771    0.993066311241      -0.00841780287199   0.993066311241      -0.00841780287199   0.00692592581372    0.00555104868771    
800000000.0         0.00695626245457    0.00634369376893    0.993034335926      -0.009619999391     0.993034335926      -0.009619999391     0.00695626245457    0.00634369376893    
900000000.0         0.00698725559028    0.00713625515555    0.993001535953      -0.0108221174283    0.993001535953      -0.0108221174283    0.00698725559028    0.00713625515555    
1000000000.0        0.00701912573872    0.00792873063143    0.992967690792      -0.0120241551709    0.992967690792      -0.0120241551709    0.00701912573872    0.00792873063143    
1100000000.0        0.00705203859207    0.00872111741032    0.992932634741      -0.0132261102177    0.992932634741      -0.0132261102177    0.00705203859207    0.00872111741032    
1200000000.0        0.00708612224754    0.00951341227264    0.992896239689      -0.0144279797183    0.992896239689      -0.0144279797183    0.00708612224754    0.00951341227264    
1300000000.0        0.00712147805423    0.0103056116609     0.992858404276      -0.0156297604706    0.992858404276      -0.0156297604706    0.00712147805423    0.0103056116609     
1400000000.0        0.0071581877466     0.0110977117487     0.992819046753      -0.0168314489914    0.992819046753      -0.0168314489914    0.0071581877466     0.0110977117487     
1500000000.0        0.00719631830802    0.0118897084915     0.992778100123      -0.0180330415682    0.992778100123      -0.0180330415682    0.00719631830802    0.0118897084915     
1600000000.0        0.00723592538849    0.0126815976658     0.992735508723      -0.0192345342992    0.992735508723      -0.0192345342992    0.00723592538849    0.0126815976658     
1700000000.0        0.00727705576896    0.0134733748993     0.992691225757      -0.0204359231248    0.992691225757      -0.0204359231248    0.00727705576896    0.0134733748993     
1800000000.0        0.00731974917801    0.0142650356941     0.992645211482      -0.0216372038512    0.992645211482      -0.0216372038512    0.00731974917801    0.0142650356941     
1900000000.0        0.00736403965722    0.0150565754461     0.992597431839      -0.0228383721707    0.992597431839      -0.0228383721707    0.00736403965722    0.0150565754461     
2000000000.0        0.00740995660494    0.0158479894605     0.992547857414      -0.0240394236771    0.992547857414      -0.0240394236771    0.00740995660494    0.0158479894605     
2100000000.0        0.00745752558636    0.0166392729639     0.992496462626      -0.0252403538795    0.992496462626      -0.0252403538795    0.00745752558636    0.0166392729639     
2200000000.0        0.00750676897057    0.0174304211153     0.992443225089      -0.0264411582123    0.992443225089      -0.0264411582123    0.00750676897057    0.0174304211153     
2300000000.0        0.00755770643777    0.0182214290145     0.992388125104      -0.027641832045     0.992388125104      -0.027641832045     0.00755770643777    0.0182214290145     
2400000000.0        0.00761035538748    0.0190122917098     0.992331145255      -0.02884237069      0.992331145255      -0.02884237069      0.00761035538748    0.0190122917098     
2500000000.0        0.0076647312703     0.0198030042041     0.992272270072      -0.0300427694086    0.992272270072      -0.0300427694086    0.0076647312703     0.0198030042041     
2600000000.0        0.00772084786002    0.0205935614602     0.992211485762      -0.0312430234173    0.992211485762      -0.0312430234173    0.00772084786002    0.0205935614602     
2700000000.0        0.00777871747865    0.0213839584057     0.992148779985      -0.0324431278922    0.992148779985      -0.0324431278922    0.00777871747865    0.0213839584057     
2800000000.0        0.00783835118391    0.0221741899371     0.992084141663      -0.0336430779737    0.992084141663      -0.0336430779737    0.00783835118391    0.0221741899371     
2900000000.0        0.00789975892656    0.0229642509229     0.992017560824      -0.0348428687699    0.992017560824      -0.0348428687699    0.00789975892656    0.0229642509229     
3000000000.0        0.00796294968327    0.0237541362071     0.991949028472      -0.0360424953602    0.991949028472      -0.0360424953602    0.00796294968327    0.0237541362071     
3100000000.0        0.00802793156952    0.0245438406117     0.991878536471      -0.0372419527977    0.991878536471      -0.0372419527977    0.00802793156952    0.0245438406117     
3200000000.0        0.00809471193602    0.0253333589392     0.991806077447      -0.0384412361125    0.991806077447      -0.0384412361125    0.00809471193602    0.0253333589392     
3300000000.0        0.00816329745159    0.0261226859749     0.991731644711      -0.0396403403132    0.991731644711      -0.0396403403132    0.00816329745159    0.0261226859749     
3400000000.0        0.00823369417461    0.0269118164884     0.991655232181      -0.0408392603898    0.991655232181      -0.0408392603898    0.00823369417461    0.0269118164884     
3500000000.0        0.00830590761505    0.0277007452358     0.991576834326      -0.0420379913148    0.991576834326      -0.0420379913148    0.00830590761505    0.0277007452358     
3600000000.0        0.00837994278838    0.0284894669609     0.991496446107      -0.0432365280451    0.991496446107      -0.0432365280451    0.00837994278838    0.0284894669609     
3700000000.0        0.00845580426281    0.029277976397      0.991414062932      -0.044434865524     0.991414062932      -0.044434865524     0.00845580426281    0.029277976397      
3800000000.0        0.00853349620067    0.0300662682675     0.991329680616      -0.0456329986818    0.991329680616      -0.0456329986818    0.00853349620067    0.0300662682675     
3900000000.0        0.00861302239485    0.0308543372877     0.99124329534       -0.0468309224376    0.99124329534       -0.0468309224376    0.00861302239485    0.0308543372877     
4000000000.0        0.00869438630108    0.0316421781657     0.991154903626      -0.0480286317001    0.991154903626      -0.0480286317001    0.00869438630108    0.0316421781657     
4100000000.0        0.00877759106646    0.0324297856029     0.9910645023        -0.0492261213691    0.9910645023        -0.0492261213691    0.00877759106646    0.0324297856029     
4200000000.0        0.00886263955489    0.0332171542957     0.990972088475      -0.050423386336     0.990972088475      -0.050423386336     0.00886263955489    0.0332171542957     
4300000000.0        0.00894953436972    0.0340042789354     0.99087765952       -0.0516204214847    0.99087765952       -0.0516204214847    0.00894953436972    0.0340042789354     
4400000000.0        0.00903827787401    0.0347911542098     0.990781213048      -0.0528172216928    0.990781213048      -0.0528172216928    0.00903827787401    0.0347911542098     
4500000000.0        0.00912887220871    0.0355777748033     0.99068274689       -0.0540137818322    0.99068274689       -0.0540137818322    0.00912887220871    0.0355777748033     
4600000000.0        0.00922131930902    0.0363641353975     0.990582259086      -0.0552100967696    0.990582259086      -0.0552100967696    0.00922131930902    0.0363641353975     
4700000000.0        0.00931562091903    0.0371502306725     0.990479747863      -0.0564061613673    0.990479747863      -0.0564061613673    0.00931562091903    0.0371502306725     
4800000000.0        0.00941177860514    0.0379360553065     0.990375211628      -0.0576019704839    0.990375211628      -0.0576019704839    0.00941177860514    0.0379360553065     
4900000000.0        0.00950979376796    0.0387216039771     0.990268648953      -0.0587975189747    0.990268648953      -0.0587975189747    0.00950979376796    0.0387216039771     
5000000000.0        0.00960966765332    0.0395068713613     0.990160058564      -0.0599928016924    0.990160058564      -0.0599928016924    0.00960966765332    0.0395068713613     
5100000000.0        0.00971140136215    0.0402918521361     0.990049439333      -0.0611878134875    0.990049439333      -0.0611878134875    0.00971140136215    0.0402918521361     
5200000000.0        0.00981499585953    0.041076540979      0.989936790264      -0.0623825492086    0.989936790264      -0.0623825492086    0.00981499585953    0.041076540979      
5300000000.0        0.00992045198291    0.0418609325682     0.989822110492      -0.0635770037035    0.989822110492      -0.0635770037035    0.00992045198291    0.0418609325682     
5400000000.0        0.0100277704497     0.0426450215833     0.98970539927       -0.0647711718186    0.98970539927       -0.0647711718186    0.0100277704497     0.0426450215833     
5500000000.0        0.010136951864      0.0434288027052     0.989586655964      -0.0659650484002    0.989586655964      -0.0659650484002    0.010136951864      0.0434288027052     
5600000000.0        0.0102479967231     0.0442122706168     0.989465880047      -0.0671586282944    0.989465880047      -0.0671586282944    0.0102479967231     0.0442122706168     
5700000000.0        0.0103609054235     0.0449954200033     0.989343071093      -0.0683519063476    0.989343071093      -0.0683519063476    0.0103609054235     0.0449954200033     
5800000000.0        0.0104756782655     0.045778245552      0.98921822877       -0.0695448774069    0.98921822877       -0.0695448774069    0.0104756782655     0.045778245552      
5900000000.0        0.010592315459      0.0465607419535     0.989091352838      -0.0707375363201    0.989091352838      -0.0707375363201    0.010592315459      0.0465607419535     
6000000000.0        0.0107108171276     0.0473429039009     0.988962443142      -0.0719298779365    0.988962443142      -0.0719298779365    0.0107108171276     0.0473429039009     
6100000000.0        0.0108311833127     0.048124726091      0.988831499609      -0.0731218971067    0.988831499609      -0.0731218971067    0.0108311833127     0.048124726091      
6200000000.0        0.0109534139776     0.048906203224      0.988698522244      -0.0743135886833    0.988698522244      -0.0743135886833    0.0109534139776     0.048906203224      
6300000000.0        0.0110775090112     0.0496873300037     0.988563511126      -0.0755049475208    0.988563511126      -0.0755049475208    0.0110775090112     0.0496873300037     
6400000000.0        0.0112034682311     0.0504681011381     0.988426466406      -0.0766959684762    0.988426466406      -0.0766959684762    0.0112034682311     0.0504681011381     
6500000000.0        0.0113312913865     0.0512485113393     0.9882873883        -0.0778866464088    0.9882873883        -0.0778866464088    0.0113312913865     0.0512485113393     
6600000000.0        0.0114609781618     0.052028555324      0.988146277093      -0.079076976181     0.988146277093      -0.079076976181     0.0114609781618     0.052028555324      
6700000000.0        0.0115925281787     0.0528082278131     0.988003133129      -0.080266952658     0.988003133129      -0.080266952658     0.0115925281787     0.0528082278131     
6800000000.0        0.0117259409986     0.0535875235327     0.987857956813      -0.0814565707084    0.987857956813      -0.0814565707084    0.0117259409986     0.0535875235327     
6900000000.0        0.0118612161256     0.0543664372136     0.987710748607      -0.0826458252042    0.987710748607      -0.0826458252042    0.0118612161256     0.0543664372136     
7000000000.0        0.0119983530079     0.0551449635919     0.987561509029      -0.0838347110209    0.987561509029      -0.0838347110209    0.0119983530079     0.0551449635919     
7100000000.0        0.0121373510404     0.0559230974089     0.98741023865       -0.0850232230381    0.98741023865       -0.0850232230381    0.0121373510404     0.0559230974089     
7200000000.0        0.0122782095664     0.0567008334116     0.987256938091      -0.0862113561392    0.987256938091      -0.0862113561392    0.0122782095664     0.0567008334116     
7300000000.0        0.0124209278794     0.0574781663524     0.987101608025      -0.0873991052121    0.987101608025      -0.0873991052121    0.0124209278794     0.0574781663524     
7400000000.0        0.0125655052247     0.0582550909895     0.986944249171      -0.0885864651487    0.986944249171      -0.0885864651487    0.0125655052247     0.0582550909895     
7500000000.0        0.0127119408012     0.0590316020873     0.986784862295      -0.0897734308457    0.986784862295      -0.0897734308457    0.0127119408012     0.0590316020873     
7600000000.0        0.0128602337625     0.0598076944159     0.986623448207      -0.0909599972046    0.986623448207      -0.0909599972046    0.0128602337625     0.0598076944159     
7700000000.0        0.0130103832188     0.060583362752      0.986460007761      -0.0921461591316    0.986460007761      -0.0921461591316    0.0130103832188     0.060583362752      
7800000000.0        0.0131623882379     0.0613586018783     0.986294541854      -0.0933319115379    0.986294541854      -0.0933319115379    0.0131623882379     0.0613586018783     
7900000000.0        0.0133162478462     0.0621334065844     0.986127051421      -0.0945172493402    0.986127051421      -0.0945172493402    0.0133162478462     0.0621334065844     
8000000000.0        0.0134719610305     0.0629077716661     0.985957537441      -0.0957021674602    0.985957537441      -0.0957021674602    0.0134719610305     0.0629077716661     
8100000000.0        0.0136295267384     0.0636816919262     0.985786000927      -0.0968866608253    0.985786000927      -0.0968866608253    0.0136295267384     0.0636816919262     
8200000000.0        0.0137889438801     0.0644551621743     0.985612442933      -0.0980707243683    0.985612442933      -0.0980707243683    0.0137889438801     0.0644551621743     
8300000000.0        0.0139502113286     0.065228177227      0.985436864548      -0.099254353028     0.985436864548      -0.099254353028     0.0139502113286     0.065228177227      
8400000000.0        0.0141133279211     0.0660007319079     0.985259266897      -0.100437541749     0.985259266897      -0.100437541749     0.0141133279211     0.0660007319079     
8500000000.0        0.0142782924599     0.0667728210481     0.98507965114       -0.101620285482     0.98507965114       -0.101620285482     0.0142782924599     0.0667728210481     
8600000000.0        0.0144451037129     0.0675444394856     0.98489801847       -0.102802579184     0.98489801847       -0.102802579184     0.0144451037129     0.0675444394856     
8700000000.0        0.0146137604148     0.0683155820661     0.984714370115      -0.103984417817     0.984714370115      -0.103984417817     0.0146137604148     0.0683155820661     
8800000000.0        0.0147842612676     0.0690862436429     0.984528707334      -0.105165796351     0.984528707334      -0.105165796351     0.0147842612676     0.0690862436429     
8900000000.0        0.0149566049412     0.0698564190768     0.984341031417      -0.106346709763     0.984341031417      -0.106346709763     0.0149566049412     0.0698564190768     
9000000000.0        0.0151307900745     0.0706261032364     0.984151343687      -0.107527153034     0.984151343687      -0.107527153034     0.0151307900745     0.0706261032364     
9100000000.0        0.0153068152757     0.0713952909981     0.983959645496      -0.108707121154     0.983959645496      -0.108707121154     0.0153068152757     0.0713952909981     
9200000000.0        0.0154846791229     0.0721639772463     0.983765938226      -0.109886609119     0.983765938226      -0.109886609119     0.0154846791229     0.0721639772463     
9300000000.0        0.015664380165      0.0729321568734     0.983570223288      -0.111065611933     0.983570223288      -0.111065611933     0.015664380165      0.0729321568734     
9400000000.0        0.0158459169219     0.07369982478       0.983372502122      -0.112244124605     0.983372502122      -0.112244124605     0.0158459169219     0.07369982478       
9500000000.0        0.0160292878853     0.0744669758749     0.983172776197      -0.113422142153     0.983172776197      -0.113422142153     0.0160292878853     0.0744669758749     
9600000000.0        0.016214491519      0.0752336050751     0.982971047006      -0.114599659601     0.982971047006      -0.114599659601     0.016214491519      0.0752336050751     
9700000000.0        0.0164015262596     0.0759997073063     0.982767316074      -0.115776671983     0.982767316074      -0.115776671983     0.0164015262596     0.0759997073063     
9800000000.0        0.0165903905169     0.0767652775024     0.982561584949      -0.116953174336     0.982561584949      -0.116953174336     0.0165903905169     0.0767652775024     
9900000000.0        0.016781082674      0.077530310606      0.982353855207      -0.118129161709     0.982353855207      -0.118129161709     0.016781082674      0.077530310606      
10000000000.0       0.0169736010884     0.0782948015684     0.982144128448      -0.119304629157     0.982144128448      -0.119304629157     0.0169736010884     0.0782948015684     
