# Hz S RI R 50.00 
100000000.0         0.000315405371168   -0.000218388426872  0.999681250978      -0.00118991206727   0.999681250978      -0.00118991206727   0.000315405371168   -0.000218388426872  
200000000.0         0.00031607668286    -0.000436794025993  0.999676252303      -0.00237985006909   0.999676252303      -0.00237985006909   0.00031607668286    -0.000436794025993  
300000000.0         0.000315672325902   -0.000655222060448  0.999670345251      -0.00356983100403   0.999670345251      -0.00356983100403   0.000315672325903   -0.000655222060448  
400000000.0         0.0003144665079     -0.000873676841917  0.99966325519       -0.00475986677043   0.99966325519       -0.00475986677043   0.0003144665079     -0.000873676841917  
500000000.0         0.00031256455241    -0.00109216187761   0.99965487629       -0.00594996697996   0.99965487629       -0.00594996697996   0.00031256455241    -0.00109216187761   
600000000.0         0.000310019980804   -0.00131068007581   0.99964515446       -0.00714013979692   0.99964515446       -0.00714013979692   0.000310019980804   -0.00131068007581   
700000000.0         0.000306864256491   -0.00152923387335   0.999634057608      -0.00833039234584   0.999634057608      -0.00833039234584   0.000306864256491   -0.00152923387335   
800000000.0         0.00030311763452    -0.00174782532094   0.999621564801      -0.0095207309504    0.999621564801      -0.0095207309504    0.00030311763452    -0.00174782532094   
900000000.0         0.000298793990124   -0.00196645614172   0.999607661437      -0.010711161287     0.999607661437      -0.010711161287     0.000298793990124   -0.00196645614172   
1000000000.0        0.000293903265301   -0.00218512777566   0.999592336811      -0.0119016884928    0.999592336811      -0.0119016884928    0.000293903265301   -0.00218512777566   
1100000000.0        0.000288452828494   -0.00240384141293   0.99957558275       -0.0130923172446    0.99957558275       -0.0130923172446    0.000288452828494   -0.00240384141293   
1200000000.0        0.000282448284701   -0.00262259802032   0.999557392812      -0.0142830518186    0.999557392812      -0.0142830518186    0.000282448284701   -0.00262259802032   
1300000000.0        0.000275893985178   -0.00284139836277   0.999537761779      -0.0154738961372    0.999537761779      -0.0154738961372    0.000275893985178   -0.00284139836277   
1400000000.0        0.000268793362544   -0.00306024302105   0.999516685322      -0.0166648538073    0.999516685322      -0.0166648538073    0.000268793362544   -0.00306024302105   
1500000000.0        0.000261149159241   -0.00327913240658   0.999494159778      -0.0178559281511    0.999494159778      -0.0178559281511    0.000261149159241   -0.00327913240658   
1600000000.0        0.000252963588098   -0.00349806677419   0.999470181989      -0.0190471222318    0.999470181989      -0.0190471222318    0.000252963588098   -0.00349806677419   
1700000000.0        0.000244238448155   -0.00371704623299   0.999444749191      -0.0202384388756    0.999444749191      -0.0202384388756    0.000244238448155   -0.00371704623299   
1800000000.0        0.000234975210111   -0.00393607075596   0.999417858928      -0.0214298806902    0.999417858928      -0.0214298806902    0.000234975210111   -0.00393607075596   
1900000000.0        0.000225175080615   -0.00415514018836   0.999389508991      -0.0226214500817    0.999389508991      -0.0226214500817    0.000225175080615   -0.00415514018836   
2000000000.0        0.000214839051484   -0.00437425425523   0.999359697369      -0.0238131492677    0.999359697369      -0.0238131492677    0.000214839051484   -0.00437425425523   
2100000000.0        0.000203967937968   -0.00459341256806   0.999328422214      -0.0250049802908    0.999328422214      -0.0250049802908    0.000203967937969   -0.00459341256806   
2200000000.0        0.000192562408917   -0.00481261463083   0.999295681813      -0.026196945029     0.999295681813      -0.026196945029     0.000192562408917   -0.00481261463083   
2300000000.0        0.000180623010848   -0.00503185984547   0.99926147456       -0.0273890452057    0.99926147456       -0.0273890452057    0.000180623010848   -0.00503185984547   
2400000000.0        0.0001681501874     -0.00525114751696   0.999225798946      -0.0285812823991    0.999225798946      -0.0285812823991    0.0001681501874     -0.00525114751696   
2500000000.0        0.000155144295174   -0.00547047685772   0.999188653537      -0.0297736580494    0.999188653537      -0.0297736580494    0.000155144295174   -0.00547047685772   
2600000000.0        0.000141605616806   -0.00568984699195   0.999150036967      -0.0309661734669    0.999150036967      -0.0309661734669    0.000141605616806   -0.00568984699195   
2700000000.0        0.000127534371804   -0.00590925695948   0.999109947925      -0.0321588298381    0.999109947925      -0.0321588298381    0.000127534371803   -0.00590925695948   
2800000000.0        0.000112930725644   -0.00612870571936   0.999068385151      -0.0333516282323    0.999068385151      -0.0333516282323    0.000112930725644   -0.00612870571936   
2900000000.0        9.77947974381e-05   -0.00634819215323   0.999025347422      -0.0345445696067    0.999025347422      -0.0345445696067    9.77947974383e-05   -0.00634819215323   
3000000000.0        8.21266664461e-05   -0.00656771506847   0.998980833557      -0.035737654812     0.998980833557      -0.035737654812     8.21266664464e-05   -0.00656771506847   
3100000000.0        6.5926377659e-05    -0.00678727320106   0.998934842401      -0.0369308845968    0.998934842401      -0.0369308845968    6.5926377659e-05    -0.00678727320106   
3200000000.0        4.91939465939e-05   -0.00700686521839   0.998887372831      -0.0381242596125    0.998887372831      -0.0381242596125    4.91939465941e-05   -0.00700686521839   
3300000000.0        3.19293634548e-05   -0.00722648972182   0.998838423746      -0.0393177804171    0.998838423746      -0.0393177804171    3.19293634545e-05   -0.00722648972182   
3400000000.0        1.41325967422e-05   -0.00744614524912   0.998787994066      -0.0405114474793    0.998787994066      -0.0405114474793    1.41325967427e-05   -0.00744614524912   
3500000000.0        -4.19640357019e-06  -0.0076658302768    0.998736082732      -0.0417052611818    0.998736082732      -0.0417052611818    -4.19640357008e-06  -0.0076658302768    
3600000000.0        -2.30577032605e-05  -0.00788554322217   0.9986826887        -0.0428992218252    0.9986826887        -0.0428992218252    -2.30577032607e-05  -0.00788554322217   
3700000000.0        -4.24513813968e-05  -0.00810528244563   0.998627810943      -0.0440933296307    0.998627810943      -0.0440933296307    -4.24513813969e-05  -0.00810528244563   
3800000000.0        -6.23775281523e-05  -0.00832504625236   0.998571448445      -0.0452875847433    0.998571448445      -0.0452875847433    -6.23775281524e-05  -0.00832504625236   
3900000000.0        -8.28362428653e-05  -0.00854483289442   0.998513600206      -0.0464819872348    0.998513600206      -0.0464819872348    -8.28362428653e-05  -0.00854483289442   
4000000000.0        -0.000103827632297  -0.00876464057233   0.998454265234      -0.047676537106     0.998454265234      -0.047676537106     -0.000103827632296  -0.00876464057233   
4100000000.0        -0.000125351809072  -0.00898446743697   0.998393442549      -0.0488712342898    0.998393442549      -0.0488712342898    -0.000125351809072  -0.00898446743697   
4200000000.0        -0.000147408890272  -0.00920431159102   0.998331131181      -0.0500660786534    0.998331131181      -0.0500660786534    -0.000147408890273  -0.00920431159102   
4300000000.0        -0.000169998996161  -0.00942417109056   0.998267330168      -0.0512610700002    0.998267330168      -0.0512610700002    -0.000169998996162  -0.00942417109056   
4400000000.0        -0.000193122249037  -0.00964404394661   0.998202038555      -0.0524562080725    0.998202038555      -0.0524562080725    -0.000193122249037  -0.00964404394661   
4500000000.0        -0.000216778772173  -0.0098639281265    0.998135255397      -0.0536514925534    0.998135255397      -0.0536514925534    -0.000216778772173  -0.0098639281265    
4600000000.0        -0.000240968688868  -0.0100838215552    0.998066979754      -0.0548469230686    0.998066979754      -0.0548469230686    -0.000240968688868  -0.0100838215552    
4700000000.0        -0.000265692121567  -0.0103037221167    0.997997210695      -0.0560424991883    0.997997210695      -0.0560424991883    -0.000265692121567  -0.0103037221167    
4800000000.0        -0.000290949191054  -0.0105236276553    0.997925947293      -0.0572382204292    0.997925947293      -0.0572382204292    -0.000290949191054  -0.0105236276553    
4900000000.0        -0.000316740015719  -0.0107435359765    0.997853188628      -0.058434086256     0.997853188628      -0.058434086256     -0.000316740015719  -0.0107435359765    
5000000000.0        -0.000343064710868  -0.0109634448487    0.997778933786      -0.0596300960831    0.997778933786      -0.0596300960831    -0.000343064710868  -0.0109634448487    
5100000000.0        -0.000369923388098  -0.0111833520039    0.99770318186       -0.0608262492762    0.99770318186       -0.0608262492762    -0.000369923388097  -0.0111833520039    
5200000000.0        -0.000397316154706  -0.0114032551389    0.997625931947      -0.0620225451536    0.997625931947      -0.0620225451536    -0.000397316154706  -0.0114032551389    
5300000000.0        -0.00042524311316   -0.0116231519163    0.997547183148      -0.063218982988     0.997547183148      -0.063218982988     -0.00042524311316   -0.0116231519163    
5400000000.0        -0.00045370436058   -0.0118430399658    0.997466934572      -0.0644155620076    0.997466934572      -0.0644155620076    -0.00045370436058   -0.0118430399658    
5500000000.0        -0.000482699988276  -0.0120629168845    0.997385185331      -0.0656122813975    0.997385185331      -0.0656122813975    -0.000482699988276  -0.0120629168845    
5600000000.0        -0.000512230081311  -0.0122827802387    0.997301934543      -0.0668091403008    0.997301934543      -0.0668091403008    -0.000512230081311  -0.0122827802387    
5700000000.0        -0.000542294718084  -0.0125026275641    0.997217181331      -0.0680061378203    0.997217181331      -0.0680061378203    -0.000542294718084  -0.0125026275641    
5800000000.0        -0.000572893969951  -0.0127224563671    0.997130924822      -0.0692032730191    0.997130924822      -0.0692032730191    -0.000572893969951  -0.0127224563671    
5900000000.0        -0.000604027900865  -0.0129422641253    0.997043164148      -0.0704005449222    0.997043164148      -0.0704005449222    -0.000604027900865  -0.0129422641253    
6000000000.0        -0.000635696567035  -0.0131620482888    0.996953898445      -0.0715979525173    0.996953898445      -0.0715979525173    -0.000635696567035  -0.0131620482888    
6100000000.0        -0.000667900016607  -0.0133818062804    0.996863126857      -0.0727954947559    0.996863126857      -0.0727954947559    -0.000667900016607  -0.0133818062804    
6200000000.0        -0.000700638289366  -0.0136015354969    0.996770848529      -0.0739931705545    0.996770848529      -0.0739931705545    -0.000700638289367  -0.0136015354969    
6300000000.0        -0.000733911416453  -0.0138212333095    0.996677062612      -0.0751909787953    0.996677062612      -0.0751909787953    -0.000733911416453  -0.0138212333095    
6400000000.0        -0.000767719420096  -0.0140408970649    0.996581768263      -0.0763889183274    0.996581768263      -0.0763889183274    -0.000767719420096  -0.0140408970649    
6500000000.0        -0.000802062313358  -0.0142605240855    0.996484964641      -0.0775869879675    0.996484964641      -0.0775869879675    -0.000802062313358  -0.0142605240855    
6600000000.0        -0.000836940099898  -0.0144801116704    0.996386650911      -0.078785186501     0.996386650911      -0.078785186501     -0.000836940099898  -0.0144801116704    
6700000000.0        -0.000872352773743  -0.0146996570962    0.996286826244      -0.0799835126828    0.996286826244      -0.0799835126828    -0.000872352773743  -0.0146996570962    
6800000000.0        -0.000908300319076  -0.0149191576172    0.996185489815      -0.0811819652379    0.996185489815      -0.0811819652379    -0.000908300319077  -0.0149191576172    
6900000000.0        -0.00094478271003   -0.0151386104665    0.996082640802      -0.0823805428624    0.996082640802      -0.0823805428624    -0.00094478271003   -0.0151386104665    
7000000000.0        -0.000981799910495  -0.0153580128563    0.99597827839       -0.0835792442245    0.99597827839       -0.0835792442245    -0.000981799910495  -0.0153580128563    
7100000000.0        -0.00101935187393   -0.0155773619785    0.995872401769      -0.0847780679645    0.995872401769      -0.0847780679645    -0.00101935187393   -0.0155773619785    
7200000000.0        -0.0010574385432    -0.0157966550055    0.995765010131      -0.0859770126966    0.995765010131      -0.0859770126966    -0.00105743854319   -0.0157966550055    
7300000000.0        -0.00109605985037   -0.0160158890906    0.995656102675      -0.0871760770086    0.995656102675      -0.0871760770086    -0.00109605985037   -0.0160158890906    
7400000000.0        -0.00113521571663   -0.0162350613686    0.995545678605      -0.0883752594632    0.995545678605      -0.0883752594632    -0.00113521571663   -0.0162350613686    
7500000000.0        -0.00117490605203   -0.0164541689562    0.99543373713       -0.0895745585985    0.99543373713       -0.0895745585985    -0.00117490605203   -0.0164541689562    
7600000000.0        -0.00121513075543   -0.0166732089528    0.995320277464      -0.0907739729284    0.995320277464      -0.0907739729284    -0.00121513075543   -0.0166732089528    
7700000000.0        -0.00125588971432   -0.0168921784407    0.995205298823      -0.0919735009436    0.995205298823      -0.0919735009436    -0.00125588971432   -0.0168921784407    
7800000000.0        -0.00129718280469   -0.0171110744856    0.995088800433      -0.0931731411121    0.995088800433      -0.0931731411121    -0.00129718280469   -0.0171110744856    
7900000000.0        -0.00133900989089   -0.0173298941375    0.994970781522      -0.0943728918796    0.994970781522      -0.0943728918796    -0.00133900989089   -0.0173298941375    
8000000000.0        -0.00138137082556   -0.0175486344306    0.994851241322      -0.0955727516702    0.994851241322      -0.0955727516702    -0.00138137082556   -0.0175486344306    
8100000000.0        -0.00142426544947   -0.0177672923843    0.994730179074      -0.096772718887     0.994730179074      -0.096772718887     -0.00142426544947   -0.0177672923843    
8200000000.0        -0.0014676935914    -0.0179858650031    0.994607594021      -0.0979727919125    0.994607594021      -0.0979727919125    -0.0014676935914    -0.0179858650031    
8300000000.0        -0.00151165506808   -0.0182043492774    0.994483485412      -0.0991729691094    0.994483485412      -0.0991729691094    -0.00151165506808   -0.0182043492774    
8400000000.0        -0.00155614968406   -0.018422742184     0.994357852501      -0.100373248821     0.994357852501      -0.100373248821     -0.00155614968406   -0.018422742184     
8500000000.0        -0.00160117723161   -0.018641040686     0.994230694549      -0.101573629371     0.994230694549      -0.101573629371     -0.00160117723161   -0.018641040686     
8600000000.0        -0.00164673749064   -0.0188592417338    0.99410201082       -0.102774109064     0.99410201082       -0.102774109064     -0.00164673749064   -0.0188592417338    
8700000000.0        -0.0016928302286    -0.0190773422651    0.993971800584      -0.10397468619      0.993971800584      -0.10397468619      -0.0016928302286    -0.0190773422651    
8800000000.0        -0.00173945520041   -0.0192953392057    0.993840063117      -0.105175359017     0.993840063117      -0.105175359017     -0.00173945520041   -0.0192953392057    
8900000000.0        -0.00178661214836   -0.0195132294692    0.993706797701      -0.106376125798     0.993706797701      -0.106376125798     -0.00178661214836   -0.0195132294692    
9000000000.0        -0.00183430080205   -0.0197310099581    0.993572003621      -0.10757698477      0.993572003621      -0.10757698477      -0.00183430080205   -0.0197310099581    
9100000000.0        -0.0018825208783    -0.0199486775636    0.993435680169      -0.108777934152     0.993435680169      -0.108777934152     -0.0018825208783    -0.0199486775636    
9200000000.0        -0.00193127208108   -0.0201662291663    0.993297826644      -0.109978972148     0.993297826644      -0.109978972148     -0.00193127208108   -0.0201662291663    
9300000000.0        -0.00198055410145   -0.0203836616365    0.993158442348      -0.111180096946     0.993158442348      -0.111180096946     -0.00198055410145   -0.0203836616365    
9400000000.0        -0.00203036661748   -0.0206009718343    0.993017526589      -0.11238130672      0.993017526589      -0.11238130672      -0.00203036661748   -0.0206009718343    
9500000000.0        -0.00208070929421   -0.0208181566102    0.992875078681      -0.113582599628     0.992875078681      -0.113582599628     -0.00208070929421   -0.0208181566102    
9600000000.0        -0.00213158178356   -0.0210352128053    0.992731097945      -0.114783973814     0.992731097945      -0.114783973814     -0.00213158178356   -0.0210352128053    
9700000000.0        -0.0021829837243    -0.0212521372515    0.992585583705      -0.115985427408     0.992585583705      -0.115985427408     -0.0021829837243    -0.0212521372515    
9800000000.0        -0.00223491474197   -0.0214689267721    0.992438535293      -0.117186958527     0.992438535293      -0.117186958527     -0.00223491474197   -0.0214689267721    
9900000000.0        -0.00228737444882   -0.021685578182     0.992289952045      -0.118388565274     0.992289952045      -0.118388565274     -0.00228737444882   -0.021685578182     
10000000000.0       -0.00234036244382   -0.0219020882877    0.992139833304      -0.119590245739     0.992139833304      -0.119590245739     -0.00234036244382   -0.0219020882877    
