# Hz S RI R 50.00 
100000000.0         0.00026735655626    -0.00278693239008   0.999701249179      -0.00410473130727   0.999701249179      -0.00410473130727   0.00026735655626    -0.00278693239008   
200000000.0         0.000231623558022   -0.00557368870837   0.999659088191      -0.00820930676459   0.999659088191      -0.00820930676459   0.000231623558022   -0.00557368870837   
300000000.0         0.000172519719925   -0.00836008457209   0.999592801498      -0.012313562742     0.999592801498      -0.012313562742     0.000172519719925   -0.00836008457209   
400000000.0         9.02925707491e-05   -0.0111459253311    0.99950214835       -0.0164173195563    0.99950214835       -0.0164173195563    9.02925707491e-05   -0.0111459253311    
500000000.0         -1.49586167362e-05  -0.0139310107544    0.99938704029       -0.0205203897527    0.99938704029       -0.0205203897527    -1.49586167359e-05  -0.0139310107544    
600000000.0         -0.000143178434993  -0.0167151368872    0.999247437028      -0.0246225808599    0.999247437028      -0.0246225808599    -0.000143178434993  -0.0167151368872    
700000000.0         -0.000294328783431  -0.0194980970461    0.999083320072      -0.0287236967908    0.999083320072      -0.0287236967908    -0.00029432878343   -0.0194980970461    
800000000.0         -0.000468379152074  -0.0222796824401    0.998894683151      -0.0328235386905    0.998894683151      -0.0328235386905    -0.000468379152073  -0.0222796824401    
900000000.0         -0.000665302276559  -0.0250596825989    0.998681527984      -0.0369219055059    0.998681527984      -0.0369219055059    -0.000665302276559  -0.0250596825989    
1000000000.0        -0.000885071921178  -0.0278378856888    0.99844386216       -0.0410185943987    0.99844386216       -0.0410185943987    -0.000885071921178  -0.0278378856888    
1100000000.0        -0.00112766163539   -0.0306140787585    0.998181697963      -0.0451134010595    0.998181697963      -0.0451134010595    -0.00112766163539   -0.0306140787585    
1200000000.0        -0.00139304400432   -0.033388047938     0.9978950517        -0.0492061199589    0.9978950517        -0.0492061199589    -0.00139304400432   -0.033388047938     
1300000000.0        -0.00168119017073   -0.0361595786055    0.997583943267      -0.0532965445535    0.997583943267      -0.0532965445535    -0.00168119017073   -0.0361595786055    
1400000000.0        -0.00199206951581   -0.0389284555301    0.997248395886      -0.0573844674608    0.997248395886      -0.0573844674608    -0.00199206951581   -0.0389284555301    
1500000000.0        -0.00232564943796   -0.0416944629983    0.99688843592       -0.0614696806106    0.99688843592       -0.0614696806106    -0.00232564943796   -0.0416944629983    
1600000000.0        -0.00268189519474   -0.0444573849264    0.996504092753      -0.0655519753785    0.996504092753      -0.0655519753785    -0.00268189519474   -0.0444573849264    
1700000000.0        -0.00306076978709   -0.0472170049626    0.996095398698      -0.069631142706     0.996095398698      -0.069631142706     -0.00306076978709   -0.0472170049626    
1800000000.0        -0.0034622338728    -0.0499731065821    0.995662388941      -0.0737069732097    0.995662388941      -0.0737069732097    -0.0034622338728    -0.0499731065821    
1900000000.0        -0.00388624570093   -0.0527254731742    0.995205101488      -0.0777792572816    0.995205101488      -0.0777792572816    -0.00388624570093   -0.0527254731742    
2000000000.0        -0.00433276106157   -0.0554738881249    0.994723577138      -0.0818477851826    0.994723577138      -0.0818477851826    -0.00433276106157   -0.0554738881249    
2100000000.0        -0.00480173324714   -0.0582181348953    0.994217859449      -0.08591234713      0.994217859449      -0.08591234713      -0.00480173324714   -0.0582181348953    
2200000000.0        -0.00529311302267   -0.0609579970952    0.993687994721      -0.0899727333806    0.993687994721      -0.0899727333806    -0.00529311302267   -0.0609579970952    
2300000000.0        -0.00580684860307   -0.0636932585547    0.993134031975      -0.0940287343085    0.993134031975      -0.0940287343085    -0.00580684860307   -0.0636932585547    
2400000000.0        -0.00634288563618   -0.0664237033924    0.992556022938      -0.0980801404808    0.992556022938      -0.0980801404808    -0.00634288563618   -0.0664237033924    
2500000000.0        -0.00690116719036   -0.0691491160815    0.991954022029      -0.102126742729     0.991954022029      -0.102126742729     -0.00690116719036   -0.0691491160815    
2600000000.0        -0.00748163374618   -0.0718692815134    0.991328086347      -0.106168332219     0.991328086347      -0.106168332219     -0.00748163374618   -0.0718692815134    
2700000000.0        -0.0080842231913    -0.0745839850603    0.990678275654      -0.110204700518     0.990678275654      -0.110204700518     -0.0080842231913    -0.0745839850603    
2800000000.0        -0.00870887081841   -0.0772930126352    0.990004652368      -0.114235639657     0.990004652368      -0.114235639657     -0.00870887081841   -0.0772930126352    
2900000000.0        -0.00935550932558   -0.0799961507507    0.989307281546      -0.118260942196     0.989307281546      -0.118260942196     -0.00935550932558   -0.0799961507507    
3000000000.0        -0.0100240688191    -0.0826931865769    0.988586230873      -0.122280401287     0.988586230873      -0.122280401287     -0.0100240688191    -0.0826931865769    
3100000000.0        -0.010714476818     -0.0853839079974    0.987841570645      -0.12629381073      0.987841570645      -0.12629381073      -0.010714476818     -0.0853839079974    
3200000000.0        -0.0114266582611    -0.0880681036642    0.987073373761      -0.13030096503      0.987073373761      -0.13030096503      -0.0114266582611    -0.0880681036642    
3300000000.0        -0.012160535515     -0.0907455630519    0.986281715702      -0.134301659459     0.986281715702      -0.134301659459     -0.012160535515     -0.0907455630519    
3400000000.0        -0.0129160283846    -0.0934160765103    0.985466674521      -0.138295690109     0.985466674521      -0.138295690109     -0.0129160283846    -0.0934160765103    
3500000000.0        -0.0136930541239    -0.0960794353165    0.984628330821      -0.142282853944     0.984628330821      -0.142282853944     -0.0136930541239    -0.0960794353165    
3600000000.0        -0.0144915274496    -0.0987354317253    0.983766767743      -0.146262948857     0.983766767743      -0.146262948857     -0.0144915274496    -0.0987354317253    
3700000000.0        -0.0153113605551    -0.10138385902      0.982882070945      -0.150235773718     0.982882070945      -0.150235773718     -0.0153113605551    -0.10138385902      
3800000000.0        -0.016152463126     -0.10402451156      0.981974328585      -0.15420112843      0.981974328585      -0.15420112843      -0.016152463126     -0.10402451156      
3900000000.0        -0.017014742357     -0.10665718483      0.9810436313        -0.158158813973     0.9810436313        -0.158158813973     -0.017014742357     -0.10665718483      
4000000000.0        -0.0178981029699    -0.109281675488     0.980090072189      -0.16210863246      0.980090072189      -0.16210863246      -0.0178981029699    -0.109281675488     
4100000000.0        -0.0188024472322    -0.11189778141      0.979113746786      -0.16605038718      0.979113746786      -0.16605038718      -0.0188024472322    -0.11189778141      
4200000000.0        -0.0197276749778    -0.114505301735     0.978114753045      -0.169983882643     0.978114753045      -0.169983882643     -0.0197276749778    -0.114505301735     
4300000000.0        -0.0206736836278    -0.117104036914     0.977093191311      -0.173908924635     0.977093191311      -0.173908924635     -0.0206736836278    -0.117104036914     
4400000000.0        -0.0216403682127    -0.119693788749     0.976049164301      -0.177825320255     0.976049164301      -0.177825320255     -0.0216403682127    -0.119693788749     
4500000000.0        -0.0226276213957    -0.122274360437     0.974982777076      -0.181732877962     0.974982777076      -0.181732877962     -0.0226276213957    -0.122274360437     
4600000000.0        -0.0236353334962    -0.124845556614     0.973894137018      -0.18563140762      0.973894137018      -0.18563140762      -0.0236353334962    -0.124845556614     
4700000000.0        -0.0246633925154    -0.127407183398     0.972783353806      -0.189520720538     0.972783353806      -0.189520720538     -0.0246633925154    -0.127407183398     
4800000000.0        -0.0257116841615    -0.129959048422     0.971650539382      -0.193400629513     0.971650539382      -0.193400629513     -0.0257116841615    -0.129959048422     
4900000000.0        -0.0267800918767    -0.132500960884     0.970495807933      -0.197270948872     0.970495807933      -0.197270948872     -0.0267800918767    -0.132500960884     
5000000000.0        -0.0278684968645    -0.135032731577     0.969319275856      -0.20113149451      0.969319275856      -0.20113149451      -0.0278684968645    -0.135032731577     
5100000000.0        -0.0289767781179    -0.137554172933     0.96812106173       -0.204982083929     0.96812106173       -0.204982083929     -0.0289767781179    -0.137554172933     
5200000000.0        -0.0301048124482    -0.140065099056     0.96690128629       -0.208822536277     0.96690128629       -0.208822536277     -0.0301048124482    -0.140065099056     
5300000000.0        -0.0312524745149    -0.142565325764     0.965660072394      -0.212652672387     0.965660072394      -0.212652672387     -0.0312524745149    -0.142565325764     
5400000000.0        -0.0324196368562    -0.145054670617     0.964397544991      -0.216472314808     0.964397544991      -0.216472314808     -0.0324196368562    -0.145054670617     
5500000000.0        -0.0336061699197    -0.147532952958     0.963113831092      -0.220281287848     0.963113831092      -0.220281287848     -0.0336061699197    -0.147532952958     
5600000000.0        -0.0348119420944    -0.149999993944     0.961809059736      -0.224079417601     0.961809059736      -0.224079417601     -0.0348119420944    -0.149999993944     
5700000000.0        -0.0360368197429    -0.15245561658      0.96048336196       -0.227866531987     0.96048336196       -0.227866531987     -0.0360368197429    -0.15245561658      
5800000000.0        -0.0372806672345    -0.154899645751     0.959136870761      -0.231642460781     0.959136870761      -0.231642460781     -0.0372806672345    -0.154899645751     
5900000000.0        -0.0385433469785    -0.157331908253     0.957769721068      -0.235407035645     0.957769721068      -0.235407035645     -0.0385433469785    -0.157331908253     
6000000000.0        -0.0398247194585    -0.159752232822     0.9563820497        -0.239160090164     0.9563820497        -0.239160090164     -0.0398247194585    -0.159752232822     
6100000000.0        -0.0411246432671    -0.162160450166     0.954973995339      -0.242901459869     0.954973995339      -0.242901459869     -0.0411246432671    -0.162160450166     
6200000000.0        -0.0424429751406    -0.164556392995     0.953545698491      -0.246630982271     0.953545698491      -0.246630982271     -0.0424429751406    -0.164556392995     
6300000000.0        -0.0437795699951    -0.166939896042     0.952097301449      -0.250348496887     0.952097301449      -0.250348496887     -0.0437795699951    -0.166939896042     
6400000000.0        -0.0451342809623    -0.1693107961       0.950628948258      -0.25405384527      0.950628948258      -0.25405384527      -0.0451342809623    -0.1693107961       
6500000000.0        -0.0465069594259    -0.171668932038     0.949140784678      -0.257746871035     0.949140784678      -0.257746871035     -0.0465069594259    -0.171668932038     
6600000000.0        -0.0478974550591    -0.174014144833     0.947632958147      -0.26142741988      0.947632958147      -0.26142741988      -0.0478974550591    -0.174014144833     
6700000000.0        -0.0493056158612    -0.176346277591     0.946105617745      -0.265095339619     0.946105617745      -0.265095339619     -0.0493056158612    -0.176346277591     
6800000000.0        -0.0507312881957    -0.178665175574     0.944558914154      -0.268750480198     0.944558914154      -0.268750480198     -0.0507312881957    -0.178665175574     
6900000000.0        -0.0521743168286    -0.180970686217     0.942992999617      -0.272392693724     0.942992999617      -0.272392693724     -0.0521743168286    -0.180970686217     
7000000000.0        -0.0536345449661    -0.183262659153     0.941408027909      -0.276021834484     0.941408027909      -0.276021834484     -0.0536345449661    -0.183262659153     
7100000000.0        -0.0551118142938    -0.185540946236     0.939804154286      -0.279637758964     0.939804154286      -0.279637758964     -0.0551118142938    -0.185540946236     
7200000000.0        -0.0566059650155    -0.187805401556     0.938181535455      -0.283240325876     0.938181535455      -0.283240325876     -0.0566059650155    -0.187805401556     
7300000000.0        -0.0581168358925    -0.190055881461     0.936540329531      -0.28682939617      0.936540329531      -0.28682939617      -0.0581168358925    -0.190055881461     
7400000000.0        -0.059644264283     -0.192292244573     0.934880695998      -0.290404833057     0.934880695998      -0.290404833057     -0.059644264283     -0.192292244573     
7500000000.0        -0.0611880861816    -0.194514351808     0.933202795668      -0.293966502026     0.933202795668      -0.293966502026     -0.0611880861816    -0.194514351808     
7600000000.0        -0.0627481362596    -0.196722066392     0.931506790642      -0.297514270859     0.931506790642      -0.297514270859     -0.0627481362596    -0.196722066392     
7700000000.0        -0.0643242479046    -0.198915253873     0.929792844272      -0.301048009647     0.929792844272      -0.301048009647     -0.0643242479046    -0.198915253873     
7800000000.0        -0.0659162532613    -0.201093782139     0.928061121117      -0.304567590808     0.928061121117      -0.304567590808     -0.0659162532613    -0.201093782139     
7900000000.0        -0.067523983271     -0.203257521429     0.926311786902      -0.308072889096     0.926311786902      -0.308072889096     -0.067523983271     -0.203257521429     
8000000000.0        -0.0691472677127    -0.205406344351     0.924545008483      -0.311563781617     0.924545008483      -0.311563781617     -0.0691472677127    -0.205406344351     
8100000000.0        -0.0707859352436    -0.207540125885     0.9227609538        -0.315040147842     0.9227609538        -0.315040147842     -0.0707859352436    -0.207540125885     
8200000000.0        -0.0724398134394    -0.209658743405     0.92095979184       -0.318501869616     0.92095979184       -0.318501869616     -0.0724398134394    -0.209658743405     
8300000000.0        -0.0741087288352    -0.211762076679     0.919141692597      -0.321948831171     0.919141692597      -0.321948831171     -0.0741087288352    -0.211762076679     
8400000000.0        -0.0757925069662    -0.213850007886     0.917306827026      -0.325380919133     0.917306827026      -0.325380919133     -0.0757925069662    -0.213850007886     
8500000000.0        -0.0774909724082    -0.21592242162      0.915455367008      -0.328798022533     0.915455367008      -0.328798022533     -0.0774909724082    -0.21592242162      
8600000000.0        -0.0792039488186    -0.217979204898     0.913587485306      -0.332200032813     0.913587485306      -0.332200032813     -0.0792039488186    -0.217979204898     
8700000000.0        -0.080931258977     -0.22002024717      0.911703355524      -0.335586843833     0.911703355524      -0.335586843833     -0.080931258977     -0.22002024717      
8800000000.0        -0.0826727248256    -0.222045440321     0.90980315207       -0.33895835188      0.90980315207       -0.33895835188      -0.0826727248256    -0.222045440321     
8900000000.0        -0.0844281675101    -0.22405467868      0.907887050109      -0.342314455672     0.907887050109      -0.342314455672     -0.0844281675101    -0.22405467868      
9000000000.0        -0.0861974074201    -0.226047859021     0.905955225529      -0.345655056358     0.905955225529      -0.345655056358     -0.0861974074201    -0.226047859021     
9100000000.0        -0.0879802642294    -0.228024880568     0.904007854895      -0.34898005753      0.904007854895      -0.34898005753      -0.0879802642294    -0.228024880568     
9200000000.0        -0.0897765569363    -0.229985644996     0.902045115412      -0.352289365219     0.902045115412      -0.352289365219     -0.0897765569363    -0.229985644996     
9300000000.0        -0.0915861039039    -0.231930056438     0.900067184885      -0.355582887901     0.900067184885      -0.355582887901     -0.0915861039039    -0.231930056438     
9400000000.0        -0.0934087229       -0.23385802148      0.898074241675      -0.358860536496     0.898074241675      -0.358860536496     -0.0934087229       -0.23385802148      
9500000000.0        -0.0952442311367    -0.235769449164     0.896066464663      -0.362122224369     0.896066464663      -0.362122224369     -0.0952442311367    -0.235769449164     
9600000000.0        -0.0970924453106    -0.237664250988     0.89404403321       -0.365367867332     0.89404403321       -0.365367867332     -0.0970924453106    -0.237664250988     
9700000000.0        -0.0989531816418    -0.239542340904     0.892007127114      -0.368597383639     0.892007127114      -0.368597383639     -0.0989531816418    -0.239542340904     
9800000000.0        -0.100826255913     -0.241403635317     0.889955926576      -0.371810693987     0.889955926576      -0.371810693987     -0.100826255913     -0.241403635317     
9900000000.0        -0.10271148351      -0.243248053082     0.887890612154      -0.375007721515     0.887890612154      -0.375007721515     -0.10271148351      -0.243248053082     
10000000000.0       -0.104608679458     -0.245075515497     0.88581136473       -0.378188391794     0.88581136473       -0.378188391794     -0.104608679458     -0.245075515497     
