# Hz S RI R 50.00 
100000000.0         -0.000103226102046  -0.0148853709643    0.999611696075      -0.0154591618622    0.999611696075      -0.0154591618622    -0.000103226102046  -0.0148853709643    
200000000.0         -0.000807152300045  -0.029749251204     0.998905338751      -0.030896862084     0.998905338751      -0.030896862084     -0.000807152300045  -0.029749251204     
300000000.0         -0.00196913030795   -0.0445710392823    0.997741092032      -0.0462925184834    0.997741092032      -0.0462925184834    -0.00196913030795   -0.0445710392823    
400000000.0         -0.00358590449507   -0.0593302944449    0.996121965925      -0.0616257058886    0.996121965925      -0.0616257058886    -0.00358590449507   -0.0593302944449    
500000000.0         -0.00565308698504   -0.0740068410243    0.994052253985      -0.0768762625243    0.994052253985      -0.0768762625243    -0.00565308698504   -0.0740068410243    
600000000.0         -0.00816513279906   -0.0885808615885    0.991537453172      -0.0920243837746    0.991537453172      -0.0920243837746    -0.00816513279906   -0.0885808615885    
700000000.0         -0.011115362191     -0.10303298442      0.988584214876      -0.107050709965     0.988584214876      -0.107050709965     -0.011115362191     -0.10303298442      
800000000.0         -0.0144959988523    -0.117344365928     0.985200297009      -0.121936408949     0.985200297009      -0.121936408949     -0.0144959988523    -0.117344365928     
900000000.0         -0.0182982176106    -0.131496767764     0.981394511992      -0.136663253345     0.981394511992      -0.136663253345     -0.0182982176106    -0.131496767764     
1000000000.0        -0.0225121993545    -0.145472628247     0.977176669649      -0.151213692033     0.977176669649      -0.151213692033     -0.0225121993545    -0.145472628247     
1100000000.0        -0.027127191918     -0.159255127657     0.97255751511       -0.165570915512     0.97255751511       -0.165570915512     -0.027127191918     -0.159255127657     
1200000000.0        -0.0321315759641    -0.17282824701      0.96754866221       -0.179718914721     0.96754866221       -0.179718914721     -0.0321315759641    -0.17282824701      
1300000000.0        -0.0375129350005    -0.186176820002     0.96216252302       -0.193642533014     0.96216252302       -0.193642533014     -0.0375129350005    -0.186176820002     
1400000000.0        -0.0432581286984    -0.199286577878     0.956412234231      -0.207327511061     0.956412234231      -0.207327511061     -0.0432581286984    -0.199286577878     
1500000000.0        -0.0493533687031    -0.212144187084     0.950311581145      -0.220760524518     0.950311581145      -0.220760524518     -0.0493533687031    -0.212144187084     
1600000000.0        -0.0557842961398    -0.224737279625     0.943874920023      -0.233929214411     0.943874920023      -0.233929214411     -0.0557842961398    -0.224737279625     
1700000000.0        -0.0625360600448    -0.237054476178     0.937117099558      -0.246822210259     0.937117099558      -0.246822210259     -0.0625360600448    -0.237054476178     
1800000000.0        -0.0695933959761    -0.249085402047     0.930053382186      -0.259429146047     0.930053382186      -0.259429146047     -0.0695933959761    -0.249085402047     
1900000000.0        -0.0769407040997    -0.260820696153     0.922699365944      -0.271740669225     0.922699365944      -0.271740669225     -0.0769407040997    -0.260820696153     
2000000000.0        -0.0845621260898    -0.272252013319     0.915070907529      -0.283748443009     0.915070907529      -0.283748443009     -0.0845621260898    -0.272252013319     
2100000000.0        -0.0924416202358    -0.283372020165     0.907184047156      -0.295445142279     0.907184047156      -0.295445142279     -0.0924416202358    -0.283372020165     
2200000000.0        -0.100563034202     -0.294174384987     0.899054935776      -0.306824443468     0.899054935776      -0.306824443468     -0.100563034202     -0.294174384987     
2300000000.0        -0.108910174948     -0.304653762029     0.89069976513       -0.317881008846     0.89069976513       -0.317881008846     -0.108910174948     -0.304653762029     
2400000000.0        -0.117466875388     -0.314805770623     0.882134701079      -0.328610465661     0.882134701079      -0.328610465661     -0.117466875388     -0.314805770623     
2500000000.0        -0.126217057418     -0.324626969651     0.873375820559      -0.339009380609     0.873375820559      -0.339009380609     -0.126217057418     -0.324626969651     
2600000000.0        -0.135144791017     -0.334114827852     0.864439052472      -0.349075230149     0.864439052472      -0.349075230149     -0.135144791017     -0.334114827852     
2700000000.0        -0.144234349193     -0.343267690463     0.855340122728      -0.358806367146     0.855340122728      -0.358806367146     -0.144234349193     -0.343267690463     
2800000000.0        -0.153470258595     -0.352084742722     0.84609450363       -0.36820198438      0.84609450363       -0.36820198438      -0.153470258595     -0.352084742722     
2900000000.0        -0.162837345681     -0.360565970723     0.836717367694      -0.377262075404     0.836717367694      -0.377262075404     -0.162837345681     -0.360565970723     
3000000000.0        -0.172320778393     -0.368712120127     0.827223545976      -0.385987393261     0.827223545976      -0.385987393261     -0.172320778393     -0.368712120127     
3100000000.0        -0.181906103323     -0.3765246532       0.817627490896      -0.394379407528     0.817627490896      -0.394379407528     -0.181906103323     -0.3765246532       
3200000000.0        -0.191579278418     -0.384005704639     0.80794324353       -0.402440260138     0.80794324353       -0.402440260138     -0.191579278418     -0.384005704639     
3300000000.0        -0.201326701305     -0.391158036605     0.798184405284      -0.410172720424     0.798184405284      -0.410172720424     -0.201326701305     -0.391158036605     
3400000000.0        -0.211135233369     -0.397984993372     0.788364113813      -0.417580139765     0.788364113813      -0.417580139765     -0.211135233369     -0.397984993372     
3500000000.0        -0.220992219709     -0.404490455953     0.778495023059      -0.424666406222     0.778495023059      -0.424666406222     -0.220992219709     -0.404490455953     
3600000000.0        -0.230885505188     -0.410678797048     0.768589287205      -0.431435899481     0.768589287205      -0.431435899481     -0.230885505188     -0.410678797048     
3700000000.0        -0.24080344674      -0.416554836604     0.758658548362      -0.437893446422     0.758658548362      -0.437893446422     -0.24080344674      -0.416554836604     
3800000000.0        -0.250734922187     -0.422123798268     0.74871392775       -0.44404427757      0.74871392775       -0.44404427757      -0.250734922187     -0.422123798268     
3900000000.0        -0.260669335769     -0.427391266955     0.738766020172      -0.449893984668     0.738766020172      -0.449893984668     -0.260669335769     -0.427391266955     
4000000000.0        -0.27059662064      -0.432363147743     0.728824891507      -0.455448479575     0.728824891507      -0.455448479575     -0.27059662064      -0.432363147743     
4100000000.0        -0.280507238576     -0.437045626262     0.718900079011      -0.460713954651     0.718900079011      -0.460713954651     -0.280507238576     -0.437045626262     
4200000000.0        -0.290392177129     -0.441445130708     0.709000594157      -0.465696844782     0.709000594157      -0.465696844782     -0.290392177129     -0.441445130708     
4300000000.0        -0.300242944483     -0.445568295607     0.699134927781      -0.470403791142     0.699134927781      -0.470403791142     -0.300242944483     -0.445568295607     
4400000000.0        -0.310051562238     -0.44942192741      0.689311057292      -0.474841606786     0.689311057292      -0.474841606786     -0.310051562238     -0.44942192741      
4500000000.0        -0.319810556369     -0.453012971962     0.679536455718      -0.479017244129     0.679536455718      -0.479017244129     -0.319810556369     -0.453012971962     
4600000000.0        -0.329512946581     -0.456348483914     0.669818102349      -0.482937764352     0.669818102349      -0.482937764352     -0.329512946581     -0.456348483914     
4700000000.0        -0.339152234261     -0.459435598069     0.660162494779      -0.486610308752     0.660162494779      -0.486610308752     -0.339152234261     -0.459435598069     
4800000000.0        -0.348722389259     -0.462281502667     0.650575662136      -0.490042072033     0.650575662136      -0.490042072033     -0.348722389259     -0.462281502667     
4900000000.0        -0.358217835658     -0.464893414606     0.641063179299      -0.493240277521     0.641063179299      -0.493240277521     -0.358217835658     -0.464893414606     
5000000000.0        -0.367633436745     -0.467278556548     0.631630181935      -0.496212154282     0.631630181935      -0.496212154282     -0.367633436745     -0.467278556548     
5100000000.0        -0.376964479322     -0.46944413589      0.622281382185      -0.49896491608      0.622281382185      -0.49896491608      -0.376964479322     -0.46944413589      
5200000000.0        -0.386206657533     -0.471397325523     0.613021084836      -0.501505742152     0.613021084836      -0.501505742152     -0.386206657533     -0.471397325523     
5300000000.0        -0.395356056334     -0.473145246342     0.603853203851      -0.50384175971      0.603853203851      -0.50384175971      -0.395356056334     -0.473145246342     
5400000000.0        -0.404409134744     -0.474694951421     0.594781279119      -0.505980028122     0.594781279119      -0.505980028122     -0.404409134744     -0.474694951421     
5500000000.0        -0.413362708989     -0.476053411796     0.585808493309      -0.507927524692     0.585808493309      -0.507927524692     -0.413362708989     -0.476053411796     
5600000000.0        -0.422213935641     -0.477227503765     0.576937688733      -0.509691131965     0.576937688733      -0.509691131965     -0.422213935641     -0.477227503765     
5700000000.0        -0.430960294848     -0.478223997634     0.568171384112      -0.511277626475     0.568171384112      -0.511277626475     -0.430960294848     -0.478223997634     
5800000000.0        -0.439599573744     -0.479049547833     0.55951179117       -0.512693668859     0.55951179117       -0.512693668859     -0.439599573744     -0.479049547833     
5900000000.0        -0.44812985009      -0.479710684307     0.550960830991      -0.513945795248     0.550960830991      -0.513945795248     -0.44812985009      -0.479710684307     
6000000000.0        -0.456549476232     -0.48021380511      0.542520150058      -0.515040409868     0.542520150058      -0.515040409868     -0.456549476232     -0.48021380511      
6100000000.0        -0.464857063412     -0.480565170121     0.53419113595       -0.515983778754     0.53419113595       -0.515983778754     -0.464857063412     -0.480565170121     
6200000000.0        -0.473051466478     -0.480770895803     0.525974932619      -0.516782024507     0.525974932619      -0.516782024507     -0.473051466478     -0.480770895803     
6300000000.0        -0.481131769045     -0.48083695092      0.517872455244      -0.517441122017     0.517872455244      -0.517441122017     -0.481131769045     -0.48083695092      
6400000000.0        -0.489097269112     -0.480769153152     0.5098844046        -0.517966895076     0.5098844046        -0.517966895076     -0.489097269112     -0.480769153152     
6500000000.0        -0.496947465181     -0.480573166521     0.50201128095       -0.518365013805     0.50201128095       -0.518365013805     -0.496947465181     -0.480573166521     
6600000000.0        -0.504682042879     -0.480254499566     0.494253397412      -0.518640992833     0.494253397412      -0.518640992833     -0.504682042879     -0.480254499566     
6700000000.0        -0.512300862108     -0.479818504203     0.486610892819      -0.518800190155     0.486610892819      -0.518800190155     -0.512300862108     -0.479818504203     
6800000000.0        -0.519803944721     -0.479270375201     0.479083744039      -0.51884780661      0.479083744039      -0.51884780661      -0.519803944721     -0.479270375201     
6900000000.0        -0.52719146273      -0.478615150222     0.471671777763      -0.518788885921     0.471671777763      -0.518788885921     -0.52719146273      -0.478615150222     
7000000000.0        -0.534463727052     -0.47785771036      0.464374681764      -0.518628315235     0.464374681764      -0.518628315235     -0.534463727052     -0.47785771036      
7100000000.0        -0.541621176784     -0.477002781131     0.457192015621      -0.518370826119     0.457192015621      -0.518370826119     -0.541621176784     -0.477002781131     
7200000000.0        -0.548664368995     -0.476054933872     0.450123220925      -0.518020995948     0.450123220925      -0.518020995948     -0.548664368995     -0.476054933872     
7300000000.0        -0.555593969045     -0.475018587484     0.443167630961      -0.517583249663     0.443167630961      -0.517583249663     -0.555593969045     -0.475018587484     
7400000000.0        -0.562410741402     -0.473898010495     0.43632447989       -0.517061861825     0.43632447989       -0.517061861825     -0.562410741402     -0.473898010495     
7500000000.0        -0.569115540954     -0.472697323397     0.42959291144       -0.516460958955     0.42959291144       -0.516460958955     -0.569115540954     -0.472697323397     
7600000000.0        -0.575709304802     -0.471420501212     0.422971987109      -0.515784522104     0.422971987109      -0.515784522104     -0.575709304802     -0.471420501212     
7700000000.0        -0.582193044519     -0.470071376264     0.416460693906      -0.515036389623     0.416460693906      -0.515036389623     -0.582193044519     -0.470071376264     
7800000000.0        -0.58856783886      -0.468653641126     0.410057951645      -0.51422026011      0.410057951645      -0.51422026011      -0.58856783886      -0.468653641126     
7900000000.0        -0.594834826903     -0.467170851699     0.403762619798      -0.513339695492     0.403762619798      -0.513339695492     -0.594834826903     -0.467170851699     
8000000000.0        -0.600995201616     -0.465626430417     0.397573503936      -0.512398124231     0.397573503936      -0.512398124231     -0.600995201616     -0.465626430417     
8100000000.0        -0.607050203817     -0.464023669539     0.391489361759      -0.511398844612     0.391489361759      -0.511398844612     -0.607050203817     -0.464023669539     
8200000000.0        -0.613001116523     -0.462365734511     0.385508908754      -0.510345028114     0.385508908754      -0.510345028114     -0.613001116523     -0.462365734511     
8300000000.0        -0.618849259668     -0.460655667388     0.379630823474      -0.509239722824     0.379630823474      -0.509239722824     -0.618849259668     -0.460655667388     
8400000000.0        -0.624595985171     -0.458896390276     0.373853752473      -0.508085856885     0.373853752473      -0.508085856885     -0.624595985171     -0.458896390276     
8500000000.0        -0.630242672335     -0.457090708802     0.368176314899      -0.506886241967     0.368176314899      -0.506886241967     -0.630242672335     -0.457090708802     
8600000000.0        -0.635790723571     -0.455241315588     0.362597106781      -0.505643576738     0.362597106781      -0.505643576738     -0.635790723571     -0.455241315588     
8700000000.0        -0.641241560419     -0.453350793708     0.357114705         -0.504360450325     0.357114705         -0.504360450325     -0.641241560419     -0.453350793708     
8800000000.0        -0.646596619856     -0.451421620136     0.351727670983      -0.50303934576      0.351727670983      -0.50303934576      -0.646596619856     -0.451421620136     
8900000000.0        -0.651857350878     -0.449456169156     0.346434554121      -0.501682643392     0.346434554121      -0.501682643392     -0.651857350878     -0.449456169156     
9000000000.0        -0.657025211335     -0.447456715735     0.341233894933      -0.500292624264     0.341233894933      -0.500292624264     -0.657025211335     -0.447456715735     
9100000000.0        -0.662101665011     -0.445425438856     0.336124227988      -0.49887147344      0.336124227988      -0.49887147344      -0.662101665011     -0.445425438856     
9200000000.0        -0.667088178933     -0.443364424795     0.331104084595      -0.497421283286     0.331104084595      -0.497421283286     -0.667088178933     -0.443364424795     
9300000000.0        -0.671986220889     -0.441275670333     0.326171995282      -0.495944056685     0.326171995282      -0.495944056685     -0.671986220889     -0.441275670333     
9400000000.0        -0.67679725716      -0.439161085922     0.321326492069      -0.494441710198     0.321326492069      -0.494441710198     -0.67679725716      -0.439161085922     
9500000000.0        -0.681522750429     -0.437022498769     0.316566110554      -0.492916077155     0.316566110554      -0.492916077155     -0.681522750429     -0.437022498769     
9600000000.0        -0.686164157878     -0.434861655859     0.311889391819      -0.491368910673     0.311889391819      -0.491368910673     -0.686164157878     -0.434861655859     
9700000000.0        -0.690722929452     -0.432680226901     0.307294884166      -0.489801886607     0.307294884166      -0.489801886607     -0.690722929452     -0.432680226901     
9800000000.0        -0.695200506272     -0.430479807206     0.302781144701      -0.488216606424     0.302781144701      -0.488216606424     -0.695200506272     -0.430479807206     
9900000000.0        -0.699598319206     -0.428261920482     0.298346740766      -0.486614600004     0.298346740766      -0.486614600004     -0.699598319206     -0.428261920482     
10000000000.0       -0.703917787568     -0.426028021556     0.293990251237      -0.484997328358     0.293990251237      -0.484997328358     -0.703917787568     -0.426028021556     
