# Hz S RI R 50.00 
100000000.0         -0.0127810867874    -0.111821709522     0.987198756957      -0.11192328176      0.987198756957      -0.11192328176      -0.0127810867874    -0.111821709522     
200000000.0         -0.0490445093162    -0.215381069844     0.950935180898      -0.215584263105     0.950935180898      -0.215584263105     -0.0490445093162    -0.215381069844     
300000000.0         -0.103817407282     -0.304384830641     0.89616215352       -0.304689718147     0.89616215352       -0.304689718147     -0.103817407282     -0.304384830641     
400000000.0         -0.170621923066     -0.375484289708     0.8293575151        -0.375890962461     0.8293575151        -0.375890962461     -0.170621923066     -0.375484289708     
500000000.0         -0.243096432366     -0.428204991319     0.756882883277      -0.428713554302     0.756882883277      -0.428713554302     -0.243096432366     -0.428204991319     
600000000.0         -0.316076848664     -0.464142181526     0.683902341165      -0.464752750951     0.683902341165      -0.464752750951     -0.316076848664     -0.464142181526     
700000000.0         -0.385984101706     -0.485972808105     0.613994957001      -0.486685509239     0.613994957001      -0.486685509239     -0.385984101706     -0.485972808105     
800000000.0         -0.450712321986     -0.496658025101     0.549266598972      -0.497472990462     0.549266598972      -0.497472990462     -0.450712321986     -0.496658025101     
900000000.0         -0.509289853826     -0.498954277135     0.490688921836      -0.499871644972     0.490688921836      -0.499871644972     -0.509289853826     -0.498954277135     
1000000000.0        -0.561509496452     -0.495190135475     0.438469125691      -0.496210048465     0.438469125691      -0.496210048465     -0.561509496452     -0.495190135475     
1100000000.0        -0.607622250309     -0.487215464233     0.39235620957       -0.48833806836      0.39235620957       -0.48833806836      -0.607622250309     -0.487215464233     
1200000000.0        -0.648118382831     -0.476440006434     0.351859905635      -0.477665450026     0.351859905635      -0.477665450026     -0.648118382831     -0.476440006434     
1300000000.0        -0.683585940272     -0.463906622478     0.316392167297      -0.465235055373     0.316392167297      -0.465235055373     -0.683585940272     -0.463906622478     
1400000000.0        -0.714626786732     -0.450369352751     0.285351130181      -0.451800925588     0.285351130181      -0.451800925588     -0.714626786732     -0.450369352751     
1500000000.0        -0.741811207676     -0.436362926661     0.25816650859       -0.437897790273     0.25816650859       -0.437897790273     -0.741811207676     -0.436362926661     
1600000000.0        -0.765656562936     -0.422259469016     0.234320942492      -0.423897773913     0.234320942492      -0.423897773913     -0.765656562936     -0.422259469016     
1700000000.0        -0.786620038679     -0.408312516183     0.213357245546      -0.410054412121     0.213357245546      -0.410054412121     -0.786620038679     -0.408312516183     
1800000000.0        -0.805099132486     -0.394690158095     0.194877920017      -0.396535793717     0.194877920017      -0.396535793717     -0.805099132486     -0.394690158095     
1900000000.0        -0.821436001485     -0.381499514925     0.178540808643      -0.383449037466     0.178540808643      -0.383449037466     -0.821436001485     -0.381499514925     
2000000000.0        -0.835923424523     -0.368804588275     0.164053132454      -0.370858143329     0.164053132454      -0.370858143329     -0.835923424523     -0.368804588275     
2100000000.0        -0.848811134251     -0.356639171741     0.151165158688      -0.35879690307      0.151165158688      -0.35879690307      -0.848811134251     -0.356639171741     
2200000000.0        -0.860311875841     -0.345016134034     0.139664142071      -0.347278183426     0.139664142071      -0.347278183426     -0.860311875841     -0.345016134034     
2300000000.0        -0.870606896432     -0.333934064484     0.129368835373      -0.336300571651     0.129368835373      -0.336300571651     -0.870606896432     -0.333934064484     
2400000000.0        -0.879850762902     -0.323382012068     0.120124671632      -0.325853114576     0.120124671632      -0.325853114576     -0.879850762902     -0.323382012068     
2500000000.0        -0.88817550797      -0.313342851376     0.111799618048      -0.315918684605     0.111799618048      -0.315918684605     -0.88817550797      -0.313342851376     
2600000000.0        -0.895694154473     -0.303795661812     0.10428065171       -0.306476358937     0.10428065171       -0.306476358937     -0.895694154473     -0.303795661812     
2700000000.0        -0.902503688046     -0.294717398581     0.0974707869144     -0.297503090582     0.0974707869144     -0.297503090582     -0.902503688046     -0.294717398581     
2800000000.0        -0.908687552954     -0.286084055925     0.0912865793318     -0.288974871609     0.0912865793318     -0.288974871609     -0.908687552954     -0.286084055925     
2900000000.0        -0.91431774233      -0.277871466717     0.0856560357674     -0.280867532759     0.0856560357674     -0.280867532759     -0.91431774233      -0.277871466717     
3000000000.0        -0.919456546972     -0.27005584205      0.0805168653652     -0.273157283044     0.0805168653652     -0.273157283044     -0.919456546972     -0.27005584205      
3100000000.0        -0.924158018569     -0.262614125365     0.0758150163816     -0.265821063888     0.0758150163816     -0.265821063888     -0.924158018569     -0.262614125365     
3200000000.0        -0.928469195013     -0.255524214787     0.0715034508713     -0.258836771471     0.0715034508713     -0.258836771471     -0.928469195013     -0.255524214787     
3300000000.0        -0.932431127925     -0.248765092303     0.0675411171621     -0.252183385915     0.0675411171621     -0.252183385915     -0.932431127925     -0.248765092303     
3400000000.0        -0.936079745877     -0.242316887642     0.063892086634      -0.245841035167     0.063892086634      -0.245841035167     -0.936079745877     -0.242316887642     
3500000000.0        -0.939446581105     -0.236160896885     0.0605248270048     -0.239791013614     0.0605248270048     -0.239791013614     -0.939446581105     -0.236160896885     
3600000000.0        -0.942559382716     -0.230279570241     0.0574115891218     -0.234015769866     0.0574115891218     -0.234015769866     -0.942559382716     -0.230279570241     
3700000000.0        -0.945442635389     -0.224656479336     0.0545278882617     -0.228498874039     0.0545278882617     -0.228498874039     -0.945442635389     -0.224656479336     
3800000000.0        -0.948117999253     -0.219276271415     0.0518520642542     -0.223224971966     0.0518520642542     -0.223224971966     -0.948117999253     -0.219276271415     
3900000000.0        -0.950604683884     -0.214124615739     0.0493649074786     -0.21817973159      0.0493649074786     -0.21817973159      -0.950604683884     -0.214124615739     
4000000000.0        -0.952919767147     -0.20918814589      0.0470493400319     -0.213349785273     0.0470493400319     -0.213349785273     -0.952919767147     -0.20918814589      
4100000000.0        -0.955078467704     -0.204454400584     0.0448901432103     -0.208722670601     0.0448901432103     -0.208722670601     -0.955078467704     -0.204454400584     
4200000000.0        -0.957094378567     -0.19991176478      0.0428737239633     -0.204286771499     0.0428737239633     -0.204286771499     -0.957094378567     -0.19991176478      
4300000000.0        -0.958979667761     -0.195549412282     0.040987914227      -0.200031260831     0.040987914227      -0.200031260831     -0.958979667761     -0.195549412282     
4400000000.0        -0.960745251189     -0.191357250618     0.0392217980601     -0.195946045274     0.0392217980601     -0.195946045274     -0.960745251189     -0.191357250618     
4500000000.0        -0.962400941921     -0.187325868658     0.0375655623552     -0.192021712933     0.0375655623552     -0.192021712933     -0.962400941921     -0.187325868658     
4600000000.0        -0.963955579442     -0.183446487238     0.0360103675878     -0.188249483969     0.0360103675878     -0.188249483969     -0.963955579442     -0.183446487238     
4700000000.0        -0.965417141834     -0.179710912893     0.03454823564       -0.184621164326     0.03454823564       -0.184621164326     -0.965417141834     -0.179710912893     
4800000000.0        -0.966792843361     -0.17611149471      0.0331719522101     -0.18112910258      0.0331719522101     -0.18112910258      -0.966792843361     -0.17611149471      
4900000000.0        -0.968089219569     -0.172641084214     0.0318749817144     -0.177766149824     0.0318749817144     -0.177766149824     -0.968089219569     -0.172641084214     
5000000000.0        -0.969312201665     -0.169292998192     0.03065139291       -0.174525622494     0.03065139291       -0.174525622494     -0.969312201665     -0.169292998192     
5100000000.0        -0.970467181662     -0.1660609843       0.0294957937462     -0.171401267967     0.0294957937462     -0.171401267967     -0.970467181662     -0.1660609843       
5200000000.0        -0.971559069573     -0.162939189293     0.0284032741722     -0.16838723279      0.0284032741722     -0.16838723279      -0.971559069573     -0.162939189293     
5300000000.0        -0.972592343724     -0.159922129715     0.0273693558257     -0.165478033369     0.0273693558257     -0.165478033369     -0.972592343724     -0.159922129715     
5400000000.0        -0.973571095103     -0.157004664869     0.0263899476807     -0.162668528938     0.0263899476807     -0.162668528938     -0.973571095103     -0.157004664869     
5500000000.0        -0.974499066537     -0.15418197192      0.0254613068722     -0.159953896657     0.0254613068722     -0.159953896657     -0.974499066537     -0.15418197192      
5600000000.0        -0.975379687365     -0.151449522955     0.0245800040237     -0.157329608667     0.0245800040237     -0.157329608667     -0.975379687365     -0.151449522955     
5700000000.0        -0.976216104182     -0.148803063847     0.0237428925028     -0.154791410962     0.0237428925028     -0.154791410962     -0.976216104182     -0.148803063847     
5800000000.0        -0.977011208149     -0.1462385948       0.0229470811083     -0.152335303918     0.0229470811083     -0.152335303918     -0.977011208149     -0.1462385948       
5900000000.0        -0.977767659307     -0.143752352409     0.0221899097627     -0.149957524361     0.0221899097627     -0.149957524361     -0.977767659307     -0.143752352409     
6000000000.0        -0.978487908242     -0.141340793143     0.0214689278395     -0.147654529044     0.0214689278395     -0.147654529044     -0.978487908242     -0.141340793143     
6100000000.0        -0.979174215444     -0.139000578114     0.0207818748095     -0.145422979413     0.0207818748095     -0.145422979413     -0.979174215444     -0.139000578114     
6200000000.0        -0.97982866862      -0.136728559023     0.0201266629253     -0.143259727556     0.0201266629253     -0.143259727556     -0.97982866862      -0.136728559023     
6300000000.0        -0.98045319821      -0.13452176521      0.0195013617076     -0.141161803244     0.0195013617076     -0.141161803244     -0.98045319821      -0.13452176521      
6400000000.0        -0.981049591307     -0.132377391687     0.0189041840214     -0.139126401965     0.0189041840214     -0.139126401965     -0.981049591307     -0.132377391687     
6500000000.0        -0.981619504177     -0.13029278809      0.0183334735608     -0.137150873879     0.0183334735608     -0.137150873879     -0.981619504177     -0.13029278809      
6600000000.0        -0.982164473521     -0.12826544847      0.0177876935826     -0.135232713601     0.0177876935826     -0.135232713601     -0.982164473521     -0.12826544847      
6700000000.0        -0.982685926634     -0.126293001851     0.0172654167497     -0.13336955076      0.0172654167497     -0.13336955076      -0.982685926634     -0.126293001851     
6800000000.0        -0.983185190575     -0.124373203499     0.0167653159611     -0.131559141262     0.0167653159611     -0.131559141262     -0.983185190575     -0.124373203499     
6900000000.0        -0.983663500454     -0.122503926827     0.0162861560619     -0.129799359205     0.0162861560619     -0.129799359205     -0.983663500454     -0.122503926827     
7000000000.0        -0.984122006942     -0.120683155908     0.0158267863376     -0.128088189379     0.0158267863376     -0.128088189379     -0.984122006942     -0.120683155908     
7100000000.0        -0.984561783072     -0.118908978528     0.0153861337112     -0.12642372032      0.0153861337112     -0.12642372032      -0.984561783072     -0.118908978528     
7200000000.0        -0.984983830415     -0.11717957974      0.0149631965671     -0.124804137868     0.0149631965671     -0.124804137868     -0.984983830415     -0.11717957974      
7300000000.0        -0.985389084692     -0.115493235882     0.0145570391386     -0.12322771918      0.0145570391386     -0.12322771918      -0.985389084692     -0.115493235882     
7400000000.0        -0.985778420881     -0.113848309024     0.014166786401      -0.121692827172     0.014166786401      -0.121692827172     -0.985778420881     -0.113848309024     
7500000000.0        -0.986152657872     -0.112243241795     0.0137916194184     -0.120197905354     0.0137916194184     -0.120197905354     -0.986152657872     -0.112243241795     
7600000000.0        -0.986512562707     -0.110676552585     0.0134307710997     -0.118741473022     0.0134307710997     -0.118741473022     -0.986512562707     -0.110676552585     
7700000000.0        -0.986858854461     -0.109146831066     0.0130835223232     -0.117322120786     0.0130835223232     -0.117322120786     -0.986858854461     -0.109146831066     
7800000000.0        -0.98719220778      -0.107652734032     0.0127491983935     -0.1159385064       0.0127491983935     -0.1159385064       -0.98719220778      -0.107652734032     
7900000000.0        -0.987513256127     -0.10619298151      0.0124271657989     -0.114589350881     0.0124271657989     -0.114589350881     -0.987513256127     -0.10619298151      
8000000000.0        -0.987822594749     -0.10476635314      0.0121168292407     -0.113273434881     0.0121168292407     -0.113273434881     -0.987822594749     -0.10476635314      
8100000000.0        -0.988120783407     -0.103371684796     0.0118176289088     -0.111989595314     0.0118176289088     -0.111989595314     -0.988120783407     -0.103371684796     
8200000000.0        -0.988408348871     -0.102007865428     0.0115290379801     -0.110736722189     0.0115290379801     -0.110736722189     -0.988408348871     -0.102007865428     
8300000000.0        -0.988685787225     -0.100673834109     0.0112505603197     -0.109513755665     0.0112505603197     -0.109513755665     -0.988685787225     -0.100673834109     
8400000000.0        -0.988953565976     -0.099368577281     0.0109817283667     -0.108319683289     0.0109817283667     -0.108319683289     -0.988953565976     -0.099368577281     
8500000000.0        -0.989212126005     -0.0980911261691    0.0107221011869     -0.107153537413     0.0107221011869     -0.107153537413     -0.989212126005     -0.0980911261691    
8600000000.0        -0.989461883359     -0.096840554366     0.0104712626784     -0.10601439278      0.0104712626784     -0.10601439278      -0.989461883359     -0.096840554366     
8700000000.0        -0.989703230909     -0.0956159755678    0.0102288199161     -0.104901364253     0.0102288199161     -0.104901364253     -0.989703230909     -0.0956159755678    
8800000000.0        -0.989936539874     -0.0944165414499    0.00999440162362    -0.103813604695     0.00999440162362    -0.103813604695     -0.989936539874     -0.0944165414499    
8900000000.0        -0.990162161237     -0.0932414396766    0.00976765676087    -0.102750302979     0.00976765676087    -0.102750302979     -0.990162161237     -0.0932414396766    
9000000000.0        -0.990380427053     -0.0920898920315    0.00954825321752    -0.101710682113     0.00954825321752    -0.101710682113     -0.990380427053     -0.0920898920315    
9100000000.0        -0.990591651651     -0.0909611526624    0.00933587660389    -0.100693997488     0.00933587660389    -0.100693997488     -0.990591651651     -0.0909611526624    
9200000000.0        -0.990796132762     -0.0898545064319    0.00913022913071    -0.0996995352298    0.00913022913071    -0.0996995352298    -0.990796132762     -0.0898545064319    
9300000000.0        -0.990994152555     -0.0887692673669    0.0089310285703     -0.0987266106424    0.0089310285703     -0.0987266106424    -0.990994152555     -0.0887692673669    
9400000000.0        -0.991185978597     -0.0877047771994    0.00873800729278    -0.0977745667535    0.00873800729278    -0.0977745667535    -0.991185978597     -0.0877047771994    
9500000000.0        -0.991371864755     -0.0866604039936    0.00855091137093    -0.0968427729392    0.00855091137093    -0.0968427729392    -0.991371864755     -0.0866604039936    
9600000000.0        -0.991552052022     -0.0856355408526    0.00836949974842    -0.0959306236304    0.00836949974842    -0.0959306236304    -0.991552052022     -0.0856355408526    
9700000000.0        -0.991726769295     -0.0846296047001    0.00819354346609    -0.0950375370944    0.00819354346609    -0.0950375370944    -0.991726769295     -0.0846296047001    
9800000000.0        -0.991896234091     -0.0836420351315    0.00802282494199    -0.0941629542858    0.00802282494199    -0.0941629542858    -0.991896234091     -0.0836420351315    
9900000000.0        -0.992060653221     -0.0826722933302    0.00785713730062    -0.093306337762     0.00785713730062    -0.093306337762     -0.992060653221     -0.0826722933302    
10000000000.0       -0.992220223413     -0.0817198610451    0.00769628374803    -0.0924671706611    0.00769628374803    -0.0924671706611    -0.992220223413     -0.0817198610451    
