# Hz S RI R 50.00 
100000000.0         -0.000837689336229  -0.0295676953915    0.998991602792      -0.0301684105848    0.998991602792      -0.0301684105848    -0.000837689336229  -0.0295676953915    
200000000.0         -0.00353547146821   -0.0589726400924    0.996292115403      -0.0601741596009    0.996292115403      -0.0601741596009    -0.00353547146821   -0.0589726400924    
300000000.0         -0.00798062961509   -0.0880585710461    0.991845183234      -0.0898610357808    0.991845183234      -0.0898610357808    -0.00798062961509   -0.0880585710461    
400000000.0         -0.0141264537145    -0.116674821482     0.985697369183      -0.119078414144     0.985697369183      -0.119078414144     -0.0141264537145    -0.116674821482     
500000000.0         -0.0219095311979    -0.144678806554     0.977912029088      -0.147683746598     0.977912029088      -0.147683746598     -0.0219095311979    -0.144678806554     
600000000.0         -0.0312513169012    -0.171938228059     0.968567679003      -0.17554476836      0.968567679003      -0.17554476836      -0.0312513169012    -0.171938228059     
700000000.0         -0.0420600467351    -0.198332927119     0.957756065612      -0.202541351495     0.957756065612      -0.202541351495     -0.0420600467351    -0.198332927119     
800000000.0         -0.0542328919881    -0.22375633739      0.945580006118      -0.228566958646     0.945580006118      -0.228566958646     -0.0542328919881    -0.22375633739      
900000000.0         -0.0676582607071    -0.248116513623     0.932151084292      -0.253529671937     0.932151084292      -0.253529671937     -0.0676582607071    -0.248116513623     
1000000000.0        -0.0822181555012    -0.271336731921     0.917587291365      -0.27735279347      0.917587291365      -0.27735279347      -0.0822181555012    -0.271336731921     
1100000000.0        -0.0977905033212    -0.293355677645     0.90201069553       -0.299975033413     0.90201069553       -0.299975033413     -0.0977905033212    -0.293355677645     
1200000000.0        -0.11425138272      -0.314127253531     0.885545214253      -0.321350318259     0.885545214253      -0.321350318259     -0.11425138272      -0.314127253531     
1300000000.0        -0.131477086914     -0.333620053346     0.868314550942      -0.341447264591     0.868314550942      -0.341447264591     -0.131477086914     -0.333620053346     
1400000000.0        -0.149345975419     -0.351816555088     0.850440343136      -0.360248372379     0.850440343136      -0.360248372379     -0.149345975419     -0.351816555088     
1500000000.0        -0.167740082001     -0.368712092312     0.832040554439      -0.377748996373     0.832040554439      -0.377748996373     -0.167740082001     -0.368712092312     
1600000000.0        -0.186546461003     -0.384313662958     0.813228128103      -0.393956155007     0.813228128103      -0.393956155007     -0.186546461003     -0.384313662958     
1700000000.0        -0.205658267157     -0.39863863278      0.794109907165      -0.408887233875     0.794109907165      -0.408887233875     -0.205658267157     -0.39863863278      
1800000000.0        -0.224975574985     -0.411713385674     0.774785814996      -0.422568636117     0.774785814996      -0.422568636117     -0.224975574985     -0.411713385674     
1900000000.0        -0.244405952738     -0.423571966762     0.755348281334      -0.435034425537     0.755348281334      -0.435034425537     -0.244405952738     -0.423571966762     
2000000000.0        -0.263864812299     -0.434254756637     0.735881892354      -0.446325000896     0.735881892354      -0.446325000896     -0.263864812299     -0.434254756637     
2100000000.0        -0.283275560745     -0.443807207411     0.716463239086      -0.456485831988     0.716463239086      -0.456485831988     -0.283275560745     -0.443807207411     
2200000000.0        -0.302569581581     -0.452278663534     0.697160936173      -0.465566280498     0.697160936173      -0.465566280498     -0.302569581581     -0.452278663534     
2300000000.0        -0.321686074224     -0.459721283306     0.678035782367      -0.473618521537     0.678035782367      -0.473618521537     -0.321686074224     -0.459721283306     
2400000000.0        -0.340571779639     -0.466189070659     0.659141034892      -0.480696575453     0.659141034892      -0.480696575453     -0.340571779639     -0.466189070659     
2500000000.0        -0.359180618277     -0.471737021447     0.640522771491      -0.486855454147     0.640522771491      -0.486855454147     -0.359180618277     -0.471737021447     
2600000000.0        -0.377473264097     -0.476420384096     0.622220316403      -0.492150421743     0.622220316403      -0.492150421743     -0.377473264097     -0.476420384096     
2700000000.0        -0.395416675644     -0.480294031027     0.60426670928       -0.49663636604      0.60426670928       -0.49663636604      -0.395416675644     -0.480294031027     
2800000000.0        -0.412983602198     -0.483411934779     0.58668919903       -0.500367274641     0.58668919903       -0.500367274641     -0.412983602198     -0.483411934779     
2900000000.0        -0.430152080075     -0.485826740969     0.56950974752       -0.503395807948     0.56950974752       -0.503395807948     -0.430152080075     -0.485826740969     
3000000000.0        -0.446904931287     -0.487589429213     0.552745530908      -0.505772960089     0.552745530908      -0.505772960089     -0.446904931287     -0.487589429213     
3100000000.0        -0.463229274226     -0.488749052583     0.536409428953      -0.507547798398     0.536409428953      -0.507547798398     -0.463229274226     -0.488749052583     
3200000000.0        -0.479116053689     -0.489352546101     0.520510494999      -0.508767271923     0.520510494999      -0.508767271923     -0.479116053689     -0.489352546101     
3300000000.0        -0.494559595521     -0.489444595035     0.50505440132       -0.509476079733     0.50505440132       -0.509476079733     -0.494559595521     -0.489444595035     
3400000000.0        -0.509557189484     -0.489067554206     0.490043856257      -0.50971659025      0.490043856257      -0.50971659025      -0.509557189484     -0.489067554206     
3500000000.0        -0.524108702474     -0.488261410199     0.475478990994      -0.509528803459     0.475478990994      -0.509528803459     -0.524108702474     -0.488261410199     
3600000000.0        -0.538216223102     -0.487063779047     0.461357714979      -0.508950348618     0.461357714979      -0.508950348618     -0.538216223102     -0.487063779047     
3700000000.0        -0.55188373772      -0.48550993278      0.447676039899      -0.50801651081      0.447676039899      -0.50801651081      -0.55188373772      -0.48550993278      
3800000000.0        -0.565116837255     -0.48363284896      0.434428372838      -0.506760280498     0.434428372838      -0.506760280498     -0.565116837255     -0.48363284896      
3900000000.0        -0.577922453731     -0.481463278121     0.421607779763      -0.505212420968     0.421607779763      -0.505212420968     -0.577922453731     -0.481463278121     
4000000000.0        -0.590308624959     -0.479029824702     0.409206220827      -0.503401549277     0.409206220827      -0.503401549277     -0.590308624959     -0.479029824702     
4100000000.0        -0.602284285649     -0.476359037745     0.39721475926       -0.501354226963     0.39721475926       -0.501354226963     -0.602284285649     -0.476359037745     
4200000000.0        -0.613859083044     -0.473475508231     0.385623745732      -0.499095057385     0.385623745732      -0.499095057385     -0.613859083044     -0.473475508231     
4300000000.0        -0.625043215122     -0.470401970427     0.374422980152      -0.496646787087     0.374422980152      -0.496646787087     -0.625043215122     -0.470401970427     
4400000000.0        -0.635847289405     -0.467159405128     0.363601852859      -0.494030409042     0.363601852859      -0.494030409042     -0.635847289405     -0.467159405128     
4500000000.0        -0.64628220045      -0.463767143068     0.353149467128      -0.491265266075     0.353149467128      -0.491265266075     -0.64628220045      -0.463767143068     
4600000000.0        -0.656359024186     -0.460242967118     0.343054744835      -0.488369153075     0.343054744835      -0.488369153075     -0.656359024186     -0.460242967118     
4700000000.0        -0.666088927351     -0.456603212232     0.33330651702       -0.485358416932     0.33330651702       -0.485358416932     -0.666088927351     -0.456603212232     
4800000000.0        -0.675483090382     -0.452862862293     0.323893600991      -0.482248053413     0.323893600991      -0.482248053413     -0.675483090382     -0.452862862293     
4900000000.0        -0.684552642263     -0.4490356433       0.314804865484      -0.479051800338     0.314804865484      -0.479051800338     -0.684552642263     -0.4490356433       
5000000000.0        -0.693308605932     -0.445134112451     0.30602928525       -0.475782226683     0.30602928525       -0.475782226683     -0.693308605932     -0.445134112451     
5100000000.0        -0.701761852967     -0.441169742865     0.29755598637       -0.472450817297     0.29755598637       -0.472450817297     -0.701761852967     -0.441169742865     
5200000000.0        -0.709923066419     -0.437153003778     0.289374283421      -0.469068053118     0.289374283421      -0.469068053118     -0.709923066419     -0.437153003778     
5300000000.0        -0.717802710751     -0.433093436163     0.281473709539      -0.465643486787     0.281473709539      -0.465643486787     -0.717802710751     -0.433093436163     
5400000000.0        -0.725411007935     -0.428999723785     0.273844040315      -0.462185813717     0.273844040315      -0.462185813717     -0.725411007935     -0.428999723785     
5500000000.0        -0.732757918909     -0.424879759762     0.26647531235       -0.458702938657     0.26647531235       -0.458702938657     -0.732757918909     -0.424879759762     
5600000000.0        -0.739853129621     -0.420740708762     0.259357837196      -0.455202037896     0.259357837196      -0.455202037896     -0.739853129621     -0.420740708762     
5700000000.0        -0.746706041034     -0.416589064975     0.252482211361      -0.451689617239     0.252482211361      -0.451689617239     -0.746706041034     -0.416589064975     
5800000000.0        -0.753325762497     -0.41243070604      0.245839322932      -0.448171565941     0.245839322932      -0.448171565941     -0.753325762497     -0.41243070604      
5900000000.0        -0.759721107983     -0.408270943128     0.239420355342      -0.444653206793     0.239420355342      -0.444653206793     -0.759721107983     -0.408270943128     
6000000000.0        -0.765900594739     -0.404114567354     0.233216788712      -0.441139342542     0.233216788712      -0.441139342542     -0.765900594739     -0.404114567354     
6100000000.0        -0.771872443973     -0.39996589276      0.22722039917       -0.437634298875     0.22722039917       -0.437634298875     -0.771872443973     -0.39996589276      
6200000000.0        -0.777644583221     -0.395828796039     0.221423256479      -0.434141964153     0.221423256479      -0.434141964153     -0.777644583221     -0.395828796039     
6300000000.0        -0.783224650113     -0.391706753226     0.215817720279      -0.430665826102     0.215817720279      -0.430665826102     -0.783224650113     -0.391706753226     
6400000000.0        -0.788619997267     -0.387602873549     0.210396435176      -0.427209005668     0.210396435176      -0.427209005668     -0.788619997267     -0.387602873549     
6500000000.0        -0.793837698112     -0.383519930619     0.20515232494       -0.423774288214     0.20515232494       -0.423774288214     -0.793837698112     -0.383519930619     
6600000000.0        -0.79888455342      -0.379460391166     0.200078585953      -0.420364152261     0.200078585953      -0.420364152261     -0.79888455342      -0.379460391166     
6700000000.0        -0.803767098411     -0.375426441476     0.195168680114      -0.416980795926     0.195168680114      -0.416980795926     -0.803767098411     -0.375426441476     
6800000000.0        -0.808491610275     -0.371420011707     0.190416327317      -0.413626161242     0.190416327317      -0.413626161242     -0.808491610275     -0.371420011707     
6900000000.0        -0.813064115995     -0.367442798238     0.185815497622      -0.410301956513     0.185815497622      -0.410301956513     -0.813064115995     -0.367442798238     
7000000000.0        -0.817490400372     -0.363496284201     0.181360403233      -0.407009676847     0.181360403233      -0.407009676847     -0.817490400372     -0.363496284201     
7100000000.0        -0.821776014165     -0.359581758327     0.177045490355      -0.403750623011     0.177045490355      -0.403750623011     -0.821776014165     -0.359581758327     
7200000000.0        -0.825926282278     -0.355700332255     0.172865431013      -0.400525918734     0.172865431013      -0.400525918734     -0.825926282278     -0.355700332255     
7300000000.0        -0.829946311924     -0.351852956397     0.168815114877      -0.397336526582     0.168815114877      -0.397336526582     -0.829946311924     -0.351852956397     
7400000000.0        -0.833841000732     -0.348040434497     0.164889641163      -0.394183262523     0.164889641163      -0.394183262523     -0.833841000732     -0.348040434497     
7500000000.0        -0.837615044739     -0.344263436975     0.161084310637      -0.391066809266     0.161084310637      -0.391066809266     -0.837615044739     -0.344263436975     
7600000000.0        -0.841272946251     -0.340522513159     0.157394617752      -0.387987728503     0.157394617752      -0.387987728503     -0.841272946251     -0.340522513159     
7700000000.0        -0.844819021533     -0.336818102488     0.153816242963      -0.38494647211      0.153816242963      -0.38494647211      -0.844819021533     -0.336818102488     
7800000000.0        -0.848257408315     -0.333150544777     0.150345045213      -0.38194339242      0.150345045213      -0.38194339242      -0.848257408315     -0.333150544777     
7900000000.0        -0.851592073092     -0.329520089615     0.146977054639      -0.378978751617     0.146977054639      -0.378978751617     -0.851592073092     -0.329520089615     
8000000000.0        -0.854826818215     -0.325926904968     0.143708465473      -0.376052730351     0.143708465473      -0.376052730351     -0.854826818215     -0.325926904968     
8100000000.0        -0.857965288757     -0.322371085054     0.140535629185      -0.373165435608     0.140535629185      -0.373165435608     -0.857965288757     -0.322371085054     
8200000000.0        -0.861010979147     -0.318852657549     0.13745504784       -0.370316907921     0.13745504784       -0.370316907921     -0.861010979147     -0.318852657549     
8300000000.0        -0.863967239577     -0.315371590176     0.134463367693      -0.367507127964     0.134463367693      -0.367507127964     -0.863967239577     -0.315371590176     
8400000000.0        -0.866837282175     -0.311927796734     0.131557373017      -0.364736022582     0.131557373017      -0.364736022582     -0.866837282175     -0.311927796734     
8500000000.0        -0.869624186948     -0.30852114261      0.128733980157      -0.3620034703       0.128733980157      -0.3620034703       -0.869624186948     -0.30852114261      
8600000000.0        -0.872330907492     -0.30515144981      0.125990231823      -0.35930930637      0.125990231823      -0.35930930637      -0.872330907492     -0.30515144981      
8700000000.0        -0.874960276479     -0.301818501567     0.123323291596      -0.356653327368     0.123323291596      -0.356653327368     -0.874960276479     -0.301818501567     
8800000000.0        -0.877515010917     -0.298522046545     0.120730438673      -0.354035295404     0.120730438673      -0.354035295404     -0.877515010917     -0.298522046545     
8900000000.0        -0.879997717202     -0.295261802673     0.11820906281       -0.351454941966     0.11820906281       -0.351454941966     -0.879997717202     -0.295261802673     
9000000000.0        -0.88241089595      -0.292037460652     0.115756659495      -0.348911971418     0.115756659495      -0.348911971418     -0.88241089595      -0.292037460652     
9100000000.0        -0.884756946625     -0.288848687154     0.113370825313      -0.346406064209     0.113370825313      -0.346406064209     -0.884756946625     -0.288848687154     
9200000000.0        -0.887038171971     -0.285695127734     0.111049253517      -0.343936879785     0.111049253517      -0.343936879785     -0.887038171971     -0.285695127734     
9300000000.0        -0.889256782248     -0.282576409492     0.108789729788      -0.341504059253     0.108789729788      -0.341504059253     -0.889256782248     -0.282576409492     
9400000000.0        -0.891414899283     -0.279492143491     0.106590128188      -0.339107227801     0.106590128188      -0.339107227801     -0.891414899283     -0.279492143491     
9500000000.0        -0.893514560342     -0.27644192697      0.104448407283      -0.336745996913     0.104448407283      -0.336745996913     -0.893514560342     -0.27644192697      
9600000000.0        -0.89555772183      -0.273425345344     0.102362606444      -0.334419966374     0.102362606444      -0.334419966374     -0.89555772183      -0.273425345344     
9700000000.0        -0.897546262821     -0.270441974036     0.100330842316      -0.332128726099     0.100330842316      -0.332128726099     -0.897546262821     -0.270441974036     
9800000000.0        -0.899481988434     -0.267491380132     0.0983513054412     -0.329871857798     0.0983513054412     -0.329871857798     -0.899481988434     -0.267491380132     
9900000000.0        -0.901366633053     -0.264573123894     0.096422257037      -0.327648936481     0.096422257037      -0.327648936481     -0.901366633053     -0.264573123894     
10000000000.0       -0.903201863401     -0.261686760124     0.0945420259223     -0.325459531831     0.0945420259223     -0.325459531831     -0.903201863401     -0.261686760124     
