# Hz S RI R 50.00 
100000000.0         0.00134344067512    -1.25219517897e-05  0.998640815729      -0.00455562502249   0.998640815729      -0.00455562502249   0.00134344067512    -1.25219517897e-05  
200000000.0         0.00135017279692    -2.51389098929e-05  0.998598461436      -0.00911115148704   0.998598461436      -0.00911115148704   0.00135017279692    -2.51389098929e-05  
300000000.0         0.00135444886429    -3.78343970819e-05  0.998537682686      -0.013666566935     0.998537682686      -0.013666566935     0.00135444886429    -3.78343970819e-05  
400000000.0         0.00135743218851    -5.06088481011e-05  0.998457313795      -0.0182218260514    0.998457313795      -0.0182218260514    0.00135743218851    -5.06088481011e-05  
500000000.0         0.00135956934783    -6.34653100683e-05  0.998356905533      -0.0227768727297    0.998356905533      -0.0227768727297    0.00135956934783    -6.34653100683e-05  
600000000.0         0.00136108708172    -7.64074205238e-05  0.998236228335      -0.0273316448369    0.998236228335      -0.0273316448369    0.00136108708172    -7.64074205238e-05  
700000000.0         0.00136211852087    -8.94387997847e-05  0.99809514614       -0.0318860762273    0.99809514614       -0.0318860762273    0.00136211852088    -8.94387997847e-05  
800000000.0         0.0013627492316     -0.000102562825127  0.99793357041       -0.036440097816     0.99793357041       -0.036440097816     0.0013627492316     -0.000102562825127  
900000000.0         0.00136303770855    -0.000115782540794  0.997751439678      -0.0409936382303    0.997751439678      -0.0409936382303    0.00136303770855    -0.000115782540794  
1000000000.0        0.00136302575943    -0.000129100624339  0.997548709208      -0.0455466242414    0.997548709208      -0.0455466242414    0.00136302575943    -0.000129100624339  
1100000000.0        0.00136274427743    -0.00014251937842   0.997325345254      -0.050098981068     0.997325345254      -0.050098981068     0.00136274427743    -0.00014251937842   
1200000000.0        0.00136221668159    -0.00015604073459   0.99708132165       -0.0546506325998    0.99708132165       -0.0546506325998    0.00136221668159    -0.00015604073459   
1300000000.0        0.00136146108234    -0.000169666262977  0.996816617673      -0.059201501569     0.996816617673      -0.059201501569     0.00136146108234    -0.000169666262977  
1400000000.0        0.00136049170618    -0.000183397184548  0.996531216641      -0.0637515096843    0.996531216641      -0.0637515096843    0.00136049170618    -0.000183397184548  
1500000000.0        0.00135931986766    -0.000197234384441  0.996225104961      -0.0683005777389    0.996225104961      -0.0683005777389    0.00135931986766    -0.000197234384441  
1600000000.0        0.00135795465327    -0.000211178425547  0.99589827147       -0.0728486256995    0.99589827147       -0.0728486256995    0.00135795465327    -0.000211178425547  
1700000000.0        0.00135640341529    -0.000225229561839  0.995550706955      -0.0773955727804    0.995550706955      -0.0773955727804    0.00135640341529    -0.000225229561839  
1800000000.0        0.0013546721368     -0.000239387751268  0.995182403808      -0.0819413375057    0.995182403808      -0.0819413375057    0.0013546721368     -0.000239387751268  
1900000000.0        0.00135276570672    -0.000253652668131  0.994793355765      -0.0864858377638    0.994793355765      -0.0864858377638    0.00135276570672    -0.000253652668131  
2000000000.0        0.00135068813086    -0.000268023714833  0.994383557711      -0.0910289908532    0.994383557711      -0.0910289908532    0.00135068813086    -0.000268023714833  
2100000000.0        0.00134844269635    -0.00028250003311   0.993953005528      -0.0955707135241    0.993953005528      -0.0955707135241    0.00134844269635    -0.00028250003311   
2200000000.0        0.00134603210173    -0.000297080514653  0.993501695979      -0.100110922014     0.993501695979      -0.100110922014     0.00134603210173    -0.000297080514653  
2300000000.0        0.00134345856097    -0.000311763811258  0.993029626618      -0.104649532078     0.993029626618      -0.104649532078     0.00134345856097    -0.000311763811258  
2400000000.0        0.0013407238879     -0.000326548344435  0.992536795713      -0.109186459023     0.992536795713      -0.109186459023     0.0013407238879     -0.000326548344435  
2500000000.0        0.0013378295652     -0.000341432314598  0.992023202192      -0.113721617726     0.992023202192      -0.113721617726     0.0013378295652     -0.000341432314598  
2600000000.0        0.00133477680158    -0.000356413709811  0.991488845594      -0.118254922663     0.991488845594      -0.118254922663     0.00133477680158    -0.000356413709811  
2700000000.0        0.00133156657944    -0.000371490314166  0.990933726032      -0.12278628793      0.990933726032      -0.12278628793      0.00133156657944    -0.000371490314166  
2800000000.0        0.00132819969495    -0.000386659715795  0.990357844161      -0.12731562726      0.990357844161      -0.12731562726      0.00132819969495    -0.000386659715796  
2900000000.0        0.00132467679216    -0.000401919314534  0.989761201156      -0.131842854042     0.989761201156      -0.131842854042     0.00132467679216    -0.000401919314534  
3000000000.0        0.00132099839205    -0.00041726632932   0.989143798688      -0.136367881341     0.989143798688      -0.136367881341     0.00132099839205    -0.00041726632932   
3100000000.0        0.00131716491754    -0.000432697805287  0.988505638908      -0.140890621909     0.988505638908      -0.140890621909     0.00131716491754    -0.000432697805287  
3200000000.0        0.00131317671519    -0.000448210620591  0.987846724435      -0.145410988201     0.987846724435      -0.145410988201     0.00131317671519    -0.000448210620591  
3300000000.0        0.00130903407404    -0.000463801493032  0.987167058341      -0.149928892389     0.987167058341      -0.149928892389     0.00130903407404    -0.000463801493032  
3400000000.0        0.00130473724217    -0.000479466986414  0.986466644146      -0.154444246377     0.986466644146      -0.154444246377     0.00130473724217    -0.000479466986414  
3500000000.0        0.00130028644123    -0.000495203516721  0.985745485805      -0.158956961807     0.985745485805      -0.158956961807     0.00130028644123    -0.000495203516721  
3600000000.0        0.00129568187931    -0.000511007358104  0.985003587707      -0.163466950077     0.985003587707      -0.163466950077     0.00129568187931    -0.000511007358104  
3700000000.0        0.00129092376239    -0.000526874648676  0.984240954666      -0.167974122345     0.984240954666      -0.167974122345     0.00129092376239    -0.000526874648676  
3800000000.0        0.00128601230452    -0.000542801396149  0.983457591916      -0.172478389545     0.983457591916      -0.172478389545     0.00128601230452    -0.000542801396149  
3900000000.0        0.00128094773699    -0.000558783483313  0.982653505113      -0.176979662394     0.982653505113      -0.176979662394     0.00128094773699    -0.000558783483313  
4000000000.0        0.00127573031655    -0.00057481667337   0.981828700325      -0.1814778514       0.981828700325      -0.1814778514       0.00127573031655    -0.00057481667337   
4100000000.0        0.00127036033279    -0.000590896615125  0.980983184034      -0.185972866872     0.980983184034      -0.185972866872     0.00127036033279    -0.000590896615125  
4200000000.0        0.00126483811484    -0.000607018848058  0.980116963135      -0.190464618929     0.980116963135      -0.190464618929     0.00126483811484    -0.000607018848058  
4300000000.0        0.0012591640375     -0.000623178807267  0.979230044932      -0.194953017507     0.979230044932      -0.194953017507     0.0012591640375     -0.000623178807267  
4400000000.0        0.00125333852674    -0.000639371828299  0.978322437139      -0.199437972368     0.978322437139      -0.199437972368     0.00125333852674    -0.000639371828299  
4500000000.0        0.00124736206471    -0.000655593151869  0.977394147876      -0.203919393103     0.977394147876      -0.203919393103     0.00124736206471    -0.000655593151869  
4600000000.0        0.00124123519439    -0.000671837928483  0.976445185675      -0.208397189145     0.976445185675      -0.208397189145     0.00124123519439    -0.000671837928483  
4700000000.0        0.00123495852379    -0.000688101222959  0.975475559473      -0.212871269773     0.975475559473      -0.212871269773     0.00123495852379    -0.000688101222959  
4800000000.0        0.00122853272978    -0.000704378018856  0.974485278616      -0.217341544117     0.974485278616      -0.217341544117     0.00122853272978    -0.000704378018856  
4900000000.0        0.00122195856166    -0.000720663222817  0.973474352857      -0.221807921169     0.973474352857      -0.221807921169     0.00122195856166    -0.000720663222817  
5000000000.0        0.00121523684438    -0.000736951668823  0.972442792359      -0.226270309782     0.972442792359      -0.226270309782     0.00121523684438    -0.000736951668823  
5100000000.0        0.00120836848154    -0.000753238122377  0.971390607691      -0.230728618684     0.971390607691      -0.230728618684     0.00120836848154    -0.000753238122377  
5200000000.0        0.00120135445815    -0.000769517284598  0.970317809833      -0.235182756478     0.970317809833      -0.235182756478     0.00120135445815    -0.000769517284598  
5300000000.0        0.0011941958431     -0.000785783796256  0.969224410175      -0.23963263165      0.969224410175      -0.23963263165      0.0011941958431     -0.000785783796256  
5400000000.0        0.00118689379154    -0.000802032241727  0.968110420513      -0.244078152574     0.968110420513      -0.244078152574     0.00118689379154    -0.000802032241727  
5500000000.0        0.00117944954698    -0.000818257152878  0.96697585306       -0.248519227517     0.96697585306       -0.248519227517     0.00117944954698    -0.000818257152878  
5600000000.0        0.00117186444325    -0.000834453012905  0.965820720435      -0.252955764646     0.965820720435      -0.252955764646     0.00117186444325    -0.000834453012905  
5700000000.0        0.0011641399063     -0.000850614260079  0.964645035673      -0.257387672029     0.964645035673      -0.257387672029     0.0011641399063     -0.000850614260079  
5800000000.0        0.00115627745585    -0.00086673529147   0.963448812219      -0.261814857645     0.963448812219      -0.261814857645     0.00115627745585    -0.00086673529147   
5900000000.0        0.00114827870688    -0.000882810466575  0.962232063932      -0.266237229384     0.962232063932      -0.266237229384     0.00114827870688    -0.000882810466575  
6000000000.0        0.00114014537103    -0.000898834110915  0.960994805089      -0.270654695057     0.960994805089      -0.270654695057     0.00114014537103    -0.000898834110915  
6100000000.0        0.00113187925784    -0.000914800519568  0.959737050376      -0.275067162394     0.959737050376      -0.275067162394     0.00113187925784    -0.000914800519568  
6200000000.0        0.00112348227585    -0.000930703960654  0.958458814901      -0.279474539054     0.958458814901      -0.279474539054     0.00112348227585    -0.000930703960654  
6300000000.0        0.00111495643369    -0.000946538678761  0.957160114186      -0.283876732628     0.957160114186      -0.283876732628     0.00111495643369    -0.000946538678761  
6400000000.0        0.00110630384093    -0.000962298898334  0.955840964169      -0.288273650641     0.955840964169      -0.288273650641     0.00110630384093    -0.000962298898334  
6500000000.0        0.00109752670896    -0.000977978826999  0.95450138121       -0.292665200559     0.95450138121       -0.292665200559     0.00109752670896    -0.000977978826999  
6600000000.0        0.00108862735168    -0.000993572658862  0.953141382086      -0.297051289793     0.953141382086      -0.297051289793     0.00108862735168    -0.000993572658862  
6700000000.0        0.00107960818615    -0.00100907457774   0.951760983993      -0.301431825699     0.951760983993      -0.301431825699     0.00107960818615    -0.00100907457774   
6800000000.0        0.00107047173315    -0.00102447876037   0.95036020455       -0.30580671559      0.95036020455       -0.30580671559      0.00107047173315    -0.00102447876037   
6900000000.0        0.00106122061762    -0.00103977937953   0.948939061796      -0.31017586673      0.948939061796      -0.31017586673      0.00106122061762    -0.00103977937953   
7000000000.0        0.0010518575691     -0.00105497060721   0.947497574192      -0.314539186348     0.947497574192      -0.314539186348     0.0010518575691     -0.00105497060721   
7100000000.0        0.001042385422      -0.00107004661761   0.946035760624      -0.318896581632     0.946035760624      -0.318896581632     0.001042385422      -0.00107004661761   
7200000000.0        0.00103280711589    -0.00108500159024   0.944553640398      -0.32324795974      0.944553640398      -0.32324795974      0.00103280711589    -0.00108500159024   
7300000000.0        0.00102312569564    -0.00109982971283   0.943051233248      -0.327593227802     0.943051233248      -0.327593227802     0.00102312569565    -0.00109982971283   
7400000000.0        0.00101334431158    -0.00111452518436   0.94152855933       -0.331932292921     0.94152855933       -0.331932292921     0.00101334431158    -0.00111452518436   
7500000000.0        0.00100346621945    -0.0011290822179    0.939985639228      -0.33626506218      0.939985639228      -0.33626506218      0.00100346621945    -0.0011290822179    
7600000000.0        0.000993494780487   -0.00114349504354   0.938422493951      -0.340591442641     0.938422493951      -0.340591442641     0.000993494780487   -0.00114349504354   
7700000000.0        0.000983433461312   -0.00115775791119   0.936839144936      -0.344911341356     0.936839144936      -0.344911341356     0.000983433461312   -0.00115775791119   
7800000000.0        0.000973285833762   -0.00117186509339   0.935235614045      -0.349224665361     0.935235614045      -0.349224665361     0.000973285833762   -0.00117186509339   
7900000000.0        0.000963055574741   -0.00118581088809   0.933611923573      -0.353531321688     0.933611923573      -0.353531321688     0.000963055574741   -0.00118581088809   
8000000000.0        0.000952746465949   -0.00119958962133   0.931968096238      -0.357831217363     0.931968096238      -0.357831217363     0.000952746465949   -0.00119958962133   
8100000000.0        0.000942362393593   -0.00121319564999   0.930304155191      -0.36212425941      0.930304155191      -0.36212425941      0.000942362393593   -0.00121319564999   
8200000000.0        0.00093190734803    -0.00122662336441   0.928620124012      -0.366410354856     0.928620124012      -0.366410354856     0.000931907348029   -0.00122662336441   
8300000000.0        0.000921385423363   -0.00123986719103   0.926916026711      -0.370689410734     0.926916026711      -0.370689410734     0.000921385423363   -0.00123986719103   
8400000000.0        0.000910800817005   -0.00125292159496   0.92519188773       -0.374961334085     0.92519188773       -0.374961334085     0.000910800817005   -0.00125292159496   
8500000000.0        0.000900157829154   -0.00126578108256   0.92344773194       -0.37922603196      0.92344773194       -0.37922603196      0.000900157829154   -0.00126578108256   
8600000000.0        0.000889460862271   -0.00127844020396   0.921683584647      -0.383483411429     0.921683584647      -0.383483411429     0.000889460862271   -0.00127844020396   
8700000000.0        0.000878714420459   -0.00129089355553   0.919899471587      -0.387733379575     0.919899471587      -0.387733379575     0.000878714420459   -0.00129089355553   
8800000000.0        0.000867923108864   -0.00130313578233   0.918095418929      -0.391975843505     0.918095418929      -0.391975843505     0.000867923108864   -0.00130313578233   
8900000000.0        0.000857091632973   -0.00131516158059   0.916271453275      -0.396210710349     0.916271453275      -0.396210710349     0.000857091632973   -0.00131516158059   
9000000000.0        0.000846224797882   -0.00132696570004   0.914427601663      -0.400437887265     0.914427601663      -0.400437887265     0.000846224797882   -0.00132696570004   
9100000000.0        0.00083532750755    -0.00133854294628   0.912563891561      -0.404657281438     0.912563891561      -0.404657281438     0.00083532750755    -0.00133854294628   
9200000000.0        0.000824404763989   -0.00134988818315   0.910680350875      -0.408868800091     0.910680350875      -0.408868800091     0.000824404763989   -0.00134988818315   
9300000000.0        0.000813461666432   -0.00136099633498   0.908777007942      -0.413072350477     0.908777007942      -0.413072350477     0.000813461666432   -0.00136099633498   
9400000000.0        0.000802503410417   -0.00137186238888   0.906853891538      -0.417267839892     0.906853891538      -0.417267839892     0.000802503410417   -0.00137186238888   
9500000000.0        0.000791535286893   -0.00138248139696   0.90491103087       -0.421455175672     0.90491103087       -0.421455175672     0.000791535286893   -0.00138248139696   
9600000000.0        0.000780562681247   -0.00139284847853   0.902948455585      -0.425634265197     0.902948455585      -0.425634265197     0.000780562681247   -0.00139284847853   
9700000000.0        0.00076959107231    -0.00140295882229   0.900966195762      -0.429805015894     0.900966195762      -0.429805015894     0.000769591072309   -0.00140295882229   
9800000000.0        0.000758626031335   -0.00141280768845   0.898964281919      -0.433967335242     0.898964281919      -0.433967335242     0.000758626031335   -0.00141280768845   
9900000000.0        0.000747673220916   -0.00142239041086   0.896942745008      -0.43812113077      0.896942745008      -0.43812113077      0.000747673220916   -0.00142239041086   
10000000000.0       0.000736738393882   -0.00143170239905   0.89490161642       -0.442266310065     0.89490161642       -0.442266310065     0.000736738393882   -0.00143170239905   
