# Hz S RI R 50.00 
100000000.0         0.00130632523946    -0.000523371380678  0.998682602466      -0.00310705309665   0.998682602466      -0.00310705309665   0.00130632523946    -0.000523371380678  
200000000.0         0.00130848843342    -0.00104677517188   0.998657180804      -0.00621405679493   0.998657180804      -0.00621405679493   0.00130848843342    -0.00104677517188   
300000000.0         0.00130510429665    -0.00157018326837   0.99862411974       -0.00932101673875   0.99862411974       -0.00932101673875   0.00130510429665    -0.00157018326837   
400000000.0         0.00129730679071    -0.00209357688491   0.998582284691      -0.0124279217964    0.998582284691      -0.0124279217964    0.00129730679071    -0.00209357688491   
500000000.0         0.00128553205044    -0.00261693870497   0.998531238898      -0.0155347555971    0.998531238898      -0.0155347555971    0.00128553205044    -0.00261693870497   
600000000.0         0.00127000222352    -0.00314025178006   0.998470759616      -0.0186414989276    0.998470759616      -0.0186414989276    0.00127000222352    -0.00314025178006   
700000000.0         0.00125084840069    -0.00366349920046   0.998400715215      -0.0217481307225    0.998400715215      -0.0217481307225    0.00125084840069    -0.00366349920046   
800000000.0         0.00122815546       -0.00418666397291   0.998321020348      -0.0248546285834    0.998321020348      -0.0248546285834    0.00122815546       -0.00418666397291   
900000000.0         0.00120198202532    -0.00470972897183   0.998231616018      -0.0279609690887    0.998231616018      -0.0279609690887    0.00120198202532    -0.00470972897183   
1000000000.0        0.00117237057935    -0.00523267692057   0.99813245947       -0.0310671279968    0.99813245947       -0.0310671279968    0.00117237057935    -0.00523267692057   
1100000000.0        0.00113935308377    -0.0057554903863    0.998023518587      -0.034173080388     0.998023518587      -0.034173080388     0.00113935308378    -0.0057554903863    
1200000000.0        0.00110295432754    -0.00627815178129   0.997904768551      -0.0372788007666    0.997904768551      -0.0372788007666    0.00110295432754    -0.00627815178129   
1300000000.0        0.00106319403324    -0.00680064336718   0.997776189745      -0.0403842631402    0.997776189745      -0.0403842631402    0.00106319403324    -0.00680064336718   
1400000000.0        0.00102008824176    -0.0073229472608    0.997637766376      -0.0434894410797    0.997637766376      -0.0434894410797    0.00102008824176    -0.0073229472608    
1500000000.0        0.000973650255992   -0.0078450454403    0.997489485543      -0.0465943077684    0.997489485543      -0.0465943077684    0.000973650255993   -0.0078450454403    
1600000000.0        0.000923891303816   -0.00836691975161   0.997331336573      -0.0496988360413    0.997331336573      -0.0496988360413    0.000923891303815   -0.00836691975161   
1700000000.0        0.000870821016236   -0.00888855191467   0.997163310557      -0.0528029984184    0.997163310557      -0.0528029984184    0.000870821016236   -0.00888855191467   
1800000000.0        0.000814447779881   -0.0094099235295    0.996985399996      -0.055906767132     0.996985399996      -0.055906767132     0.000814447779881   -0.0094099235295    
1900000000.0        0.000754779002081   -0.00993101608189   0.996797598548      -0.0590101141504    0.996797598548      -0.0590101141504    0.000754779002081   -0.00993101608189   
2000000000.0        0.000691821313646   -0.0104518109489    0.996599900826      -0.0621130111983    0.996599900826      -0.0621130111983    0.000691821313647   -0.0104518109489    
2100000000.0        0.000625580726393   -0.0109722894042    0.996392302245      -0.065215429774     0.996392302245      -0.065215429774     0.000625580726394   -0.0109722894042    
2200000000.0        0.000556062757191   -0.0114924326226    0.996174798905      -0.0683173411658    0.996174798905      -0.0683173411658    0.000556062757191   -0.0114924326226    
2300000000.0        0.000483272526888   -0.012012221685     0.995947387493      -0.071418716465     0.995947387493      -0.071418716465     0.000483272526888   -0.012012221685     
2400000000.0        0.000407214840066   -0.0125316375829    0.99571006521       -0.0745195265785    0.99571006521       -0.0745195265785    0.000407214840066   -0.0125316375829    
2500000000.0        0.00032789425002    -0.0130506612221    0.995462829707      -0.0776197422398    0.995462829707      -0.0776197422398    0.00032789425002    -0.0130506612221    
2600000000.0        0.000245315112191   -0.0135692734271    0.99520567904       -0.0807193340189    0.99520567904       -0.0807193340189    0.000245315112191   -0.0135692734271    
2700000000.0        0.000159481628477   -0.014087454945     0.99493861162       -0.0838182723315    0.99493861162       -0.0838182723315    0.000159481628477   -0.014087454945     
2800000000.0        7.03978842949e-05   -0.0146051864486    0.99466162619       -0.086916527447     0.99466162619       -0.086916527447     7.03978842951e-05   -0.0146051864486    
2900000000.0        -2.19321202162e-05  -0.0151224485403    0.994374721787      -0.0900140694964    0.994374721787      -0.0900140694964    -2.19321202161e-05  -0.0151224485403    
3000000000.0        -0.000117504443723  -0.0156392217555    0.994077897727      -0.0931108684791    0.994077897727      -0.0931108684791    -0.000117504443723  -0.0156392217555    
3100000000.0        -0.000216315181109  -0.0161554865654    0.993771153577      -0.0962068942694    0.993771153577      -0.0962068942694    -0.000216315181109  -0.0161554865654    
3200000000.0        -0.000318360444073  -0.0166712233803    0.993454489146      -0.0993021166226    0.993454489146      -0.0993021166226    -0.000318360444073  -0.0166712233803    
3300000000.0        -0.00042363634438   -0.0171864125529    0.993127904463      -0.102396505181     0.993127904463      -0.102396505181     -0.000423636344379  -0.0171864125529    
3400000000.0        -0.000532138979318  -0.0177010343805    0.992791399773      -0.105490029477     0.992791399773      -0.105490029477     -0.000532138979318  -0.0177010343805    
3500000000.0        -0.000643864419016  -0.0182150691085    0.992444975518      -0.108582658942     0.992444975518      -0.108582658942     -0.000643864419016  -0.0182150691085    
3600000000.0        -0.000758808695322  -0.0187284969326    0.992088632337      -0.111674362908     0.992088632337      -0.111674362908     -0.000758808695322  -0.0187284969326    
3700000000.0        -0.000876967792016  -0.0192412980015    0.99172237105       -0.114765110612     0.99172237105       -0.114765110612     -0.000876967792016  -0.0192412980015    
3800000000.0        -0.000998337636161  -0.0197534524199    0.991346192658      -0.117854871202     0.991346192658      -0.117854871202     -0.000998337636161  -0.0197534524199    
3900000000.0        -0.00112291409042   -0.0202649402503    0.990960098333      -0.120943613739     0.990960098333      -0.120943613739     -0.00112291409042   -0.0202649402503    
4000000000.0        -0.00125069294622   -0.0207757415161    0.990564089415      -0.124031307202     0.990564089415      -0.124031307202     -0.00125069294622   -0.0207757415161    
4100000000.0        -0.00138166991765   -0.0212858362034    0.990158167408      -0.127117920491     0.990158167408      -0.127117920491     -0.00138166991765   -0.0212858362034    
4200000000.0        -0.00151584063595   -0.0217952042637    0.989742333973      -0.130203422432     0.989742333973      -0.130203422432     -0.00151584063595   -0.0217952042637    
4300000000.0        -0.00165320064461   -0.0223038256161    0.989316590931      -0.133287781776     0.989316590931      -0.133287781776     -0.00165320064461   -0.0223038256161    
4400000000.0        -0.00179374539492   -0.0228116801494    0.988880940251      -0.136370967208     0.988880940251      -0.136370967208     -0.00179374539492   -0.0228116801494    
4500000000.0        -0.00193747024192   -0.0233187477244    0.988435384059      -0.139452947345     0.988435384059      -0.139452947345     -0.00193747024192   -0.0233187477244    
4600000000.0        -0.00208437044078   -0.0238250081759    0.987979924624      -0.142533690742     0.987979924624      -0.142533690742     -0.00208437044078   -0.0238250081759    
4700000000.0        -0.00223444114347   -0.0243304413151    0.987514564365      -0.145613165893     0.987514564365      -0.145613165893     -0.00223444114347   -0.0243304413151    
4800000000.0        -0.00238767739576   -0.0248350269313    0.987039305845      -0.148691341236     0.987039305845      -0.148691341236     -0.00238767739576   -0.0248350269313    
4900000000.0        -0.00254407413443   -0.0253387447943    0.986554151771      -0.151768185151     0.986554151771      -0.151768185151     -0.00254407413443   -0.0253387447943    
5000000000.0        -0.00270362618475   -0.0258415746561    0.98605910499       -0.154843665968     0.98605910499       -0.154843665968     -0.00270362618475   -0.0258415746561    
5100000000.0        -0.00286632825821   -0.026343496253     0.985554168493      -0.157917751968     0.985554168493      -0.157917751968     -0.00286632825821   -0.026343496253     
5200000000.0        -0.00303217495035   -0.0268444893075    0.985039345409      -0.160990411381     0.985039345409      -0.160990411381     -0.00303217495035   -0.0268444893075    
5300000000.0        -0.00320116073886   -0.0273445335304    0.984514639007      -0.164061612393     0.984514639007      -0.164061612393     -0.00320116073886   -0.0273445335304    
5400000000.0        -0.00337327998174   -0.0278436086225    0.983980052694      -0.16713132315      0.983980052694      -0.16713132315      -0.00337327998174   -0.0278436086225    
5500000000.0        -0.00354852691567   -0.0283416942765    0.983435590015      -0.170199511752     0.983435590015      -0.170199511752     -0.00354852691567   -0.0283416942765    
5600000000.0        -0.00372689565452   -0.028838770179     0.982881254651      -0.173266146264     0.982881254651      -0.173266146264     -0.00372689565452   -0.028838770179     
5700000000.0        -0.00390838018788   -0.029334816012     0.98231705042       -0.176331194713     0.98231705042       -0.176331194713     -0.00390838018789   -0.029334816012     
5800000000.0        -0.00409297437984   -0.0298298114552    0.981742981277      -0.179394625092     0.981742981277      -0.179394625092     -0.00409297437984   -0.0298298114552    
5900000000.0        -0.00428067196773   -0.0303237361873    0.981159051312      -0.18245640536      0.981159051312      -0.18245640536      -0.00428067196773   -0.0303237361873    
6000000000.0        -0.00447146656106   -0.030816569888     0.98056526475       -0.185516503447     0.98056526475       -0.185516503447     -0.00447146656106   -0.030816569888     
6100000000.0        -0.00466535164047   -0.03130829224      0.97996162595       -0.188574887253     0.97996162595       -0.188574887253     -0.00466535164047   -0.03130829224      
6200000000.0        -0.00486232055681   -0.03179888293      0.979348139407      -0.191631524652     0.979348139407      -0.191631524652     -0.00486232055681   -0.03179888293      
6300000000.0        -0.00506236653028   -0.0322883216514    0.978724809751      -0.194686383492     0.978724809751      -0.194686383492     -0.00506236653028   -0.0322883216514    
6400000000.0        -0.00526548264959   -0.0327765881051    0.978091641744      -0.197739431599     0.978091641744      -0.197739431599     -0.00526548264959   -0.0327765881051    
6500000000.0        -0.00547166187125   -0.0332636620018    0.977448640283      -0.200790636775     0.977448640283      -0.200790636775     -0.00547166187125   -0.0332636620018    
6600000000.0        -0.00568089701889   -0.0337495230634    0.976795810399      -0.203839966805     0.976795810399      -0.203839966805     -0.00568089701889   -0.0337495230634    
6700000000.0        -0.00589318078264   -0.0342341510246    0.976133157256      -0.206887389455     0.976133157256      -0.206887389455     -0.00589318078264   -0.0342341510246    
6800000000.0        -0.00610850571854   -0.0347175256348    0.975460686152      -0.209932872473     0.975460686152      -0.209932872473     -0.00610850571854   -0.0347175256348    
6900000000.0        -0.00632686424804   -0.0351996266596    0.974778402518      -0.212976383594     0.974778402518      -0.212976383594     -0.00632686424804   -0.0351996266596    
7000000000.0        -0.00654824865749   -0.0356804338822    0.974086311917      -0.216017890539     0.974086311917      -0.216017890539     -0.00654824865749   -0.0356804338822    
7100000000.0        -0.00677265109776   -0.0361599271055    0.973384420047      -0.219057361017     0.973384420047      -0.219057361017     -0.00677265109776   -0.0361599271055    
7200000000.0        -0.00700006358379   -0.0366380861531    0.972672732738      -0.222094762729     0.972672732738      -0.222094762729     -0.00700006358379   -0.0366380861531    
7300000000.0        -0.00723047799427   -0.0371148908715    0.971951255952      -0.225130063364     0.971951255952      -0.225130063364     -0.00723047799427   -0.0371148908715    
7400000000.0        -0.00746388607133   -0.0375903211312    0.971219995784      -0.228163230608     0.971219995784      -0.228163230608     -0.00746388607133   -0.0375903211312    
7500000000.0        -0.00770027942023   -0.0380643568283    0.970478958463      -0.231194232138     0.970478958463      -0.231194232138     -0.00770027942023   -0.0380643568283    
7600000000.0        -0.00793964950916   -0.0385369778864    0.969728150349      -0.234223035629     0.969728150349      -0.234223035629     -0.00793964950916   -0.0385369778864    
7700000000.0        -0.00818198766895   -0.0390081642577    0.968967577934      -0.237249608752     0.968967577934      -0.237249608752     -0.00818198766895   -0.0390081642577    
7800000000.0        -0.00842728509298   -0.0394778959249    0.968197247843      -0.24027391918      0.968197247843      -0.24027391918      -0.00842728509298   -0.0394778959249    
7900000000.0        -0.00867553283697   -0.0399461529024    0.967417166834      -0.243295934582     0.967417166834      -0.243295934582     -0.00867553283697   -0.0399461529024    
8000000000.0        -0.00892672181885   -0.0404129152381    0.966627341794      -0.246315622631     0.966627341794      -0.246315622631     -0.00892672181885   -0.0404129152381    
8100000000.0        -0.00918084281869   -0.0408781630146    0.965827779746      -0.249332951003     0.965827779746      -0.249332951003     -0.00918084281869   -0.0408781630146    
8200000000.0        -0.00943788647863   -0.0413418763509    0.965018487841      -0.252347887379     0.965018487841      -0.252347887379     -0.00943788647863   -0.0413418763509    
8300000000.0        -0.0096978433028    -0.0418040354039    0.964199473363      -0.255360399444     0.964199473363      -0.255360399444     -0.0096978433028    -0.0418040354039    
8400000000.0        -0.00996070365735   -0.0422646203695    0.96337074373       -0.258370454892     0.96337074373       -0.258370454892     -0.00996070365735   -0.0422646203695    
8500000000.0        -0.0102264577704    -0.0427236114848    0.962532306486      -0.261378021424     0.962532306486      -0.261378021424     -0.0102264577704    -0.0427236114848    
8600000000.0        -0.0104950957321    -0.0431809890286    0.961684169312      -0.26438306675      0.961684169312      -0.26438306675      -0.0104950957321    -0.0431809890286    
8700000000.0        -0.0107666074947    -0.0436367333235    0.960826340017      -0.267385558595     0.960826340017      -0.267385558595     -0.0107666074947    -0.0436367333235    
8800000000.0        -0.0110409828724    -0.0440908247374    0.95995882654       -0.270385464692     0.95995882654       -0.270385464692     -0.0110409828724    -0.0440908247374    
8900000000.0        -0.0113182115421    -0.0445432436843    0.959081636953      -0.273382752789     0.959081636953      -0.273382752789     -0.0113182115421    -0.0445432436843    
9000000000.0        -0.0115982830424    -0.0449939706264    0.958194779458      -0.276377390649     0.958194779458      -0.276377390649     -0.0115982830424    -0.0449939706264    
9100000000.0        -0.0118811867749    -0.0454429860748    0.957298262386      -0.279369346051     0.957298262386      -0.279369346051     -0.0118811867749    -0.0454429860748    
9200000000.0        -0.0121669120036    -0.0458902705918    0.956392094202      -0.282358586792     0.956392094202      -0.282358586792     -0.0121669120036    -0.0458902705918    
9300000000.0        -0.0124554478553    -0.0463358047914    0.955476283496      -0.285345080686     0.955476283496      -0.285345080686     -0.0124554478553    -0.0463358047914    
9400000000.0        -0.0127467833198    -0.0467795693411    0.954550838992      -0.288328795568     0.954550838992      -0.288328795568     -0.0127467833198    -0.0467795693411    
9500000000.0        -0.0130409072501    -0.0472215449633    0.953615769541      -0.291309699291     0.953615769541      -0.291309699291     -0.0130409072501    -0.0472215449633    
9600000000.0        -0.0133378083626    -0.0476617124366    0.952671084126      -0.294287759734     0.952671084126      -0.294287759734     -0.0133378083626    -0.0476617124366    
9700000000.0        -0.0136374752374    -0.0481000525971    0.951716791856      -0.297262944797     0.951716791856      -0.297262944797     -0.0136374752374    -0.0481000525971    
9800000000.0        -0.0139398963184    -0.0485365463397    0.950752901973      -0.300235222404     0.950752901973      -0.300235222404     -0.0139398963184    -0.0485365463397    
9900000000.0        -0.0142450599138    -0.0489711746197    0.949779423844      -0.303204560505     0.949779423844      -0.303204560505     -0.0142450599138    -0.0489711746197    
10000000000.0       -0.0145529541962    -0.0494039184536    0.948796366967      -0.306170927076     0.948796366967      -0.306170927076     -0.0145529541962    -0.0494039184536    
