# Hz S RI R 50.00 
100000000.0         0.000913715187391   -0.000547132528921  0.999080155039      -0.00183486087829   0.999080155039      -0.00183486087829   0.000913715187391   -0.000547132528921  
200000000.0         0.000915696777652   -0.00109427606668   0.999067367937      -0.00366970649951   0.999067367937      -0.00366970649951   0.000915696777652   -0.00109427606668   
300000000.0         0.000914061767931   -0.00164142097075   0.999052521555      -0.00550454187958   0.999052521555      -0.00550454187958   0.000914061767931   -0.00164142097075   
400000000.0         0.000909603679598   -0.00218856071243   0.999034822211      -0.00733936620343   0.999034822211      -0.00733936620343   0.000909603679598   -0.00218856071243   
500000000.0         0.000902627740452   -0.00273568921412   0.999013964511      -0.00917417684278   0.999013964511      -0.00917417684278   0.000902627740452   -0.00273568921412   
600000000.0         0.000893289420969   -0.00328280049086   0.998989792819      -0.0110089701899    0.998989792819      -0.0110089701899    0.000893289420969   -0.00328280049086   
700000000.0         0.000881680445864   -0.00382988854768   0.998962215254      -0.0128437420015    0.998962215254      -0.0128437420015    0.000881680445864   -0.00382988854768   
800000000.0         0.000867860169248   -0.00437694734429   0.998931172315      -0.0146784875783    0.998931172315      -0.0146784875783    0.000867860169248   -0.00437694734429   
900000000.0         0.000851869537462   -0.0049239707827    0.998896622925      -0.0165132018734    0.998896622925      -0.0165132018734    0.000851869537462   -0.0049239707827    
1000000000.0        0.000833738163355   -0.00547095270381   0.99885853736       -0.0183478795619    0.99885853736       -0.0183478795619    0.000833738163355   -0.00547095270381   
1100000000.0        0.000813488256913   -0.00601788688762   0.998816893319      -0.0201825150899    0.998816893319      -0.0201825150899    0.000813488256913   -0.00601788688762   
1200000000.0        0.000791136966491   -0.00656476705539   0.998771673585      -0.02201710271      0.998771673585      -0.02201710271      0.000791136966492   -0.00656476705539   
1300000000.0        0.00076669785122    -0.00711158687212   0.998722864556      -0.0238516365082    0.998722864556      -0.0238516365082    0.00076669785122    -0.00711158687212   
1400000000.0        0.000740181848453   -0.00765833994959   0.998670455281      -0.0256861104249    0.998670455281      -0.0256861104249    0.000740181848453   -0.00765833994959   
1500000000.0        0.000711597932839   -0.00820501984904   0.998614436796      -0.0275205182714    0.998614436796      -0.0275205182714    0.000711597932839   -0.00820501984904   
1600000000.0        0.00068095357906    -0.0087516200839    0.99855480167       -0.0293548537433    0.99855480167       -0.0293548537433    0.00068095357906    -0.0087516200839    
1700000000.0        0.00064825509526    -0.00929813412234   0.99849154367       -0.0311891104321    0.99849154367       -0.0311891104321    0.00064825509526    -0.00929813412234   
1800000000.0        0.000613507868654   -0.00984455538958   0.998424657516      -0.0330232818341    0.998424657516      -0.0330232818341    0.000613507868654   -0.00984455538958   
1900000000.0        0.000576716550036   -0.0103908772702    0.998354138697      -0.0348573613588    0.998354138697      -0.0348573613588    0.000576716550036   -0.0103908772702    
2000000000.0        0.000537885194738   -0.0109370931098    0.998279983334      -0.0366913423353    0.998279983334      -0.0366913423353    0.000537885194739   -0.0109370931098    
2100000000.0        0.000497017371975   -0.0114831962175    0.998202188071      -0.0385252180187    0.998202188071      -0.0385252180187    0.000497017371974   -0.0114831962175    
2200000000.0        0.000454116250812   -0.0120291798671    0.998120749986      -0.0403589815948    0.998120749986      -0.0403589815948    0.000454116250812   -0.0120291798671    
2300000000.0        0.000409184668606   -0.0125750372988    0.998035666528      -0.0421926261849    0.998035666528      -0.0421926261849    0.000409184668606   -0.0125750372988    
2400000000.0        0.000362225186045   -0.0131207617208    0.997946935463      -0.04402614485      0.997946935463      -0.04402614485      0.000362225186045   -0.0131207617208    
2500000000.0        0.000313240131913   -0.0136663463107    0.997854554825      -0.0458595305944    0.997854554825      -0.0458595305944    0.000313240131913   -0.0136663463107    
2600000000.0        0.000262231639788   -0.0142117842169    0.997758522887      -0.0476927763684    0.997758522887      -0.0476927763684    0.000262231639788   -0.0142117842169    
2700000000.0        0.000209201678404   -0.0147570685594    0.997658838124      -0.0495258750722    0.997658838124      -0.0495258750722    0.000209201678404   -0.0147570685594    
2800000000.0        0.00015415207696    -0.0153021924314    0.997555499195      -0.0513588195577    0.997555499195      -0.0513588195577    0.00015415207696    -0.0153021924314    
2900000000.0        9.70845463617e-05   -0.0158471489       0.997448504918      -0.0531916026315    0.997448504918      -0.0531916026315    9.70845463617e-05   -0.0158471489       
3000000000.0        3.80006971739e-05   -0.0163919310074    0.997337854255      -0.0550242170569    0.997337854255      -0.0550242170569    3.80006971743e-05   -0.0163919310074    
3100000000.0        -2.30979451105e-05  -0.0169365317721    0.997223546296      -0.0568566555559    0.997223546296      -0.0568566555559    -2.30979451105e-05  -0.0169365317721    
3200000000.0        -8.62099270209e-05  -0.0174809441891    0.997105580248      -0.0586889108113    0.997105580248      -0.0586889108113    -8.62099270204e-05  -0.0174809441891    
3300000000.0        -0.000151333855876  -0.0180251612317    0.996983955422      -0.0605209754683    0.996983955422      -0.0605209754683    -0.000151333855875  -0.0180251612317    
3400000000.0        -0.000218468390088  -0.0185691758513    0.996858671227      -0.0623528421362    0.996858671227      -0.0623528421362    -0.000218468390088  -0.0185691758513    
3500000000.0        -0.000287612230744  -0.0191129809791    0.996729727159      -0.06418450339      0.996729727159      -0.06418450339      -0.000287612230744  -0.0191129809791    
3600000000.0        -0.000358764114252  -0.0196565695263    0.996597122796      -0.0660159517716    0.996597122796      -0.0660159517716    -0.000358764114252  -0.0196565695263    
3700000000.0        -0.000431922805913  -0.0201999343848    0.996460857791      -0.0678471797912    0.996460857791      -0.0678471797912    -0.000431922805913  -0.0201999343848    
3800000000.0        -0.000507087094262  -0.0207430684281    0.996320931868      -0.0696781799288    0.996320931868      -0.0696781799288    -0.000507087094262  -0.0207430684281    
3900000000.0        -0.000584255786072  -0.0212859645121    0.996177344817      -0.0715089446352    0.996177344817      -0.0715089446352    -0.000584255786072  -0.0212859645121    
4000000000.0        -0.000663427701933  -0.0218286154751    0.996030096488      -0.0733394663328    0.996030096488      -0.0733394663328    -0.000663427701934  -0.0218286154751    
4100000000.0        -0.000744601672321  -0.0223710141392    0.995879186793      -0.0751697374175    0.995879186793      -0.0751697374175    -0.000744601672321  -0.0223710141392    
4200000000.0        -0.000827776534082  -0.0229131533103    0.995724615694      -0.0769997502587    0.995724615694      -0.0769997502587    -0.000827776534082  -0.0229131533103    
4300000000.0        -0.000912951127307  -0.0234550257788    0.995566383211      -0.0788294972009    0.995566383211      -0.0788294972009    -0.000912951127307  -0.0234550257788    
4400000000.0        -0.00100012429251   -0.0239966243203    0.995404489409      -0.0806589705645    0.995404489409      -0.0806589705645    -0.00100012429251   -0.0239966243203    
4500000000.0        -0.0010892948681    -0.024537941696     0.995238934404      -0.0824881626466    0.995238934404      -0.0824881626466    -0.0010892948681    -0.024537941696     
4600000000.0        -0.00118046168808   -0.0250789706533    0.995069718358      -0.0843170657215    0.995069718358      -0.0843170657215    -0.00118046168808   -0.0250789706533    
4700000000.0        -0.00127362358001   -0.0256197039262    0.994896841475      -0.0861456720423    0.994896841475      -0.0861456720423    -0.00127362358001   -0.0256197039262    
4800000000.0        -0.00136877936312   -0.0261601342357    0.994720304003      -0.0879739738407    0.994720304003      -0.0879739738407    -0.00136877936312   -0.0261601342357    
4900000000.0        -0.00146592784657   -0.0267002542907    0.99454010623       -0.0898019633284    0.99454010623       -0.0898019633284    -0.00146592784657   -0.0267002542907    
5000000000.0        -0.00156506782798   -0.0272400567878    0.994356248487      -0.0916296326977    0.994356248487      -0.0916296326977    -0.00156506782798   -0.0272400567878    
5100000000.0        -0.00166619809192   -0.0277795344122    0.994168731141      -0.0934569741219    0.994168731141      -0.0934569741219    -0.00166619809192   -0.0277795344122    
5200000000.0        -0.00176931740869   -0.0283186798383    0.993977554597      -0.095283979756     0.993977554597      -0.095283979756     -0.00176931740869   -0.0283186798383    
5300000000.0        -0.00187442453308   -0.0288574857294    0.993782719299      -0.0971106417376    0.993782719299      -0.0971106417376    -0.00187442453308   -0.0288574857294    
5400000000.0        -0.00198151820331   -0.0293959447389    0.993584225725      -0.0989369521873    0.993584225725      -0.0989369521873    -0.00198151820331   -0.0293959447389    
5500000000.0        -0.00209059714003   -0.0299340495103    0.993382074389      -0.100762903209     0.993382074389      -0.100762903209     -0.00209059714003   -0.0299340495103    
5600000000.0        -0.00220166004534   -0.0304717926777    0.993176265842      -0.102588486892     0.993176265842      -0.102588486892     -0.00220166004534   -0.0304717926777    
5700000000.0        -0.00231470560202   -0.0310091668661    0.992966800666      -0.104413695308     0.992966800666      -0.104413695308     -0.00231470560202   -0.0310091668661    
5800000000.0        -0.00242973247265   -0.0315461646918    0.992753679477      -0.106238520516     0.992753679477      -0.106238520516     -0.00242973247265   -0.0315461646918    
5900000000.0        -0.00254673929897   -0.032082778763     0.992536902926      -0.108062954561     0.992536902926      -0.108062954561     -0.00254673929897   -0.032082778763     
6000000000.0        -0.00266572470111   -0.0326190016799    0.992316471696      -0.109886989471     0.992316471696      -0.109886989471     -0.00266572470111   -0.0326190016799    
6100000000.0        -0.00278668727702   -0.033154826035     0.992092386501      -0.111710617266     0.992092386501      -0.111710617266     -0.00278668727702   -0.033154826035     
6200000000.0        -0.00290962560187   -0.033690244414     0.991864648088      -0.113533829948     0.991864648088      -0.113533829948     -0.00290962560187   -0.033690244414     
6300000000.0        -0.0030345382275    -0.0342252493955    0.991633257235      -0.11535661951      0.991633257235      -0.11535661951      -0.0030345382275    -0.0342252493955    
6400000000.0        -0.00316142368188   -0.0347598335515    0.991398214752      -0.117178977932     0.991398214752      -0.117178977932     -0.00316142368188   -0.0347598335515    
6500000000.0        -0.0032902804687    -0.035293989448     0.991159521479      -0.119000897183     0.991159521479      -0.119000897183     -0.0032902804687    -0.035293989448     
6600000000.0        -0.00342110706686   -0.0358277096454    0.990917178288      -0.12082236922      0.990917178288      -0.12082236922      -0.00342110706686   -0.0358277096454    
6700000000.0        -0.00355390193008   -0.0363609866981    0.990671186079      -0.122643385991     0.990671186079      -0.122643385991     -0.00355390193008   -0.0363609866981    
6800000000.0        -0.00368866348653   -0.0368938131558    0.990421545784      -0.124463939433     0.990421545784      -0.124463939433     -0.00368866348653   -0.0368938131558    
6900000000.0        -0.00382539013843   -0.0374261815632    0.990168258366      -0.126284021473     0.990168258366      -0.126284021473     -0.00382539013843   -0.0374261815632    
7000000000.0        -0.00396408026171   -0.0379580844605    0.989911324815      -0.128103624029     0.989911324815      -0.128103624029     -0.00396408026171   -0.0379580844605    
7100000000.0        -0.00410473220573   -0.0384895143835    0.989650746154      -0.12992273901      0.989650746154      -0.12992273901      -0.00410473220573   -0.0384895143835    
7200000000.0        -0.00424734429291   -0.0390204638644    0.989386523433      -0.131741358316     0.989386523433      -0.131741358316     -0.00424734429291   -0.0390204638644    
7300000000.0        -0.0043919148185    -0.0395509254316    0.989118657732      -0.13355947384      0.989118657732      -0.13355947384      -0.0043919148185    -0.0395509254316    
7400000000.0        -0.0045384420503    -0.0400808916103    0.988847150162      -0.135377077465     0.988847150162      -0.135377077465     -0.0045384420503    -0.0400808916103    
7500000000.0        -0.00468692422837   -0.0406103549227    0.988572001859      -0.137194161069     0.988572001859      -0.137194161069     -0.00468692422837   -0.0406103549227    
7600000000.0        -0.00483735956486   -0.0411393078882    0.988293213994      -0.139010716521     0.988293213994      -0.139010716521     -0.00483735956486   -0.0411393078882    
7700000000.0        -0.00498974624373   -0.041667743024     0.988010787761      -0.140826735683     0.988010787761      -0.140826735683     -0.00498974624373   -0.041667743024     
7800000000.0        -0.00514408242054   -0.042195652845     0.987724724387      -0.142642210414     0.987724724387      -0.142642210414     -0.00514408242054   -0.042195652845     
7900000000.0        -0.00530036622229   -0.0427230298644    0.987435025126      -0.144457132561     0.987435025126      -0.144457132561     -0.00530036622229   -0.0427230298644    
8000000000.0        -0.00545859574721   -0.0432498665937    0.987141691262      -0.146271493971     0.987141691262      -0.146271493971     -0.00545859574721   -0.0432498665937    
8100000000.0        -0.00561876906457   -0.0437761555433    0.986844724105      -0.148085286482     0.986844724105      -0.148085286482     -0.00561876906457   -0.0437761555433    
8200000000.0        -0.00578088421452   -0.0443018892226    0.986544124996      -0.149898501928     0.986544124996      -0.149898501928     -0.00578088421452   -0.0443018892226    
8300000000.0        -0.00594493920797   -0.0448270601401    0.986239895304      -0.151711132137     0.986239895304      -0.151711132137     -0.00594493920797   -0.0448270601401    
8400000000.0        -0.00611093202635   -0.045351660804     0.985932036426      -0.153523168936     0.985932036426      -0.153523168936     -0.00611093202635   -0.045351660804     
8500000000.0        -0.00627886062159   -0.0458756837225    0.985620549788      -0.155334604142     0.985620549788      -0.155334604142     -0.00627886062159   -0.0458756837225    
8600000000.0        -0.00644872291587   -0.0463991214036    0.985305436843      -0.157145429574     0.985305436843      -0.157145429574     -0.00644872291587   -0.0463991214036    
8700000000.0        -0.00662051680158   -0.0469219663559    0.984986699075      -0.158955637043     0.984986699075      -0.158955637043     -0.00662051680158   -0.0469219663559    
8800000000.0        -0.00679424014116   -0.0474442110885    0.984664337992      -0.16076521836      0.984664337992      -0.16076521836      -0.00679424014116   -0.0474442110885    
8900000000.0        -0.006969890767     -0.0479658481115    0.984338355135      -0.162574165331     0.984338355135      -0.162574165331     -0.006969890767     -0.0479658481115    
9000000000.0        -0.00714746648134   -0.0484868699362    0.98400875207       -0.164382469758     0.98400875207       -0.164382469758     -0.00714746648134   -0.0484868699362    
9100000000.0        -0.00732696505615   -0.0490072690751    0.983675530392      -0.166190123445     0.983675530392      -0.166190123445     -0.00732696505615   -0.0490072690751    
9200000000.0        -0.00750838423307   -0.0495270380425    0.983338691724      -0.167997118188     0.983338691724      -0.167997118188     -0.00750838423307   -0.0495270380425    
9300000000.0        -0.0076917217233    -0.0500461693548    0.982998237718      -0.169803445787     0.982998237718      -0.169803445787     -0.0076917217233    -0.0500461693548    
9400000000.0        -0.00787697520752   -0.0505646555303    0.982654170052      -0.171609098036     0.982654170052      -0.171609098036     -0.00787697520752   -0.0505646555303    
9500000000.0        -0.00806414233582   -0.05108248909      0.982306490435      -0.173414066729     0.982306490435      -0.173414066729     -0.00806414233582   -0.05108248909      
9600000000.0        -0.00825322072764   -0.0515996625574    0.981955200601      -0.17521834366      0.981955200601      -0.17521834366      -0.00825322072764   -0.0515996625574    
9700000000.0        -0.00844420797166   -0.052116168459     0.981600302313      -0.177021920621     0.981600302313      -0.177021920621     -0.00844420797166   -0.052116168459     
9800000000.0        -0.00863710162579   -0.0526319993244    0.981241797362      -0.178824789404     0.981241797362      -0.178824789404     -0.00863710162579   -0.0526319993244    
9900000000.0        -0.00883189921709   -0.0531471476869    0.980879687569      -0.1806269418       0.980879687569      -0.1806269418       -0.00883189921709   -0.0531471476869    
10000000000.0       -0.0090285982417    -0.0536616060831    0.980513974779      -0.1824283696       0.980513974779      -0.1824283696       -0.0090285982417    -0.0536616060831    
