# Hz S RI R 50.00 
100000000.0         -0.0146785809632    -0.119775572622     0.985276177989      -0.119932530441     0.985276177989      -0.119932530441     -0.0146785809632    -0.119775572622     
200000000.0         -0.0560696581166    -0.229443336479     0.94388475385       -0.229757297521     0.94388475385       -0.229757297521     -0.0560696581166    -0.229443336479     
300000000.0         -0.117749670843     -0.321603013053     0.882204446627      -0.322074047101     0.882204446627      -0.322074047101     -0.117749670843     -0.321603013053     
400000000.0         -0.191636781215     -0.392792225555     0.808317055336      -0.393420421319     0.808317055336      -0.393420421319     -0.191636781215     -0.392792225555     
500000000.0         -0.27016987633      -0.443165747014     0.729783677936      -0.443951209187     0.729783677936      -0.443951209187     -0.27016987633      -0.443165747014     
600000000.0         -0.347591101318     -0.475239980891     0.65236216168       -0.476182828097     0.65236216168       -0.476182828097     -0.347591101318     -0.475239980891     
700000000.0         -0.420235498624     -0.492548356775     0.579717459615      -0.493648719976     0.579717459615      -0.493648719976     -0.420235498624     -0.492548356775     
800000000.0         -0.48621164119      -0.498679124972     0.513740995858      -0.499937146159     0.513740995858      -0.499937146159     -0.48621164119      -0.498679124972     
900000000.0         -0.544879444803     -0.496768845516     0.455072852575      -0.498184676589     0.455072852575      -0.498184676589     -0.544879444803     -0.496768845516     
1000000000.0        -0.596366128124     -0.489330722023     0.4035858096        -0.490904523826     0.4035858096        -0.490904523826     -0.596366128124     -0.489330722023     
1100000000.0        -0.641206758933     -0.478269426656     0.358744798006      -0.480001368112     0.358744798006      -0.480001368112     -0.641206758933     -0.478269426656     
1200000000.0        -0.680110567296     -0.464974547526     0.319840586817      -0.466864804876     0.319840586817      -0.466864804876     -0.680110567296     -0.464974547526     
1300000000.0        -0.713823748787     -0.450431876113     0.286126979722      -0.452480632222     0.286126979722      -0.452480632222     -0.713823748787     -0.450431876113     
1400000000.0        -0.743056776957     -0.435324869335     0.256893502555      -0.437532313073     0.256893502555      -0.437532313073     -0.743056776957     -0.435324869335     
1500000000.0        -0.768451149349     -0.420117143114     0.231498657251      -0.422483468789     0.231498657251      -0.422483468789     -0.768451149349     -0.420117143114     
1600000000.0        -0.790568552902     -0.405115559067     0.209380756417      -0.407640965914     0.209380756417      -0.407640965914     -0.790568552902     -0.405115559067     
1700000000.0        -0.80989184145      -0.390516766514     0.190056945824      -0.393201458231     0.190056945824      -0.393201458231     -0.80989184145      -0.390516766514     
1800000000.0        -0.826831597706     -0.376440788612     0.173116642401      -0.37928497294      0.173116642401      -0.37928497294      -0.826831597706     -0.376440788612     
1900000000.0        -0.841734810128     -0.362954923277     0.15821285737       -0.365958811616     0.15821285737       -0.365958811616     -0.841734810128     -0.362954923277     
2000000000.0        -0.854893841322     -0.350090597999     0.14505322783       -0.35325440506      0.14505322783       -0.35325440506      -0.854893841322     -0.350090597999     
2100000000.0        -0.866554807602     -0.337855181599     0.133391637198      -0.341179125095     0.133391637198      -0.341179125095     -0.866554807602     -0.337855181599     
2200000000.0        -0.876925008627     -0.326240221872     0.123020785562      -0.329724522237     0.123020785562      -0.329724522237     -0.876925008627     -0.326240221872     
2300000000.0        -0.886179319113     -0.315227164866     0.113765797968      -0.318872044997     0.113765797968      -0.318872044997     -0.886179319113     -0.315227164866     
2400000000.0        -0.894465588597     -0.30479130567      0.105478824657      -0.308596990702     0.105478824657      -0.308596990702     -0.894465588597     -0.30479130567      
2500000000.0        -0.901909153062     -0.294904499754     0.098034529431      -0.29887121686      0.098034529431      -0.29887121686      -0.901909153062     -0.294904499754     
2600000000.0        -0.908616579951     -0.28553700678      0.0913263446443     -0.289664984988     0.0913263446443     -0.289664984988     -0.908616579951     -0.28553700678      
2700000000.0        -0.91467876581      -0.276658727959     0.0852633735544     -0.280948197996     0.0852633735544     -0.280948197996     -0.91467876581      -0.276658727959     
2800000000.0        -0.920173494588     -0.268240020192     0.0797678320248     -0.272691214343     0.0797678320248     -0.272691214343     -0.920173494588     -0.268240020192     
2900000000.0        -0.925167550281     -0.260252215645     0.074772935874      -0.264865367632     0.074772935874      -0.264865367632     -0.925167550281     -0.260252215645     
3000000000.0        -0.929718463137     -0.252667937128     0.070221154678      -0.257443282007     0.070221154678      -0.257443282007     -0.929718463137     -0.252667937128     
3100000000.0        -0.933875955273     -0.245461272839     0.0660627661456     -0.250399046908     0.0660627661456     -0.250399046908     -0.933875955273     -0.245461272839     
3200000000.0        -0.937683139983     -0.238607855141     0.062254656811      -0.243708295868     0.062254656811      -0.243708295868     -0.937683139983     -0.238607855141     
3300000000.0        -0.941177519147     -0.232084874773     0.0587593246294     -0.237348220734     0.0587593246294     -0.237348220734     -0.941177519147     -0.232084874773     
3400000000.0        -0.944391814952     -0.225871052546     0.055544047247      -0.231297543374     0.055544047247      -0.231297543374     -0.944391814952     -0.225871052546     
3500000000.0        -0.94735466546      -0.219946583931     0.052580186443      -0.225536460278     0.052580186443      -0.225536460278     -0.94735466546      -0.219946583931     
3600000000.0        -0.950091208        -0.214293067302     0.0498426047249     -0.220046570811     0.0498426047249     -0.220046570811     -0.950091208        -0.214293067302     
3700000000.0        -0.95262356999      -0.208893423262     0.0473091745193     -0.214810796546     0.0473091745193     -0.214810796546     -0.95262356999      -0.208893423262     
3800000000.0        -0.954971283093     -0.203731810136     0.0449603640048     -0.20981329677      0.0449603640048     -0.20981329677      -0.954971283093     -0.203731810136     
3900000000.0        -0.957151633777     -0.198793539074     0.0427788865583     -0.205039383589     0.0427788865583     -0.205039383589     -0.957151633777     -0.198793539074     
4000000000.0        -0.959179960915     -0.194064991011     0.0407494031508     -0.200475438903     0.0407494031508     -0.200475438903     -0.959179960915     -0.194064991011     
4100000000.0        -0.961069909194     -0.18953353693      0.0388582689409     -0.196108834667     0.0388582689409     -0.196108834667     -0.961069909194     -0.18953353693      
4200000000.0        -0.962833645518     -0.185187462278     0.0370933168718     -0.191927857316     0.0370933168718     -0.191927857316     -0.962833645518     -0.185187462278     
4300000000.0        -0.96448204434      -0.18101589599      0.0354436723352     -0.187921636798     0.0354436723352     -0.187921636798     -0.96448204434      -0.18101589599      
4400000000.0        -0.966024846841     -0.177008744316     0.0338995939968     -0.184080080402     0.0338995939968     -0.184080080402     -0.966024846841     -0.177008744316     
4500000000.0        -0.967470798012     -0.173156629436     0.0324523367125     -0.180393811374     0.0324523367125     -0.180393811374     -0.967470798012     -0.173156629436     
4600000000.0        -0.968827765026     -0.16945083274      0.0310940331546     -0.176854112211     0.0310940331546     -0.176854112211     -0.968827765026     -0.16945083274      
4700000000.0        -0.970102839726     -0.165883242575     0.0298175913246     -0.173452872401     0.0298175913246     -0.173452872401     -0.970102839726     -0.165883242575     
4800000000.0        -0.971302427586     -0.162446306212     0.0286166055959     -0.170182540397     0.0286166055959     -0.170182540397     -0.971302427586     -0.162446306212     
4900000000.0        -0.97243232511      -0.159132985752     0.0274852793066     -0.16703607953      0.0274852793066     -0.16703607953      -0.97243232511      -0.159132985752     
5000000000.0        -0.973497787355     -0.155936717708     0.026418357243      -0.164006927586     0.026418357243      -0.164006927586     -0.973497787355     -0.155936717708     
5100000000.0        -0.974503586963     -0.152851375971     0.0254110666079     -0.16108895978      0.0254110666079     -0.16108895978      -0.974503586963     -0.152851375971     
5200000000.0        -0.975454065881     -0.149871237897     0.0244590652934     -0.158276454842     0.0244590652934     -0.158276454842     -0.975454065881     -0.149871237897     
5300000000.0        -0.9763531808       -0.146990953262     0.0235583964504     -0.155564063974     0.0235583964504     -0.155564063974     -0.9763531808       -0.146990953262     
5400000000.0        -0.977204543132     -0.144205515834     0.0227054485042     -0.152946782423     0.0227054485042     -0.152946782423     -0.977204543132     -0.144205515834     
5500000000.0        -0.978011454283     -0.141510237346     0.0218969198894     -0.150419923456     0.0218969198894     -0.150419923456     -0.978011454283     -0.141510237346     
5600000000.0        -0.978776936811     -0.138900723654     0.0211297878819     -0.147979094521     0.0211297878819     -0.147979094521     -0.978776936811     -0.138900723654     
5700000000.0        -0.979503762033     -0.136372852897     0.0204012810003     -0.145620175405     0.0204012810003     -0.145620175405     -0.979503762033     -0.136372852897     
5800000000.0        -0.980194474508     -0.133922755471     0.0197088545179     -0.143339298208     0.0197088545179     -0.143339298208     -0.980194474508     -0.133922755471     
5900000000.0        -0.980851413808     -0.131546795665     0.019050168696      -0.141132828982     0.019050168696      -0.141132828982     -0.980851413808     -0.131546795665     
6000000000.0        -0.981476733896     -0.129241554806     0.0184230694        -0.138997350875     0.0184230694        -0.138997350875     -0.981476733896     -0.129241554806     
6100000000.0        -0.982072420423     -0.127003815781     0.0178255708072     -0.136929648657     0.0178255708072     -0.136929648657     -0.982072420423     -0.127003815781     
6200000000.0        -0.982640306178     -0.124830548817     0.0172558399534     -0.134926694493     0.0172558399534     -0.134926694493     -0.982640306178     -0.124830548817     
6300000000.0        -0.983182084923     -0.122718898401     0.0167121829007     -0.132985634869     0.0167121829007     -0.132985634869     -0.983182084923     -0.122718898401     
6400000000.0        -0.983699323794     -0.120666171245     0.0161930323354     -0.131103778556     0.0161930323354     -0.131103778556     -0.983699323794     -0.120666171245     
6500000000.0        -0.984193474438     -0.118669825202     0.01569693643       -0.129278585525     0.01569693643       -0.129278585525     -0.984193474438     -0.118669825202     
6600000000.0        -0.984665883029     -0.116727459052     0.0152225488267     -0.127507656735     0.0152225488267     -0.127507656735     -0.984665883029     -0.116727459052     
6700000000.0        -0.985117799294     -0.114836803082     0.0147686196143     -0.125788724708     0.0147686196143     -0.125788724708     -0.985117799294     -0.114836803082     
6800000000.0        -0.985550384649     -0.112995710388     0.0143339871886     -0.124119644834     0.0143339871886     -0.124119644834     -0.985550384649     -0.112995710388     
6900000000.0        -0.985964719554     -0.11120214884      0.0139175708999     -0.122498387342     0.0139175708999     -0.122498387342     -0.985964719554     -0.11120214884      
7000000000.0        -0.986361810163     -0.109454193661     0.0135183644007     -0.120923029866     0.0135183644007     -0.120923029866     -0.986361810163     -0.109454193661     
7100000000.0        -0.986742594352     -0.107750020551     0.0131354296209     -0.11939175058      0.0131354296209     -0.11939175058      -0.986742594352     -0.107750020551     
7200000000.0        -0.987107947182     -0.10608789933      0.0127678913023     -0.117902821832     0.0127678913023     -0.117902821832     -0.987107947182     -0.10608789933      
7300000000.0        -0.98745868586      -0.104466188037     0.0124149320346     -0.116454604251     0.0124149320346     -0.116454604251     -0.98745868586      -0.104466188037     
7400000000.0        -0.987795574261     -0.10288332747      0.0120757877417     -0.115045541281     0.0120757877417     -0.115045541281     -0.987795574261     -0.10288332747      
7500000000.0        -0.988119327029     -0.101337836109     0.0117497435723     -0.113674154103     0.0117497435723     -0.113674154103     -0.988119327029     -0.101337836109     
7600000000.0        -0.988430613328     -0.0998283054044    0.011436130153      -0.112339036931     0.011436130153      -0.112339036931     -0.988430613328     -0.0998283054044    
7700000000.0        -0.988730060261     -0.0983533953997    0.0111343201696     -0.111038852624     0.0111343201696     -0.111038852624     -0.988730060261     -0.0983533953997    
7800000000.0        -0.98901825599      -0.0969118306578    0.0108437252434     -0.109772328619     0.0108437252434     -0.109772328619     -0.98901825599      -0.0969118306578    
7900000000.0        -0.989295752598     -0.0955023964692    0.0105637930734     -0.108538253135     0.0105637930734     -0.108538253135     -0.989295752598     -0.0955023964692    
8000000000.0        -0.989563068703     -0.0941239353217    0.0102940048201     -0.107335471645     0.0102940048201     -0.107335471645     -0.989563068703     -0.0941239353217    
8100000000.0        -0.989820691856     -0.092775343608     0.0100338727072     -0.106162883583     0.0100338727072     -0.106162883583     -0.989820691856     -0.092775343608     
8200000000.0        -0.990069080744     -0.0914555685557    0.00978293782061    -0.105019439273     0.00978293782061    -0.105019439273     -0.990069080744     -0.0914555685557    
8300000000.0        -0.990308667207     -0.0901636053615    0.0095407680869     -0.10390413706      0.0095407680869     -0.10390413706      -0.990308667207     -0.0901636053615    
8400000000.0        -0.990539858102     -0.0888984945137    0.0093069564147     -0.102816020639     0.0093069564147     -0.102816020639     -0.990539858102     -0.0888984945137    
8500000000.0        -0.990763037011     -0.0876593192906    0.00908111898398    -0.101754176546     0.00908111898398    -0.101754176546     -0.990763037011     -0.0876593192906    
8600000000.0        -0.990978565817     -0.0864452034197    0.00886289367016    -0.100717731824     0.00886289367016    -0.100717731824     -0.990978565817     -0.0864452034197    
8700000000.0        -0.991186786155     -0.0852553088875    0.00865193859103    -0.0997058518238    0.00865193859103    -0.0997058518238    -0.991186786155     -0.0852553088875    
8800000000.0        -0.991388020757     -0.0840888338883    0.00844793076561    -0.0987177381613    0.00844793076561    -0.0987177381613    -0.991388020757     -0.0840888338883    
8900000000.0        -0.991582574688     -0.0829450109014    0.0082505648754     -0.097752626789     0.0082505648754     -0.097752626789     -0.991582574688     -0.0829450109014    
9000000000.0        -0.991770736493     -0.0818231048889    0.00805955211903    -0.0968097861953    0.00805955211903    -0.0968097861953    -0.991770736493     -0.0818231048889    
9100000000.0        -0.991952779256     -0.0807224116039    0.00787461915247    -0.0958885157127    0.00787461915247    -0.0958885157127    -0.991952779256     -0.0807224116039    
9200000000.0        -0.992128961578     -0.0796422560024    0.00769550710754    -0.0949881439293    0.00769550710754    -0.0949881439293    -0.992128961578     -0.0796422560024    
9300000000.0        -0.992299528495     -0.0785819907519    0.00752197068222    -0.094108027197     0.00752197068222    -0.094108027197     -0.992299528495     -0.0785819907519    
9400000000.0        -0.992464712311     -0.0775409948289    0.00735377729685    -0.0932475482288    0.00735377729685    -0.0932475482288    -0.992464712311     -0.0775409948289    
9500000000.0        -0.992624733392     -0.0765186721996    0.00719070631078    -0.0924061147802    0.00719070631078    -0.0924061147802    -0.992624733392     -0.0765186721996    
9600000000.0        -0.992779800885     -0.0755144505795    0.0070325482946     -0.0915831584076    0.0070325482946     -0.0915831584076    -0.992779800885     -0.0755144505795    
9700000000.0        -0.9929301134       -0.0745277802642    0.00687910435353    -0.0907781332999    0.00687910435353    -0.0907781332999    -0.9929301134       -0.0745277802642    
9800000000.0        -0.993075859636     -0.0735581330285    0.00673018549789    -0.089990515177     0.00673018549789    -0.089990515177     -0.993075859636     -0.0735581330285    
9900000000.0        -0.99321721897      -0.0726050010886    0.00658561205693    -0.0892198002522    0.00658561205693    -0.0892198002522    -0.99321721897      -0.0726050010886    
10000000000.0       -0.993354362002     -0.0716678961233    0.00644521313266    -0.0884655042532    0.00644521313266    -0.0884655042532    -0.993354362002     -0.0716678961233    
