# Hz S RI R 50.00 
100000000.0         0.000105013043568   -0.00060727408784   0.999891575946      -0.000822476306578  0.999891575946      -0.000822476306578  0.000105013043568   -0.00060727408784   
200000000.0         0.000103540088081   -0.00121455146468   0.999888593577      -0.00164495685635   0.999888593577      -0.00164495685635   0.000103540088081   -0.00121455146468   
300000000.0         0.000100881896019   -0.00182183355206   0.999884752052      -0.00246744413521   0.999884752052      -0.00246744413521   0.000100881896019   -0.00182183355206   
400000000.0         9.71306289188e-05   -0.00242912102834   0.999879959103      -0.00328993954855   0.999879959103      -0.00328993954855   9.71306289188e-05   -0.00242912102834   
500000000.0         9.23216486879e-05   -0.00303641417607   0.999874179247      -0.00411244398096   0.999874179247      -0.00411244398096   9.23216486877e-05   -0.00303641417607   
600000000.0         8.64729072252e-05   -0.00364371301651   0.999867394396      -0.00493495798262   0.999867394396      -0.00493495798262   8.64729072256e-05   -0.00364371301651   
700000000.0         7.9594948972e-05    -0.00425101737956   0.99985959386       -0.00575748186262   0.99985959386       -0.00575748186262   7.95949489723e-05   -0.00425101737956   
800000000.0         7.16945575467e-05   -0.00485832694549   0.9998507707        -0.00658001574352   0.9998507707        -0.00658001574352   7.16945575465e-05   -0.00485832694549   
900000000.0         6.27763777516e-05   -0.00546564127244   0.999840920109      -0.00740255959695   0.999840920109      -0.00740255959695   6.27763777516e-05   -0.00546564127244   
1000000000.0        5.284373728e-05     -0.00607295981719   0.99983003859       -0.00822511326978   0.99983003859       -0.00822511326978   5.28437372804e-05   -0.00607295981719   
1100000000.0        4.18991029247e-05   -0.00668028194793   0.999818123501      -0.00904767650076   0.999818123501      -0.00904767650076   4.18991029245e-05   -0.00668028194793   
1200000000.0        2.99443524181e-05   -0.00728760695729   0.999805172788      -0.00987024893651   0.999805172788      -0.00987024893651   2.99443524179e-05   -0.00728760695729   
1300000000.0        1.69809453547e-05   -0.00789493406972   0.999791184807      -0.010692830141     0.999791184807      -0.010692830141     1.69809453547e-05   -0.00789493406972   
1400000000.0        3.01003540826e-06   -0.00850226244942   0.99977615822       -0.0115154196055    0.99977615822       -0.0115154196055    3.01003540848e-06   -0.00850226244942   
1500000000.0        -1.19674531134e-05  -0.00910959120571   0.999760091916      -0.0123380167548    0.999760091916      -0.0123380167548    -1.19674531137e-05  -0.00910959120571   
1600000000.0        -2.79507715365e-05  -0.00971691939762   0.999742984957      -0.0131606209536    0.999742984957      -0.0131606209536    -2.79507715366e-05  -0.00971691939762   
1700000000.0        -4.49393080739e-05  -0.0103242460385    0.999724836542      -0.0139832315118    0.999724836542      -0.0139832315118    -4.4939308074e-05   -0.0103242460385    
1800000000.0        -6.29325592924e-05  -0.010931570099     0.999705645977      -0.0148058476883    0.999705645977      -0.0148058476883    -6.29325592922e-05  -0.010931570099     
1900000000.0        -8.19301085963e-05  -0.0115388905109    0.999685412655      -0.0156284686953    0.999685412655      -0.0156284686953    -8.19301085966e-05  -0.0115388905109    
2000000000.0        -0.000101931609848  -0.0121462061683    0.999664136041      -0.0164510937006    0.999664136041      -0.0164510937006    -0.000101931609849  -0.0121462061683    
2100000000.0        -0.000122936774575  -0.0127535159314    0.999641815657      -0.0172737218315    0.999641815657      -0.0172737218315    -0.000122936774575  -0.0127535159314    
2200000000.0        -0.000144945361945  -0.0133608186278    0.999618451074      -0.0180963521768    0.999618451074      -0.0180963521768    -0.000144945361945  -0.0133608186278    
2300000000.0        -0.000167957170732  -0.0139681130544    0.999594041905      -0.0189189837888    0.999594041905      -0.0189189837888    -0.000167957170732  -0.0139681130544    
2400000000.0        -0.000191972032868  -0.014575397979     0.999568587797      -0.0197416156854    0.999568587797      -0.0197416156854    -0.000191972032867  -0.014575397979     
2500000000.0        -0.000216989808163  -0.0151826721419    0.99954208843       -0.0205642468523    0.99954208843       -0.0205642468523    -0.000216989808163  -0.0151826721419    
2600000000.0        -0.000243010379989  -0.0157899342571    0.999514543506      -0.0213868762443    0.999514543506      -0.0213868762443    -0.00024301037999   -0.0157899342571    
2700000000.0        -0.000270033651664  -0.0163971830139    0.999485952752      -0.0222095027866    0.999485952752      -0.0222095027866    -0.000270033651664  -0.0163971830139    
2800000000.0        -0.000298059543452  -0.0170044170772    0.999456315915      -0.0230321253765    0.999456315915      -0.0230321253765    -0.000298059543452  -0.0170044170772    
2900000000.0        -0.000327087990026  -0.0176116350894    0.999425632761      -0.0238547428844    0.999425632761      -0.0238547428844    -0.000327087990026  -0.0176116350894    
3000000000.0        -0.000357118938307  -0.0182188356707    0.999393903069      -0.0246773541549    0.999393903069      -0.0246773541549    -0.000357118938307  -0.0182188356707    
3100000000.0        -0.000388152345635  -0.0188260174203    0.999361126635      -0.025499958008     0.999361126635      -0.025499958008     -0.000388152345635  -0.0188260174203    
3200000000.0        -0.000420188178168  -0.0194331789172    0.999327303267      -0.0263225532401    0.999327303267      -0.0263225532401    -0.000420188178167  -0.0194331789172    
3300000000.0        -0.00045322640953   -0.0200403187207    0.999292432785      -0.0271451386247    0.999292432785      -0.0271451386247    -0.000453226409531  -0.0200403187207    
3400000000.0        -0.000487267019608  -0.0206474353713    0.999256515019      -0.0279677129134    0.999256515019      -0.0279677129134    -0.000487267019608  -0.0206474353713    
3500000000.0        -0.00052230999351   -0.0212545273914    0.999219549812      -0.0287902748364    0.999219549812      -0.0287902748364    -0.00052230999351   -0.0212545273914    
3600000000.0        -0.000558355320654  -0.0218615932855    0.999181537012      -0.0296128231038    0.999181537012      -0.0296128231038    -0.000558355320654  -0.0218615932855    
3700000000.0        -0.000595402993955  -0.0224686315414    0.999142476479      -0.0304353564055    0.999142476479      -0.0304353564055    -0.000595402993955  -0.0224686315414    
3800000000.0        -0.000633453009106  -0.0230756406301    0.99910236808       -0.0312578734125    0.99910236808       -0.0312578734125    -0.000633453009106  -0.0230756406301    
3900000000.0        -0.000672505363948  -0.0236826190071    0.999061211691      -0.0320803727773    0.999061211691      -0.0320803727773    -0.000672505363948  -0.0236826190071    
4000000000.0        -0.000712560057883  -0.0242895651118    0.999019007194      -0.0329028531343    0.999019007194      -0.0329028531343    -0.000712560057883  -0.0242895651118    
4100000000.0        -0.000753617091374  -0.0248964773689    0.998975754479      -0.0337253131006    0.998975754479      -0.0337253131006    -0.000753617091374  -0.0248964773689    
4200000000.0        -0.000795676465468  -0.0255033541884    0.998931453442      -0.0345477512762    0.998931453442      -0.0345477512762    -0.000795676465468  -0.0255033541884    
4300000000.0        -0.000838738181392  -0.0261101939661    0.998886103986      -0.0353701662449    0.998886103986      -0.0353701662449    -0.000838738181392  -0.0261101939661    
4400000000.0        -0.00088280224016   -0.026716995084     0.99883970602       -0.0361925565743    0.99883970602       -0.0361925565743    -0.00088280224016   -0.026716995084     
4500000000.0        -0.000927868642229  -0.0273237559105    0.998792259461      -0.0370149208165    0.998792259461      -0.0370149208165    -0.000927868642229  -0.0273237559105    
4600000000.0        -0.000973937387188  -0.027930474801     0.998743764228      -0.0378372575088    0.998743764228      -0.0378372575088    -0.000973937387188  -0.027930474801     
4700000000.0        -0.00102100847345   -0.0285371500981    0.998694220249      -0.0386595651732    0.998694220249      -0.0386595651732    -0.00102100847345   -0.0285371500981    
4800000000.0        -0.00106908189802   -0.0291437801321    0.998643627458      -0.0394818423179    0.998643627458      -0.0394818423179    -0.00106908189802   -0.0291437801321    
4900000000.0        -0.00111815765619   -0.0297503632208    0.998591985793      -0.0403040874368    0.998591985793      -0.0403040874368    -0.00111815765619   -0.0297503632208    
5000000000.0        -0.00116823574138   -0.0303568976706    0.998539295197      -0.0411262990102    0.998539295197      -0.0411262990102    -0.00116823574138   -0.0303568976706    
5100000000.0        -0.00121931614487   -0.030963381776     0.998485555621      -0.0419484755053    0.998485555621      -0.0419484755053    -0.00121931614487   -0.030963381776     
5200000000.0        -0.00127139885562   -0.0315698138205    0.998430767018      -0.0427706153763    0.998430767018      -0.0427706153763    -0.00127139885562   -0.0315698138205    
5300000000.0        -0.00132448386011   -0.0321761920763    0.998374929351      -0.0435927170644    0.998374929351      -0.0435927170644    -0.00132448386011   -0.0321761920763    
5400000000.0        -0.00137857114215   -0.0327825148051    0.998318042582      -0.0444147789988    0.998318042582      -0.0444147789988    -0.00137857114215   -0.0327825148051    
5500000000.0        -0.00143366068269   -0.0333887802578    0.998260106685      -0.0452367995964    0.998260106685      -0.0452367995964    -0.00143366068269   -0.0333887802578    
5600000000.0        -0.00148975245973   -0.0339949866753    0.998201121634      -0.0460587772625    0.998201121634      -0.0460587772625    -0.00148975245973   -0.0339949866753    
5700000000.0        -0.00154684644813   -0.0346011322884    0.99814108741       -0.0468807103907    0.99814108741       -0.0468807103907    -0.00154684644813   -0.0346011322884    
5800000000.0        -0.0016049426195    -0.0352072153179    0.998080004         -0.0477025973634    0.998080004         -0.0477025973634    -0.0016049426195    -0.0352072153179    
5900000000.0        -0.00166404094207   -0.0358132339751    0.998017871396      -0.0485244365519    0.998017871396      -0.0485244365519    -0.00166404094207   -0.0358132339751    
6000000000.0        -0.00172414138057   -0.036419186462     0.997954689593      -0.0493462263167    0.997954689593      -0.0493462263167    -0.00172414138057   -0.036419186462     
6100000000.0        -0.0017852438961    -0.0370250709711    0.997890458594      -0.0501679650079    0.997890458594      -0.0501679650079    -0.0017852438961    -0.0370250709711    
6200000000.0        -0.00184734844605   -0.0376308856861    0.997825178406      -0.0509896509651    0.997825178406      -0.0509896509651    -0.00184734844605   -0.0376308856861    
6300000000.0        -0.001910454984     -0.038236628782     0.997758849041      -0.0518112825178    0.997758849041      -0.0518112825178    -0.00191045498399   -0.038236628782     
6400000000.0        -0.00197456345958   -0.0388422984249    0.997691470515      -0.0526328579858    0.997691470515      -0.0526328579858    -0.00197456345958   -0.0388422984249    
6500000000.0        -0.00203967381844   -0.0394478927726    0.997623042852      -0.0534543756788    0.997623042852      -0.0534543756788    -0.00203967381844   -0.0394478927726    
6600000000.0        -0.00210578600212   -0.0400534099746    0.997553566078      -0.0542758338975    0.997553566078      -0.0542758338975    -0.00210578600212   -0.0400534099746    
6700000000.0        -0.00217289994797   -0.0406588481722    0.997483040227      -0.055097230933     0.997483040227      -0.055097230933     -0.00217289994797   -0.0406588481722    
6800000000.0        -0.00224101558908   -0.041264205499     0.997411465336      -0.0559185650674    0.997411465336      -0.0559185650674    -0.00224101558908   -0.041264205499     
6900000000.0        -0.0023101328542    -0.0418694800805    0.997338841449      -0.0567398345738    0.997338841449      -0.0567398345738    -0.0023101328542    -0.0418694800805    
7000000000.0        -0.00238025166766   -0.0424746700348    0.997265168614      -0.0575610377166    0.997265168614      -0.0575610377166    -0.00238025166766   -0.0424746700348    
7100000000.0        -0.00245137194932   -0.0430797734724    0.997190446885      -0.0583821727516    0.997190446885      -0.0583821727516    -0.00245137194932   -0.0430797734724    
7200000000.0        -0.00252349361446   -0.0436847884966    0.99711467632       -0.0592032379264    0.99711467632       -0.0592032379264    -0.00252349361446   -0.0436847884966    
7300000000.0        -0.00259661657378   -0.0442897132035    0.997037856983      -0.0600242314802    0.997037856983      -0.0600242314802    -0.00259661657378   -0.0442897132035    
7400000000.0        -0.00267074073325   -0.0448945456821    0.996959988944      -0.0608451516441    0.996959988944      -0.0608451516441    -0.00267074073325   -0.0448945456821    
7500000000.0        -0.00274586599414   -0.0454992840146    0.996881072278      -0.0616659966415    0.996881072278      -0.0616659966415    -0.00274586599414   -0.0454992840146    
7600000000.0        -0.0028219922529    -0.0461039262764    0.996801107065      -0.0624867646878    0.996801107065      -0.0624867646878    -0.0028219922529    -0.0461039262764    
7700000000.0        -0.00289911940111   -0.0467084705362    0.99672009339       -0.063307453991     0.99672009339       -0.063307453991     -0.00289911940111   -0.0467084705362    
7800000000.0        -0.00297724732547   -0.0473129148565    0.996638031344      -0.0641280627517    0.996638031344      -0.0641280627517    -0.00297724732547   -0.0473129148565    
7900000000.0        -0.00305637590768   -0.0479172572931    0.996554921024      -0.064948589163     0.996554921024      -0.064948589163     -0.00305637590768   -0.0479172572931    
8000000000.0        -0.00313650502446   -0.0485214958959    0.99647076253       -0.065769031411     0.99647076253       -0.065769031411     -0.00313650502446   -0.0485214958959    
8100000000.0        -0.00321763454743   -0.0491256287084    0.99638555597       -0.0665893876749    0.99638555597       -0.0665893876749    -0.00321763454743   -0.0491256287084    
8200000000.0        -0.00329976434312   -0.0497296537684    0.996299301456      -0.0674096561267    0.996299301456      -0.0674096561267    -0.00329976434312   -0.0497296537684    
8300000000.0        -0.0033828942729    -0.0503335691076    0.996211999107      -0.068229834932     0.996211999107      -0.068229834932     -0.0033828942729    -0.0503335691076    
8400000000.0        -0.00346702419292   -0.0509373727522    0.996123649046      -0.0690499222496    0.996123649046      -0.0690499222496    -0.00346702419292   -0.0509373727522    
8500000000.0        -0.0035521539541    -0.0515410627225    0.996034251402      -0.0698699162319    0.996034251402      -0.0698699162319    -0.00355215395411   -0.0515410627225    
8600000000.0        -0.00363828340208   -0.0521446370336    0.995943806309      -0.0706898150249    0.995943806309      -0.0706898150249    -0.00363828340208   -0.0521446370336    
8700000000.0        -0.00372541237715   -0.0527480936949    0.995852313908      -0.0715096167685    0.995852313908      -0.0715096167685    -0.00372541237715   -0.0527480936949    
8800000000.0        -0.00381354071423   -0.0533514307107    0.995759774344      -0.0723293195964    0.995759774344      -0.0723293195964    -0.00381354071423   -0.0533514307107    
8900000000.0        -0.00390266824284   -0.0539546460802    0.995666187769      -0.0731489216364    0.995666187769      -0.0731489216364    -0.00390266824284   -0.0539546460802    
9000000000.0        -0.00399279478708   -0.0545577377973    0.99557155434       -0.0739684210104    0.99557155434       -0.0739684210104    -0.00399279478708   -0.0545577377973    
9100000000.0        -0.00408392016553   -0.055160703851     0.99547587422       -0.0747878158345    0.99547587422       -0.0747878158345    -0.00408392016553   -0.055160703851     
9200000000.0        -0.00417604419127   -0.0557635422255    0.995379147576      -0.0756071042194    0.995379147576      -0.0756071042194    -0.00417604419127   -0.0557635422255    
9300000000.0        -0.00426916667184   -0.0563662509003    0.995281374583      -0.0764262842699    0.995281374583      -0.0764262842699    -0.00426916667184   -0.0563662509003    
9400000000.0        -0.00436328740919   -0.0569688278501    0.995182555421      -0.0772453540859    0.995182555421      -0.0772453540859    -0.00436328740919   -0.0569688278501    
9500000000.0        -0.00445840619964   -0.0575712710451    0.995082690275      -0.0780643117616    0.995082690275      -0.0780643117616    -0.00445840619964   -0.0575712710451    
9600000000.0        -0.00455452283389   -0.058173578451     0.994981779336      -0.0788831553863    0.994981779336      -0.0788831553863    -0.00455452283389   -0.058173578451     
9700000000.0        -0.00465163709695   -0.0587757480291    0.994879822802      -0.0797018830439    0.994879822802      -0.0797018830439    -0.00465163709695   -0.0587757480291    
9800000000.0        -0.00474974876812   -0.0593777777366    0.994776820874      -0.0805204928138    0.994776820874      -0.0805204928138    -0.00474974876812   -0.0593777777366    
9900000000.0        -0.00484885762098   -0.0599796655264    0.994672773763      -0.0813389827701    0.994672773763      -0.0813389827701    -0.00484885762098   -0.0599796655264    
10000000000.0       -0.00494896342332   -0.0605814093472    0.994567681682      -0.0821573509824    0.994567681682      -0.0821573509824    -0.00494896342332   -0.0605814093472    
