# Hz S RI R 50.00 
100000000.0         3.04941765545e-05   -0.0024194902898    0.999950157741      -0.00273544910752   0.999950157741      -0.00273544910752   3.04941765543e-05   -0.0024194902898    
200000000.0         8.3780391531e-06    -0.00483908531621   0.999927347599      -0.0054710295177    0.999927347599      -0.0054710295177    8.3780391531e-06    -0.00483908531621   
300000000.0         -2.70509357594e-05  -0.007258800227     0.999891264082      -0.00820677039904   0.999891264082      -0.00820677039904   -2.70509357589e-05  -0.007258800227     
400000000.0         -7.57629573619e-05  -0.00967862111478   0.999841867684      -0.0109426686235    0.999841867684      -0.0109426686235    -7.57629573618e-05  -0.00967862111478   
500000000.0         -0.000137750020477  -0.0120985188028    0.999779139776      -0.01367870418      0.999779139776      -0.01367870418      -0.000137750020477  -0.0120985188028    
600000000.0         -0.000213010856783  -0.0145184537492    0.999703068051      -0.0164148456376    0.999703068051      -0.0164148456376    -0.000213010856783  -0.0145184537492    
700000000.0         -0.000301546999235  -0.0169383785823    0.999613642948      -0.0191510529639    0.999613642948      -0.0191510529639    -0.000301546999235  -0.0169383785823    
800000000.0         -0.000403361272079  -0.0193582396419    0.999510856423      -0.0218872792356    0.999510856423      -0.0218872792356    -0.000403361272079  -0.0193582396419    
900000000.0         -0.000518457065842  -0.0217779780157    0.999394701461      -0.0246234717863    0.999394701461      -0.0246234717863    -0.000518457065842  -0.0217779780157    
1000000000.0        -0.000646837930226  -0.0241975302809    0.999265171864      -0.0273595730265    0.999265171864      -0.0273595730265    -0.000646837930226  -0.0241975302809    
1100000000.0        -0.00078850731683   -0.0266168290662    0.999122262168      -0.0300955210631    0.999122262168      -0.0300955210631    -0.00078850731683   -0.0266168290662    
1200000000.0        -0.000943468401187  -0.0290358034919    0.998965967621      -0.0328312501842    0.998965967621      -0.0328312501842    -0.000943468401187  -0.0290358034919    
1300000000.0        -0.00111172395063   -0.031454379526     0.998796284183      -0.0355666912501    0.998796284183      -0.0355666912501    -0.00111172395063   -0.031454379526     
1400000000.0        -0.00129327622074   -0.0338724802806    0.998613208548      -0.0383017720176    0.998613208548      -0.0383017720176    -0.00129327622074   -0.0338724802806    
1500000000.0        -0.00148812687088   -0.0362900262615    0.998416738174      -0.0410364174136    0.998416738174      -0.0410364174136    -0.00148812687088   -0.0362900262615    
1600000000.0        -0.00169627689299   -0.0387069355853    0.99820687131       -0.043770549771     0.99820687131       -0.043770549771     -0.00169627689299   -0.0387069355853    
1700000000.0        -0.0019177265504    -0.0411231241687    0.997983607033      -0.0465040890356    0.997983607033      -0.0465040890356    -0.0019177265504    -0.0411231241687    
1800000000.0        -0.00215247532396   -0.0435385058966    0.997746945277      -0.0492369529476    0.997746945277      -0.0492369529476    -0.00215247532396   -0.0435385058966    
1900000000.0        -0.00240052186445   -0.0459529927729    0.997496886869      -0.0519690572053    0.997496886869      -0.0519690572053    -0.00240052186445   -0.0459529927729    
2000000000.0        -0.00266186394969   -0.0483664950578    0.997233433555      -0.0547003156134    0.997233433555      -0.0547003156134    -0.00266186394969   -0.0483664950578    
2100000000.0        -0.00293649844599   -0.0507789213923    0.996956588035      -0.0574306402172    0.996956588035      -0.0574306402172    -0.00293649844599   -0.0507789213923    
2200000000.0        -0.003224421273     -0.0531901789136    0.996666353986      -0.0601599414269    0.996666353986      -0.0601599414269    -0.003224421273     -0.0531901789136    
2300000000.0        -0.00352562737181   -0.0556001733621    0.996362736092      -0.062888128132     0.996362736092      -0.062888128132     -0.00352562737181   -0.0556001733621    
2400000000.0        -0.00384011067575   -0.0580088091805    0.996045740066      -0.0656151078078    0.996045740066      -0.0656151078078    -0.00384011067575   -0.0580088091805    
2500000000.0        -0.00416786408377   -0.0604159896076    0.995715372672      -0.0683407866154    0.995715372672      -0.0683407866154    -0.00416786408377   -0.0604159896076    
2600000000.0        -0.00450887943597   -0.0628216167653    0.995371641753      -0.0710650694953    0.995371641753      -0.0710650694953    -0.00450887943597   -0.0628216167653    
2700000000.0        -0.00486314749134   -0.0652255917426    0.995014556241      -0.0737878602558    0.995014556241      -0.0737878602558    -0.00486314749134   -0.0652255917426    
2800000000.0        -0.0052306579074    -0.0676278146734    0.994644126185      -0.0765090616567    0.994644126185      -0.0765090616567    -0.0052306579074    -0.0676278146734    
2900000000.0        -0.00561139922161   -0.070028184812     0.994260362759      -0.0792285754885    0.994260362759      -0.0792285754885    -0.00561139922161   -0.070028184812     
3000000000.0        -0.00600535883443   -0.0724266006038    0.993863278286      -0.0819463026484    0.993863278286      -0.0819463026484    -0.00600535883443   -0.0724266006038    
3100000000.0        -0.00641252299413   -0.0748229597539    0.993452886246      -0.0846621432123    0.993452886246      -0.0846621432123    -0.00641252299413   -0.0748229597539    
3200000000.0        -0.00683287678284   -0.0772171592925    0.99302920129       -0.0873759965042    0.99302920129       -0.0873759965042    -0.00683287678284   -0.0772171592925    
3300000000.0        -0.00726640410427   -0.0796090956377    0.992592239254      -0.0900877611621    0.992592239254      -0.0900877611621    -0.00726640410427   -0.0796090956377    
3400000000.0        -0.00771308767258   -0.0819986646556    0.992142017167      -0.0927973352017    0.992142017167      -0.0927973352017    -0.00771308767258   -0.0819986646556    
3500000000.0        -0.0081729090026    -0.0843857617184    0.991678553262      -0.0955046160777    0.991678553262      -0.0955046160777    -0.0081729090026    -0.0843857617184    
3600000000.0        -0.00864584840133   -0.0867702817608    0.99120186698       -0.098209500743     0.99120186698       -0.098209500743     -0.00864584840133   -0.0867702817608    
3700000000.0        -0.00913188496046   -0.0891521193335    0.990711978983      -0.100911885705     0.990711978983      -0.100911885705     -0.00913188496046   -0.0891521193335    
3800000000.0        -0.00963099655012   -0.0915311686562    0.990208911154      -0.10361166708      0.990208911154      -0.10361166708      -0.00963099655012   -0.0915311686562    
3900000000.0        -0.0101431598137    -0.0939073236677    0.989692686608      -0.106308740649     0.989692686608      -0.106308740649     -0.0101431598137    -0.0939073236677    
4000000000.0        -0.0106683501634    -0.0962804780749    0.989163329689      -0.109003001906     0.989163329689      -0.109003001906     -0.0106683501634    -0.0962804780749    
4100000000.0        -0.0112065417776    -0.0986505254004    0.988620865979      -0.111694346107     0.988620865979      -0.111694346107     -0.0112065417776    -0.0986505254004    
4200000000.0        -0.0117577075977    -0.101017359028     0.988065322296      -0.114382668322     0.988065322296      -0.114382668322     -0.0117577075977    -0.101017359028     
4300000000.0        -0.0123218193275    -0.103380872249     0.987496726698      -0.117067863478     0.987496726698      -0.117067863478     -0.0123218193275    -0.103380872249     
4400000000.0        -0.0128988474324    -0.105740958303     0.98691510848       -0.119749826408     0.98691510848       -0.119749826408     -0.0128988474324    -0.105740958303     
4500000000.0        -0.0134887611396    -0.108097510422     0.986320498178      -0.122428451889     0.986320498178      -0.122428451889     -0.0134887611396    -0.108097510422     
4600000000.0        -0.0140915284395    -0.11045042187      0.985712927564      -0.125103634691     0.985712927564      -0.125103634691     -0.0140915284395    -0.11045042187      
4700000000.0        -0.0147071160872    -0.112799585983     0.985092429646      -0.127775269613     0.985092429646      -0.127775269613     -0.0147071160872    -0.112799585983     
4800000000.0        -0.0153354896057    -0.115144896208     0.984459038663      -0.130443251528     0.984459038663      -0.130443251528     -0.0153354896057    -0.115144896208     
4900000000.0        -0.0159766132888    -0.117486246141     0.983812790086      -0.133107475419     0.983812790086      -0.133107475419     -0.0159766132888    -0.117486246141     
5000000000.0        -0.0166304502053    -0.119823529562     0.983153720608      -0.135767836415     0.983153720608      -0.135767836415     -0.0166304502053    -0.119823529562     
5100000000.0        -0.0172969622039    -0.122156640472     0.982481868144      -0.138424229835     0.982481868144      -0.138424229835     -0.0172969622039    -0.122156640472     
5200000000.0        -0.017976109918     -0.124485473125     0.981797271822      -0.141076551216     0.981797271822      -0.141076551216     -0.017976109918     -0.124485473125     
5300000000.0        -0.0186678527727    -0.126809922065     0.981099971981      -0.143724696351     0.981099971981      -0.143724696351     -0.0186678527727    -0.126809922065     
5400000000.0        -0.0193721489902    -0.129129882156     0.98039001016       -0.146368561325     0.98039001016       -0.146368561325     -0.0193721489902    -0.129129882156     
5500000000.0        -0.0200889555978    -0.131445248615     0.979667429095      -0.149008042543     0.979667429095      -0.149008042543     -0.0200889555978    -0.131445248615     
5600000000.0        -0.0208182284352    -0.133755917043     0.978932272706      -0.151643036769     0.978932272706      -0.151643036769     -0.0208182284352    -0.133755917043     
5700000000.0        -0.0215599221629    -0.136061783453     0.978184586096      -0.154273441148     0.978184586096      -0.154273441148     -0.0215599221629    -0.136061783453     
5800000000.0        -0.0223139902709    -0.138362744304     0.977424415535      -0.156899153245     0.977424415535      -0.156899153245     -0.0223139902709    -0.138362744304     
5900000000.0        -0.0230803850879    -0.140658696522     0.976651808453      -0.159520071069     0.976651808453      -0.159520071069     -0.0230803850879    -0.140658696522     
6000000000.0        -0.0238590577908    -0.142949537534     0.975866813436      -0.162136093103     0.975866813436      -0.162136093103     -0.0238590577908    -0.142949537534     
6100000000.0        -0.0246499584154    -0.145235165294     0.975069480205      -0.164747118333     0.975069480205      -0.164747118333     -0.0246499584154    -0.145235165294     
6200000000.0        -0.0254530358665    -0.147515478306     0.974259859615      -0.167353046273     0.974259859615      -0.167353046273     -0.0254530358665    -0.147515478306     
6300000000.0        -0.0262682379292    -0.149790375651     0.97343800364       -0.169953776993     0.97343800364       -0.169953776993     -0.0262682379292    -0.149790375651     
6400000000.0        -0.02709551128      -0.152059757013     0.97260396536       -0.172549211143     0.97260396536       -0.172549211143     -0.02709551128      -0.152059757013     
6500000000.0        -0.0279348014991    -0.154323522701     0.971757798953      -0.175139249979     0.971757798953      -0.175139249979     -0.0279348014991    -0.154323522701     
6600000000.0        -0.028786053082     -0.156581573674     0.97089955968       -0.177723795384     0.97089955968       -0.177723795384     -0.028786053082     -0.156581573674     
6700000000.0        -0.0296492094526    -0.15883381156      0.970029303872      -0.180302749897     0.970029303872      -0.180302749897     -0.0296492094526    -0.15883381156      
6800000000.0        -0.0305242129755    -0.161080138684     0.969147088921      -0.18287601673      0.969147088921      -0.18287601673      -0.0305242129755    -0.161080138684     
6900000000.0        -0.0314110049697    -0.163320458084     0.968252973262      -0.185443499794     0.968252973262      -0.185443499794     -0.0314110049697    -0.163320458084     
7000000000.0        -0.0323095257218    -0.165554673533     0.967347016363      -0.188005103716     0.967347016363      -0.188005103716     -0.0323095257218    -0.165554673533     
7100000000.0        -0.0332197144999    -0.167782689559     0.96642927871       -0.190560733863     0.96642927871       -0.190560733863     -0.0332197144999    -0.167782689559     
7200000000.0        -0.0341415095675    -0.170004411467     0.965499821791      -0.193110296363     0.965499821791      -0.193110296363     -0.0341415095675    -0.170004411467     
7300000000.0        -0.0350748481983    -0.172219745353     0.964558708085      -0.195653698118     0.964558708085      -0.195653698118     -0.0350748481983    -0.172219745353     
7400000000.0        -0.0360196666902    -0.174428598126     0.963606001046      -0.198190846831     0.963606001046      -0.198190846831     -0.0360196666902    -0.174428598126     
7500000000.0        -0.0369759003807    -0.176630877523     0.962641765087      -0.200721651017     0.962641765087      -0.200721651017     -0.0369759003807    -0.176630877523     
7600000000.0        -0.0379434836616    -0.178826492128     0.961666065566      -0.203246020027     0.961666065566      -0.203246020027     -0.0379434836616    -0.178826492128     
7700000000.0        -0.0389223499946    -0.181015351387     0.960678968772      -0.205763864057     0.960678968772      -0.205763864057     -0.0389223499946    -0.181015351387     
7800000000.0        -0.0399124319263    -0.183197365625     0.959680541906      -0.208275094172     0.959680541906      -0.208275094172     -0.0399124319263    -0.183197365625     
7900000000.0        -0.0409136611046    -0.18537244606      0.95867085307       -0.210779622316     0.95867085307       -0.210779622316     -0.0409136611046    -0.18537244606      
8000000000.0        -0.0419259682941    -0.187540504819     0.957649971245      -0.213277361333     0.957649971245      -0.213277361333     -0.0419259682941    -0.187540504819     
8100000000.0        -0.042949283392     -0.189701454951     0.956617966281      -0.215768224975     0.956617966281      -0.215768224975     -0.042949283392     -0.189701454951     
8200000000.0        -0.043983535445     -0.191855210441     0.955574908877      -0.218252127921     0.955574908877      -0.218252127921     -0.043983535445     -0.191855210441     
8300000000.0        -0.0450286526649    -0.194001686223     0.954520870568      -0.220728985787     0.954520870568      -0.220728985787     -0.0450286526649    -0.194001686223     
8400000000.0        -0.0460845624455    -0.196140798195     0.953455923704      -0.223198715143     0.953455923704      -0.223198715143     -0.0460845624455    -0.196140798195     
8500000000.0        -0.0471511913794    -0.198272463228     0.952380141436      -0.225661233522     0.952380141436      -0.225661233522     -0.0471511913794    -0.198272463228     
8600000000.0        -0.0482284652743    -0.200396599177     0.9512935977        -0.228116459433     0.9512935977        -0.228116459433     -0.0482284652743    -0.200396599177     
8700000000.0        -0.0493163091699    -0.202513124897     0.950196367199      -0.230564312374     0.950196367199      -0.230564312374     -0.0493163091699    -0.202513124897     
8800000000.0        -0.0504146473555    -0.204621960248     0.949088525385      -0.233004712841     0.949088525385      -0.233004712841     -0.0504146473555    -0.204621960248     
8900000000.0        -0.0515234033861    -0.20672302611      0.947970148444      -0.235437582339     0.947970148444      -0.235437582339     -0.0515234033861    -0.20672302611      
9000000000.0        -0.0526425001004    -0.208816244388     0.946841313279      -0.237862843392     0.946841313279      -0.237862843392     -0.0526425001004    -0.208816244388     
9100000000.0        -0.0537718596374    -0.210901538025     0.945702097489      -0.240280419553     0.945702097489      -0.240280419553     -0.0537718596374    -0.210901538025     
9200000000.0        -0.0549114034538    -0.21297883101      0.944552579357      -0.242690235413     0.944552579357      -0.242690235413     -0.0549114034538    -0.21297883101      
9300000000.0        -0.0560610523416    -0.215048048385     0.943392837829      -0.245092216609     0.943392837829      -0.245092216609     -0.0560610523416    -0.215048048385     
9400000000.0        -0.0572207264453    -0.217109116253     0.942222952499      -0.247486289832     0.942222952499      -0.247486289832     -0.0572207264453    -0.217109116253     
9500000000.0        -0.058390345279     -0.219161961787     0.941043003589      -0.249872382837     0.941043003589      -0.249872382837     -0.058390345279     -0.219161961787     
9600000000.0        -0.0595698277444    -0.221206513236     0.939853071932      -0.252250424446     0.939853071932      -0.252250424446     -0.0595698277444    -0.221206513236     
9700000000.0        -0.0607590921478    -0.223242699932     0.938653238959      -0.25462034456      0.938653238959      -0.25462034456      -0.0607590921478    -0.223242699932     
9800000000.0        -0.0619580562177    -0.225270452296     0.937443586676      -0.256982074159     0.937443586676      -0.256982074159     -0.0619580562177    -0.225270452296     
9900000000.0        -0.0631666371226    -0.227289701843     0.936224197647      -0.259335545315     0.936224197647      -0.259335545315     -0.0631666371226    -0.227289701843     
10000000000.0       -0.0643847514878    -0.229300381189     0.93499515498       -0.261680691193     0.93499515498       -0.261680691193     -0.0643847514878    -0.229300381189     
