# Hz S RI R 50.00 
100000000.0         0.0831565227888     0.00227168018264    0.916841485957      -0.00303061174687   0.916841485957      -0.00303061174687   0.0831565227888     0.00227168018264    
200000000.0         0.08367845186       0.00453743422512    0.916317972004      -0.00605529939513   0.916317972004      -0.00605529939513   0.08367845186       0.00453743422512    
300000000.0         0.0840778496769     0.00679953390501    0.915916395459      -0.00907633688077   0.915916395459      -0.00907633688077   0.0840778496769     0.00679953390501    
400000000.0         0.0844215829604     0.00905869570452    0.915569889444      -0.012094442613     0.915569889444      -0.012094442613     0.0844215829604     0.00905869570452    
500000000.0         0.0847354827203     0.0113152737587     0.915252622813      -0.0151099725385    0.915252622813      -0.0151099725385    0.0847354827203     0.0113152737587     
600000000.0         0.085032758805      0.0135694615556     0.914951385597      -0.0181231218825    0.914951385597      -0.0181231218825    0.085032758805      0.0135694615556     
700000000.0         0.0853212337157     0.0158213644286     0.914658355178      -0.0211339976614    0.914658355178      -0.0211339976614    0.0853212337157     0.0158213644286     
800000000.0         0.0856059862256     0.0180710331985     0.914368452672      -0.0241426523373    0.914368452672      -0.0241426523373    0.0856059862256     0.0180710331985     
900000000.0         0.0858905299479     0.0203184822536     0.914078164355      -0.0271491019063    0.914078164355      -0.0271491019063    0.0858905299479     0.0203184822536     
1000000000.0        0.0861774114625     0.0225637002602     0.913784943538      -0.0301533366148    0.913784943538      -0.0301533366148    0.0861774114625     0.0225637002602     
1100000000.0        0.0864685432083     0.0248066569711     0.913486877669      -0.0331553277719    0.913486877669      -0.0331553277719    0.0864685432083     0.0248066569711     
1200000000.0        0.0867654020799     0.0270473077887     0.913182489741      -0.0361550323155    0.913182489741      -0.0361550323155    0.0867654020799     0.0270473077887     
1300000000.0        0.0870691545212     0.0292855969552     0.912870613196      -0.0391523960057    0.912870613196      -0.0391523960057    0.0870691545212     0.0292855969552     
1400000000.0        0.0873807388437     0.0315214598606     0.912550309602      -0.0421473557342    0.912550309602      -0.0421473557342    0.0873807388437     0.0315214598606     
1500000000.0        0.0877009213855     0.0337548247594     0.912220812501      -0.0451398412428    0.912220812501      -0.0451398412428    0.0877009213855     0.0337548247594     
1600000000.0        0.0880303359985     0.0359856140794     0.911881487917      -0.0481297764335    0.911881487917      -0.0481297764335    0.0880303359985     0.0359856140794     
1700000000.0        0.0883695125379     0.0382137454392     0.911531805865      -0.0511170803872    0.911531805865      -0.0511170803872    0.0883695125379     0.0382137454392     
1800000000.0        0.0887188978773     0.0404391324537     0.911171319339      -0.0541016681705    0.911171319339      -0.0541016681705    0.0887188978773     0.0404391324537     
1900000000.0        0.0890788717135     0.042661685383      0.910799648507      -0.0570834514848    0.910799648507      -0.0570834514848    0.0890788717135     0.042661685383      
2000000000.0        0.0894497586566     0.0448813116604     0.910416468618      -0.0600623391954    0.910416468618      -0.0600623391954    0.0894497586566     0.0448813116604     
2100000000.0        0.0898318376188     0.0470979163293     0.910021500616      -0.0630382377692    0.910021500616      -0.0630382377692    0.0898318376188     0.0470979163293     
2200000000.0        0.0902253492042     0.0493114024081     0.909614503745      -0.0660110516397    0.909614503745      -0.0660110516397    0.0902253492042     0.0493114024081     
2300000000.0        0.0906305015967     0.0515216711975     0.909195269671      -0.0689806835153    0.909195269671      -0.0689806835153    0.0906305015967     0.0515216711975     
2400000000.0        0.0910474753018     0.0537286225435     0.908763617727      -0.0719470346422    0.908763617727      -0.0719470346422    0.0910474753018     0.0537286225435     
2500000000.0        0.0914764270048     0.055932155062      0.908319391067      -0.0749100050302    0.908319391067      -0.0749100050302    0.0914764270048     0.055932155062      
2600000000.0        0.091917492738      0.0581321663349     0.907862453491      -0.0778694936482    0.907862453491      -0.0778694936482    0.091917492738      0.0581321663349     
2700000000.0        0.0923707905021     0.06032855308       0.907392686826      -0.0808253985953    0.907392686826      -0.0808253985953    0.0923707905021     0.06032855308       
2800000000.0        0.0928364224541     0.0625212113009     0.906909988737      -0.0837776172503    0.906909988737      -0.0837776172503    0.0928364224541     0.0625212113009     
2900000000.0        0.0933144767444     0.06471003642       0.906414270892      -0.0867260464055    0.906414270892      -0.0867260464055    0.0933144767444     0.06471003642       
3000000000.0        0.0938050290713     0.0668949233959     0.905905457407      -0.0896705823841    0.905905457407      -0.0896705823841    0.0938050290713     0.0668949233959     
3100000000.0        0.0943081440036     0.0690757668297     0.905383483522      -0.0926111211466    0.905383483522      -0.0926111211466    0.0943081440036     0.0690757668297     
3200000000.0        0.0948238761125     0.0712524610595     0.904848294467      -0.095547558386     0.904848294467      -0.095547558386     0.0948238761125     0.0712524610595     
3300000000.0        0.0953522709462     0.073424900247      0.904299844495      -0.0984797896139    0.904299844495      -0.0984797896139    0.0953522709462     0.073424900247      
3400000000.0        0.0958933658722     0.0755929784551     0.90373809603       -0.101407710239     0.90373809603       -0.101407710239     0.0958933658722     0.0755929784551     
3500000000.0        0.0964471908098     0.0777565897199     0.903163018943      -0.104331215639     0.903163018943      -0.104331215639     0.0964471908098     0.0777565897199     
3600000000.0        0.0970137688696     0.0799156281159     0.902574589906      -0.107250201226     0.902574589906      -0.107250201226     0.0970137688696     0.0799156281159     
3700000000.0        0.0975931169143     0.0820699878162     0.901972791835      -0.110164562505     0.901972791835      -0.110164562505     0.0975931169143     0.0820699878162     
3800000000.0        0.0981852460524     0.0842195631484     0.901357613396      -0.113074195135     0.901357613396      -0.113074195135     0.0981852460524     0.0842195631484     
3900000000.0        0.0987901620751     0.086364248646      0.900729048565      -0.115978994974     0.900729048565      -0.115978994974     0.0987901620751     0.086364248646      
4000000000.0        0.0994078658432     0.0885039390967     0.900087096246      -0.118878858133     0.900087096246      -0.118878858133     0.0994078658432     0.0885039390967     
4100000000.0        0.100038353632      0.090638529587      0.89943175992       -0.121773681017     0.89943175992       -0.121773681017     0.100038353632      0.090638529587      
4200000000.0        0.100681617442      0.0927679155443     0.898763047343      -0.124663360369     0.898763047343      -0.124663360369     0.100681617442      0.0927679155443     
4300000000.0        0.101337645271      0.0948919927761     0.898080970263      -0.127547793309     0.898080970263      -0.127547793309     0.101337645271      0.0948919927761     
4400000000.0        0.102006421367      0.0970106575072     0.897385544176      -0.130426877371     0.897385544176      -0.130426877371     0.102006421367      0.0970106575072     
4500000000.0        0.102687926452      0.0991238064144     0.896676788098      -0.133300510537     0.896676788098      -0.133300510537     0.102687926452      0.0991238064144     
4600000000.0        0.103382137925      0.10123133666       0.895954724363      -0.136168591274     0.895954724363      -0.136168591274     0.103382137925      0.10123133666       
4700000000.0        0.104089030044      0.103333145921      0.89521937844       -0.139031018559     0.89521937844       -0.139031018559     0.104089030044      0.103333145921      
4800000000.0        0.104808574102      0.105429132422      0.89447077876       -0.141887691914     0.89447077876       -0.141887691914     0.104808574102      0.105429132422      
4900000000.0        0.105540738571      0.10751919496       0.893708956566      -0.144738511431     0.893708956566      -0.144738511431     0.105540738571      0.10751919496       
5000000000.0        0.106285489252      0.109603232936      0.892933945773      -0.147583377802     0.892933945773      -0.147583377802     0.106285489252      0.109603232936      
5100000000.0        0.107042789398      0.111681146371      0.892145782833      -0.150422192342     0.892145782833      -0.150422192342     0.107042789398      0.111681146371      
5200000000.0        0.107812599836      0.113752835943      0.891344506622      -0.153254857011     0.891344506622      -0.153254857011     0.107812599836      0.113752835943      
5300000000.0        0.108594879076      0.115818203         0.890530158325      -0.156081274444     0.890530158325      -0.156081274444     0.108594879076      0.115818203         
5400000000.0        0.109389583415      0.117877149585      0.889702781339      -0.158901347968     0.889702781339      -0.158901347968     0.109389583415      0.117877149585      
5500000000.0        0.11019666703       0.119929578461      0.888862421172      -0.161714981623     0.888862421172      -0.161714981623     0.11019666703       0.119929578461      
5600000000.0        0.111016082067      0.121975393126      0.888009125361      -0.164522080188     0.888009125361      -0.164522080188     0.111016082067      0.121975393126      
5700000000.0        0.111847778723      0.124014497836      0.887142943384      -0.167322549193     0.887142943384      -0.167322549193     0.111847778723      0.124014497836      
5800000000.0        0.112691705323      0.126046797621      0.886263926589      -0.170116294942     0.886263926589      -0.170116294942     0.112691705323      0.126046797621      
5900000000.0        0.113547808391      0.128072198306      0.885372128115      -0.172903224531     0.885372128115      -0.172903224531     0.113547808391      0.128072198306      
6000000000.0        0.114416032721      0.130090606526      0.884467602831      -0.175683245865     0.884467602831      -0.175683245865     0.114416032721      0.130090606526      
6100000000.0        0.115296321437      0.132101929742      0.883550407266      -0.178456267672     0.883550407266      -0.178456267672     0.115296321437      0.132101929742      
6200000000.0        0.116188616059      0.134106076258      0.882620599555      -0.181222199522     0.882620599555      -0.181222199522     0.116188616059      0.134106076258      
6300000000.0        0.117092856551      0.136102955237      0.881678239374      -0.183980951841     0.881678239374      -0.183980951841     0.117092856551      0.136102955237      
6400000000.0        0.118008981387      0.138092476713      0.880723387893      -0.186732435927     0.880723387893      -0.186732435927     0.118008981387      0.138092476713      
6500000000.0        0.11893692759       0.140074551609      0.87975610772       -0.189476563959     0.87975610772       -0.189476563959     0.11893692759       0.140074551609      
6600000000.0        0.119876630792      0.142049091745      0.878776462855      -0.192213249018     0.878776462855      -0.192213249018     0.119876630792      0.142049091745      
6700000000.0        0.120828025275      0.144016009856      0.877784518642      -0.194942405094     0.877784518642      -0.194942405094     0.120828025275      0.144016009856      
6800000000.0        0.121791044014      0.145975219601      0.876780341722      -0.197663947102     0.876780341722      -0.197663947102     0.121791044014      0.145975219601      
6900000000.0        0.122765618726      0.147926635577      0.875763999993      -0.20037779089      0.875763999993      -0.20037779089      0.122765618726      0.147926635577      
7000000000.0        0.123751679905      0.149870173329      0.874735562568      -0.203083853256     0.874735562568      -0.203083853256     0.123751679905      0.149870173329      
7100000000.0        0.124749156868      0.151805749361      0.873695099738      -0.205782051953     0.873695099738      -0.205782051953     0.124749156868      0.151805749361      
7200000000.0        0.125757977784      0.153733281147      0.872642682928      -0.208472305705     0.872642682928      -0.208472305705     0.125757977784      0.153733281147      
7300000000.0        0.12677806972       0.155652687142      0.871578384666      -0.211154534211     0.871578384666      -0.211154534211     0.12677806972       0.155652687142      
7400000000.0        0.127809358671      0.15756388679       0.870502278545      -0.21382865816      0.870502278545      -0.21382865816      0.127809358671      0.15756388679       
7500000000.0        0.128851769596      0.159466800531      0.869414439188      -0.216494599238     0.869414439188      -0.216494599238     0.128851769596      0.159466800531      
7600000000.0        0.129905226449      0.161361349816      0.868314942219      -0.219152280137     0.868314942219      -0.219152280137     0.129905226449      0.161361349816      
7700000000.0        0.130969652215      0.163247457108      0.867203864224      -0.221801624561     0.867203864224      -0.221801624561     0.130969652215      0.163247457108      
7800000000.0        0.132044968938      0.165125045896      0.866081282727      -0.224442557238     0.866081282727      -0.224442557238     0.132044968938      0.165125045896      
7900000000.0        0.133131097753      0.166994040699      0.864947276154      -0.227075003924     0.864947276154      -0.227075003924     0.133131097753      0.166994040699      
8000000000.0        0.134227958916      0.168854367072      0.863801923806      -0.229698891414     0.863801923806      -0.229698891414     0.134227958916      0.168854367072      
8100000000.0        0.135335471831      0.170705951618      0.86264530583       -0.232314147543     0.86264530583       -0.232314147543     0.135335471831      0.170705951618      
8200000000.0        0.136453555077      0.172548721989      0.861477503192      -0.234920701198     0.861477503192      -0.234920701198     0.136453555077      0.172548721989      
8300000000.0        0.137582126443      0.174382606894      0.860298597646      -0.237518482321     0.860298597646      -0.237518482321     0.137582126443      0.174382606894      
8400000000.0        0.138721102943      0.176207536104      0.85910867171       -0.240107421916     0.85910867171       -0.240107421916     0.138721102943      0.176207536104      
8500000000.0        0.139870400854      0.178023440461      0.857907808641      -0.242687452054     0.857907808641      -0.242687452054     0.139870400854      0.178023440461      
8600000000.0        0.141029935732      0.179830251876      0.856696092405      -0.245258505875     0.856696092405      -0.245258505875     0.141029935732      0.179830251876      
8700000000.0        0.142199622445      0.181627903341      0.855473607655      -0.247820517598     0.855473607655      -0.247820517598     0.142199622445      0.181627903341      
8800000000.0        0.143379375191      0.183416328926      0.854240439706      -0.250373422522     0.854240439706      -0.250373422522     0.143379375191      0.183416328926      
8900000000.0        0.144569107527      0.185195463789      0.852996674511      -0.252917157031     0.852996674511      -0.252917157031     0.144569107527      0.185195463789      
9000000000.0        0.145768732392      0.186965244178      0.851742398636      -0.255451658594     0.851742398636      -0.255451658594     0.145768732392      0.186965244178      
9100000000.0        0.146978162127      0.18872560743       0.850477699236      -0.257976865777     0.850477699236      -0.257976865777     0.146978162127      0.18872560743       
9200000000.0        0.148197308503      0.190476491982      0.849202664036      -0.260492718234     0.849202664036      -0.260492718234     0.148197308503      0.190476491982      
9300000000.0        0.149426082737      0.192217837366      0.847917381303      -0.262999156722     0.847917381303      -0.262999156722     0.149426082737      0.192217837366      
9400000000.0        0.150664395523      0.193949584215      0.846621939829      -0.265496123092     0.846621939829      -0.265496123092     0.150664395523      0.193949584215      
9500000000.0        0.151912157046      0.195671674265      0.845316428907      -0.267983560302     0.845316428907      -0.267983560302     0.151912157046      0.195671674265      
9600000000.0        0.153169277006      0.197384050356      0.844000938305      -0.270461412409     0.844000938305      -0.270461412409     0.153169277006      0.197384050356      
9700000000.0        0.15443566464       0.199086656434      0.842675558256      -0.272929624576     0.842675558256      -0.272929624576     0.15443566464       0.199086656434      
9800000000.0        0.155711228743      0.200779437553      0.841340379424      -0.275388143074     0.841340379424      -0.275388143074     0.155711228743      0.200779437553      
9900000000.0        0.156995877689      0.202462339872      0.839995492894      -0.277836915278     0.839995492894      -0.277836915278     0.156995877689      0.202462339872      
10000000000.0       0.158289519447      0.204135310662      0.838640990145      -0.280275889672     0.838640990145      -0.280275889672     0.158289519447      0.204135310662      
