# Hz S RI R 50.00 
100000000.0         0.0499185120057     0.00401067975428    0.950077388839      -0.00573781496838   0.950077388839      -0.00573781496838   0.0499185120057     0.00401067975428    
200000000.0         0.0503038285389     0.00801418864757    0.94968593716       -0.0114684670343    0.94968593716       -0.0114684670343    0.0503038285389     0.00801418864757    
300000000.0         0.0506529045507     0.0120124156464     0.949327689214      -0.0171938560607    0.949327689214      -0.0171938560607    0.0506529045507     0.0120124156464     
400000000.0         0.051007072547      0.0160055450051     0.948961311793      -0.0229141765695    0.948961311793      -0.0229141765695    0.051007072547      0.0160055450051     
500000000.0         0.0513822255588     0.0199933663094     0.948570911156      -0.0286292280997    0.948570911156      -0.0286292280997    0.0513822255588     0.0199933663094     
600000000.0         0.0517864330198     0.0239754957252     0.948148417118      -0.0343386365657    0.948148417118      -0.0343386365657    0.0517864330198     0.0239754957252     
700000000.0         0.0522244216453     0.0279514555607     0.947689102152      -0.0400419338761    0.947689102152      -0.0400419338761    0.0522244216453     0.0279514555607     
800000000.0         0.0526992116385     0.0319207112831     0.947189945178      -0.0457385949838    0.947189945178      -0.0457385949838    0.0526992116385     0.0319207112831     
900000000.0         0.0532128455471     0.0358826915132     0.946648902698      -0.0514280579024    0.946648902698      -0.0514280579024    0.0532128455471     0.0358826915132     
1000000000.0        0.0537667578729     0.0398367999696     0.946064539181      -0.0571097356657    0.946064539181      -0.0571097356657    0.0537667578729     0.0398367999696     
1100000000.0        0.0543619806333     0.0437824231528     0.945435821503      -0.0627830240239    0.945435821503      -0.0627830240239    0.0543619806333     0.0437824231528     
1200000000.0        0.0549992659221     0.0477189355824     0.944761996379      -0.0684473066887    0.944761996379      -0.0684473066887    0.0549992659221     0.0477189355824     
1300000000.0        0.0556791630764     0.0516457035377     0.944042513199      -0.0741019590811    0.944042513199      -0.0741019590811    0.0556791630764     0.0516457035377     
1400000000.0        0.0564020694496     0.0555620878359     0.943276973252      -0.0797463511149    0.943276973252      -0.0797463511149    0.0564020694496     0.0555620878359     
1500000000.0        0.0571682650571     0.0594674459663     0.942465095078      -0.0853798493354    0.942465095078      -0.0853798493354    0.0571682650571     0.0594674459663     
1600000000.0        0.0579779369558     0.0633611337781     0.941606690091      -0.0910018186109    0.941606690091      -0.0910018186109    0.0579779369558     0.0633611337781     
1700000000.0        0.0588311968579     0.0672425068494     0.940701644962      -0.096611623505     0.940701644962      -0.096611623505     0.0588311968579     0.0672425068494     
1800000000.0        0.0597280941538     0.071110921623      0.939749908596      -0.102208629415     0.939749908596      -0.102208629415     0.0597280941538     0.071110921623      
1900000000.0        0.0606686257387     0.0749657363675     0.938751482305      -0.107792203534     0.938751482305      -0.107792203534     0.0606686257387     0.0749657363675     
2000000000.0        0.0616527435651     0.0788063120043     0.937706412256      -0.113361715683     0.937706412256      -0.113361715683     0.0616527435651     0.0788063120043     
2100000000.0        0.0626803605442     0.0826320128312     0.936614783568      -0.118916539032     0.936614783568      -0.118916539032     0.0626803605442     0.0826320128312     
2200000000.0        0.0637513552288     0.0864422071623     0.93547671563       -0.124456050746     0.93547671563       -0.124456050746     0.0637513552288     0.0864422071623     
2300000000.0        0.0648655755826     0.0902362679017     0.934292358332      -0.129979632557     0.934292358332      -0.129979632557     0.0648655755826     0.0902362679017     
2400000000.0        0.0660228420551     0.0940135730623     0.933061888987      -0.135486671285     0.933061888987      -0.135486671285     0.0660228420551     0.0940135730623     
2500000000.0        0.0672229501222     0.0977735062394     0.931785509791      -0.14097655931      0.931785509791      -0.14097655931      0.0672229501222     0.0977735062394     
2600000000.0        0.0684656724111     0.101515457045      0.930463445702      -0.146448695013     0.930463445702      -0.146448695013     0.0684656724111     0.101515457045      
2700000000.0        0.0697507604983     0.105238821508      0.929095942636      -0.151902483174     0.929095942636      -0.151902483174     0.0697507604983     0.105238821508      
2800000000.0        0.0710779464483     0.108943002452      0.927683265932      -0.157337335346     0.927683265932      -0.157337335346     0.0710779464483     0.108943002452      
2900000000.0        0.0724469441449     0.112627409836      0.926225699019      -0.162752670206     0.926225699019      -0.162752670206     0.0724469441449     0.112627409836      
3000000000.0        0.0738574504557     0.116291461084      0.924723542252      -0.168147913878     0.924723542252      -0.168147913878     0.0738574504557     0.116291461084      
3100000000.0        0.0753091462601     0.119934581389      0.923177111882      -0.17352250024      0.923177111882      -0.17352250024      0.0753091462601     0.119934581389      
3200000000.0        0.0768016973673     0.123556203998      0.921586739141      -0.178875871209     0.921586739141      -0.178875871209     0.0768016973673     0.123556203998      
3300000000.0        0.0783347553416     0.127155770483      0.919952769414      -0.184207477012     0.919952769414      -0.184207477012     0.0783347553416     0.127155770483      
3400000000.0        0.0799079582539     0.130732730991      0.918275561489      -0.189516776439     0.918275561489      -0.189516776439     0.0799079582539     0.130732730991      
3500000000.0        0.0815209313691     0.134286544485      0.916555486867      -0.194803237082     0.916555486867      -0.194803237082     0.0815209313691     0.134286544485      
3600000000.0        0.0831732877811     0.137816678968      0.914792929129      -0.20006633556      0.914792929129      -0.20006633556      0.0831732877811     0.137816678968      
3700000000.0        0.0848646290049     0.141322611692      0.912988283344      -0.205305557728     0.912988283344      -0.205305557728     0.0848646290049     0.141322611692      
3800000000.0        0.0865945455293     0.144803829357      0.911141955516      -0.210520398879     0.911141955516      -0.210520398879     0.0865945455293     0.144803829357      
3900000000.0        0.0883626173398     0.148259828298      0.909254362057      -0.215710363926     0.909254362057      -0.215710363926     0.0883626173398     0.148259828298      
4000000000.0        0.0901684144133     0.151690114657      0.907325929298      -0.220874967581     0.907325929298      -0.220874967581     0.0901684144133     0.151690114657      
4100000000.0        0.09201149719       0.155094204548      0.905357093014      -0.226013734513     0.905357093014      -0.226013734513     0.09201149719       0.155094204548      
4200000000.0        0.0938914170255     0.158471624206      0.903348297972      -0.231126199504     0.903348297972      -0.231126199504     0.0938914170255     0.158471624206      
4300000000.0        0.0958077166246     0.161821910128      0.901299997496      -0.236211907586     0.901299997496      -0.236211907586     0.0958077166246     0.161821910128      
4400000000.0        0.0977599304612     0.165144609205      0.89921265305       -0.241270414175     0.89921265305       -0.241270414175     0.0977599304612     0.165144609205      
4500000000.0        0.0997475851834     0.168439278839      0.897086733827      -0.246301285187     0.897086733827      -0.246301285187     0.0997475851834     0.168439278839      
4600000000.0        0.101770200008      0.171705487055      0.894922716362      -0.251304097152     0.894922716362      -0.251304097152     0.101770200008      0.171705487055      
4700000000.0        0.103827287105      0.174942812599      0.892721084142      -0.25627843731      0.892721084142      -0.25627843731      0.103827287105      0.174942812599      
4800000000.0        0.105918351967      0.178150845031      0.890482327235      -0.261223903706     0.890482327235      -0.261223903706     0.105918351967      0.178150845031      
4900000000.0        0.108042893782      0.181329184801      0.888206941925      -0.266140105264     0.888206941925      -0.266140105264     0.108042893782      0.181329184801      
5000000000.0        0.110200405783      0.184477443324      0.88589543035       -0.271026661867     0.88589543035       -0.271026661867     0.110200405783      0.184477443324      
5100000000.0        0.112390375605      0.187595243042      0.883548300159      -0.275883204412     0.883548300159      -0.275883204412     0.112390375605      0.187595243042      
5200000000.0        0.114612285622      0.190682217474      0.881166064161      -0.280709374865     0.881166064161      -0.280709374865     0.114612285622      0.190682217474      
5300000000.0        0.11686561329       0.193738011264      0.878749239992      -0.28550482631      0.878749239992      -0.28550482631      0.11686561329       0.193738011264      
5400000000.0        0.119149831473      0.196762280217      0.876298349784      -0.290269222979     0.876298349784      -0.290269222979     0.119149831473      0.196762280217      
5500000000.0        0.121464408773      0.199754691321      0.873813919836      -0.295002240282     0.873813919836      -0.295002240282     0.121464408773      0.199754691321      
5600000000.0        0.123808809844      0.202714922773      0.871296480298      -0.299703564828     0.871296480298      -0.299703564828     0.123808809844      0.202714922773      
5700000000.0        0.126182495713      0.205642663984      0.868746564855      -0.304372894431     0.868746564855      -0.304372894431     0.126182495713      0.205642663984      
5800000000.0        0.128584924081      0.208537615589      0.866164710415      -0.309009938119     0.866164710415      -0.309009938119     0.128584924081      0.208537615589      
5900000000.0        0.131015549637      0.211399489432      0.863551456809      -0.313614416125     0.863551456809      -0.313614416125     0.131015549637      0.211399489432      
6000000000.0        0.133473824349      0.214228008565      0.860907346491      -0.318186059875     0.860907346491      -0.318186059875     0.133473824349      0.214228008565      
6100000000.0        0.135959197758      0.21702290722       0.858232924239      -0.322724611973     0.858232924239      -0.322724611973     0.135959197758      0.21702290722       
6200000000.0        0.138471117274      0.219783930784      0.855528736874      -0.327229826167     0.855528736874      -0.327229826167     0.138471117274      0.219783930784      
6300000000.0        0.141009028453      0.222510835769      0.852795332968      -0.331701467319     0.852795332968      -0.331701467319     0.141009028453      0.222510835769      
6400000000.0        0.143572375277      0.225203389764      0.850033262569      -0.336139311366     0.850033262569      -0.336139311366     0.143572375277      0.225203389764      
6500000000.0        0.146160600431      0.227861371393      0.847243076928      -0.340543145266     0.847243076928      -0.340543145266     0.146160600431      0.227861371393      
6600000000.0        0.14877314557       0.230484570259      0.844425328225      -0.344912766952     0.844425328225      -0.344912766952     0.14877314557       0.230484570259      
6700000000.0        0.151409451583      0.233072786885      0.841580569308      -0.349247985264     0.841580569308      -0.349247985264     0.151409451583      0.233072786885      
6800000000.0        0.154068958849      0.235625832644      0.838709353435      -0.353548619888     0.838709353435      -0.353548619888     0.154068958849      0.235625832644      
6900000000.0        0.156751107498      0.238143529689      0.835812234017      -0.357814501282     0.835812234017      -0.357814501282     0.156751107498      0.238143529689      
7000000000.0        0.159455337652      0.240625710875      0.832889764371      -0.362045470596     0.832889764371      -0.362045470596     0.159455337652      0.240625710875      
7100000000.0        0.162181089672      0.243072219677      0.829942497475      -0.366241379591     0.829942497475      -0.366241379591     0.162181089672      0.243072219677      
7200000000.0        0.164927804397      0.245482910095      0.826970985731      -0.370402090549     0.826970985731      -0.370402090549     0.164927804397      0.245482910095      
7300000000.0        0.167694923373      0.247857646568      0.823975780732      -0.374527476177     0.823975780732      -0.374527476177     0.167694923373      0.247857646568      
7400000000.0        0.170481889084      0.250196303867      0.820957433031      -0.378617419512     0.820957433031      -0.378617419512     0.170481889084      0.250196303867      
7500000000.0        0.173288145176      0.252498766998      0.817916491923      -0.382671813813     0.817916491923      -0.382671813813     0.173288145176      0.252498766998      
7600000000.0        0.176113136666      0.25476493109       0.814853505223      -0.386690562457     0.814853505223      -0.386690562457     0.176113136666      0.25476493109       
7700000000.0        0.178956310164      0.256994701282      0.811769019059      -0.39067357882      0.811769019059      -0.39067357882      0.178956310164      0.256994701282      
7800000000.0        0.181817114069      0.259187992608      0.808663577661      -0.394620786168     0.808663577661      -0.394620786168     0.181817114069      0.259187992608      
7900000000.0        0.184694998778      0.261344729875      0.805537723163      -0.39853211753      0.805537723163      -0.39853211753      0.184694998778      0.261344729875      
8000000000.0        0.187589416876      0.26346484754       0.802391995407      -0.402407515576     0.802391995407      -0.402407515576     0.187589416876      0.26346484754       
8100000000.0        0.190499823326      0.265548289581      0.799226931752      -0.406246932489     0.799226931752      -0.406246932489     0.190499823326      0.265548289581      
8200000000.0        0.193425675656      0.267595009363      0.79604306689       -0.410050329833     0.79604306689       -0.410050329833     0.193425675656      0.267595009363      
8300000000.0        0.196366434136      0.269604969509      0.792840932666      -0.413817678419     0.792840932666      -0.413817678419     0.196366434136      0.269604969509      
8400000000.0        0.19932156195       0.271578141759      0.789621057908      -0.417548958165     0.789621057908      -0.417548958165     0.19932156195       0.271578141759      
8500000000.0        0.202290525366      0.273514506827      0.786383968254      -0.42124415796      0.786383968254      -0.42124415796      0.202290525366      0.273514506827      
8600000000.0        0.205272793896      0.275414054266      0.783130185992      -0.424903275517     0.783130185992      -0.424903275517     0.205272793896      0.275414054266      
8700000000.0        0.208267840456      0.277276782313      0.779860229902      -0.42852631723      0.779860229902      -0.42852631723      0.208267840456      0.277276782313      
8800000000.0        0.211275141511      0.279102697749      0.776574615107      -0.432113298023     0.776574615107      -0.432113298023     0.211275141511      0.279102697749      
8900000000.0        0.214294177229      0.280891815745      0.773273852922      -0.435664241205     0.773273852922      -0.435664241205     0.214294177229      0.280891815745      
9000000000.0        0.217324431615      0.282644159713      0.769958450718      -0.439179178316     0.769958450718      -0.439179178316     0.217324431615      0.282644159713      
9100000000.0        0.220365392648      0.284359761149      0.766628911783      -0.442658148971     0.766628911783      -0.442658148971     0.220365392648      0.284359761149      
9200000000.0        0.223416552411      0.286038659484      0.763285735193      -0.446101200709     0.763285735193      -0.446101200709     0.223416552411      0.286038659484      
9300000000.0        0.226477407217      0.287680901921      0.75992941569       -0.449508388836     0.75992941569       -0.449508388836     0.226477407217      0.287680901921      
9400000000.0        0.229547457722      0.289286543284      0.756560443557      -0.452879776265     0.756560443557      -0.452879776265     0.229547457722      0.289286543284      
9500000000.0        0.232626209047      0.290855645855      0.753179304509      -0.456215433361     0.753179304509      -0.456215433361     0.232626209047      0.290855645855      
9600000000.0        0.23571317088       0.292388279216      0.749786479582      -0.459515437778     0.749786479582      -0.459515437778     0.23571317088       0.292388279216      
9700000000.0        0.238807857582      0.293884520088      0.746382445028      -0.462779874301     0.746382445028      -0.462779874301     0.238807857582      0.293884520088      
9800000000.0        0.241909788286      0.295344452173      0.742967672217      -0.466008834684     0.742967672217      -0.466008834684     0.241909788286      0.295344452173      
9900000000.0        0.24501848699       0.296768165991      0.739542627543      -0.46920241749      0.739542627543      -0.46920241749      0.24501848699       0.296768165991      
10000000000.0       0.248133482643      0.298155758716      0.736107772337      -0.472360727928     0.736107772337      -0.472360727928     0.248133482643      0.298155758716      
