# Hz S RI R 50.00 
100000000.0         0.01135464401       0.000942403354974   0.988637813055      -0.00372891350819   0.988637813055      -0.00372891350819   0.01135464401       0.000942403354974   
200000000.0         0.0114386727923     0.00188405083118    0.988539446522      -0.00745704997794   0.988539446522      -0.00745704997794   0.0114386727923     0.00188405083118    
300000000.0         0.0115099463622     0.00282516909964    0.988446039947      -0.0111846259537    0.988446039947      -0.0111846259537    0.0115099463622     0.00282516909964    
400000000.0         0.0115782320177     0.00376579983393    0.988347825647      -0.0149116720801    0.988347825647      -0.0149116720801    0.0115782320177     0.00376579983393    
500000000.0         0.0116472924106     0.00470594186944    0.988241040578      -0.0186381757127    0.988241040578      -0.0186381757127    0.0116472924106     0.00470594186944    
600000000.0         0.0117190461329     0.00564557514978    0.988123765739      -0.0223641050215    0.988123765739      -0.0223641050215    0.0117190461329     0.00564557514978    
700000000.0         0.0117946256636     0.00658466930941    0.987994868213      -0.0260894176539    0.987994868213      -0.0260894176539    0.0117946256636     0.00658466930941    
800000000.0         0.0118747635737     0.00752318764655    0.987853614963      -0.0298140647552    0.987853614963      -0.0298140647552    0.0118747635737     0.00752318764655    
900000000.0         0.0119599645187     0.00846108925344    0.987699500831      -0.0335379931293    0.987699500831      -0.0335379931293    0.0119599645187     0.00846108925344    
1000000000.0        0.0120505924351     0.00939833027566    0.987532161347      -0.0372611465205    0.987532161347      -0.0372611465205    0.0120505924351     0.00939833027566    
1100000000.0        0.0121469190197     0.0103348647111     0.987351324245      -0.0409834664273    0.987351324245      -0.0409834664273    0.0121469190197     0.0103348647111     
1200000000.0        0.0122491526222     0.0112706449449     0.987156780571      -0.0447048926498    0.987156780571      -0.0447048926498    0.0122491526222     0.0112706449449     
1300000000.0        0.0123574564255     0.0122056221224     0.9869483665        -0.0484253636721    0.9869483665        -0.0484253636721    0.0123574564255     0.0122056221224     
1400000000.0        0.0124719603979     0.0131397464196     0.98672595139       -0.0521448169393    0.98672595139       -0.0521448169393    0.0124719603979     0.0131397464196     
1500000000.0        0.0125927694381     0.0140729672437     0.986489429631      -0.0558631890643    0.986489429631      -0.0558631890643    0.0125927694381     0.0140729672437     
1600000000.0        0.0127199690969     0.0150052333859     0.986238714926      -0.0595804159859    0.986238714926      -0.0595804159859    0.0127199690969     0.0150052333859     
1700000000.0        0.0128536297016     0.0159364931412     0.985973736164      -0.0632964330916    0.985973736164      -0.0632964330916    0.0128536297016     0.0159364931412     
1800000000.0        0.0129938093943     0.0168666944022     0.985694434387      -0.0670111753154    0.985694434387      -0.0670111753154    0.0129938093943     0.0168666944022     
1900000000.0        0.0131405564159     0.0177957847359     0.985400760502      -0.0707245772171    0.985400760502      -0.0707245772171    0.0131405564159     0.0177957847359     
2000000000.0        0.0132939108505     0.0187237114455     0.985092673538      -0.0744365730469    0.985092673538      -0.0744365730469    0.0132939108505     0.0187237114455     
2100000000.0        0.0134539059794     0.0196504216227     0.984770139291      -0.0781470967988    0.984770139291      -0.0781470967988    0.0134539059794     0.0196504216227     
2200000000.0        0.0136205693454     0.0205758621905     0.984433129262      -0.0818560822562    0.984433129262      -0.0818560822562    0.0136205693454     0.0205758621905     
2300000000.0        0.0137939236        0.0214999799405     0.98408161981       -0.08556346303      0.98408161981       -0.08556346303      0.0137939236        0.0214999799405     
2400000000.0        0.0139739871855     0.0224227215645     0.983715591467      -0.0892691725915    0.983715591467      -0.0892691725915    0.0139739871855     0.0224227215645     
2500000000.0        0.0141607748886     0.0233440336815     0.983335028388      -0.0929731443009    0.983335028388      -0.0929731443009    0.0141607748886     0.0233440336815     
2600000000.0        0.0143542982952     0.0242638628621     0.982939917896      -0.0966753114321    0.982939917896      -0.0966753114321    0.0143542982952     0.0242638628621     
2700000000.0        0.0145545661661     0.0251821556495     0.982530250103      -0.100375607195     0.982530250103      -0.100375607195     0.0145545661661     0.0251821556495     
2800000000.0        0.0147615847503     0.026098858578      0.982106017602      -0.104073964754     0.982106017602      -0.104073964754     0.0147615847503     0.026098858578      
2900000000.0        0.0149753580479     0.02701391819       0.981667215201      -0.107770317248     0.981667215201      -0.107770317248     0.0149753580479     0.02701391819       
3000000000.0        0.0151958880323     0.0279272810514     0.981213839702      -0.111464597801     0.981213839702      -0.111464597801     0.0151958880323     0.0279272810514     
3100000000.0        0.0154231748392     0.028838893765      0.980745889711      -0.115156739542     0.980745889711      -0.115156739542     0.0154231748392     0.028838893765      
3200000000.0        0.0156572169278     0.0297487029829     0.98026336548       -0.118846675614     0.98026336548       -0.118846675614     0.0156572169278     0.0297487029829     
3300000000.0        0.01589801122       0.0306566554188     0.979766268766      -0.122534339189     0.979766268766      -0.122534339189     0.01589801122       0.0306566554188     
3400000000.0        0.0161455532206     0.0315626978578     0.979254602708      -0.126219663475     0.979254602708      -0.126219663475     0.0161455532206     0.0315626978578     
3500000000.0        0.0163998371211     0.0324667771669     0.978728371731      -0.129902581729     0.978728371731      -0.129902581729     0.0163998371211     0.0324667771669     
3600000000.0        0.0166608558908     0.0333688403039     0.978187581448      -0.133583027267     0.978187581448      -0.133583027267     0.0166608558908     0.0333688403039     
3700000000.0        0.0169286013566     0.0342688343264     0.977632238582      -0.137260933469     0.977632238582      -0.137260933469     0.0169286013566     0.0342688343264     
3800000000.0        0.0172030642732     0.0351667063995     0.977062350901      -0.140936233791     0.977062350901      -0.140936233791     0.0172030642732     0.0351667063995     
3900000000.0        0.0174842343847     0.0360624038039     0.976477927149      -0.144608861772     0.976477927149      -0.144608861772     0.0174842343847     0.0360624038039     
4000000000.0        0.0177721004799     0.0369558739433     0.975878976995      -0.148278751041     0.975878976995      -0.148278751041     0.0177721004799     0.0369558739433     
4100000000.0        0.0180666504411     0.0378470643507     0.975265510986      -0.151945835321     0.975265510986      -0.151945835321     0.0180666504411     0.0378470643507     
4200000000.0        0.0183678712877     0.0387359226958     0.974637540501      -0.155610048441     0.974637540501      -0.155610048441     0.0183678712877     0.0387359226958     
4300000000.0        0.0186757492154     0.039622396791      0.97399507771       -0.159271324339     0.97399507771       -0.159271324339     0.0186757492154     0.039622396791      
4400000000.0        0.0189902696315     0.0405064345975     0.973338135544      -0.162929597069     0.973338135544      -0.162929597069     0.0189902696315     0.0405064345975     
4500000000.0        0.0193114171868     0.0413879842311     0.972666727661      -0.166584800805     0.972666727661      -0.166584800805     0.0193114171868     0.0413879842311     
4600000000.0        0.019639175804      0.0422669939682     0.971980868416      -0.17023686985      0.971980868416      -0.17023686985      0.019639175804      0.0422669939682     
4700000000.0        0.0199735287044     0.0431434122511     0.971280572837      -0.173885738637     0.971280572837      -0.173885738637     0.0199735287044     0.0431434122511     
4800000000.0        0.0203144584313     0.0440171876931     0.9705658566        -0.177531341739     0.9705658566        -0.177531341739     0.0203144584313     0.0440171876931     
4900000000.0        0.020661946872      0.0448882690837     0.96983673601       -0.18117361387      0.96983673601       -0.18117361387      0.020661946872      0.0448882690837     
5000000000.0        0.0210159752775     0.0457566053942     0.969093227978      -0.184812489892     0.969093227978      -0.184812489892     0.0210159752775     0.0457566053942     
5100000000.0        0.0213765242812     0.0466221457815     0.968335350004      -0.188447904818     0.968335350004      -0.188447904818     0.0213765242812     0.0466221457815     
5200000000.0        0.0217435739156     0.0474848395938     0.967563120161      -0.192079793818     0.967563120161      -0.192079793818     0.0217435739156     0.0474848395938     
5300000000.0        0.0221171036278     0.0483446363747     0.966776557079      -0.195708092225     0.966776557079      -0.195708092225     0.0221171036278     0.0483446363747     
5400000000.0        0.0224970922944     0.0492014858679     0.965975679932      -0.199332735533     0.965975679932      -0.199332735533     0.0224970922944     0.0492014858679     
5500000000.0        0.0228835182345     0.0500553380215     0.965160508422      -0.20295365941      0.965160508422      -0.20295365941      0.0228835182345     0.0500553380215     
5600000000.0        0.0232763592228     0.0509061429923     0.964331062769      -0.206570799695     0.964331062769      -0.206570799695     0.0232763592228     0.0509061429923     
5700000000.0        0.0236755925009     0.0517538511504     0.963487363698      -0.210184092404     0.963487363698      -0.210184092404     0.0236755925009     0.0517538511504     
5800000000.0        0.0240811947885     0.0525984130826     0.962629432429      -0.213793473736     0.962629432429      -0.213793473736     0.0240811947885     0.0525984130826     
5900000000.0        0.0244931422937     0.0534397795973     0.961757290668      -0.217398880075     0.961757290668      -0.217398880075     0.0244931422937     0.0534397795973     
6000000000.0        0.0249114107229     0.0542779017279     0.960870960594      -0.221000247993     0.960870960594      -0.221000247993     0.0249114107229     0.0542779017279     
6100000000.0        0.0253359752899     0.0551127307369     0.959970464854      -0.224597514255     0.959970464854      -0.224597514255     0.0253359752899     0.0551127307369     
6200000000.0        0.0257668107245     0.0559442181199     0.95905582655       -0.228190615823     0.95905582655       -0.228190615823     0.0257668107245     0.0559442181199     
6300000000.0        0.0262038912812     0.0567723156089     0.958127069237      -0.231779489857     0.958127069237      -0.231779489857     0.0262038912812     0.0567723156089     
6400000000.0        0.0266471907467     0.0575969751766     0.957184216909      -0.235364073721     0.957184216909      -0.235364073721     0.0266471907467     0.0575969751766     
6500000000.0        0.0270966824476     0.0584181490397     0.956227293996      -0.238944304986     0.956227293996      -0.238944304986     0.0270966824476     0.0584181490397     
6600000000.0        0.0275523392574     0.0592357896626     0.955256325354      -0.242520121433     0.955256325354      -0.242520121433     0.0275523392574     0.0592357896626     
6700000000.0        0.0280141336039     0.0600498497608     0.954271336263      -0.246091461053     0.954271336263      -0.246091461053     0.0280141336039     0.0600498497608     
6800000000.0        0.0284820374752     0.0608602823046     0.953272352412      -0.249658262057     0.953272352412      -0.249658262057     0.0284820374752     0.0608602823046     
6900000000.0        0.0289560224266     0.0616670405224     0.952259399904      -0.253220462872     0.952259399904      -0.253220462872     0.0289560224266     0.0616670405224     
7000000000.0        0.0294360595864     0.0624700779039     0.951232505241      -0.25677800215      0.951232505241      -0.25677800215      0.0294360595864     0.0624700779039     
7100000000.0        0.0299221196622     0.0632693482039     0.950191695322      -0.260330818766     0.950191695322      -0.260330818766     0.0299221196622     0.0632693482039     
7200000000.0        0.0304141729463     0.0640648054448     0.949136997436      -0.263878851825     0.949136997436      -0.263878851825     0.0304141729463     0.0640648054448     
7300000000.0        0.0309121893215     0.0648564039208     0.948068439261      -0.267422040662     0.948068439261      -0.267422040662     0.0309121893215     0.0648564039208     
7400000000.0        0.0314161382666     0.0656440982001     0.946986048852      -0.270960324846     0.946986048852      -0.270960324846     0.0314161382666     0.0656440982001     
7500000000.0        0.0319259888614     0.0664278431287     0.94588985464       -0.274493644185     0.94588985464       -0.274493644185     0.0319259888614     0.0664278431287     
7600000000.0        0.0324417097922     0.0672075938332     0.944779885428      -0.278021938722     0.944779885428      -0.278021938722     0.0324417097922     0.0672075938332     
7700000000.0        0.0329632693567     0.0679833057239     0.943656170382      -0.281545148747     0.943656170382      -0.281545148747     0.0329632693567     0.0679833057239     
7800000000.0        0.0334906354689     0.0687549344976     0.942518739031      -0.285063214791     0.942518739031      -0.285063214791     0.0334906354689     0.0687549344976     
7900000000.0        0.0340237756639     0.0695224361409     0.94136762126       -0.288576077636     0.94136762126       -0.288576077636     0.0340237756639     0.0695224361409     
8000000000.0        0.0345626571029     0.0702857669327     0.940202847305      -0.292083678311     0.940202847305      -0.292083678311     0.0345626571029     0.0702857669327     
8100000000.0        0.0351072465775     0.0710448834473     0.939024447748      -0.295585958099     0.939024447748      -0.295585958099     0.0351072465775     0.0710448834473     
8200000000.0        0.0356575105145     0.0717997425571     0.937832453518      -0.299082858537     0.937832453518      -0.299082858537     0.0356575105145     0.0717997425571     
8300000000.0        0.0362134149802     0.0725503014356     0.936626895878      -0.302574321421     0.936626895878      -0.302574321421     0.0362134149802     0.0725503014356     
8400000000.0        0.0367749256853     0.0732965175597     0.935407806428      -0.306060288804     0.935407806428      -0.306060288804     0.0367749256853     0.0732965175597     
8500000000.0        0.0373420079886     0.0740383487126     0.934175217098      -0.309540703005     0.934175217098      -0.309540703005     0.0373420079886     0.0740383487126     
8600000000.0        0.0379146269021     0.0747757529867     0.932929160144      -0.313015506603     0.932929160144      -0.313015506603     0.0379146269021     0.0747757529867     
8700000000.0        0.0384927470944     0.0755086887856     0.931669668145      -0.316484642448     0.931669668145      -0.316484642448     0.0384927470944     0.0755086887856     
8800000000.0        0.0390763328958     0.0762371148272     0.930396773997      -0.319948053654     0.930396773997      -0.319948053654     0.0390763328958     0.0762371148272     
8900000000.0        0.039665348302      0.0769609901459     0.929110510911      -0.32340568361      0.929110510911      -0.32340568361      0.039665348302      0.0769609901459     
9000000000.0        0.0402597569782     0.0776802740953     0.927810912407      -0.326857475975     0.927810912407      -0.326857475975     0.0402597569782     0.0776802740953     
9100000000.0        0.0408595222634     0.0783949263504     0.926498012313      -0.330303374686     0.926498012313      -0.330303374686     0.0408595222634     0.0783949263504     
9200000000.0        0.0414646071745     0.0791049069101     0.92517184476       -0.333743323955     0.92517184476       -0.333743323955     0.0414646071745     0.0791049069101     
9300000000.0        0.0420749744103     0.0798101760995     0.923832444176      -0.337177268274     0.923832444176      -0.337177268274     0.0420749744103     0.0798101760995     
9400000000.0        0.0426905863553     0.0805106945725     0.922479845285      -0.340605152415     0.922479845285      -0.340605152415     0.0426905863553     0.0805106945725     
9500000000.0        0.0433114050841     0.0812064233135     0.921114083103      -0.344026921434     0.921114083103      -0.344026921434     0.0433114050841     0.0812064233135     
9600000000.0        0.0439373923652     0.0818973236402     0.919735192933      -0.347442520672     0.919735192933      -0.347442520672     0.0439373923652     0.0818973236402     
9700000000.0        0.0445685096646     0.0825833572054     0.918343210361      -0.350851895755     0.918343210361      -0.350851895755     0.0445685096646     0.0825833572054     
9800000000.0        0.0452047181503     0.0832644859993     0.916938171255      -0.3542549926       0.916938171255      -0.3542549926       0.0452047181503     0.0832644859993     
9900000000.0        0.045845978696      0.0839406723516     0.915520111759      -0.357651757411     0.915520111759      -0.357651757411     0.045845978696      0.0839406723516     
10000000000.0       0.0464922518847     0.0846118789338     0.914089068288      -0.361042136687     0.914089068288      -0.361042136687     0.0464922518847     0.0846118789338     
