# Hz S RI R 50.00 
100000000.0         0.06478443907       0.00354322005802    0.935208855293      -0.00608806110762   0.935208855293      -0.00608806110762   0.06478443907       0.00354322005802    
200000000.0         0.0652527304962     0.00707745909729    0.934728230351      -0.0121671463758    0.934728230351      -0.0121671463758    0.0652527304962     0.00707745909729    
300000000.0         0.0656590377753     0.0106053785443     0.934302959472      -0.0182399310543    0.934302959472      -0.0182399310543    0.0656590377753     0.0106053785443     
400000000.0         0.0660562369286     0.0141274450112     0.933880164723      -0.0243068946586    0.933880164723      -0.0243068946586    0.0660562369286     0.0141274450112     
500000000.0         0.066464677029      0.0176436164282     0.93343949511       -0.03036800756      0.93343949511       -0.03036800756      0.066464677029      0.0176436164282     
600000000.0         0.0668947054551     0.0211536267803     0.932970601231      -0.0364230158809    0.932970601231      -0.0364230158809    0.0668947054551     0.0211536267803     
700000000.0         0.0673523982015     0.024657088443      0.932467404911      -0.0424715439133    0.932467404911      -0.0424715439133    0.0673523982015     0.024657088443      
800000000.0         0.0678416525308     0.0281535397402     0.931926006533      -0.0485131417239    0.931926006533      -0.0485131417239    0.0678416525308     0.0281535397402     
900000000.0         0.0683651192393     0.0316424705821     0.931343752745      -0.0545473108241    0.931343752745      -0.0545473108241    0.0683651192393     0.0316424705821     
1000000000.0        0.0689246754497     0.0351233377373     0.930718763662      -0.0605735194635    0.930718763662      -0.0605735194635    0.0689246754497     0.0351233377373     
1100000000.0        0.0695216875706     0.0385955746182     0.930049669897      -0.0665912124314    0.930049669897      -0.0665912124314    0.0695216875706     0.0385955746182     
1200000000.0        0.0701571680774     0.0420585979148     0.929335455774      -0.072599817703     0.929335455774      -0.072599817703     0.0701571680774     0.0420585979148     
1300000000.0        0.07083187422       0.0455118123024     0.928575360613      -0.0785987511552    0.928575360613      -0.0785987511552    0.07083187422       0.0455118123024     
1400000000.0        0.0715463729569     0.0489546139103     0.927768813795      -0.0845874200438    0.927768813795      -0.0845874200438    0.0715463729569     0.0489546139103     
1500000000.0        0.0723010852531     0.0523863929623     0.926915390462      -0.0905652256486    0.926915390462      -0.0905652256486    0.0723010852531     0.0523863929623     
1600000000.0        0.0730963172365     0.055806535843      0.926014780356      -0.0965315653453    0.926014780356      -0.0965315653453    0.0730963172365     0.055806535843      
1700000000.0        0.0739322826947     0.0592144267556     0.925066765319      -0.102485834267     0.925066765319      -0.102485834267     0.0739322826947     0.0592144267556     
1800000000.0        0.0748091196915     0.0626094490808     0.92407120268       -0.108427426664     0.92407120268       -0.108427426664     0.0748091196915     0.0626094490808     
1900000000.0        0.0757269030914     0.0659909865121     0.923028012723      -0.114355737047     0.923028012723      -0.114355737047     0.0757269030914     0.0659909865121     
2000000000.0        0.0766856541681     0.069358424021      0.921937169081      -0.120270161148     0.921937169081      -0.120270161148     0.0766856541681     0.069358424021      
2100000000.0        0.0776853480984     0.0727111486899     0.920798691242      -0.126170096759     0.920798691242      -0.126170096759     0.0776853480984     0.0727111486899     
2200000000.0        0.0787259198925     0.076048550441      0.919612638613      -0.132054944461     0.919612638613      -0.132054944461     0.0787259198925     0.076048550441      
2300000000.0        0.0798072691521     0.0793700226812     0.918379105765      -0.137924108271     0.918379105765      -0.137924108271     0.0798072691521     0.0793700226812     
2400000000.0        0.0809292639367     0.0826749628786     0.917098218566      -0.143776996219     0.917098218566      -0.143776996219     0.0809292639367     0.0826749628786     
2500000000.0        0.0820917439436     0.0859627730833     0.915770130995      -0.149613020868     0.915770130995      -0.149613020868     0.0820917439436     0.0859627730833     
2600000000.0        0.0832945231525     0.089232860401      0.914395022506      -0.15543159979      0.914395022506      -0.15543159979      0.0832945231525     0.089232860401      
2700000000.0        0.0845373920497     0.0924846374264     0.912973095795      -0.161232156002     0.912973095795      -0.161232156002     0.0845373920497     0.0924846374264     
2800000000.0        0.0858201195179     0.0957175226429     0.911504574911      -0.167014118359     0.911504574911      -0.167014118359     0.0858201195179     0.0957175226429     
2900000000.0        0.0871424544585     0.0989309407917     0.909989703637      -0.172776921932     0.909989703637      -0.172776921932     0.0871424544585     0.0989309407917     
3000000000.0        0.0885041271973     0.102124323216      0.90842874408       -0.178520008346     0.90842874408       -0.178520008346     0.0885041271973     0.102124323216      
3100000000.0        0.0899048507146     0.105297108179      0.906821975442      -0.184242826101     0.906821975442      -0.184242826101     0.0899048507146     0.105297108179      
3200000000.0        0.091344321732      0.108448741168      0.905169692931      -0.189944830875     0.905169692931      -0.189944830875     0.091344321732      0.108448741168      
3300000000.0        0.0928222216795     0.111578675168      0.903472206798      -0.195625485799     0.903472206798      -0.195625485799     0.0928222216795     0.111578675168      
3400000000.0        0.0943382175649     0.114686370931      0.901729841458      -0.201284261724     0.901729841458      -0.201284261724     0.0943382175649     0.114686370931      
3500000000.0        0.095891962762      0.117771297219      0.899942934711      -0.206920637463     0.899942934711      -0.206920637463     0.095891962762      0.117771297219      
3600000000.0        0.0974830977287     0.120832931037      0.898111837018      -0.212534100029     0.898111837018      -0.212534100029     0.0974830977287     0.120832931037      
3700000000.0        0.0991112506685     0.123870757851      0.89623691084       -0.218124144848     0.89623691084       -0.218124144848     0.0991112506685     0.123870757851      
3800000000.0        0.100776038143      0.126884271794      0.894318530024      -0.223690275964     0.894318530024      -0.223690275964     0.100776038143      0.126884271794      
3900000000.0        0.102477065642      0.129872975855      0.892357079236      -0.229232006231     0.892357079236      -0.229232006231     0.102477065642      0.129872975855      
4000000000.0        0.104213928121      0.132836382063      0.890352953418      -0.234748857496     0.890352953418      -0.234748857496     0.104213928121      0.132836382063      
4100000000.0        0.1059862105        0.135774011654      0.888306557291      -0.240240360761     0.888306557291      -0.240240360761     0.1059862105        0.135774011654      
4200000000.0        0.107793488152      0.138685395226      0.886218304869      -0.245706056346     0.886218304869      -0.245706056346     0.107793488152      0.138685395226      
4300000000.0        0.109635327346      0.141570072891      0.884088619006      -0.25114549403      0.884088619006      -0.25114549403      0.109635327346      0.141570072891      
4400000000.0        0.111511285697      0.144427594408      0.881917930958      -0.256558233194     0.881917930958      -0.256558233194     0.111511285697      0.144427594408      
4500000000.0        0.113420912571      0.147257519312      0.879706679968      -0.261943842939     0.879706679968      -0.261943842939     0.113420912571      0.147257519312      
4600000000.0        0.115363749498      0.150059417028      0.877455312856      -0.267301902208     0.877455312856      -0.267301902208     0.115363749498      0.150059417028      
4700000000.0        0.117339330557      0.152832866979      0.875164283632      -0.27263199989      0.875164283632      -0.27263199989      0.117339330557      0.152832866979      
4800000000.0        0.119347182754      0.155577458687      0.872834053119      -0.277933734919     0.872834053119      -0.277933734919     0.119347182754      0.155577458687      
4900000000.0        0.12138682639       0.158292791858      0.870465088583      -0.283206716361     0.870465088583      -0.283206716361     0.12138682639       0.158292791858      
5000000000.0        0.123457775417      0.160978476465      0.868057863379      -0.28845056349      0.868057863379      -0.28845056349      0.123457775417      0.160978476465      
5100000000.0        0.125559537786      0.163634132815      0.865612856597      -0.293664905867     0.865612856597      -0.293664905867     0.125559537786      0.163634132815      
5200000000.0        0.127691615785      0.166259391617      0.863130552728      -0.298849383392     0.863130552728      -0.298849383392     0.127691615785      0.166259391617      
5300000000.0        0.129853506375      0.168853894034      0.860611441326      -0.304003646366     0.860611441326      -0.304003646366     0.129853506375      0.168853894034      
5400000000.0        0.132044701512      0.171417291729      0.858056016684      -0.309127355532     0.858056016684      -0.309127355532     0.132044701512      0.171417291729      
5500000000.0        0.134264688467      0.173949246903      0.855464777516      -0.314220182112     0.855464777516      -0.314220182112     0.134264688467      0.173949246903      
5600000000.0        0.136512950136      0.176449432326      0.852838226642      -0.319281807839     0.852838226642      -0.319281807839     0.136512950136      0.176449432326      
5700000000.0        0.138788965349      0.178917531361      0.850176870683      -0.324311924978     0.850176870683      -0.324311924978     0.138788965349      0.178917531361      
5800000000.0        0.141092209172      0.181353237977      0.847481219757      -0.329310236339     0.847481219757      -0.329310236339     0.141092209172      0.181353237977      
5900000000.0        0.143422153195      0.183756256759      0.844751787184      -0.334276455287     0.844751787184      -0.334276455287     0.143422153195      0.183756256759      
6000000000.0        0.145778265832      0.186126302908      0.841989089198      -0.339210305738     0.841989089198      -0.339210305738     0.145778265832      0.186126302908      
6100000000.0        0.148160012596      0.188463102234      0.839193644658      -0.344111522157     0.839193644658      -0.344111522157     0.148160012596      0.188463102234      
6200000000.0        0.150566856385      0.190766391143      0.836365974768      -0.348979849536     0.836365974768      -0.348979849536     0.150566856385      0.190766391143      
6300000000.0        0.152998257755      0.19303591662       0.833506602803      -0.353815043383     0.833506602803      -0.353815043383     0.152998257755      0.19303591662       
6400000000.0        0.155453675189      0.195271436198      0.830616053839      -0.358616869686     0.830616053839      -0.358616869686     0.155453675189      0.195271436198      
6500000000.0        0.15793256536       0.197472717931      0.827694854485      -0.363385104884     0.827694854485      -0.363385104884     0.15793256536       0.197472717931      
6600000000.0        0.160434383394      0.199639540348      0.824743532623      -0.368119535829     0.824743532623      -0.368119535829     0.160434383394      0.199639540348      
6700000000.0        0.162958583126      0.201771692418      0.821762617156      -0.372819959734     0.821762617156      -0.372819959734     0.162958583126      0.201771692418      
6800000000.0        0.165504617345      0.203868973488      0.818752637749      -0.377486184125     0.818752637749      -0.377486184125     0.165504617345      0.203868973488      
6900000000.0        0.168071938044      0.205931193238      0.815714124589      -0.382118026786     0.815714124589      -0.382118026786     0.168071938044      0.205931193238      
7000000000.0        0.170659996658      0.20795817161       0.812647608144      -0.386715315689     0.812647608144      -0.386715315689     0.170659996658      0.20795817161       
7100000000.0        0.173268244302      0.209949738746      0.80955361892       -0.391277888935     0.80955361892       -0.391277888935     0.173268244302      0.209949738746      
7200000000.0        0.175896131999      0.211905734915      0.806432687237      -0.395805594672     0.806432687237      -0.395805594672     0.175896131999      0.211905734915      
7300000000.0        0.178543110907      0.213826010436      0.803285342997      -0.400298291023     0.803285342997      -0.400298291023     0.178543110907      0.213826010436      
7400000000.0        0.181208632542      0.215710425594      0.800112115462      -0.404755845998     0.800112115462      -0.404755845998     0.181208632542      0.215710425594      
7500000000.0        0.183892148991      0.217558850555      0.796913533041      -0.40917813741      0.796913533041      -0.40917813741      0.183892148991      0.217558850555      
7600000000.0        0.186593113124      0.219371165278      0.793690123074      -0.413565052781     0.793690123074      -0.413565052781     0.186593113124      0.219371165278      
7700000000.0        0.189310978803      0.221147259413      0.790442411625      -0.417916489246     0.790442411625      -0.417916489246     0.189310978803      0.221147259413      
7800000000.0        0.192045201077      0.222887032207      0.787170923284      -0.422232353451     0.787170923284      -0.422232353451     0.192045201077      0.222887032207      
7900000000.0        0.194795236386      0.224590392401      0.783876180963      -0.42651256145      0.783876180963      -0.42651256145      0.194795236386      0.224590392401      
8000000000.0        0.197560542745      0.226257258117      0.78055870571       -0.430757038597     0.78055870571       -0.430757038597     0.197560542745      0.226257258117      
8100000000.0        0.200340579935      0.227887556757      0.777219016515      -0.434965719434     0.777219016515      -0.434965719434     0.200340579935      0.227887556757      
8200000000.0        0.203134809683      0.22948122488       0.773857630137      -0.439138547572     0.773857630137      -0.439138547572     0.203134809683      0.22948122488       
8300000000.0        0.205942695836      0.231038208091      0.770475060917      -0.443275475579     0.770475060917      -0.443275475579     0.205942695836      0.231038208091      
8400000000.0        0.208763704534      0.232558460918      0.767071820613      -0.447376464854     0.767071820613      -0.447376464854     0.208763704534      0.232558460918      
8500000000.0        0.211597304377      0.23404194669       0.763648418227      -0.451441485502     0.763648418227      -0.451441485502     0.211597304377      0.23404194669       
8600000000.0        0.214442966583      0.235488637412      0.76020535985       -0.455470516212     0.76020535985       -0.455470516212     0.214442966583      0.235488637412      
8700000000.0        0.217300165148      0.236898513633      0.756743148496      -0.459463544121     0.756743148496      -0.459463544121     0.217300165148      0.236898513633      
8800000000.0        0.220168376992      0.238271564322      0.753262283958      -0.463420564684     0.753262283958      -0.463420564684     0.220168376992      0.238271564322      
8900000000.0        0.22304708211       0.239607786728      0.749763262656      -0.467341581543     0.749763262656      -0.467341581543     0.22304708211       0.239607786728      
9000000000.0        0.225935763709      0.240907186252      0.746246577494      -0.471226606387     0.746246577494      -0.471226606387     0.225935763709      0.240907186252      
9100000000.0        0.228833908347      0.242169776305      0.742712717727      -0.475075658812     0.742712717727      -0.475075658812     0.228833908347      0.242169776305      
9200000000.0        0.231741006061      0.24339557817       0.739162168826      -0.478888766188     0.739162168826      -0.478888766188     0.231741006061      0.24339557817       
9300000000.0        0.234656550498      0.244584620868      0.735595412351      -0.482665963508     0.735595412351      -0.482665963508     0.234656550498      0.244584620868      
9400000000.0        0.23758003903       0.245736941007      0.732012925828      -0.486407293254     0.732012925828      -0.486407293254     0.23758003903       0.245736941007      
9500000000.0        0.240510972875      0.246852582646      0.728415182629      -0.490112805244     0.728415182629      -0.490112805244     0.240510972875      0.246852582646      
9600000000.0        0.243448857209      0.247931597151      0.724802651866      -0.493782556495     0.724802651866      -0.493782556495     0.243448857209      0.247931597151      
9700000000.0        0.246393201267      0.248974043046      0.721175798276      -0.497416611067     0.721175798276      -0.497416611067     0.246393201267      0.248974043046      
9800000000.0        0.249343518454      0.24997998587       0.717535082118      -0.501015039924     0.717535082118      -0.501015039924     0.249343518454      0.24997998587       
9900000000.0        0.252299326435      0.250949498032      0.71388095908       -0.504577920782     0.71388095908       -0.504577920782     0.252299326435      0.250949498032      
10000000000.0       0.255260147231      0.251882658659      0.710213880176      -0.508105337957     0.710213880176      -0.508105337957     0.255260147231      0.251882658659      
