# Hz S RI R 50.00 
100000000.0         0.000915128736617   -0.000712614891104  0.999072836246      -0.0031246614636    0.999072836246      -0.0031246614636    0.000915128736617   -0.000712614891104  
200000000.0         0.000912790182678   -0.00142524574514   0.999049409994      -0.00624929776686   0.999049409994      -0.00624929776686   0.000912790182678   -0.00142524574514   
300000000.0         0.000904389067399   -0.00213786694559   0.999017315691      -0.00937391145128   0.999017315691      -0.00937391145128   0.000904389067399   -0.00213786694559   
400000000.0         0.000890720878813   -0.00285045706986   0.998975756909      -0.0124984906227    0.998975756909      -0.0124984906227    0.000890720878813   -0.00285045706986   
500000000.0         0.000872091365537   -0.00356299467188   0.998924426934      -0.0156230182109    0.998924426934      -0.0156230182109    0.000872091365537   -0.00356299467188   
600000000.0         0.000848656157198   -0.00427545788859   0.998863169198      -0.0187474741378    0.998863169198      -0.0187474741378    0.000848656157198   -0.00427545788859   
700000000.0         0.000820507042491   -0.00498782439243   0.99879189104       -0.0218718362728    0.99879189104       -0.0218718362728    0.000820507042491   -0.00498782439243   
800000000.0         0.000787703441161   -0.00570007141281   0.998710532262      -0.0249960809552    0.998710532262      -0.0249960809552    0.000787703441161   -0.00570007141281   
900000000.0         0.000750286411252   -0.00641217577165   0.998619051148      -0.0281201833196    0.998619051148      -0.0281201833196    0.000750286411252   -0.00641217577165   
1000000000.0        0.000708285747325   -0.00712411391902   0.998517417387      -0.0312441175137    0.998517417387      -0.0312441175137    0.000708285747325   -0.00712411391902   
1100000000.0        0.000661723925967   -0.00783586196553   0.998405608141      -0.0343678568546    0.998405608141      -0.0343678568546    0.000661723925967   -0.00783586196553   
1200000000.0        0.000610618457184   -0.00854739571082   0.998283605715      -0.0374913739447    0.998283605715      -0.0374913739447    0.000610618457184   -0.00854739571082   
1300000000.0        0.000554983364347   -0.00925869066847   0.998151396084      -0.0406146407616    0.998151396084      -0.0406146407616    0.000554983364347   -0.00925869066847   
1400000000.0        0.000494830157658   -0.00996972208771   0.998008967936      -0.0437376287283    0.998008967936      -0.0437376287283    0.000494830157658   -0.00996972208771   
1500000000.0        0.000430168498157   -0.0106804649725    0.997856312021      -0.0468603087714    0.997856312021      -0.0468603087714    0.000430168498157   -0.0106804649725    
1600000000.0        0.000361006664747   -0.0113908940986    0.997693420687      -0.0499826513684    0.997693420687      -0.0499826513684    0.000361006664747   -0.0113908940986    
1700000000.0        0.000287351891364   -0.0121009840283    0.997520287558      -0.0531046265872    0.997520287558      -0.0531046265872    0.000287351891364   -0.0121009840283    
1800000000.0        0.000209210615981   -0.0128107091242    0.997336907293      -0.0562262041204    0.997336907293      -0.0562262041204    0.000209210615981   -0.0128107091242    
1900000000.0        0.000126588668171   -0.0135200435616    0.997143275405      -0.0593473533141    0.997143275405      -0.0593473533141    0.000126588668171   -0.0135200435616    
2000000000.0        3.94914129036e-05   -0.0142289613388    0.996939388123      -0.0624680431936    0.996939388123      -0.0624680431936    3.94914129036e-05   -0.0142289613388    
2100000000.0        -5.20761374948e-05  -0.0149374362883    0.996725242292      -0.0655882424859    0.996725242292      -0.0655882424859    -5.20761374949e-05  -0.0149374362883    
2200000000.0        -0.000148109234919  -0.0156454420852    0.996500835285      -0.0687079196388    0.996500835285      -0.0687079196388    -0.000148109234918  -0.0156454420852    
2300000000.0        -0.000248603324762  -0.0163529522564    0.996266164944      -0.0718270428396    0.996266164944      -0.0718270428396    -0.000248603324763  -0.0163529522564    
2400000000.0        -0.000353553988711  -0.0170599401886    0.996021229527      -0.0749455800299    0.996021229527      -0.0749455800299    -0.00035355398871   -0.0170599401886    
2500000000.0        -0.00046295689794   -0.0177663791353    0.995766027662      -0.0780634989209    0.995766027662      -0.0780634989209    -0.00046295689794   -0.0177663791353    
2600000000.0        -0.0005768077745    -0.0184722422246    0.995500558321      -0.0811807670062    0.995500558321      -0.0811807670062    -0.0005768077745    -0.0184722422246    
2700000000.0        -0.000695102359118  -0.019177502465     0.995224820787      -0.0842973515736    0.995224820787      -0.0842973515736    -0.000695102359118  -0.019177502465     
2800000000.0        -0.00081783638416   -0.0198821327523    0.994938814637      -0.0874132197166    0.994938814637      -0.0874132197166    -0.000817836384161  -0.0198821327523    
2900000000.0        -0.00094500555075   -0.0205861058752    0.994642539717      -0.0905283383443    0.994642539717      -0.0905283383443    -0.00094500555075   -0.0205861058752    
3000000000.0        -0.00107660550924   -0.021289394521     0.994335996131      -0.0936426741907    0.994335996131      -0.0936426741907    -0.00107660550924   -0.021289394521     
3100000000.0        -0.00121263184245   -0.0219919712812    0.994019184229      -0.0967561938242    0.994019184229      -0.0967561938242    -0.00121263184245   -0.0219919712812    
3200000000.0        -0.00135308005121   -0.0226938086563    0.993692104592      -0.0998688636552    0.993692104592      -0.0998688636552    -0.00135308005121   -0.0226938086563    
3300000000.0        -0.00149794554178   -0.0233948790608    0.993354758029      -0.102980649944     0.993354758029      -0.102980649944     -0.00149794554178   -0.0233948790608    
3400000000.0        -0.00164722361485   -0.0240951548284    0.993007145565      -0.106091518809     0.993007145565      -0.106091518809     -0.00164722361485   -0.0240951548284    
3500000000.0        -0.00180090945591   -0.0247946082161    0.992649268435      -0.109201436232     0.992649268435      -0.109201436232     -0.00180090945591   -0.0247946082161    
3600000000.0        -0.00195899812671   -0.0254932114088    0.99228112808       -0.112310368065     0.99228112808       -0.112310368065     -0.00195899812671   -0.0254932114088    
3700000000.0        -0.00212148455774   -0.0261909365235    0.991902726145      -0.115418280039     0.991902726145      -0.115418280039     -0.00212148455774   -0.0261909365235    
3800000000.0        -0.00228836354152   -0.0268877556137    0.991514064468      -0.118525137766     0.991514064468      -0.118525137766     -0.00228836354152   -0.0268877556137    
3900000000.0        -0.00245962972658   -0.0275836406732    0.991115145084      -0.121630906747     0.991115145084      -0.121630906747     -0.00245962972658   -0.0275836406732    
4000000000.0        -0.00263527761209   -0.0282785636401    0.990705970218      -0.124735552378     0.990705970218      -0.124735552378     -0.00263527761209   -0.0282785636401    
4100000000.0        -0.00281530154302   -0.0289724964005    0.990286542286      -0.127839039952     0.990286542286      -0.127839039952     -0.00281530154302   -0.0289724964005    
4200000000.0        -0.00299969570578   -0.0296654107927    0.989856863889      -0.130941334668     0.989856863889      -0.130941334668     -0.00299969570578   -0.0296654107927    
4300000000.0        -0.00318845412424   -0.0303572786101    0.989416937813      -0.134042401632     0.989416937813      -0.134042401632     -0.00318845412424   -0.0303572786101    
4400000000.0        -0.00338157065619   -0.0310480716054    0.988966767031      -0.137142205866     0.988966767031      -0.137142205866     -0.00338157065619   -0.0310480716054    
4500000000.0        -0.00357903899005   -0.0317377614938    0.988506354695      -0.140240712306     0.988506354695      -0.140240712306     -0.00357903899005   -0.0317377614938    
4600000000.0        -0.00378085264189   -0.0324263199563    0.988035704141      -0.143337885813     0.988035704141      -0.143337885813     -0.00378085264189   -0.0324263199563    
4700000000.0        -0.00398700495275   -0.0331137186435    0.987554818885      -0.146433691174     0.987554818885      -0.146433691174     -0.00398700495275   -0.0331137186435    
4800000000.0        -0.00419748908613   -0.0337999291782    0.987063702624      -0.149528093105     0.987063702624      -0.149528093105     -0.00419748908613   -0.0337999291782    
4900000000.0        -0.00441229802571   -0.0344849231594    0.986562359234      -0.152621056257     0.986562359234      -0.152621056257     -0.00441229802571   -0.0344849231594    
5000000000.0        -0.00463142457331   -0.0351686721649    0.986050792769      -0.155712545219     0.986050792769      -0.155712545219     -0.00463142457331   -0.0351686721649    
5100000000.0        -0.00485486134696   -0.0358511477546    0.985529007463      -0.158802524521     0.985529007463      -0.158802524521     -0.00485486134696   -0.0358511477546    
5200000000.0        -0.00508260077911   -0.0365323214735    0.984997007728      -0.161890958639     0.984997007728      -0.161890958639     -0.00508260077911   -0.0365323214735    
5300000000.0        -0.00531463511506   -0.0372121648551    0.984454798154      -0.164977811997     0.984454798154      -0.164977811997     -0.00531463511506   -0.0372121648551    
5400000000.0        -0.00555095641149   -0.0378906494238    0.983902383507      -0.168063048971     0.983902383507      -0.168063048971     -0.00555095641149   -0.0378906494238    
5500000000.0        -0.00579155653504   -0.0385677466982    0.983339768733      -0.171146633893     0.983339768733      -0.171146633893     -0.00579155653504   -0.0385677466982    
5600000000.0        -0.00603642716115   -0.0392434281941    0.982766958954      -0.174228531054     0.982766958954      -0.174228531054     -0.00603642716115   -0.0392434281941    
5700000000.0        -0.00628555977281   -0.0399176654269    0.982183959468      -0.177308704705     0.982183959468      -0.177308704705     -0.00628555977281   -0.0399176654269    
5800000000.0        -0.00653894565963   -0.0405904299149    0.981590775753      -0.180387119064     0.981590775753      -0.180387119064     -0.00653894565963   -0.0405904299149    
5900000000.0        -0.00679657591676   -0.041261693182     0.980987413461      -0.183463738316     0.980987413461      -0.183463738316     -0.00679657591676   -0.041261693182     
6000000000.0        -0.00705844144412   -0.0419314267602    0.980373878422      -0.186538526617     0.980373878422      -0.186538526617     -0.00705844144412   -0.0419314267602    
6100000000.0        -0.00732453294553   -0.0425996021925    0.979750176643      -0.189611448097     0.979750176643      -0.189611448097     -0.00732453294553   -0.0425996021925    
6200000000.0        -0.00759484092803   -0.0432661910358    0.979116314308      -0.192682466863     0.979116314308      -0.192682466863     -0.00759484092803   -0.0432661910358    
6300000000.0        -0.00786935570121   -0.043931164863     0.978472297775      -0.195751547002     0.978472297775      -0.195751547002     -0.00786935570121   -0.043931164863     
6400000000.0        -0.00814806737661   -0.0445944952665    0.977818133581      -0.198818652581     0.977818133581      -0.198818652581     -0.00814806737661   -0.0445944952665    
6500000000.0        -0.00843096586721   -0.0452561538599    0.97715382844       -0.201883747656     0.97715382844       -0.201883747656     -0.00843096586721   -0.0452561538599    
6600000000.0        -0.00871804088698   -0.0459161122811    0.976479389239      -0.204946796267     0.976479389239      -0.204946796267     -0.00871804088698   -0.0459161122811    
6700000000.0        -0.00900928195042   -0.0465743421948    0.975794823044      -0.208007762446     0.975794823044      -0.208007762446     -0.00900928195042   -0.0465743421948    
6800000000.0        -0.00930467837225   -0.0472308152951    0.975100137095      -0.211066610219     0.975100137095      -0.211066610219     -0.00930467837225   -0.0472308152951    
6900000000.0        -0.00960421926706   -0.0478855033077    0.974395338811      -0.214123303605     0.974395338811      -0.214123303605     -0.00960421926706   -0.0478855033077    
7000000000.0        -0.0099078935491    -0.0485383779928    0.973680435784      -0.217177806623     0.973680435784      -0.217177806623     -0.0099078935491    -0.0485383779928    
7100000000.0        -0.010215689932     -0.0491894111472    0.972955435783      -0.220230083291     0.972955435783      -0.220230083291     -0.010215689932     -0.0491894111472    
7200000000.0        -0.0105275969288    -0.0498385746068    0.972220346751      -0.223280097632     0.972220346751      -0.223280097632     -0.0105275969288    -0.0498385746068    
7300000000.0        -0.0108436028514    -0.0504858402495    0.971475176809      -0.226327813673     0.971475176809      -0.226327813673     -0.0108436028514    -0.0504858402495    
7400000000.0        -0.011163695811     -0.0511311799969    0.97071993425       -0.229373195447     0.97071993425       -0.229373195447     -0.011163695811     -0.0511311799969    
7500000000.0        -0.0114878637176    -0.0517745658169    0.969954627545      -0.232416207        0.969954627545      -0.232416207        -0.0114878637176    -0.0517745658169    
7600000000.0        -0.0118160942805    -0.0524159697266    0.969179265338      -0.235456812388     0.969179265338      -0.235456812388     -0.0118160942805    -0.0524159697266    
7700000000.0        -0.0121483750077    -0.0530553637937    0.968393856449      -0.238494975683     0.968393856449      -0.238494975683     -0.0121483750077    -0.0530553637937    
7800000000.0        -0.0124846932065    -0.0536927201397    0.967598409869      -0.241530660973     0.967598409869      -0.241530660973     -0.0124846932065    -0.0536927201397    
7900000000.0        -0.0128250359835    -0.0543280109414    0.966792934768      -0.244563832364     0.966792934768      -0.244563832364     -0.0128250359835    -0.0543280109414    
8000000000.0        -0.0131693902445    -0.0549612084339    0.965977440485      -0.247594453986     0.965977440485      -0.247594453986     -0.0131693902445    -0.0549612084339    
8100000000.0        -0.0135177426948    -0.0555922849125    0.965151936536      -0.250622489989     0.965151936536      -0.250622489989     -0.0135177426948    -0.0555922849125    
8200000000.0        -0.0138700798396    -0.0562212127348    0.964316432609      -0.25364790455      0.964316432609      -0.25364790455      -0.0138700798396    -0.0562212127348    
8300000000.0        -0.0142263879839    -0.0568479643233    0.963470938565      -0.256670661874     0.963470938565      -0.256670661874     -0.0142263879839    -0.0568479643233    
8400000000.0        -0.0145866532331    -0.0574725121672    0.962615464435      -0.259690726195     0.962615464435      -0.259690726195     -0.0145866532331    -0.0574725121672    
8500000000.0        -0.014950861493     -0.0580948288252    0.961750020427      -0.262708061778     0.961750020427      -0.262708061778     -0.014950861493     -0.0580948288252    
8600000000.0        -0.0153189984704    -0.0587148869267    0.960874616918      -0.265722632921     0.960874616918      -0.265722632921     -0.0153189984704    -0.0587148869267    
8700000000.0        -0.0156910496732    -0.0593326591749    0.959989264455      -0.268734403961     0.959989264455      -0.268734403961     -0.0156910496732    -0.0593326591749    
8800000000.0        -0.0160670004109    -0.0599481183485    0.959093973759      -0.271743339268     0.959093973759      -0.271743339268     -0.0160670004109    -0.0599481183485    
8900000000.0        -0.0164468357951    -0.0605612373038    0.958188755719      -0.274749403254     0.958188755719      -0.274749403254     -0.0164468357951    -0.0605612373038    
9000000000.0        -0.0168305407398    -0.0611719889769    0.957273621396      -0.277752560373     0.957273621396      -0.277752560373     -0.0168305407398    -0.0611719889769    
9100000000.0        -0.0172180999618    -0.0617803463857    0.956348582021      -0.280752775121     0.956348582021      -0.280752775121     -0.0172180999618    -0.0617803463857    
9200000000.0        -0.0176094979816    -0.0623862826321    0.955413648991      -0.283750012039     0.955413648991      -0.283750012039     -0.0176094979816    -0.0623862826321    
9300000000.0        -0.0180047191232    -0.0629897709039    0.954468833875      -0.286744235716     0.954468833875      -0.286744235716     -0.0180047191232    -0.0629897709039    
9400000000.0        -0.0184037475154    -0.0635907844769    0.953514148409      -0.289735410789     0.953514148409      -0.289735410789     -0.0184037475154    -0.0635907844769    
9500000000.0        -0.0188065670917    -0.064189296717     0.952549604496      -0.292723501946     0.952549604496      -0.292723501946     -0.0188065670917    -0.064189296717     
9600000000.0        -0.0192131615915    -0.064785281082     0.951575214207      -0.295708473927     0.951575214207      -0.295708473927     -0.0192131615915    -0.064785281082     
9700000000.0        -0.0196235145601    -0.0653787111238    0.950590989778      -0.298690291528     0.950590989778      -0.298690291528     -0.0196235145601    -0.0653787111238    
9800000000.0        -0.0200376093499    -0.0659695604902    0.949596943614      -0.301668919597     0.949596943614      -0.301668919597     -0.0200376093499    -0.0659695604902    
9900000000.0        -0.0204554291206    -0.0665578029269    0.948593088282      -0.304644323045     0.948593088282      -0.304644323045     -0.0204554291206    -0.0665578029269    
10000000000.0       -0.02087695684      -0.0671434122796    0.947579436516      -0.307616466836     0.947579436516      -0.307616466836     -0.02087695684      -0.0671434122796    
