# Hz S RI R 50.00 
100000000.0         1.33534239355e-06   -0.00830361925448   0.999829877264      -0.00906102111526   0.999829877264      -0.00906102111526   1.33534239355e-06   -0.00830361925448   
200000000.0         -0.000232271559698  -0.0166035031734    0.999594246227      -0.0181183758653    0.999594246227      -0.0181183758653    -0.000232271559698  -0.0166035031734    
300000000.0         -0.00061629129343   -0.0248959996062    0.999207924052      -0.0271684509445    0.999207924052      -0.0271684509445    -0.000616291293429  -0.0248959996062    
400000000.0         -0.00115035666702   -0.0331774115844    0.998671130084      -0.0362075798224    0.998671130084      -0.0362075798224    -0.00115035666702   -0.0331774115844    
500000000.0         -0.00183402389748   -0.0414440279953    0.997984251107      -0.0452320776649    0.997984251107      -0.0452320776649    -0.00183402389748   -0.0414440279953    
600000000.0         -0.00266674029446   -0.0496921378541    0.997147810583      -0.0542382570379    0.997147810583      -0.0542382570379    -0.00266674029446   -0.0496921378541    
700000000.0         -0.00364783618201   -0.057918040189     0.996162460725      -0.0632224385176    0.996162460725      -0.0632224385176    -0.00364783618201   -0.057918040189     
800000000.0         -0.00477652241689   -0.0661180520629    0.995028979157      -0.0721809591444    0.995028979157      -0.0721809591444    -0.00477652241689   -0.0661180520629    
900000000.0         -0.00605188994549   -0.0742885156106    0.993748266765      -0.0811101797463    0.993748266765      -0.0811101797463    -0.00605188994549   -0.0742885156106    
1000000000.0        -0.00747291036863   -0.0824258044713    0.992321345827      -0.0900064915718    0.992321345827      -0.0900064915718    -0.00747291036863   -0.0824258044713    
1100000000.0        -0.00903843713211   -0.0905263297982    0.990749358097      -0.0988663224504    0.990749358097      -0.0988663224504    -0.00903843713211   -0.0905263297982    
1200000000.0        -0.0107472071738    -0.0985865459429    0.989033562725      -0.107686142592     0.989033562725      -0.107686142592     -0.0107472071738    -0.0985865459429    
1300000000.0        -0.0125978429402    -0.106602955866     0.987175333973      -0.116462470087     0.987175333973      -0.116462470087     -0.0125978429402    -0.106602955866     
1400000000.0        -0.014588854722     -0.114572116298     0.985176158701      -0.125191876145     0.985176158701      -0.125191876145     -0.014588854722     -0.114572116298     
1500000000.0        -0.0167186432729    -0.122490642672     0.983037633633      -0.133870990087     0.983037633633      -0.133870990087     -0.0167186432729    -0.122490642672     
1600000000.0        -0.0189855026874    -0.130355213827     0.980761462389      -0.142496504098     0.980761462389      -0.142496504098     -0.0189855026874    -0.130355213827     
1700000000.0        -0.0213876235155    -0.138162576484     0.978349452315      -0.151065177752     0.978349452315      -0.151065177752     -0.0213876235155    -0.138162576484     
1800000000.0        -0.0239230960957    -0.145909549495     0.975803511107      -0.159573842301     0.975803511107      -0.159573842301     -0.0239230960957    -0.145909549495     
1900000000.0        -0.0265899140884    -0.153593027872     0.973125643241      -0.168019404728     0.973125643241      -0.168019404728     -0.0265899140884    -0.153593027872     
2000000000.0        -0.029385978193     -0.161209986564     0.970317946234      -0.176398851567     0.970317946234      -0.176398851567     -0.029385978193     -0.161209986564     
2100000000.0        -0.0323091000326    -0.168757484015     0.967382606743      -0.184709252476     0.967382606743      -0.184709252476     -0.0323091000326    -0.168757484015     
2200000000.0        -0.0353570061895    -0.176232665462     0.964321896507      -0.192947763568     0.964321896507      -0.192947763568     -0.0353570061895    -0.176232665462     
2300000000.0        -0.0385273423749    -0.183632766006     0.961138168173      -0.201111630498     0.961138168173      -0.201111630498     -0.0385273423749    -0.183632766006     
2400000000.0        -0.0418176777183    -0.190955113419     0.957833850997      -0.20919819129      0.957833850997      -0.20919819129      -0.0418176777183    -0.190955113419     
2500000000.0        -0.0452255091579    -0.198197130709     0.954411446441      -0.217204878922     0.954411446441      -0.217204878922     -0.0452255091579    -0.198197130709     
2600000000.0        -0.0487482659191    -0.205356338426     0.950873523692      -0.22512922365      0.950873523692      -0.22512922365      -0.0487482659191    -0.205356338426     
2700000000.0        -0.0523833140628    -0.212430356725     0.947222715112      -0.232968855082     0.947222715112      -0.232968855082     -0.0523833140628    -0.212430356725     
2800000000.0        -0.0561279610896    -0.219416907165     0.943461711623      -0.240721503992     0.943461711623      -0.240721503992     -0.0561279610896    -0.219416907165     
2900000000.0        -0.0599794605832    -0.226313814259     0.939593258065      -0.248385003887     0.939593258065      -0.248385003887     -0.0599794605832    -0.226313814259     
3000000000.0        -0.063935016879     -0.233119006779     0.935620148527      -0.255957292319     0.935620148527      -0.255957292319     -0.063935016879     -0.233119006779     
3100000000.0        -0.0679917897431    -0.239830518805     0.931545221657      -0.263436411949     0.931545221657      -0.263436411949     -0.0679917897431    -0.239830518805     
3200000000.0        -0.0721468990471    -0.246446490537     0.927371355994      -0.270820511367     0.927371355994      -0.270820511367     -0.0721468990471    -0.246446490537     
3300000000.0        -0.0763974294243    -0.252965168859     0.923101465309      -0.278107845668     0.923101465309      -0.278107845668     -0.0763974294243    -0.252965168859     
3400000000.0        -0.0807404348959    -0.259384907675     0.918738493971      -0.285296776797     0.918738493971      -0.285296776797     -0.0807404348959    -0.259384907675     
3500000000.0        -0.0851729434527    -0.265704168012     0.914285412372      -0.29238577366      0.914285412372      -0.29238577366      -0.0851729434527    -0.265704168012     
3600000000.0        -0.0896919615805    -0.271921517899     0.909745212397      -0.299373412014     0.909745212397      -0.299373412014     -0.0896919615805    -0.271921517899     
3700000000.0        -0.0942944787187    -0.278035632032     0.905120902965      -0.306258374135     0.905120902965      -0.306258374135     -0.0942944787187    -0.278035632032     
3800000000.0        -0.0989774716399    -0.284045291232     0.900415505648      -0.313039448286     0.900415505648      -0.313039448286     -0.0989774716399    -0.284045291232     
3900000000.0        -0.103737908741     -0.289949381695     0.89563205038       -0.319715527978     0.89563205038       -0.319715527978     -0.103737908741     -0.289949381695     
4000000000.0        -0.108572754238     -0.295746894057     0.890773571264      -0.326285611036     0.890773571264      -0.326285611036     -0.108572754238     -0.295746894057     
4100000000.0        -0.11347897225      -0.301436922278     0.885843102483      -0.332748798489     0.885843102483      -0.332748798489     -0.11347897225      -0.301436922278     
4200000000.0        -0.118453530774     -0.307018662339     0.880843674329      -0.33910429328      0.880843674329      -0.33910429328      -0.118453530774     -0.307018662339     
4300000000.0        -0.123493405532     -0.312491410791     0.875778309351      -0.345351398813     0.875778309351      -0.345351398813     -0.123493405532     -0.312491410791     
4400000000.0        -0.128595583697     -0.317854563138     0.870650018635      -0.351489517346     0.870650018635      -0.351489517346     -0.128595583697     -0.317854563138     
4500000000.0        -0.133757067473     -0.32310761208      0.865461798216      -0.357518148237     0.865461798216      -0.357518148237     -0.133757067473     -0.32310761208      
4600000000.0        -0.138974877552     -0.328250145618     0.860216625629      -0.363436886056     0.860216625629      -0.363436886056     -0.138974877552     -0.328250145618     
4700000000.0        -0.14424605641      -0.33328184504      0.854917456607      -0.369245418576     0.854917456607      -0.369245418576     -0.14424605641      -0.33328184504      
4800000000.0        -0.14956767147      -0.338202482786     0.84956722192       -0.374943524637     0.84956722192       -0.374943524637     -0.14956767147      -0.338202482786     
4900000000.0        -0.154936818103     -0.343011920213     0.844168824371      -0.380531071924     0.844168824371      -0.380531071924     -0.154936818103     -0.343011920213     
5000000000.0        -0.16035062249      -0.347710105263     0.838725135941      -0.386008014632     0.838725135941      -0.386008014632     -0.16035062249      -0.347710105263     
5100000000.0        -0.165806244314     -0.352297070049     0.833238995086      -0.39137439106      0.833238995086      -0.39137439106      -0.165806244314     -0.352297070049     
5200000000.0        -0.171300879311     -0.356772928363     0.827713204198      -0.396630321122     0.827713204198      -0.396630321122     -0.171300879311     -0.356772928363     
5300000000.0        -0.176831761655     -0.361137873125     0.822150527209      -0.401776003796     0.822150527209      -0.401776003796     -0.176831761655     -0.361137873125     
5400000000.0        -0.182396166195     -0.365392173766     0.816553687361      -0.406811714517     0.816553687361      -0.406811714517     -0.182396166195     -0.365392173766     
5500000000.0        -0.187991410533     -0.369536173575     0.810925365124      -0.411737802521     0.810925365124      -0.411737802521     -0.187991410533     -0.369536173575     
5600000000.0        -0.193614856952     -0.373570286998     0.805268196273      -0.416554688155     0.805268196273      -0.416554688155     -0.193614856952     -0.373570286998     
5700000000.0        -0.199263914183     -0.377494996921     0.799584770112      -0.421262860151     0.799584770112      -0.421262860151     -0.199263914183     -0.377494996921     
5800000000.0        -0.204936039038     -0.381310851915     0.79387762785       -0.425862872886     0.79387762785       -0.425862872886     -0.204936039038     -0.381310851915     
5900000000.0        -0.21062873788      -0.385018463481     0.788149261127      -0.430355343624     0.788149261127      -0.430355343624     -0.21062873788      -0.385018463481     
6000000000.0        -0.216339567956     -0.388618503284     0.782402110677      -0.434740949752     0.782402110677      -0.434740949752     -0.216339567956     -0.388618503284     
6100000000.0        -0.22206613859      -0.392111700387     0.776638565143      -0.43902042602      0.776638565143      -0.43902042602      -0.22206613859      -0.392111700387     
6200000000.0        -0.227806112234     -0.395498838496     0.770860960022      -0.443194561783     0.770860960022      -0.443194561783     -0.227806112234     -0.395498838496     
6300000000.0        -0.233557205386     -0.398780753217     0.765071576742      -0.447264198269     0.765071576742      -0.447264198269     -0.233557205386     -0.398780753217     
6400000000.0        -0.239317189381     -0.401958329335     0.759272641882      -0.451230225851     0.759272641882      -0.451230225851     -0.239317189381     -0.401958329335     
6500000000.0        -0.245083891049     -0.405032498118     0.7534663265        -0.45509358136      0.7534663265        -0.45509358136      -0.245083891049     -0.405032498118     
6600000000.0        -0.250855193262     -0.408004234655     0.747654745599      -0.45885524542      0.747654745599      -0.45885524542      -0.250855193262     -0.408004234655     
6700000000.0        -0.256629035354     -0.410874555224     0.741839957701      -0.462516239822     0.741839957701      -0.462516239822     -0.256629035354     -0.410874555224     
6800000000.0        -0.262403413431     -0.413644514707     0.736023964531      -0.466077624939     0.736023964531      -0.466077624939     -0.262403413431     -0.413644514707     
6900000000.0        -0.268176380582     -0.416315204045     0.730208710819      -0.469540497182     0.730208710819      -0.469540497182     -0.268176380582     -0.416315204045     
7000000000.0        -0.273946046972     -0.418887747746     0.724396084196      -0.472905986513     0.724396084196      -0.472905986513     -0.273946046972     -0.418887747746     
7100000000.0        -0.279710579851     -0.421363301438     0.718587915189      -0.476175253997     0.718587915189      -0.476175253997     -0.279710579851     -0.421363301438     
7200000000.0        -0.285468203461     -0.423743049485     0.712785977315      -0.479349489418     0.712785977315      -0.479349489418     -0.285468203461     -0.423743049485     
7300000000.0        -0.29121719886      -0.426028202653     0.706991987254      -0.482429908953     0.706991987254      -0.482429908953     -0.29121719886      -0.426028202653     
7400000000.0        -0.296955903659     -0.428219995841     0.701207605113      -0.485417752896     0.701207605113      -0.485417752896     -0.296955903659     -0.428219995841     
7500000000.0        -0.302682711683     -0.430319685867     0.695434434768      -0.488314283454     0.695434434768      -0.488314283454     -0.302682711683     -0.430319685867     
7600000000.0        -0.308396072556     -0.43232854933      0.689674024271      -0.491120782602     0.689674024271      -0.491120782602     -0.308396072556     -0.43232854933      
7700000000.0        -0.31409449122      -0.434247880521     0.68392786634       -0.493838550002     0.68392786634       -0.493838550002     -0.31409449122      -0.434247880521     
7800000000.0        -0.319776527389     -0.436078989411     0.678197398899      -0.496468900991     0.678197398899      -0.496468900991     -0.319776527389     -0.436078989411     
7900000000.0        -0.325440794938     -0.437823199707     0.67248400569       -0.499013164633     0.67248400569       -0.499013164633     -0.325440794938     -0.437823199707     
8000000000.0        -0.331085961248     -0.439481846964     0.666789016932      -0.50147268184      0.666789016932      -0.50147268184      -0.331085961248     -0.439481846964     
8100000000.0        -0.336710746485     -0.441056276779     0.661113710033      -0.503848803562     0.661113710033      -0.503848803562     -0.336710746485     -0.441056276779     
8200000000.0        -0.342313922846     -0.442547843044     0.655459310353      -0.506142889042     0.655459310353      -0.506142889042     -0.342313922846     -0.442547843044     
8300000000.0        -0.347894313754     -0.443957906272     0.649826992004      -0.508356304144     0.649826992004      -0.508356304144     -0.347894313754     -0.443957906272     
8400000000.0        -0.353450793018     -0.445287831988     0.644217878689      -0.510490419744     0.644217878689      -0.510490419744     -0.353450793018     -0.445287831988     
8500000000.0        -0.358982283956     -0.446538989189     0.638633044585      -0.512546610193     0.638633044585      -0.512546610193     -0.358982283956     -0.446538989189     
8600000000.0        -0.364487758489     -0.447712748874     0.63307351524       -0.514526251845     0.63307351524       -0.514526251845     -0.364487758489     -0.447712748874     
8700000000.0        -0.369966236204     -0.448810482635     0.627540268516      -0.51643072165      0.627540268516      -0.51643072165      -0.369966236204     -0.448810482635     
8800000000.0        -0.375416783399     -0.449833561315     0.622034235544      -0.518261395815     0.622034235544      -0.518261395815     -0.375416783399     -0.449833561315     
8900000000.0        -0.380838512098     -0.45078335374      0.616556301704      -0.520019648533     0.616556301704      -0.520019648533     -0.380838512098     -0.45078335374      
9000000000.0        -0.386230579057     -0.451661225496     0.611107307625      -0.521706850765     0.611107307625      -0.521706850765     -0.386230579057     -0.451661225496     
9100000000.0        -0.391592184749     -0.45246853779      0.605688050193      -0.523324369097     0.605688050193      -0.523324369097     -0.391592184749     -0.45246853779      
9200000000.0        -0.396922572341     -0.453206646356     0.600299283583      -0.524873564651     0.600299283583      -0.524873564651     -0.396922572341     -0.453206646356     
9300000000.0        -0.402221026657     -0.453876900426     0.594941720286      -0.526355792056     0.594941720286      -0.526355792056     -0.402221026657     -0.453876900426     
9400000000.0        -0.407486873137     -0.454480641767     0.589616032154      -0.527772398482     0.589616032154      -0.527772398482     -0.407486873137     -0.454480641767     
9500000000.0        -0.412719476794     -0.45501920376      0.584322851445      -0.529124722725     0.584322851445      -0.529124722725     -0.412719476794     -0.45501920376      
9600000000.0        -0.417918241162     -0.455493910552     0.579062771874      -0.530414094355     0.579062771874      -0.530414094355     -0.417918241162     -0.455493910552     
9700000000.0        -0.423082607251     -0.455906076246     0.573836349655      -0.531641832911     0.573836349655      -0.531641832911     -0.423082607251     -0.455906076246     
9800000000.0        -0.428212052495     -0.456257004155     0.568644104554      -0.532809247151     0.568644104554      -0.532809247151     -0.428212052495     -0.456257004155     
9900000000.0        -0.433306089713     -0.456547986104     0.563486520929      -0.533917634358     0.563486520929      -0.533917634358     -0.433306089713     -0.456547986104     
10000000000.0       -0.43836426607      -0.456780301775     0.558364048768      -0.534968279684     0.558364048768      -0.534968279684     -0.43836426607      -0.456780301775     
