# Hz S RI R 50.00 
100000000.0         -0.00598870604438   -0.0770438376751    0.993855758425      -0.0772580062419    0.993855758425      -0.0772580062419    -0.00598870604438   -0.0770438376751    
200000000.0         -0.0236034157295    -0.151341240824     0.97623991527       -0.15176959059      0.97623991527       -0.15176959059      -0.0236034157295    -0.151341240824     
300000000.0         -0.0515649108564    -0.220484361519     0.948277506638      -0.22112691376      0.948277506638      -0.22112691376      -0.0515649108564    -0.220484361519     
400000000.0         -0.0880951861136    -0.28261805354      0.911746404152      -0.283474836939     0.911746404152      -0.283474836939     -0.0880951861136    -0.28261805354      
500000000.0         -0.131102675121     -0.336561199376     0.868738122956      -0.33763224944      0.868738122956      -0.33763224944      -0.131102675121     -0.336561199376     
600000000.0         -0.178443619702     -0.381806361877     0.821396395214      -0.383091720551     0.821396395214      -0.383091720551     -0.178443619702     -0.381806361877     
700000000.0         -0.228132221579     -0.418425621098     0.771707003897      -0.419925336493     0.771707003897      -0.419925336493     -0.228132221579     -0.418425621098     
800000000.0         -0.278475294256     -0.446925519193     0.721363125617      -0.448639645374     0.721363125617      -0.448639645374     -0.278475294256     -0.446925519193     
900000000.0         -0.328132116281     -0.468091636936     0.671705475015      -0.470020233743     0.671705475015      -0.470020233743     -0.328132116281     -0.468091636936     
1000000000.0        -0.376115662685     -0.482850863089     0.623721072141      -0.484993995998     0.623721072141      -0.484993995998     -0.376115662685     -0.482850863089     
1100000000.0        -0.421756497488     -0.492165009704     0.578079349283      -0.494522749697     0.578079349283      -0.494522749697     -0.421756497488     -0.492165009704     
1200000000.0        -0.464648553855     -0.496958130128     0.53518637042       -0.499530553586     0.53518637042       -0.499530553586     -0.464648553855     -0.496958130128     
1300000000.0        -0.504590784544     -0.498073256067     0.495243180535      -0.500860444674     0.495243180535      -0.500860444674     -0.504590784544     -0.498073256067     
1400000000.0        -0.541533121573     -0.496251618401     0.458299845777      -0.499253659058     0.458299845777      -0.499253659058     -0.541533121573     -0.496251618401     
1500000000.0        -0.575530768501     -0.492127322336     0.424301161081      -0.49534430708      0.424301161081      -0.49534430708      -0.575530768501     -0.492127322336     
1600000000.0        -0.606707913598     -0.486231597458     0.393122936913      -0.489663623398     0.393122936913      -0.489663623398     -0.606707913598     -0.486231597458     
1700000000.0        -0.635230296575     -0.479002253851     0.364599432489      -0.482649423097     0.364599432489      -0.482649423097     -0.635230296575     -0.479002253851     
1800000000.0        -0.661285310165     -0.470795378125     0.33854325415       -0.47465779773      0.33854325415       -0.47465779773      -0.661285310165     -0.470795378125     
1900000000.0        -0.685068118559     -0.46189741611      0.314759236901      -0.465975198015     0.314759236901      -0.465975198015     -0.685068118559     -0.46189741611      
2000000000.0        -0.706772366492     -0.452536588808     0.293053735298      -0.456829849792     0.293053735298      -0.456829849792     -0.706772366492     -0.452536588808     
2100000000.0        -0.726584268678     -0.442893121605     0.273240533995      -0.447401983236     0.273240533995      -0.447401983236     -0.726584268678     -0.442893121605     
2200000000.0        -0.744679114503     -0.433108099215     0.25514434304       -0.437832687806     0.25514434304       -0.437832687806     -0.744679114503     -0.433108099215     
2300000000.0        -0.761219450506     -0.423290951457     0.238602615377      -0.428231398024     0.238602615377      -0.428231398024     -0.761219450506     -0.423290951457     
2400000000.0        -0.776354394648     -0.413525676012     0.223466232576      -0.418682116235     0.223466232576      -0.418682116235     -0.776354394648     -0.413525676012     
2500000000.0        -0.790219688184     -0.403875948536     0.209599452947      -0.409248522726     0.209599452947      -0.409248522726     -0.790219688184     -0.403875948536     
2600000000.0        -0.802938206691     -0.39438928162      0.196879400511      -0.39997813468      0.196879400511      -0.39997813468      -0.802938206691     -0.39438928162      
2700000000.0        -0.814620737554     -0.385100387124     0.185195287504      -0.39090566852      0.185195287504      -0.39090566852      -0.814620737554     -0.385100387124     
2800000000.0        -0.825366893396     -0.376033880924     0.174447500949      -0.382055744654     0.174447500949      -0.382055744654     -0.825366893396     -0.376033880924     
2900000000.0        -0.835266075205     -0.367206450417     0.16454663952       -0.373445054983     0.16454663952       -0.373445054983     -0.835266075205     -0.367206450417     
3000000000.0        -0.844398429951     -0.358628586368     0.155412555925      -0.365084094749     0.155412555925      -0.365084094749     -0.844398429951     -0.358628586368     
3100000000.0        -0.852835768924     -0.350305963401     0.146973438566      -0.356978543029     0.146973438566      -0.356978543029     -0.852835768924     -0.350305963401     
3200000000.0        -0.860642427568     -0.342240538232     0.139164951702      -0.349130360968     0.139164951702      -0.349130360968     -0.860642427568     -0.342240538232     
3300000000.0        -0.867876057303     -0.334431421758     0.131929443625      -0.34153866387      0.131929443625      -0.34153866387      -0.867876057303     -0.334431421758     
3400000000.0        -0.87458834617      -0.326875570362     0.125215226014      -0.334200412505     0.125215226014      -0.334200412505     -0.87458834617      -0.326875570362     
3500000000.0        -0.880825669104     -0.319568332855     0.118975923661      -0.327110960053     0.118975923661      -0.327110960053     -0.880825669104     -0.319568332855     
3600000000.0        -0.886629671071     -0.312503882287     0.11316989133       -0.320264483912     0.11316989133       -0.320264483912     -0.886629671071     -0.312503882287     
3700000000.0        -0.892037787627     -0.305675555971     0.107759693204      -0.313654325731     0.107759693204      -0.313654325731     -0.892037787627     -0.305675555971     
3800000000.0        -0.897083708099     -0.299076122401     0.102711639695      -0.30727325832      0.102711639695      -0.30727325832      -0.897083708099     -0.299076122401     
3900000000.0        -0.901797786764     -0.292697989938     0.0979953762683     -0.301113694345     0.0979953762683     -0.301113694345     -0.901797786764     -0.292697989938     
4000000000.0        -0.906207407295     -0.286533369165     0.0935835189969     -0.295167848679     0.0935835189969     -0.295167848679     -0.906207407295     -0.286533369165     
4100000000.0        -0.910337305471     -0.280574398373     0.0894513318463     -0.289427863892     0.0894513318463     -0.289427863892     -0.910337305471     -0.280574398373     
4200000000.0        -0.914209854796     -0.274813239754     0.0855764410621     -0.283885906444     0.0855764410621     -0.283885906444     -0.914209854796     -0.274813239754     
4300000000.0        -0.917845319232     -0.269242152328     0.0819385824281     -0.278534239612     0.0819385824281     -0.278534239612     -0.917845319232     -0.269242152328     
4400000000.0        -0.921262076897     -0.263853546427     0.0785193775765     -0.273365277978     0.0785193775765     -0.273365277978     -0.921262076897     -0.263853546427     
4500000000.0        -0.92447681811      -0.258640023573     0.0753021359351     -0.268371627304     0.0753021359351     -0.268371627304     -0.92447681811      -0.258640023573     
4600000000.0        -0.927504720852     -0.253594404832     0.0722716792707     -0.26354611289      0.0722716792707     -0.26354611289      -0.927504720852     -0.253594404832     
4700000000.0        -0.930359606313     -0.248709750097     0.0694141861374     -0.258881798857     0.0694141861374     -0.258881798857     -0.930359606313     -0.248709750097     
4800000000.0        -0.933054076922     -0.243979370254     0.066717053854      -0.254372000314     0.066717053854      -0.254372000314     -0.933054076922     -0.243979370254     
4900000000.0        -0.935599638923     -0.239396833799     0.0641687759187     -0.250010289974     0.0641687759187     -0.250010289974     -0.935599638923     -0.239396833799     
5000000000.0        -0.938006811368     -0.234955969164     0.061758833022      -0.245790500484     0.061758833022      -0.245790500484     -0.938006811368     -0.234955969164     
5100000000.0        -0.940285223115     -0.230650863736     0.059477596045      -0.241706723444     0.059477596045      -0.241706723444     -0.940285223115     -0.230650863736     
5200000000.0        -0.942443699264     -0.226475860375     0.0573162396259     -0.237753305923     0.0573162396259     -0.237753305923     -0.942443699264     -0.226475860375     
5300000000.0        -0.944490338262     -0.222425552059     0.0552666650536     -0.233924845108     0.0552666650536     -0.233924845108     -0.944490338262     -0.222425552059     
5400000000.0        -0.94643258077      -0.218494775154     0.0533214313996     -0.230216181576     0.0533214313996     -0.230216181576     -0.94643258077      -0.218494775154     
5500000000.0        -0.94827727125      -0.214678601722     0.0514736939329     -0.226622391597     0.0514736939329     -0.226622391597     -0.94827727125      -0.214678601722     
5600000000.0        -0.950030713103     -0.21097233116      0.0497171489801     -0.22313877878      0.0497171489801     -0.22313877878      -0.950030713103     -0.21097233116      
5700000000.0        -0.951698718099     -0.207371481433     0.0480459844955     -0.219760865303     0.0480459844955     -0.219760865303     -0.951698718099     -0.207371481433     
5800000000.0        -0.953286650745     -0.203871780091     0.0464548356945     -0.216484382932     0.0464548356945     -0.216484382932     -0.953286650745     -0.203871780091     
5900000000.0        -0.954799468153     -0.200469155215     0.0449387451835     -0.213305263968     0.0449387451835     -0.213305263968     -0.954799468153     -0.200469155215     
6000000000.0        -0.956241755916     -0.197159726409     0.0434931270854     -0.21021963224      0.0434931270854     -0.21021963224      -0.956241755916     -0.197159726409     
6100000000.0        -0.957617760424     -0.193939795931     0.0421137347211     -0.207223794235     0.0421137347211     -0.207223794235     -0.957617760424     -0.193939795931     
6200000000.0        -0.958931418016     -0.190805840021     0.0407966314604     -0.204314230429     0.0407966314604     -0.204314230429     -0.958931418016     -0.190805840021     
6300000000.0        -0.960186381303     -0.187754500476     0.0395381643976     -0.201487586859     0.0395381643976     -0.201487586859     -0.960186381303     -0.187754500476     
6400000000.0        -0.961386042966     -0.184782576509     0.0383349405525     -0.198740666989     0.0383349405525     -0.198740666989     -0.961386042966     -0.184782576509     
6500000000.0        -0.962533557301     -0.181887016912     0.0371838053268     -0.196070423866     0.0371838053268     -0.196070423866     -0.962533557301     -0.181887016912     
6600000000.0        -0.96363185974      -0.179064912532     0.0360818229814     -0.193473952606     0.0360818229814     -0.193473952606     -0.96363185974      -0.179064912532     
6700000000.0        -0.964683684567     -0.176313489082     0.0350262589241     -0.190948483194     0.0350262589241     -0.190948483194     -0.964683684567     -0.176313489082     
6800000000.0        -0.965691580999     -0.173630100269     0.0340145636211     -0.188491373624     0.0340145636211     -0.188491373624     -0.965691580999     -0.173630100269     
6900000000.0        -0.966657927823     -0.171012221253     0.0330443579684     -0.186100103349     0.0330443579684     -0.186100103349     -0.966657927823     -0.171012221253     
7000000000.0        -0.967584946706     -0.16845744242      0.0321134199755     -0.183772267066     0.0321134199755     -0.183772267066     -0.967584946706     -0.16845744242      
7100000000.0        -0.968474714333     -0.165963463475     0.0312196726304     -0.181505568796     0.0312196726304     -0.181505568796     -0.968474714333     -0.165963463475     
7200000000.0        -0.969329173477     -0.163528087825     0.03036117283       -0.17929781628      0.03036117283       -0.17929781628      -0.969329173477     -0.163528087825     
7300000000.0        -0.970150143105     -0.161149217266     0.0295361012712     -0.177146915656     0.0295361012712     -0.177146915656     -0.970150143105     -0.161149217266     
7400000000.0        -0.97093932762      -0.158824846938     0.0287427532106     -0.175050866427     0.0287427532106     -0.175050866427     -0.97093932762      -0.158824846938     
7500000000.0        -0.971698325317     -0.15655306056      0.0279795300091     -0.173007756682     0.0279795300091     -0.173007756682     -0.971698325317     -0.15655306056      
7600000000.0        -0.972428636126     -0.154332025912     0.0272449313874     -0.171015758591     0.0272449313874     -0.171015758591     -0.972428636126     -0.154332025912     
7700000000.0        -0.973131668712     -0.152159990564     0.0265375483254     -0.169073124128     0.0265375483254     -0.169073124128     -0.973131668712     -0.152159990564     
7800000000.0        -0.973808746993     -0.150035277837     0.0258560565465     -0.167178181036     0.0258560565465     -0.167178181036     -0.973808746993     -0.150035277837     
7900000000.0        -0.974461116126     -0.147956282987     0.0251992105322     -0.165329329009     0.0251992105322     -0.165329329009     -0.974461116126     -0.147956282987     
8000000000.0        -0.975089948003     -0.14592146959      0.0245658380191     -0.16352503608      0.0245658380191     -0.16352503608      -0.975089948003     -0.14592146959      
8100000000.0        -0.975696346325     -0.143929366137     0.0239548349351     -0.161763835211     0.0239548349351     -0.161763835211     -0.975696346325     -0.143929366137     
8200000000.0        -0.976281351258     -0.141978562799     0.023365160735      -0.160044321069     0.023365160735      -0.160044321069     -0.976281351258     -0.141978562799     
8300000000.0        -0.976845943735     -0.140067708385     0.0227958341013     -0.158365146974     0.0227958341013     -0.158365146974     -0.976845943735     -0.140067708385     
8400000000.0        -0.977391049425     -0.138195507455     0.0222459289768     -0.156725022021     0.0222459289768     -0.156725022021     -0.977391049425     -0.138195507455     
8500000000.0        -0.977917542394     -0.1363607176       0.0217145709019     -0.155122708353     0.0217145709019     -0.155122708353     -0.977917542394     -0.1363607176       
8600000000.0        -0.97842624849      -0.13456214686      0.0212009336284     -0.153557018586     0.0212009336284     -0.153557018586     -0.97842624849      -0.13456214686      
8700000000.0        -0.978917948475     -0.13279865129      0.0207042359892     -0.152026813372     0.0207042359892     -0.152026813372     -0.978917948475     -0.13279865129      
8800000000.0        -0.979393380925     -0.131069132656     0.0202237389991     -0.150530999097     0.0202237389991     -0.150530999097     -0.979393380925     -0.131069132656     
8900000000.0        -0.979853244911     -0.129372536252     0.0197587431701     -0.149068525698     0.0197587431701     -0.149068525698     -0.979853244911     -0.129372536252     
9000000000.0        -0.980298202493     -0.127707848841     0.0193085860219     -0.147638384605     0.0193085860219     -0.147638384605     -0.980298202493     -0.127707848841     
9100000000.0        -0.980728881025     -0.126074096701     0.0188726397724     -0.146239606788     0.0188726397724     -0.146239606788     -0.980728881025     -0.126074096701     
9200000000.0        -0.981145875303     -0.124470343775     0.0184503091933     -0.144871260905     0.0184503091933     -0.144871260905     -0.981145875303     -0.124470343775     
9300000000.0        -0.981549749555     -0.122895689924     0.0180410296176     -0.143532451561     0.0180410296176     -0.143532451561     -0.981549749555     -0.122895689924     
9400000000.0        -0.981941039294     -0.121349269266     0.0176442650869     -0.142222317642     0.0176442650869     -0.142222317642     -0.981941039294     -0.121349269266     
9500000000.0        -0.982320253044     -0.119830248612     0.0172595066276     -0.140940030752     0.0172595066276     -0.140940030752     -0.982320253044     -0.119830248612     
9600000000.0        -0.98268787394      -0.118337825968     0.016886270646      -0.139684793724     0.016886270646      -0.139684793724     -0.98268787394      -0.118337825968     
9700000000.0        -0.983044361231     -0.116871229134     0.0165240974325     -0.138455839205     0.0165240974325     -0.138455839205     -0.983044361231     -0.116871229134     
9800000000.0        -0.983390151666     -0.115429714361     0.0161725497673     -0.137252428329     0.0161725497673     -0.137252428329     -0.983390151666     -0.115429714361     
9900000000.0        -0.9837256608       -0.114012565082     0.0158312116195     -0.136073849436     0.0158312116195     -0.136073849436     -0.9837256608       -0.114012565082     
10000000000.0       -0.984051284209     -0.112619090714     0.0154996869327     -0.134919416882     0.0154996869327     -0.134919416882     -0.984051284209     -0.112619090714     
