# Hz S RI R 50.00 
100000000.0         0.000846156935181   -0.00312263023153   0.999111374711      -0.00506408027037   0.999111374711      -0.00506408027037   0.000846156935181   -0.00312263023153   
200000000.0         0.000800570161595   -0.00624489718428   0.999048454601      -0.0101277753819    0.999048454601      -0.0101277753819    0.000800570161595   -0.00624489718428   
300000000.0         0.000721847911415   -0.00936644175855   0.998951645208      -0.015190758204     0.998951645208      -0.015190758204     0.000721847911415   -0.00936644175855   
400000000.0         0.000610750950073   -0.0124869037144    0.998820209153      -0.0202526866243    0.998820209153      -0.0202526866243    0.000610750950073   -0.0124869037144    
500000000.0         0.000467583977313   -0.0156059208022    0.998653875019      -0.0253132127528    0.998653875019      -0.0253132127528    0.000467583977313   -0.0156059208022    
600000000.0         0.000292515460266   -0.0187231293383    0.998452517692      -0.0303719853901    0.998452517692      -0.0303719853901    0.000292515460266   -0.0187231293383    
700000000.0         8.56588881031e-05   -0.0218381646589    0.998216077216      -0.0354286512144    0.998216077216      -0.0354286512144    8.56588881029e-05   -0.0218381646589    
800000000.0         -0.000152897583195  -0.024950661467     0.997944529233      -0.0404828554935    0.997944529233      -0.0404828554935    -0.000152897583195  -0.024950661467     
900000000.0         -0.000423077934233  -0.0280602541075    0.997637871839      -0.0455342425695    0.997637871839      -0.0455342425695    -0.000423077934233  -0.0280602541075    
1000000000.0        -0.000724811594587  -0.0311665767982    0.997296118936      -0.050582456221     0.997296118936      -0.050582456221     -0.000724811594587  -0.0311665767982    
1100000000.0        -0.00105802972732   -0.0342692638281    0.996919296544      -0.0556271399503    0.996919296544      -0.0556271399503    -0.00105802972732   -0.0342692638281    
1200000000.0        -0.00142266301795   -0.0373679497344    0.996507440602      -0.0606679372231    0.996507440602      -0.0606679372231    -0.00142266301795   -0.0373679497344    
1300000000.0        -0.0018186402873    -0.0404622694635    0.996060595588      -0.0657044916751    0.996060595588      -0.0657044916751    -0.0018186402873    -0.0404622694635    
1400000000.0        -0.00224588758439   -0.0435518585199    0.995578813601      -0.0707364472969    0.995578813601      -0.0707364472969    -0.00224588758439   -0.0435518585199    
1500000000.0        -0.00270432757382   -0.0466363531065    0.99506215374       -0.0757634486005    0.99506215374       -0.0757634486005    -0.00270432757382   -0.0466363531065    
1600000000.0        -0.00319387911147   -0.049715390257     0.994510681661      -0.080785140774     0.994510681661      -0.080785140774     -0.00319387911147   -0.049715390257     
1700000000.0        -0.00371445694537   -0.0527886079628    0.993924469247      -0.0858011698258    0.993924469247      -0.0858011698258    -0.00371445694537   -0.0527886079628    
1800000000.0        -0.00426597150218   -0.055855645295     0.993303594364      -0.0908111827216    0.993303594364      -0.0908111827216    -0.00426597150218   -0.055855645295     
1900000000.0        -0.00484832873428   -0.0589161425225    0.992648140669      -0.0958148275137    0.992648140669      -0.0958148275137    -0.00484832873428   -0.0589161425225    
2000000000.0        -0.0054614300105    -0.0619697412266    0.991958197453      -0.100811753466     0.991958197453      -0.100811753466     -0.0054614300105    -0.0619697412266    
2100000000.0        -0.00610517203938   -0.065016084412     0.991233859518      -0.105801611175     0.991233859518      -0.105801611175     -0.00610517203938   -0.065016084412     
2200000000.0        -0.00677944681695   -0.0680548166161    0.990475227066      -0.110784052684     0.990475227066      -0.110784052684     -0.00677944681695   -0.0680548166161    
2300000000.0        -0.00748414159358   -0.0710855840145    0.989682405607      -0.115758731596     0.989682405607      -0.115758731596     -0.00748414159358   -0.0710855840145    
2400000000.0        -0.00821913885575   -0.0741080345257    0.988855505874      -0.120725303187     0.988855505874      -0.120725303187     -0.00821913885575   -0.0741080345257    
2500000000.0        -0.00898431631994   -0.0771218179122    0.987994643744      -0.125683424507     0.987994643744      -0.125683424507     -0.00898431631994   -0.0771218179122    
2600000000.0        -0.00977954693639   -0.0801265858808    0.987099940171      -0.130632754487     0.987099940171      -0.130632754487     -0.00977954693639   -0.0801265858808    
2700000000.0        -0.010604698901     -0.08312199218      0.986171521114      -0.135572954041     0.986171521114      -0.135572954041     -0.010604698901     -0.08312199218      
2800000000.0        -0.0114596356742    -0.0861076926962    0.985209517476      -0.140503686166     0.985209517476      -0.140503686166     -0.0114596356742    -0.0861076926962    
2900000000.0        -0.0123442160057    -0.0890833455477    0.984214065033      -0.145424616037     0.984214065033      -0.145424616037     -0.0123442160057    -0.0890833455477    
3000000000.0        -0.0132582939645    -0.092048611177     0.98318530438       -0.150335411103     0.98318530438       -0.150335411103     -0.0132582939645    -0.092048611177     
3100000000.0        -0.0142017189734    -0.0950031524415    0.982123380861      -0.155235741179     0.982123380861      -0.155235741179     -0.0142017189734    -0.0950031524415    
3200000000.0        -0.0151743358474    -0.0979466347022    0.981028444512      -0.160125278542     0.981028444512      -0.160125278542     -0.0151743358474    -0.0979466347022    
3300000000.0        -0.016175984836     -0.100878725911     0.979900649996      -0.165003698011     0.979900649996      -0.165003698011     -0.016175984836     -0.100878725911     
3400000000.0        -0.0172065016685    -0.103799096694     0.978740156539      -0.169870677045     0.978740156539      -0.169870677045     -0.0172065016685    -0.103799096694     
3500000000.0        -0.0182657176025    -0.10670742044      0.97754712787       -0.174725895818     0.97754712787       -0.174725895818     -0.0182657176025    -0.10670742044      
3600000000.0        -0.0193534594751    -0.109603373377     0.976321732152      -0.179569037309     0.976321732152      -0.179569037309     -0.0193534594751    -0.109603373377     
3700000000.0        -0.0204695497566    -0.112486634653     0.975064141921      -0.184399787383     0.975064141921      -0.184399787383     -0.0204695497566    -0.112486634653     
3800000000.0        -0.0216138066066    -0.115356886419     0.973774534018      -0.189217834866     0.973774534018      -0.189217834866     -0.0216138066066    -0.115356886419     
3900000000.0        -0.0227860439326    -0.118213813898     0.972453089518      -0.194022871627     0.972453089518      -0.194022871627     -0.0227860439326    -0.118213813898     
4000000000.0        -0.0239860714499    -0.121057105467     0.971099993671      -0.198814592652     0.971099993671      -0.198814592652     -0.0239860714499    -0.121057105467     
4100000000.0        -0.0252136947447    -0.123886452725     0.969715435821      -0.203592696118     0.969715435821      -0.203592696118     -0.0252136947447    -0.123886452725     
4200000000.0        -0.0264687153377    -0.126701550565     0.968299609347      -0.208356883466     0.968299609347      -0.208356883466     -0.0264687153377    -0.126701550565     
4300000000.0        -0.0277509307501    -0.129502097245     0.966852711582      -0.213106859469     0.966852711582      -0.213106859469     -0.0277509307501    -0.129502097245     
4400000000.0        -0.0290601345718    -0.13228779445      0.965374943746      -0.217842332301     0.965374943746      -0.217842332301     -0.0290601345718    -0.13228779445      
4500000000.0        -0.0303961165295    -0.135058347367     0.963866510871      -0.222563013603     0.963866510871      -0.222563013603     -0.0303961165295    -0.135058347367     
4600000000.0        -0.0317586625585    -0.137813464738     0.962327621726      -0.227268618548     0.962327621726      -0.227268618548     -0.0317586625585    -0.137813464738     
4700000000.0        -0.0331475548734    -0.140552858927     0.960758488743      -0.231958865903     0.960758488743      -0.231958865903     -0.0331475548734    -0.140552858927     
4800000000.0        -0.0345625720425    -0.143276245982     0.959159327937      -0.236633478085     0.959159327937      -0.236633478085     -0.0345625720425    -0.143276245982     
4900000000.0        -0.0360034890615    -0.145983345684     0.957530358833      -0.241292181227     0.957530358833      -0.241292181227     -0.0360034890615    -0.145983345684     
5000000000.0        -0.0374700774294    -0.148673881614     0.955871804384      -0.245934705229     0.955871804384      -0.245934705229     -0.0374700774294    -0.148673881614     
5100000000.0        -0.0389621052255    -0.151347581197     0.954183890895      -0.25056078381      0.954183890895      -0.25056078381      -0.0389621052255    -0.151347581197     
5200000000.0        -0.0404793371867    -0.154004175759     0.952466847938      -0.255170154569     0.952466847938      -0.255170154569     -0.0404793371867    -0.154004175759     
5300000000.0        -0.0420215347863    -0.156643400577     0.950720908278      -0.259762559025     0.950720908278      -0.259762559025     -0.0420215347863    -0.156643400577     
5400000000.0        -0.0435884563138    -0.159264994924     0.948946307786      -0.264337742671     0.948946307786      -0.264337742671     -0.0435884563138    -0.159264994924     
5500000000.0        -0.0451798569552    -0.161868702117     0.947143285361      -0.26889545502      0.947143285361      -0.26889545502      -0.0451798569552    -0.161868702117     
5600000000.0        -0.0467954888739    -0.164454269559     0.945312082841      -0.273435449647     0.945312082841      -0.273435449647     -0.0467954888739    -0.164454269559     
5700000000.0        -0.0484351012929    -0.167021448784     0.943452944927      -0.277957484232     0.943452944927      -0.277957484232     -0.0484351012929    -0.167021448784     
5800000000.0        -0.0500984405771    -0.169569995493     0.941566119097      -0.282461320601     0.941566119097      -0.282461320601     -0.0500984405771    -0.169569995493     
5900000000.0        -0.0517852503165    -0.172099669595     0.939651855516      -0.286946724763     0.939651855516      -0.286946724763     -0.0517852503165    -0.172099669595     
6000000000.0        -0.0534952714095    -0.174610235241     0.937710406959      -0.291413466945     0.937710406959      -0.291413466945     -0.0534952714095    -0.174610235241     
6100000000.0        -0.0552282421474    -0.177101460857     0.935742028722      -0.295861321627     0.935742028722      -0.295861321627     -0.0552282421474    -0.177101460857     
6200000000.0        -0.0569838982983    -0.179573119178     0.933746978536      -0.300290067577     0.933746978536      -0.300290067577     -0.0569838982983    -0.179573119178     
6300000000.0        -0.0587619731927    -0.182024987278     0.931725516483      -0.304699487873     0.931725516483      -0.304699487873     -0.0587619731927    -0.182024987278     
6400000000.0        -0.0605621978075    -0.184456846594     0.929677904909      -0.30908936994      0.929677904909      -0.30908936994      -0.0605621978075    -0.184456846594     
6500000000.0        -0.0623843008525    -0.186868482955     0.927604408336      -0.31345950557      0.927604408336      -0.31345950557      -0.0623843008525    -0.186868482955     
6600000000.0        -0.064228008855     -0.189259686608     0.925505293379      -0.317809690945     0.925505293379      -0.317809690945     -0.064228008855     -0.189259686608     
6700000000.0        -0.0660930462461    -0.191630252232     0.923380828658      -0.322139726666     0.923380828658      -0.322139726666     -0.0660930462461    -0.191630252232     
6800000000.0        -0.0679791354461    -0.193979978966     0.921231284711      -0.326449417765     0.921231284711      -0.326449417765     -0.0679791354461    -0.193979978966     
6900000000.0        -0.0698859969504    -0.196308670424     0.919056933908      -0.330738573727     0.919056933908      -0.330738573727     -0.0698859969504    -0.196308670424     
7000000000.0        -0.0718133494151    -0.198616134708     0.916858050364      -0.335007008504     0.916858050364      -0.335007008504     -0.0718133494151    -0.198616134708     
7100000000.0        -0.0737609097429    -0.200902184427     0.914634909853      -0.339254540532     0.914634909853      -0.339254540532     -0.0737609097429    -0.200902184427     
7200000000.0        -0.0757283931686    -0.203166636705     0.912387789722      -0.343480992739     0.912387789722      -0.343480992739     -0.0757283931686    -0.203166636705     
7300000000.0        -0.0777155133445    -0.205409313194     0.910116968805      -0.34768619256      0.910116968805      -0.34768619256      -0.0777155133445    -0.205409313194     
7400000000.0        -0.0797219824256    -0.20763004008      0.907822727337      -0.351869971939     0.907822727337      -0.351869971939     -0.0797219824256    -0.20763004008      
7500000000.0        -0.0817475111542    -0.209828648093     0.905505346867      -0.356032167343     0.905505346867      -0.356032167343     -0.0817475111542    -0.209828648093     
7600000000.0        -0.0837918089452    -0.212004972508     0.903165110175      -0.36017261976      0.903165110175      -0.36017261976      -0.0837918089452    -0.212004972508     
7700000000.0        -0.08585458397      -0.214158853147     0.900802301188      -0.364291174704     0.900802301188      -0.364291174704     -0.08585458397      -0.214158853147     
7800000000.0        -0.08793554324      -0.216290134386     0.898417204891      -0.368387682218     0.898417204891      -0.368387682218     -0.08793554324      -0.216290134386     
7900000000.0        -0.0900343926909    -0.218398665147     0.896010107248      -0.372461996869     0.896010107248      -0.372461996869     -0.0900343926909    -0.218398665147     
8000000000.0        -0.092150837265     -0.2204842989       0.893581295116      -0.37651397775      0.893581295116      -0.37651397775      -0.092150837265     -0.2204842989       
8100000000.0        -0.0942845809939    -0.222546893658     0.891131056161      -0.380543488472     0.891131056161      -0.380543488472     -0.0942845809939    -0.222546893658     
8200000000.0        -0.0964353270806    -0.22458631197      0.888659678778      -0.384550397159     0.888659678778      -0.384550397159     -0.0964353270806    -0.22458631197      
8300000000.0        -0.0986027779804    -0.226602420913     0.886167452009      -0.388534576439     0.886167452009      -0.388534576439     -0.0986027779804    -0.226602420913     
8400000000.0        -0.100786635482     -0.228595092083     0.88365466546       -0.392495903439     0.88365466546       -0.392495903439     -0.100786635482     -0.228595092083     
8500000000.0        -0.102986600787     -0.230564201588     0.881121609221      -0.396434259768     0.881121609221      -0.396434259768     -0.102986600787     -0.230564201588     
8600000000.0        -0.10520237459      -0.232509630027     0.878568573788      -0.400349531508     0.878568573788      -0.400349531508     -0.10520237459      -0.232509630027     
8700000000.0        -0.107433657157     -0.234431262483     0.875995849981      -0.404241609199     0.875995849981      -0.404241609199     -0.107433657157     -0.234431262483     
8800000000.0        -0.109680148401     -0.236328988507     0.873403728868      -0.40811038782      0.873403728868      -0.40811038782      -0.109680148401     -0.236328988507     
8900000000.0        -0.111941547965     -0.238202702095     0.870792501688      -0.411955766779     0.870792501688      -0.411955766779     -0.111941547965     -0.238202702095     
9000000000.0        -0.11421755529      -0.240052301676     0.868162459771      -0.415777649885     0.868162459771      -0.415777649885     -0.11421755529      -0.240052301676     
9100000000.0        -0.116507869696     -0.241877690088     0.865513894466      -0.419575945336     0.865513894466      -0.419575945336     -0.116507869696     -0.241877690088     
9200000000.0        -0.118812190456     -0.243678774558     0.862847097063      -0.42335056569      0.862847097063      -0.42335056569      -0.118812190456     -0.243678774558     
9300000000.0        -0.121130216868     -0.245455466678     0.860162358722      -0.427101427849     0.860162358722      -0.427101427849     -0.121130216868     -0.245455466678     
9400000000.0        -0.123461648326     -0.247207682382     0.857459970398      -0.430828453026     0.857459970398      -0.430828453026     -0.123461648326     -0.247207682382     
9500000000.0        -0.125806184398     -0.248935341918     0.854740222768      -0.434531566729     0.854740222768      -0.434531566729     -0.125806184398     -0.248935341918     
9600000000.0        -0.128163524888     -0.250638369826     0.852003406163      -0.438210698726     0.852003406163      -0.438210698726     -0.128163524888     -0.250638369826     
9700000000.0        -0.130533369912     -0.252316694903     0.849249810495      -0.441865783019     0.849249810495      -0.441865783019     -0.130533369912     -0.252316694903     
9800000000.0        -0.132915419965     -0.25397025018      0.84647972519       -0.445496757817     0.84647972519       -0.445496757817     -0.132915419965     -0.25397025018      
9900000000.0        -0.135309375986     -0.255598972887     0.843693439118      -0.4491035655       0.843693439118      -0.4491035655       -0.135309375986     -0.255598972887     
10000000000.0       -0.137714939429     -0.257202804425     0.840891240529      -0.452686152593     0.840891240529      -0.452686152593     -0.137714939429     -0.257202804425     
