# Hz S RI R 50.00 
100000000.0         -0.00090870885625   -0.02971363997      0.999078641715      -0.0297524920699    0.999078641715      -0.0297524920699    -0.00090870885625   -0.02971363997      
200000000.0         -0.00358293879988   -0.0592637769675    0.996404323039      -0.0593414898908    0.996404323039      -0.0593414898908    -0.00358293879988   -0.0592637769675    
300000000.0         -0.00798792279071   -0.0884946730168    0.991999270544      -0.0886112599181    0.991999270544      -0.0886112599181    -0.00798792279071   -0.0884946730168    
400000000.0         -0.0140767356257    -0.11725657532      0.985910398564      -0.117412052692     0.985910398564      -0.117412052692     -0.0140767356257    -0.11725657532      
500000000.0         -0.0217858081542    -0.145408049223     0.978201272086      -0.145602436314     0.978201272086      -0.145602436314     -0.0217858081542    -0.145408049223     
600000000.0         -0.0310365725011    -0.172818110789     0.96895045687       -0.173051429195     0.96895045687       -0.173051429195     -0.0310365725011    -0.172818110789     
700000000.0         -0.0417374153222    -0.199368023116     0.958249565018      -0.199640296471     0.958249565018      -0.199640296471     -0.0417374153222    -0.199368023116     
800000000.0         -0.053785854803     -0.22495269785      0.946201077543      -0.225263951569     0.946201077543      -0.225263951569     -0.053785854803     -0.22495269785      
900000000.0         -0.0670708518032    -0.249481674544     0.932916033033      -0.249831935604     0.932916033033      -0.249831935604     -0.0670708518032    -0.249481674544     
1000000000.0        -0.0814751662121    -0.272879674695     0.918511671201      -0.273268971447     0.918511671201      -0.273268971447     -0.0814751662121    -0.272879674695     
1100000000.0        -0.0968776755296    -0.295086747705     0.903109114247      -0.295515109702     0.903109114247      -0.295515109702     -0.0968776755296    -0.295086747705     
1200000000.0        -0.113155582792     -0.316058042607     0.886831158907      -0.316525500457     0.886831158907      -0.316525500457     -0.113155582792     -0.316058042607     
1300000000.0        -0.13018645399      -0.335763252007     0.869800239009      -0.336269837232     0.869800239009      -0.336269837232     -0.13018645399      -0.335763252007     
1400000000.0        -0.147850039672     -0.354185782883     0.852136603858      -0.354731527798     0.852136603858      -0.354731527798     -0.147850039672     -0.354185782883     
1500000000.0        -0.166029850375     -0.371321713058     0.833956742797      -0.371906650653     0.833956742797      -0.371906650653     -0.166029850375     -0.371321713058     
1600000000.0        -0.184614469757     -0.387178592534     0.815372072069      -0.387802756372     0.815372072069      -0.387802756372     -0.184614469757     -0.387178592534     
1700000000.0        -0.20349860206      -0.401774146226     0.796487887348      -0.402437570346     0.796487887348      -0.402437570346     -0.20349860206      -0.401774146226     
1800000000.0        -0.222583861322     -0.415134929566     0.777402574525      -0.415837648394     0.777402574525      -0.415837648394     -0.222583861322     -0.415134929566     
1900000000.0        -0.241779318223     -0.42729498185      0.758207062859      -0.428037030121     0.758207062859      -0.428037030121     -0.241779318223     -0.42729498185      
2000000000.0        -0.261001826667     -0.438294514653     0.738984498393      -0.439075927329     0.738984498393      -0.439075927329     -0.261001826667     -0.438294514653     
2100000000.0        -0.280176156132     -0.448178664838     0.719810111602      -0.448999477047     0.719810111602      -0.448999477047     -0.280176156132     -0.448178664838     
2200000000.0        -0.299234957904     -0.456996334151     0.70075125116       -0.45785658112      0.70075125116       -0.45785658112      -0.299234957904     -0.456996334151     
2300000000.0        -0.318118593671     -0.464799130347     0.681867555342      -0.465698847342     0.681867555342      -0.465698847342     -0.318118593671     -0.464799130347     
2400000000.0        -0.336774854108     -0.471640418668     0.663211233441      -0.472579640944     0.663211233441      -0.472579640944     -0.336774854108     -0.471640418668     
2500000000.0        -0.35515859321      -0.477574487258     0.644827431434      -0.478553250009     0.644827431434      -0.478553250009     -0.35515859321      -0.477574487258     
2600000000.0        -0.373231301713     -0.482655825854     0.626754658558      -0.483674164168     0.626754658558      -0.483674164168     -0.373231301713     -0.482655825854     
2700000000.0        -0.390960640098     -0.486938513837     0.609025254308      -0.487996462654     0.609025254308      -0.487996462654     -0.390960640098     -0.486938513837     
2800000000.0        -0.408319948709     -0.490475711298     0.591665878321      -0.491573305377     0.591665878321      -0.491573305377     -0.408319948709     -0.490475711298     
2900000000.0        -0.42528774959      -0.493319245172     0.574698008531      -0.494456519055     0.574698008531      -0.494456519055     -0.42528774959      -0.493319245172     
3000000000.0        -0.441847251859     -0.495519281496     0.558138435803      -0.496696269477     0.558138435803      -0.496696269477     -0.441847251859     -0.495519281496     
3100000000.0        -0.457985869879     -0.497124074411     0.541999745757      -0.498340810509     0.541999745757      -0.498340810509     -0.457985869879     -0.497124074411     
3200000000.0        -0.473694761229     -0.498179782499     0.526290780801      -0.499436300435     0.526290780801      -0.499436300435     -0.473694761229     -0.498179782499     
3300000000.0        -0.488968389485     -0.498730343327     0.511017077343      -0.500026676501     0.511017077343      -0.500026676501     -0.488968389485     -0.498730343327     
3400000000.0        -0.503804115194     -0.49881739757      0.496181274824      -0.500153579042     0.496181274824      -0.500153579042     -0.503804115194     -0.49881739757      
3500000000.0        -0.518201816995     -0.498480254743     0.481783494594      -0.499856317215     0.481783494594      -0.499856317215     -0.518201816995     -0.498480254743     
3600000000.0        -0.53216354376      -0.497755893289     0.467821687767      -0.499171869091     0.467821687767      -0.499171869091     -0.53216354376      -0.497755893289     
3700000000.0        -0.54569319776      -0.49667898856      0.454291952065      -0.498134909637     0.454291952065      -0.498134909637     -0.54569319776      -0.49667898856      
3800000000.0        -0.558796248138     -0.495281962973     0.441188818334      -0.496777860874     0.441188818334      -0.496777860874     -0.558796248138     -0.495281962973     
3900000000.0        -0.571479473547     -0.493595053382     0.428505507912      -0.49513095925      0.428505507912      -0.49513095925      -0.571479473547     -0.493595053382     
4000000000.0        -0.583750732409     -0.491646391403     0.416234162368      -0.493222335967     0.416234162368      -0.493222335967     -0.583750732409     -0.491646391403     
4100000000.0        -0.595618759046     -0.489462093061     0.404366047372      -0.49107810663      0.404366047372      -0.49107810663      -0.595618759046     -0.489462093061     
4200000000.0        -0.607092983809     -0.487066354733     0.392891732567      -0.488722467191     0.392891732567      -0.488722467191     -0.607092983809     -0.487066354733     
4300000000.0        -0.618183375262     -0.484481552852     0.381801249381      -0.486177793655     0.381801249381      -0.486177793655     -0.618183375262     -0.484481552852     
4400000000.0        -0.628900302487     -0.481728345333     0.371084228726      -0.483464743503     0.371084228726      -0.483464743503     -0.628900302487     -0.481728345333     
4500000000.0        -0.639254415633     -0.478825773035     0.360730020445      -0.480602357163     0.360730020445      -0.480602357163     -0.639254415633     -0.478825773035     
4600000000.0        -0.649256542892     -0.475791359964     0.350727796343      -0.477608158207     0.350727796343      -0.477608158207     -0.649256542892     -0.475791359964     
4700000000.0        -0.65891760219      -0.472641211183     0.341066638486      -0.474498251263     0.341066638486      -0.474498251263     -0.65891760219      -0.472641211183     
4800000000.0        -0.66824852601      -0.46939010764      0.331735614387      -0.471287416848     0.331735614387      -0.471287416848     -0.66824852601      -0.46939010764      
4900000000.0        -0.677260197847     -0.466051597378     0.322723840546      -0.467989202573     0.322723840546      -0.467989202573     -0.677260197847     -0.466051597378     
5000000000.0        -0.685963398951     -0.462638082687     0.314020535707      -0.464616010301     0.314020535707      -0.464616010301     -0.685963398951     -0.462638082687     
5100000000.0        -0.694368764122     -0.459160902976     0.305615065068      -0.461179179016     0.305615065068      -0.461179179016     -0.694368764122     -0.459160902976     
5200000000.0        -0.702486745422     -0.455630413203     0.297496976561      -0.457689063253     0.297496976561      -0.457689063253     -0.702486745422     -0.455630413203     
5300000000.0        -0.710327582808     -0.452056057813     0.289656030225      -0.45415510704      0.289656030225      -0.45415510704      -0.710327582808     -0.452056057813     
5400000000.0        -0.717901280778     -0.448446440212     0.282082221559      -0.450585913372     0.282082221559      -0.450585913372     -0.717901280778     -0.448446440212     
5500000000.0        -0.725217590209     -0.444809387848     0.274765799682      -0.446989309288     0.274765799682      -0.446989309288     -0.725217590209     -0.444809387848     
5600000000.0        -0.732285994686     -0.441152013015     0.267697281005      -0.443372406678     0.267697281005      -0.443372406678     -0.732285994686     -0.441152013015     
5700000000.0        -0.739115700677     -0.437480769535     0.260867459057      -0.43974165897      0.260867459057      -0.43974165897      -0.739115700677     -0.437480769535     
5800000000.0        -0.745715630989     -0.433801505499     0.254267411028      -0.436102913861     0.254267411028      -0.436102913861     -0.745715630989     -0.433801505499     
5900000000.0        -0.75209442102      -0.430119512226     0.247888501517      -0.432461462288     0.247888501517      -0.432461462288     -0.75209442102      -0.430119512226     
6000000000.0        -0.75826041736      -0.426439569676     0.241722383931      -0.428822083831     0.241722383931      -0.428822083831     -0.75826041736      -0.426439569676     
6100000000.0        -0.764221678381     -0.422765988485     0.235760999896      -0.425189088754     0.235760999896      -0.425189088754     -0.764221678381     -0.422765988485     
6200000000.0        -0.769985976459     -0.419102648833     0.229996577032      -0.421566356874     0.229996577032      -0.421566356874     -0.769985976459     -0.419102648833     
6300000000.0        -0.775560801575     -0.415453036355     0.224421625357      -0.417957373465     0.224421625357      -0.417957373465     -0.775560801575     -0.415453036355     
6400000000.0        -0.780953366009     -0.411820275271     0.219028932587      -0.414365262396     0.219028932587      -0.414365262396     -0.780953366009     -0.411820275271     
6500000000.0        -0.786170609939     -0.408207158927     0.213811558543      -0.41079281667      0.213811558543      -0.41079281667      -0.786170609939     -0.408207158927     
6600000000.0        -0.79121920775      -0.404616177939     0.208762828838      -0.407242526565     0.208762828838      -0.407242526565     -0.79121920775      -0.404616177939     
6700000000.0        -0.796105574888     -0.401049546093     0.203876328023      -0.403716605537     0.203876328023      -0.403716605537     -0.796105574888     -0.401049546093     
6800000000.0        -0.800835875135     -0.397509224174     0.199145892313      -0.400217014046     0.199145892313      -0.400217014046     -0.800835875135     -0.397509224174     
6900000000.0        -0.805416028181     -0.393996941877     0.194565602019      -0.396745481473     0.194565602019      -0.396745481473     -0.805416028181     -0.393996941877     
7000000000.0        -0.809851717389     -0.390514217939     0.190129773773      -0.393303526246     0.190129773773      -0.393303526246     -0.809851717389     -0.390514217939     
7100000000.0        -0.814148397689     -0.387062378638     0.185832952645      -0.38989247434      0.185832952645      -0.38989247434      -0.814148397689     -0.387062378638     
7200000000.0        -0.818311303505     -0.383642574769     0.181669904209      -0.386513476255     0.181669904209      -0.386513476255     -0.818311303505     -0.383642574769     
7300000000.0        -0.822345456682     -0.38025579723      0.177635606617      -0.383167522603     0.177635606617      -0.383167522603     -0.822345456682     -0.38025579723      
7400000000.0        -0.826255674347     -0.376902891324     0.173725242743      -0.379855458407     0.173725242743      -0.379855458407     -0.826255674347     -0.376902891324     
7500000000.0        -0.830046576668     -0.373584569874     0.169934192416      -0.376577996213     0.169934192416      -0.376577996213     -0.830046576668     -0.373584569874     
7600000000.0        -0.833722594486     -0.370301425242     0.166258024792      -0.373335728119     0.166258024792      -0.373335728119     -0.833722594486     -0.370301425242     
7700000000.0        -0.837287976787     -0.367053940364     0.162692490886      -0.370129136799     0.162692490886      -0.370129136799     -0.837287976787     -0.367053940364     
7800000000.0        -0.840746797995     -0.363842498842     0.159233516272      -0.366958605604     0.159233516272      -0.366958605604     -0.840746797995     -0.363842498842     
7900000000.0        -0.844102965066     -0.360667394208     0.155877193991      -0.363824427817     0.155877193991      -0.363824427817     -0.844102965066     -0.360667394208     
8000000000.0        -0.847360224388     -0.357528838398     0.152619777655      -0.360726815134     0.152619777655      -0.360726815134     -0.847360224388     -0.357528838398     
8100000000.0        -0.850522168451     -0.354426969517     0.149457674772      -0.357665905428     0.149457674772      -0.357665905428     -0.850522168451     -0.354426969517     
8200000000.0        -0.853592242312     -0.351361858951     0.146387440285      -0.354641769856     0.146387440285      -0.354641769856     -0.853592242312     -0.351361858951     
8300000000.0        -0.856573749821     -0.348333517871     0.143405770342      -0.35165441937      0.143405770342      -0.35165441937      -0.856573749821     -0.348333517871     
8400000000.0        -0.859469859637     -0.34534190319      0.140509496282      -0.348703810665     0.140509496282      -0.348703810665     -0.859469859637     -0.34534190319      
8500000000.0        -0.862283611012     -0.34238692301      0.137695578853      -0.345789851637     0.137695578853      -0.345789851637     -0.862283611012     -0.34238692301      
8600000000.0        -0.865017919355     -0.339468441607     0.134961102646      -0.342912406358     0.134961102646      -0.342912406358     -0.865017919355     -0.339468441607     
8700000000.0        -0.867675581574     -0.336586283987     0.132303270749      -0.340071299637     0.132303270749      -0.340071299637     -0.867675581574     -0.336586283987     
8800000000.0        -0.870259281211     -0.333740240055     0.12971939962       -0.337266321188     0.12971939962       -0.337266321188     -0.870259281211     -0.333740240055     
8900000000.0        -0.87277159336      -0.330930068418     0.127206914165      -0.334497229432     0.127206914165      -0.334497229432     -0.87277159336      -0.330930068418     
9000000000.0        -0.875214989379     -0.328155499868     0.124763343024      -0.331763754981     0.124763343024      -0.331763754981     -0.875214989379     -0.328155499868     
9100000000.0        -0.877591841409     -0.325416240556     0.122386314055      -0.329065603813     0.122386314055      -0.329065603813     -0.877591841409     -0.325416240556     
9200000000.0        -0.879904426694     -0.322711974897     0.120073550013      -0.326402460172     0.120073550013      -0.326402460172     -0.879904426694     -0.322711974897     
9300000000.0        -0.882154931718     -0.320042368213     0.117822864413      -0.323773989216     0.117822864413      -0.323773989216     -0.882154931718     -0.320042368213     
9400000000.0        -0.884345456159     -0.317407069147     0.115632157577      -0.321179839429     0.115632157577      -0.321179839429     -0.884345456159     -0.317407069147     
9500000000.0        -0.886478016667     -0.31480571187      0.113499412853      -0.318619644829     0.113499412853      -0.318619644829     -0.886478016667     -0.31480571187      
9600000000.0        -0.888554550481     -0.312237918082     0.111422693         -0.316093026967     0.111422693         -0.316093026967     -0.888554550481     -0.312237918082     
9700000000.0        -0.89057691888      -0.309703298842     0.109400136741      -0.313599596757     0.109400136741      -0.313599596757     -0.89057691888      -0.309703298842     
9800000000.0        -0.892546910474     -0.307201456231     0.107429955463      -0.31113895614      0.107429955463      -0.31113895614      -0.892546910474     -0.307201456231     
9900000000.0        -0.894466244362     -0.304731984864     0.105510430066      -0.308710699596     0.105510430066      -0.308710699596     -0.894466244362     -0.304731984864     
10000000000.0       -0.896336573129     -0.302294473263     0.103639907965      -0.306314415519     0.103639907965      -0.306314415519     -0.896336573129     -0.302294473263     
