# Hz S RI R 50.00 
100000000.0         0.027251325168      0.00401641521652    0.972740842949      -0.00687805172516   0.972740842949      -0.00687805172516   0.027251325168      0.00401641521652    
200000000.0         0.0275111990127     0.00802795972723    0.972465870436      -0.0137512573281    0.972465870436      -0.0137512573281    0.0275111990127     0.00802795972723    
300000000.0         0.0277809124055     0.0120352817917     0.972172789789      -0.0206202912108    0.972172789789      -0.0206202912108    0.0277809124055     0.0120352817917     
400000000.0         0.0280834691898     0.0160379931446     0.971838595184      -0.0274847878553    0.971838595184      -0.0274847878553    0.0280834691898     0.0160379931446     
500000000.0         0.0284276772809     0.0200354664407     0.971454476406      -0.0343441409509    0.971454476406      -0.0343441409509    0.0284276772809     0.0200354664407     
600000000.0         0.0288179734394     0.0240269701122     0.971015994042      -0.0411976388402    0.971015994042      -0.0411976388402    0.0288179734394     0.0240269701122     
700000000.0         0.0292569214291     0.0280117170221     0.970520581308      -0.0480445134726    0.970520581308      -0.0480445134726    0.0292569214291     0.0280117170221     
800000000.0         0.0297461239227     0.0319888872351     0.969966632135      -0.0548839633545    0.969966632135      -0.0548839633545    0.0297461239227     0.0319888872351     
900000000.0         0.0302866285981     0.0359576404354     0.969353095067      -0.0617151660851    0.969353095067      -0.0617151660851    0.0302866285981     0.0359576404354     
1000000000.0        0.0308791340328     0.0399171234467     0.968679267369      -0.0685372859582    0.968679267369      -0.0685372859582    0.0308791340328     0.0399171234467     
1100000000.0        0.031524104208      0.0438664751608     0.96794468052       -0.0753494789517    0.96794468052       -0.0753494789517    0.031524104208      0.0438664751608     
1200000000.0        0.0322218367906     0.0478048299761     0.96714903193       -0.0821508962115    0.96714903193       -0.0821508962115    0.0322218367906     0.0478048299761     
1300000000.0        0.0329725061479     0.051731320323      0.966292141927      -0.0889406866134    0.966292141927      -0.0889406866134    0.0329725061479     0.051731320323      
1400000000.0        0.0337761916778     0.0556450786028     0.965373925429      -0.0957179987299    0.965373925429      -0.0957179987299    0.0337761916778     0.0556450786028     
1500000000.0        0.0346328971732     0.0595452387308     0.964394372574      -0.102481982397     0.964394372574      -0.102481982397     0.0346328971732     0.0595452387308     
1600000000.0        0.0355425644828     0.0634309374051     0.963353535069      -0.109231790002     0.963353535069      -0.109231790002     0.0355425644828     0.0634309374051     
1700000000.0        0.0365050834173     0.0673013151775     0.962251516275      -0.11596657757      0.962251516275      -0.11596657757      0.0365050834173     0.0673013151775     
1800000000.0        0.0375202991109     0.0711555173789     0.961088463853      -0.122685505703     0.961088463853      -0.122685505703     0.0375202991109     0.0711555173789     
1900000000.0        0.0385880176139     0.0749926949336     0.959864564168      -0.129387740408     0.959864564168      -0.129387740408     0.0385880176139     0.0749926949336     
2000000000.0        0.039708010229      0.0788120050879     0.958580037957      -0.13607245383      0.958580037957      -0.13607245383      0.039708010229      0.0788120050879     
2100000000.0        0.0408800169379     0.0826126120706     0.957235136898      -0.142738824925     0.957235136898      -0.142738824925     0.0408800169379     0.0826126120706     
2200000000.0        0.0421037491574     0.0863936876974     0.955830140857      -0.149386040074     0.955830140857      -0.149386040074     0.0421037491574     0.0863936876974     
2300000000.0        0.0433788919962     0.0901544119303     0.954365355635      -0.156013293642     0.954365355635      -0.156013293642     0.0433788919962     0.0901544119303     
2400000000.0        0.0447051061321     0.0938939733971     0.952841111083      -0.162619788509     0.952841111083      -0.162619788509     0.0447051061321     0.0938939733971     
2500000000.0        0.0460820293986     0.0976115698778     0.951257759523      -0.169204736559     0.951257759523      -0.169204736559     0.0460820293986     0.0976115698778     
2600000000.0        0.0475092781475     0.101306408762      0.949615674383      -0.175767359141     0.949615674383      -0.175767359141     0.0475092781475     0.101306408762      
2700000000.0        0.0489864484355     0.10497770748       0.947915249009      -0.182306887505     0.947915249009      -0.182306887505     0.0489864484355     0.10497770748       
2800000000.0        0.050513117073      0.108624693907      0.946156895622      -0.188822563212     0.946156895622      -0.188822563212     0.050513117073      0.108624693907      
2900000000.0        0.0520888425619     0.112246606752      0.94434104437       -0.195313638519     0.94434104437       -0.195313638519     0.0520888425619     0.112246606752      
3000000000.0        0.0537131659473     0.115842695919      0.942468142489      -0.201779376752     0.942468142489      -0.201779376752     0.0537131659473     0.115842695919      
3100000000.0        0.0553856115968     0.119412222857      0.940538653512      -0.208219052646     0.940538653512      -0.208219052646     0.0553856115968     0.119412222857      
3200000000.0        0.0571056879239     0.122954460881      0.938553056554      -0.214631952684     0.938553056554      -0.214631952684     0.0571056879239     0.122954460881      
3300000000.0        0.0588728880639     0.126468695486      0.936511845632      -0.221017375399     0.936511845632      -0.221017375399     0.0588728880639     0.126468695486      
3400000000.0        0.0606866905122     0.129954224643      0.934415529027      -0.227374631676     0.934415529027      -0.227374631676     0.0606866905122     0.129954224643      
3500000000.0        0.0625465597312     0.133410359068      0.932264628679      -0.233703045025     0.932264628679      -0.233703045025     0.0625465597312     0.133410359068      
3600000000.0        0.0644519467307     0.136836422491      0.930059679601      -0.240001951848     0.930059679601      -0.240001951848     0.0644519467307     0.136836422491      
3700000000.0        0.0664022896275     0.140231751898      0.927801229327      -0.246270701685     0.927801229327      -0.246270701685     0.0664022896275     0.140231751898      
3800000000.0        0.0683970141856     0.143595697763      0.925489837365      -0.252508657441     0.925489837365      -0.252508657441     0.0683970141856     0.143595697763      
3900000000.0        0.0704355343427     0.146927624265      0.923126074671      -0.258715195608     0.923126074671      -0.258715195608     0.0704355343427     0.146927624265      
4000000000.0        0.0725172527217     0.150226909486      0.920710523142      -0.264889706467     0.920710523142      -0.264889706467     0.0725172527217     0.150226909486      
4100000000.0        0.0746415611331     0.153492945602      0.918243775107      -0.27103159427      0.918243775107      -0.27103159427      0.0746415611331     0.153492945602      
4200000000.0        0.0768078410654     0.156725139056      0.915726432839      -0.277140277421     0.915726432839      -0.277140277421     0.0768078410654     0.156725139056      
4300000000.0        0.0790154641688     0.159922910712      0.913159108072      -0.283215188629     0.913159108072      -0.283215188629     0.0790154641688     0.159922910712      
4400000000.0        0.0812637927304     0.163085696009      0.910542421521      -0.289255775056     0.910542421521      -0.289255775056     0.0812637927304     0.163085696009      
4500000000.0        0.083552180142      0.166212945085      0.90787700242       -0.29526149845      0.90787700242       -0.29526149845      0.083552180142      0.166212945085      
4600000000.0        0.0858799713626     0.169304122901      0.905163488051      -0.301231835262     0.905163488051      -0.301231835262     0.0858799713626     0.169304122901      
4700000000.0        0.0882465033746     0.172358709341      0.902402523295      -0.307166276751     0.902402523295      -0.307166276751     0.0882465033746     0.172358709341      
4800000000.0        0.0906511056335     0.175376199311      0.899594760175      -0.313064329076     0.899594760175      -0.313064329076     0.0906511056335     0.175376199311      
4900000000.0        0.0930931005141     0.178356102813      0.896740857413      -0.318925513377     0.896740857413      -0.318925513377     0.0930931005141     0.178356102813      
5000000000.0        0.0955718037494     0.181297945015      0.893841479991      -0.324749365838     0.893841479991      -0.324749365838     0.0955718037494     0.181297945015      
5100000000.0        0.0980865248663     0.184201266304      0.890897298708      -0.330535437745     0.890897298708      -0.330535437745     0.0980865248663     0.184201266304      
5200000000.0        0.100636567615      0.18706562233       0.88790898976       -0.336283295524     0.88790898976       -0.336283295524     0.100636567615      0.18706562233       
5300000000.0        0.103221230392      0.189890584033      0.884877234305      -0.341992520775     0.884877234305      -0.341992520775     0.103221230392      0.189890584033      
5400000000.0        0.105839806664      0.192675737666      0.881802718049      -0.347662710285     0.881802718049      -0.347662710285     0.105839806664      0.192675737666      
5500000000.0        0.108491585376      0.1954206848        0.878686130826      -0.353293476037     0.878686130826      -0.353293476037     0.108491585376      0.1954206848        
5600000000.0        0.111175851367      0.198125042318      0.875528166193      -0.358884445206     0.875528166193      -0.358884445206     0.111175851367      0.198125042318      
5700000000.0        0.113891885767      0.200788442402      0.872329521019      -0.364435260139     0.872329521019      -0.364435260139     0.113891885767      0.200788442402      
5800000000.0        0.116638966401      0.203410532506      0.869090895093      -0.369945578331     0.869090895093      -0.369945578331     0.116638966401      0.203410532506      
5900000000.0        0.119416368177      0.205990975319      0.865812990724      -0.375415072386     0.865812990724      -0.375415072386     0.119416368177      0.205990975319      
6000000000.0        0.122223363475      0.208529448718      0.862496512358      -0.380843429969     0.862496512358      -0.380843429969     0.122223363475      0.208529448718      
6100000000.0        0.125059222527      0.211025645712      0.859142166193      -0.386230353746     0.859142166193      -0.386230353746     0.125059222527      0.211025645712      
6200000000.0        0.127923213792      0.213479274373      0.855750659806      -0.39157556132      0.855750659806      -0.39157556132      0.127923213792      0.213479274373      
6300000000.0        0.130814604321      0.21589005776       0.852322701781      -0.39687878515      0.852322701781      -0.39687878515      0.130814604321      0.21589005776       
6400000000.0        0.133732660126      0.218257733834      0.848859001346      -0.402139772463     0.848859001346      -0.402139772463     0.133732660126      0.218257733834      
6500000000.0        0.136676646529      0.220582055364      0.845360268018      -0.407358285162     0.845360268018      -0.407358285162     0.136676646529      0.220582055364      
6600000000.0        0.139645828512      0.222862789823      0.841827211253      -0.412534099718     0.841827211253      -0.412534099718     0.139645828512      0.222862789823      
6700000000.0        0.142639471061      0.225099719274      0.838260540102      -0.417667007059     0.838260540102      -0.417667007059     0.142639471061      0.225099719274      
6800000000.0        0.145656839498      0.227292640256      0.834660962871      -0.422756812445     0.834660962871      -0.422756812445     0.145656839498      0.227292640256      
6900000000.0        0.148697199812      0.229441363648      0.8310291868        -0.427803335345     0.8310291868        -0.427803335345     0.148697199812      0.229441363648      
7000000000.0        0.151759818977      0.231545714543      0.827365917734      -0.432806409295     0.827365917734      -0.432806409295     0.151759818977      0.231545714543      
7100000000.0        0.154843965266      0.233605532101      0.823671859811      -0.437765881757     0.823671859811      -0.437765881757     0.154843965266      0.233605532101      
7200000000.0        0.157948908557      0.235620669398      0.819947715153      -0.442681613968     0.819947715153      -0.442681613968     0.157948908557      0.235620669398      
7300000000.0        0.161073920633      0.237590993276      0.816194183568      -0.44755348078      0.816194183568      -0.44755348078      0.161073920633      0.237590993276      
7400000000.0        0.16421827547       0.239516384176      0.812411962256      -0.452381370501     0.812411962256      -0.452381370501     0.16421827547       0.239516384176      
7500000000.0        0.167381249521      0.241396735973      0.808601745527      -0.457165184722     0.808601745527      -0.457165184722     0.167381249521      0.241396735973      
7600000000.0        0.170562121994      0.2432319558        0.804764224519      -0.461904838141     0.804764224519      -0.461904838141     0.170562121994      0.2432319558        
7700000000.0        0.173760175116      0.245021963874      0.800900086932      -0.466600258385     0.800900086932      -0.466600258385     0.173760175116      0.245021963874      
7800000000.0        0.176974694393      0.246766693305      0.797010016768      -0.471251385822     0.797010016768      -0.471251385822     0.176974694393      0.246766693305      
7900000000.0        0.180204968867      0.248466089911      0.793094694073      -0.47585817337      0.793094694073      -0.47585817337      0.180204968867      0.248466089911      
8000000000.0        0.183450291353      0.250120112027      0.789154794694      -0.480420586304     0.789154794694      -0.480420586304     0.183450291353      0.250120112027      
8100000000.0        0.186709958681      0.251728730303      0.785190990041      -0.484938602052     0.785190990041      -0.484938602052     0.186709958681      0.251728730303      
8200000000.0        0.189983271919      0.253291927505      0.781203946857      -0.489412209996     0.781203946857      -0.489412209996     0.189983271919      0.253291927505      
8300000000.0        0.193269536599      0.254809698308      0.777194326992      -0.493841411264     0.777194326992      -0.493841411264     0.193269536599      0.254809698308      
8400000000.0        0.196568062923      0.256282049093      0.773162787197      -0.498226218516     0.773162787197      -0.498226218516     0.196568062923      0.256282049093      
8500000000.0        0.199878165973      0.257708997727      0.769109978909      -0.502566655735     0.769109978909      -0.502566655735     0.199878165973      0.257708997727      
8600000000.0        0.203199165905      0.259090573356      0.765036548058      -0.506862758005     0.765036548058      -0.506862758005     0.203199165905      0.259090573356      
8700000000.0        0.206530388136      0.260426816187      0.760943134875      -0.5111145713       0.760943134875      -0.5111145713       0.206530388136      0.260426816187      
8800000000.0        0.209871163528      0.261717777265      0.756830373708      -0.515322152252     0.756830373708      -0.515322152252     0.209871163528      0.261717777265      
8900000000.0        0.21322082856       0.262963518257      0.752698892847      -0.519485567936     0.752698892847      -0.519485567936     0.21322082856       0.262963518257      
9000000000.0        0.216578725493      0.264164111225      0.748549314359      -0.523604895643     0.748549314359      -0.523604895643     0.216578725493      0.264164111225      
9100000000.0        0.219944202527      0.265319638405      0.744382253926      -0.527680222649     0.744382253926      -0.527680222649     0.219944202527      0.265319638405      
9200000000.0        0.223316613951      0.26643019198       0.740198320693      -0.531711645992     0.740198320693      -0.531711645992     0.223316613951      0.26643019198       
9300000000.0        0.226695320289      0.267495873853      0.735998117124      -0.535699272239     0.735998117124      -0.535699272239     0.226695320289      0.267495873853      
9400000000.0        0.230079688429      0.268516795422      0.731782238864      -0.539643217258     0.731782238864      -0.539643217258     0.230079688429      0.268516795422      
9500000000.0        0.233469091756      0.269493077348      0.72755127461       -0.543543605988     0.72755127461       -0.543543605988     0.233469091756      0.269493077348      
9600000000.0        0.236862910271      0.27042484933       0.723305805987      -0.547400572204     0.723305805987      -0.547400572204     0.236862910271      0.27042484933       
9700000000.0        0.240260530702      0.271312249877      0.719046407435      -0.55121425829      0.719046407435      -0.55121425829      0.240260530702      0.271312249877      
9800000000.0        0.243661346614      0.272155426076      0.714773646096      -0.554984815006     0.714773646096      -0.554984815006     0.243661346614      0.272155426076      
9900000000.0        0.247064758506      0.272954533367      0.710488081716      -0.558712401257     0.710488081716      -0.558712401257     0.247064758506      0.272954533367      
10000000000.0       0.250470173903      0.273709735315      0.706190266551      -0.56239718386      0.706190266551      -0.56239718386      0.250470173903      0.273709735315      
