# Hz S RI R 50.00 
100000000.0         0.000163637400764   -0.000780012610101  0.999831926447      -0.00104354526647   0.999831926447      -0.00104354526647   0.000163637400764   -0.000780012610101  
200000000.0         0.000161426928508   -0.00156002472148   0.999827375174      -0.00208709025755   0.999827375174      -0.00208709025755   0.000161426928508   -0.00156002472148   
300000000.0         0.000157298837876   -0.00234003510827   0.999821415871      -0.00313063494959   0.999821415871      -0.00313063494959   0.000157298837876   -0.00234003510827   
400000000.0         0.000151396434059   -0.00312004194111   0.99981390516       -0.0041741782565    0.99981390516       -0.0041741782565    0.000151396434059   -0.00312004194111   
500000000.0         0.00014377474906    -0.00390004304865   0.99980478794       -0.00521771860306   0.99980478794       -0.00521771860306   0.00014377474906    -0.00390004304865   
600000000.0         0.0001344617635     -0.00468003603021   0.999794036159      -0.00626125410419   0.999794036159      -0.00626125410419   0.000134461763499   -0.00468003603021   
700000000.0         0.000123473952978   -0.00546001831551   0.999781633274      -0.00730478265271   0.999781633274      -0.00730478265271   0.000123473952978   -0.00546001831551   
800000000.0         0.00011082195617    -0.00623998720133   0.999767568584      -0.00834830197069   0.999767568584      -0.00834830197069   0.00011082195617    -0.00623998720133   
900000000.0         9.65130962769e-05   -0.00701993987644   0.999751834713      -0.00939180964339   0.999751834713      -0.00939180964339   9.65130962769e-05   -0.00701993987644   
1000000000.0        8.05526576722e-05   -0.00779987343948   0.999734426332      -0.0104353031429    0.999734426332      -0.0104353031429    8.05526576719e-05   -0.00779987343948   
1100000000.0        6.29445953486e-05   -0.0085797849114    0.999715339449      -0.0114787798447    0.999715339449      -0.0114787798447    6.29445953491e-05   -0.0085797849114    
1200000000.0        4.36919571931e-05   -0.00935967124503   0.999694570994      -0.0125222370404    0.999694570994      -0.0125222370404    4.36919571933e-05   -0.00935967124503   
1300000000.0        2.27971494708e-05   -0.0101395293341    0.999672118549      -0.0135656719488    0.999672118549      -0.0135656719488    2.27971494708e-05   -0.0101395293341    
1400000000.0        2.62111303329e-07   -0.0109193560185    0.999647980175      -0.0146090817226    0.999647980175      -0.0146090817226    2.62111303551e-07   -0.0109193560185    
1500000000.0        -2.39115664614e-05  -0.0116991480897    0.999622154298      -0.0156524634564    0.999622154298      -0.0156524634564    -2.39115664614e-05  -0.0116991480897    
1600000000.0        -4.97225578404e-05  -0.0124789022959    0.99959463962       -0.0166958141913    0.99959463962       -0.0166958141913    -4.97225578404e-05  -0.0124789022959    
1700000000.0        -7.71697416091e-05  -0.0132586153444    0.999565435065      -0.0177391309199    0.999565435065      -0.0177391309199    -7.71697416093e-05  -0.0132586153444    
1800000000.0        -0.000106252156964  -0.0140382839057    0.999534539731      -0.0187824105898    0.999534539731      -0.0187824105898    -0.000106252156964  -0.0140382839057    
1900000000.0        -0.000136968970228  -0.0148179046159    0.999501952861      -0.0198256501077    0.999501952861      -0.0198256501077    -0.000136968970228  -0.0148179046159    
2000000000.0        -0.000169319449418  -0.0155974740792    0.999467673815      -0.0208688463417    0.999467673815      -0.0208688463417    -0.000169319449418  -0.0155974740792    
2100000000.0        -0.000203302944486  -0.0163769888696    0.999431702053      -0.0219119961241    0.999431702053      -0.0219119961241    -0.000203302944486  -0.0163769888696    
2200000000.0        -0.000238918871763  -0.0171564455335    0.999394037119      -0.022955096254     0.999394037119      -0.022955096254     -0.000238918871763  -0.0171564455335    
2300000000.0        -0.000276166701588  -0.0179358405904    0.999354678626      -0.0239981434988    0.999354678626      -0.0239981434988    -0.000276166701588  -0.0179358405904    
2400000000.0        -0.000315045948308  -0.0187151705351    0.999313626253      -0.0250411345961    0.999313626253      -0.0250411345961    -0.000315045948308  -0.0187151705351    
2500000000.0        -0.000355556162191  -0.0194944318389    0.999270879731      -0.026084066256     0.999270879731      -0.026084066256     -0.000355556162191  -0.0194944318389    
2600000000.0        -0.000397696922711  -0.0202736209506    0.999226438841      -0.0271269351616    0.999226438841      -0.0271269351616    -0.000397696922711  -0.0202736209506    
2700000000.0        -0.000441467833064  -0.0210527342978    0.999180303405      -0.0281697379712    0.999180303405      -0.0281697379712    -0.000441467833064  -0.0210527342978    
2800000000.0        -0.000486868515517  -0.0218317682879    0.999132473285      -0.029212471319     0.999132473285      -0.029212471319     -0.000486868515517  -0.0218317682879    
2900000000.0        -0.000533898607533  -0.0226107193088    0.999082948378      -0.0302551318164    0.999082948378      -0.0302551318164    -0.000533898607534  -0.0226107193088    
3000000000.0        -0.00058255775849   -0.0233895837302    0.999031728613      -0.0312977160531    0.999031728613      -0.0312977160531    -0.000582557758489  -0.0233895837302    
3100000000.0        -0.000632845626846  -0.024168357904     0.998978813949      -0.0323402205979    0.998978813949      -0.0323402205979    -0.000632845626846  -0.024168357904     
3200000000.0        -0.000684761877768  -0.0249470381652    0.998924204369      -0.0333826419999    0.998924204369      -0.0333826419999    -0.000684761877768  -0.0249470381652    
3300000000.0        -0.00073830618102   -0.0257256208326    0.998867899887      -0.0344249767889    0.998867899887      -0.0344249767889    -0.00073830618102   -0.0257256208326    
3400000000.0        -0.000793478209183  -0.0265041022096    0.998809900538      -0.0354672214765    0.998809900538      -0.0354672214765    -0.000793478209183  -0.0265041022096    
3500000000.0        -0.00085027763607   -0.0272824785841    0.998750206379      -0.0365093725567    0.998750206379      -0.0365093725567    -0.00085027763607   -0.0272824785841    
3600000000.0        -0.000908704135364  -0.0280607462303    0.998688817489      -0.0375514265065    0.998688817489      -0.0375514265065    -0.000908704135364  -0.0280607462303    
3700000000.0        -0.000968757379395  -0.028838901408     0.998625733969      -0.0385933797869    0.998625733969      -0.0385933797869    -0.000968757379395  -0.028838901408     
3800000000.0        -0.00103043703808   -0.0296169403639    0.998560955939      -0.039635228843     0.998560955939      -0.039635228843     -0.00103043703808   -0.0296169403639    
3900000000.0        -0.00109374277796   -0.0303948593317    0.998494483537      -0.0406769701047    0.998494483537      -0.0406769701047    -0.00109374277796   -0.0303948593317    
4000000000.0        -0.00115867426137   -0.0311726545328    0.998426316919      -0.0417185999877    0.998426316919      -0.0417185999877    -0.00115867426137   -0.0311726545328    
4100000000.0        -0.00122523114568   -0.0319503221765    0.998356456261      -0.0427601148934    0.998356456261      -0.0427601148934    -0.00122523114568   -0.0319503221765    
4200000000.0        -0.0012934130826    -0.0327278584605    0.998284901753      -0.0438015112096    0.998284901753      -0.0438015112096    -0.0012934130826    -0.0327278584605    
4300000000.0        -0.00136321971759   -0.0335052595714    0.998211653605      -0.044842785311     0.998211653605      -0.044842785311     -0.00136321971759   -0.0335052595714    
4400000000.0        -0.00143465068931   -0.034282521685     0.998136712041      -0.0458839335599    0.998136712041      -0.0458839335599    -0.00143465068931   -0.034282521685     
4500000000.0        -0.00150770562909   -0.0350596409663    0.998060077302      -0.0469249523058    0.998060077302      -0.0469249523058    -0.00150770562909   -0.0350596409663    
4600000000.0        -0.00158238416051   -0.0358366135708    0.997981749644      -0.0479658378868    0.997981749644      -0.0479658378868    -0.00158238416051   -0.0358366135708    
4700000000.0        -0.00165868589898   -0.0366134356437    0.99790172934       -0.0490065866295    0.99790172934       -0.0490065866295    -0.00165868589898   -0.0366134356437    
4800000000.0        -0.00173661045133   -0.0373901033208    0.997820016678      -0.0500471948491    0.997820016678      -0.0500471948491    -0.00173661045133   -0.0373901033208    
4900000000.0        -0.0018161574155    -0.038166612729     0.997736611958      -0.0510876588503    0.997736611958      -0.0510876588503    -0.0018161574155    -0.038166612729     
5000000000.0        -0.00189732638022   -0.0389429599861    0.9976515155        -0.0521279749274    0.9976515155        -0.0521279749274    -0.00189732638022   -0.0389429599861    
5100000000.0        -0.00198011692468   -0.0397191412013    0.997564727634      -0.0531681393643    0.997564727634      -0.0531681393643    -0.00198011692468   -0.0397191412013    
5200000000.0        -0.00206452861832   -0.0404951524756    0.997476248708      -0.0542081484356    0.997476248708      -0.0542081484356    -0.00206452861832   -0.0404951524756    
5300000000.0        -0.0021505610205    -0.0412709899019    0.997386079083      -0.055247998406     0.997386079083      -0.055247998406     -0.0021505610205    -0.0412709899019    
5400000000.0        -0.00223821368034   -0.0420466495653    0.997294219134      -0.0562876855312    0.997294219134      -0.0562876855312    -0.00223821368034   -0.0420466495653    
5500000000.0        -0.00232748613647   -0.0428221275434    0.997200669251      -0.0573272060582    0.997200669251      -0.0573272060582    -0.00232748613647   -0.0428221275434    
5600000000.0        -0.00241837791684   -0.0435974199064    0.997105429839      -0.0583665562252    0.997105429839      -0.0583665562252    -0.00241837791684   -0.0435974199064    
5700000000.0        -0.00251088853851   -0.0443725227176    0.997008501314      -0.059405732262     0.997008501314      -0.059405732262     -0.00251088853851   -0.0443725227176    
5800000000.0        -0.00260501750752   -0.0451474320332    0.99690988411       -0.0604447303904    0.99690988411       -0.0604447303904    -0.00260501750752   -0.0451474320332    
5900000000.0        -0.00270076431869   -0.0459221439031    0.996809578673      -0.0614835468244    0.996809578673      -0.0614835468244    -0.00270076431869   -0.0459221439031    
6000000000.0        -0.00279812845544   -0.0466966543706    0.996707585464      -0.0625221777703    0.996707585464      -0.0625221777703    -0.00279812845544   -0.0466966543706    
6100000000.0        -0.00289710938975   -0.0474709594728    0.996603904955      -0.0635606194273    0.996603904955      -0.0635606194273    -0.00289710938975   -0.0474709594728    
6200000000.0        -0.00299770658189   -0.048245055241     0.996498537636      -0.0645988679873    0.996498537636      -0.0645988679873    -0.00299770658189   -0.048245055241     
6300000000.0        -0.00309991948041   -0.0490189377004    0.996391484008      -0.0656369196353    0.996391484008      -0.0656369196353    -0.00309991948041   -0.0490189377004    
6400000000.0        -0.00320374752194   -0.049792602871     0.996282744587      -0.0666747705496    0.996282744587      -0.0666747705496    -0.00320374752194   -0.049792602871     
6500000000.0        -0.0033091901311    -0.0505660467671    0.996172319903      -0.0677124169022    0.996172319903      -0.0677124169022    -0.0033091901311    -0.0505660467671    
6600000000.0        -0.00341624672044   -0.051339265398     0.996060210499      -0.0687498548589    0.996060210499      -0.0687498548589    -0.00341624672044   -0.051339265398     
6700000000.0        -0.00352491669026   -0.0521122547679    0.995946416932      -0.0697870805793    0.995946416932      -0.0697870805793    -0.00352491669026   -0.0521122547679    
6800000000.0        -0.00363519942856   -0.0528850108761    0.995830939774      -0.0708240902171    0.995830939774      -0.0708240902171    -0.00363519942856   -0.0528850108761    
6900000000.0        -0.00374709431094   -0.0536575297174    0.99571377961       -0.0718608799208    0.99571377961       -0.0718608799208    -0.00374709431094   -0.0536575297174    
7000000000.0        -0.00386060070053   -0.0544298072819    0.995594937037      -0.0728974458329    0.995594937037      -0.0728974458329    -0.00386060070053   -0.0544298072819    
7100000000.0        -0.00397571794788   -0.0552018395556    0.995474412668      -0.0739337840911    0.995474412668      -0.0739337840911    -0.00397571794788   -0.0552018395556    
7200000000.0        -0.0040924453909    -0.0559736225202    0.995352207131      -0.0749698908278    0.995352207131      -0.0749698908278    -0.0040924453909    -0.0559736225202    
7300000000.0        -0.00421078235478   -0.0567451521536    0.995228321063      -0.0760057621706    0.995228321063      -0.0760057621706    -0.00421078235478   -0.0567451521536    
7400000000.0        -0.00433072815191   -0.0575164244296    0.99510275512       -0.0770413942423    0.99510275512       -0.0770413942423    -0.00433072815191   -0.0575164244296    
7500000000.0        -0.00445228208187   -0.0582874353185    0.994975509968      -0.0780767831615    0.994975509968      -0.0780767831615    -0.00445228208187   -0.0582874353185    
7600000000.0        -0.00457544343126   -0.0590581807873    0.994846586288      -0.079111925042     0.994846586288      -0.079111925042     -0.00457544343126   -0.0590581807873    
7700000000.0        -0.00470021147374   -0.0598286567993    0.994715984777      -0.0801468159938    0.994715984777      -0.0801468159938    -0.00470021147374   -0.0598286567993    
7800000000.0        -0.00482658546993   -0.0605988593147    0.994583706142      -0.0811814521226    0.994583706142      -0.0811814521226    -0.00482658546993   -0.0605988593147    
7900000000.0        -0.00495456466735   -0.0613687842908    0.994449751106      -0.0822158295305    0.994449751106      -0.0822158295305    -0.00495456466735   -0.0613687842908    
8000000000.0        -0.00508414830038   -0.062138427682     0.994314120406      -0.0832499443158    0.994314120406      -0.0832499443158    -0.00508414830038   -0.062138427682     
8100000000.0        -0.0052153355902    -0.0629077854396    0.994176814792      -0.0842837925731    0.994176814792      -0.0842837925731    -0.0052153355902    -0.0629077854396    
8200000000.0        -0.00534812574475   -0.0636768535128    0.994037835028      -0.085317370394     0.994037835028      -0.085317370394     -0.00534812574475   -0.0636768535128    
8300000000.0        -0.00548251795871   -0.0644456278479    0.993897181891      -0.0863506738666    0.993897181891      -0.0863506738666    -0.00548251795871   -0.0644456278479    
8400000000.0        -0.00561851141338   -0.0652141043892    0.993754856173      -0.0873836990761    0.993754856173      -0.0873836990761    -0.00561851141338   -0.0652141043892    
8500000000.0        -0.00575610527673   -0.0659822790786    0.99361085868       -0.0884164421047    0.99361085868       -0.0884164421047    -0.00575610527673   -0.0659822790786    
8600000000.0        -0.0058952987033    -0.066750147856     0.993465190231      -0.0894488990319    0.993465190231      -0.0894488990319    -0.0058952987033    -0.066750147856     
8700000000.0        -0.0060360908342    -0.0675177066596    0.993317851659      -0.0904810659345    0.993317851659      -0.0904810659345    -0.0060360908342    -0.0675177066596    
8800000000.0        -0.00617848079702   -0.0682849514254    0.993168843812      -0.0915129388869    0.993168843812      -0.0915129388869    -0.00617848079702   -0.0682849514254    
8900000000.0        -0.00632246770588   -0.0690518780881    0.993018167549      -0.0925445139613    0.993018167549      -0.0925445139613    -0.00632246770588   -0.0690518780881    
9000000000.0        -0.00646805066131   -0.0698184825807    0.992865823747      -0.0935757872274    0.992865823747      -0.0935757872274    -0.00646805066131   -0.0698184825807    
9100000000.0        -0.00661522875027   -0.070584760835     0.992711813293      -0.0946067547532    0.992711813293      -0.0946067547532    -0.00661522875027   -0.070584760835     
9200000000.0        -0.00676400104614   -0.0713507087814    0.99255613709       -0.0956374126045    0.99255613709       -0.0956374126045    -0.00676400104614   -0.0713507087814    
9300000000.0        -0.00691436660861   -0.072116322349     0.992398796054      -0.0966677568457    0.992398796054      -0.0966677568457    -0.00691436660861   -0.072116322349     
9400000000.0        -0.00706632448374   -0.0728815974664    0.992239791116      -0.097697783539     0.992239791116      -0.097697783539     -0.00706632448374   -0.0728815974664    
9500000000.0        -0.00721987370391   -0.0736465300607    0.992079123219      -0.0987274887458    0.992079123219      -0.0987274887458    -0.00721987370391   -0.0736465300607    
9600000000.0        -0.00737501328776   -0.0744111160588    0.991916793323      -0.0997568685256    0.991916793323      -0.0997568685256    -0.00737501328776   -0.0744111160588    
9700000000.0        -0.00753174224021   -0.0751753513865    0.991752802399      -0.100785918937     0.991752802399      -0.100785918937     -0.00753174224021   -0.0751753513865    
9800000000.0        -0.00769005955242   -0.0759392319695    0.991587151432      -0.101814636037     0.991587151432      -0.101814636037     -0.00769005955242   -0.0759392319695    
9900000000.0        -0.00784996420178   -0.0767027537327    0.991419841423      -0.102843015882     0.991419841423      -0.102843015882     -0.00784996420178   -0.0767027537327    
10000000000.0       -0.00801145515188   -0.077465912601     0.991250873386      -0.103871054528     0.991250873386      -0.103871054528     -0.00801145515188   -0.077465912601     
