# Hz S RI R 50.00 
100000000.0         -0.00237356231884   -0.0485044191878    0.997507001324      -0.049033037324     0.997507001324      -0.049033037324     -0.00237356231884   -0.0485044191878    
200000000.0         -0.00950492843287   -0.096305863313     0.990374399929      -0.0973632544024    0.990374399929      -0.0973632544024    -0.00950492843287   -0.096305863313     
300000000.0         -0.021134898297     -0.142744868879     0.978743118517      -0.144331273313     0.978743118517      -0.144331273313     -0.021134898297     -0.142744868879     
400000000.0         -0.0369462569296    -0.187224383182     0.962930268873      -0.189340109032     0.962930268873      -0.189340109032     -0.0369462569296    -0.187224383182     
500000000.0         -0.056526195106     -0.229232963047     0.943348620209      -0.231878376721     0.943348620209      -0.231878376721     -0.056526195106     -0.229232963047     
600000000.0         -0.0793918620485    -0.268360548441     0.92048100256       -0.271536068336     0.92048100256       -0.271536068336     -0.0793918620485    -0.268360548441     
700000000.0         -0.105017766362     -0.304306130163     0.894852894714      -0.308012221856     0.894852894714      -0.308012221856     -0.105017766362     -0.304306130163     
800000000.0         -0.132862395317     -0.33687770079      0.867005800882      -0.341114873163     0.867005800882      -0.341114873163     -0.132862395317     -0.33687770079      
900000000.0         -0.162391940233     -0.365985684918     0.837473523511      -0.370754486916     0.837473523511      -0.370754486916     -0.162391940233     -0.365985684918     
1000000000.0        -0.193099720827     -0.39163152668      0.806762738037      -0.396932544524     0.806762738037      -0.396932544524     -0.193099720827     -0.39163152668      
1100000000.0        -0.224520639738     -0.413893265194     0.775338537858      -0.419727119935     0.775338537858      -0.419727119935     -0.224520639738     -0.413893265194     
1200000000.0        -0.25624064442      -0.432909810378     0.74361497214       -0.439277155728     0.74361497214       -0.439277155728     -0.25624064442      -0.432909810378     
1300000000.0        -0.287901653814     -0.448865334831     0.711950118967      -0.455766855215     0.711950118967      -0.455766855215     -0.287901653814     -0.448865334831     
1400000000.0        -0.319202700141     -0.461974817858     0.680644943419      -0.469411226659     0.680644943419      -0.469411226659     -0.319202700141     -0.461974817858     
1500000000.0        -0.349898159236     -0.472471394164     0.649945067166      -0.480443432119     0.649945067166      -0.480443432119     -0.349898159236     -0.472471394164     
1600000000.0        -0.379793935126     -0.480595824397     0.620044583829      -0.489104258141     0.620044583829      -0.489104258141     -0.379793935126     -0.480595824397     
1700000000.0        -0.408742371451     -0.486588143991     0.591091147518      -0.49563376472      0.591091147518      -0.49563376472      -0.408742371451     -0.486588143991     
1800000000.0        -0.436636524957     -0.490681365832     0.563191699315      -0.500264988073     0.563191699315      -0.500264988073     -0.436636524957     -0.490681365832     
1900000000.0        -0.463404286406     -0.493097003438     0.536418346337      -0.503219463926     0.536418346337      -0.503219463926     -0.463404286406     -0.493097003438     
2000000000.0        -0.489002692879     -0.494042130091     0.510814049419      -0.504704286729     0.510814049419      -0.504704286729     -0.489002692879     -0.494042130091     
2100000000.0        -0.513412654177     -0.493707679546     0.486397896704      -0.50491041045      0.486397896704      -0.50491041045      -0.513412654177     -0.493707679546     
2200000000.0        -0.536634219329     -0.492267711025     0.463169837123      -0.504011913645     0.463169837123      -0.504011913645     -0.536634219329     -0.492267711025     
2300000000.0        -0.558682436978     -0.489879393277     0.441114819999      -0.502165983589     0.441114819999      -0.502165983589     -0.558682436978     -0.489879393277     
2400000000.0        -0.579583812752     -0.486683500967     0.420206337677      -0.499513412725     0.420206337677      -0.499513412725     -0.579583812752     -0.486683500967     
2500000000.0        -0.599373333753     -0.482805255749     0.400409401024      -0.496179439804     0.400409401024      -0.496179439804     -0.599373333753     -0.482805255749     
2600000000.0        -0.618092010977     -0.478355380692     0.381682997009      -0.492274804363     0.381682997009      -0.492274804363     -0.618092010977     -0.478355380692     
2700000000.0        -0.635784880991     -0.473431268411     0.363982087023      -0.48789691491      0.363982087023      -0.48789691491      -0.635784880991     -0.473431268411     
2800000000.0        -0.652499405601     -0.46811818979      0.347259207205      -0.483131057695     0.347259207205      -0.483131057695     -0.652499405601     -0.46811818979      
2900000000.0        -0.668284210029     -0.462490491574     0.331465730268      -0.47805159435      0.331465730268      -0.47805159435      -0.668284210029     -0.462490491574     
3000000000.0        -0.683188104518     -0.456612747897     0.316552843888      -0.472723113461     0.316552843888      -0.472723113461     -0.683188104518     -0.456612747897     
3100000000.0        -0.697259340049     -0.450540843614     0.302472294986      -0.467201513936     0.302472294986      -0.467201513936     -0.697259340049     -0.450540843614     
3200000000.0        -0.710545055083     -0.444322976797     0.289176942991      -0.461535007544     0.289176942991      -0.461535007544     -0.710545055083     -0.444322976797     
3300000000.0        -0.723090876416     -0.438000574662     0.276621158973      -0.455765034878     0.276621158973      -0.455765034878     -0.723090876416     -0.438000574662     
3400000000.0        -0.734940643012     -0.431609122003     0.264761101817      -0.449927093821     0.264761101817      -0.449927093821     -0.734940643012     -0.431609122003     
3500000000.0        -0.746136226875     -0.425178904461     0.253554897349      -0.444051482844     0.253554897349      -0.444051482844     -0.746136226875     -0.425178904461     
3600000000.0        -0.756717429619     -0.418735671037     0.242962741761      -0.438163963556     0.242962741761      -0.438163963556     -0.756717429619     -0.418735671037     
3700000000.0        -0.766721937298     -0.412301221492     0.232946946785      -0.432286348129     0.232946946785      -0.432286348129     -0.766721937298     -0.412301221492     
3800000000.0        -0.776185319436     -0.405893924876     0.223471940659      -0.426437017851     0.223471940659      -0.426437017851     -0.776185319436     -0.405893924876     
3900000000.0        -0.785141060939     -0.399529175607     0.214504236215      -0.420631379234     0.214504236215      -0.420631379234     -0.785141060939     -0.399529175607     
4000000000.0        -0.793620617925     -0.393219793432     0.206012375049      -0.414882263997     0.206012375049      -0.414882263997     -0.793620617925     -0.393219793432     
4100000000.0        -0.80165349037      -0.386976373303     0.197966854876      -0.409200278965     0.197966854876      -0.409200278965     -0.80165349037      -0.386976373303     
4200000000.0        -0.809267306028     -0.380807590805     0.190340045602      -0.403594111518     0.190340045602      -0.403594111518     -0.809267306028     -0.380807590805     
4300000000.0        -0.81648791133      -0.37472046833      0.183106098434      -0.398070795784     0.183106098434      -0.398070795784     -0.81648791133      -0.37472046833      
4400000000.0        -0.823339465955     -0.368720606685     0.176240851299      -0.392635944267     0.176240851299      -0.392635944267     -0.823339465955     -0.368720606685     
4500000000.0        -0.829844538585     -0.362812386395     0.169721733096      -0.387293949165     0.169721733096      -0.387293949165     -0.829844538585     -0.362812386395     
4600000000.0        -0.836024201981     -0.356999142459     0.163527668617      -0.382048157148     0.163527668617      -0.382048157148     -0.836024201981     -0.356999142459     
4700000000.0        -0.841898126011     -0.351283315939     0.157638985512      -0.376901020956     0.157638985512      -0.376901020956     -0.841898126011     -0.351283315939     
4800000000.0        -0.847484667686     -0.345666585324     0.152037324261      -0.371854230782     0.152037324261      -0.371854230782     -0.847484667686     -0.345666585324     
4900000000.0        -0.852800957514     -0.340149980298     0.146705551816      -0.366908828054     0.146705551816      -0.366908828054     -0.852800957514     -0.340149980298     
5000000000.0        -0.857862981774     -0.334733980194     0.141627679323      -0.362065303901     0.141627679323      -0.362065303901     -0.857862981774     -0.334733980194     
5100000000.0        -0.862685660453     -0.329418599134     0.13678878419       -0.357323684303     0.13678878419       -0.357323684303     -0.862685660453     -0.329418599134     
5200000000.0        -0.867282920747     -0.324203459607     0.13217493658       -0.352683603687     0.13217493658       -0.352683603687     -0.867282920747     -0.324203459607     
5300000000.0        -0.871667766116     -0.319087856017     0.127773130357      -0.348144368478     0.127773130357      -0.348144368478     -0.871667766116     -0.319087856017     
5400000000.0        -0.875852340981     -0.314070809509     0.12357121839       -0.343705011943     0.12357121839       -0.343705011943     -0.875852340981     -0.314070809509     
5500000000.0        -0.87984799117      -0.309151115251     0.119557852104      -0.339364341479     0.119557852104      -0.339364341479     -0.87984799117      -0.309151115251     
5600000000.0        -0.883665320286     -0.304327383162     0.115722425111      -0.335120979347     0.115722425111      -0.335120979347     -0.883665320286     -0.304327383162     
5700000000.0        -0.887314242188     -0.299598072954     0.112055020729      -0.330973397731     0.112055020729      -0.330973397731     -0.887314242188     -0.299598072954     
5800000000.0        -0.89080402978      -0.294961524262     0.108546363191      -0.326919948868     0.108546363191      -0.326919948868     -0.89080402978      -0.294961524262     
5900000000.0        -0.894143360324     -0.290415982491     0.105187772334      -0.32295889091      0.105187772334      -0.32295889091      -0.894143360324     -0.290415982491     
6000000000.0        -0.897340357483     -0.285959620982     0.101971121552      -0.319088410091     0.101971121552      -0.319088410091     -0.897340357483     -0.285959620982     
6100000000.0        -0.900402630305     -0.281590559966     0.0988887988107     -0.31530663969      0.0988887988107     -0.31530663969      -0.900402630305     -0.281590559966     
6200000000.0        -0.903337309357     -0.277306882737     0.0959336705159     -0.311611676217     0.0959336705159     -0.311611676217     -0.903337309357     -0.277306882737     
6300000000.0        -0.906151080194     -0.273106649439     0.09309904804       -0.308001593194     0.09309904804       -0.308001593194     -0.906151080194     -0.273106649439     
6400000000.0        -0.908850214364     -0.268987908756     0.09037865672       -0.304474452863     0.09037865672       -0.304474452863     -0.908850214364     -0.268987908756     
6500000000.0        -0.91144059811      -0.264948707811     0.0877666071483     -0.301028316081     0.0877666071483     -0.301028316081     -0.91144059811      -0.264948707811     
6600000000.0        -0.913927758959     -0.260987100505     0.0852573685896     -0.297661250673     0.0852573685896     -0.297661250673     -0.913927758959     -0.260987100505     
6700000000.0        -0.916316890332     -0.257101154507     0.0828457443646     -0.294371338419     0.0828457443646     -0.294371338419     -0.916316890332     -0.257101154507     
6800000000.0        -0.918612874343     -0.253288957081     0.0805268490552     -0.291156680894     0.0805268490552     -0.291156680894     -0.918612874343     -0.253288957081     
6900000000.0        -0.920820302903     -0.249548619913     0.0782960873916     -0.288015404293     0.0782960873916     -0.288015404293     -0.920820302903     -0.249548619913     
7000000000.0        -0.922943497287     -0.245878283062     0.0761491346949     -0.28494566339      0.0761491346949     -0.28494566339      -0.922943497287     -0.245878283062     
7100000000.0        -0.924986526241     -0.242276118168     0.0740819187565     -0.281945644749     0.0740819187565     -0.281945644749     -0.924986526241     -0.242276118168     
7200000000.0        -0.92695322279      -0.238740331017     0.0720906030422     -0.279013569294     0.0720906030422     -0.279013569294     -0.92695322279      -0.238740331017     
7300000000.0        -0.928847199795     -0.23526916355      0.0701715711225     -0.276147694322     0.0701715711225     -0.276147694322     -0.928847199795     -0.23526916355      
7400000000.0        -0.930671864399     -0.2318608954       0.0683214122319     -0.273346315041     0.0683214122319     -0.273346315041     -0.930671864399     -0.2318608954       
7500000000.0        -0.932430431424     -0.228513845014     0.0665369078722     -0.270607765703     0.0665369078722     -0.270607765703     -0.932430431424     -0.228513845014     
7600000000.0        -0.934125935796     -0.22522637044      0.064815019379      -0.267930420386     0.064815019379      -0.267930420386     -0.934125935796     -0.22522637044      
7700000000.0        -0.935761244096     -0.221996869805     0.0631528763774     -0.26531269348      0.0631528763774     -0.26531269348      -0.935761244096     -0.221996869805     
7800000000.0        -0.937339065276     -0.218823781546     0.0615477660595     -0.262753039921     0.0615477660595     -0.262753039921     -0.937339065276     -0.218823781546     
7900000000.0        -0.938861960626     -0.215705584425     0.0599971232194     -0.260249955211     0.0599971232194     -0.260249955211     -0.938861960626     -0.215705584425     
8000000000.0        -0.940332353034     -0.212640797369     0.0584985209901     -0.257801975257     0.0584985209901     -0.257801975257     -0.940332353034     -0.212640797369     
8100000000.0        -0.941752535602     -0.209627979151     0.0570496622274     -0.255407676059     0.0570496622274     -0.255407676059     -0.941752535602     -0.209627979151     
8200000000.0        -0.943124679661     -0.206665727951     0.055648371492      -0.253065673272     0.055648371492      -0.253065673272     -0.943124679661     -0.206665727951     
8300000000.0        -0.944450842236     -0.203752680807     0.0542925875857     -0.250774621663     0.0542925875857     -0.250774621663     -0.944450842236     -0.203752680807     
8400000000.0        -0.945732972995     -0.200887512988     0.0529803565995     -0.248533214482     0.0529803565995     -0.248533214482     -0.945732972995     -0.200887512988     
8500000000.0        -0.946972920726     -0.198068937287     0.0517098254347     -0.246340182763     0.0517098254347     -0.246340182763     -0.946972920726     -0.198068937287     
8600000000.0        -0.948172439376     -0.19529570327      0.0504792357637     -0.244194294576     0.0504792357637     -0.244194294576     -0.948172439376     -0.19529570327      
8700000000.0        -0.949333193684     -0.192566596474     0.0492869183955     -0.242094354221     0.0492869183955     -0.242094354221     -0.949333193684     -0.192566596474     
8800000000.0        -0.950456764437     -0.189880437573     0.0481312880188     -0.240039201409     0.0481312880188     -0.240039201409     -0.950456764437     -0.189880437573     
8900000000.0        -0.951544653376     -0.187236081524     0.0470108382927     -0.238027710399     0.0470108382927     -0.238027710399     -0.951544653376     -0.187236081524     
9000000000.0        -0.952598287782     -0.184632416692     0.0459241372611     -0.236058789134     0.0459241372611     -0.236058789134     -0.952598287782     -0.184632416692     
9100000000.0        -0.953619024759     -0.182068363967     0.0448698230674     -0.234131378358     0.0448698230674     -0.234131378358     -0.953619024759     -0.182068363967     
9200000000.0        -0.95460815524      -0.179542875877     0.0438465999469     -0.232244450734     0.0438465999469     -0.232244450734     -0.95460815524      -0.179542875877     
9300000000.0        -0.955566907737     -0.177054935702     0.0428532344777     -0.230397009956     0.0428532344777     -0.230397009956     -0.955566907737     -0.177054935702     
9400000000.0        -0.956496451843     -0.17460355659      0.0418885520724     -0.228588089874     0.0418885520724     -0.228588089874     -0.956496451843     -0.17460355659      
9500000000.0        -0.957397901521     -0.172187780683     0.040951433692      -0.226816753621     0.040951433692      -0.226816753621     -0.957397901521     -0.172187780683     
9600000000.0        -0.958272318177     -0.169806678248     0.0400408127676     -0.22508209275      0.0400408127676     -0.22508209275      -0.958272318177     -0.169806678248     
9700000000.0        -0.959120713548     -0.167459346834     0.0391556723149     -0.223383226384     0.0391556723149     -0.223383226384     -0.959120713548     -0.167459346834     
9800000000.0        -0.959944052403     -0.165144910427     0.0382950422289     -0.221719300389     0.0382950422289     -0.221719300389     -0.959944052403     -0.165144910427     
9900000000.0        -0.960743255079     -0.162862518629     0.0374579967446     -0.220089486546     0.0374579967446     -0.220089486546     -0.960743255079     -0.162862518629     
10000000000.0       -0.961519199867     -0.160611345861     0.0366436520544     -0.218492981759     0.0366436520544     -0.218492981759     -0.961519199867     -0.160611345861     
