# Hz S RI R 50.00 
100000000.0         0.016565971787      0.00116011202367    0.983432196215      -0.00182205421921   0.983432196215      -0.00182205421921   0.016565971787      0.00116011202367    
200000000.0         0.0166797145077     0.00231955264278    0.983317180832      -0.00364343767638   0.983317180832      -0.00364343767638   0.0166797145077     0.00231955264278    
300000000.0         0.0167686379596     0.00347856832404    0.983226544018      -0.00546439770574   0.983226544018      -0.00546439770574   0.0167686379596     0.00347856832404    
400000000.0         0.0168469618334     0.0046372327184     0.983146066055      -0.00728500868518   0.983146066055      -0.00728500868518   0.0168469618334     0.0046372327184     
500000000.0         0.0169201736549     0.0057955792929     0.983070259389      -0.00910530473876   0.983070259389      -0.00910530473876   0.0169201736549     0.0057955792929     
600000000.0         0.0169910773503     0.00695362372385    0.982996320069      -0.0109253021546    0.982996320069      -0.0109253021546    0.0169910773503     0.00695362372385    
700000000.0         0.0170613322208     0.0081113719361     0.982922588768      -0.0127450074366    0.982922588768      -0.0127450074366    0.0170613322208     0.0081113719361     
800000000.0         0.0171320150776     0.00926882382987    0.982847988647      -0.0145644210389    0.982847988647      -0.0145644210389    0.0171320150776     0.00926882382987    
900000000.0         0.0172038707289     0.0104259752811     0.98277177487       -0.0163835393713    0.98277177487       -0.0163835393713    0.0172038707289     0.0104259752811     
1000000000.0        0.0172774390433     0.0115828193252     0.98269340754       -0.0182023559859    0.98269340754       -0.0182023559859    0.0172774390433     0.0115828193252     
1100000000.0        0.0173531256368     0.0127393469081     0.98261248101       -0.0200208623312    0.98261248101       -0.0200208623312    0.0173531256368     0.0127393469081     
1200000000.0        0.0174312440239     0.0138955473889     0.982528681735      -0.0218390482566    0.982528681735      -0.0218390482566    0.0174312440239     0.0138955473889     
1300000000.0        0.0175120421572     0.0150514088909     0.982441761729      -0.0236569023646    0.982441761729      -0.0236569023646    0.0175120421572     0.0150514088909     
1400000000.0        0.017595719884      0.0162069185544     0.98235152111       -0.0254744122654    0.98235152111       -0.0254744122654    0.017595719884      0.0162069185544     
1500000000.0        0.0176824408507     0.0173620627248     0.982257796197      -0.0272915647653    0.982257796197      -0.0272915647653    0.0176824408507     0.0173620627248     
1600000000.0        0.0177723408699     0.0185168270954     0.982160451139      -0.0291083460108    0.982160451139      -0.0291083460108    0.0177723408699     0.0185168270954     
1700000000.0        0.0178655339537     0.0196711968177     0.982059371886      -0.0309247415995    0.982059371886      -0.0309247415995    0.0178655339537     0.0196711968177     
1800000000.0        0.0179621167632     0.0208251565894     0.981954461737      -0.0327407366685    0.981954461737      -0.0327407366685    0.0179621167632     0.0208251565894     
1900000000.0        0.0180621719527     0.0219786907235     0.981845637996      -0.0345563159644    0.981845637996      -0.0345563159644    0.0180621719527     0.0219786907235     
2000000000.0        0.018165770727      0.0231317832056     0.981732829414      -0.0363714639004    0.981732829414      -0.0363714639004    0.018165770727      0.0231317832056     
2100000000.0        0.0182729748259     0.0242844177404     0.981615974208      -0.0381861646039    0.981615974208      -0.0381861646039    0.0182729748259     0.0242844177404     
2200000000.0        0.018383838086      0.0254365777904     0.981495018494      -0.0400004019549    0.981495018494      -0.0400004019549    0.018383838086      0.0254365777904     
2300000000.0        0.0184984076839     0.0265882466081     0.981369915048      -0.0418141596192    0.981369915048      -0.0418141596192    0.0184984076839     0.0265882466081     
2400000000.0        0.0186167251368     0.0277394072642     0.981240622304      -0.0436274210761    0.981240622304      -0.0436274210761    0.0186167251368     0.0277394072642     
2500000000.0        0.0187388271165     0.0288900426701     0.981107103539      -0.0454401696417    0.981107103539      -0.0454401696417    0.0187388271165     0.0288900426701     
2600000000.0        0.0188647461164     0.0300401355989     0.980969326207      -0.0472523884899    0.980969326207      -0.0472523884899    0.0188647461164     0.0300401355989     
2700000000.0        0.0189945110039     0.0311896687022     0.980827261387      -0.0490640606694    0.980827261387      -0.0490640606694    0.0189945110039     0.0311896687022     
2800000000.0        0.0191281474806     0.0323386245256     0.980680883323      -0.0508751691193    0.980680883323      -0.0508751691193    0.0191281474806     0.0323386245256     
2900000000.0        0.0192656784679     0.0334869855218     0.980530169035      -0.0526856966827    0.980530169035      -0.0526856966827    0.0192656784679     0.0334869855218     
3000000000.0        0.0194071244338     0.0346347340625     0.980375097997      -0.0544956261183    0.980375097997      -0.0544956261183    0.0194071244338     0.0346347340625     
3100000000.0        0.0195525036702     0.0357818524487     0.980215651858      -0.0563049401112    0.980215651858      -0.0563049401112    0.0195525036702     0.0357818524487     
3200000000.0        0.0197018325293     0.0369283229198     0.980051814204      -0.058113621282     0.980051814204      -0.058113621282     0.0197018325293     0.0369283229198     
3300000000.0        0.0198551256275     0.0380741276622     0.979883570355      -0.0599216521952    0.979883570355      -0.0599216521952    0.0198551256275     0.0380741276622     
3400000000.0        0.0200123960214     0.0392192488163     0.979710907191      -0.0617290153669    0.979710907191      -0.0617290153669    0.0200123960214     0.0392192488163     
3500000000.0        0.0201736553595     0.0403636684835     0.979533812995      -0.0635356932716    0.979533812995      -0.0635356932716    0.0201736553595     0.0403636684835     
3600000000.0        0.0203389140158     0.0415073687322     0.979352277328      -0.0653416683481    0.979352277328      -0.0653416683481    0.0203389140158     0.0415073687322     
3700000000.0        0.0205081812054     0.0426503316031     0.979166290905      -0.0671469230052    0.979166290905      -0.0671469230052    0.0205081812054     0.0426503316031     
3800000000.0        0.0206814650866     0.0437925391147     0.978975845497      -0.0689514396272    0.978975845497      -0.0689514396272    0.0206814650866     0.0437925391147     
3900000000.0        0.0208587728506     0.0449339732673     0.978780933841      -0.0707552005778    0.978780933841      -0.0707552005778    0.0208587728506     0.0449339732673     
4000000000.0        0.0210401108012     0.0460746160477     0.978581549559      -0.0725581882053    0.978581549559      -0.0725581882053    0.0210401108012     0.0460746160477     
4100000000.0        0.0212254844251     0.0472144494331     0.978377687089      -0.0743603848459    0.978377687089      -0.0743603848459    0.0212254844251     0.0472144494331     
4200000000.0        0.0214148984544     0.0483534553944     0.978169341624      -0.0761617728276    0.978169341624      -0.0761617728276    0.0214148984544     0.0483534553944     
4300000000.0        0.0216083569232     0.0494916158996     0.97795650905       -0.0779623344738    0.97795650905       -0.0779623344738    0.0216083569232     0.0494916158996     
4400000000.0        0.0218058632167     0.0506289129174     0.977739185902      -0.0797620521061    0.977739185902      -0.0797620521061    0.0218058632167     0.0506289129174     
4500000000.0        0.0220074201171     0.0517653284195     0.977517369319      -0.0815609080476    0.977517369319      -0.0815609080476    0.0220074201171     0.0517653284195     
4600000000.0        0.0222130298434     0.0529008443836     0.977291056997      -0.0833588846255    0.977291056997      -0.0833588846255    0.0222130298434     0.0529008443836     
4700000000.0        0.0224226940882     0.054035442796      0.977060247161      -0.0851559641737    0.977060247161      -0.0851559641737    0.0224226940882     0.054035442796      
4800000000.0        0.0226364140505     0.0551691056539     0.976824938526      -0.0869521290354    0.976824938526      -0.0869521290354    0.0226364140505     0.0551691056539     
4900000000.0        0.0228541904655     0.0563018149676     0.976585130269      -0.0887473615652    0.976585130269      -0.0887473615652    0.0228541904655     0.0563018149676     
5000000000.0        0.0230760236322     0.0574335527628     0.976340822004      -0.0905416441312    0.976340822004      -0.0905416441312    0.0230760236322     0.0574335527628     
5100000000.0        0.0233019134374     0.0585643010826     0.976092013752      -0.0923349591176    0.976092013752      -0.0923349591176    0.0233019134374     0.0585643010826     
5200000000.0        0.0235318593789     0.0596940419893     0.975838705927      -0.0941272889259    0.975838705927      -0.0941272889259    0.0235318593789     0.0596940419893     
5300000000.0        0.0237658605853     0.0608227575662     0.975580899304      -0.0959186159774    0.975580899304      -0.0959186159774    0.0237658605853     0.0608227575662     
5400000000.0        0.0240039158358     0.0619504299196     0.975318595012      -0.0977089227145    0.975318595012      -0.0977089227145    0.0240039158357     0.0619504299196     
5500000000.0        0.0242460235764     0.06307704118       0.975051794508      -0.0994981916029    0.975051794508      -0.0994981916029    0.0242460235764     0.06307704118       
5600000000.0        0.0244921819368     0.0642025735044     0.974780499566      -0.101286405132     0.974780499566      -0.101286405132     0.0244921819368     0.0642025735044     
5700000000.0        0.0247423887442     0.0653270090769     0.974504712259      -0.10307354582      0.974504712259      -0.10307354582      0.0247423887442     0.0653270090769     
5800000000.0        0.0249966415372     0.0664503301109     0.974224434949      -0.104859596208     0.974224434949      -0.104859596208     0.0249966415372     0.0664503301109     
5900000000.0        0.0252549375781     0.0675725188501     0.973939670271      -0.106644538871     0.973939670271      -0.106644538871     0.0252549375781     0.0675725188501     
6000000000.0        0.0255172738644     0.0686935575702     0.973650421125      -0.108428356412     0.973650421125      -0.108428356412     0.0255172738644     0.0686935575702     
6100000000.0        0.0257836471394     0.0698134285797     0.973356690664      -0.110211031466     0.973356690664      -0.110211031466     0.0257836471394     0.0698134285797     
6200000000.0        0.0260540539024     0.0709321142215     0.973058482282      -0.111992546701     0.973058482282      -0.111992546701     0.0260540539024     0.0709321142215     
6300000000.0        0.0263284904174     0.072049596874      0.972755799607      -0.11377288482      0.972755799607      -0.11377288482      0.0263284904174     0.072049596874      
6400000000.0        0.0266069527219     0.0731658589524     0.972448646493      -0.11555202856      0.972448646493      -0.11555202856      0.0266069527219     0.0731658589524     
6500000000.0        0.0268894366351     0.0742808829095     0.97213702701       -0.117329960695     0.97213702701       -0.117329960695     0.0268894366351     0.0742808829095     
6600000000.0        0.0271759377648     0.0753946512372     0.97182094544       -0.119106664039     0.97182094544       -0.119106664039     0.0271759377648     0.0753946512372     
6700000000.0        0.0274664515148     0.0765071464673     0.971500406265      -0.120882121442     0.971500406265      -0.120882121442     0.0274664515148     0.0765071464673     
6800000000.0        0.0277609730912     0.0776183511724     0.971175414164      -0.122656315795     0.971175414164      -0.122656315795     0.0277609730912     0.0776183511724     
6900000000.0        0.0280594975086     0.0787282479675     0.970845974007      -0.124429230029     0.970845974007      -0.124429230029     0.0280594975086     0.0787282479675     
7000000000.0        0.0283620195958     0.0798368195101     0.970512090847      -0.126200847117     0.970512090847      -0.126200847117     0.0283620195958     0.0798368195101     
7100000000.0        0.0286685340009     0.0809440485021     0.970173769917      -0.127971150077     0.970173769917      -0.127971150077     0.0286685340009     0.0809440485021     
7200000000.0        0.0289790351968     0.0820499176899     0.969831016625      -0.129740121968     0.969831016625      -0.129740121968     0.0289790351968     0.0820499176899     
7300000000.0        0.0292935174858     0.0831544098657     0.969483836546      -0.131507745895     0.969483836546      -0.131507745895     0.0292935174858     0.0831544098657     
7400000000.0        0.0296119750038     0.0842575078685     0.96913223542       -0.133274005008     0.96913223542       -0.133274005008     0.0296119750038     0.0842575078685     
7500000000.0        0.0299344017251     0.0853591945845     0.96877621915       -0.135038882504     0.96877621915       -0.135038882504     0.0299344017251     0.0853591945845     
7600000000.0        0.0302607914658     0.0864594529486     0.968415793792      -0.136802361627     0.968415793792      -0.136802361627     0.0302607914658     0.0864594529486     
7700000000.0        0.0305911378881     0.0875582659446     0.968050965558      -0.13856442567      0.968050965558      -0.13856442567      0.0305911378881     0.0875582659446     
7800000000.0        0.0309254345036     0.0886556166062     0.967681740806      -0.140325057972     0.967681740806      -0.140325057972     0.0309254345036     0.0886556166062     
7900000000.0        0.031263674677      0.0897514880181     0.967308126043      -0.142084241926     0.967308126043      -0.142084241926     0.031263674677      0.0897514880181     
8000000000.0        0.0316058516288     0.0908458633162     0.966930127915      -0.143841960972     0.966930127915      -0.143841960972     0.0316058516288     0.0908458633162     
8100000000.0        0.0319519584392     0.091938725689      0.966547753209      -0.145598198604     0.966547753209      -0.145598198604     0.0319519584392     0.091938725689      
8200000000.0        0.0323019880502     0.0930300583778     0.966161008849      -0.147352938366     0.966161008849      -0.147352938366     0.0323019880502     0.0930300583778     
8300000000.0        0.0326559332692     0.0941198446776     0.965769901892      -0.149106163855     0.965769901892      -0.149106163855     0.0326559332692     0.0941198446776     
8400000000.0        0.0330137867708     0.095208067938      0.965374439525      -0.150857858724     0.965374439525      -0.150857858724     0.0330137867708     0.095208067938      
8500000000.0        0.0333755411004     0.0962947115636     0.964974629065      -0.152608006677     0.964974629065      -0.152608006677     0.0333755411004     0.0962947115636     
8600000000.0        0.0337411886756     0.097379759015      0.964570477954      -0.154356591475     0.964570477954      -0.154356591475     0.0337411886756     0.097379759015      
8700000000.0        0.0341107217894     0.0984631938093     0.964161993757      -0.156103596934     0.964161993757      -0.156103596934     0.0341107217894     0.0984631938093     
8800000000.0        0.0344841326118     0.0995449995206     0.963749184161      -0.157849006925     0.963749184161      -0.157849006925     0.0344841326118     0.0995449995206     
8900000000.0        0.0348614131925     0.100625159781      0.963332056972      -0.159592805378     0.963332056972      -0.159592805378     0.0348614131925     0.100625159781      
9000000000.0        0.0352425554627     0.101703658281      0.962910620114      -0.161334976281     0.962910620114      -0.161334976281     0.0352425554627     0.101703658281      
9100000000.0        0.0356275512368     0.10278047877       0.962484881624      -0.163075503677     0.962484881624      -0.163075503677     0.0356275512368     0.10278047877       
9200000000.0        0.0360163922152     0.103855605057      0.962054849654      -0.164814371671     0.962054849654      -0.164814371671     0.0360163922152     0.103855605057      
9300000000.0        0.0364090699851     0.104929021012      0.961620532467      -0.166551564426     0.961620532467      -0.166551564426     0.0364090699851     0.104929021012      
9400000000.0        0.0368055760232     0.106000710566      0.961181938435      -0.168287066166     0.961181938435      -0.168287066166     0.0368055760232     0.106000710566      
9500000000.0        0.0372059016967     0.107070657711      0.960739076038      -0.170020861175     0.960739076038      -0.170020861175     0.0372059016967     0.107070657711      
9600000000.0        0.0376100382655     0.1081388465        0.960291953862      -0.171752933798     0.960291953862      -0.171752933798     0.0376100382655     0.1081388465        
9700000000.0        0.0380179768836     0.109205261051      0.959840580597      -0.173483268443     0.959840580597      -0.173483268443     0.0380179768836     0.109205261051      
9800000000.0        0.0384297086007     0.110269885543      0.959384965037      -0.17521184958      0.959384965037      -0.17521184958      0.0384297086007     0.110269885543      
9900000000.0        0.0388452243635     0.11133270422       0.958925116076      -0.176938661741     0.958925116076      -0.176938661741     0.0388452243635     0.11133270422       
10000000000.0       0.0392645150178     0.112393701391      0.958461042711      -0.178663689522     0.958461042711      -0.178663689522     0.0392645150178     0.112393701391      
