# Hz S RI R 50.00 
100000000.0         0.00246388026278    0.000775662197508   0.997533831829      -0.00169273184764   0.997533831829      -0.00169273184764   0.00246388026278    0.000775662197508   
200000000.0         0.00248376774498    0.00155123681259    0.997511814672      -0.0033853899108    0.997511814672      -0.0033853899108    0.00248376774498    0.00155123681259    
300000000.0         0.00250193805167    0.00232674770093    0.997490672842      -0.00507800585427   0.997490672842      -0.00507800585427   0.00250193805167    0.00232674770093    
400000000.0         0.00252052745491    0.00310219734808    0.997468269964      -0.00677058812718   0.997468269964      -0.00677058812718   0.00252052745491    0.00310219734808    
500000000.0         0.00254035888794    0.00387758325914    0.997443782986      -0.00846313926135   0.997443782986      -0.00846313926135   0.00254035888794    0.00387758325914    
600000000.0         0.00256185210882    0.00465290074045    0.997416792013      -0.0101556589732    0.997416792013      -0.0101556589732    0.00256185210882    0.00465290074045    
700000000.0         0.00258525508804    0.00542814390145    0.997387048923      -0.0118481453299    0.997387048923      -0.0118481453299    0.00258525508804    0.00542814390145    
800000000.0         0.0026107284614     0.00620330612069    0.997354392919      -0.0135405953128    0.997354392919      -0.0135405953128    0.0026107284614     0.00620330612069    
900000000.0         0.00263838313389    0.0069783802961     0.997318712919      -0.0152330051336    0.997318712919      -0.0152330051336    0.00263838313389    0.0069783802961     
1000000000.0        0.00266829934069    0.00775335899346    0.997279928499      -0.016925370428     0.997279928499      -0.016925370428     0.00266829934069    0.00775335899346    
1100000000.0        0.00270053724313    0.00852823454049    0.997237979301      -0.0186176863839    0.997237979301      -0.0186176863839    0.00270053724313    0.00852823454049    
1200000000.0        0.00273514324251    0.00930299908989    0.997192818713      -0.0203099478308    0.997192818713      -0.0203099478308    0.00273514324251    0.00930299908989    
1300000000.0        0.00277215395248    0.0100776446632     0.997144409904      -0.0220021493037    0.997144409904      -0.0220021493037    0.00277215395248    0.0100776446632     
1400000000.0        0.00281159881001    0.0108521631823     0.997092723208      -0.0236942850916    0.997092723208      -0.0236942850916    0.00281159881001    0.0108521631823     
1500000000.0        0.00285350185457    0.0116265464929     0.99703773435       -0.0253863492741    0.99703773435       -0.0253863492741    0.00285350185457    0.0116265464929     
1600000000.0        0.00289788297769    0.0124007863822     0.996979423193      -0.0270783357511    0.996979423193      -0.0270783357511    0.00289788297769    0.0124007863822     
1700000000.0        0.00294475882341    0.0131748745922     0.996917772839      -0.0287702382657    0.996917772839      -0.0287702382657    0.00294475882341    0.0131748745922     
1800000000.0        0.00299414345173    0.0139488028308     0.996852768968      -0.0304620504231    0.996852768968      -0.0304620504231    0.00299414345173    0.0139488028308     
1900000000.0        0.00304604883699    0.0147225627799     0.996784399337      -0.0321537657068    0.996784399337      -0.0321537657068    0.00304604883699    0.0147225627799     
2000000000.0        0.00310048524866    0.0154961461023     0.996712653402      -0.0338453774908    0.996712653402      -0.0338453774908    0.00310048524866    0.0154961461023     
2100000000.0        0.00315746154663    0.0162695444474     0.996637522021      -0.0355368790519    0.996637522021      -0.0355368790519    0.00315746154663    0.0162695444474     
2200000000.0        0.0032169854134     0.0170427494554     0.996558997223      -0.037228263578     0.996558997223      -0.037228263578     0.0032169854134     0.0170427494554     
2300000000.0        0.00327906353883    0.0178157527613     0.996477072024      -0.0389195241771    0.996477072024      -0.0389195241771    0.00327906353883    0.0178157527613     
2400000000.0        0.0033437017687     0.0185885459979     0.996391740277      -0.0406106538841    0.996391740277      -0.0406106538841    0.0033437017687     0.0185885459979     
2500000000.0        0.00341090522547    0.0193611207984     0.996302996554      -0.0423016456669    0.996302996554      -0.0423016456669    0.00341090522547    0.0193611207984     
2600000000.0        0.0034806784072     0.0201334687986     0.996210836045      -0.0439924924322    0.996210836045      -0.0439924924322    0.0034806784072     0.0201334687986     
2700000000.0        0.00355302526938    0.0209055816388     0.996115254477      -0.0456831870301    0.996115254477      -0.0456831870301    0.00355302526938    0.0209055816388     
2800000000.0        0.00362794929306    0.0216774509652     0.996016248048      -0.0473737222584    0.996016248048      -0.0473737222584    0.00362794929306    0.0216774509652     
2900000000.0        0.00370545354197    0.0224490684316     0.995913813367      -0.0490640908665    0.995913813367      -0.0490640908665    0.00370545354197    0.0224490684316     
3000000000.0        0.00378554071081    0.0232204257002     0.995807947407      -0.0507542855592    0.995807947407      -0.0507542855592    0.00378554071081    0.0232204257002     
3100000000.0        0.00386821316618    0.0239915144426     0.995698647465      -0.0524442989993    0.995698647465      -0.0524442989993    0.00386821316618    0.0239915144426     
3200000000.0        0.00395347298159    0.024762326341      0.995585911127      -0.0541341238109    0.995585911127      -0.0541341238109    0.00395347298159    0.024762326341      
3300000000.0        0.00404132196753    0.0255328530885     0.995469736239      -0.0558237525818    0.995469736239      -0.0558237525818    0.00404132196753    0.0255328530885     
3400000000.0        0.00413176169739    0.0263030863901     0.995350120877      -0.0575131778659    0.995350120877      -0.0575131778659    0.00413176169739    0.0263030863901     
3500000000.0        0.00422479352993    0.0270730179629     0.99522706333       -0.0592023921853    0.99522706333       -0.0592023921853    0.00422479352993    0.0270730179629     
3600000000.0        0.00432041862886    0.0278426395368     0.995100562078      -0.0608913880326    0.995100562078      -0.0608913880326    0.00432041862886    0.0278426395368     
3700000000.0        0.00441863797994    0.0286119428548     0.994970615775      -0.0625801578723    0.994970615775      -0.0625801578723    0.00441863797994    0.0286119428548     
3800000000.0        0.00451945240598    0.0293809196735     0.994837223235      -0.0642686941428    0.994837223235      -0.0642686941428    0.00451945240598    0.0293809196735     
3900000000.0        0.0046228625801     0.0301495617631     0.994700383417      -0.065956989258     0.994700383417      -0.065956989258     0.0046228625801     0.0301495617631     
4000000000.0        0.00472886903739    0.0309178609082     0.994560095416      -0.0676450356085    0.994560095416      -0.0676450356085    0.00472886903739    0.0309178609082     
4100000000.0        0.00483747218526    0.0316858089072     0.994416358451      -0.0693328255632    0.994416358451      -0.0693328255632    0.00483747218526    0.0316858089072     
4200000000.0        0.0049486723127     0.0324533975734     0.994269171858      -0.0710203514706    0.994269171858      -0.0710203514706    0.0049486723127     0.0324533975734     
4300000000.0        0.00506246959845    0.0332206187344     0.994118535078      -0.0727076056599    0.994118535078      -0.0727076056599    0.00506246959845    0.0332206187344     
4400000000.0        0.00517886411842    0.0339874642328     0.993964447653      -0.0743945804419    0.993964447653      -0.0743945804419    0.00517886411842    0.0339874642328     
4500000000.0        0.00529785585224    0.034753925926      0.993806909219      -0.0760812681105    0.993806909219      -0.0760812681105    0.00529785585224    0.034753925926      
4600000000.0        0.00541944468923    0.0355199956865     0.9936459195        -0.0777676609432    0.9936459195        -0.0777676609432    0.00541944468923    0.0355199956865     
4700000000.0        0.00554363043373    0.0362856654015     0.993481478302      -0.0794537512025    0.993481478302      -0.0794537512025    0.00554363043373    0.0362856654015     
4800000000.0        0.00567041280995    0.0370509269738     0.993313585508      -0.0811395311363    0.993313585508      -0.0811395311363    0.00567041280995    0.0370509269738     
4900000000.0        0.00579979146638    0.037815772321      0.993142241077      -0.0828249929791    0.993142241077      -0.0828249929791    0.00579979146638    0.037815772321      
5000000000.0        0.00593176597972    0.0385801933763     0.992967445034      -0.0845101289527    0.992967445034      -0.0845101289527    0.00593176597972    0.0385801933763     
5100000000.0        0.00606633585855    0.0393441820877     0.992789197474      -0.0861949312665    0.992789197474      -0.0861949312665    0.00606633585855    0.0393441820877     
5200000000.0        0.00620350054658    0.0401077304189     0.992607498552      -0.0878793921189    0.992607498552      -0.0878793921189    0.00620350054658    0.0401077304189     
5300000000.0        0.00634325942574    0.0408708303487     0.992422348483      -0.0895635036974    0.992422348483      -0.0895635036974    0.00634325942574    0.0408708303487     
5400000000.0        0.00648561181887    0.0416334738712     0.992233747542      -0.0912472581797    0.992233747542      -0.0912472581797    0.00648561181887    0.0416334738712     
5500000000.0        0.00663055699229    0.0423956529957     0.992041696055      -0.0929306477336    0.992041696055      -0.0929306477336    0.00663055699229    0.0423956529957     
5600000000.0        0.00677809415811    0.043157359747      0.991846194404      -0.0946136645185    0.991846194404      -0.0946136645185    0.00677809415811    0.043157359747      
5700000000.0        0.0069282224764     0.043918586165      0.99164724302       -0.096296300685     0.99164724302       -0.096296300685     0.0069282224764     0.043918586165      
5800000000.0        0.00708094105712    0.0446793243049     0.991444842381      -0.0979785483762    0.991444842381      -0.0979785483762    0.00708094105712    0.0446793243049     
5900000000.0        0.00723624896196    0.0454395662373     0.991238993014      -0.0996603997275    0.991238993014      -0.0996603997275    0.00723624896196    0.0454395662373     
6000000000.0        0.00739414520603    0.0461993040478     0.991029695492      -0.101341846868     0.991029695492      -0.101341846868     0.00739414520603    0.0461993040478     
6100000000.0        0.00755462875943    0.0469585298373     0.990816950429      -0.103022881919     0.990816950429      -0.103022881919     0.00755462875943    0.0469585298373     
6200000000.0        0.00771769854865    0.0477172357219     0.990600758484      -0.104703496998     0.990600758484      -0.104703496998     0.00771769854865    0.0477172357219     
6300000000.0        0.00788335345797    0.0484754138327     0.990381120355      -0.106383684214     0.990381120355      -0.106383684214     0.00788335345797    0.0484754138327     
6400000000.0        0.00805159233067    0.049233056316      0.990158036781      -0.108063435674     0.990158036781      -0.108063435674     0.00805159233067    0.049233056316      
6500000000.0        0.00822241397023    0.0499901553332     0.989931508539      -0.109742743478     0.989931508539      -0.109742743478     0.00822241397023    0.0499901553332     
6600000000.0        0.00839581714137    0.0507467030606     0.989701536446      -0.111421599723     0.989701536446      -0.111421599723     0.00839581714137    0.0507467030606     
6700000000.0        0.00857180057111    0.0515026916897     0.989468121354      -0.113099996499     0.989468121354      -0.113099996499     0.00857180057111    0.0515026916897     
6800000000.0        0.00875036294967    0.0522581134267     0.98923126415       -0.114777925896     0.98923126415       -0.114777925896     0.00875036294967    0.0522581134267     
6900000000.0        0.00893150293141    0.0530129604928     0.988990965759      -0.116455379998     0.988990965759      -0.116455379998     0.00893150293141    0.0530129604928     
7000000000.0        0.00911521913562    0.0537672251243     0.988747227137      -0.118132350886     0.988747227137      -0.118132350886     0.00911521913562    0.0537672251243     
7100000000.0        0.00930151014733    0.0545208995721     0.988500049277      -0.11980883064      0.988500049277      -0.11980883064      0.00930151014733    0.0545208995721     
7200000000.0        0.00949037451803    0.0552739761018     0.988249433203      -0.121484811336     0.988249433203      -0.121484811336     0.00949037451803    0.0552739761018     
7300000000.0        0.00968181076634    0.056026446994      0.987995379971      -0.123160285048     0.987995379971      -0.123160285048     0.00968181076634    0.056026446994      
7400000000.0        0.0098758173787     0.0567783045438     0.987737890669      -0.124835243847     0.987737890669      -0.124835243847     0.0098758173787     0.0567783045438     
7500000000.0        0.01007239281       0.0575295410612     0.987476966418      -0.126509679803     0.987476966418      -0.126509679803     0.01007239281       0.0575295410612     
7600000000.0        0.010271535484      0.0582801488705     0.987212608368      -0.128183584986     0.987212608368      -0.128183584986     0.010271535484      0.0582801488705     
7700000000.0        0.0104732437942     0.059030120311      0.986944817698      -0.129856951462     0.986944817698      -0.129856951462     0.0104732437942     0.059030120311      
7800000000.0        0.0106775161039     0.059779447736      0.986673595619      -0.131529771298     0.986673595619      -0.131529771298     0.0106775161039     0.059779447736      
7900000000.0        0.0108843507472     0.0605281235138     0.98639894337       -0.133202036559     0.98639894337       -0.133202036559     0.0108843507472     0.0605281235138     
8000000000.0        0.011093746029      0.0612761400269     0.986120862219      -0.13487373931      0.986120862219      -0.13487373931      0.011093746029      0.0612761400269     
8100000000.0        0.0113057002259     0.0620234896721     0.985839353463      -0.136544871616     0.985839353463      -0.136544871616     0.0113057002259     0.0620234896721     
8200000000.0        0.0115202115861     0.062770164861      0.985554418425      -0.13821542554      0.985554418425      -0.13821542554      0.0115202115861     0.062770164861      
8300000000.0        0.0117372783301     0.0635161580189     0.985266058459      -0.139885393147     0.985266058459      -0.139885393147     0.0117372783301     0.0635161580189     
8400000000.0        0.0119568986513     0.064261461586      0.984974274945      -0.141554766502     0.984974274945      -0.141554766502     0.0119568986513     0.064261461586      
8500000000.0        0.0121790707158     0.0650060680164     0.984679069287      -0.143223537669     0.984679069287      -0.143223537669     0.0121790707158     0.0650060680164     
8600000000.0        0.0124037926632     0.0657499697784     0.984380442921      -0.144891698713     0.984380442921      -0.144891698713     0.0124037926632     0.0657499697784     
8700000000.0        0.0126310626067     0.0664931593546     0.984078397306      -0.146559241701     0.984078397306      -0.146559241701     0.0126310626067     0.0664931593546     
8800000000.0        0.0128608786335     0.0672356292416     0.983772933927      -0.1482261587       0.983772933927      -0.1482261587       0.0128608786335     0.0672356292416     
8900000000.0        0.0130932388052     0.0679773719502     0.983464054298      -0.149892441778     0.983464054298      -0.149892441778     0.0130932388052     0.0679773719502     
9000000000.0        0.0133281411577     0.0687183800052     0.983151759956      -0.151558083004     0.983151759956      -0.151558083004     0.0133281411577     0.0687183800052     
9100000000.0        0.0135655837021     0.0694586459453     0.982836052463      -0.153223074448     0.982836052463      -0.153223074448     0.0135655837021     0.0694586459453     
9200000000.0        0.0138055644241     0.0701981623234     0.982516933409      -0.154887408184     0.982516933409      -0.154887408184     0.0138055644241     0.0701981623234     
9300000000.0        0.0140480812853     0.0709369217061     0.982194404407      -0.156551076285     0.982194404407      -0.156551076285     0.0140480812853     0.0709369217061     
9400000000.0        0.0142931322226     0.0716749166741     0.981868467096      -0.158214070826     0.981868467096      -0.158214070826     0.0142931322226     0.0716749166741     
9500000000.0        0.0145407151486     0.0724121398217     0.981539123137      -0.159876383886     0.981539123137      -0.159876383886     0.0145407151486     0.0724121398217     
9600000000.0        0.0147908279522     0.0731485837572     0.981206374219      -0.161538007543     0.981206374219      -0.161538007543     0.0147908279522     0.0731485837572     
9700000000.0        0.0150434684983     0.0738842411028     0.980870222054      -0.163198933881     0.980870222054      -0.163198933881     0.0150434684983     0.0738842411028     
9800000000.0        0.0152986346286     0.0746191044941     0.980530668377      -0.164859154983     0.980530668377      -0.164859154983     0.0152986346286     0.0746191044941     
9900000000.0        0.0155563241612     0.0753531665809     0.980187714947      -0.166518662937     0.980187714947      -0.166518662937     0.0155563241612     0.0753531665809     
10000000000.0       0.0158165348909     0.0760864200262     0.97984136355       -0.168177449831     0.97984136355       -0.168177449831     0.0158165348909     0.0760864200262     
