# Hz S RI R 50.00 
100000000.0         0.0138397851619     0.00262559339642    0.986156342017      -0.00425821343448   0.986156342017      -0.00425821343448   0.0138397851619     0.00262559339642    
200000000.0         0.0139636096998     0.00524970167066    0.986026966463      -0.00851496065626   0.986026966463      -0.00851496065626   0.0139636096998     0.00524970167066    
300000000.0         0.0140858861587     0.00787260563866    0.985896460415      -0.0127705361422    0.985896460415      -0.0127705361422    0.0140858861587     0.00787260563866    
400000000.0         0.0142184809901     0.0104942530305     0.985752956998      -0.0170248987904    0.985752956998      -0.0170248987904    0.0142184809901     0.0104942530305     
500000000.0         0.0143659595378     0.0131145142349     0.985591890382      -0.0212779288976    0.985591890382      -0.0212779288976    0.0143659595378     0.0131145142349     
600000000.0         0.0145306432517     0.0157332255395     0.985410938567      -0.0255294718317    0.985410938567      -0.0255294718317    0.0145306432517     0.0157332255395     
700000000.0         0.0147138957042     0.0183502046862     0.985208737365      -0.0297793538087    0.985208737365      -0.0297793538087    0.0147138957042     0.0183502046862     
800000000.0         0.0149165920685     0.0209652581068     0.98498441092       -0.0340273892613    0.98498441092       -0.0340273892613    0.0149165920685     0.0209652581068     
900000000.0         0.0151393282032     0.023578184827      0.984737362632      -0.0382733848292    0.984737362632      -0.0382733848292    0.0151393282032     0.023578184827      
1000000000.0        0.0153825266548     0.0261887787929     0.984467169147      -0.0425171417486    0.984467169147      -0.0425171417486    0.0153825266548     0.0261887787929     
1100000000.0        0.0156464955959     0.0287968303639     0.984173521423      -0.0467584573888    0.984173521423      -0.0467584573888    0.0156464955959     0.0287968303639     
1200000000.0        0.0159314639529     0.0314021273239     0.983856189608      -0.0509971262999    0.983856189608      -0.0509971262999    0.0159314639529     0.0314021273239     
1300000000.0        0.0162376035119     0.0340044556006     0.983515000926      -0.0552329409582    0.983515000926      -0.0552329409582    0.0162376035119     0.0340044556006     
1400000000.0        0.0165650434545     0.0366035997951     0.983149825149      -0.0594656923187    0.983149825149      -0.0594656923187    0.0165650434545     0.0366035997951     
1500000000.0        0.0169138802663     0.0391993435855     0.982760564688      -0.0636951702362    0.982760564688      -0.0636951702362    0.0169138802663     0.0391993435855     
1600000000.0        0.0172841847009     0.0417914700437     0.982347147627      -0.0679211637977    0.982347147627      -0.0679211637977    0.0172841847009     0.0417914700437     
1700000000.0        0.0176760068022     0.0443797618889     0.981909522704      -0.0721434615885    0.981909522704      -0.0721434615885    0.0176760068022     0.0443797618889     
1800000000.0        0.0180893796084     0.0469640016968     0.981447655608      -0.0763618519124    0.981447655608      -0.0763618519124    0.0180893796084     0.0469640016968     
1900000000.0        0.0185243219391     0.0495439720744     0.98096152619       -0.0805761229759    0.98096152619       -0.0805761229759    0.0185243219391     0.0495439720744     
2000000000.0        0.0189808405284     0.0521194558091     0.980451126334      -0.0847860630458    0.980451126334      -0.0847860630458    0.0189808405284     0.0521194558091     
2100000000.0        0.019458931683      0.0546902359982     0.979916458297      -0.0889914605857    0.979916458297      -0.0889914605857    0.019458931683      0.0546902359982     
2200000000.0        0.01995858259       0.0572560961627     0.9793575334        -0.0931921043765    0.9793575334        -0.0931921043765    0.01995858259       0.0572560961627     
2300000000.0        0.020479772362      0.0598168203486     0.978774370988      -0.0973877836234    0.978774370988      -0.0973877836234    0.020479772362      0.0598168203486     
2400000000.0        0.0210224728806     0.0623721932182     0.978166997586      -0.101578288052     0.978166997586      -0.101578288052     0.0210224728806     0.0623721932182     
2500000000.0        0.0215866494862     0.0649220001335     0.977535446206      -0.105763407998     0.977535446206      -0.105763407998     0.0215866494862     0.0649220001335     
2600000000.0        0.0221722615481     0.0674660272325     0.97687975578       -0.109942934485     0.97687975578       -0.109942934485     0.0221722615481     0.0674660272325     
2700000000.0        0.0227792629383     0.0700040615001     0.976199970687      -0.1141166593       0.976199970687      -0.1141166593       0.0227792629383     0.0700040615001     
2800000000.0        0.0234076024316     0.072535890834      0.975496140354      -0.118284375066     0.975496140354      -0.118284375066     0.0234076024316     0.072535890834      
2900000000.0        0.0240572240438     0.0750613041068     0.974768318913      -0.122445875304     0.974768318913      -0.122445875304     0.0240572240438     0.0750613041068     
3000000000.0        0.024728067322      0.0775800912247     0.97401656492       -0.126600954494     0.97401656492       -0.126600954494     0.024728067322      0.0775800912247     
3100000000.0        0.0254200675949     0.0800920431823     0.973240941096      -0.130749408136     0.973240941096      -0.130749408136     0.0254200675949     0.0800920431823     
3200000000.0        0.0261331561903     0.0825969521162     0.972441514115      -0.134891032803     0.972441514115      -0.134891032803     0.0261331561903     0.0825969521162     
3300000000.0        0.0268672606259     0.0850946113547     0.971618354414      -0.139025626194     0.971618354414      -0.139025626194     0.0268672606259     0.0850946113547     
3400000000.0        0.0276223047777     0.0875848154664     0.970771536021      -0.143152987186     0.970771536021      -0.143152987186     0.0276223047777     0.0875848154664     
3500000000.0        0.02839820903       0.0900673603065     0.969901136408      -0.147272915883     0.969901136408      -0.147272915883     0.02839820903       0.0900673603065     
3600000000.0        0.0291948904096     0.0925420430612     0.969007236357      -0.151385213656     0.969007236357      -0.151385213656     0.0291948904096     0.0925420430612     
3700000000.0        0.0300122627068     0.095008662291      0.96808991984       -0.155489683198     0.96808991984       -0.155489683198     0.0300122627068     0.095008662291      
3800000000.0        0.0308502365859     0.0974670179721     0.967149273906      -0.159586128558     0.967149273906      -0.159586128558     0.0308502365859     0.0974670179721     
3900000000.0        0.0317087196856     0.0999169115362     0.966185388582      -0.163674355189     0.966185388582      -0.163674355189     0.0317087196856     0.0999169115362     
4000000000.0        0.0325876167119     0.10235814591       0.965198356784      -0.167754169985     0.965198356784      -0.167754169985     0.0325876167119     0.10235814591       
4100000000.0        0.0334868295237     0.104790525552      0.964188274226      -0.17182538132      0.964188274226      -0.17182538132      0.0334868295237     0.104790525552      
4200000000.0        0.0344062572134     0.10721385649       0.963155239341      -0.175887799088     0.963155239341      -0.175887799088     0.0344062572134     0.10721385649       
4300000000.0        0.0353457961812     0.109627946354      0.962099353212      -0.179941234739     0.962099353212      -0.179941234739     0.0353457961812     0.109627946354      
4400000000.0        0.0363053402064     0.112032604415      0.961020719492      -0.183985501311     0.961020719492      -0.183985501311     0.0363053402064     0.112032604415      
4500000000.0        0.037284780514      0.114427641614      0.959919444346      -0.18802041347      0.959919444346      -0.18802041347      0.037284780514      0.114427641614      
4600000000.0        0.0382840058384     0.116812870595      0.958795636383      -0.192045787538     0.958795636383      -0.192045787538     0.0382840058384     0.116812870595      
4700000000.0        0.0393029024847     0.119188105737      0.957649406596      -0.196061441529     0.957649406596      -0.196061441529     0.0393029024847     0.119188105737      
4800000000.0        0.0403413543866     0.121553163187      0.956480868304      -0.20006719518      0.956480868304      -0.20006719518      0.0403413543866     0.121553163187      
4900000000.0        0.0413992431634     0.123907860883      0.955290137094      -0.204062869977     0.955290137094      -0.204062869977     0.0413992431634     0.123907860883      
5000000000.0        0.0424764481738     0.126252018588      0.954077330771      -0.208048289191     0.954077330771      -0.208048289191     0.0424764481738     0.126252018588      
5100000000.0        0.0435728465694     0.128585457917      0.952842569301      -0.212023277902     0.952842569301      -0.212023277902     0.0435728465694     0.128585457917      
5200000000.0        0.0446883133458     0.130908002361      0.951585974761      -0.215987663028     0.951585974761      -0.215987663028     0.0446883133458     0.130908002361      
5300000000.0        0.0458227213931     0.133219477314      0.95030767129       -0.219941273351     0.95030767129       -0.219941273351     0.0458227213931     0.133219477314      
5400000000.0        0.0469759415447     0.135519710099      0.949007785038      -0.223883939543     0.949007785038      -0.223883939543     0.0469759415447     0.135519710099      
5500000000.0        0.0481478426257     0.137808529994      0.94768644412       -0.227815494191     0.94768644412       -0.227815494191     0.0481478426257     0.137808529994      
5600000000.0        0.0493382915004     0.140085768249      0.946343778568      -0.231735771822     0.946343778568      -0.231735771822     0.0493382915004     0.140085768249      
5700000000.0        0.0505471531184     0.142351258116      0.944979920284      -0.235644608925     0.944979920284      -0.235644608925     0.0505471531184     0.142351258116      
5800000000.0        0.051774290561      0.144604834866      0.943595002993      -0.239541843973     0.943595002993      -0.239541843973     0.051774290561      0.144604834866      
5900000000.0        0.0530195650862     0.146846335809      0.942189162203      -0.243427317444     0.942189162203      -0.243427317444     0.0530195650862     0.146846335809      
6000000000.0        0.0542828361735     0.149075600321      0.940762535152      -0.247300871846     0.940762535152      -0.247300871846     0.0542828361735     0.149075600321      
6100000000.0        0.0555639615685     0.151292469854      0.939315260773      -0.25116235173      0.939315260773      -0.25116235173      0.0555639615685     0.151292469854      
6200000000.0        0.0568627973263     0.153496787962      0.937847479643      -0.255011603716     0.937847479643      -0.255011603716     0.0568627973263     0.153496787962      
6300000000.0        0.0581791978556     0.155688400315      0.936359333942      -0.258848476506     0.936359333942      -0.258848476506     0.0581791978556     0.155688400315      
6400000000.0        0.0595130159611     0.157867154716      0.934850967411      -0.262672820902     0.934850967411      -0.262672820902     0.0595130159611     0.157867154716      
6500000000.0        0.0608641028872     0.160032901118      0.93332252531       -0.266484489827     0.93332252531       -0.266484489827     0.0608641028872     0.160032901118      
6600000000.0        0.0622323083595     0.162185491641      0.931774154371      -0.270283338334     0.931774154371      -0.270283338334     0.0622323083595     0.162185491641      
6700000000.0        0.0636174806279     0.164324780583      0.930206002761      -0.274069223629     0.930206002761      -0.274069223629     0.0636174806279     0.164324780583      
6800000000.0        0.0650194665082     0.166450624435      0.928618220037      -0.277842005078     0.928618220037      -0.277842005078     0.0650194665082     0.166450624435      
6900000000.0        0.0664381114237     0.168562881898      0.927010957105      -0.281601544224     0.927010957105      -0.281601544224     0.0664381114237     0.168562881898      
7000000000.0        0.067873259447      0.170661413888      0.92538436618       -0.2853477048       0.92538436618       -0.2853477048       0.067873259447      0.170661413888      
7100000000.0        0.0693247533409     0.172746083555      0.923738600741      -0.289080352739     0.923738600741      -0.289080352739     0.0693247533409     0.172746083555      
7200000000.0        0.0707924345999     0.174816756289      0.922073815497      -0.292799356187     0.922073815497      -0.292799356187     0.0707924345999     0.174816756289      
7300000000.0        0.0722761434906     0.176873299731      0.920390166337      -0.296504585513     0.920390166337      -0.296504585513     0.0722761434906     0.176873299731      
7400000000.0        0.0737757190926     0.178915583783      0.918687810297      -0.300195913318     0.918687810297      -0.300195913318     0.0737757190926     0.178915583783      
7500000000.0        0.0752909993385     0.180943480619      0.916966905517      -0.303873214443     0.916966905517      -0.303873214443     0.0752909993385     0.180943480619      
7600000000.0        0.0768218210548     0.182956864687      0.915227611199      -0.307536365982     0.915227611199      -0.307536365982     0.0768218210548     0.182956864687      
7700000000.0        0.0783680200013     0.184955612722      0.91347008757       -0.311185247283     0.91347008757       -0.311185247283     0.0783680200013     0.184955612722      
7800000000.0        0.079929430911      0.186939603747      0.91169449584       -0.314819739958     0.91169449584       -0.314819739958     0.079929430911      0.186939603747      
7900000000.0        0.0815058875299     0.188908719086      0.909900998164      -0.318439727891     0.909900998164      -0.318439727891     0.0815058875299     0.188908719086      
8000000000.0        0.0830972226559     0.190862842361      0.908089757603      -0.322045097239     0.908089757603      -0.322045097239     0.0830972226559     0.190862842361      
8100000000.0        0.0847032681786     0.192801859503      0.906260938082      -0.325635736439     0.906260938082      -0.325635736439     0.0847032681786     0.192801859503      
8200000000.0        0.0863238551177     0.194725658751      0.904414704353      -0.329211536212     0.904414704353      -0.329211536212     0.0863238551177     0.194725658751      
8300000000.0        0.0879588136615     0.196634130656      0.902551221959      -0.332772389567     0.902551221959      -0.332772389567     0.0879588136615     0.196634130656      
8400000000.0        0.0896079732062     0.198527168088      0.900670657191      -0.3363181918       0.900670657191      -0.3363181918       0.0896079732062     0.198527168088      
8500000000.0        0.0912711623932     0.20040466623       0.89877317705       -0.339848840501     0.89877317705       -0.339848840501     0.0912711623932     0.20040466623       
8600000000.0        0.0929482091476     0.202266522585      0.896858949214      -0.343364235551     0.896858949214      -0.343364235551     0.0929482091476     0.202266522585      
8700000000.0        0.0946389407156     0.204112636972      0.894928141994      -0.346864279123     0.894928141994      -0.346864279123     0.0946389407156     0.204112636972      
8800000000.0        0.0963431837023     0.20594291153       0.892980924303      -0.350348875686     0.892980924303      -0.350348875686     0.0963431837023     0.20594291153       
8900000000.0        0.0980607641085     0.207757250715      0.891017465612      -0.353817931999     0.891017465612      -0.353817931999     0.0980607641085     0.207757250715      
9000000000.0        0.0997915073681     0.209555561295      0.889037935918      -0.357271357112     0.889037935918      -0.357271357112     0.0997915073681     0.209555561295      
9100000000.0        0.101535238384      0.211337752356      0.887042505705      -0.360709062364     0.887042505705      -0.360709062364     0.101535238384      0.211337752356      
9200000000.0        0.103291781566      0.213103735291      0.885031345909      -0.364130961382     0.885031345909      -0.364130961382     0.103291781566      0.213103735291      
9300000000.0        0.105060960863      0.214853423801      0.883004627881      -0.367536970074     0.883004627881      -0.367536970074     0.105060960863      0.214853423801      
9400000000.0        0.106842599806      0.216586733891      0.880962523352      -0.370927006628     0.880962523352      -0.370927006628     0.106842599806      0.216586733891      
9500000000.0        0.108636521535      0.218303583862      0.878905204395      -0.374300991507     0.878905204395      -0.374300991507     0.108636521535      0.218303583862      
9600000000.0        0.11044254884       0.220003894311      0.876832843394      -0.377658847442     0.876832843394      -0.377658847442     0.11044254884       0.220003894311      
9700000000.0        0.112260504194      0.221687588121      0.874745613007      -0.381000499432     0.874745613007      -0.381000499432     0.112260504194      0.221687588121      
9800000000.0        0.114090209787      0.223354590457      0.872643686129      -0.38432587473      0.872643686129      -0.38432587473      0.114090209787      0.223354590457      
9900000000.0        0.115931487562      0.225004828758      0.870527235863      -0.387634902844     0.870527235863      -0.387634902844     0.115931487562      0.225004828758      
10000000000.0       0.117784159246      0.226638232731      0.868396435481      -0.390927515524     0.868396435481      -0.390927515524     0.117784159246      0.226638232731      
