# Hz S RI R 50.00 
100000000.0         0.00763819369394    0.00319215642861    0.992356918487      -0.00520441032755   0.992356918487      -0.00520441032755   0.00763819369394    0.00319215642861    
200000000.0         0.00773794971904    0.00638306158746    0.99224921473       -0.0104076011863    0.99224921473       -0.0104076011863    0.00773794971904    0.00638306158746    
300000000.0         0.00785781547845    0.00957264674716    0.992117340734      -0.0156095263014    0.992117340734      -0.0156095263014    0.00785781547845    0.00957264674716    
400000000.0         0.00800434713433    0.0127606191396     0.991954739591      -0.0208099112324    0.991954739591      -0.0208099112324    0.00800434713433    0.0127606191396     
500000000.0         0.00818005263048    0.015946634135      0.991758902454      -0.0260084275716    0.991758902454      -0.0260084275716    0.00818005263048    0.015946634135      
600000000.0         0.00838619334059    0.0191303244708     0.991528566894      -0.0312047228857    0.991528566894      -0.0312047228857    0.00838619334059    0.0191303244708     
700000000.0         0.00862349619561    0.0223113108337     0.991263004777      -0.0363984316633    0.991263004777      -0.0363984316633    0.00862349619561    0.0223113108337     
800000000.0         0.00889241354976    0.0254892068311     0.990961762406      -0.0415891805067    0.990961762406      -0.0415891805067    0.00889241354976    0.0254892068311     
900000000.0         0.00919323886956    0.0286636217146     0.990624544829      -0.0467765910005    0.990624544829      -0.0467765910005    0.00919323886956    0.0286636217146     
1000000000.0        0.00952616536874    0.031834162039      0.990251157216      -0.0519602814741    0.990251157216      -0.0519602814741    0.00952616536874    0.031834162039      
1100000000.0        0.00989131860342    0.0350004327554     0.989841472261      -0.0571398681707    0.989841472261      -0.0571398681707    0.00989131860342    0.0350004327554     
1200000000.0        0.0102887758993     0.0381620379804     0.989395410759      -0.0623149660756    0.989395410759      -0.0623149660756    0.0102887758993     0.0381620379804     
1300000000.0        0.0107185785813     0.0413185815661     0.98891292938       -0.067485189532     0.98891292938       -0.067485189532     0.0107185785813     0.0413185815661     
1400000000.0        0.0111807400202     0.0444696675411     0.988394012625      -0.0726501527203    0.988394012625      -0.0726501527203    0.0111807400202     0.0444696675411     
1500000000.0        0.0116752511265     0.0476149004661     0.987838667332      -0.077809470044     0.987838667332      -0.077809470044     0.0116752511265     0.0476149004661     
1600000000.0        0.0122020842177     0.0507538857291     0.987246918812      -0.0829627564514    0.987246918812      -0.0829627564514    0.0122020842177     0.0507538857291     
1700000000.0        0.0127611958181     0.0538862297982     0.986618808051      -0.0881096277101    0.986618808051      -0.0881096277101    0.0127611958181     0.0538862297982     
1800000000.0        0.0133525287315     0.0570115404423     0.98595438964       -0.0932497006465    0.98595438964       -0.0932497006465    0.0133525287315     0.0570115404423     
1900000000.0        0.0139760136107     0.0601294269284     0.985253730204      -0.0983825933601    0.985253730204      -0.0983825933601    0.0139760136107     0.0601294269284     
2000000000.0        0.0146315701683     0.0632395002001     0.984516907195      -0.103507925416     0.984516907195      -0.103507925416     0.0146315701683     0.0632395002001     
2100000000.0        0.0153191081278     0.0663413730419     0.983744007943      -0.108625318022     0.983744007943      -0.108625318022     0.0153191081278     0.0663413730419     
2200000000.0        0.0160385279834     0.0694346602323     0.982935128896      -0.113734394193     0.982935128896      -0.113734394193     0.0160385279834     0.0694346602323     
2300000000.0        0.0167897216167     0.0725189786864     0.982090375001      -0.118834778903     0.982090375001      -0.118834778903     0.0167897216167     0.0725189786864     
2400000000.0        0.0175725728051     0.0755939475915     0.981209859206      -0.123926099234     0.981209859206      -0.123926099234     0.0175725728051     0.0755939475915     
2500000000.0        0.0183869576469     0.0786591885359     0.980293702026      -0.129007984505     0.980293702026      -0.129007984505     0.0183869576469     0.0786591885359     
2600000000.0        0.0192327449218     0.0817143256311     0.97934203119       -0.134080066408     0.97934203119       -0.134080066408     0.0192327449218     0.0817143256311     
2700000000.0        0.0201097964016     0.0847589856297     0.978354981326      -0.139141979134     0.978354981326      -0.139141979134     0.0201097964016     0.0847589856297     
2800000000.0        0.0210179671203     0.0877927980389     0.977332693698      -0.144193359486     0.977332693698      -0.144193359486     0.0210179671203     0.0877927980389     
2900000000.0        0.0219571056134     0.0908153952288     0.976275315962      -0.149233846998     0.976275315962      -0.149233846998     0.0219571056134     0.0908153952288     
3000000000.0        0.0229270541313     0.0938264125385     0.975183001957      -0.154263084046     0.975183001957      -0.154263084046     0.0229270541313     0.0938264125385     
3100000000.0        0.0239276488333     0.0968254883771     0.974055911508      -0.159280715953     0.974055911508      -0.159280715953     0.0239276488333     0.0968254883771     
3200000000.0        0.024958719964      0.0998122643231     0.972894210255      -0.164286391092     0.972894210255      -0.164286391092     0.024958719964      0.0998122643231     
3300000000.0        0.0260200920173     0.102786385219      0.971698069484      -0.169279760989     0.971698069484      -0.169279760989     0.0260200920173     0.102786385219      
3400000000.0        0.0271115838894     0.105747499264      0.970467665981      -0.174260480412     0.970467665981      -0.174260480412     0.0271115838894     0.105747499264      
3500000000.0        0.0282330090228     0.108695258104      0.969203181884      -0.179228207474     0.969203181884      -0.179228207474     0.0282330090228     0.108695258104      
3600000000.0        0.0293841755427     0.111629316919      0.967904804548      -0.184182603716     0.967904804548      -0.184182603716     0.0293841755427     0.111629316919      
3700000000.0        0.0305648863884     0.114549334505      0.966572726414      -0.189123334195     0.966572726414      -0.189123334195     0.0305648863884     0.114549334505      
3800000000.0        0.0317749394391     0.117454973358      0.965207144885      -0.194050067574     0.965207144885      -0.194050067574     0.0317749394391     0.117454973358      
3900000000.0        0.0330141276357     0.120345899751      0.963808262204      -0.198962476197     0.963808262204      -0.198962476197     0.0330141276357     0.120345899751      
4000000000.0        0.0342822390996     0.123221783812      0.962376285335      -0.203860236173     0.962376285335      -0.203860236173     0.0342822390996     0.123221783812      
4100000000.0        0.0355790572486     0.126082299598      0.960911425849      -0.208743027449     0.960911425849      -0.208743027449     0.0355790572486     0.126082299598      
4200000000.0        0.0369043609108     0.128927125165      0.959413899807      -0.213610533887     0.959413899807      -0.213610533887     0.0369043609108     0.128927125165      
4300000000.0        0.0382579244363     0.131755942636      0.957883927654      -0.21846244333      0.957883927654      -0.21846244333      0.0382579244363     0.131755942636      
4400000000.0        0.0396395178079     0.134568438272      0.956321734104      -0.223298447679     0.956321734104      -0.223298447679     0.0396395178079     0.134568438272      
4500000000.0        0.04104890675       0.137364302528      0.954727548033      -0.228118242948     0.954727548033      -0.228118242948     0.04104890675       0.137364302528      
4600000000.0        0.0424858528367     0.140143230125      0.953101602372      -0.232921529339     0.953101602372      -0.232921529339     0.0424858528367     0.140143230125      
4700000000.0        0.0439501135997     0.1429049201        0.951444133999      -0.237708011292     0.951444133999      -0.237708011292     0.0439501135997     0.1429049201        
4800000000.0        0.0454414426344     0.145649075865      0.949755383632      -0.242477397553     0.949755383632      -0.242477397553     0.0454414426344     0.145649075865      
4900000000.0        0.0469595897064     0.148375405266      0.948035595724      -0.247229401221     0.948035595724      -0.247229401221     0.0469595897064     0.148375405266      
5000000000.0        0.0485043008567     0.151083620627      0.946285018357      -0.251963739808     0.946285018357      -0.251963739808     0.0485043008567     0.151083620627      
5100000000.0        0.0500753185076     0.153773438807      0.944503903137      -0.256680135289     0.944503903137      -0.256680135289     0.0500753185076     0.153773438807      
5200000000.0        0.0516723815671     0.15644458124       0.942692505092      -0.261378314145     0.942692505092      -0.261378314145     0.0516723815671     0.15644458124       
5300000000.0        0.0532952255334     0.159096773985      0.940851082561      -0.266058007416     0.940851082561      -0.266058007416     0.0532952255334     0.159096773985      
5400000000.0        0.0549435826001     0.161729747767      0.938979897096      -0.27071895074      0.938979897096      -0.27071895074      0.0549435826001     0.161729747767      
5500000000.0        0.0566171817592     0.164343238014      0.937079213358      -0.275360884395     0.937079213358      -0.275360884395     0.0566171817592     0.164343238014      
5600000000.0        0.0583157489058     0.166936984897      0.935149299006      -0.279983553339     0.935149299006      -0.279983553339     0.0583157489058     0.166936984897      
5700000000.0        0.0600390069414     0.169510733365      0.933190424604      -0.284586707244     0.933190424604      -0.284586707244     0.0600390069414     0.169510733365      
5800000000.0        0.0617866758772     0.172064233177      0.931202863509      -0.289170100532     0.931202863509      -0.289170100532     0.0617866758772     0.172064233177      
5900000000.0        0.0635584729375     0.174597238933      0.929186891772      -0.293733492406     0.929186891772      -0.293733492406     0.0635584729375     0.174597238933      
6000000000.0        0.0653541126625     0.177109510103      0.927142788035      -0.298276646875     0.927142788035      -0.298276646875     0.0653541126625     0.177109510103      
6100000000.0        0.0671733070105     0.179600811049      0.925070833427      -0.302799332788     0.925070833427      -0.302799332788     0.0671733070105     0.179600811049      
6200000000.0        0.0690157654608     0.182070911053      0.922971311464      -0.307301323853     0.922971311464      -0.307301323853     0.0690157654608     0.182070911053      
6300000000.0        0.0708811951153     0.184519584336      0.920844507946      -0.311782398659     0.920844507946      -0.311782398659     0.0708811951153     0.184519584336      
6400000000.0        0.0727693007997     0.186946610077      0.918690710852      -0.316242340701     0.918690710852      -0.316242340701     0.0727693007997     0.186946610077      
6500000000.0        0.0746797851656     0.18935177243       0.916510210247      -0.320680938392     0.916510210247      -0.320680938392     0.0746797851656     0.18935177243       
6600000000.0        0.0766123487904     0.191734860541      0.914303298173      -0.325097985078     0.914303298173      -0.325097985078     0.0766123487904     0.191734860541      
6700000000.0        0.0785666902778     0.194095668555      0.912070268553      -0.329493279056     0.912070268553      -0.329493279056     0.0785666902778     0.194095668555      
6800000000.0        0.080542506358      0.19643399563       0.90981141709       -0.333866623582     0.90981141709       -0.333866623582     0.080542506358      0.19643399563       
6900000000.0        0.0825394919863     0.198749645945      0.907527041169      -0.338217826878     0.907527041169      -0.338217826878     0.0825394919863     0.198749645945      
7000000000.0        0.0845573404424     0.201042428705      0.905217439755      -0.342546702142     0.905217439755      -0.342546702142     0.0845573404424     0.201042428705      
7100000000.0        0.0865957434279     0.203312158145      0.902882913301      -0.346853067548     0.902882913301      -0.346853067548     0.0865957434279     0.203312158145      
7200000000.0        0.0886543911646     0.20555865353       0.900523763643      -0.351136746255     0.900523763643      -0.351136746255     0.0886543911646     0.20555865353       
7300000000.0        0.0907329724902     0.207781739159      0.898140293907      -0.355397566399     0.898140293907      -0.355397566399     0.0907329724902     0.207781739159      
7400000000.0        0.0928311749552     0.209981244358      0.895732808415      -0.359635361098     0.895732808415      -0.359635361098     0.0928311749552     0.209981244358      
7500000000.0        0.0949486849181     0.21215700348       0.893301612585      -0.363849968444     0.893301612585      -0.363849968444     0.0949486849181     0.21215700348       
7600000000.0        0.0970851876395     0.214308855895      0.890847012839      -0.3680412315       0.890847012839      -0.3680412315       0.0970851876395     0.214308855895      
7700000000.0        0.0992403673764     0.216436645984      0.888369316509      -0.372208998289     0.888369316509      -0.372208998289     0.0992403673764     0.216436645984      
7800000000.0        0.101413907475      0.218540223127      0.885868831743      -0.37635312179      0.885868831743      -0.37635312179      0.101413907475      0.218540223127      
7900000000.0        0.103605490461      0.220619441697      0.883345867415      -0.380473459919     0.883345867415      -0.380473459919     0.103605490461      0.220619441697      
8000000000.0        0.105814798135      0.222674161036      0.880800733031      -0.384569875523     0.880800733031      -0.384569875523     0.105814798135      0.222674161036      
8100000000.0        0.108041511658      0.22470424545       0.87823373864       -0.388642236359     0.87823373864       -0.388642236359     0.108041511658      0.22470424545       
8200000000.0        0.110285311642      0.226709564185      0.875645194746      -0.39269041508      0.875645194746      -0.39269041508      0.110285311642      0.226709564185      
8300000000.0        0.112545878239      0.228689991411      0.873035412216      -0.396714289218     0.873035412216      -0.396714289218     0.112545878239      0.228689991411      
8400000000.0        0.11482289123       0.2306454062        0.870404702198      -0.40071374116      0.870404702198      -0.40071374116      0.11482289123       0.2306454062        
8500000000.0        0.117116030104      0.232575692507      0.867753376031      -0.404688658126     0.867753376031      -0.404688658126     0.117116030104      0.232575692507      
8600000000.0        0.119424974152      0.234480739139      0.865081745159      -0.408638932152     0.865081745159      -0.408638932152     0.119424974152      0.234480739139      
8700000000.0        0.121749402545      0.236360439739      0.862390121051      -0.412564460055     0.862390121051      -0.412564460055     0.121749402545      0.236360439739      
8800000000.0        0.124088994417      0.238214692751      0.859678815114      -0.416465143414     0.859678815114      -0.416465143414     0.124088994417      0.238214692751      
8900000000.0        0.126443428949      0.240043401396      0.856948138616      -0.420340888539     0.856948138616      -0.420340888539     0.126443428949      0.240043401396      
9000000000.0        0.128812385448      0.241846473642      0.8541984026        -0.424191606441     0.8541984026        -0.424191606441     0.128812385448      0.241846473642      
9100000000.0        0.131195543425      0.243623822171      0.851429917808      -0.428017212801     0.851429917808      -0.428017212801     0.131195543425      0.243623822171      
9200000000.0        0.133592582676      0.245375364347      0.848642994602      -0.431817627939     0.848642994602      -0.431817627939     0.133592582676      0.245375364347      
9300000000.0        0.136003183355      0.247101022182      0.845837942889      -0.435592776778     0.845837942889      -0.435592776778     0.136003183355      0.247101022182      
9400000000.0        0.138427026051      0.248800722302      0.843015072041      -0.439342588811     0.843015072041      -0.439342588811     0.138427026051      0.248800722302      
9500000000.0        0.140863791862      0.250474395909      0.840174690826      -0.443066998064     0.840174690826      -0.443066998064     0.140863791862      0.250474395909      
9600000000.0        0.143313162468      0.252121978745      0.837317107331      -0.446765943058     0.837317107331      -0.446765943058     0.143313162468      0.252121978745      
9700000000.0        0.145774820204      0.25374341105       0.834442628892      -0.450439366769     0.834442628892      -0.450439366769     0.145774820204      0.25374341105       
9800000000.0        0.148248448124      0.255338637528      0.831551562024      -0.454087216594     0.831551562024      -0.454087216594     0.148248448124      0.255338637528      
9900000000.0        0.150733730077      0.256907607297      0.828644212352      -0.4577094443       0.828644212352      -0.4577094443       0.150733730077      0.256907607297      
10000000000.0       0.153230350772      0.258450273857      0.82572088454       -0.461306005993     0.82572088454       -0.461306005993     0.153230350772      0.258450273857      
