# Hz S RI R 50.00 
100000000.0         0.00675202056754    0.000696440472105   0.993239985014      -0.00360779229063   0.993239985014      -0.00360779229063   0.00675202056754    0.000696440472105   
200000000.0         0.00680298666413    0.00139246169138    0.993173529006      -0.00721514081718   0.993173529006      -0.00721514081718   0.00680298666413    0.00139246169138    
300000000.0         0.00684718360735    0.00208817955802    0.99310534636       -0.0108221480572    0.99310534636       -0.0108221480572    0.00684718360735    0.00208817955802    
400000000.0         0.00689043895711    0.00278360894942    0.993029609238      -0.0144288142813    0.993029609238      -0.0144288142813    0.00689043895711    0.00278360894942    
500000000.0         0.00693499632657    0.0034787414145     0.992944073748      -0.0180351158395    0.992944073748      -0.0180351158395    0.00693499632657    0.0034787414145     
600000000.0         0.00698199906613    0.00417355823914    0.992847596243      -0.0216410184335    0.992847596243      -0.0216410184335    0.00698199906613    0.00417355823914    
700000000.0         0.00703212164051    0.00486803512294    0.992739501948      -0.0252464818983    0.992739501948      -0.0252464818983    0.00703212164051    0.00486803512294    
800000000.0         0.00708580005617    0.00556214434109    0.992619354527      -0.028851462427     0.992619354527      -0.028851462427     0.00708580005617    0.00556214434109    
900000000.0         0.00714333445543    0.00625585590222    0.992486853492      -0.0324559137693    0.992486853492      -0.0324559137693    0.00714333445543    0.00625585590222    
1000000000.0        0.00720494111685    0.00694913823196    0.992341782199      -0.0360597879437    0.992341782199      -0.0360597879437    0.00720494111685    0.00694913823196    
1100000000.0        0.00727078135982    0.00764195860604    0.992183978947      -0.0396630356916    0.992183978947      -0.0396630356916    0.00727078135982    0.00764195860604    
1200000000.0        0.00734097876686    0.00833428343981    0.992013319753      -0.0432656067826    0.992013319753      -0.0432656067826    0.00734097876686    0.00833428343981    
1300000000.0        0.00741563001827    0.00902607849016    0.991829707523      -0.0468674502287    0.991829707523      -0.0468674502287    0.00741563001827    0.00902607849016    
1400000000.0        0.00749481201307    0.00971730900128    0.991633064925      -0.0504685144398    0.991633064925      -0.0504685144398    0.00749481201307    0.00971730900128    
1500000000.0        0.00757858672101    0.0104079398129     0.991423329541      -0.0540687473401    0.991423329541      -0.0540687473401    0.00757858672101    0.0104079398129     
1600000000.0        0.00766700459001    0.0110979354428     0.99120045046       -0.0576680964571    0.99120045046       -0.0576680964571    0.00766700459001    0.0110979354428     
1700000000.0        0.00776010700152    0.011787260151      0.990964385824      -0.0612665089909    0.990964385824      -0.0612665089909    0.00776010700152    0.011787260151      
1800000000.0        0.00785792807952    0.0124758779902     0.990715101016      -0.0648639318698    0.990715101016      -0.0648639318698    0.00785792807952    0.0124758779902     
1900000000.0        0.00796049604933    0.0131637528471     0.990452567304      -0.0684603117951    0.990452567304      -0.0684603117951    0.00796049604933    0.0131637528471     
2000000000.0        0.00806783427578    0.0138508484757     0.990176760806      -0.0720555952777    0.990176760806      -0.0720555952777    0.00806783427578    0.0138508484757     
2100000000.0        0.00817996206838    0.014537128525      0.989887661677      -0.0756497286691    0.989887661677      -0.0756497286691    0.00817996206838    0.014537128525      
2200000000.0        0.00829689531434    0.0152225565621     0.989585253487      -0.0792426581864    0.989585253487      -0.0792426581864    0.00829689531434    0.0152225565621     
2300000000.0        0.00841864698228    0.015907096092      0.989269522709      -0.0828343299351    0.989269522709      -0.0828343299351    0.00841864698228    0.015907096092      
2400000000.0        0.0085452275274     0.0165907105749     0.988940458318      -0.0864246899271    0.988940458318      -0.0864246899271    0.0085452275274     0.0165907105749     
2500000000.0        0.00867664522073    0.01727336344       0.988598051464      -0.0900136840976    0.988598051464      -0.0900136840976    0.00867664522073    0.01727336344       
2600000000.0        0.00881290641904    0.0179550180993     0.988242295197      -0.093601258319     0.988242295197      -0.093601258319     0.00881290641904    0.0179550180993     
2700000000.0        0.00895401578803    0.018635637958      0.987873184249      -0.0971873584137    0.987873184249      -0.0971873584137    0.00895401578803    0.018635637958      
2800000000.0        0.00909997648827    0.0193151864251     0.987490714848      -0.100771930165     0.987490714848      -0.100771930165     0.00909997648827    0.0193151864251     
2900000000.0        0.00925079033123    0.0199936269222     0.987094884557      -0.104354919328     0.987094884557      -0.104354919328     0.00925079033123    0.0199936269222     
3000000000.0        0.00940645791106    0.0206709228915     0.986685692152      -0.107936271638     0.986685692152      -0.107936271638     0.00940645791106    0.0206709228915     
3100000000.0        0.00956697871659    0.0213470378033     0.9862631375        -0.111515932816     0.9862631375        -0.111515932816     0.00956697871659    0.0213470378033     
3200000000.0        0.00973235122706    0.0220219351627     0.985827221473      -0.115093848583     0.985827221473      -0.115093848583     0.00973235122706    0.0220219351627     
3300000000.0        0.00990257299441    0.0226955785159     0.985377945857      -0.11866996466      0.985377945857      -0.11866996466      0.00990257299441    0.0226955785159     
3400000000.0        0.0100776407143     0.0233679314556     0.98491531329       -0.122244226777     0.98491531329       -0.122244226777     0.0100776407143     0.0233679314556     
3500000000.0        0.0102575502879     0.0240389576268     0.984439327193      -0.12581658068      0.984439327193      -0.12581658068      0.0102575502879     0.0240389576268     
3600000000.0        0.0104422968755     0.0247086207312     0.983949991723      -0.129386972133     0.983949991723      -0.129386972133     0.0104422968755     0.0247086207312     
3700000000.0        0.0106318749438     0.0253768845325     0.983447311722      -0.132955346927     0.983447311722      -0.132955346927     0.0106318749438     0.0253768845325     
3800000000.0        0.010826278307      0.0260437128602     0.982931292676      -0.136521650882     0.982931292676      -0.136521650882     0.010826278307      0.0260437128602     
3900000000.0        0.0110255001638     0.0267090696144     0.982401940682      -0.140085829854     0.982401940682      -0.140085829854     0.0110255001638     0.0267090696144     
4000000000.0        0.0112295331295     0.0273729187692     0.981859262412      -0.143647829737     0.981859262412      -0.143647829737     0.0112295331295     0.0273729187692     
4100000000.0        0.0114383692647     0.0280352243768     0.981303265086      -0.147207596466     0.981303265086      -0.147207596466     0.0114383692647     0.0280352243768     
4200000000.0        0.0116520001013     0.0286959505711     0.980733956448      -0.150765076024     0.980733956448      -0.150765076024     0.0116520001013     0.0286959505711     
4300000000.0        0.0118704166654     0.029355061571      0.980151344743      -0.154320214445     0.980151344743      -0.154320214445     0.0118704166654     0.029355061571      
4400000000.0        0.0120936094979     0.0300125216839     0.979555438692      -0.157872957816     0.979555438692      -0.157872957816     0.0120936094979     0.0300125216839     
4500000000.0        0.0123215686731     0.0306682953089     0.978946247482      -0.161423252279     0.978946247482      -0.161423252279     0.0123215686731     0.0306682953089     
4600000000.0        0.012554283816      0.03132234694       0.978323780741      -0.16497104404      0.978323780741      -0.16497104404      0.012554283816      0.03132234694       
4700000000.0        0.0127917441169     0.0319746411689     0.977688048528      -0.168516279366     0.977688048528      -0.168516279366     0.0127917441169     0.0319746411689     
4800000000.0        0.0130339383457     0.032625142688      0.977039061319      -0.17205890459      0.977039061319      -0.17205890459      0.0130339383457     0.032625142688      
4900000000.0        0.0132808548648     0.0332738162936     0.976376829991      -0.175598866115     0.976376829991      -0.175598866115     0.0132808548648     0.0332738162936     
5000000000.0        0.01353248164       0.033920626888      0.975701365817      -0.179136110416     0.975701365817      -0.179136110416     0.01353248164       0.033920626888      
5100000000.0        0.0137888062521     0.034565539483      0.97501268045       -0.182670584043     0.97501268045       -0.182670584043     0.0137888062521     0.034565539483      
5200000000.0        0.0140498159057     0.0352085192019     0.974310785914      -0.186202233623     0.974310785914      -0.186202233623     0.0140498159057     0.0352085192019     
5300000000.0        0.014315497439      0.0358495312824     0.973595694599      -0.189731005862     0.973595694599      -0.189731005862     0.014315497439      0.0358495312824     
5400000000.0        0.0145858373318     0.0364885410792     0.972867419249      -0.193256847551     0.972867419249      -0.193256847551     0.0145858373318     0.0364885410792     
5500000000.0        0.0148608217134     0.0371255140663     0.972125972958      -0.196779705564     0.972125972958      -0.196779705564     0.0148608217134     0.0371255140663     
5600000000.0        0.0151404363697     0.0377604158396     0.971371369158      -0.200299526862     0.971371369158      -0.200299526862     0.0151404363697     0.0377604158396     
5700000000.0        0.0154246667499     0.0383932121191     0.970603621619      -0.203816258496     0.970603621619      -0.203816258496     0.0154246667499     0.0383932121191     
5800000000.0        0.015713497973      0.0390238687516     0.969822744437      -0.20732984761      0.969822744437      -0.20732984761      0.015713497973      0.0390238687516     
5900000000.0        0.0160069148335     0.0396523517125     0.969028752033      -0.210840241441     0.969028752033      -0.210840241441     0.0160069148335     0.0396523517125     
6000000000.0        0.0163049018071     0.0402786271088     0.968221659144      -0.214347387323     0.968221659144      -0.214347387323     0.0163049018071     0.0402786271088     
6100000000.0        0.0166074430557     0.0409026611805     0.96740148082       -0.217851232687     0.96740148082       -0.217851232687     0.0166074430557     0.0409026611805     
6200000000.0        0.0169145224326     0.0415244203038     0.96656823242       -0.221351725067     0.96656823242       -0.221351725067     0.0169145224326     0.0415244203038     
6300000000.0        0.0172261234868     0.0421438709922     0.965721929606      -0.224848812098     0.965721929606      -0.224848812098     0.0172261234868     0.0421438709922     
6400000000.0        0.017542229468      0.0427609798997     0.964862588339      -0.228342441519     0.964862588339      -0.228342441519     0.017542229468      0.0427609798997     
6500000000.0        0.0178628233302     0.043375713822      0.963990224877      -0.231832561178     0.963990224877      -0.231832561178     0.0178628233302     0.043375713822      
6600000000.0        0.0181878877361     0.0439880396995     0.963104855769      -0.23531911903      0.963104855769      -0.23531911903      0.0181878877361     0.0439880396995     
6700000000.0        0.0185174050609     0.0445979246184     0.962206497851      -0.238802063141     0.962206497851      -0.238802063141     0.0185174050609     0.0445979246184     
6800000000.0        0.0188513573958     0.0452053358138     0.961295168246      -0.24228134169      0.961295168246      -0.24228134169      0.0188513573958     0.0452053358138     
6900000000.0        0.0191897265518     0.0458102406707     0.960370884357      -0.245756902968     0.960370884357      -0.245756902968     0.0191897265518     0.0458102406707     
7000000000.0        0.0195324940627     0.0464126067269     0.959433663865      -0.249228695386     0.959433663865      -0.249228695386     0.0195324940627     0.0464126067269     
7100000000.0        0.0198796411889     0.0470124016742     0.958483524727      -0.25269666747      0.958483524727      -0.25269666747      0.0198796411889     0.0470124016742     
7200000000.0        0.0202311489202     0.047609593361      0.957520485173      -0.256160767868     0.957520485173      -0.256160767868     0.0202311489202     0.047609593361      
7300000000.0        0.0205869979789     0.0482041497938     0.956544563703      -0.259620945347     0.956544563703      -0.259620945347     0.0205869979789     0.0482041497938     
7400000000.0        0.0209471688228     0.0487960391393     0.955555779081      -0.263077148799     0.955555779081      -0.263077148799     0.0209471688228     0.0487960391393     
7500000000.0        0.0213116416483     0.0493852297262     0.954554150339      -0.266529327241     0.954554150339      -0.266529327241     0.0213116416483     0.0493852297262     
7600000000.0        0.0216803963928     0.0499716900472     0.953539696769      -0.269977429817     0.953539696769      -0.269977429817     0.0216803963928     0.0499716900472     
7700000000.0        0.0220534127376     0.0505553887606     0.952512437922      -0.273421405798     0.952512437922      -0.273421405798     0.0220534127376     0.0505553887606     
7800000000.0        0.0224306701109     0.0511362946925     0.951472393606      -0.276861204586     0.951472393606      -0.276861204586     0.0224306701109     0.0511362946925     
7900000000.0        0.0228121476899     0.0517143768381     0.950419583885      -0.280296775715     0.950419583885      -0.280296775715     0.0228121476899     0.0517143768381     
8000000000.0        0.0231978244036     0.0522896043641     0.949354029075      -0.283728068852     0.949354029075      -0.283728068852     0.0231978244036     0.0522896043641     
8100000000.0        0.0235876789352     0.0528619466098     0.948275749739      -0.287155033797     0.948275749739      -0.287155033797     0.0235876789352     0.0528619466098     
8200000000.0        0.023981689725      0.0534313730896     0.947184766692      -0.290577620489     0.947184766692      -0.290577620489     0.023981689725      0.0534313730896     
8300000000.0        0.024379834972      0.0539978534939     0.946081100992      -0.293995779004     0.946081100992      -0.293995779004     0.024379834972      0.0539978534939     
8400000000.0        0.0247820926369     0.0545613576914     0.944964773943      -0.297409459557     0.944964773943      -0.297409459557     0.0247820926369     0.0545613576914     
8500000000.0        0.0251884404445     0.0551218557307     0.943835807088      -0.300818612504     0.943835807088      -0.300818612504     0.0251884404445     0.0551218557307     
8600000000.0        0.0255988558855     0.0556793178418     0.94269422221       -0.304223188342     0.94269422221       -0.304223188342     0.0255988558855     0.0556793178418     
8700000000.0        0.0260133162193     0.0562337144379     0.941540041332      -0.307623137716     0.941540041332      -0.307623137716     0.0260133162193     0.0562337144379     
8800000000.0        0.0264317984758     0.0567850161168     0.940373286709      -0.311018411411     0.940373286709      -0.311018411411     0.0264317984758     0.0567850161168     
8900000000.0        0.0268542794579     0.0573331936629     0.939193980832      -0.314408960363     0.939193980832      -0.314408960363     0.0268542794579     0.0573331936629     
9000000000.0        0.027280735744      0.0578782180486     0.938002146422      -0.317794735652     0.938002146422      -0.317794735652     0.027280735744      0.0578782180486     
9100000000.0        0.0277111436895     0.0584200604356     0.936797806432      -0.321175688512     0.936797806432      -0.321175688512     0.0277111436895     0.0584200604356     
9200000000.0        0.0281454794294     0.0589586921771     0.935580984041      -0.324551770323     0.935580984041      -0.324551770323     0.0281454794294     0.0589586921771     
9300000000.0        0.0285837188805     0.0594940848187     0.934351702654      -0.327922932621     0.934351702654      -0.327922932621     0.0285837188805     0.0594940848187     
9400000000.0        0.0290258377434     0.0600262101003     0.933109985901      -0.331289127094     0.933109985901      -0.331289127094     0.0290258377434     0.0600262101003     
9500000000.0        0.0294718115046     0.0605550399577     0.931855857633      -0.334650305583     0.931855857633      -0.334650305583     0.0294718115046     0.0605550399577     
9600000000.0        0.0299216154387     0.0610805465236     0.930589341924      -0.338006420088     0.930589341924      -0.338006420088     0.0299216154387     0.0610805465236     
9700000000.0        0.0303752246103     0.0616027021296     0.929310463063      -0.341357422763     0.929310463063      -0.341357422763     0.0303752246103     0.0616027021296     
9800000000.0        0.0308326138766     0.0621214793074     0.928019245559      -0.344703265924     0.928019245559      -0.344703265924     0.0308326138766     0.0621214793074     
9900000000.0        0.0312937578889     0.0626368507901     0.926715714134      -0.348043902044     0.926715714134      -0.348043902044     0.0312937578889     0.0626368507901     
10000000000.0       0.031758631095      0.0631487895141     0.925399893725      -0.351379283758     0.925399893725      -0.351379283758     0.031758631095      0.0631487895141     
