# Hz S RI R 50.00 
100000000.0         0.00123844818501    -0.000551461627621  0.998752897514      -0.00252686968051   0.998752897514      -0.00252686968051   0.00123844818501    -0.000551461627621  
200000000.0         0.00124114201831    -0.00110294012505   0.99873306922       -0.00505369243214   0.99873306922       -0.00505369243214   0.00124114201831    -0.00110294012505   
300000000.0         0.00123887484265    -0.00165441190232   0.998708721741      -0.00758046891935   0.998708721741      -0.00758046891935   0.00123887484265    -0.00165441190232   
400000000.0         0.00123272106887    -0.00220586101699   0.99867878069       -0.010107189559     0.99867878069       -0.010107189559     0.00123272106887    -0.00220586101699   
500000000.0         0.00122309394751    -0.00275727305619   0.998642832915      -0.0126338419356    0.998642832915      -0.0126338419356    0.00122309394751    -0.00275727305619   
600000000.0         0.00121020402387    -0.00330863418717   0.99860066805       -0.015160412206     0.99860066805       -0.015160412206     0.00121020402387    -0.00330863418717   
700000000.0         0.00119417559934    -0.00385993084032   0.998552162061      -0.0176868856474    0.998552162061      -0.0176868856474    0.00119417559934    -0.00385993084032   
800000000.0         0.00117508920767    -0.00441114957362   0.998497234774      -0.0202132469324    0.998497234774      -0.0202132469324    0.00117508920767    -0.00441114957362   
900000000.0         0.00115300051557    -0.00496227700586   0.998435830979      -0.0227394802867    0.998435830979      -0.0227394802867    0.00115300051557    -0.00496227700586   
1000000000.0        0.00112794989699    -0.00551329978084   0.99836791086       -0.0252655695894    0.99836791086       -0.0252655695894    0.00112794989699    -0.00551329978084   
1100000000.0        0.00109996775218    -0.00606420454707   0.998293444678      -0.027791498441     0.998293444678      -0.027791498441     0.00109996775218    -0.00606420454707   
1200000000.0        0.00106907767533    -0.00661497794582   0.998212409606      -0.0303172502115    0.998212409606      -0.0303172502115    0.00106907767533    -0.00661497794582   
1300000000.0        0.00103529844639    -0.00716560660413   0.998124787742      -0.0328428080758    0.998124787742      -0.0328428080758    0.00103529844639    -0.00716560660413   
1400000000.0        0.000998645339544   -0.00771607713056   0.9980305648        -0.0353681550418    0.9980305648        -0.0353681550418    0.000998645339544   -0.00771607713056   
1500000000.0        0.000959131014466   -0.00826637611284   0.99792972922       -0.0378932739713    0.99792972922       -0.0378932739713    0.000959131014466   -0.00826637611284   
1600000000.0        0.000916766141925   -0.00881649011669   0.997822271548      -0.0404181475974    0.997822271548      -0.0404181475974    0.000916766141925   -0.00881649011669   
1700000000.0        0.000871559854472   -0.00936640568519   0.997708183983      -0.0429427585383    0.997708183983      -0.0429427585383    0.000871559854473   -0.00936640568519   
1800000000.0        0.000823520078374   -0.0099161093389    0.997587460048      -0.0454670893097    0.997587460048      -0.0454670893097    0.000823520078374   -0.0099161093389    
1900000000.0        0.000772653782873   -0.0104655875762    0.997460094344      -0.0479911223337    0.997460094344      -0.0479911223337    0.000772653782873   -0.0104655875762    
2000000000.0        0.000718967170584   -0.0110148268738    0.997326082357      -0.0505148399479    0.997326082357      -0.0505148399479    0.000718967170584   -0.0110148268738    
2100000000.0        0.000662465825138   -0.0115638136873    0.997185420315      -0.0530382244126    0.997185420315      -0.0530382244126    0.000662465825138   -0.0115638136873    
2200000000.0        0.000603154827235   -0.0121125344523    0.997038105071      -0.0555612579165    0.997038105071      -0.0555612579165    0.000603154827235   -0.0121125344523    
2300000000.0        0.000541038846971   -0.012660975585     0.996884134014      -0.0580839225829    0.996884134014      -0.0580839225829    0.000541038846972   -0.012660975585     
2400000000.0        0.000476122218108   -0.0132091234831    0.996723504991      -0.0606062004745    0.996723504991      -0.0606062004745    0.000476122218108   -0.0132091234831    
2500000000.0        0.000408408998401   -0.013756964527     0.996556216255      -0.0631280735973    0.996556216255      -0.0631280735973    0.000408408998401   -0.013756964527     
2600000000.0        0.000337903019072   -0.0143044850803    0.996382266409      -0.0656495239051    0.996382266409      -0.0656495239051    0.000337903019072   -0.0143044850803    
2700000000.0        0.000264607925696   -0.014851671491     0.996201654369      -0.0681705333028    0.996201654369      -0.0681705333028    0.000264607925696   -0.014851671491     
2800000000.0        0.000188527212267   -0.0153985100922    0.996014379333      -0.0706910836497    0.996014379333      -0.0706910836497    0.000188527212267   -0.0153985100922    
2900000000.0        0.000109664249777   -0.0159449872035    0.99582044075       -0.0732111567622    0.99582044075       -0.0732111567622    0.000109664249776   -0.0159449872035    
3000000000.0        2.80223103493e-05   -0.0164910891313    0.995619838297      -0.075730734417     0.995619838297      -0.075730734417     2.80223103493e-05   -0.0164910891313    
3100000000.0        -5.63954122526e-05  -0.0170368021699    0.99541257186       -0.078249798353     0.99541257186       -0.078249798353     -5.63954122529e-05  -0.0170368021699    
3200000000.0        -0.000143585785114  -0.0175821126027    0.995198641517      -0.0807683302741    0.995198641517      -0.0807683302741    -0.000143585785114  -0.0175821126027    
3300000000.0        -0.000233545721108  -0.0181270067025    0.994978047523      -0.0832863118511    0.994978047523      -0.0832863118511    -0.000233545721108  -0.0181270067025    
3400000000.0        -0.000326272165916  -0.0186714707329    0.994750790298      -0.0858037247239    0.994750790298      -0.0858037247239    -0.000326272165916  -0.0186714707329    
3500000000.0        -0.000421762086756  -0.0192154909487    0.994516870418      -0.0883205505031    0.994516870418      -0.0883205505031    -0.000421762086757  -0.0192154909487    
3600000000.0        -0.000520012462573  -0.0197590535969    0.994276288601      -0.0908367707719    0.994276288601      -0.0908367707719    -0.000520012462573  -0.0197590535969    
3700000000.0        -0.000621020275455  -0.0203021449175    0.994029045704      -0.093352367088     0.994029045704      -0.093352367088     -0.000621020275455  -0.0203021449175    
3800000000.0        -0.000724782503103  -0.0208447511445    0.993775142712      -0.0958673209848    0.993775142712      -0.0958673209848    -0.000724782503103  -0.0208447511445    
3900000000.0        -0.000831296112192  -0.0213868585061    0.993514580736      -0.098381613973     0.993514580736      -0.098381613973     -0.000831296112192  -0.0213868585061    
4000000000.0        -0.000940558052502  -0.0219284532262    0.993247361003      -0.100895227542     0.993247361003      -0.100895227542     -0.000940558052502  -0.0219284532262    
4100000000.0        -0.00105256525172   -0.0224695215246    0.992973484854      -0.103408143162     0.992973484854      -0.103408143162     -0.00105256525172   -0.0224695215246    
4200000000.0        -0.00116731461079   -0.023010049618     0.99269295374       -0.105920342284     0.99269295374       -0.105920342284     -0.00116731461079   -0.023010049618     
4300000000.0        -0.00128480299982   -0.0235500237208    0.992405769216      -0.108431806341     0.992405769216      -0.108431806341     -0.00128480299982   -0.0235500237208    
4400000000.0        -0.00140502725435   -0.0240894300455    0.992111932939      -0.110942516751     0.992111932939      -0.110942516751     -0.00140502725435   -0.0240894300455    
4500000000.0        -0.00152798417205   -0.0246282548039    0.991811446666      -0.113452454916     0.991811446666      -0.113452454916     -0.00152798417205   -0.0246282548039    
4600000000.0        -0.00165367050974   -0.0251664842072    0.99150431225       -0.115961602225     0.99150431225       -0.115961602225     -0.00165367050974   -0.0251664842072    
4700000000.0        -0.00178208298074   -0.0257041044675    0.991190531638      -0.118469940054     0.991190531638      -0.118469940054     -0.00178208298074   -0.0257041044675    
4800000000.0        -0.00191321825238   -0.0262411017975    0.990870106867      -0.120977449767     0.990870106867      -0.120977449767     -0.00191321825238   -0.0262411017975    
4900000000.0        -0.00204707294385   -0.0267774624121    0.990543040067      -0.123484112716     0.990543040067      -0.123484112716     -0.00204707294385   -0.0267774624121    
5000000000.0        -0.00218364362423   -0.0273131725287    0.990209333454      -0.125989910245     0.990209333454      -0.125989910245     -0.00218364362423   -0.0273131725287    
5100000000.0        -0.00232292681064   -0.0278482183675    0.98986898933       -0.128494823686     0.98986898933       -0.128494823686     -0.00232292681064   -0.0278482183675    
5200000000.0        -0.00246491896662   -0.028382586153     0.989522010083      -0.130998834367     0.989522010083      -0.130998834367     -0.00246491896662   -0.028382586153     
5300000000.0        -0.00260961650066   -0.0289162621138    0.989168398186      -0.133501923606     0.989168398186      -0.133501923606     -0.00260961650066   -0.0289162621138    
5400000000.0        -0.00275701576479   -0.0294492324838    0.988808156192      -0.136004072715     0.988808156192      -0.136004072715     -0.00275701576479   -0.0294492324838    
5500000000.0        -0.00290711305338   -0.0299814835027    0.988441286738      -0.138505263001     0.988441286738      -0.138505263001     -0.00290711305338   -0.0299814835027    
5600000000.0        -0.00305990460197   -0.0305130014165    0.98806779254       -0.141005475766     0.98806779254       -0.141005475766     -0.00305990460197   -0.0305130014165    
5700000000.0        -0.00321538658625   -0.0310437724783    0.987687676393      -0.143504692308     0.987687676393      -0.143504692308     -0.00321538658625   -0.0310437724783    
5800000000.0        -0.00337355512109   -0.0315737829488    0.987300941173      -0.146002893921     0.987300941173      -0.146002893921     -0.00337355512109   -0.0315737829488    
5900000000.0        -0.00353440625971   -0.0321030190971    0.986907589832      -0.148500061898     0.986907589832      -0.148500061898     -0.00353440625971   -0.0321030190971    
6000000000.0        -0.0036979359928    -0.0326314672011    0.986507625402      -0.150996177531     0.986507625402      -0.150996177531     -0.0036979359928    -0.0326314672011    
6100000000.0        -0.00386414024786   -0.0331591135483    0.986101050988      -0.153491222108     0.986101050988      -0.153491222108     -0.00386414024786   -0.0331591135483    
6200000000.0        -0.0040330148885    -0.0336859444362    0.985687869775      -0.155985176919     0.985687869775      -0.155985176919     -0.0040330148885    -0.0336859444362    
6300000000.0        -0.0042045557138    -0.0342119461732    0.98526808502       -0.158478023255     0.98526808502       -0.158478023255     -0.0042045557138    -0.0342119461732    
6400000000.0        -0.00437875845778   -0.0347371050788    0.984841700058      -0.160969742406     0.984841700058      -0.160969742406     -0.00437875845778   -0.0347371050788    
6500000000.0        -0.00455561878884   -0.0352614074846    0.984408718297      -0.163460315665     0.984408718297      -0.163460315665     -0.00455561878884   -0.0352614074846    
6600000000.0        -0.00473513230932   -0.0357848397346    0.983969143219      -0.165949724329     0.983969143219      -0.165949724329     -0.00473513230932   -0.0357848397346    
6700000000.0        -0.00491729455504   -0.036307388186     0.983522978382      -0.168437949694     0.983522978382      -0.168437949694     -0.00491729455504   -0.036307388186     
6800000000.0        -0.0051021009949    -0.0368290392096    0.983070227414      -0.170924973065     0.983070227414      -0.170924973065     -0.0051021009949    -0.0368290392096    
6900000000.0        -0.00528954703051   -0.0373497791903    0.982610894018      -0.173410775747     0.982610894018      -0.173410775747     -0.00528954703051   -0.0373497791903    
7000000000.0        -0.00547962799586   -0.0378695945282    0.982144981969      -0.175895339053     0.982144981969      -0.175895339053     -0.00547962799586   -0.0378695945282    
7100000000.0        -0.00567233915704   -0.0383884716385    0.981672495116      -0.1783786443       0.981672495116      -0.1783786443       -0.00567233915703   -0.0383884716385    
7200000000.0        -0.00586767571189   -0.0389063969525    0.981193437377      -0.180860672812     0.981193437377      -0.180860672812     -0.00586767571189   -0.0389063969525    
7300000000.0        -0.00606563278982   -0.0394233569179    0.980707812744      -0.183341405918     0.980707812744      -0.183341405918     -0.00606563278982   -0.0394233569179    
7400000000.0        -0.00626620545157   -0.0399393379997    0.98021562528       -0.185820824958     0.98021562528       -0.185820824958     -0.00626620545157   -0.0399393379997    
7500000000.0        -0.00646938868894   -0.0404543266804    0.979716879119      -0.188298911278     0.979716879119      -0.188298911278     -0.00646938868894   -0.0404543266804    
7600000000.0        -0.0066751774247    -0.0409683094608    0.979211578466      -0.190775646232     0.979211578466      -0.190775646232     -0.0066751774247    -0.0409683094608    
7700000000.0        -0.00688356651234   -0.0414812728604    0.978699727596      -0.193251011183     0.978699727596      -0.193251011183     -0.00688356651234   -0.0414812728604    
7800000000.0        -0.00709455073596   -0.041993203418     0.978181330855      -0.195724987506     0.978181330855      -0.195724987506     -0.00709455073596   -0.041993203418     
7900000000.0        -0.00730812481017   -0.0425040876924    0.97765639266       -0.198197556585     0.97765639266       -0.198197556585     -0.00730812481017   -0.0425040876924    
8000000000.0        -0.00752428337991   -0.0430139122626    0.977124917497      -0.200668699814     0.977124917497      -0.200668699814     -0.00752428337991   -0.0430139122626    
8100000000.0        -0.00774302102041   -0.0435226637288    0.976586909922      -0.203138398599     0.976586909922      -0.203138398599     -0.00774302102041   -0.0435226637288    
8200000000.0        -0.00796433223707   -0.0440303287125    0.97604237456       -0.205606634359     0.97604237456       -0.205606634359     -0.00796433223707   -0.0440303287125    
8300000000.0        -0.00818821146541   -0.0445368938572    0.975491316107      -0.208073388523     0.975491316107      -0.208073388523     -0.00818821146541   -0.0445368938572    
8400000000.0        -0.00841465307102   -0.0450423458292    0.974933739326      -0.210538642536     0.974933739326      -0.210538642536     -0.00841465307102   -0.0450423458292    
8500000000.0        -0.00864365134949   -0.0455466713175    0.974369649052      -0.213002377855     0.974369649052      -0.213002377855     -0.00864365134949   -0.0455466713175    
8600000000.0        -0.00887520052643   -0.0460498570351    0.973799050185      -0.21546457595      0.973799050185      -0.21546457595      -0.00887520052643   -0.0460498570351    
8700000000.0        -0.00910929475739   -0.046551889719     0.973221947697      -0.217925218307     0.973221947697      -0.217925218307     -0.00910929475739   -0.046551889719     
8800000000.0        -0.00934592812788   -0.0470527561307    0.972638346627      -0.220384286427     0.972638346627      -0.220384286427     -0.00934592812788   -0.0470527561307    
8900000000.0        -0.0095850946534    -0.0475524430571    0.972048252082      -0.222841761826     0.972048252082      -0.222841761826     -0.0095850946534    -0.0475524430571    
9000000000.0        -0.0098267882794    -0.0480509373108    0.971451669237      -0.225297626037     0.971451669237      -0.225297626037     -0.0098267882794    -0.0480509373108    
9100000000.0        -0.0100710028813    -0.0485482257304    0.970848603337      -0.227751860608     0.970848603337      -0.227751860608     -0.0100710028813    -0.0485482257304    
9200000000.0        -0.0103177322647    -0.0490442951815    0.97023905969       -0.230204447105     0.97023905969       -0.230204447105     -0.0103177322647    -0.0490442951815    
9300000000.0        -0.0105669701651    -0.0495391325567    0.969623043677      -0.232655367111     0.969623043677      -0.232655367111     -0.0105669701651    -0.0495391325567    
9400000000.0        -0.0108187102481    -0.0500327247766    0.969000560743      -0.235104602228     0.969000560743      -0.235104602228     -0.0108187102481    -0.0500327247766    
9500000000.0        -0.0110729461097    -0.0505250587899    0.968371616402      -0.237552134077     0.968371616402      -0.237552134077     -0.0110729461097    -0.0505250587899    
9600000000.0        -0.0113296712758    -0.051016121574     0.967736216233      -0.239997944294     0.967736216233      -0.239997944294     -0.0113296712758    -0.051016121574     
9700000000.0        -0.0115888792031    -0.0515059001358    0.967094365883      -0.24244201454      0.967094365883      -0.24244201454      -0.0115888792031    -0.0515059001358    
9800000000.0        -0.0118505632782    -0.0519943815116    0.966446071066      -0.244884326492     0.966446071066      -0.244884326492     -0.0118505632782    -0.0519943815116    
9900000000.0        -0.0121147168184    -0.0524815527683    0.965791337562      -0.247324861848     0.965791337562      -0.247324861848     -0.0121147168184    -0.0524815527683    
10000000000.0       -0.0123813330717    -0.0529674010034    0.965130171217      -0.249763602329     0.965130171217      -0.249763602329     -0.0123813330717    -0.0529674010034    
