# Hz S RI R 50.00 
100000000.0         0.00376691382964    0.00068764703457    0.996231108617      -0.00143476334103   0.996231108617      -0.00143476334103   0.00376691382964    0.00068764703457    
200000000.0         0.00379448522887    0.0013751825369     0.996202000759      -0.00286941771062   0.996202000759      -0.00286941771062   0.00379448522887    0.0013751825369     
300000000.0         0.00381737935803    0.00206264307303    0.996177011241      -0.00430400151851   0.996177011241      -0.00430400151851   0.00381737935803    0.00206264307303    
400000000.0         0.00383886143633    0.00275003730107    0.996152874818      -0.00573852484393   0.996152874818      -0.00573852484393   0.00383886143633    0.00275003730107    
500000000.0         0.00386018986048    0.00343736739593    0.996128333066      -0.00717299107109   0.996128333066      -0.00717299107109   0.00386018986048    0.00343736739593    
600000000.0         0.00388200680047    0.00412463266509    0.996102743783      -0.00860740057919   0.996102743783      -0.00860740057919   0.00388200680047    0.00412463266509    
700000000.0         0.00390469179872    0.00481183084635    0.996075727391      -0.010041752078     0.996075727391      -0.010041752078     0.00390469179872    0.00481183084635    
800000000.0         0.00392849085333    0.00549895870947    0.996047037855      -0.0114760432314    0.996047037855      -0.0114760432314    0.00392849085333    0.00549895870947    
900000000.0         0.00395357390562    0.00618601237856    0.996016505192      -0.0129102709954    0.996016505192      -0.0129102709954    0.00395357390562    0.00618601237856    
1000000000.0        0.0039800639854     0.00687298752321    0.995984006329      -0.0143444318192    0.995984006329      -0.0143444318192    0.0039800639854     0.00687298752321    
1100000000.0        0.00400805341597    0.00755987947941    0.995949448898      -0.0157785217736    0.995949448898      -0.0157785217736    0.00400805341597    0.00755987947941    
1200000000.0        0.00403761347219    0.00824668333053    0.995912761574      -0.0172125366381    0.995912761574      -0.0172125366381    0.00403761347219    0.00824668333053    
1300000000.0        0.00406880045795    0.00893339396383    0.995873888002      -0.0186464719622    0.995873888002      -0.0186464719622    0.00406880045795    0.00893339396383    
1400000000.0        0.00410165970169    0.0096200061111     0.9958327828        -0.020080323109     0.9958327828        -0.020080323109     0.00410165970169    0.0096200061111     
1500000000.0        0.00413622827954    0.010306514379      0.995789408837      -0.0215140852894    0.995789408837      -0.0215140852894    0.00413622827954    0.010306514379      
1600000000.0        0.00417253692819    0.0109929132717     0.995743735316      -0.0229477535866    0.995743735316      -0.0229477535866    0.00417253692819    0.0109929132717     
1700000000.0        0.00421061142364    0.0116791972089     0.995695736401      -0.0243813229766    0.995695736401      -0.0243813229766    0.00421061142364    0.0116791972089     
1800000000.0        0.00425047359726    0.0123653605398     0.995645390197      -0.0258147883437    0.995645390197      -0.0258147883437    0.00425047359726    0.0123653605398     
1900000000.0        0.00429214209915    0.0130513975539     0.99559267799       -0.0272481444932    0.99559267799       -0.0272481444932    0.00429214209915    0.0130513975539     
2000000000.0        0.00433563298144    0.0137373024907     0.995537583659      -0.028681386162     0.995537583659      -0.028681386162     0.00433563298144    0.0137373024907     
2100000000.0        0.00438096015088    0.0144230695464     0.995480093228      -0.0301145080271    0.995480093228      -0.0301145080271    0.00438096015088    0.0144230695464     
2200000000.0        0.00442813572457    0.0151086928808     0.995420194509      -0.0315475047128    0.995420194509      -0.0315475047128    0.00442813572457    0.0151086928808     
2300000000.0        0.00447717031312    0.0157941666216     0.995357876817      -0.0329803707968    0.995357876817      -0.0329803707968    0.00447717031312    0.0157941666216     
2400000000.0        0.00452807324845    0.0164794848698     0.995293130745      -0.0344131008154    0.995293130745      -0.0344131008154    0.00452807324845    0.0164794848698     
2500000000.0        0.00458085276883    0.0171646417024     0.995225947976      -0.0358456892681    0.995225947976      -0.0358456892681    0.00458085276883    0.0171646417024     
2600000000.0        0.00463551617064    0.0178496311761     0.995156321135      -0.037278130621     0.995156321135      -0.037278130621     0.00463551617064    0.0178496311761     
2700000000.0        0.00469206993376    0.01853444733       0.99508424366       -0.0387104193106    0.99508424366       -0.0387104193106    0.00469206993375    0.01853444733       
2800000000.0        0.00475051982603    0.0192190841879     0.995009709701      -0.0401425497467    0.995009709701      -0.0401425497467    0.00475051982603    0.0192190841879     
2900000000.0        0.00481087099095    0.0199035357604     0.994932714027      -0.0415745163148    0.994932714027      -0.0415745163148    0.00481087099095    0.0199035357604     
3000000000.0        0.00487312802155    0.0205877960466     0.99485325196       -0.0430063133783    0.99485325196       -0.0430063133783    0.00487312802155    0.0205877960466     
3100000000.0        0.00493729502329    0.0212718590358     0.994771319305      -0.0444379352809    0.994771319305      -0.0444379352809    0.00493729502329    0.0212718590358     
3200000000.0        0.00500337566769    0.0219557187092     0.9946869123        -0.0458693763483    0.9946869123        -0.0458693763483    0.00500337566769    0.0219557187092     
3300000000.0        0.00507137323841    0.0226393690405     0.994600027568      -0.0473006308895    0.994600027568      -0.0473006308895    0.00507137323841    0.0226393690405     
3400000000.0        0.00514129067097    0.0233228039978     0.994510662081      -0.0487316931989    0.994510662081      -0.0487316931989    0.00514129067097    0.0233228039978     
3500000000.0        0.00521313058721    0.024006017544      0.99441881312       -0.050162557557     0.99441881312       -0.050162557557     0.00521313058721    0.024006017544      
3600000000.0        0.00528689532525    0.024689003638      0.994324478249      -0.051593218232     0.994324478249      -0.051593218232     0.00528689532525    0.024689003638      
3700000000.0        0.00536258696573    0.0253717562358     0.994227655291      -0.053023669481     0.994227655291      -0.053023669481     0.00536258696573    0.0253717562358     
3800000000.0        0.00544020735473    0.0260542692905     0.994128342296      -0.0544539055507    0.994128342296      -0.0544539055507    0.00544020735473    0.0260542692905     
3900000000.0        0.00551975812406    0.0267365367539     0.994026537532      -0.0558839206785    0.994026537532      -0.0558839206785    0.00551975812406    0.0267365367539     
4000000000.0        0.00560124070911    0.0274185525762     0.993922239458      -0.0573137090934    0.993922239458      -0.0573137090934    0.00560124070911    0.0274185525762     
4100000000.0        0.0056846563647     0.0281003107075     0.993815446715      -0.0587432650167    0.993815446715      -0.0587432650167    0.0056846563647     0.0281003107075     
4200000000.0        0.00577000617915    0.0287818050976     0.993706158107      -0.0601725826628    0.993706158107      -0.0601725826628    0.00577000617915    0.0287818050976     
4300000000.0        0.00585729108684    0.0294630296969     0.993594372592      -0.0616016562399    0.993594372592      -0.0616016562399    0.00585729108683    0.0294630296969     
4400000000.0        0.00594651187944    0.0301439784567     0.993480089266      -0.0630304799505    0.993480089266      -0.0630304799505    0.00594651187944    0.0301439784567     
4500000000.0        0.006037669216      0.0308246453297     0.993363307361      -0.0644590479924    0.993363307361      -0.0644590479924    0.006037669216      0.0308246453297     
4600000000.0        0.00613076363194    0.03150502427       0.993244026226      -0.0658873545586    0.993244026226      -0.0658873545586    0.00613076363194    0.03150502427       
4700000000.0        0.00622579554722    0.0321851092344     0.993122245328      -0.0673153938385    0.993122245328      -0.0673153938385    0.00622579554722    0.0321851092344     
4800000000.0        0.00632276527371    0.0328648941816     0.992997964239      -0.0687431600177    0.992997964239      -0.0687431600177    0.00632276527371    0.0328648941816     
4900000000.0        0.00642167302185    0.0335443730733     0.99287118263       -0.0701706472794    0.99287118263       -0.0701706472794    0.00642167302185    0.0335443730733     
5000000000.0        0.00652251890663    0.0342235398743     0.992741900269      -0.0715978498037    0.992741900269      -0.0715978498037    0.00652251890663    0.0342235398743     
5100000000.0        0.00662530295315    0.0349023885526     0.992610117008      -0.073024761769     0.992610117008      -0.073024761769     0.00662530295315    0.0349023885526     
5200000000.0        0.00673002510156    0.0355809130799     0.992475832788      -0.0744513773519    0.992475832788      -0.0744513773519    0.00673002510156    0.0355809130799     
5300000000.0        0.00683668521166    0.0362591074318     0.992339047624      -0.0758776907276    0.992339047624      -0.0758776907276    0.00683668521166    0.0362591074318     
5400000000.0        0.006945283067      0.0369369655879     0.992199761609      -0.0773036960703    0.992199761609      -0.0773036960703    0.006945283067      0.0369369655879     
5500000000.0        0.00705581837877    0.0376144815321     0.992057974906      -0.0787293875536    0.992057974906      -0.0787293875536    0.00705581837877    0.0376144815321     
5600000000.0        0.00716829078922    0.038291649253      0.991913687745      -0.0801547593509    0.991913687745      -0.0801547593509    0.00716829078922    0.038291649253      
5700000000.0        0.00728269987492    0.0389684627438     0.991766900421      -0.0815798056353    0.991766900421      -0.0815798056353    0.00728269987492    0.0389684627438     
5800000000.0        0.00739904514968    0.0396449160028     0.991617613292      -0.0830045205805    0.991617613292      -0.0830045205805    0.00739904514968    0.0396449160028     
5900000000.0        0.00751732606732    0.0403210030332     0.991465826771      -0.0844288983606    0.991465826771      -0.0844288983606    0.00751732606732    0.0403210030332     
6000000000.0        0.0076375420241     0.0409967178437     0.99131154133       -0.0858529331505    0.99131154133       -0.0858529331505    0.0076375420241     0.0409967178437     
6100000000.0        0.00775969236112    0.0416720544484     0.991154757495      -0.0872766191262    0.991154757495      -0.0872766191262    0.00775969236112    0.0416720544484     
6200000000.0        0.00788377636643    0.0423470068672     0.990995475842      -0.0886999504653    0.990995475842      -0.0886999504653    0.00788377636643    0.0423470068672     
6300000000.0        0.008009793277      0.0430215691257     0.990833696999      -0.0901229213466    0.990833696999      -0.0901229213466    0.008009793277      0.0430215691257     
6400000000.0        0.0081377422806     0.0436957352553     0.99066942164       -0.0915455259509    0.99066942164       -0.0915455259509    0.0081377422806     0.0436957352553     
6500000000.0        0.00826762251752    0.0443694992937     0.990502650486      -0.0929677584612    0.990502650486      -0.0929677584612    0.00826762251752    0.0443694992937     
6600000000.0        0.0083994330821     0.045042855285      0.990333384303      -0.0943896130626    0.990333384303      -0.0943896130626    0.0083994330821     0.045042855285      
6700000000.0        0.00853317302432    0.0457157972795     0.990161623901      -0.0958110839425    0.990161623901      -0.0958110839425    0.00853317302432    0.0457157972795     
6800000000.0        0.00866884135109    0.0463883193339     0.989987370128      -0.0972321652914    0.989987370128      -0.0972321652914    0.00866884135108    0.0463883193339     
6900000000.0        0.00880643702757    0.0470604155119     0.989810623879      -0.0986528513023    0.989810623879      -0.0986528513023    0.00880643702757    0.0470604155119     
7000000000.0        0.00894595897843    0.0477320798839     0.989631386081      -0.100073136172     0.989631386081      -0.100073136172     0.00894595897843    0.0477320798839     
7100000000.0        0.0090874060889     0.048403306527      0.989449657706      -0.101493014099     0.989449657706      -0.101493014099     0.0090874060889     0.048403306527      
7200000000.0        0.0092307772059     0.0490740895255     0.989265439758      -0.102912479286     0.989265439758      -0.102912479286     0.0092307772059     0.0490740895255     
7300000000.0        0.00937607113899    0.049744422971      0.98907873328       -0.104331525941     0.98907873328       -0.104331525941     0.00937607113899    0.049744422971      
7400000000.0        0.0095232866613     0.0504143009621     0.98888953935       -0.105750148273     0.98888953935       -0.105750148273     0.0095232866613     0.0504143009621     
7500000000.0        0.00967242251045    0.0510837176049     0.98869785908       -0.107168340498     0.98869785908       -0.107168340498     0.00967242251045    0.0510837176049     
7600000000.0        0.00982347738934    0.0517526670132     0.988503693614      -0.108586096832     0.988503693614      -0.108586096832     0.00982347738934    0.0517526670132     
7700000000.0        0.00997644996691    0.0524211433081     0.988307044132      -0.110003411499     0.988307044132      -0.110003411499     0.00997644996691    0.0524211433081     
7800000000.0        0.0101313388789     0.0530891406185     0.988107911843      -0.111420278727     0.988107911843      -0.111420278727     0.0101313388789     0.0530891406185     
7900000000.0        0.0102881427286     0.0537566530812     0.98790629799       -0.112836692746     0.98790629799       -0.112836692746     0.0102881427286     0.0537566530812     
8000000000.0        0.0104468600873     0.0544236748408     0.987702203846      -0.114252647793     0.987702203846      -0.114252647793     0.0104468600873     0.0544236748408     
8100000000.0        0.0106074894953     0.0550902000502     0.987495630712      -0.115668138109     0.987495630712      -0.115668138109     0.0106074894953     0.0550902000502     
8200000000.0        0.0107700294619     0.0557562228699     0.987286579922      -0.117083157942     0.987286579922      -0.117083157942     0.0107700294619     0.0557562228699     
8300000000.0        0.0109344784665     0.0564217374692     0.987075052836      -0.118497701542     0.987075052836      -0.118497701542     0.0109344784665     0.0564217374692     
8400000000.0        0.0111008349589     0.0570867380252     0.986861050845      -0.119911763166     0.986861050845      -0.119911763166     0.0111008349589     0.0570867380252     
8500000000.0        0.0112690973597     0.0577512187238     0.986644575366      -0.121325337076     0.986644575366      -0.121325337076     0.0112690973597     0.0577512187238     
8600000000.0        0.0114392640612     0.0584151737591     0.986425627846      -0.122738417541     0.986425627846      -0.122738417541     0.0114392640612     0.0584151737591     
8700000000.0        0.0116113334271     0.059078597334      0.986204209756      -0.124150998834     0.986204209756      -0.124150998834     0.0116113334271     0.059078597334      
8800000000.0        0.0117853037936     0.0597414836599     0.985980322595      -0.125563075234     0.985980322595      -0.125563075234     0.0117853037936     0.0597414836599     
8900000000.0        0.0119611734697     0.0604038269571     0.985753967891      -0.126974641026     0.985753967891      -0.126974641026     0.0119611734697     0.0604038269571     
9000000000.0        0.0121389407371     0.0610656214546     0.985525147193      -0.128385690503     0.985525147193      -0.128385690503     0.0121389407371     0.0610656214546     
9100000000.0        0.0123186038512     0.0617268613905     0.98529386208       -0.129796217962     0.98529386208       -0.129796217962     0.0123186038512     0.0617268613905     
9200000000.0        0.0125001610412     0.0623875410119     0.985060114153      -0.131206217706     0.985060114153      -0.131206217706     0.0125001610412     0.0623875410119     
9300000000.0        0.0126836105102     0.0630476545749     0.984823905039      -0.132615684047     0.984823905039      -0.132615684047     0.0126836105102     0.0630476545749     
9400000000.0        0.0128689504359     0.0637071963448     0.984585236391      -0.134024611301     0.984585236391      -0.134024611301     0.0128689504359     0.0637071963448     
9500000000.0        0.0130561789708     0.0643661605964     0.984344109884      -0.135432993792     0.984344109884      -0.135432993792     0.0130561789708     0.0643661605964     
9600000000.0        0.0132452942423     0.0650245416134     0.984100527219      -0.13684082585      0.984100527219      -0.13684082585      0.0132452942423     0.0650245416134     
9700000000.0        0.0134362943532     0.0656823336894     0.983854490118      -0.138248101813     0.983854490118      -0.138248101813     0.0134362943532     0.0656823336894     
9800000000.0        0.0136291773819     0.0663395311272     0.983606000329      -0.139654816025     0.983606000329      -0.139654816025     0.0136291773819     0.0663395311272     
9900000000.0        0.0138239413828     0.0669961282394     0.983355059622      -0.141060962838     0.983355059622      -0.141060962838     0.0138239413828     0.0669961282394     
10000000000.0       0.0140205843863     0.0676521193481     0.983101669791      -0.14246653661      0.983101669791      -0.14246653661      0.0140205843863     0.0676521193481     
