# Hz S RI R 50.00 
100000000.0         -3.6729788463e-05   -0.00667672025713   0.99993089966       -0.00684616003337   0.99993089966       -0.00684616003337   -3.6729788463e-05   -0.00667672025713   
200000000.0         -0.000180430693357  -0.0133516210547    0.999786935498      -0.0136905428874    0.999786935498      -0.0136905428874    -0.000180430693357  -0.0133516210547    
300000000.0         -0.000415496599136  -0.0200229576627    0.999551633489      -0.0205314253107    0.999551633489      -0.0205314253107    -0.000415496599136  -0.0200229576627    
400000000.0         -0.000741802152611  -0.0266889594173    0.999225091083      -0.0273670528566    0.999225091083      -0.0273670528566    -0.000741802152611  -0.0266889594173    
500000000.0         -0.00115918422377   -0.0333478441054    0.998807460678      -0.0341956567741    0.998807460678      -0.0341956567741    -0.00115918422377   -0.0333478441054    
600000000.0         -0.00166743540361   -0.039997824193     0.998298944201      -0.0410154611205    0.998298944201      -0.0410154611205    -0.00166743540361   -0.039997824193     
700000000.0         -0.00226630219629   -0.0466371108852    0.997699791892      -0.0478246872765    0.997699791892      -0.0478246872765    -0.00226630219629   -0.0466371108852    
800000000.0         -0.00295548434394   -0.0532639172641    0.997010301883      -0.0546215573612    0.997010301883      -0.0546215573612    -0.00295548434394   -0.0532639172641    
900000000.0         -0.00373463459482   -0.0598764609566    0.996230819935      -0.0614042970855    0.996230819935      -0.0614042970855    -0.00373463459482   -0.0598764609566    
1000000000.0        -0.00460335870991   -0.0664729665216    0.99536173919       -0.0681711382734    0.99536173919       -0.0681711382734    -0.00460335870991   -0.0664729665216    
1100000000.0        -0.0055612156302    -0.0730516676545    0.994403499862      -0.074920321168     0.994403499862      -0.074920321168     -0.0055612156302    -0.0730516676545    
1200000000.0        -0.00660771776867   -0.0796108092589    0.993356588867      -0.081650096583     0.993356588867      -0.081650096583     -0.00660771776867   -0.0796108092589    
1300000000.0        -0.00774233140835   -0.086148649419     0.992221539373      -0.0883587279404    0.992221539373      -0.0883587279404    -0.00774233140835   -0.086148649419     
1400000000.0        -0.00896447719455   -0.0926634612874    0.990998930274      -0.095044493212     0.990998930274      -0.095044493212     -0.00896447719455   -0.0926634612874    
1500000000.0        -0.0102735307136    -0.0991535348992    0.989689385591      -0.10170568678      0.989689385591      -0.10170568678      -0.0102735307136    -0.0991535348992    
1600000000.0        -0.011668823152     -0.105617178919     0.988293573792      -0.108340621225     0.988293573792      -0.108340621225     -0.011668823152     -0.105617178919     
1700000000.0        -0.0131496420311    -0.112052722327     0.986812207051      -0.114947629042     0.986812207051      -0.114947629042     -0.0131496420311    -0.112052722327     
1800000000.0        -0.0147152320135    -0.118458516037     0.985246040431      -0.121525064301     0.985246040431      -0.121525064301     -0.0147152320135    -0.118458516037     
1900000000.0        -0.0163647957759    -0.124832934464     0.983595871008      -0.128071304228     0.983595871008      -0.128071304228     -0.0163647957759    -0.124832934464     
2000000000.0        -0.018097494946     -0.131174377022     0.981862536923      -0.134584750737     0.981862536923      -0.134584750737     -0.018097494946     -0.131174377022     
2100000000.0        -0.0199124510994    -0.137481269563     0.980046916389      -0.141063831893     0.980046916389      -0.141063831893     -0.0199124510994    -0.137481269563     
2200000000.0        -0.0218087468119    -0.143752065757     0.978149926631      -0.147507003306     0.978149926631      -0.147507003306     -0.0218087468119    -0.143752065757     
2300000000.0        -0.0237854267653    -0.14998524841      0.97617252278       -0.153912749475     0.97617252278       -0.153912749475     -0.0237854267653    -0.14998524841      
2400000000.0        -0.0258414989016    -0.156179330714     0.974115696715      -0.160279585049     0.974115696715      -0.160279585049     -0.0258414989016    -0.156179330714     
2500000000.0        -0.0279759356228    -0.162332857433     0.971980475866      -0.166606056041     0.971980475866      -0.166606056041     -0.0279759356228    -0.162332857433     
2600000000.0        -0.0301876750328    -0.168444406035     0.969767921967      -0.172890740959     0.969767921967      -0.172890740959     -0.0301876750328    -0.168444406035     
2700000000.0        -0.0324756222174    -0.17451258774      0.967479129776      -0.179132251884     0.967479129776      -0.179132251884     -0.0324756222174    -0.17451258774      
2800000000.0        -0.034838650559     -0.180536048519     0.965115225761      -0.185329235471     0.965115225761      -0.185329235471     -0.034838650559     -0.180536048519     
2900000000.0        -0.0372756030824    -0.186513470016     0.962677366752      -0.191480373889     0.962677366752      -0.191480373889     -0.0372756030824    -0.186513470016     
3000000000.0        -0.0397852938285    -0.192443570405     0.960166738567      -0.197584385689     0.960166738567      -0.197584385689     -0.0397852938285    -0.192443570405     
3100000000.0        -0.0423665092521    -0.198325105182     0.957584554614      -0.203640026606     0.957584554614      -0.203640026606     -0.0423665092521    -0.198325105182     
3200000000.0        -0.0450180096401    -0.204156867889     0.954932054475      -0.209646090291     0.954932054475      -0.209646090291     -0.0450180096401    -0.204156867889     
3300000000.0        -0.0477385305473    -0.209937690767     0.952210502464      -0.215601408978     0.952210502464      -0.215601408978     -0.0477385305473    -0.209937690767     
3400000000.0        -0.0505267842458    -0.215666445346     0.949421186182      -0.22150485408      0.949421186182      -0.22150485408      -0.0505267842458    -0.215666445346     
3500000000.0        -0.0533814611851    -0.221342042969     0.946565415057      -0.227355336722     0.946565415057      -0.227355336722     -0.0533814611851    -0.221342042969     
3600000000.0        -0.0563012314593    -0.226963435242     0.943644518872      -0.233151808199     0.943644518872      -0.233151808199     -0.0563012314593    -0.226963435242     
3700000000.0        -0.059284746279     -0.232529614433     0.940659846299      -0.238893260382     0.940659846299      -0.238893260382     -0.059284746279     -0.232529614433     
3800000000.0        -0.0623306394436    -0.23803961379      0.937612763421      -0.244578726043     0.937612763421      -0.244578726043     -0.0623306394436    -0.23803961379      
3900000000.0        -0.0654375288118    -0.243492507805     0.934504652265      -0.250207279126     0.934504652265      -0.250207279126     -0.0654375288118    -0.243492507805     
4000000000.0        -0.0686040177677    -0.248887412417     0.931336909336      -0.255778034955     0.931336909336      -0.255778034955     -0.0686040177677    -0.248887412417     
4100000000.0        -0.0718286966788    -0.254223485144     0.928110944154      -0.261290150374     0.928110944154      -0.261290150374     -0.0718286966788    -0.254223485144     
4200000000.0        -0.0751101443437    -0.259499925164     0.924828177814      -0.266742823829     0.924828177814      -0.266742823829     -0.0751101443437    -0.259499925164     
4300000000.0        -0.0784469294271    -0.264715973331     0.921490041543      -0.272135295395     0.921490041543      -0.272135295395     -0.0784469294271    -0.264715973331     
4400000000.0        -0.0818376118789    -0.269870912142     0.918097975286      -0.277466846743     0.918097975286      -0.277466846743     -0.0818376118789    -0.269870912142     
4500000000.0        -0.0852807443363    -0.274964065636     0.914653426303      -0.282736801044     0.914653426303      -0.282736801044     -0.0852807443363    -0.274964065636     
4600000000.0        -0.0887748735053    -0.27999479925      0.911157847786      -0.287944522832     0.911157847786      -0.287944522832     -0.0887748735053    -0.27999479925      
4700000000.0        -0.09231854152      -0.284962519618     0.9076126975        -0.293089417803     0.9076126975        -0.293089417803     -0.09231854152      -0.284962519618     
4800000000.0        -0.0959102872787    -0.289866674318     0.904019436448      -0.298170932572     0.904019436448      -0.298170932572     -0.0959102872787    -0.289866674318     
4900000000.0        -0.0995486477528    -0.294706751579     0.900379527561      -0.303188554371     0.900379527561      -0.303188554371     -0.0995486477528    -0.294706751579     
5000000000.0        -0.103232159269     -0.299482279927     0.896694434415      -0.308141810715     0.896694434415      -0.308141810715     -0.103232159269     -0.299482279927     
5100000000.0        -0.106959358762     -0.304192827802     0.892965619982      -0.313030269007     0.892965619982      -0.313030269007     -0.106959358762     -0.304192827802     
5200000000.0        -0.110728784995     -0.308838003121     0.889194545402      -0.317853536112     0.889194545402      -0.317853536112     -0.110728784995     -0.308838003121     
5300000000.0        -0.114538979753     -0.313417452807     0.885382668801      -0.322611257887     0.885382668801      -0.322611257887     -0.114538979753     -0.313417452807     
5400000000.0        -0.118388488994     -0.317930862277     0.881531444126      -0.327303118672     0.881531444126      -0.327303118672     -0.118388488994     -0.317930862277     
5500000000.0        -0.122275863975     -0.322377954895     0.877642320032      -0.33192884074      0.877642320032      -0.33192884074      -0.122275863975     -0.322377954895     
5600000000.0        -0.126199662337     -0.326758491389     0.873716738788      -0.336488183726     0.873716738788      -0.336488183726     -0.126199662337     -0.326758491389     
5700000000.0        -0.130158449157     -0.33107226924      0.869756135229      -0.340980944007     0.869756135229      -0.340980944007     -0.130158449157     -0.33107226924      
5800000000.0        -0.134150797957     -0.335319122036     0.865761935745      -0.345406954067     0.865761935745      -0.345406954067     -0.134150797957     -0.335319122036     
5900000000.0        -0.138175291685     -0.339498918802     0.861735557301      -0.349766081822     0.861735557301      -0.349766081822     -0.138175291685     -0.339498918802     
6000000000.0        -0.14223052365      -0.343611563301     0.857678406505      -0.354058229927     0.857678406505      -0.354058229927     -0.14223052365      -0.343611563301     
6100000000.0        -0.14631509842      -0.347656993318     0.853591878703      -0.358283335059     0.853591878703      -0.358283335059     -0.14631509842      -0.347656993318     
6200000000.0        -0.150427632686     -0.351635179912     0.849477357121      -0.362441367172     0.849477357121      -0.362441367172     -0.150427632686     -0.351635179912     
6300000000.0        -0.154566756078     -0.355546126659     0.845336212046      -0.36653232874      0.845336212046      -0.36653232874      -0.154566756078     -0.355546126659     
6400000000.0        -0.158731111953     -0.359389868871     0.84116980004       -0.370556253975     0.84116980004       -0.370556253975     -0.158731111953     -0.359389868871     
6500000000.0        -0.162919358133     -0.363166472799     0.8369794632        -0.37451320804      0.8369794632        -0.37451320804      -0.162919358133     -0.363166472799     
6600000000.0        -0.167130167611     -0.36687603483      0.83276652845       -0.378403286232     0.83276652845       -0.378403286232     -0.167130167611     -0.36687603483      
6700000000.0        -0.171362229219     -0.370518680658     0.828532306882      -0.382226613171     0.828532306882      -0.382226613171     -0.171362229219     -0.370518680658     
6800000000.0        -0.175614248249     -0.374094564463     0.824278093123      -0.385983341963     0.824278093123      -0.385983341963     -0.175614248249     -0.374094564463     
6900000000.0        -0.179884947047     -0.377603868063     0.820005164752      -0.389673653367     0.820005164752      -0.389673653367     -0.179884947047     -0.377603868063     
7000000000.0        -0.184173065558     -0.381046800073     0.815714781743      -0.393297754948     0.815714781743      -0.393297754948     -0.184173065558     -0.381046800073     
7100000000.0        -0.188477361844     -0.384423595056     0.81140818596       -0.396855880225     0.81140818596       -0.396855880225     -0.188477361844     -0.384423595056     
7200000000.0        -0.192796612556     -0.387734512661     0.807086600674      -0.400348287819     0.807086600674      -0.400348287819     -0.192796612556     -0.387734512661     
7300000000.0        -0.197129613378     -0.390979836776     0.802751230127      -0.4037752606       0.802751230127      -0.4037752606       -0.197129613378     -0.390979836776     
7400000000.0        -0.201475179427     -0.394159874667     0.798403259126      -0.407137104824     0.798403259126      -0.407137104824     -0.201475179427     -0.394159874667     
7500000000.0        -0.205832145625     -0.397274956119     0.794043852676      -0.410434149285     0.794043852676      -0.410434149285     -0.205832145625     -0.397274956119     
7600000000.0        -0.210199367033     -0.40032543259      0.789674155641      -0.413666744455     0.789674155641      -0.413666744455     -0.210199367033     -0.40032543259      
7700000000.0        -0.214575719154     -0.403311676354     0.785295292447      -0.416835261642     0.785295292447      -0.416835261642     -0.214575719154     -0.403311676354     
7800000000.0        -0.218960098198     -0.406234079659     0.78090836681       -0.419940092137     0.78090836681       -0.419940092137     -0.218960098198     -0.406234079659     
7900000000.0        -0.223351421323     -0.409093053887     0.776514461499      -0.42298164638      0.776514461499      -0.42298164638      -0.223351421323     -0.409093053887     
8000000000.0        -0.227748626839     -0.411889028721     0.772114638134      -0.425960353125     0.772114638134      -0.425960353125     -0.227748626839     -0.411889028721     
8100000000.0        -0.232150674387     -0.414622451323     0.767709937003      -0.428876658618     0.767709937003      -0.428876658618     -0.232150674387     -0.414622451323     
8200000000.0        -0.236556545079     -0.417293785513     0.763301376921      -0.431731025779     0.763301376921      -0.431731025779     -0.236556545079     -0.417293785513     
8300000000.0        -0.240965241625     -0.419903510967     0.758889955111      -0.434523933397     0.758889955111      -0.434523933397     -0.240965241625     -0.419903510967     
8400000000.0        -0.245375788418     -0.422452122421     0.754476647106      -0.437255875337     0.754476647106      -0.437255875337     -0.245375788418     -0.422452122421     
8500000000.0        -0.249787231605     -0.424940128886     0.750062406694      -0.439927359751     0.750062406694      -0.439927359751     -0.249787231605     -0.424940128886     
8600000000.0        -0.25419863912      -0.427368052879     0.745648165869      -0.442538908312     0.745648165869      -0.442538908312     -0.25419863912      -0.427368052879     
8700000000.0        -0.258609100705     -0.429736429658     0.741234834822      -0.445091055449     0.741234834822      -0.445091055449     -0.258609100705     -0.429736429658     
8800000000.0        -0.263017727899     -0.432045806484     0.736823301945      -0.447584347608     0.736823301945      -0.447584347608     -0.263017727899     -0.432045806484     
8900000000.0        -0.267423654009     -0.434296741881     0.732414433862      -0.450019342514     0.732414433862      -0.450019342514     -0.267423654009     -0.434296741881     
9000000000.0        -0.271826034058     -0.436489804925     0.728009075484      -0.452396608457     0.728009075484      -0.452396608457     -0.271826034058     -0.436489804925     
9100000000.0        -0.276224044712     -0.438625574539     0.723608050076      -0.454716723587     0.723608050076      -0.454716723587     -0.276224044712     -0.438625574539     
9200000000.0        -0.280616884189     -0.440704638804     0.719212159354      -0.456980275229     0.719212159354      -0.456980275229     -0.280616884189     -0.440704638804     
9300000000.0        -0.28500377215      -0.442727594288     0.714822183591      -0.459187859209     0.714822183591      -0.459187859209     -0.28500377215      -0.442727594288     
9400000000.0        -0.289383949567     -0.444695045391     0.710438881747      -0.461340079199     0.710438881747      -0.461340079199     -0.289383949567     -0.444695045391     
9500000000.0        -0.293756678582     -0.446607603704     0.706062991613      -0.463437546075     0.706062991613      -0.463437546075     -0.293756678582     -0.446607603704     
9600000000.0        -0.298121242346     -0.448465887385     0.701695229974      -0.465480877295     0.701695229974      -0.465480877295     -0.298121242346     -0.448465887385     
9700000000.0        -0.302476944844     -0.450270520552     0.69733629278       -0.467470696292     0.69733629278       -0.467470696292     -0.302476944844     -0.450270520552     
9800000000.0        -0.306823110702     -0.452022132693     0.692986855337      -0.469407631882     0.692986855337      -0.469407631882     -0.306823110702     -0.452022132693     
9900000000.0        -0.31115908499      -0.453721358091     0.68864757251       -0.47129231769      0.68864757251       -0.47129231769      -0.31115908499      -0.453721358091     
10000000000.0       -0.315484233004     -0.455368835267     0.684319078939      -0.473125391592     0.684319078939      -0.473125391592     -0.315484233004     -0.455368835267     
