# Hz S RI R 50.00 
100000000.0         1.9052599618e-06    -0.00612261737114   0.999907680233      -0.00629724488223   0.999907680233      -0.00629724488223   1.9052599618e-06    -0.00612261737114   
200000000.0         -0.000119570542672  -0.0122436870481    0.999785518222      -0.012592949724     0.999785518222      -0.012592949724     -0.000119570542672  -0.0122436870481    
300000000.0         -0.000318169193113  -0.0183617977637    0.999586365824      -0.0188857074872    0.999586365824      -0.0188857074872    -0.000318169193113  -0.0183617977637    
400000000.0         -0.000593760542902  -0.0244755362773    0.999310272031      -0.0251741082044    0.999310272031      -0.0251741082044    -0.000593760542902  -0.0244755362773    
500000000.0         -0.00094620487987   -0.0305834904601    0.998957345428      -0.0314567425549    0.998957345428      -0.0314567425549    -0.00094620487987   -0.0305834904601    
600000000.0         -0.0013753356233    -0.0366842510763    0.998527736782      -0.0377322038097    0.998527736782      -0.0377322038097    -0.0013753356233    -0.0366842510763    
700000000.0         -0.00188095503738   -0.0427764132063    0.998021634522      -0.0439990893372    0.998021634522      -0.0439990893372    -0.00188095503738   -0.0427764132063    
800000000.0         -0.00246283279629   -0.0488585775185    0.997439262963      -0.0502560019237    0.997439262963      -0.0502560019237    -0.00246283279629   -0.0488585775185    
900000000.0         -0.00312070548762   -0.0549293514574    0.996780881379      -0.056501550993     0.996780881379      -0.056501550993     -0.00312070548762   -0.0549293514574    
1000000000.0        -0.00385427651177   -0.0609873503781    0.996046783384      -0.0627343537641    0.996046783384      -0.0627343537641    -0.00385427651177   -0.0609873503781    
1100000000.0        -0.00466321618393   -0.0670311986438    0.995237296426      -0.0689530363643    0.995237296426      -0.0689530363643    -0.00466321618393   -0.0670311986438    
1200000000.0        -0.00554716195703   -0.0730595306899    0.994352781327      -0.0751562349063    0.994352781327      -0.0751562349063    -0.00554716195703   -0.0730595306899    
1300000000.0        -0.00650571872765   -0.0790709920618    0.99339363183       -0.0813425965356    0.99339363183       -0.0813425965356    -0.00650571872765   -0.0790709920618    
1400000000.0        -0.00753845920503   -0.0850642404267    0.99236027413       -0.0875107804498    0.99236027413       -0.0875107804498    -0.00753845920503   -0.0850642404267    
1500000000.0        -0.00864492433174   -0.0910379465589    0.991253166386      -0.0936594588914    0.991253166386      -0.0936594588914    -0.00864492433174   -0.0910379465589    
1600000000.0        -0.00982462374932   -0.0969907953023    0.99007279821       -0.0997873181145    0.99007279821       -0.0997873181145    -0.00982462374932   -0.0969907953023    
1700000000.0        -0.011077036304     -0.102921486506     0.988819690128      -0.105893059326     0.988819690128      -0.105893059326     -0.011077036304     -0.102921486506     
1800000000.0        -0.0124016105896    -0.108828735935     0.98749439301       -0.111975399599     0.98749439301       -0.111975399599     -0.0124016105896    -0.108828735935     
1900000000.0        -0.0137977655243    -0.114711276155     0.986097487479      -0.118033072762     0.986097487479      -0.118033072762     -0.0137977655243    -0.114711276155     
2000000000.0        -0.0152648909596    -0.120567857387     0.984629583283      -0.124064830257     0.984629583283      -0.124064830257     -0.0152648909596    -0.120567857387     
2100000000.0        -0.0168023483201    -0.126397248339     0.983091318647      -0.130069441972     0.983091318647      -0.130069441972     -0.0168023483201    -0.126397248339     
2200000000.0        -0.0184094712703    -0.132198237005     0.981483359597      -0.136045697041     0.981483359597      -0.136045697041     -0.0184094712703    -0.132198237005     
2300000000.0        -0.0200855664099    -0.137969631434     0.97980639926       -0.141992404622     0.97980639926       -0.141992404622     -0.0200855664099    -0.137969631434     
2400000000.0        -0.0218299139926    -0.143710260474     0.978061157136      -0.147908394633     0.978061157136      -0.147908394633     -0.0218299139926    -0.143710260474     
2500000000.0        -0.0236417686692    -0.149418974478     0.976248378352      -0.153792518468     0.976248378352      -0.153792518468     -0.0236417686692    -0.149418974478     
2600000000.0        -0.0255203602529    -0.155094645981     0.974368832896      -0.159643649674     0.974368832896      -0.159643649674     -0.0255203602529    -0.155094645981     
2700000000.0        -0.0274648945043    -0.160736170351     0.972423314824      -0.165460684596     0.972423314824      -0.165460684596     -0.0274648945043    -0.160736170351     
2800000000.0        -0.0294745539354    -0.166342466397     0.970412641457      -0.171242542995     0.970412641457      -0.171242542995     -0.0294745539354    -0.166342466397     
2900000000.0        -0.0315484986313    -0.171912476947     0.968337652556      -0.176988168626     0.968337652556      -0.176988168626     -0.0315484986313    -0.171912476947     
3000000000.0        -0.0336858670873    -0.1774451694       0.966199209484      -0.182696529786     0.966199209484      -0.182696529786     -0.0336858670873    -0.1774451694       
3100000000.0        -0.0358857770596    -0.182939536231     0.963998194352      -0.188366619825     0.963998194352      -0.188366619825     -0.0358857770596    -0.182939536231     
3200000000.0        -0.0381473264296    -0.188394595474     0.961735509156      -0.193997457628     0.961735509156      -0.193997457628     -0.0381473264296    -0.188394595474     
3300000000.0        -0.0404695940784    -0.193809391163     0.9594120749        -0.199588088056     0.9594120749        -0.199588088056     -0.0404695940784    -0.193809391163     
3400000000.0        -0.0428516407713    -0.199182993736     0.95702883071       -0.205137582353     0.95702883071       -0.205137582353     -0.0428516407713    -0.199182993736     
3500000000.0        -0.0452925100497    -0.204514500419     0.954586732942      -0.210645038528     0.954586732942      -0.210645038528     -0.0452925100497    -0.204514500419     
3600000000.0        -0.04779122913      -0.209803035553     0.952086754284      -0.216109581688     0.952086754284      -0.216109581688     -0.04779122913      -0.209803035553     
3700000000.0        -0.0503468098075    -0.21504775091      0.949529882847      -0.221530364346     0.949529882847      -0.221530364346     -0.0503468098075    -0.21504775091      
3800000000.0        -0.052958249363     -0.220247825953     0.946917121264      -0.226906566691     0.946917121264      -0.226906566691     -0.052958249363     -0.220247825953     
3900000000.0        -0.0556245314722    -0.225402468079     0.944249485775      -0.232237396825     0.944249485775      -0.232237396825     -0.0556245314722    -0.225402468079     
4000000000.0        -0.0583446271154    -0.230510912818     0.941528005319      -0.237522090966     0.941528005319      -0.237522090966     -0.0583446271154    -0.230510912818     
4100000000.0        -0.0611174954864    -0.235572424        0.938753720626      -0.242759913613     0.938753720626      -0.242759913613     -0.0611174954864    -0.235572424        
4200000000.0        -0.0639420848995    -0.240586293894     0.935927683307      -0.247950157688     0.935927683307      -0.247950157688     -0.0639420848995    -0.240586293894     
4300000000.0        -0.0668173336926    -0.245551843304     0.933050954952      -0.253092144634     0.933050954952      -0.253092144634     -0.0668173336926    -0.245551843304     
4400000000.0        -0.0697421711257    -0.250468421647     0.930124606231      -0.258185224484     0.930124606231      -0.258185224484     -0.0697421711257    -0.250468421647     
4500000000.0        -0.0727155182735    -0.255335406981     0.927149716003      -0.263228775906     0.927149716003      -0.263228775906     -0.0727155182735    -0.255335406981     
4600000000.0        -0.0757362889109    -0.260152206023     0.924127370427      -0.268222206204     0.924127370427      -0.268222206204     -0.0757362889109    -0.260152206023     
4700000000.0        -0.0788033903895    -0.264918254117     0.921058662086      -0.273164951297     0.921058662086      -0.273164951297     -0.0788033903895    -0.264918254117     
4800000000.0        -0.0819157245052    -0.269633015184     0.917944689123      -0.278056475669     0.917944689123      -0.278056475669     -0.0819157245052    -0.269633015184     
4900000000.0        -0.0850721883553    -0.27429598164      0.91478655438       -0.282896272281     0.91478655438       -0.282896272281     -0.0850721883553    -0.27429598164      
5000000000.0        -0.0882716751829    -0.278906674285     0.911585364553      -0.287683862467     0.911585364553      -0.287683862467     -0.0882716751829    -0.278906674285     
5100000000.0        -0.0915130752105    -0.283464642162     0.908342229362      -0.292418795792     0.908342229362      -0.292418795792     -0.0915130752105    -0.283464642162     
5200000000.0        -0.0947952764583    -0.287969462399     0.905058260728      -0.297100649891     0.905058260728      -0.297100649891     -0.0947952764583    -0.287969462399     
5300000000.0        -0.0981171655494    -0.292420740011     0.901734571972      -0.301729030274     0.901734571972      -0.301729030274     -0.0981171655494    -0.292420740011     
5400000000.0        -0.101477628499     -0.296818107688     0.898372277023      -0.306303570116     0.898372277023      -0.306303570116     -0.101477628499     -0.296818107688     
5500000000.0        -0.104875551489     -0.301161225559     0.894972489644      -0.310823930016     0.894972489644      -0.310823930016     -0.104875551489     -0.301161225559     
5600000000.0        -0.108309821622     -0.305449780921     0.891536322678      -0.315289797732     0.891536322678      -0.315289797732     -0.108309821622     -0.305449780921     
5700000000.0        -0.111779327665     -0.309683487963     0.888064887304      -0.319700887901     0.888064887304      -0.319700887901     -0.111779327665     -0.309683487963     
5800000000.0        -0.115282960768     -0.313862087456     0.884559292321      -0.324056941735     0.884559292321      -0.324056941735     -0.115282960768     -0.313862087456     
5900000000.0        -0.118819615167     -0.317985346429     0.881020643438      -0.328357726687     0.881020643438      -0.328357726687     -0.118819615167     -0.317985346429     
6000000000.0        -0.122388188869     -0.322053057822     0.877450042597      -0.332603036119     0.877450042597      -0.332603036119     -0.122388188869     -0.322053057822     
6100000000.0        -0.125987584316     -0.326065040128     0.873848587305      -0.336792688926     0.873848587305      -0.336792688926     -0.125987584316     -0.326065040128     
6200000000.0        -0.129616709031     -0.330021137006     0.870217369987      -0.340926529169     0.870217369987      -0.340926529169     -0.129616709031     -0.330021137006     
6300000000.0        -0.13327447624      -0.333921216891     0.866557477367      -0.345004425669     0.866557477367      -0.345004425669     -0.13327447624      -0.333921216891     
6400000000.0        -0.136959805475     -0.337765172579     0.862869989862      -0.349026271602     0.862869989862      -0.349026271602     -0.136959805475     -0.337765172579     
6500000000.0        -0.140671623163     -0.341552920803     0.859155980997      -0.35299198407      0.859155980997      -0.35299198407      -0.140671623163     -0.341552920803     
6600000000.0        -0.144408863179     -0.345284401794     0.855416516845      -0.356901503665     0.855416516845      -0.356901503665     -0.144408863179     -0.345284401794     
6700000000.0        -0.148170467394     -0.34895957883      0.851652655486      -0.36075479402      0.851652655486      -0.36075479402      -0.148170467394     -0.34895957883      
6800000000.0        -0.151955386189     -0.352578437777     0.84786544649       -0.364551841341     0.84786544649       -0.364551841341     -0.151955386189     -0.352578437777     
6900000000.0        -0.155762578958     -0.35614098661      0.844055930414      -0.368292653943     0.844055930414      -0.368292653943     -0.155762578958     -0.35614098661      
7000000000.0        -0.159591014579     -0.359647254939     0.840225138331      -0.371977261763     0.840225138331      -0.371977261763     -0.159591014579     -0.359647254939     
7100000000.0        -0.163439671875     -0.363097293514     0.836374091371      -0.37560571587      0.836374091371      -0.37560571587      -0.163439671875     -0.363097293514     
7200000000.0        -0.167307540039     -0.36649117373      0.83250380029       -0.379178087974     0.83250380029       -0.379178087974     -0.167307540039     -0.36649117373      
7300000000.0        -0.171193619056     -0.369828987123     0.828615265056      -0.382694469916     0.828615265056      -0.382694469916     -0.171193619056     -0.369828987123     
7400000000.0        -0.175096920088     -0.37311084486      0.824709474459      -0.386154973161     0.824709474459      -0.386154973161     -0.175096920088     -0.37311084486      
7500000000.0        -0.179016465844     -0.376336877225     0.820787405742      -0.389559728284     0.820787405742      -0.389559728284     -0.179016465844     -0.376336877225     
7600000000.0        -0.18295129093      -0.379507233097     0.816850024249      -0.392908884451     0.816850024249      -0.392908884451     -0.18295129093      -0.379507233097     
7700000000.0        -0.186900442179     -0.382622079436     0.812898283101      -0.396202608897     0.812898283101      -0.396202608897     -0.186900442179     -0.382622079436     
7800000000.0        -0.190862978956     -0.385681600751     0.808933122886      -0.399441086406     0.808933122886      -0.399441086406     -0.190862978956     -0.385681600751     
7900000000.0        -0.194837973447     -0.38868599858      0.804955471369      -0.40262451878      0.804955471369      -0.40262451878      -0.194837973447     -0.38868599858      
8000000000.0        -0.198824510924     -0.39163549096      0.80096624323       -0.405753124316     0.80096624323       -0.405753124316     -0.198824510924     -0.39163549096      
8100000000.0        -0.202821689999     -0.394530311902     0.796966339811      -0.408827137278     0.796966339811      -0.408827137278     -0.202821689999     -0.394530311902     
8200000000.0        -0.206828622845     -0.397370710863     0.792956648889      -0.41184680737      0.792956648889      -0.41184680737      -0.206828622845     -0.397370710863     
8300000000.0        -0.210844435413     -0.400156952223     0.788938044467      -0.414812399216     0.788938044467      -0.414812399216     -0.210844435413     -0.400156952223     
8400000000.0        -0.214868267618     -0.402889314759     0.784911386583      -0.417724191828     0.784911386583      -0.417724191828     -0.214868267618     -0.402889314759     
8500000000.0        -0.218899273515     -0.405568091126     0.780877521135      -0.420582478093     0.780877521135      -0.420582478093     -0.218899273515     -0.405568091126     
8600000000.0        -0.222936621453     -0.408193587337     0.776837279725      -0.423387564251     0.776837279725      -0.423387564251     -0.222936621453     -0.408193587337     
8700000000.0        -0.226979494212     -0.410766122251     0.772791479526      -0.42613976938      0.772791479526      -0.42613976938      -0.226979494212     -0.410766122251     
8800000000.0        -0.231027089127     -0.413286027059     0.768740923155      -0.428839424888     0.768740923155      -0.428839424888     -0.231027089127     -0.413286027059     
8900000000.0        -0.235078618191     -0.415753644779     0.764686398573      -0.431486874006     0.764686398573      -0.431486874006     -0.235078618191     -0.415753644779     
9000000000.0        -0.239133308142     -0.418169329755     0.760628678994      -0.434082471283     0.760628678994      -0.434082471283     -0.239133308142     -0.418169329755     
9100000000.0        -0.243190400538     -0.420533447162     0.756568522813      -0.436626582097     0.756568522813      -0.436626582097     -0.243190400538     -0.420533447162     
9200000000.0        -0.247249151815     -0.422846372515     0.752506673545      -0.43911958216      0.752506673545      -0.43911958216      -0.247249151815     -0.422846372515     
9300000000.0        -0.251308833329     -0.425108491183     0.74844385979       -0.441561857035     0.74844385979       -0.441561857035     -0.251308833329     -0.425108491183     
9400000000.0        -0.255368731384     -0.427320197915     0.744380795192      -0.443953801661     0.744380795192      -0.443953801661     -0.255368731384     -0.427320197915     
9500000000.0        -0.259428147251     -0.429481896369     0.740318178436      -0.446295819881     0.740318178436      -0.446295819881     -0.259428147251     -0.429481896369     
9600000000.0        -0.263486397167     -0.431593998645     0.736256693237      -0.448588323976     0.736256693237      -0.448588323976     -0.263486397167     -0.431593998645     
9700000000.0        -0.267542812326     -0.433656924835     0.732197008353      -0.450831734216     0.732197008353      -0.450831734216     -0.267542812326     -0.433656924835     
9800000000.0        -0.271596738855     -0.435671102569     0.728139777609      -0.453026478405     0.728139777609      -0.453026478405     -0.271596738855     -0.435671102569     
9900000000.0        -0.27564753778      -0.437636966581     0.724085639932      -0.455172991447     0.724085639932      -0.455172991447     -0.27564753778      -0.437636966581     
10000000000.0       -0.279694584981     -0.43955495827      0.720035219394      -0.457271714908     0.720035219394      -0.457271714908     -0.279694584981     -0.43955495827      
