# Hz S RI R 50.00 
100000000.0         0.000258346479127   -0.000112008387194  0.999739703865      -0.00060762438619   0.999739703865      -0.00060762438619   0.000258346479127   -0.000112008387194  
200000000.0         0.000259534701841   -0.000224021810181  0.99973704804       -0.0012152545926    0.99973704804       -0.0012152545926    0.000259534701841   -0.000224021810181  
300000000.0         0.000260131147286   -0.000336041447724  0.999734465999      -0.00182289530311   0.999734465999      -0.00182289530311   0.000260131147286   -0.000336041447724  
400000000.0         0.000260360462449   -0.000448068447437  0.999731733037      -0.002430549787     0.999731733037      -0.002430549787     0.000260360462449   -0.000448068447437  
500000000.0         0.000260309049919   -0.000560103814906  0.999728762685      -0.0030382207232    0.999728762685      -0.0030382207232    0.000260309049919   -0.000560103814906  
600000000.0         0.000260020909761   -0.000672148439275  0.999725510866      -0.00364591042839   0.999725510866      -0.00364591042839   0.000260020909761   -0.000672148439275  
700000000.0         0.000259521989474   -0.000784203114682  0.999721951548      -0.0042536209638    0.999721951548      -0.0042536209638    0.000259521989474   -0.000784203114682  
800000000.0         0.000258829066353   -0.000896268556375  0.999718067864      -0.00486135419679   0.999718067864      -0.00486135419679   0.000258829066353   -0.000896268556375  
900000000.0         0.00025795370027    -0.00100834541241   0.999713848155      -0.00546911183993   0.999713848155      -0.00546911183993   0.00025795370027    -0.00100834541241   
1000000000.0        0.000256904236375   -0.00112043427223   0.999709283973      -0.0060768954777    0.999709283973      -0.0060768954777    0.000256904236375   -0.00112043427223   
1100000000.0        0.000255686917702   -0.00123253567405   0.999704368964      -0.00668470658648   0.999704368964      -0.00668470658648   0.000255686917702   -0.00123253567405   
1200000000.0        0.000254306547946   -0.00134465010987   0.999699098211      -0.00729254654881   0.999699098211      -0.00729254654881   0.000254306547946   -0.00134465010987   
1300000000.0        0.000252766908188   -0.00145677803028   0.999693467813      -0.00790041666523   0.999693467813      -0.00790041666523   0.000252766908188   -0.00145677803028   
1400000000.0        0.000251071030709   -0.00156891984791   0.999687474614      -0.00850831816316   0.999687474614      -0.00850831816316   0.000251071030709   -0.00156891984791   
1500000000.0        0.000249221385498   -0.00168107594069   0.999681116014      -0.00911625220454   0.999681116014      -0.00911625220454   0.000249221385498   -0.00168107594069   
1600000000.0        0.000247220011199   -0.0017932466545    0.999674389842      -0.00972421989198   0.999674389842      -0.00972421989198   0.000247220011199   -0.0017932466545    
1700000000.0        0.000245068609421   -0.00190543230531   0.999667294261      -0.0103322222739    0.999667294261      -0.0103322222739    0.000245068609421   -0.00190543230531   
1800000000.0        0.000242768614218   -0.00201763318126   0.999659827697      -0.0109402603488    0.999659827697      -0.0109402603488    0.000242768614218   -0.00201763318126   
1900000000.0        0.000240321244268   -0.00212984954432   0.999651988785      -0.0115483350694    0.999651988785      -0.0115483350694    0.000240321244268   -0.00212984954432   
2000000000.0        0.000237727542727   -0.00224208163186   0.999643776338      -0.0121564473457    0.999643776338      -0.0121564473457    0.000237727542727   -0.00224208163186   
2100000000.0        0.000234988408131   -0.00235432965798   0.999635189306      -0.0127645980479    0.999635189306      -0.0127645980479    0.000234988408131   -0.00235432965798   
2200000000.0        0.000232104618686   -0.00246659381482   0.999626226757      -0.0133727880088    0.999626226757      -0.0133727880088    0.000232104618686   -0.00246659381482   
2300000000.0        0.000229076851602   -0.00257887427357   0.99961688786       -0.0139810180266    0.99961688786       -0.0139810180266    0.000229076851601   -0.00257887427357   
2400000000.0        0.000225905698628   -0.00269117118546   0.999607171863      -0.0145892888664    0.999607171863      -0.0145892888664    0.000225905698628   -0.00269117118546   
2500000000.0        0.000222591678687   -0.00280348468275   0.999597078087      -0.015197601262     0.999597078087      -0.015197601262     0.000222591678687   -0.00280348468275   
2600000000.0        0.000219135248221   -0.00291581487948   0.999586605912      -0.0158059559181    0.999586605912      -0.0158059559181    0.000219135248222   -0.00291581487948   
2700000000.0        0.000215536809764   -0.00302816187228   0.99957575477       -0.0164143535111    0.99957575477       -0.0164143535111    0.000215536809764   -0.00302816187228   
2800000000.0        0.00021179671905    -0.00314052574111   0.999564524138      -0.0170227946911    0.999564524138      -0.0170227946911    0.00021179671905    -0.00314052574111   
2900000000.0        0.000207915291011   -0.00325290654983   0.99955291353       -0.0176312800826    0.99955291353       -0.0176312800826    0.000207915291011   -0.00325290654983   
3000000000.0        0.000203892804815   -0.00336530434684   0.999540922496      -0.0182398102861    0.999540922496      -0.0182398102861    0.000203892804815   -0.00336530434684   
3100000000.0        0.000199729508168   -0.00347771916567   0.999528550615      -0.0188483858789    0.999528550615      -0.0188483858789    0.000199729508168   -0.00347771916567   
3200000000.0        0.000195425620967   -0.0035901510255    0.999515797492      -0.0194570074161    0.999515797492      -0.0194570074161    0.000195425620967   -0.0035901510255    
3300000000.0        0.00019098133846    -0.0037025999316    0.999502662754      -0.0200656754315    0.999502662754      -0.0200656754315    0.00019098133846    -0.0037025999316    
3400000000.0        0.000186396833959   -0.00381506587591   0.99948914605       -0.0206743904388    0.99948914605       -0.0206743904388    0.000186396833959   -0.00381506587591   
3500000000.0        0.000181672261199   -0.00392754883732   0.999475247046      -0.0212831529317    0.999475247046      -0.0212831529317    0.000181672261199   -0.00392754883732   
3600000000.0        0.00017680775639    -0.00404004878218   0.999460965424      -0.0218919633851    0.999460965424      -0.0218919633851    0.00017680775639    -0.00404004878218   
3700000000.0        0.000171803440018   -0.00415256566476   0.999446300883      -0.022500822256     0.999446300883      -0.022500822256     0.000171803440018   -0.00415256566476   
3800000000.0        0.000166659418418   -0.00426509942738   0.999431253132      -0.0231097299834    0.999431253132      -0.0231097299834    0.000166659418418   -0.00426509942738   
3900000000.0        0.000161375785169   -0.00437765000105   0.999415821892      -0.0237186869897    0.999415821892      -0.0237186869897    0.000161375785168   -0.00437765000105   
4000000000.0        0.000155952622317   -0.00449021730552   0.999400006896      -0.0243276936808    0.999400006896      -0.0243276936808    0.000155952622317   -0.00449021730552   
4100000000.0        0.000150390001478   -0.00460280124986   0.999383807885      -0.0249367504467    0.999383807885      -0.0249367504467    0.000150390001478   -0.00460280124986   
4200000000.0        0.000144687984799   -0.00471540173253   0.999367224609      -0.0255458576623    0.999367224609      -0.0255458576623    0.0001446879848     -0.00471540173253   
4300000000.0        0.000138846625835   -0.00482801864183   0.999350256827      -0.0261550156875    0.999350256827      -0.0261550156875    0.000138846625835   -0.00482801864183   
4400000000.0        0.00013286597032    -0.00494065185608   0.999332904302      -0.0267642248678    0.999332904302      -0.0267642248678    0.00013286597032    -0.00494065185608   
4500000000.0        0.000126746056866   -0.00505330124392   0.999315166808      -0.0273734855349    0.999315166808      -0.0273734855349    0.000126746056866   -0.00505330124392   
4600000000.0        0.000120486917599   -0.00516596666453   0.99929704412       -0.0279827980068    0.99929704412       -0.0279827980068    0.000120486917599   -0.00516596666453   
4700000000.0        0.000114088578717   -0.00527864796793   0.999278536021      -0.0285921625885    0.999278536021      -0.0285921625885    0.000114088578717   -0.00527864796793   
4800000000.0        0.00010755106101    -0.00539134499512   0.999259642299      -0.0292015795722    0.999259642299      -0.0292015795722    0.000107551061009   -0.00539134499512   
4900000000.0        0.000100874380322   -0.0055040575784    0.999240362745      -0.0298110492376    0.999240362745      -0.0298110492376    0.000100874380322   -0.0055040575784    
5000000000.0        9.40585479821e-05   -0.00561678554148   0.999220697156      -0.0304205718526    0.999220697156      -0.0304205718526    9.40585479818e-05   -0.00561678554148   
5100000000.0        8.71035711796e-05   -0.00572952869975   0.999200645331      -0.0310301476731    0.999200645331      -0.0310301476731    8.710357118e-05     -0.00572952869975   
5200000000.0        8.00094533269e-05   -0.0058422868605    0.999180207074      -0.0316397769436    0.999180207074      -0.0316397769436    8.00094533269e-05   -0.0058422868605    
5300000000.0        7.27761943735e-05   -0.00595505982303   0.99915938219       -0.0322494598978    0.99915938219       -0.0322494598978    7.27761943735e-05   -0.00595505982303   
5400000000.0        6.54037911074e-05   -0.00606784737889   0.99913817049       -0.0328591967582    0.99913817049       -0.0328591967582    6.54037911072e-05   -0.00606784737889   
5500000000.0        5.78922374244e-05   -0.00618064931203   0.999116571785      -0.0334689877369    0.999116571785      -0.0334689877369    5.78922374244e-05   -0.00618064931203   
5600000000.0        5.02415245776e-05   -0.00629346539898   0.999094585889      -0.0340788330358    0.999094585889      -0.0340788330358    5.02415245773e-05   -0.00629346539898   
5700000000.0        4.24516414073e-05   -0.00640629540904   0.999072212621      -0.0346887328465    0.999072212621      -0.0346887328465    4.24516414075e-05   -0.00640629540904   
5800000000.0        3.45225745537e-05   -0.0065191391044    0.999049451798      -0.0352986873512    0.999049451798      -0.0352986873512    3.45225745539e-05   -0.0065191391044    
5900000000.0        2.64543086568e-05   -0.00663199624027   0.999026303242      -0.0359086967221    0.999026303242      -0.0359086967221    2.64543086566e-05   -0.00663199624027   
6000000000.0        1.82468265284e-05   -0.00674486656515   0.999002766776      -0.0365187611225    0.999002766776      -0.0365187611225    1.82468265284e-05   -0.00674486656515   
6100000000.0        9.90010933322e-06   -0.00685774982081   0.998978842225      -0.0371288807063    0.998978842225      -0.0371288807063    9.90010933344e-06   -0.00685774982081   
6200000000.0        1.41413673815e-06   -0.00697064574257   0.998954529415      -0.0377390556187    0.998954529415      -0.0377390556187    1.41413673793e-06   -0.00697064574257   
6300000000.0        -7.21111294244e-06  -0.00708355405935   0.998929828174      -0.0383492859961    0.998929828174      -0.0383492859961    -7.21111294244e-06  -0.00708355405935   
6400000000.0        -1.59756626062e-05  -0.00719647449385   0.998904738331      -0.0389595719665    0.998904738331      -0.0389595719665    -1.5975662606e-05   -0.00719647449385   
6500000000.0        -2.48795362392e-05  -0.00730940676262   0.998879259717      -0.0395699136494    0.998879259717      -0.0395699136494    -2.48795362394e-05  -0.00730940676262   
6600000000.0        -3.39227587995e-05  -0.00742235057631   0.998853392163      -0.0401803111566    0.998853392163      -0.0401803111566    -3.39227587997e-05  -0.00742235057631   
6700000000.0        -4.31053561019e-05  -0.0075353056396    0.998827135503      -0.0407907645914    0.998827135503      -0.0407907645914    -4.31053561014e-05  -0.0075353056396    
6800000000.0        -5.24273547156e-05  -0.0076482716515    0.998800489572      -0.0414012740499    0.998800489572      -0.0414012740499    -5.24273547154e-05  -0.0076482716515    
6900000000.0        -6.18887818712e-05  -0.00776124830537   0.998773454203      -0.0420118396202    0.998773454203      -0.0420118396202    -6.18887818713e-05  -0.00776124830537   
7000000000.0        -7.14896653647e-05  -0.00787423528903   0.998746029234      -0.0426224613832    0.998746029234      -0.0426224613832    -7.14896653649e-05  -0.00787423528903   
7100000000.0        -8.12300334736e-05  -0.00798723228489   0.998718214501      -0.0432331394124    0.998718214501      -0.0432331394124    -8.12300334736e-05  -0.00798723228489   
7200000000.0        -9.11099148763e-05  -0.00810023897009   0.998690009843      -0.0438438737744    0.998690009843      -0.0438438737744    -9.11099148763e-05  -0.00810023897009   
7300000000.0        -0.000101129338577  -0.00821325501654   0.998661415098      -0.0444546645284    0.998661415098      -0.0444546645284    -0.000101129338576  -0.00821325501654   
7400000000.0        -0.000111288333831  -0.00832628009104   0.998632430107      -0.0450655117272    0.998632430107      -0.0450655117272    -0.000111288333831  -0.00832628009104   
7500000000.0        -0.000121586930082  -0.00843931385541   0.998603054708      -0.0456764154168    0.998603054708      -0.0456764154168    -0.000121586930082  -0.00843931385541   
7600000000.0        -0.000132025156895  -0.00855235596652   0.998573288745      -0.0462873756365    0.998573288745      -0.0462873756365    -0.000132025156895  -0.00855235596652   
7700000000.0        -0.000142603043896  -0.00866540607651   0.998543132058      -0.0468983924193    0.998543132058      -0.0468983924193    -0.000142603043896  -0.00866540607651   
7800000000.0        -0.000153320620718  -0.0087784638327    0.99851258449       -0.047509465792     0.99851258449       -0.047509465792     -0.000153320620718  -0.0087784638327    
7900000000.0        -0.000164177916942  -0.00889152887782   0.998481645884      -0.048120595775     0.998481645884      -0.048120595775     -0.000164177916942  -0.00889152887782   
8000000000.0        -0.00017517496205   -0.00900460085006   0.998450316084      -0.0487317823828    0.998450316084      -0.0487317823828    -0.000175174962049  -0.00900460085006   
8100000000.0        -0.000186311785373  -0.00911767938311   0.998418594934      -0.049343025624     0.998418594934      -0.049343025624     -0.000186311785372  -0.00911767938311   
8200000000.0        -0.000197588416048  -0.00923076410633   0.998386482279      -0.0499543255014    0.998386482279      -0.0499543255014    -0.000197588416048  -0.00923076410633   
8300000000.0        -0.000209004882973  -0.00934385464473   0.998353977965      -0.050565682012     0.998353977965      -0.050565682012     -0.000209004882973  -0.00934385464473   
8400000000.0        -0.000220561214765  -0.00945695061913   0.998321081837      -0.0511770951472    0.998321081837      -0.0511770951472    -0.000220561214765  -0.00945695061913   
8500000000.0        -0.000232257439718  -0.00957005164619   0.998287793742      -0.0517885648931    0.998287793742      -0.0517885648931    -0.000232257439718  -0.00957005164619   
8600000000.0        -0.000244093585767  -0.00968315733851   0.998254113527      -0.0524000912304    0.998254113527      -0.0524000912304    -0.000244093585768  -0.00968315733851   
8700000000.0        -0.000256069680457  -0.0097962673047    0.99822004104       -0.0530116741342    0.99822004104       -0.0530116741342    -0.000256069680457  -0.0097962673047    
8800000000.0        -0.000268185750896  -0.00990938114944   0.998185576127      -0.0536233135748    0.998185576127      -0.0536233135748    -0.000268185750897  -0.00990938114944   
8900000000.0        -0.000280441823736  -0.0100224984735    0.998150718639      -0.0542350095173    0.998150718639      -0.0542350095173    -0.000280441823736  -0.0100224984735    
9000000000.0        -0.000292837925131  -0.0101356188741    0.998115468423      -0.0548467619217    0.998115468423      -0.0548467619217    -0.000292837925131  -0.0101356188741    
9100000000.0        -0.000305374080714  -0.0102487419444    0.99807982533       -0.0554585707432    0.99807982533       -0.0554585707432    -0.000305374080714  -0.0102487419444    
9200000000.0        -0.000318050315563  -0.0103618672741    0.998043789207      -0.0560704359323    0.998043789207      -0.0560704359323    -0.000318050315562  -0.0103618672741    
9300000000.0        -0.000330866654175  -0.0104749944494    0.998007359907      -0.0566823574346    0.998007359907      -0.0566823574346    -0.000330866654174  -0.0104749944494    
9400000000.0        -0.000343823120442  -0.0105881230529    0.997970537279      -0.0572943351912    0.997970537279      -0.0572943351912    -0.000343823120442  -0.0105881230529    
9500000000.0        -0.000356919737626  -0.0107012526636    0.997933321174      -0.0579063691385    0.997933321174      -0.0579063691385    -0.000356919737626  -0.0107012526636    
9600000000.0        -0.000370156528328  -0.0108143828573    0.997895711444      -0.0585184592087    0.997895711444      -0.0585184592087    -0.000370156528328  -0.0108143828573    
9700000000.0        -0.000383533514473  -0.0109275132064    0.997857707941      -0.0591306053292    0.997857707941      -0.0591306053292    -0.000383533514473  -0.0109275132064    
9800000000.0        -0.000397050717281  -0.01104064328      0.997819310516      -0.0597428074235    0.997819310516      -0.0597428074235    -0.000397050717282  -0.01104064328      
9900000000.0        -0.000410708157253  -0.011153772644     0.997780519022      -0.0603550654107    0.997780519022      -0.0603550654107    -0.000410708157253  -0.011153772644     
10000000000.0       -0.000424505854141  -0.0112669008613    0.997741333313      -0.0609673792057    0.997741333313      -0.0609673792057    -0.000424505854141  -0.0112669008613    
