# Hz S RI R 50.00 
100000000.0         0.00114735512887    -0.000238888634695  0.998845061468      -0.00256041877315   0.998845061468      -0.00256041877315   0.00114735512887    -0.000238888634695  
200000000.0         0.00115189520905    -0.000477812029858  0.998826098584      -0.00512080758062   0.998826098584      -0.00512080758062   0.00115189520905    -0.000477812029858  
300000000.0         0.00115319699354    -0.000716756272376  0.998802534181      -0.00768117882352   0.998802534181      -0.00768117882352   0.00115319699354    -0.000716756272376  
400000000.0         0.00115225573133    -0.000955715170575  0.9987733725        -0.0102415320343    0.9987733725        -0.0102415320343    0.00115225573133    -0.000955715170575  
500000000.0         0.00114945414697    -0.00119468387994   0.998738230242      -0.0128018627961    0.998738230242      -0.0128018627961    0.00114945414697    -0.00119468387994   
600000000.0         0.00114498710251    -0.00143365797076   0.998696911924      -0.0153621645711    0.998696911924      -0.0153621645711    0.00114498710251    -0.00143365797076   
700000000.0         0.0011389694893     -0.00167263313472   0.998649301998      -0.0179224294487    0.998649301998      -0.0179224294487    0.00113896948931    -0.00167263313472   
800000000.0         0.0011314755844     -0.00191160506889   0.998595325509      -0.0204826485363    0.998595325509      -0.0204826485363    0.0011314755844     -0.00191160506889   
900000000.0         0.00112255656548    -0.00215056942388   0.998534930584      -0.0230428121911    0.998534930584      -0.0230428121911    0.00112255656548    -0.00215056942388   
1000000000.0        0.00111224938473    -0.00238952177953   0.998468079569      -0.0256029101713    0.998468079569      -0.0256029101713    0.00111224938473    -0.00238952177953   
1100000000.0        0.00110058169977    -0.00262845763401   0.998394744103      -0.0281629317408    0.998394744103      -0.0281629317408    0.00110058169977    -0.00262845763401   
1200000000.0        0.00108757481073    -0.0028673723993    0.998314902186      -0.0307228657459    0.998314902186      -0.0307228657459    0.00108757481073    -0.0028673723993    
1300000000.0        0.00107324550759    -0.00310626140015   0.998228536336      -0.0332827006722    0.998228536336      -0.0332827006722    0.00107324550759    -0.00310626140015   
1400000000.0        0.0010576072841     -0.00334511987511   0.998135632382      -0.0358424246897    0.998135632382      -0.0358424246897    0.0010576072841     -0.00334511987511   
1500000000.0        0.00104067116492    -0.00358394297835   0.998036178635      -0.0384020256882    0.998036178635      -0.0384020256882    0.00104067116492    -0.00358394297835   
1600000000.0        0.00102244628644    -0.00382272578208   0.997930165319      -0.0409614913062    0.997930165319      -0.0409614913062    0.00102244628644    -0.00382272578208   
1700000000.0        0.00100294031541    -0.00406146327935   0.997817584147      -0.0435208089545    0.997817584147      -0.0435208089545    0.00100294031541    -0.00406146327935   
1800000000.0        0.00098215975739    -0.00430015038663   0.997698428022      -0.0460799658366    0.997698428022      -0.0460799658366    0.00098215975739    -0.00430015038663   
1900000000.0        0.000960110188606   -0.00453878194674   0.997572690806      -0.0486389489656    0.997572690806      -0.0486389489656    0.000960110188606   -0.00453878194674   
2000000000.0        0.000936796433075   -0.00477735273141   0.997440367144      -0.0511977451783    0.997440367144      -0.0511977451783    0.000936796433075   -0.00477735273141   
2100000000.0        0.000912222700134   -0.00501585744395   0.997301452329      -0.0537563411484    0.997301452329      -0.0537563411484    0.000912222700134   -0.00501585744395   
2200000000.0        0.000886392692618   -0.00525429072171   0.997155942201      -0.0563147233971    0.997155942201      -0.0563147233971    0.000886392692618   -0.00525429072171   
2300000000.0        0.000859309693021   -0.00549264713851   0.997003833055      -0.0588728783032    0.997003833055      -0.0588728783032    0.000859309693021   -0.00549264713851   
2400000000.0        0.000830976632875   -0.00573092120689   0.99684512158       -0.0614307921114    0.99684512158       -0.0614307921114    0.000830976632875   -0.00573092120689   
2500000000.0        0.000801396149192   -0.00596910738025   0.996679804803      -0.0639884509402    0.996679804803      -0.0639884509402    0.000801396149192   -0.00596910738025   
2600000000.0        0.00077057063081    -0.00620720005502   0.996507880043      -0.0665458407886    0.996507880043      -0.0665458407886    0.000770570630811   -0.00620720005502   
2700000000.0        0.000738502256762   -0.0064451935725    0.996329344877      -0.0691029475426    0.996329344877      -0.0691029475426    0.000738502256762   -0.0064451935725    
2800000000.0        0.000705193028295   -0.00668308222086   0.996144197105      -0.0716597569809    0.996144197105      -0.0716597569809    0.000705193028295   -0.00668308222086   
2900000000.0        0.0006706447958     -0.00692086023685   0.995952434731      -0.0742162547798    0.995952434731      -0.0742162547798    0.0006706447958     -0.00692086023685   
3000000000.0        0.000634859281591   -0.00715852180758   0.995754055936      -0.0767724265181    0.995754055936      -0.0767724265181    0.000634859281591   -0.00715852180758   
3100000000.0        0.000597838099306   -0.0073960610721    0.995549059066      -0.0793282576815    0.995549059066      -0.0793282576815    0.000597838099306   -0.0073960610721    
3200000000.0        0.000559582770535   -0.00763347212305   0.99533744261       -0.0818837336665    0.99533744261       -0.0818837336665    0.000559582770535   -0.00763347212305   
3300000000.0        0.000520094739141   -0.00787074900808   0.995119205193      -0.084438839784     0.995119205193      -0.084438839784     0.000520094739141   -0.00787074900808   
3400000000.0        0.000479375383656   -0.0081078857314    0.994894345561      -0.0869935612633    0.994894345561      -0.0869935612633    0.000479375383656   -0.0081078857314    
3500000000.0        0.000437426028077   -0.00834487625507   0.994662862574      -0.0895478832546    0.994662862574      -0.0895478832546    0.000437426028078   -0.00834487625507   
3600000000.0        0.000394247951295   -0.00858171450044   0.994424755196      -0.0921017908322    0.994424755196      -0.0921017908322    0.000394247951295   -0.00858171450044   
3700000000.0        0.000349842395378   -0.00881839434938   0.994180022489      -0.0946552689978    0.994180022489      -0.0946552689978    0.000349842395378   -0.00881839434938   
3800000000.0        0.000304210572877   -0.00905490964557   0.993928663606      -0.0972083026824    0.993928663606      -0.0972083026824    0.000304210572877   -0.00905490964557   
3900000000.0        0.000257353673289   -0.0092912541957    0.993670677788      -0.0997608767494    0.993670677788      -0.0997608767494    0.000257353673289   -0.0092912541957    
4000000000.0        0.000209272868795   -0.00952742177064   0.993406064355      -0.102312975996     0.993406064355      -0.102312975996     0.000209272868795   -0.00952742177064   
4100000000.0        0.000159969319385   -0.00976340610657   0.993134822706      -0.104864585158     0.993134822706      -0.104864585158     0.000159969319386   -0.00976340610657   
4200000000.0        0.000109444177443   -0.00999920090607   0.992856952313      -0.107415688906     0.992856952313      -0.107415688906     0.000109444177443   -0.00999920090607   
4300000000.0        5.7698591851e-05    -0.0102347998392    0.99257245272       -0.109966271856     0.99257245272       -0.109966271856     5.76985918512e-05   -0.0102347998392    
4400000000.0        4.7337116964e-06    -0.0104701965447    0.992281323537      -0.112516318564     0.992281323537      -0.112516318564     4.7337116964e-06    -0.0104701965447    
4500000000.0        -4.94493103881e-05  -0.0107053846306    0.991983564441      -0.11506581353      0.991983564441      -0.11506581353      -4.94493103882e-05  -0.0107053846306    
4600000000.0        -0.000104849315194  -0.0109403576756    0.991679175171      -0.117614741202     0.991679175171      -0.117614741202     -0.000104849315193  -0.0109403576756    
4700000000.0        -0.000161465134187  -0.0111751092299    0.991368155528      -0.120163085973     0.991368155528      -0.120163085973     -0.000161465134188  -0.0111751092299    
4800000000.0        -0.000219295587013  -0.011409632816     0.991050505374      -0.122710832188     0.991050505374      -0.122710832188     -0.000219295587013  -0.011409632816     
4900000000.0        -0.000278339479206  -0.01164392193      0.990726224628      -0.125257964142     0.990726224628      -0.125257964142     -0.000278339479206  -0.01164392193      
5000000000.0        -0.000338595600099  -0.0118779700419    0.990395313265      -0.12780446608      0.990395313265      -0.12780446608      -0.000338595600099  -0.0118779700419    
5100000000.0        -0.000400062720917  -0.0121117705971    0.990057771317      -0.130350322205     0.990057771317      -0.130350322205     -0.000400062720917  -0.0121117705971    
5200000000.0        -0.000462739593009  -0.0123453170168    0.989713598872      -0.13289551667      0.989713598872      -0.13289551667      -0.000462739593009  -0.0123453170168    
5300000000.0        -0.000526624946236  -0.0125786026991    0.989362796069      -0.135440033587     0.989362796069      -0.135440033587     -0.000526624946236  -0.0125786026991    
5400000000.0        -0.000591717487468  -0.0128116210195    0.989005363101      -0.137983857024     0.989005363101      -0.137983857024     -0.000591717487468  -0.0128116210195    
5500000000.0        -0.00065801589921   -0.0130443653324    0.988641300215      -0.14052697101      0.988641300215      -0.14052697101      -0.00065801589921   -0.0130443653324    
5600000000.0        -0.000725518838319  -0.013276828971     0.988270607708      -0.143069359531     0.988270607708      -0.143069359531     -0.000725518838319  -0.013276828971     
5700000000.0        -0.000794224934821  -0.0135090052486    0.987893285928      -0.145611006534     0.987893285928      -0.145611006534     -0.000794224934821  -0.0135090052486    
5800000000.0        -0.000864132790808  -0.0137408874595    0.987509335275      -0.148151895929     0.987509335275      -0.148151895929     -0.000864132790808  -0.0137408874595    
5900000000.0        -0.000935240979416  -0.0139724688792    0.987118756198      -0.150692011588     0.987118756198      -0.150692011588     -0.000935240979416  -0.0139724688792    
6000000000.0        -0.00100754804386   -0.0142037427657    0.986721549195      -0.153231337348     0.986721549195      -0.153231337348     -0.00100754804386   -0.0142037427657    
6100000000.0        -0.00108105249657   -0.0144347023598    0.986317714816      -0.155769857009     0.986317714816      -0.155769857009     -0.00108105249657   -0.0144347023598    
6200000000.0        -0.00115575281832   -0.0146653408861    0.985907253658      -0.158307554338     0.985907253658      -0.158307554338     -0.00115575281832   -0.0146653408861    
6300000000.0        -0.00123164745747   -0.0148956515537    0.985490166368      -0.160844413068     0.985490166368      -0.160844413068     -0.00123164745747   -0.0148956515537    
6400000000.0        -0.00130873482925   -0.0151256275567    0.985066453642      -0.163380416901     0.985066453642      -0.163380416901     -0.00130873482925   -0.0151256275567    
6500000000.0        -0.00138701331506   -0.0153552620748    0.984636116222      -0.165915549505     0.984636116222      -0.165915549505     -0.00138701331506   -0.0153552620748    
6600000000.0        -0.00146648126183   -0.0155845482744    0.984199154901      -0.168449794518     0.984199154901      -0.168449794518     -0.00146648126183   -0.0155845482744    
6700000000.0        -0.00154713698141   -0.015813479309     0.98375557052       -0.170983135551     0.98375557052       -0.170983135551     -0.00154713698141   -0.015813479309     
6800000000.0        -0.00162897875004   -0.0160420483198    0.983305363966      -0.173515556181     0.983305363966      -0.173515556181     -0.00162897875004   -0.0160420483198    
6900000000.0        -0.00171200480777   -0.0162702484365    0.982848536177      -0.17604703996      0.982848536177      -0.17604703996      -0.00171200480777   -0.0162702484365    
7000000000.0        -0.001796213358     -0.0164980727776    0.982385088137      -0.178577570411     0.982385088137      -0.178577570411     -0.001796213358     -0.0164980727776    
7100000000.0        -0.00188160256697   -0.0167255144518    0.981915020877      -0.181107131031     0.981915020877      -0.181107131031     -0.00188160256697   -0.0167255144518    
7200000000.0        -0.00196817056334   -0.0169525665576    0.981438335478      -0.183635705289     0.981438335478      -0.183635705289     -0.00196817056334   -0.0169525665576    
7300000000.0        -0.00205591543778   -0.0171792221847    0.980955033067      -0.186163276631     0.980955033067      -0.186163276631     -0.00205591543778   -0.0171792221847    
7400000000.0        -0.00214483524254   -0.0174054744143    0.980465114819      -0.188689828478     0.980465114819      -0.188689828478     -0.00214483524254   -0.0174054744143    
7500000000.0        -0.00223492799112   -0.0176313163198    0.979968581958      -0.191215344223     0.979968581958      -0.191215344223     -0.00223492799112   -0.0176313163198    
7600000000.0        -0.00232619165787   -0.0178567409673    0.979465435755      -0.193739807241     0.979465435755      -0.193739807241     -0.00232619165787   -0.0178567409673    
7700000000.0        -0.00241862417769   -0.0180817414162    0.978955677527      -0.196263200881     0.978955677527      -0.196263200881     -0.00241862417769   -0.0180817414162    
7800000000.0        -0.00251222344571   -0.0183063107198    0.978439308641      -0.198785508471     0.978439308641      -0.198785508471     -0.00251222344571   -0.0183063107198    
7900000000.0        -0.00260698731699   -0.0185304419261    0.97791633051       -0.201306713315     0.97791633051       -0.201306713315     -0.00260698731699   -0.0185304419261    
8000000000.0        -0.00270291360625   -0.0187541280778    0.977386744596      -0.203826798701     0.977386744596      -0.203826798701     -0.00270291360625   -0.0187541280778    
8100000000.0        -0.00280000008759   -0.0189773622136    0.976850552409      -0.206345747892     0.976850552409      -0.206345747892     -0.00280000008759   -0.0189773622136    
8200000000.0        -0.00289824449424   -0.0192001373681    0.976307755504      -0.208863544133     0.976307755504      -0.208863544133     -0.00289824449424   -0.0192001373681    
8300000000.0        -0.00299764451836   -0.019422446573     0.975758355488      -0.21138017065      0.975758355488      -0.21138017065      -0.00299764451836   -0.019422446573     
8400000000.0        -0.00309819781075   -0.0196442828568    0.975202354013      -0.213895610651     0.975202354013      -0.213895610651     -0.00309819781075   -0.0196442828568    
8500000000.0        -0.00319990198073   -0.0198656392464    0.974639752779      -0.216409847325     0.974639752779      -0.216409847325     -0.00319990198073   -0.0198656392464    
8600000000.0        -0.00330275459588   -0.0200865087668    0.974070553534      -0.218922863843     0.974070553534      -0.218922863843     -0.00330275459588   -0.0200865087668    
8700000000.0        -0.00340675318185   -0.0203068844417    0.973494758076      -0.22143464336      0.973494758076      -0.22143464336      -0.00340675318185   -0.0203068844417    
8800000000.0        -0.00351189522226   -0.0205267592948    0.972912368248      -0.223945169015     0.972912368248      -0.223945169015     -0.00351189522226   -0.0205267592948    
8900000000.0        -0.00361817815843   -0.0207461263493    0.972323385943      -0.22645442393      0.972323385943      -0.22645442393      -0.00361817815843   -0.0207461263493    
9000000000.0        -0.00372559938933   -0.0209649786291    0.971727813102      -0.228962391211     0.971727813102      -0.228962391211     -0.00372559938933   -0.0209649786291    
9100000000.0        -0.00383415627137   -0.0211833091592    0.971125651712      -0.231469053952     0.971125651712      -0.231469053952     -0.00383415627137   -0.0211833091592    
9200000000.0        -0.00394384611829   -0.021401110966     0.970516903812      -0.23397439523      0.970516903812      -0.23397439523      -0.00394384611829   -0.021401110966     
9300000000.0        -0.00405466620104   -0.0216183770779    0.969901571486      -0.236478398109     0.969901571486      -0.236478398109     -0.00405466620104   -0.0216183770779    
9400000000.0        -0.00416661374766   -0.021835100526     0.969279656868      -0.238981045639     0.969279656868      -0.238981045639     -0.00416661374766   -0.021835100526     
9500000000.0        -0.00427968594318   -0.0220512743444    0.968651162138      -0.241482320858     0.968651162138      -0.241482320858     -0.00427968594318   -0.0220512743444    
9600000000.0        -0.00439387992948   -0.0222668915708    0.968016089528      -0.243982206791     0.968016089528      -0.243982206791     -0.00439387992948   -0.0222668915708    
9700000000.0        -0.00450919280528   -0.0224819452467    0.967374441316      -0.24648068645      0.967374441316      -0.24648068645      -0.00450919280528   -0.0224819452467    
9800000000.0        -0.00462562162598   -0.0226964284184    0.966726219829      -0.248977742838     0.966726219829      -0.248977742838     -0.00462562162598   -0.0226964284184    
9900000000.0        -0.00474316340361   -0.0229103341372    0.966071427442      -0.251473358944     0.966071427442      -0.251473358944     -0.00474316340361   -0.0229103341372    
10000000000.0       -0.00486181510679   -0.0231236554598    0.965410066579      -0.253967517748     0.965410066579      -0.253967517748     -0.00486181510679   -0.0231236554598    
