# Hz S RI R 50.00 
100000000.0         0.185923934503      0.00332177519093    0.814071805497      -0.00506706657021   0.814071805497      -0.00506706657021   0.185923934503      0.00332177519093    
200000000.0         0.186976489952      0.0066222516515     0.813012709002      -0.0101128438448    0.813012709002      -0.0101128438448    0.186976489952      0.0066222516515     
300000000.0         0.187796906035      0.00990938576155    0.812182467927      -0.0151453010722    0.812182467927      -0.0151453010722    0.187796906035      0.00990938576155    
400000000.0         0.18851826315       0.013185559622      0.81144799973       -0.0201668325812    0.81144799973       -0.0201668325812    0.18851826315       0.013185559622      
500000000.0         0.189191900755      0.0164518592392     0.810757963095      -0.0251785362842    0.810757963095      -0.0251785362842    0.189191900755      0.0164518592392     
600000000.0         0.189844019935      0.0197087975164     0.810086155207      -0.0301809367807    0.810086155207      -0.0301809367807    0.189844019935      0.0197087975164     
700000000.0         0.190490090757      0.0229565740461     0.80941710432       -0.035174245207     0.80941710432       -0.035174245207     0.190490090757      0.0229565740461     
800000000.0         0.191140116356      0.0261951956886     0.808740805628      -0.0401584798496    0.808740805628      -0.0401584798496    0.191140116356      0.0261951956886     
900000000.0         0.191800979159      0.029424541412      0.808050375013      -0.0451335310069    0.808050375013      -0.0451335310069    0.191800979159      0.029424541412      
1000000000.0        0.192477631283      0.0326444007532     0.807340858622      -0.0500991994672    0.807340858622      -0.0500991994672    0.192477631283      0.0326444007532     
1100000000.0        0.193173756872      0.0358544983116     0.806608570523      -0.0550552210136    0.806608570523      -0.0550552210136    0.193173756872      0.0358544983116     
1200000000.0        0.193892167116      0.0390545102174     0.805850697672      -0.0600012829011    0.805850697672      -0.0600012829011    0.193892167116      0.0390545102174     
1300000000.0        0.194635049005      0.0422440756911     0.805065051147      -0.0649370354237    0.805065051147      -0.0649370354237    0.194635049005      0.0422440756911     
1400000000.0        0.195404128988      0.0454228054486     0.804249902491      -0.0698621003244    0.804249902491      -0.0698621003244    0.195404128988      0.0454228054486     
1500000000.0        0.196200784602      0.0485902879964     0.803403872072      -0.0747760770959    0.803403872072      -0.0747760770959    0.196200784602      0.0485902879964     
1600000000.0        0.197026122957      0.0517460944667     0.802525850591      -0.0796785478188    0.802525850591      -0.0796785478188    0.197026122957      0.0517460944667     
1700000000.0        0.197881037376      0.0548897824138     0.80161494245       -0.0845690809617    0.80161494245       -0.0845690809617    0.197881037376      0.0548897824138     
1800000000.0        0.198766249171      0.0580208988528     0.800670423958      -0.0894472344223    0.800670423958      -0.0894472344223    0.198766249171      0.0580208988528     
1900000000.0        0.199682339096      0.0611389827335     0.799691711888      -0.0943125580042    0.799691711888      -0.0943125580042    0.199682339096      0.0611389827335     
2000000000.0        0.200629771413      0.064243566986      0.798678339401      -0.0991645954642    0.798678339401      -0.0991645954642    0.200629771413      0.064243566986      
2100000000.0        0.201608912612      0.0673341802356     0.797629937327      -0.104002886229     0.797629937327      -0.104002886229     0.201608912612      0.0673341802356     
2200000000.0        0.202620046168      0.0704103482578     0.796546219409      -0.108826966851     0.796546219409      -0.108826966851     0.202620046168      0.0704103482578     
2300000000.0        0.203663384323      0.0734715952272     0.795426970511      -0.113636372261     0.795426970511      -0.113636372261     0.203663384323      0.0734715952272     
2400000000.0        0.204739077604      0.0765174448009     0.794272037109      -0.11843063685      0.794272037109      -0.11843063685      0.204739077604      0.0765174448009     
2500000000.0        0.205847222598      0.0795474210657     0.79308131951       -0.123209295419     0.79308131951       -0.123209295419     0.205847222598      0.0795474210657     
2600000000.0        0.206987868354      0.0825610493748     0.791854765444      -0.127971884018     0.791854765444      -0.127971884018     0.206987868354      0.0825610493748     
2700000000.0        0.208161021725      0.0855578570906     0.790592364734      -0.132717940686     0.790592364734      -0.132717940686     0.208161021725      0.0855578570906     
2800000000.0        0.209366651838      0.0885373742504     0.789294144809      -0.137447006121     0.789294144809      -0.137447006121     0.209366651838      0.0885373742504     
2900000000.0        0.210604693892      0.0914991341649     0.787960166917      -0.142158624278     0.787960166917      -0.142158624278     0.210604693892      0.0914991341649     
3000000000.0        0.211875052394      0.09444267396       0.786590522887      -0.14685234291      0.786590522887      -0.14685234291      0.211875052394      0.09444267396       
3100000000.0        0.213177603938      0.09736753507       0.785185332341      -0.151527714066     0.785185332341      -0.151527714066     0.213177603938      0.09736753507       
3200000000.0        0.214512199618      0.100273263687      0.783744740291      -0.156184294536     0.783744740291      -0.156184294536     0.214512199618      0.100273263687      
3300000000.0        0.215878667131      0.103159411173      0.782268915029      -0.160821646266     0.782268915029      -0.160821646266     0.215878667131      0.103159411173      
3400000000.0        0.217276812619      0.106025534438      0.780758046281      -0.165439336738     0.780758046281      -0.165439336738     0.217276812619      0.106025534438      
3500000000.0        0.21870642231       0.108871196289      0.779212343579      -0.170036939316     0.779212343579      -0.170036939316     0.21870642231       0.108871196289      
3600000000.0        0.220167263958      0.111695965753      0.777632034804      -0.174614033571     0.777632034804      -0.174614033571     0.220167263958      0.111695965753      
3700000000.0        0.221659088156      0.114499418369      0.776017364883      -0.179170205577     0.776017364883      -0.179170205577     0.221659088156      0.114499418369      
3800000000.0        0.223181629496      0.11728113647       0.774368594627      -0.183705048186     0.774368594627      -0.183705048186     0.223181629496      0.11728113647       
3900000000.0        0.224734607635      0.12004070943       0.772685999659      -0.188218161282     0.772685999659      -0.188218161282     0.224734607635      0.12004070943       
4000000000.0        0.226317728258      0.122777733906      0.770969869458      -0.192709152018     0.770969869458      -0.192709152018     0.226317728258      0.122777733906      
4100000000.0        0.227930683966      0.125491814052      0.769220506466      -0.197177635034     0.769220506466      -0.197177635034     0.227930683966      0.125491814052      
4200000000.0        0.229573155083      0.128182561718      0.767438225279      -0.201623232658     0.767438225279      -0.201623232658     0.229573155083      0.128182561718      
4300000000.0        0.231244810415      0.130849596642      0.765623351894      -0.20604557509      0.765623351894      -0.20604557509      0.231244810415      0.130849596642      
4400000000.0        0.232945307948      0.133492546617      0.763776223004      -0.210444300578     0.763776223004      -0.210444300578     0.232945307948      0.133492546617      
4500000000.0        0.234674295498      0.13611104765       0.761897185352      -0.214819055571     0.761897185352      -0.214819055571     0.234674295498      0.13611104765       
4600000000.0        0.236431411325      0.138704744103      0.759986595112      -0.219169494868     0.759986595112      -0.219169494868     0.236431411325      0.138704744103      
4700000000.0        0.238216284707      0.141273288833      0.758044817317      -0.223495281747     0.758044817317      -0.223495281747     0.238216284707      0.141273288833      
4800000000.0        0.240028536485      0.143816343303      0.756072225316      -0.227796088086     0.756072225316      -0.227796088086     0.240028536485      0.143816343303      
4900000000.0        0.241867779578      0.146333577698      0.754069200256      -0.232071594472     0.754069200256      -0.232071594472     0.241867779578      0.146333577698      
5000000000.0        0.243733619472      0.148824671017      0.752036130593      -0.2363214903       0.752036130593      -0.2363214903       0.243733619472      0.148824671017      
5100000000.0        0.245625654682      0.151289311165      0.749973411624      -0.24054547386      0.749973411624      -0.24054547386      0.245625654682      0.151289311165      
5200000000.0        0.247543477207      0.153727195028      0.747881445045      -0.244743252413     0.747881445045      -0.244743252413     0.247543477207      0.153727195028      
5300000000.0        0.249486672948      0.156138028541      0.745760638517      -0.248914542259     0.745760638517      -0.248914542259     0.249486672948      0.156138028541      
5400000000.0        0.251454822123      0.158521526743      0.743611405263      -0.253059068796     0.743611405263      -0.253059068796     0.251454822123      0.158521526743      
5500000000.0        0.253447499663      0.160877413833      0.741434163666      -0.257176566569     0.741434163666      -0.257176566569     0.253447499663      0.160877413833      
5600000000.0        0.255464275584      0.163205423203      0.739229336891      -0.261266779309     0.739229336891      -0.261266779309     0.255464275584      0.163205423203      
5700000000.0        0.257504715365      0.165505297472      0.736997352521      -0.265329459964     0.736997352521      -0.265329459964     0.257504715365      0.165505297472      
5800000000.0        0.259568380293      0.167776788511      0.734738642196      -0.269364370725     0.734738642196      -0.269364370725     0.259568380293      0.167776788511      
5900000000.0        0.261654827812      0.170019657455      0.732453641274      -0.27337128304      0.732453641274      -0.27337128304      0.261654827812      0.170019657455      
6000000000.0        0.263763611855      0.172233674714      0.730142788495      -0.277349977619     0.730142788495      -0.277349977619     0.263763611855      0.172233674714      
6100000000.0        0.265894283162      0.174418619971      0.727806525661      -0.28130024444      0.727806525661      -0.28130024444      0.265894283162      0.174418619971      
6200000000.0        0.2680463896        0.176574282173      0.725445297317      -0.285221882733     0.725445297317      -0.285221882733     0.2680463896        0.176574282173      
6300000000.0        0.27021947646       0.178700459523      0.723059550455      -0.289114700977     0.723059550455      -0.289114700977     0.27021947646       0.178700459523      
6400000000.0        0.272413086758      0.180796959452      0.72064973421       -0.292978516868     0.72064973421       -0.292978516868     0.272413086758      0.180796959452      
6500000000.0        0.274626761515      0.182863598595      0.718216299578      -0.296813157299     0.718216299578      -0.296813157299     0.274626761515      0.182863598595      
6600000000.0        0.276860040046      0.184900202755      0.715759699135      -0.300618458321     0.715759699135      -0.300618458321     0.276860040046      0.184900202755      
6700000000.0        0.279112460221      0.186906606867      0.713280386762      -0.304394265107     0.713280386762      -0.304394265107     0.279112460221      0.186906606867      
6800000000.0        0.281383558736      0.188882654946      0.710778817387      -0.308140431902     0.710778817387      -0.308140431902     0.281383558736      0.188882654946      
6900000000.0        0.283672871368      0.19082820004       0.708255446719      -0.311856821976     0.708255446719      -0.311856821976     0.283672871368      0.19082820004       
7000000000.0        0.285979933223      0.19274310417       0.705710731006      -0.315543307559     0.705710731006      -0.315543307559     0.285979933223      0.19274310417       
7100000000.0        0.288304278981      0.19462723827       0.703145126787      -0.319199769788     0.703145126787      -0.319199769788     0.288304278981      0.19462723827       
7200000000.0        0.290645443131      0.196480482116      0.700559090654      -0.322826098632     0.700559090654      -0.322826098632     0.290645443131      0.196480482116      
7300000000.0        0.293002960203      0.198302724257      0.697953079027      -0.326422192821     0.697953079027      -0.326422192821     0.293002960203      0.198302724257      
7400000000.0        0.295376364987      0.200093861932      0.695327547923      -0.32998795977      0.695327547923      -0.32998795977      0.295376364987      0.200093861932      
7500000000.0        0.297765192757      0.201853800996      0.692682952745      -0.333523315497     0.692682952745      -0.333523315497     0.297765192757      0.201853800996      
7600000000.0        0.300168979474      0.203582455829      0.690019748065      -0.337028184534     0.690019748065      -0.337028184534     0.300168979474      0.203582455829      
7700000000.0        0.302587261995      0.205279749244      0.687338387423      -0.340502499842     0.687338387423      -0.340502499842     0.302587261995      0.205279749244      
7800000000.0        0.305019578274      0.206945612399      0.684639323124      -0.34394620271      0.684639323124      -0.34394620271      0.305019578274      0.206945612399      
7900000000.0        0.307465467548      0.208579984694      0.681923006048      -0.347359242664     0.681923006048      -0.347359242664     0.307465467548      0.208579984694      
8000000000.0        0.309924470531      0.210182813671      0.679189885462      -0.350741577359     0.679189885462      -0.350741577359     0.309924470531      0.210182813671      
8100000000.0        0.312396129589      0.211754054911      0.676440408835      -0.35409317248      0.676440408835      -0.35409317248      0.312396129589      0.211754054911      
8200000000.0        0.31487998892       0.213293671921      0.673675021665      -0.357414001629     0.673675021665      -0.357414001629     0.31487998892       0.213293671921      
8300000000.0        0.317375594719      0.214801636031      0.670894167309      -0.360704046217     0.670894167309      -0.360704046217     0.317375594719      0.214801636031      
8400000000.0        0.319882495348      0.216277926272      0.668098286817      -0.363963295348     0.668098286817      -0.363963295348     0.319882495348      0.216277926272      
8500000000.0        0.322400241489      0.217722529267      0.665287818775      -0.367191745706     0.665287818775      -0.367191745706     0.322400241489      0.217722529267      
8600000000.0        0.324928386298      0.219135439107      0.662463199149      -0.37038940143      0.662463199149      -0.37038940143      0.324928386298      0.219135439107      
8700000000.0        0.327466485554      0.220516657229      0.659624861136      -0.373556274        0.659624861136      -0.373556274        0.327466485554      0.220516657229      
8800000000.0        0.3300140978        0.2218661923        0.656773235026      -0.376692382107     0.656773235026      -0.376692382107     0.3300140978        0.2218661923        
8900000000.0        0.332570784481      0.223184060083      0.653908748061      -0.379797751531     0.653908748061      -0.379797751531     0.332570784481      0.223184060083      
9000000000.0        0.335136110071      0.224470283316      0.651031824304      -0.382872415016     0.651031824304      -0.382872415016     0.335136110071      0.224470283316      
9100000000.0        0.337709642206      0.22572489158       0.64814288451       -0.385916412133     0.64814288451       -0.385916412133     0.337709642206      0.22572489158       
9200000000.0        0.3402909518        0.226947921172      0.645242346007      -0.388929789161     0.645242346007      -0.388929789161     0.3402909518        0.226947921172      
9300000000.0        0.342879613161      0.228139414968      0.642330622581      -0.391912598944     0.642330622581      -0.391912598944     0.342879613161      0.228139414968      
9400000000.0        0.345475204105      0.229299422298      0.639408124357      -0.394864900766     0.639408124357      -0.394864900766     0.345475204105      0.229299422298      
9500000000.0        0.34807730606       0.230427998806      0.6364752577        -0.397786760215     0.6364752577        -0.397786760215     0.34807730606       0.230427998806      
9600000000.0        0.350685504166      0.231525206317      0.633532425109      -0.400678249045     0.633532425109      -0.400678249045     0.350685504166      0.231525206317      
9700000000.0        0.353299387375      0.232591112703      0.630580025121      -0.403539445046     0.630580025121      -0.403539445046     0.353299387375      0.232591112703      
9800000000.0        0.355918548538      0.233625791746      0.627618452219      -0.406370431902     0.627618452219      -0.406370431902     0.355918548538      0.233625791746      
9900000000.0        0.358542584494      0.234629323002      0.624648096745      -0.409171299058     0.624648096745      -0.409171299058     0.358542584494      0.234629323002      
10000000000.0       0.361171096152      0.235601791663      0.621669344815      -0.411942141582     0.621669344815      -0.411942141582     0.361171096152      0.235601791663      
