# Hz S RI R 50.00 
100000000.0         0.00310830060818    -0.00293581197454   0.996838655893      -0.00634483601173   0.996838655893      -0.00634483601173   0.00310830060818    -0.00293581197454   
200000000.0         0.00306892675612    -0.00587117977065   0.996739771713      -0.0126889436098    0.996739771713      -0.0126889436098    0.00306892675612    -0.00587117977065   
300000000.0         0.00298684041483    -0.0088055330768    0.996597410796      -0.0190318639951    0.996597410796      -0.0190318639951    0.00298684041483    -0.0088055330768    
400000000.0         0.00286476745539    -0.011738336834     0.996408889025      -0.0253730983117    0.996408889025      -0.0253730983117    0.00286476745539    -0.011738336834     
500000000.0         0.00270377760941    -0.0146690639461    0.996173194797      -0.0317121379949    0.996173194797      -0.0317121379949    0.00270377760941    -0.0146690639461    
600000000.0         0.00250443856815    -0.0175971910301    0.995889834904      -0.0380484703021    0.995889834904      -0.0380484703021    0.00250443856815    -0.0175971910301    
700000000.0         0.00226710914387    -0.020522197058     0.995558541362      -0.0443815804788    0.995558541362      -0.0443815804788    0.00226710914387    -0.020522197058     
800000000.0         0.00199204618046    -0.0234435628444    0.995179164479      -0.0507109528857    0.995179164479      -0.0507109528857    0.00199204618046    -0.0234435628444    
900000000.0         0.00167945211134    -0.0263607708611    0.994751625267      -0.0570360716961    0.994751625267      -0.0570360716961    0.00167945211134    -0.0263607708611    
1000000000.0        0.00132949903616    -0.0292733052028    0.994275891321      -0.0633564213842    0.994275891321      -0.0633564213842    0.00132949903616    -0.0292733052028    
1100000000.0        0.000942342081681   -0.0321806516302    0.993751963415      -0.0696714871011    0.993751963415      -0.0696714871011    0.000942342081681   -0.0321806516302    
1200000000.0        0.000518127342783   -0.035082297655     0.993179867496      -0.0759807549821    0.993179867496      -0.0759807549821    0.000518127342783   -0.035082297655     
1300000000.0        5.69968595869e-05   -0.0379777326503    0.992559649646      -0.082283712412     0.992559649646      -0.082283712412     5.69968595869e-05   -0.0379777326503    
1400000000.0        -0.000440908129358  -0.0408664479751    0.991891372747      -0.0885798482618    0.991891372747      -0.0885798482618    -0.000440908129358  -0.0408664479751    
1500000000.0        -0.000975444988252  -0.043747937109     0.991175114202      -0.0948686531052    0.991175114202      -0.0948686531052    -0.000975444988252  -0.043747937109     
1600000000.0        -0.00154646815756   -0.0466216957918    0.990410964315      -0.101149619421     0.990410964315      -0.101149619421     -0.00154646815756   -0.0466216957918    
1700000000.0        -0.00215382807172   -0.0494872221667    0.989599025108      -0.107422241783     0.989599025108      -0.107422241783     -0.00215382807172   -0.0494872221667    
1800000000.0        -0.00279737037943   -0.0523440169257    0.988739409433      -0.113686017044     0.988739409433      -0.113686017044     -0.00279737037943   -0.0523440169257    
1900000000.0        -0.00347693537573   -0.055191583455     0.98783224029       -0.119940444511     0.98783224029       -0.119940444511     -0.00347693537573   -0.055191583455     
2000000000.0        -0.0041923575858    -0.0580294279811    0.986877650287      -0.126185026112     0.986877650287      -0.126185026112     -0.0041923575858    -0.0580294279811    
2100000000.0        -0.00494346545988   -0.0608570597168    0.985875781204      -0.132419266564     0.985875781204      -0.132419266564     -0.00494346545988   -0.0608570597168    
2200000000.0        -0.00573008115127   -0.0636739910049    0.984826783632      -0.138642673529     0.984826783632      -0.138642673529     -0.00573008115127   -0.0636739910049    
2300000000.0        -0.00655202035726   -0.0664797374624    0.983730816675      -0.144854757774     0.983730816675      -0.144854757774     -0.00655202035726   -0.0664797374624    
2400000000.0        -0.007409092209     -0.0692738181217    0.982588047684      -0.151055033318     0.982588047684      -0.151055033318     -0.007409092209     -0.0692738181217    
2500000000.0        -0.00830109919958   -0.0720557555712    0.981398652027      -0.157243017584     0.981398652027      -0.157243017584     -0.00830109919959   -0.0720557555712    
2600000000.0        -0.00922783714273   -0.0748250760932    0.980162812886      -0.163418231542     0.980162812886      -0.163418231542     -0.00922783714273   -0.0748250760932    
2700000000.0        -0.0101890951561    -0.0775813098007    0.978880721068      -0.169580199852     0.978880721068      -0.169580199852     -0.0101890951561    -0.0775813098007    
2800000000.0        -0.0111846556647    -0.080323990771     0.977552574833      -0.175728451        0.977552574833      -0.175728451        -0.0111846556647    -0.080323990771     
2900000000.0        -0.0122142944215    -0.0830526571775    0.97617857973       -0.181862517437     0.97617857973       -0.181862517437     -0.0122142944215    -0.0830526571775    
3000000000.0        -0.0132777805413    -0.0857668514196    0.974758948442      -0.187981935705     0.974758948442      -0.187981935705     -0.0132777805413    -0.0857668514196    
3100000000.0        -0.0143748765475    -0.0884661202491    0.973293900642      -0.194086246573     0.973293900642      -0.194086246573     -0.0143748765475    -0.0884661202491    
3200000000.0        -0.0155053384281    -0.0911500148948    0.971783662845      -0.200174995157     0.971783662845      -0.200174995157     -0.0155053384281    -0.0911500148948    
3300000000.0        -0.0166689157014    -0.0938180911841    0.97022846827       -0.206247731048     0.97022846827       -0.206247731048     -0.0166689157014    -0.0938180911841    
3400000000.0        -0.0178653514884    -0.096469909662     0.968628556703      -0.212304008424     0.968628556703      -0.212304008424     -0.0178653514884    -0.096469909662     
3500000000.0        -0.0190943825936    -0.0991050357073    0.966984174363      -0.218343386174     0.966984174363      -0.218343386174     -0.0190943825936    -0.0991050357073    
3600000000.0        -0.0203557395896    -0.101723039646     0.965295573764      -0.224365428007     0.965295573764      -0.224365428007     -0.0203557395896    -0.101723039646     
3700000000.0        -0.0216491469092    -0.10432349686      0.963563013585      -0.230369702563     0.963563013585      -0.230369702563     -0.0216491469092    -0.10432349686      
3800000000.0        -0.0229743229409    -0.106905987898     0.961786758535      -0.23635578352      0.961786758535      -0.23635578352      -0.0229743229409    -0.106905987898     
3900000000.0        -0.0243309801294    -0.109470098578     0.959967079221      -0.242323249695     0.959967079221      -0.242323249695     -0.0243309801294    -0.109470098578     
4000000000.0        -0.0257188250796    -0.112015420085     0.958104252015      -0.248271685148     0.958104252015      -0.248271685148     -0.0257188250796    -0.112015420085     
4100000000.0        -0.0271375586647    -0.114541549076     0.956198558922      -0.254200679277     0.956198558922      -0.254200679277     -0.0271375586647    -0.114541549076     
4200000000.0        -0.0285868761369    -0.117048087769     0.954250287441      -0.26010982691      0.954250287441      -0.26010982691      -0.0285868761369    -0.117048087769     
4300000000.0        -0.0300664672417    -0.11953464404      0.952259730439      -0.2659987284       0.952259730439      -0.2659987284       -0.0300664672417    -0.11953464404      
4400000000.0        -0.0315760163342    -0.122000831505     0.950227186009      -0.271866989705     0.950227186009      -0.271866989705     -0.0315760163342    -0.122000831505     
4500000000.0        -0.0331152024986    -0.124446269612     0.948152957338      -0.277714222478     0.948152957338      -0.277714222478     -0.0331152024986    -0.124446269612     
4600000000.0        -0.0346836996695    -0.126870583718     0.94603735257       -0.283540044141     0.94603735257       -0.283540044141     -0.0346836996695    -0.126870583718     
4700000000.0        -0.0362811767554    -0.129273405172     0.943880684672      -0.289344077969     0.943880684672      -0.289344077969     -0.0362811767554    -0.129273405172     
4800000000.0        -0.037907297764     -0.131654371384     0.941683271291      -0.295125953155     0.941683271291      -0.295125953155     -0.037907297764     -0.131654371384     
4900000000.0        -0.0395617219292    -0.134013125905     0.939445434623      -0.300885304887     0.939445434623      -0.300885304887     -0.0395617219292    -0.134013125905     
5000000000.0        -0.0412441038399    -0.136349318489     0.93716750127       -0.306621774409     0.93716750127       -0.306621774409     -0.0412441038399    -0.136349318489     
5100000000.0        -0.0429540935697    -0.138662605161     0.934849802102      -0.312335009087     0.934849802102      -0.312335009087     -0.0429540935697    -0.138662605161     
5200000000.0        -0.0446913368085    -0.140952648279     0.93249267212       -0.318024662468     0.93249267212       -0.318024662468     -0.0446913368085    -0.140952648279     
5300000000.0        -0.0464554749944    -0.143219116594     0.930096450313      -0.323690394333     0.930096450313      -0.323690394333     -0.0464554749944    -0.143219116594     
5400000000.0        -0.0482461454475    -0.145461685299     0.927661479519      -0.329331870756     0.927661479519      -0.329331870756     -0.0482461454475    -0.145461685299     
5500000000.0        -0.0500629815036    -0.147680036088     0.925188106285      -0.334948764145     0.925188106285      -0.334948764145     -0.0500629815036    -0.147680036088     
5600000000.0        -0.0519056126496    -0.1498738572       0.922676680728      -0.340540753295     0.922676680728      -0.340540753295     -0.0519056126496    -0.1498738572       
5700000000.0        -0.0537736646585    -0.152042843466     0.920127556391      -0.346107523424     0.920127556391      -0.346107523424     -0.0537736646585    -0.152042843466     
5800000000.0        -0.0556667597256    -0.154186696349     0.917541090104      -0.351648766219     0.917541090104      -0.351648766219     -0.0556667597256    -0.154186696349     
5900000000.0        -0.0575845166052    -0.156305123983     0.914917641843      -0.357164179863     0.914917641843      -0.357164179863     -0.0575845166052    -0.156305123983     
6000000000.0        -0.0595265507466    -0.158397841208     0.912257574588      -0.362653469073     0.912257574588      -0.362653469073     -0.0595265507466    -0.158397841208     
6100000000.0        -0.0614924744313    -0.160464569603     0.909561254184      -0.368116345127     0.909561254184      -0.368116345127     -0.0614924744313    -0.160464569603     
6200000000.0        -0.06348189691      -0.16250503751      0.9068290492        -0.37355252589      0.9068290492        -0.37355252589      -0.06348189691      -0.16250503751      
6300000000.0        -0.0654944245391    -0.164518980064     0.904061330789      -0.378961735835     0.904061330789      -0.378961735835     -0.0654944245391    -0.164518980064     
6400000000.0        -0.0675296609176    -0.166506139212     0.901258472546      -0.38434370606      0.901258472546      -0.38434370606      -0.0675296609176    -0.166506139212     
6500000000.0        -0.0695872070237    -0.168466263732     0.898420850372      -0.389698174309     0.898420850372      -0.389698174309     -0.0695872070237    -0.168466263732     
6600000000.0        -0.0716666613508    -0.17039910925      0.895548842334      -0.395024884977     0.895548842334      -0.395024884977     -0.0716666613508    -0.17039910925      
6700000000.0        -0.0737676200431    -0.17230443825      0.892642828524      -0.400323589127     0.892642828524      -0.400323589127     -0.0737676200431    -0.17230443825      
6800000000.0        -0.0758896770315    -0.174182020083     0.889703190924      -0.405594044489     0.889703190924      -0.405594044489     -0.0758896770315    -0.174182020083     
6900000000.0        -0.0780324241676    -0.176031630976     0.886730313271      -0.410836015466     0.886730313271      -0.410836015466     -0.0780324241676    -0.176031630976     
7000000000.0        -0.0801954513581    -0.177853054033     0.883724580914      -0.416049273135     0.883724580914      -0.416049273135     -0.0801954513581    -0.177853054033     
7100000000.0        -0.0823783466982    -0.179646079233     0.880686380687      -0.421233595239     0.880686380687      -0.421233595239     -0.0823783466982    -0.179646079233     
7200000000.0        -0.0845806966038    -0.181410503432     0.877616100769      -0.426388766185     0.877616100769      -0.426388766185     -0.0845806966038    -0.181410503432     
7300000000.0        -0.0868020859435    -0.183146130353     0.874514130551      -0.431514577036     0.874514130551      -0.431514577036     -0.0868020859435    -0.183146130353     
7400000000.0        -0.0890420981688    -0.184852770579     0.871380860506      -0.436610825492     0.871380860506      -0.436610825492     -0.0890420981688    -0.184852770579     
7500000000.0        -0.0913003154442    -0.186530241542     0.868216682059      -0.441677315881     0.868216682059      -0.441677315881     -0.0913003154442    -0.186530241542     
7600000000.0        -0.0935763187752    -0.188178367505     0.86502198745       -0.446713859141     0.86502198745       -0.446713859141     -0.0935763187752    -0.188178367505     
7700000000.0        -0.0958696881362    -0.189796979552     0.861797169613      -0.451720272794     0.861797169613      -0.451720272794     -0.0958696881362    -0.189796979552     
7800000000.0        -0.0981800025963    -0.191385915561     0.858542622044      -0.456696380931     0.858542622044      -0.456696380931     -0.0981800025963    -0.191385915561     
7900000000.0        -0.100506840444     -0.192945020187     0.855258738678      -0.461642014177     0.855258738678      -0.461642014177     -0.100506840444     -0.192945020187     
8000000000.0        -0.102849779312     -0.194474144833     0.85194591376       -0.46655700967      0.85194591376       -0.46655700967      -0.102849779312     -0.194474144833     
8100000000.0        -0.105208396296     -0.195973147628     0.848604541727      -0.471441211026     0.848604541727      -0.471441211026     -0.105208396296     -0.195973147628     
8200000000.0        -0.10758226808      -0.197441893389     0.84523501708       -0.476294468305     0.84523501708       -0.476294468305     -0.10758226808      -0.197441893389     
8300000000.0        -0.109970971051     -0.198880253599     0.84183773427       -0.48111663798      0.84183773427       -0.48111663798      -0.109970971051     -0.198880253599     
8400000000.0        -0.112374081421     -0.200288106365     0.838413087575      -0.485907582891     0.838413087575      -0.485907582891     -0.112374081421     -0.200288106365     
8500000000.0        -0.114791175339     -0.201665336383     0.834961470987      -0.49066717221      0.834961470987      -0.49066717221      -0.114791175339     -0.201665336383     
8600000000.0        -0.117221829006     -0.203011834899     0.831483278092      -0.495395281396     0.831483278092      -0.495395281396     -0.117221829006     -0.203011834899     
8700000000.0        -0.11966561879      -0.204327499672     0.827978901959      -0.500091792152     0.827978901959      -0.500091792152     -0.11966561879      -0.204327499672     
8800000000.0        -0.122122121335     -0.205612234924     0.824448735031      -0.504756592374     0.824448735031      -0.504756592374     -0.122122121335     -0.205612234924     
8900000000.0        -0.124590913671     -0.206865951298     0.820893169008      -0.509389576104     0.820893169008      -0.509389576104     -0.124590913671     -0.206865951298     
9000000000.0        -0.127071573321     -0.208088565813     0.817312594748      -0.51399064348      0.817312594748      -0.51399064348      -0.127071573321     -0.208088565813     
9100000000.0        -0.129563678405     -0.209280001811     0.813707402151      -0.51855970068      0.813707402151      -0.51855970068      -0.129563678405     -0.209280001811     
9200000000.0        -0.132066807746     -0.21044018891      0.810077980064      -0.523096659868     0.810077980064      -0.523096659868     -0.132066807746     -0.21044018891      
9300000000.0        -0.134580540972     -0.211569062946     0.806424716171      -0.52760143914      0.806424716171      -0.52760143914      -0.134580540972     -0.211569062946     
9400000000.0        -0.137104458612     -0.212666565924     0.802747996898      -0.532073962459     0.802747996898      -0.532073962459     -0.137104458612     -0.212666565924     
9500000000.0        -0.139638142198     -0.213732645961     0.799048207311      -0.536514159601     0.799048207311      -0.536514159601     -0.139638142198     -0.213732645961     
9600000000.0        -0.142181174359     -0.214767257224     0.795325731022      -0.540921966089     0.795325731022      -0.540921966089     -0.142181174359     -0.214767257224     
9700000000.0        -0.144733138916     -0.215770359876     0.791580950093      -0.545297323132     0.791580950093      -0.545297323132     -0.144733138916     -0.215770359876     
9800000000.0        -0.14729362097      -0.216741920014     0.787814244944      -0.549640177558     0.787814244944      -0.549640177558     -0.14729362097      -0.216741920014     
9900000000.0        -0.149862206998     -0.217681909604     0.784025994263      -0.553950481748     0.784025994263      -0.553950481748     -0.149862206998     -0.217681909604     
10000000000.0       -0.152438484935     -0.218590306425     0.780216574919      -0.55822819357      0.780216574919      -0.55822819357      -0.152438484935     -0.218590306425     
