# Hz S RI R 50.00 
100000000.0         3.25107451893e-06   -5.01215700663e-05  0.999995616447      -7.83653244389e-05  0.999995616447      -7.83653244389e-05  3.25107451871e-06   -5.01215700663e-05  
200000000.0         3.20297337142e-06   -0.000100247779645  0.999995515538      -0.000156736737563  0.999995515538      -0.000156736737563  3.20297337142e-06   -0.000100247779645  
300000000.0         3.14035665983e-06   -0.000150380986273  0.99999541261       -0.000235117345011  0.99999541261       -0.000235117345011  3.14035665983e-06   -0.000150380986273  
400000000.0         3.0665126185e-06    -0.000200522924236  0.99999530436       -0.000313509459561  0.99999530436       -0.000313509459561  3.0665126185e-06    -0.000200522924236  
500000000.0         2.98270023258e-06   -0.000250675028976  0.999995189514      -0.00039191501081   0.999995189514      -0.00039191501081   2.98270023213e-06   -0.000250675028976  
600000000.0         2.88955552885e-06   -0.000300838526457  0.999995067421      -0.00047033566432   0.999995067421      -0.00047033566432   2.88955552885e-06   -0.000300838526457  
700000000.0         2.78744986115e-06   -0.000351014490651  0.999994937695      -0.000548772894259  0.999994937695      -0.000548772894259  2.78744986093e-06   -0.000351014490651  
800000000.0         2.67662012443e-06   -0.00040120386661   0.999994800082      -0.000627228015507  0.999994800082      -0.000627228015507  2.67662012421e-06   -0.00040120386661   
900000000.0         2.5572265081e-06    -0.000451407498154  0.999994654404      -0.000705702217301  0.999994654404      -0.000705702217301  2.55722650833e-06   -0.000451407498154  
1000000000.0        2.42938220341e-06   -0.000501626142083  0.999994500533      -0.000784196581605  0.999994500533      -0.000784196581605  2.42938220318e-06   -0.000501626142083  
1100000000.0        2.29316933154e-06   -0.000551860478108  0.999994338367      -0.000862712096123  0.999994338367      -0.000862712096123  2.29316933154e-06   -0.000551860478108  
1200000000.0        2.14864897097e-06   -0.00060211111454   0.999994167827      -0.00094124966232   0.999994167827      -0.00094124966232   2.14864897075e-06   -0.00060211111454   
1300000000.0        1.99586706273e-06   -0.000652378604983  0.999993988848      -0.00101981011395   0.999993988848      -0.00101981011395   1.99586706251e-06   -0.000652378604983  
1400000000.0        1.83485856975e-06   -0.000702663444244  0.999993801376      -0.00109839421445   0.999993801376      -0.00109839421445   1.83485856997e-06   -0.000702663444244  
1500000000.0        1.66565016491e-06   -0.000752966078993  0.999993605365      -0.00117700266881   0.999993605365      -0.00117700266881   1.66565016491e-06   -0.000752966078993  
1600000000.0        1.48826212754e-06   -0.000803286909715  0.999993400775      -0.0012556361265    0.999993400775      -0.0012556361265    1.48826212731e-06   -0.000803286909715  
1700000000.0        1.30270976895e-06   -0.000853626294969  0.99999318757       -0.00133429518663   0.99999318757       -0.00133429518663   1.30270976895e-06   -0.000853626294969  
1800000000.0        1.10900447714e-06   -0.000903984556192  0.999992965719      -0.00141298040343   0.999992965719      -0.00141298040343   1.10900447714e-06   -0.000903984556192  
1900000000.0        9.07154453111e-07   -0.000954361976267  0.999992735193      -0.00149169228547   0.999992735193      -0.00149169228547   9.07154453111e-07   -0.000954361976267  
2000000000.0        6.97165300378e-07   -0.00100475880575   0.999992495965      -0.00157043130242   0.999992495965      -0.00157043130242   6.97165300156e-07   -0.00100475880575   
2100000000.0        4.79040552559e-07   -0.00105517526463   0.999992248013      -0.0016491978873    0.999992248013      -0.0016491978873    4.79040552559e-07   -0.00105517526463   
2200000000.0        2.52781934273e-07   -0.00110561154272   0.999991991314      -0.00172799243727   0.999991991314      -0.00172799243727   2.52781933829e-07   -0.00110561154272   
2300000000.0        1.83897315154e-08   -0.00115606780164   0.999991725845      -0.00180681531602   0.999991725845      -0.00180681531602   1.83897315154e-08   -0.00115606780164   
2400000000.0        -2.24136987748e-07  -0.00120654417906   0.999991451588      -0.00188566685833   0.999991451588      -0.00188566685833   -2.24136987637e-07  -0.00120654417906   
2500000000.0        -4.74800201711e-07  -0.00125704078721   0.999991168523      -0.0019645473689    0.999991168523      -0.0019645473689    -4.74800202044e-07  -0.00125704078721   
2600000000.0        -7.33602762537e-07  -0.001307557715     0.999990876633      -0.00204345712471   0.999990876633      -0.00204345712471   -7.33602762537e-07  -0.001307557715     
2700000000.0        -1.00054826602e-06  -0.00135809503086   0.9999905759        -0.00212239637815   0.9999905759        -0.00212239637815   -1.00054826602e-06  -0.00135809503086   
2800000000.0        -1.27564094854e-06  -0.00140865278204   0.999990266307      -0.00220136535652   0.999990266307      -0.00220136535652   -1.27564094876e-06  -0.00140865278204   
2900000000.0        -1.55888556586e-06  -0.001459230997     0.999989947839      -0.00228036426465   0.999989947839      -0.00228036426465   -1.55888556574e-06  -0.001459230997     
3000000000.0        -1.85028735444e-06  -0.00150982968567   0.99998962048       -0.00235939328534   0.99998962048       -0.00235939328534   -1.85028735433e-06  -0.00150982968567   
3100000000.0        -2.14985192026e-06  -0.00156044884044   0.999989284216      -0.00243845258053   0.999989284216      -0.00243845258053   -2.14985192026e-06  -0.00156044884044   
3200000000.0        -2.457585218e-06    -0.00161108843722   0.999988939031      -0.00251754229249   0.999988939031      -0.00251754229249   -2.457585218e-06    -0.00161108843722   
3300000000.0        -2.7734934761e-06   -0.00166174843786   0.999988584912      -0.00259666254647   0.999988584912      -0.00259666254647   -2.77349347655e-06  -0.00166174843786   
3400000000.0        -3.09758316408e-06  -0.00171242878733   0.999988221844      -0.00267581344794   0.999988221844      -0.00267581344794   -3.09758316386e-06  -0.00171242878733   
3500000000.0        -3.42986093638e-06  -0.00176312941835   0.999987849814      -0.00275499508739   0.999987849814      -0.00275499508739   -3.42986093627e-06  -0.00176312941835   
3600000000.0        -3.77033362287e-06  -0.00181385024905   0.99998746881       -0.00283420753813   0.99998746881       -0.00283420753813   -3.77033362287e-06  -0.00181385024905   
3700000000.0        -4.11900817865e-06  -0.00186459118576   0.999987078818      -0.00291345085915   0.999987078818      -0.00291345085915   -4.11900817876e-06  -0.00186459118576   
3800000000.0        -4.47589166819e-06  -0.00191535212239   0.999986679826      -0.00299272509461   0.999986679826      -0.00299272509461   -4.47589166841e-06  -0.00191535212239   
3900000000.0        -4.84099123632e-06  -0.00196613294224   0.999986271821      -0.00307203027582   0.999986271821      -0.00307203027582   -4.84099123632e-06  -0.00196613294224   
4000000000.0        -5.21431409206e-06  -0.00201693351717   0.999985854791      -0.00315136642042   0.999985854791      -0.00315136642042   -5.21431409228e-06  -0.00201693351717   
4100000000.0        -5.59586747906e-06  -0.0020677537082    0.999985428725      -0.0032307335331    0.999985428725      -0.0032307335331    -5.59586747906e-06  -0.0020677537082    
4200000000.0        -5.98565866983e-06  -0.0021185933679    0.99998499361       -0.00331013160811   0.99998499361       -0.00331013160811   -5.98565866994e-06  -0.0021185933679    
4300000000.0        -6.38369494588e-06  -0.00216945233864   0.999984549437      -0.00338956062752   0.999984549437      -0.00338956062752   -6.38369494532e-06  -0.00216945233864   
4400000000.0        -6.7899835845e-06   -0.00222033045408   0.999984096192      -0.00346902056283   0.999984096192      -0.00346902056283   -6.7899835845e-06   -0.00222033045408   
4500000000.0        -7.20453184211e-06  -0.0022712275399    0.999983633866      -0.00354851137581   0.999983633866      -0.00354851137581   -7.204531842e-06    -0.0022712275399    
4600000000.0        -7.62734694959e-06  -0.00232214341333   0.999983162448      -0.00362803301798   0.999983162448      -0.00362803301798   -7.62734694959e-06  -0.00232214341333   
4700000000.0        -8.05843609986e-06  -0.00237307788425   0.999982681926      -0.0037075854319    0.999982681926      -0.0037075854319    -8.05843609974e-06  -0.00237307788425   
4800000000.0        -8.49780643386e-06  -0.00242403075535   0.999982192292      -0.00378716855132   0.999982192292      -0.00378716855132   -8.49780643375e-06  -0.00242403075535   
4900000000.0        -8.94546503916e-06  -0.00247500182226   0.999981693534      -0.00386678230137   0.999981693534      -0.00386678230137   -8.94546503916e-06  -0.00247500182226   
5000000000.0        -9.40141893713e-06  -0.00252599087464   0.999981185642      -0.00394642659975   0.999981185642      -0.00394642659975   -9.40141893702e-06  -0.00252599087464   
5100000000.0        -9.86567507666e-06  -0.00257699769516   0.999980668607      -0.00402610135569   0.999980668607      -0.00402610135569   -9.86567507666e-06  -0.00257699769516   
5200000000.0        -1.03382403277e-05  -0.00262802206139   0.999980142419      -0.00410580647197   0.999980142419      -0.00410580647197   -1.03382403278e-05  -0.00262802206139   
5300000000.0        -1.08191214773e-05  -0.00267906374471   0.999979607068      -0.00418554184381   0.999979607068      -0.00418554184381   -1.08191214769e-05  -0.00267906374471   
5400000000.0        -1.13083252238e-05  -0.002730122512     0.999979062546      -0.00426530736064   0.999979062546      -0.00426530736064   -1.13083252238e-05  -0.002730122512     
5500000000.0        -1.18058581691e-05  -0.00278119812432   0.999978508842      -0.00434510290484   0.999978508842      -0.00434510290484   -1.18058581691e-05  -0.00278119812432   
5600000000.0        -1.23117268144e-05  -0.0028322903381    0.999977945949      -0.00442492835292   0.999977945949      -0.00442492835292   -1.23117268143e-05  -0.0028322903381    
5700000000.0        -1.28259375626e-05  -0.0028833989061    0.999977373857      -0.00450478357657   0.999977373857      -0.00450478357657   -1.28259375627e-05  -0.0028833989061    
5800000000.0        -1.33484967048e-05  -0.00293452357575   0.999976792558      -0.00458466844097   0.999976792558      -0.00458466844097   -1.33484967048e-05  -0.00293452357575   
5900000000.0        -1.38794104199e-05  -0.00298566409073   0.999976202043      -0.00466458280651   0.999976202043      -0.00466458280651   -1.38794104195e-05  -0.00298566409073   
6000000000.0        -1.44186847765e-05  -0.00303682019149   0.999975602305      -0.00474452652924   0.999975602305      -0.00474452652924   -1.44186847764e-05  -0.00303682019149   
6100000000.0        -1.49663257264e-05  -0.00308799161451   0.999974993334      -0.00482449946025   0.999974993334      -0.00482449946025   -1.49663257266e-05  -0.00308799161451   
6200000000.0        -1.55223390989e-05  -0.00313917809212   0.999974375122      -0.00490450144544   0.999974375122      -0.00490450144544   -1.5522339099e-05   -0.00313917809212   
6300000000.0        -1.60867306008e-05  -0.00319037935449   0.999973747663      -0.00498453232759   0.999973747663      -0.00498453232759   -1.60867306008e-05  -0.00319037935449   
6400000000.0        -1.66595058173e-05  -0.00324159512821   0.999973110949      -0.00506459194497   0.999973110949      -0.00506459194497   -1.66595058172e-05  -0.00324159512821   
6500000000.0        -1.72406702023e-05  -0.00329282513689   0.999972464971      -0.00514468013194   0.999972464971      -0.00514468013194   -1.72406702024e-05  -0.00329282513689   
6600000000.0        -1.78302290882e-05  -0.00334406910209   0.999971809723      -0.00522479671994   0.999971809723      -0.00522479671994   -1.78302290882e-05  -0.00334406910209   
6700000000.0        -1.84281876677e-05  -0.00339532674164   0.999971145197      -0.0053049415358    0.999971145197      -0.0053049415358    -1.84281876677e-05  -0.00339532674164   
6800000000.0        -1.90345510094e-05  -0.00344659777248   0.999970471387      -0.00538511440463   0.999970471387      -0.00538511440463   -1.90345510094e-05  -0.00344659777248   
6900000000.0        -1.96493240467e-05  -0.0034978819081    0.999969788285      -0.00546531514726   0.999969788285      -0.00546531514726   -1.96493240471e-05  -0.0034978819081    
7000000000.0        -2.02725115757e-05  -0.00354917886018   0.999969095885      -0.00554554358196   0.999969095885      -0.00554554358196   -2.02725115753e-05  -0.00354917886018   
7100000000.0        -2.09041182578e-05  -0.0036004883387    0.99996839418       -0.00562579952448   0.99996839418       -0.00562579952448   -2.09041182578e-05  -0.0036004883387    
7200000000.0        -2.15441486173e-05  -0.00365181005148   0.999967683164      -0.00570608278769   0.999967683164      -0.00570608278769   -2.15441486172e-05  -0.00365181005148   
7300000000.0        -2.21926070401e-05  -0.00370314370465   0.999966962831      -0.005786393182     0.999966962831      -0.005786393182     -2.21926070403e-05  -0.00370314370465   
7400000000.0        -2.28494977762e-05  -0.00375448900295   0.999966233175      -0.00586673051577   0.999966233175      -0.00586673051577   -2.28494977761e-05  -0.00375448900295   
7500000000.0        -2.35148249331e-05  -0.00380584564952   0.999965494189      -0.00594709459502   0.999965494189      -0.00594709459502   -2.3514824933e-05   -0.00380584564952   
7600000000.0        -2.4188592479e-05   -0.00385721334593   0.999964745868      -0.00602748522354   0.999964745868      -0.00602748522354   -2.4188592479e-05   -0.00385721334593   
7700000000.0        -2.48708042364e-05  -0.00390859179237   0.999963988206      -0.00610790220309   0.999963988206      -0.00610790220309   -2.48708042364e-05  -0.00390859179237   
7800000000.0        -2.5561463896e-05   -0.00395998068855   0.999963221198      -0.00618834533426   0.999963221198      -0.00618834533426   -2.55614638964e-05  -0.00395998068855   
7900000000.0        -2.62605749988e-05  -0.00401137973208   0.999962444838      -0.00626881441498   0.999962444838      -0.00626881441498   -2.62605749985e-05  -0.00401137973208   
8000000000.0        -2.69681409463e-05  -0.0040627886204    0.999961659122      -0.00634930924233   0.999961659122      -0.00634930924233   -2.69681409462e-05  -0.0040627886204    
8100000000.0        -2.7684164994e-05   -0.00411420704935   0.999960864044      -0.00642982961122   0.999960864044      -0.00642982961122   -2.76841649941e-05  -0.00411420704935   
8200000000.0        -2.84086502617e-05  -0.00416563471474   0.999960059599      -0.00651037531592   0.999960059599      -0.00651037531592   -2.84086502618e-05  -0.00416563471474   
8300000000.0        -2.91415997176e-05  -0.00421707131075   0.999959245782      -0.00659094614852   0.999959245782      -0.00659094614852   -2.91415997179e-05  -0.00421707131075   
8400000000.0        -2.98830161931e-05  -0.00426851653154   0.99995842259       -0.0066715419005    0.99995842259       -0.0066715419005    -2.98830161933e-05  -0.00426851653154   
8500000000.0        -3.06329023704e-05  -0.0043199700701    0.999957590017      -0.00675216236165   0.999957590017      -0.00675216236165   -3.06329023706e-05  -0.0043199700701    
8600000000.0        -3.13912607918e-05  -0.00437143161936   0.999956748059      -0.0068328073211    0.999956748059      -0.0068328073211    -3.13912607918e-05  -0.00437143161936   
8700000000.0        -3.2158093857e-05   -0.00442290087168   0.999955896712      -0.00691347656695   0.999955896712      -0.00691347656695   -3.21580938569e-05  -0.00442290087168   
8800000000.0        -3.29334038168e-05  -0.00447437751861   0.999955035973      -0.0069941698859    0.999955035973      -0.0069941698859    -3.29334038168e-05  -0.00447437751861   
8900000000.0        -3.37171927832e-05  -0.00452586125191   0.999954165836      -0.00707488706442   0.999954165836      -0.00707488706442   -3.37171927833e-05  -0.00452586125191   
9000000000.0        -3.45094627247e-05  -0.00457735176287   0.999953286299      -0.00715562788794   0.999953286299      -0.00715562788794   -3.45094627247e-05  -0.00457735176287   
9100000000.0        -3.53102154633e-05  -0.00462884874239   0.999952397358      -0.00723639214105   0.999952397358      -0.00723639214105   -3.53102154631e-05  -0.00462884874239   
9200000000.0        -3.61194526771e-05  -0.0046803518811    0.999951499009      -0.00731717960758   0.999951499009      -0.00731717960758   -3.61194526771e-05  -0.0046803518811    
9300000000.0        -3.69371759069e-05  -0.00473186087007   0.999950591249      -0.0073979900713    0.999950591249      -0.0073979900713    -3.69371759071e-05  -0.00473186087007   
9400000000.0        -3.77633865449e-05  -0.00478337539971   0.999949674076      -0.00747882331488   0.999949674076      -0.00747882331488   -3.7763386545e-05   -0.00478337539971   
9500000000.0        -3.85980858415e-05  -0.00483489516052   0.999948747485      -0.00755967912058   0.999948747485      -0.00755967912058   -3.85980858415e-05  -0.00483489516052   
9600000000.0        -3.94412749052e-05  -0.00488641984317   0.999947811474      -0.00764055727043   0.999947811474      -0.00764055727043   -3.94412749052e-05  -0.00488641984317   
9700000000.0        -4.02929547058e-05  -0.00493794913858   0.999946866041      -0.0077214575462    0.999946866041      -0.0077214575462    -4.02929547059e-05  -0.00493794913858   
9800000000.0        -4.1153126063e-05   -0.00498948273707   0.999945911182      -0.00780237972868   0.999945911182      -0.00780237972868   -4.11531260629e-05  -0.00498948273707   
9900000000.0        -4.20217896631e-05  -0.00504102032992   0.999944946896      -0.00788332359912   0.999944946896      -0.00788332359912   -4.20217896627e-05  -0.00504102032992   
10000000000.0       -4.28989460444e-05  -0.00509256160793   0.999943973179      -0.00796428893791   0.999943973179      -0.00796428893791   -4.28989460441e-05  -0.00509256160793   
