# Hz S RI R 50.00 
100000000.0         0.101923240885      0.00470068210223    0.898073492661      -0.00608791773475   0.898073492661      -0.00608791773475   0.101923240885      0.00470068210223    
200000000.0         0.10262019104       0.00938573520425    0.897372277806      -0.0121602213949    0.897372277806      -0.0121602213949    0.10262019104       0.00938573520425    
300000000.0         0.10321623707       0.0140600058469     0.896769967806      -0.0182217712358    0.896769967806      -0.0182217712358    0.10321623707       0.0140600058469     
400000000.0         0.103791411423      0.0187244668513     0.896186529379      -0.024273552622     0.896186529379      -0.024273552622     0.103791411423      0.0187244668513     
500000000.0         0.104376504079      0.0233791931856     0.895591171758      -0.0303156524769    0.895591171758      -0.0303156524769    0.104376504079      0.0233791931856     
600000000.0         0.10498715755       0.0280238649128     0.894968251646      -0.0363477624343    0.894968251646      -0.0363477624343    0.10498715755       0.0280238649128     
700000000.0         0.105632541915      0.0326579481166     0.894308598151      -0.0423693598699    0.894308598151      -0.0423693598699    0.105632541915      0.0326579481166     
800000000.0         0.10631852329       0.0372807790869     0.893606344311      -0.0483797921482    0.893606344311      -0.0483797921482    0.10631852329       0.0372807790869     
900000000.0         0.107049075544      0.0418916097846     0.892857515365      -0.0543783221289    0.892857515365      -0.0543783221289    0.107049075544      0.0418916097846     
1000000000.0        0.107826996345      0.0464896349879     0.892059312703      -0.0603641553424    0.892059312703      -0.0603641553424    0.107826996345      0.0464896349879     
1100000000.0        0.108654305482      0.0510740097412     0.891209715544      -0.0663364574597    0.891209715544      -0.0663364574597    0.108654305482      0.0510740097412     
1200000000.0        0.109532482406      0.0556438612292     0.890307243384      -0.0722943661831    0.890307243384      -0.0722943661831    0.109532482406      0.0556438612292     
1300000000.0        0.110462615837      0.0601982972421     0.889350806391      -0.0782369997244    0.889350806391      -0.0782369997244    0.110462615837      0.0601982972421     
1400000000.0        0.111445502239      0.0647364124462     0.888339606935      -0.0841634630857    0.888339606935      -0.0841634630857    0.111445502239      0.0647364124462     
1500000000.0        0.112481713036      0.0692572931842     0.887273072357      -0.0900728528684    0.887273072357      -0.0900728528684    0.112481713036      0.0692572931842     
1600000000.0        0.11357164195       0.0737600212556     0.886150807643      -0.0959642610607    0.886150807643      -0.0959642610607    0.11357164195       0.0737600212556     
1700000000.0        0.114715539218      0.0782436769679     0.884972561197      -0.101836778095     0.884972561197      -0.101836778095     0.114715539218      0.0782436769679     
1800000000.0        0.115913536925      0.0827073416531     0.883738199514      -0.107689495369     0.883738199514      -0.107689495369     0.115913536925      0.0827073416531     
1900000000.0        0.117165668134      0.0871500997817     0.882447688045      -0.113521507366     0.882447688045      -0.113521507366     0.117165668134      0.0871500997817     
2000000000.0        0.118471881619      0.0915710407701     0.881101076466      -0.119331913463     0.881101076466      -0.119331913463     0.118471881619      0.0915710407701     
2100000000.0        0.119832053394      0.0959692605448     0.879698487146      -0.125119819502     0.879698487146      -0.125119819502     0.119832053394      0.0959692605448     
2200000000.0        0.121245995887      0.100343862916      0.878240105974      -0.130884339165     0.878240105974      -0.130884339165     0.121245995887      0.100343862916      
2300000000.0        0.12271346534       0.104693960797      0.876726174962      -0.136624595194     0.876726174962      -0.136624595194     0.12271346534       0.104693960797      
2400000000.0        0.12423416787       0.109018677287      0.875156986178      -0.142339720482     0.875156986178      -0.142339720482     0.12423416787       0.109018677287      
2500000000.0        0.12580776449       0.113317146659      0.873532876729      -0.148028859058     0.873532876729      -0.148028859058     0.12580776449       0.113317146659      
2600000000.0        0.127433875326      0.117588515246      0.871854224541      -0.153691166977     0.871854224541      -0.153691166977     0.127433875326      0.117588515246      
2700000000.0        0.129112083208      0.121831942251      0.870121444769      -0.15932581313      0.870121444769      -0.15932581313      0.129112083208      0.121831942251      
2800000000.0        0.130841936747      0.126046600488      0.86833498672       -0.164931979992     0.86833498672       -0.164931979992     0.130841936747      0.126046600488      
2900000000.0        0.132622953023      0.130231677063      0.866495331168      -0.1705088643       0.866495331168      -0.1705088643       0.132622953023      0.130231677063      
3000000000.0        0.134454619934      0.134386373998      0.864602987996      -0.176055677679     0.864602987996      -0.176055677679     0.134454619934      0.134386373998      
3100000000.0        0.136336398298      0.138509908807      0.862658494104      -0.18157164722      0.862658494104      -0.18157164722      0.136336398298      0.138509908807      
3200000000.0        0.138267723723      0.142601515021      0.860662411533      -0.187056016009     0.860662411533      -0.187056016009     0.138267723723      0.142601515021      
3300000000.0        0.140248008309      0.146660442681      0.858615325763      -0.192508043614     0.858615325763      -0.192508043614     0.140248008309      0.146660442681      
3400000000.0        0.142276642197      0.150685958778      0.856517844165      -0.197927006536     0.856517844165      -0.197927006536     0.142276642197      0.150685958778      
3500000000.0        0.144352995         0.154677347669      0.854370594571      -0.203312198617     0.854370594571      -0.203312198617     0.144352995         0.154677347669      
3600000000.0        0.146476417123      0.158633911451      0.852174223953      -0.208662931418     0.852174223953      -0.208662931418     0.146476417123      0.158633911451      
3700000000.0        0.148646240998      0.162554970297      0.849929397188      -0.213978534562     0.849929397188      -0.213978534562     0.148646240998      0.162554970297      
3800000000.0        0.150861782245      0.166439862776      0.847636795894      -0.219258356045     0.847636795894      -0.219258356045     0.150861782245      0.166439862776      
3900000000.0        0.153122340768      0.170287946125      0.845297117339      -0.224501762514     0.845297117339      -0.224501762514     0.153122340768      0.170287946125      
4000000000.0        0.155427201792      0.1740985965        0.8429110734        -0.229708139522     0.8429110734        -0.229708139522     0.155427201792      0.1740985965        
4100000000.0        0.157775636855      0.177871209203      0.840479389571      -0.234876891746     0.840479389571      -0.234876891746     0.157775636855      0.177871209203      
4200000000.0        0.16016690476       0.181605198871      0.838002804015      -0.24000744319      0.838002804015      -0.24000744319      0.16016690476       0.181605198871      
4300000000.0        0.162600252478      0.18529999965       0.835482066656      -0.245099237345     0.835482066656      -0.245099237345     0.162600252478      0.18529999965       
4400000000.0        0.165074916031      0.188955065333      0.832917938299      -0.250151737343     0.832917938299      -0.250151737343     0.165074916031      0.188955065333      
4500000000.0        0.167590121331      0.192569869483      0.830311189785      -0.255164426066     0.830311189785      -0.255164426066     0.167590121331      0.192569869483      
4600000000.0        0.170145085007      0.196143905524      0.827662601174      -0.260136806249     0.827662601174      -0.260136806249     0.170145085007      0.196143905524      
4700000000.0        0.17273901519       0.199676686816      0.824972960952      -0.265068400548     0.824972960952      -0.265068400548     0.17273901519       0.199676686816      
4800000000.0        0.175371112286      0.203167746697      0.82224306526       -0.26995875159      0.82224306526       -0.26995875159      0.175371112286      0.203167746697      
4900000000.0        0.178040569723      0.206616638519      0.819473717148      -0.274807422001     0.819473717148      -0.274807422001     0.178040569723      0.206616638519      
5000000000.0        0.180746574674      0.210022935645      0.816665725848      -0.279613994409     0.816665725848      -0.279613994409     0.180746574674      0.210022935645      
5100000000.0        0.183488308769      0.213386231439      0.813819906067      -0.284378071436     0.813819906067      -0.284378071436     0.183488308769      0.213386231439      
5200000000.0        0.18626494878       0.216706139231      0.810937077299      -0.289099275655     0.810937077299      -0.289099275655     0.18626494878       0.216706139231      
5300000000.0        0.189075667292      0.219982292261      0.808018063154      -0.293777249546     0.808018063154      -0.293777249546     0.189075667292      0.219982292261      
5400000000.0        0.191919633355      0.223214343605      0.805063690707      -0.298411655416     0.805063690707      -0.298411655416     0.191919633355      0.223214343605      
5500000000.0        0.194796013117      0.22640196609       0.802074789861      -0.303002175312     0.802074789861      -0.303002175312     0.194796013117      0.22640196609       
5600000000.0        0.197703970448      0.229544852181      0.799052192729      -0.307548510913     0.799052192729      -0.307548510913     0.197703970448      0.229544852181      
5700000000.0        0.200642667538      0.232642713856      0.79599673303       -0.312050383407     0.79599673303       -0.312050383407     0.200642667538      0.232642713856      
5800000000.0        0.203611265486      0.235695282471      0.792909245505      -0.316507533349     0.792909245505      -0.316507533349     0.203611265486      0.235695282471      
5900000000.0        0.206608924868      0.238702308596      0.789790565343      -0.320919720507     0.789790565343      -0.320919720507     0.206608924868      0.238702308596      
6000000000.0        0.209634806293      0.241663561852      0.786641527631      -0.325286723689     0.786641527631      -0.325286723689     0.209634806293      0.241663561852      
6100000000.0        0.212688070941      0.24457883072       0.783462966809      -0.329608340562     0.783462966809      -0.329608340562     0.212688070941      0.24457883072       
6200000000.0        0.215767881087      0.247447922346      0.78025571615       -0.33388438745      0.78025571615       -0.33388438745      0.215767881087      0.247447922346      
6300000000.0        0.218873400611      0.250270662329      0.777020607255      -0.338114699129     0.777020607255      -0.338114699129     0.218873400611      0.250270662329      
6400000000.0        0.222003795485      0.253046894495      0.773758469552      -0.342299128595     0.773758469552      -0.342299128595     0.222003795485      0.253046894495      
6500000000.0        0.225158234255      0.255776480668      0.770470129826      -0.346437546839     0.770470129826      -0.346437546839     0.225158234255      0.255776480668      
6600000000.0        0.2283358885        0.258459300417      0.767156411754      -0.350529842593     0.767156411754      -0.350529842593     0.2283358885        0.258459300417      
6700000000.0        0.23153593328       0.261095250805      0.763818135459      -0.354575922081     0.763818135459      -0.354575922081     0.23153593328       0.261095250805      
6800000000.0        0.234757547569      0.263684246118      0.760456117077      -0.358575708749     0.760456117077      -0.358575708749     0.234757547569      0.263684246118      
6900000000.0        0.237999914666      0.266226217596      0.757071168343      -0.36252914299      0.757071168343      -0.36252914299      0.237999914666      0.266226217596      
7000000000.0        0.2412622226        0.268721113145      0.753664096186      -0.366436181864     0.753664096186      -0.366436181864     0.2412622226        0.268721113145      
7100000000.0        0.244543664517      0.271168897044      0.750235702346      -0.370296798802     0.750235702346      -0.370296798802     0.244543664517      0.271168897044      
7200000000.0        0.247843439049      0.273569549652      0.746786783001      -0.374110983311     0.746786783001      -0.374110983311     0.247843439049      0.273569549652      
7300000000.0        0.251160750672      0.275923067096      0.74331812841       -0.37787874067      0.74331812841       -0.37787874067      0.251160750672      0.275923067096      
7400000000.0        0.254494810045      0.278229460963      0.739830522573      -0.381600091611     0.739830522573      -0.381600091611     0.254494810045      0.278229460963      
7500000000.0        0.25784483434       0.280488757981      0.736324742898      -0.385275072012     0.736324742898      -0.385275072012     0.25784483434       0.280488757981      
7600000000.0        0.261210047555      0.282700999698      0.732801559896      -0.388903732565     0.732801559896      -0.388903732565     0.261210047555      0.282700999698      
7700000000.0        0.26458968081       0.284866242151      0.729261736877      -0.392486138457     0.729261736877      -0.392486138457     0.26458968081       0.284866242151      
7800000000.0        0.267982972631      0.286984555541      0.725706029666      -0.396022369033     0.725706029666      -0.396022369033     0.267982972631      0.286984555541      
7900000000.0        0.271389169223      0.289056023892      0.722135186336      -0.399512517468     0.722135186336      -0.399512517468     0.271389169223      0.289056023892      
8000000000.0        0.274807524722      0.291080744717      0.718549946946      -0.402956690421     0.718549946946      -0.402956690421     0.274807524722      0.291080744717      
8100000000.0        0.278237301442      0.293058828679      0.714951043305      -0.406355007704     0.714951043305      -0.406355007704     0.278237301442      0.293058828679      
8200000000.0        0.281677770098      0.294990399243      0.711339198738      -0.409707601934     0.711339198738      -0.409707601934     0.281677770098      0.294990399243      
8300000000.0        0.285128210029      0.296875592338      0.707715127871      -0.413014618193     0.707715127871      -0.413014618193     0.285128210029      0.296875592338      
8400000000.0        0.288587909391      0.298714556011      0.704079536431      -0.416276213681     0.704079536431      -0.416276213681     0.288587909391      0.298714556011      
8500000000.0        0.292056165356      0.300507450079      0.700433121053      -0.41949255737      0.700433121053      -0.41949255737      0.292056165356      0.300507450079      
8600000000.0        0.295532284282      0.302254445783      0.696776569103      -0.42266382966      0.696776569103      -0.42266382966      0.295532284282      0.302254445783      
8700000000.0        0.29901558188       0.303955725445      0.693110558516      -0.425790222034     0.693110558516      -0.425790222034     0.29901558188       0.303955725445      
8800000000.0        0.302505383364      0.30561148212       0.689435757642      -0.42887193671      0.689435757642      -0.42887193671      0.302505383364      0.30561148212       
8900000000.0        0.306001023595      0.307221919251      0.685752825106      -0.431909186298     0.685752825106      -0.431909186298     0.306001023595      0.307221919251      
9000000000.0        0.309501847205      0.30878725033       0.682062409679      -0.434902193458     0.682062409679      -0.434902193458     0.309501847205      0.30878725033       
9100000000.0        0.313007208716      0.310307698549      0.678365150161      -0.437851190557     0.678365150161      -0.437851190557     0.313007208716      0.310307698549      
9200000000.0        0.316516472645      0.311783496465      0.674661675274      -0.440756419327     0.674661675274      -0.440756419327     0.316516472645      0.311783496465      
9300000000.0        0.320029013597      0.313214885663      0.67095260357       -0.443618130533     0.67095260357       -0.443618130533     0.320029013597      0.313214885663      
9400000000.0        0.323544216354      0.314602116415      0.667238543342      -0.446436583634     0.667238543342      -0.446436583634     0.323544216354      0.314602116415      
9500000000.0        0.327061475943      0.315945447354      0.663520092556      -0.449212046448     0.663520092556      -0.449212046448     0.327061475943      0.315945447354      
9600000000.0        0.330580197701      0.317245145141      0.659797838781      -0.451944794831     0.659797838781      -0.451944794831     0.330580197701      0.317245145141      
9700000000.0        0.334099797331      0.318501484136      0.656072359139      -0.454635112341     0.656072359139      -0.454635112341     0.334099797331      0.318501484136      
9800000000.0        0.337619700943      0.319714746083      0.65234422026       -0.457283289922     0.65234422026       -0.457283289922     0.337619700943      0.319714746083      
9900000000.0        0.341139345089      0.320885219783      0.648613978244      -0.459889625585     0.648613978244      -0.459889625585     0.341139345089      0.320885219783      
10000000000.0       0.344658176792      0.322013200782      0.64488217864       -0.462454424088     0.64488217864       -0.462454424088     0.344658176792      0.322013200782      
