# Hz S RI R 50.00 
100000000.0         -0.0157233218688    -0.124050086901     0.984155174113      -0.124227263611     0.984155174113      -0.124227263611     -0.0157233218688    -0.124050086901     
200000000.0         -0.0599899378017    -0.236903022092     0.939887678158      -0.237257390615     0.939887678158      -0.237257390615     -0.0599899378017    -0.236903022092     
300000000.0         -0.125461180365     -0.330542417394     0.874415731231      -0.331074002791     0.874415731231      -0.331074002791     -0.125461180365     -0.330542417394     
400000000.0         -0.203115873136     -0.401505571457     0.796760405332      -0.402214407316     0.796760405332      -0.402214407316     -0.203115873136     -0.401505571457     
500000000.0         -0.284739421424     -0.450371845449     0.715136255135      -0.451257973187     0.715136255135      -0.451257973187     -0.284739421424     -0.450371845449     
600000000.0         -0.36429806084      -0.480212368622     0.635577024704      -0.481275837023     0.635577024704      -0.481275837023     -0.36429806084      -0.480212368622     
700000000.0         -0.438138443099     -0.495038176747     0.561736050366      -0.496279041623     0.561736050366      -0.496279041623     -0.438138443099     -0.495038176747     
800000000.0         -0.504530420763     -0.498760800431     0.49534347183       -0.50017912436      0.49534347183       -0.50017912436      -0.504530420763     -0.498760800431     
900000000.0         -0.56303811584      -0.494694008328     0.436835161762      -0.496289860434     0.436835161762      -0.496289860434     -0.56303811584      -0.494694008328     
1000000000.0        -0.61397727988      -0.485422596519     0.385895364758      -0.487196052287     0.385895364758      -0.487196052287     -0.61397727988      -0.485422596519     
1100000000.0        -0.658033491305     -0.472858518654     0.341838499502      -0.474809659776     0.341838499502      -0.474809659776     -0.658033491305     -0.472858518654     
1200000000.0        -0.696026104934     -0.458365195152     0.303845208933      -0.460494109381     0.303845208933      -0.460494109381     -0.696026104934     -0.458365195152     
1300000000.0        -0.728777068148     -0.442888397099     0.271093543893      -0.44519517813      0.271093543893      -0.44519517813      -0.728777068148     -0.442888397099     
1400000000.0        -0.757046322811     -0.427068755139     0.242823561073      -0.429553502492     0.242823561073      -0.429553502492     -0.757046322811     -0.427068755139     
1500000000.0        -0.781505973083     -0.411329768186     0.218363155121      -0.413992587109     0.218363155121      -0.413992587109     -0.781505973083     -0.411329768186     
1600000000.0        -0.802735346254     -0.395943173772     0.197132997744      -0.398784175144     0.197132997744      -0.398784175144     -0.802735346254     -0.395943173772     
1700000000.0        -0.821226315089     -0.381076041418     0.178641215321      -0.384095341667     0.178641215321      -0.384095341667     -0.821226315089     -0.381076041418     
1800000000.0        -0.837392920753     -0.366824069113     0.162473765951      -0.370021790133     0.162473765951      -0.370021790133     -0.837392920753     -0.366824069113     
1900000000.0        -0.851582142241     -0.353234848139     0.148283669991      -0.35661111722      0.148283669991      -0.35661111722      -0.851582142241     -0.353234848139     
2000000000.0        -0.864084263747     -0.340323992218     0.135780642673      -0.343878941977     0.135780642673      -0.343878941977     -0.864084263747     -0.340323992218     
2100000000.0        -0.875142171871     -0.328086256416     0.124721796887      -0.331820024733     0.124721796887      -0.331820024733     -0.875142171871     -0.328086256416     
2200000000.0        -0.884959375834     -0.316503164833     0.114903622947      -0.320415894794     0.114903622947      -0.320415894794     -0.884959375834     -0.316503164833     
2300000000.0        -0.893706770852     -0.30554821617      0.106155225216      -0.309640056009     0.106155225216      -0.309640056009     -0.893706770852     -0.30554821617      
2400000000.0        -0.901528264798     -0.295190413026     0.0983326954305     -0.299461516075     0.0983326954305     -0.299461516075     -0.901528264798     -0.295190413026     
2500000000.0        -0.908545422134     -0.285396632928     0.0913144687702     -0.289847157571     0.0913144687702     -0.289847157571     -0.908545422134     -0.285396632928     
2600000000.0        -0.914861280148     -0.276133200101     0.0849975076063     -0.280763309724     0.0849975076063     -0.280763309724     -0.914861280148     -0.276133200101     
2700000000.0        -0.920563479044     -0.26736690665      0.0792941714193     -0.272176769604     0.0792941714193     -0.272176769604     -0.920563479044     -0.26736690665      
2800000000.0        -0.925726828557     -0.25906565551      0.0741296501723     -0.264055445068     0.0741296501723     -0.264055445068     -0.925726828557     -0.25906565551      
2900000000.0        -0.930415414426     -0.251198844651     0.0694398578373     -0.256368738974     0.0694398578373     -0.256368738974     -0.930415414426     -0.251198844651     
3000000000.0        -0.934684330147     -0.243737575468     0.0651697006435     -0.249087757569     0.0651697006435     -0.249087757569     -0.934684330147     -0.243737575468     
3100000000.0        -0.938581103871     -0.236654742918     0.0612716501732     -0.242185400629     0.0612716501732     -0.242185400629     -0.938581103871     -0.236654742918     
3200000000.0        -0.94214687724      -0.229925047309     0.0577045645251     -0.235636373255     0.0577045645251     -0.235636373255     -0.94214687724      -0.229925047309     
3300000000.0        -0.945417382121     -0.223524955417     0.0544327115815     -0.229417146986     0.0544327115815     -0.229417146986     -0.945417382121     -0.223524955417     
3400000000.0        -0.94842375238      -0.217432630005     0.0514249572305     -0.223505889322     0.0514249572305     -0.223505889322     -0.94842375238      -0.217432630005     
3500000000.0        -0.951193200716     -0.211627840863     0.0486540885303     -0.217882374771     0.0486540885303     -0.217882374771     -0.951193200716     -0.211627840863     
3600000000.0        -0.953749584822     -0.206091866309     0.0460962475502     -0.212527886342     0.0460962475502     -0.212527886342     -0.953749584822     -0.206091866309     
3700000000.0        -0.95611388251      -0.200807391153     0.0437304562434     -0.207425113522     0.0437304562434     -0.207425113522     -0.95611388251      -0.200807391153     
3800000000.0        -0.958304591742     -0.195758405112     0.0415382164142     -0.202558050682     0.0415382164142     -0.202558050682     -0.958304591742     -0.195758405112     
3900000000.0        -0.960338068526     -0.190930104212     0.0395031718242     -0.197911898491     0.0395031718242     -0.197911898491     -0.960338068526     -0.190930104212     
4000000000.0        -0.962228813228     -0.186308796767     0.0376108218758     -0.193472969888     0.0376108218758     -0.193472969888     -0.962228813228     -0.186308796767     
4100000000.0        -0.963989713946     -0.181881814807     0.0358482782415     -0.189228601518     0.0358482782415     -0.189228601518     -0.963989713946     -0.181881814807     
4200000000.0        -0.965632254009     -0.177637431383     0.0342040573624     -0.185167071035     0.0342040573624     -0.185167071035     -0.965632254009     -0.177637431383     
4300000000.0        -0.967166689426     -0.173564783879     0.0326679030002     -0.181277520417     0.0326679030002     -0.181277520417     -0.967166689426     -0.173564783879     
4400000000.0        -0.968602201074     -0.169653803221     0.0312306340452     -0.177549885178     0.0312306340452     -0.177549885178     -0.968602201074     -0.169653803221     
4500000000.0        -0.969947025606     -0.165895148779     0.0298840136152     -0.173974829265     0.0298840136152     -0.173974829265     -0.969947025606     -0.165895148779     
4600000000.0        -0.971208568345     -0.16228014865      0.0286206361523     -0.170543685352     0.0286206361523     -0.170543685352     -0.971208568345     -0.16228014865      
4700000000.0        -0.972393500933     -0.158800744997     0.0274338297822     -0.167248400175     0.0274338297822     -0.167248400175     -0.972393500933     -0.158800744997     
4800000000.0        -0.973507845987     -0.155449444073     0.0263175716507     -0.164081484557     0.0263175716507     -0.164081484557     -0.973507845987     -0.155449444073     
4900000000.0        -0.974557050703     -0.152219270571     0.0252664143251     -0.161035967759     0.0252664143251     -0.161035967759     -0.974557050703     -0.152219270571     
5000000000.0        -0.975546050989     -0.149103725956     0.0242754216564     -0.158105355818     0.0242754216564     -0.158105355818     -0.975546050989     -0.149103725956     
5100000000.0        -0.976479327497     -0.146096750435     0.0233401127516     -0.155283593514     0.0233401127516     -0.155283593514     -0.976479327497     -0.146096750435     
5200000000.0        -0.977360954675     -0.143192688253     0.0224564129168     -0.152565029668     0.0224564129168     -0.152565029668     -0.977360954675     -0.143192688253     
5300000000.0        -0.978194643824     -0.140386256015     0.0216206106056     -0.149944385466     0.0216206106056     -0.149944385466     -0.978194643824     -0.140386256015     
5400000000.0        -0.978983780955     -0.137672513776     0.0208293195554     -0.147416725549     0.0208293195554     -0.147416725549     -0.978983780955     -0.137672513776     
5500000000.0        -0.979731460168     -0.135046838622     0.0200794454147     -0.144977431599     0.0200794454147     -0.144977431599     -0.979731460168     -0.135046838622     
5600000000.0        -0.980440513122     -0.132504900543     0.0193681562678     -0.142622178209     0.0193681562678     -0.142622178209     -0.980440513122     -0.132504900543     
5700000000.0        -0.981113535125     -0.130042640368     0.0186928565492     -0.140346910818     0.0186928565492     -0.140346910818     -0.981113535125     -0.130042640368     
5800000000.0        -0.981752908258     -0.127656249576     0.0180511639135     -0.138147825532     0.0180511639135     -0.138147825532     -0.981752908258     -0.127656249576     
5900000000.0        -0.982360821933     -0.125342151819     0.017440888685      -0.136021350636     0.017440888685      -0.136021350636     -0.982360821933     -0.125342151819     
6000000000.0        -0.982939291176     -0.12309698599      0.0168600155683     -0.133964129673     0.0168600155683     -0.133964129673     -0.982939291176     -0.12309698599      
6100000000.0        -0.983490172938     -0.1209175907       0.0163066873391     -0.131973005916     0.0163066873391     -0.131973005916     -0.983490172938     -0.1209175907       
6200000000.0        -0.984015180664     -0.11880099003      0.0157791902774     -0.130045008127     0.0157791902774     -0.130045008127     -0.984015180664     -0.11880099003      
6300000000.0        -0.984515897321     -0.11674438046      0.0152759411342     -0.128177337477     0.0152759411342     -0.128177337477     -0.984515897321     -0.11674438046      
6400000000.0        -0.984993787085     -0.114745118834     0.0147954754504     -0.126367355527     0.0147954754504     -0.126367355527     -0.984993787085     -0.114745118834     
6500000000.0        -0.985450205822     -0.112800711314     0.0143364370724     -0.124612573168     0.0143364370724     -0.124612573168     -0.985450205822     -0.112800711314     
6600000000.0        -0.985886410516     -0.110908803192     0.0138975687246     -0.122910640444     0.0138975687246     -0.122910640444     -0.985886410516     -0.110908803192     
6700000000.0        -0.986303567753     -0.109067169512     0.0134777035226     -0.121259337171     0.0134777035226     -0.121259337171     -0.986303567753     -0.109067169512     
6800000000.0        -0.986702761383     -0.107273706423     0.0130757573184     -0.119656564292     0.0130757573184     -0.119656564292     -0.986702761383     -0.107273706423     
6900000000.0        -0.987084999422     -0.105526423192     0.0126907217894     -0.118100335891     0.0126907217894     -0.118100335891     -0.987084999422     -0.105526423192     
7000000000.0        -0.98745122031      -0.103823434834     0.0123216581873     -0.116588771825     0.0123216581873     -0.116588771825     -0.98745122031      -0.103823434834     
7100000000.0        -0.987802298566     -0.102162955296     0.0119676916784     -0.115120090904     0.0119676916784     -0.115120090904     -0.987802298566     -0.102162955296     
7200000000.0        -0.988139049923     -0.100543291145     0.0116280062111     -0.113692604591     0.0116280062111     -0.113692604591     -0.988139049923     -0.100543291145     
7300000000.0        -0.988462235989     -0.0989628357369    0.0113018398558     -0.112304711158     0.0113018398558     -0.112304711158     -0.988462235989     -0.0989628357369    
7400000000.0        -0.988772568478     -0.0974200637967    0.0109884805692     -0.110954890277     0.0109884805692     -0.110954890277     -0.988772568478     -0.0974200637967    
7500000000.0        -0.989070713071     -0.0959135264049    0.0106872623375     -0.109641698006     0.0106872623375     -0.109641698006     -0.989070713071     -0.0959135264049    
7600000000.0        -0.989357292928     -0.0944418463373    0.0103975616635     -0.108363762125     0.0103975616635     -0.108363762125     -0.989357292928     -0.0944418463373    
7700000000.0        -0.989632891893     -0.0930037137377    0.0101187943596     -0.107119777815     0.0101187943596     -0.107119777815     -0.989632891893     -0.0930037137377    
7800000000.0        -0.989898057425     -0.0915978820957    0.00985041262002    -0.105908503635     0.00985041262002    -0.105908503635     -0.989898057425     -0.0915978820957    
7900000000.0        -0.990153303271     -0.0902231645043    0.00959190234235    -0.104728757779     0.00959190234235    -0.104728757779     -0.990153303271     -0.0902231645043    
8000000000.0        -0.990399111925     -0.0888784301757    0.00934278067612    -0.103579414594     0.00934278067612    -0.103579414594     -0.990399111925     -0.0888784301757    
8100000000.0        -0.990635936868     -0.0875626011956    0.00910259377606    -0.102459401337     0.00910259377606    -0.102459401337     -0.990635936868     -0.0875626011956    
8200000000.0        -0.99086420463      -0.0862746494961    0.00887091474095    -0.101367695146     0.00887091474095    -0.101367695146     -0.99086420463      -0.0862746494961    
8300000000.0        -0.991084316688     -0.0850135940321    0.00864734172082    -0.100303320217     0.00864734172082    -0.100303320217     -0.991084316688     -0.0850135940321    
8400000000.0        -0.991296651198     -0.0837784981448    0.00843149617699    -0.0992653451728    0.00843149617699    -0.0992653451728    -0.991296651198     -0.0837784981448    
8500000000.0        -0.991501564604     -0.0825684670977    0.0082230212811     -0.0982528805956    0.0082230212811     -0.0982528805956    -0.991501564604     -0.0825684670977    
8600000000.0        -0.991699393104     -0.0813826457737    0.00802158044052    -0.0972650767267    0.00802158044052    -0.0972650767267    -0.991699393104     -0.0813826457737    
8700000000.0        -0.991890454017     -0.0802202165197    0.007826855939      -0.0963011213121    0.007826855939      -0.0963011213121    -0.991890454017     -0.0802202165197    
8800000000.0        -0.992075047032     -0.0790803971293    0.00763854768234    -0.0953602375858    0.00763854768234    -0.0953602375858    -0.992075047032     -0.0790803971293    
8900000000.0        -0.99225345537      -0.0779624389522    0.00745637203998    -0.0944416823804    0.00745637203998    -0.0944416823804    -0.99225345537      -0.0779624389522    
9000000000.0        -0.99242594685      -0.076865625123     0.00728006077425    -0.0935447443567    0.00728006077425    -0.0935447443567    -0.99242594685      -0.076865625123     
9100000000.0        -0.992592774885     -0.0757892688981    0.00710936004968    -0.092668742342     0.00710936004968    -0.092668742342     -0.992592774885     -0.0757892688981    
9200000000.0        -0.992754179396     -0.0747327120967    0.0069440295158     -0.0918130237711    0.0069440295158     -0.0918130237711    -0.992754179396     -0.0747327120967    
9300000000.0        -0.992910387662     -0.0736953236348    0.00678384145716    -0.0909769632224    0.00678384145716    -0.0909769632224    -0.992910387662     -0.0736953236348    
9400000000.0        -0.993061615108     -0.0726764981487    0.00662858000498    -0.0901599610415    0.00662858000498    -0.0901599610415    -0.993061615108     -0.0726764981487    
9500000000.0        -0.993208066038     -0.0716756547004    0.00647804040556    -0.0893614420479    0.00647804040556    -0.0893614420479    -0.993208066038     -0.0716756547004    
9600000000.0        -0.993349934313     -0.0706922355592    0.00633202834061    -0.0885808543177    0.00633202834061    -0.0885808543177    -0.993349934313     -0.0706922355592    
9700000000.0        -0.993487403985     -0.0697257050552    0.00619035929555    -0.0878176680376    0.00619035929555    -0.0878176680376    -0.993487403985     -0.0697257050552    
9800000000.0        -0.99362064988      -0.0687755484991    0.00605285797176    -0.0870713744266    0.00605285797176    -0.0870713744266    -0.99362064988      -0.0687755484991    
9900000000.0        -0.993749838151     -0.0678412711644    0.00591935773953    -0.086341484718     0.00591935773953    -0.086341484718     -0.993749838151     -0.0678412711644    
10000000000.0       -0.993875126781     -0.0669223973276    0.00578970012834    -0.0856275292015    0.00578970012834    -0.0856275292015    -0.993875126781     -0.0669223973276    
