# Hz S RI R 50.00 
100000000.0         -0.0182471925391    -0.133466312916     0.981635405651      -0.133642698262     0.981635405651      -0.133642698262     -0.0182471925391    -0.133466312916     
200000000.0         -0.0691071830432    -0.253058802242     0.930774563465      -0.253411589748     0.930774563465      -0.253411589748     -0.0691071830432    -0.253058802242     
300000000.0         -0.143014070421     -0.349380477614     0.856866993215      -0.349909695047     0.856866993215      -0.349909695047     -0.143014070421     -0.349380477614     
400000000.0         -0.228692781371     -0.41917267789      0.771187667303      -0.419878362376     0.771187667303      -0.419878362376     -0.228692781371     -0.41917267789      
500000000.0         -0.316512480519     -0.464192622915     0.683367382428      -0.465074820145     0.683367382428      -0.465074820145     -0.316512480519     -0.464192622915     
600000000.0         -0.399983889753     -0.48887087098      0.599895397064      -0.489929634692     0.599895397064      -0.489929634692     -0.399983889753     -0.48887087098      
700000000.0         -0.475644509589     -0.498283611202     0.524234199132      -0.499519002797     0.524234199132      -0.499519002797     -0.475644509589     -0.498283611202     
800000000.0         -0.542233684937     -0.496992409403     0.457644436249      -0.498404497646     0.457644436249      -0.498404497646     -0.542233684937     -0.496992409403     
900000000.0         -0.599818989522     -0.488617042368     0.400058529535      -0.490205903135     0.400058529535      -0.490205903135     -0.599818989522     -0.488617042368     
1000000000.0        -0.649140672029     -0.47582456968      0.350736226576      -0.477590285751     0.350736226576      -0.477590285751     -0.649140672029     -0.47582456968      
1100000000.0        -0.691200488771     -0.460487536016     0.308675768254      -0.462430196895     0.308675768254      -0.462430196895     -0.691200488771     -0.460487536016     
1200000000.0        -0.727035186874     -0.443876147461     0.272840405269      -0.445995849209     0.272840405269      -0.445995849209     -0.727035186874     -0.443876147461     
1300000000.0        -0.757607149001     -0.426828006201     0.24226775323       -0.429124851302     0.24226775323       -0.429124851302     -0.757607149001     -0.426828006201     
1400000000.0        -0.783761677485     -0.409880109255     0.216112508401      -0.412354206478     0.216112508401      -0.412354206478     -0.783761677485     -0.409880109255     
1500000000.0        -0.806218896554     -0.393365029931     0.193654545391      -0.39601649422      0.193654545391      -0.39601649422      -0.806218896554     -0.393365029931     
1600000000.0        -0.82558183139      -0.377478476996     0.174290838039      -0.380307429356     0.174290838039      -0.380307429356     -0.82558183139      -0.377478476996     
1700000000.0        -0.842350764217     -0.362325733429     0.157521103286      -0.365332300832     0.157521103286      -0.365332300832     -0.842350764217     -0.362325733429     
1800000000.0        -0.856938903551     -0.347953158564     0.142932131891      -0.351137473857     0.142932131891      -0.351137473857     -0.856938903551     -0.347953158564     
1900000000.0        -0.86968709561      -0.334369376087     0.130183076998      -0.337731577904     0.130183076998      -0.337731577904     -0.86968709561      -0.334369376087     
2000000000.0        -0.880876705195     -0.321559435784     0.118992573242      -0.325099668473     0.118992573242      -0.325099668473     -0.880876705195     -0.321559435784     
2100000000.0        -0.89074047969      -0.309494225026     0.109127872734      -0.313212638571     0.109127872734      -0.313212638571     -0.89074047969      -0.309494225026     
2200000000.0        -0.899471519351     -0.298136682012     0.100395874755      -0.302033431967     0.100395874755      -0.302033431967     -0.899471519351     -0.298136682012     
2300000000.0        -0.907230594636     -0.287445860702     0.0926358084262     -0.291521108126     0.0926358084262     -0.291521108126     -0.907230594636     -0.287445860702     
2400000000.0        -0.914152075884     -0.277379555048     0.085713303021      -0.281633466449     0.085713303021      -0.281633466449     -0.914152075884     -0.277379555048     
2500000000.0        -0.920348723784     -0.267895958811     0.0795155974885     -0.272328706084     0.0795155974885     -0.272328706084     -0.920348723784     -0.267895958811     
2600000000.0        -0.925915556636     -0.258954681553     0.0739476731863     -0.263566441936     0.0739476731863     -0.263566441936     -0.925915556636     -0.258954681553     
2700000000.0        -0.93093297492      -0.250517336824     0.0689291293151     -0.255308292842     0.0689291293151     -0.255308292842     -0.93093297492      -0.250517336824     
2800000000.0        -0.935469290555     -0.242547848115     0.0643916536484     -0.247518187539     0.0643916536484     -0.247518187539     -0.935469290555     -0.242547848115     
2900000000.0        -0.93958277965      -0.235012570801     0.0602769697844     -0.240162486607     0.0602769697844     -0.240162486607     -0.93958277965      -0.235012570801     
3000000000.0        -0.943323353673     -0.227880296241     0.0565351659735     -0.233209986568     0.0565351659735     -0.233209986568     -0.943323353673     -0.227880296241     
3100000000.0        -0.946733924633     -0.221122182561     0.0531233299328     -0.226631850674     0.0531233299328     -0.226631850674     -0.946733924633     -0.221122182561     
3200000000.0        -0.949851524345     -0.214711641934     0.0500044295804     -0.220401496194     0.0500044295804     -0.220401496194     -0.949851524345     -0.214711641934     
3300000000.0        -0.95270822551      -0.208624204232     0.0471463919574     -0.214494458062     0.0471463919574     -0.214494458062     -0.95270822551      -0.208624204232     
3400000000.0        -0.955331902566     -0.202837370099     0.0445213423698     -0.208888241958     0.0445213423698     -0.208888241958     -0.955331902566     -0.202837370099     
3500000000.0        -0.95774686259      -0.197330461928     0.0421049734902     -0.20356217528      0.0421049734902     -0.20356217528      -0.95774686259      -0.197330461928     
3600000000.0        -0.959974370406     -0.192084478066     0.0398760202473     -0.198497261363     0.0398760202473     -0.198497261363     -0.959974370406     -0.192084478066     
3700000000.0        -0.962033087274     -0.187081953512     0.0378158211345     -0.193676040165     0.0378158211345     -0.193676040165     -0.962033087274     -0.187081953512     
3800000000.0        -0.963939438729     -0.182306828882     0.0359079503739     -0.189082457248     0.0359079503739     -0.189082457248     -0.963939438729     -0.182306828882     
3900000000.0        -0.965707924109     -0.177744328563     0.0341379083859     -0.184701741923     0.0341379083859     -0.184701741923     -0.965707924109     -0.177744328563     
4000000000.0        -0.967351377931     -0.17338084828      0.0324928604107     -0.180520294826     0.0324928604107     -0.180520294826     -0.967351377931     -0.17338084828      
4100000000.0        -0.968881191362     -0.169203851971     0.0309614150392     -0.176525584793     0.0309614150392     -0.176525584793     -0.968881191362     -0.169203851971     
4200000000.0        -0.970307500494     -0.165201777577     0.029533435937      -0.17270605465      0.029533435937      -0.17270605465      -0.970307500494     -0.165201777577     
4300000000.0        -0.971639346919     -0.161363951244     0.028199881271      -0.169051035419     0.028199881271      -0.169051035419     -0.971639346919     -0.161363951244     
4400000000.0        -0.972884815099     -0.157680509349     0.0269526663356     -0.165550668346     0.0269526663356     -0.165550668346     -0.972884815099     -0.157680509349     
4500000000.0        -0.974051150248     -0.154142327734     0.0257845456693     -0.162195834135     0.0257845456693     -0.162195834135     -0.974051150248     -0.154142327734     
4600000000.0        -0.975144859795     -0.150740957551     0.0246890115993     -0.158978088797     0.0246890115993     -0.158978088797     -0.975144859795     -0.150740957551     
4700000000.0        -0.976171800939     -0.147468567115     0.0236602066772     -0.155889605503     0.0236602066772     -0.155889605503     -0.976171800939     -0.147468567115     
4800000000.0        -0.97713725644      -0.144317889229     0.0226928478938     -0.152923121911     0.0226928478938     -0.152923121911     -0.97713725644      -0.144317889229     
4900000000.0        -0.978046000377     -0.14128217345      0.0217821609148     -0.150071892435     0.0217821609148     -0.150071892435     -0.978046000377     -0.14128217345      
5000000000.0        -0.978902355375     -0.138355142831     0.0209238228635     -0.147329644986     0.0209238228635     -0.147329644986     -0.978902355375     -0.138355142831     
5100000000.0        -0.979710242498     -0.135530954689     0.0201139124152     -0.144690541743     0.0201139124152     -0.144690541743     -0.979710242498     -0.135530954689     
5200000000.0        -0.980473224894     -0.132804165024     0.0193488661639     -0.142149143575     0.0193488661639     -0.142149143575     -0.980473224894     -0.132804165024     
5300000000.0        -0.981194546027     -0.130169696207     0.0186254403816     -0.13970037773      0.0186254403816     -0.13970037773      -0.981194546027     -0.130169696207     
5400000000.0        -0.981877163268     -0.127622807634     0.0179406774294     -0.137339508485     0.0179406774294     -0.137339508485     -0.981877163268     -0.127622807634     
5500000000.0        -0.982523777468     -0.125159069036     0.0172918761874     -0.135062110468     0.0172918761874     -0.135062110468     -0.982523777468     -0.125159069036     
5600000000.0        -0.983136859042     -0.122774336198     0.0166765659681     -0.132864044368     0.0166765659681     -0.132864044368     -0.983136859042     -0.122774336198     
5700000000.0        -0.98371867103      -0.120464728838     0.0160924834537     -0.130741434821     0.0160924834537     -0.130741434821     -0.98371867103      -0.120464728838     
5800000000.0        -0.984271289529     -0.118226610441     0.0155375522679     -0.128690650247     0.0155375522679     -0.128690650247     -0.984271289529     -0.118226610441     
5900000000.0        -0.984796621822     -0.116056569864     0.0150098648431     -0.12670828445      0.0150098648431     -0.12670828445      -0.984796621822     -0.116056569864     
6000000000.0        -0.985296422502     -0.113951404527     0.0145076662967     -0.124791139815     0.0145076662967     -0.124791139815     -0.985296422502     -0.113951404527     
6100000000.0        -0.985772307842     -0.111908105044     0.0140293400665     -0.122936211942     0.0140293400665     -0.122936211942     -0.985772307842     -0.111908105044     
6200000000.0        -0.986225768606     -0.109923841168     0.0135733950903     -0.121140675586     0.0135733950903     -0.121140675586     -0.986225768606     -0.109923841168     
6300000000.0        -0.986658181517     -0.107995948904     0.0131384543448     -0.119401871777     0.0131384543448     -0.119401871777     -0.986658181517     -0.107995948904     
6400000000.0        -0.987070819521     -0.106121918702     0.0127232445805     -0.117717296011     0.0127232445805     -0.117717296011     -0.987070819521     -0.106121918702     
6500000000.0        -0.987464860991     -0.104299384613     0.0123265871147     -0.11608458741      0.0123265871147     -0.11608458741      -0.987464860991     -0.104299384613     
6600000000.0        -0.987841398        -0.102526114331     0.0119473895594     -0.114501518763     0.0119473895594     -0.114501518763     -0.987841398        -0.102526114331     
6700000000.0        -0.988201443769     -0.100800000036     0.0115846383773     -0.11296598737      0.0115846383773     -0.11296598737      -0.988201443769     -0.100800000036     
6800000000.0        -0.98854593937      -0.0991190499608    0.0112373921734     -0.111476006614     0.0112373921734     -0.111476006614     -0.98854593937      -0.0991190499608    
6900000000.0        -0.98887575978      -0.097481380628     0.010904775641      -0.110029698192     0.010904775641      -0.110029698192     -0.98887575978      -0.097481380628     
7000000000.0        -0.989191719358     -0.0958852096847    0.0105859740893     -0.108625284957     0.0105859740893     -0.108625284957     -0.989191719358     -0.0958852096847    
7100000000.0        -0.989494576793     -0.0943288492931    0.010280228491      -0.10726108431      0.010280228491      -0.10726108431      -0.989494576793     -0.0943288492931    
7200000000.0        -0.989785039596     -0.0928107000228    0.00998683099366    -0.105935502088     0.00998683099366    -0.105935502088     -0.989785039596     -0.0928107000228    
7300000000.0        -0.990063768168     -0.0913292452038    0.00970512084623    -0.104647026922     0.00970512084623    -0.104647026922     -0.990063768168     -0.0913292452038    
7400000000.0        -0.990331379507     -0.0898830456998    0.00943448069787    -0.103394225014     0.00943448069787    -0.103394225014     -0.990331379507     -0.0898830456998    
7500000000.0        -0.990588450572     -0.0884707350674    0.00917433323038    -0.102175735291     0.00917433323038    -0.102175735291     -0.990588450572     -0.0884707350674    
7600000000.0        -0.990835521353     -0.0870910150679    0.00892413809061    -0.100990264922     0.00892413809061    -0.100990264922     -0.990835521353     -0.0870910150679    
7700000000.0        -0.991073097664     -0.0857426515033    0.00868338909287    -0.0998365851548    0.00868338909287    -0.0998365851548    -0.991073097664     -0.0857426515033    
7800000000.0        -0.991301653702     -0.0844244703499    0.00845161166446    -0.0987135274506    0.00845161166446    -0.0987135274506    -0.991301653702     -0.0844244703499    
7900000000.0        -0.991521634381     -0.0831353541641    0.00822836051063    -0.0976199798904    0.00822836051063    -0.0976199798904    -0.991521634381     -0.0831353541641    
8000000000.0        -0.991733457466     -0.0818742387411    0.0080132174777     -0.0965548838344    0.0080132174777     -0.0965548838344    -0.991733457466     -0.0818742387411    
8100000000.0        -0.991937515534     -0.0806401100029    0.00780578959546    -0.0955172308127    0.00780578959546    -0.0955172308127    -0.991937515534     -0.0806401100029    
8200000000.0        -0.992134177767     -0.0794320011013    0.00760570728188    -0.0945060596278    0.00760570728188    -0.0945060596278    -0.992134177767     -0.0794320011013    
8300000000.0        -0.992323791602     -0.0782489897156    0.00741262269492    -0.0935204536544    0.00741262269492    -0.0935204536544    -0.992323791602     -0.0782489897156    
8400000000.0        -0.992506684241     -0.0770901955327    0.00722620821799    -0.0925595383203    0.00722620821799    -0.0925595383203    -0.992506684241     -0.0770901955327    
8500000000.0        -0.992683164052     -0.0759547778942    0.00704615506668    -0.0916224787545    0.00704615506668    -0.0916224787545    -0.992683164052     -0.0759547778942    
8600000000.0        -0.992853521843     -0.0748419335979    0.00687217200601    -0.09070847759      0.00687217200601    -0.09070847759      -0.992853521843     -0.0748419335979    
8700000000.0        -0.99301803205      -0.073750894843     0.00670398416812    -0.0898167729099    0.00670398416812    -0.0898167729099    -0.99301803205      -0.073750894843     
8800000000.0        -0.993176953825     -0.0726809273069    0.00654133196164    -0.0889466363256    0.00654133196164    -0.0889466363256    -0.993176953825     -0.0726809273069    
8900000000.0        -0.993330532044     -0.0716313283455    0.00638397006476    -0.0880973711779    0.00638397006476    -0.0880973711779    -0.993330532044     -0.0716313283455    
9000000000.0        -0.993478998237     -0.0706014253068    0.00623166649465    -0.0872683108518    0.00623166649465    -0.0872683108518    -0.993478998237     -0.0706014253068    
9100000000.0        -0.993622571449     -0.0695905739498    0.00608420174673    -0.086458817197     0.00608420174673    -0.086458817197     -0.993622571449     -0.0695905739498    
9200000000.0        -0.993761459034     -0.068598156962     0.00594136799796    -0.0856682790456    0.00594136799796    -0.0856682790456    -0.993761459034     -0.068598156962     
9300000000.0        -0.993895857399     -0.0676235825673    0.00580296836866    -0.0848961108218    0.00580296836866    -0.0848961108218    -0.993895857399     -0.0676235825673    
9400000000.0        -0.99402595268      -0.066666283219     0.00566881623805    -0.0841417512358    0.00566881623805    -0.0841417512358    -0.99402595268      -0.066666283219     
9500000000.0        -0.994151921385     -0.0657257143706    0.00553873460912    -0.083404662056     0.00553873460912    -0.083404662056     -0.994151921385     -0.0657257143706    
9600000000.0        -0.994273930979     -0.0648013533215    0.0054125555188     -0.0826843269553    0.0054125555188     -0.0826843269553    -0.994273930979     -0.0648013533215    
9700000000.0        -0.994392140434     -0.0638926981291    0.00529011948976    -0.081980250425     0.00529011948976    -0.081980250425     -0.994392140434     -0.0638926981291    
9800000000.0        -0.994506700737     -0.0629992665861    0.00517127502058    -0.0812919567525    0.00517127502058    -0.0812919567525    -0.994506700737     -0.0629992665861    
9900000000.0        -0.994617755366     -0.062120595256     0.00505587811111    -0.0806189890588    0.00505587811111    -0.0806189890588    -0.994617755366     -0.062120595256     
10000000000.0       -0.994725440731     -0.061256238565     0.00494379182052    -0.0799609083908    0.00494379182052    -0.0799609083908    -0.994725440731     -0.061256238565     
