# Hz S RI R 50.00 
100000000.0         -0.000228783183833  -0.0198999742593    0.999372614805      -0.0204689698961    0.999372614805      -0.0204689698961    -0.000228783183834  -0.0198999742593    
200000000.0         -0.00146793458474   -0.0397493368192    0.998130265842      -0.0408873479026    0.998130265842      -0.0408873479026    -0.00146793458474   -0.0397493368192    
300000000.0         -0.00351441030612   -0.0594994574469    0.996080955113      -0.0612065198198    0.996080955113      -0.0612065198198    -0.00351441030612   -0.0594994574469    
400000000.0         -0.00635817296912   -0.0791024934101    0.993234376696      -0.0813786562339    0.993234376696      -0.0813786562339    -0.00635817296912   -0.0791024934101    
500000000.0         -0.00998556516087   -0.0985117677631    0.989604056254      -0.101357092373     0.989604056254      -0.101357092373     -0.00998556516087   -0.0985117677631    
600000000.0         -0.0143793961021    -0.1176821257       0.985207117558      -0.121096684899     0.985207117558      -0.121096684899     -0.0143793961021    -0.1176821257       
700000000.0         -0.019519122515     -0.136570265322     0.98006406438       -0.140554142886     0.98006406438       -0.140554142886     -0.019519122515     -0.136570265322     
800000000.0         -0.0253810764064    -0.155135038396     0.974198539137      -0.159688328697     0.974198539137      -0.159688328697     -0.0253810764064    -0.155135038396     
900000000.0         -0.031938726754     -0.173337717213     0.967637055177      -0.178460524918     0.967637055177      -0.178460524918     -0.031938726754     -0.173337717213     
1000000000.0        -0.0391629674173    -0.191142224464     0.960408705815      -0.196834664288     0.960408705815      -0.196834664288     -0.0391629674173    -0.191142224464     
1100000000.0        -0.0470224247733    -0.20851532395      0.952544855008      -0.214777520448     0.952544855008      -0.214777520448     -0.0470224247733    -0.20851532395      
1200000000.0        -0.0554837789237    -0.225426770872     0.944078815138      -0.232258858257     0.944078815138      -0.232258858257     -0.0554837789237    -0.225426770872     
1300000000.0        -0.0645120925433    -0.241849421356     0.935045517531      -0.249251543345     0.935045517531      -0.249251543345     -0.0645120925433    -0.241849421356     
1400000000.0        -0.0740711417062    -0.257759301756     0.92548118122       -0.26573161143      0.92548118122       -0.26573161143      -0.0740711417062    -0.257759301756     
1500000000.0        -0.0841237433905    -0.273135639062     0.915422985154      -0.281678298741     0.915422985154      -0.281678298741     -0.0841237433905    -0.273135639062     
1600000000.0        -0.0946320748199    -0.287960854438     0.904908748663      -0.297074035569     0.904908748663      -0.297074035569     -0.0946320748199    -0.287960854438     
1700000000.0        -0.105557980339     -0.30222052252      0.893976624435      -0.311904405578     0.893976624435      -0.311904405578     -0.105557980339     -0.30222052252      
1800000000.0        -0.116863262122     -0.315903299569     0.88266480771       -0.326158073963     0.88266480771       -0.326158073963     -0.116863262122     -0.315903299569     
1900000000.0        -0.128509951639     -0.32900082393      0.871011264727      -0.33982668792      0.871011264727      -0.33982668792      -0.128509951639     -0.32900082393      
2000000000.0        -0.140460559475     -0.34150759247      0.859053482852      -0.352904753087     0.859053482852      -0.352904753087     -0.140460559475     -0.34150759247      
2100000000.0        -0.152678301711     -0.353420816805     0.84682824415       -0.365389489781     0.84682824415       -0.365389489781     -0.152678301711     -0.353420816805     
2200000000.0        -0.165127301718     -0.364740263107     0.83437142355       -0.377280672807     0.83437142355       -0.377280672807     -0.165127301718     -0.364740263107     
2300000000.0        -0.177772766775     -0.375468079243     0.821717812204      -0.388580458605     0.821717812204      -0.388580458605     -0.177772766775     -0.375468079243     
2400000000.0        -0.190581139453     -0.385608612795     0.808900966075      -0.399293203271     0.808900966075      -0.399293203271     -0.190581139453     -0.385608612795     
2500000000.0        -0.203520224167     -0.395168223321     0.795953079371      -0.409425274824     0.795953079371      -0.409425274824     -0.203520224167     -0.395168223321     
2600000000.0        -0.216559289688     -0.404155091932     0.782904882013      -0.418984862787     0.782904882013      -0.418984862787     -0.216559289688     -0.404155091932     
2700000000.0        -0.229669148753     -0.412579030948     0.769785560018      -0.427981787843     0.769785560018      -0.427981787843     -0.229669148753     -0.412579030948     
2800000000.0        -0.242822216142     -0.42045129608      0.756622697406      -0.436427314024     0.756622697406      -0.436427314024     -0.242822216142     -0.42045129608      
2900000000.0        -0.255992546821     -0.427784403241     0.74344223805       -0.444333965523     0.74344223805       -0.444333965523     -0.255992546821     -0.427784403241     
3000000000.0        -0.269155855861     -0.434591951756     0.730268465752      -0.451715349905     0.730268465752      -0.451715349905     -0.269155855861     -0.434591951756     
3100000000.0        -0.282289521929     -0.440888455406     0.717124000742      -0.458585989158     0.717124000742      -0.458585989158     -0.282289521929     -0.440888455406     
3200000000.0        -0.295372576188     -0.446689182448     0.704029810777      -0.46496115971      0.704029810777      -0.46496115971      -0.295372576188     -0.446689182448     
3300000000.0        -0.308385678424     -0.452010005447     0.691005235006      -0.470856742265     0.691005235006      -0.470856742265     -0.308385678424     -0.452010005447     
3400000000.0        -0.321311082177     -0.456867261502     0.678068018834      -0.476289082035     0.678068018834      -0.476289082035     -0.321311082177     -0.456867261502     
3500000000.0        -0.334132590585     -0.461277623218     0.665234358081      -0.481274859706     0.665234358081      -0.481274859706     -0.334132590585     -0.461277623218     
3600000000.0        -0.346835504547     -0.465257980555     0.652518950807      -0.485830973296     0.652518950807      -0.485830973296     -0.346835504547     -0.465257980555     
3700000000.0        -0.359406564718     -0.468825333523     0.639935055323      -0.489974430849     0.639935055323      -0.489974430849     -0.359406564718     -0.468825333523     
3800000000.0        -0.371833888702     -0.471996695529     0.627494552991      -0.493722253781     0.627494552991      -0.493722253781     -0.371833888702     -0.471996695529     
3900000000.0        -0.38410690471      -0.474789007075     0.615208014562      -0.497091390585     0.615208014562      -0.497091390585     -0.38410690471      -0.474789007075     
4000000000.0        -0.396216282812     -0.47721905939      0.60308476893       -0.50009864046      0.60308476893       -0.50009864046      -0.396216282812     -0.47721905939      
4100000000.0        -0.408153864769     -0.479303427516     0.591132973291      -0.5027605864       0.591132973291      -0.5027605864       -0.408153864769     -0.479303427516     
4200000000.0        -0.419912593327     -0.481058412305     0.579359683849      -0.505093537194     0.579359683849      -0.505093537194     -0.419912593327     -0.481058412305     
4300000000.0        -0.431486441733     -0.482499990759     0.567770926302      -0.507113477763     0.567770926302      -0.507113477763     -0.431486441733     -0.482499990759     
4400000000.0        -0.442870344102     -0.4836437741       0.556371765473      -0.508836027237     0.556371765473      -0.508836027237     -0.442870344102     -0.4836437741       
4500000000.0        -0.454060127185     -0.484504972979     0.545166373535      -0.510276404159     0.545166373535      -0.510276404159     -0.454060127185     -0.484504972979     
4600000000.0        -0.465052443979     -0.4850983692       0.534158096412      -0.511449398218     0.534158096412      -0.511449398218     -0.465052443979     -0.4850983692       
4700000000.0        -0.475844709525     -0.485438293383     0.523349517967      -0.512369347903     0.523349517967      -0.512369347903     -0.475844709525     -0.485438293383     
4800000000.0        -0.486435039187     -0.485538607968     0.512742521732      -0.51305012352      0.512742521732      -0.51305012352      -0.486435039187     -0.485538607968     
4900000000.0        -0.496822189605     -0.485412695035     0.502338349949      -0.513505115        0.502338349949      -0.513505115        -0.496822189605     -0.485412695035     
5000000000.0        -0.507005502479     -0.485073448383     0.492137659788      -0.513747223991     0.492137659788      -0.513747223991     -0.507005502479     -0.485073448383     
5100000000.0        -0.516984851279     -0.484533269401     0.482140576636      -0.513788859722     0.482140576636      -0.513788859722     -0.516984851279     -0.484533269401     
5200000000.0        -0.526760590919     -0.48380406625      0.47234674442       -0.513641938193     0.47234674442       -0.513641938193     -0.526760590919     -0.48380406625      
5300000000.0        -0.536333510418     -0.482897255942     0.462755372951      -0.513317884245     0.462755372951      -0.513317884245     -0.536333510418     -0.482897255942     
5400000000.0        -0.545704788516     -0.481823768907     0.453365282301      -0.512827636139     0.453365282301      -0.512827636139     -0.545704788516     -0.481823768907     
5500000000.0        -0.554875952204     -0.480594055698     0.444174944276      -0.512181652254     0.444174944276      -0.512181652254     -0.554875952204     -0.480594055698     
5600000000.0        -0.563848838088     -0.479218095499     0.435182521054      -0.511389919599     0.435182521054      -0.511389919599     -0.563848838088     -0.479218095499     
5700000000.0        -0.572625556508     -0.477705406133     0.426385901058      -0.510461963824     0.426385901058      -0.510461963824     -0.572625556508     -0.477705406133     
5800000000.0        -0.581208458304     -0.476065055318     0.417782732201      -0.50940686047      0.417782732201      -0.50940686047      -0.581208458304     -0.476065055318     
5900000000.0        -0.589600104118     -0.474305672907     0.40937045257       -0.50823324722      0.40937045257       -0.50823324722      -0.589600104118     -0.474305672907     
6000000000.0        -0.597803236124     -0.472435463917     0.401146318711      -0.506949336919     0.401146318711      -0.506949336919     -0.597803236124     -0.472435463917     
6100000000.0        -0.60582075204      -0.470462222151     0.393107431601      -0.505562931203     0.393107431601      -0.505562931203     -0.60582075204      -0.470462222151     
6200000000.0        -0.613655681327     -0.46839334424      0.385250760461      -0.50408143454      0.385250760461      -0.50408143454      -0.613655681327     -0.46839334424      
6300000000.0        -0.621311163428     -0.466235843969     0.377573164512      -0.502511868554     0.377573164512      -0.502511868554     -0.621311163428     -0.466235843969     
6400000000.0        -0.628790427924     -0.463996366749     0.370071412816      -0.500860886506     0.370071412816      -0.500860886506     -0.628790427924     -0.463996366749     
6500000000.0        -0.636096776495     -0.461681204136     0.362742202319      -0.499134787802     0.362742202319      -0.499134787802     -0.636096776495     -0.461681204136     
6600000000.0        -0.643233566562     -0.45929630829      0.355582174209      -0.497339532466     0.355582174209      -0.497339532466     -0.643233566562     -0.45929630829      
6700000000.0        -0.650204196484     -0.45684730631      0.348587928716      -0.495480755462     0.348587928716      -0.495480755462     -0.650204196484     -0.45684730631      
6800000000.0        -0.657012092215     -0.454339514355     0.341756038453      -0.493563780828     0.341756038453      -0.493563780828     -0.657012092215     -0.454339514355     
6900000000.0        -0.663660695307     -0.451777951519     0.33508306042       -0.491593635544     0.33508306042       -0.491593635544     -0.663660695307     -0.451777951519     
7000000000.0        -0.67015345215      -0.449167353396     0.328565546757      -0.4895750631       0.328565546757      -0.4895750631       -0.67015345215      -0.449167353396     
7100000000.0        -0.676493804368     -0.446512185302     0.322200054351      -0.48751253672      0.322200054351      -0.48751253672      -0.676493804368     -0.446512185302     
7200000000.0        -0.682685180266     -0.443816655131     0.315983153388      -0.485410272217     0.315983153388      -0.485410272217     -0.682685180266     -0.443816655131     
7300000000.0        -0.688730987253     -0.441084725813     0.30991143493       -0.483272240451     0.30991143493       -0.483272240451     -0.688730987253     -0.441084725813     
7400000000.0        -0.69463460515      -0.438320127358     0.303981517604      -0.481102179381     0.303981517604      -0.481102179381     -0.69463460515      -0.438320127358     
7500000000.0        -0.700399380321     -0.435526368487     0.298190053479      -0.478903605682     0.298190053479      -0.478903605682     -0.700399380321     -0.435526368487     
7600000000.0        -0.706028620538     -0.432706747824     0.292533733188      -0.476679825953     0.292533733188      -0.476679825953     -0.706028620538     -0.432706747824     
7700000000.0        -0.711525590537     -0.429864364657     0.287009290384      -0.47443394747      0.287009290384      -0.47443394747      -0.711525590537     -0.429864364657     
7800000000.0        -0.716893508185     -0.427002129268     0.281613505568      -0.47216888852      0.281613505568      -0.47216888852      -0.716893508185     -0.427002129268     
7900000000.0        -0.72213554121      -0.424122772832     0.276343209355      -0.469887388298     0.276343209355      -0.469887388298     -0.72213554121      -0.424122772832     
8000000000.0        -0.727254804442     -0.421228856892     0.271195285239      -0.467592016384     0.271195285239      -0.467592016384     -0.727254804442     -0.421228856892     
8100000000.0        -0.732254357515     -0.41832278241      0.266166671887      -0.465285181797     0.266166671887      -0.465285181797     -0.732254357515     -0.41832278241      
8200000000.0        -0.737137202984     -0.415406798413     0.261254365024      -0.462969141641     0.261254365024      -0.462969141641     -0.737137202984     -0.415406798413     
8300000000.0        -0.74190628482      -0.412483010244     0.256455418935      -0.460646009349     0.256455418935      -0.460646009349     -0.74190628482      -0.412483010244     
8400000000.0        -0.746564487242     -0.409553387413     0.251766947637      -0.458317762547     0.251766947637      -0.458317762547     -0.746564487242     -0.409553387413     
8500000000.0        -0.751114633849     -0.406619771078     0.247186125742      -0.455986250529     0.247186125742      -0.455986250529     -0.751114633849     -0.406619771078     
8600000000.0        -0.755559487028     -0.403683881166     0.242710189054      -0.453653201376     0.242710189054      -0.453653201376     -0.755559487028     -0.403683881166     
8700000000.0        -0.759901747602     -0.400747323127     0.238336434915      -0.451320228718     0.238336434915      -0.451320228718     -0.759901747602     -0.400747323127     
8800000000.0        -0.764144054692     -0.397811594367     0.234062222346      -0.448988838161     0.234062222346      -0.448988838161     -0.764144054692     -0.397811594367     
8900000000.0        -0.768288985777     -0.39487809034      0.229884971989      -0.446660433384     0.229884971989      -0.446660433384     -0.768288985777     -0.39487809034      
9000000000.0        -0.772339056911     -0.391948110338     0.225802165884      -0.444336321925     0.225802165884      -0.444336321925     -0.772339056911     -0.391948110338     
9100000000.0        -0.776296723105     -0.38902286297      0.221811347094      -0.442017720669     0.221811347094      -0.442017720669     -0.776296723105     -0.38902286297      
9200000000.0        -0.780164378825     -0.386103471371     0.217910119199      -0.439705761046     0.217910119199      -0.439705761046     -0.780164378825     -0.386103471371     
9300000000.0        -0.783944358614     -0.383190978114     0.21409614568       -0.437401493956     0.21409614568       -0.437401493956     -0.783944358614     -0.383190978114     
9400000000.0        -0.787638937808     -0.380286349884     0.2103671492        -0.435105894433     0.2103671492        -0.435105894433     -0.787638937808     -0.380286349884     
9500000000.0        -0.791250333339     -0.377390481883     0.206720910799      -0.432819866058     0.206720910799      -0.432819866058     -0.791250333339     -0.377390481883     
9600000000.0        -0.794780704614     -0.374504202009     0.203155269022      -0.430544245134     0.203155269022      -0.430544245134     -0.794780704614     -0.374504202009     
9700000000.0        -0.79823215445      -0.371628274802     0.199668118974      -0.428279804636     0.199668118974      -0.428279804636     -0.79823215445      -0.371628274802     
9800000000.0        -0.801606730064     -0.368763405179     0.196257411337      -0.426027257947     0.196257411337      -0.426027257947     -0.801606730064     -0.368763405179     
9900000000.0        -0.804906424109     -0.365910241965     0.192921151329      -0.423787262382     0.192921151329      -0.423787262382     -0.804906424109     -0.365910241965     
10000000000.0       -0.80813317574      -0.363069381221     0.189657397645      -0.421560422529     0.189657397645      -0.421560422529     -0.80813317574      -0.363069381221     
