# Hz S RI R 50.00 
100000000.0         0.0326839605675     0.00371863836072    0.967307209446      -0.00682997090105   0.967307209446      -0.00682997090105   0.0326839605675     0.00371863836072    
200000000.0         0.0329711510161     0.00743185015386    0.967002397847      -0.0136545235027    0.967002397847      -0.0136545235027    0.0329711510161     0.00743185015386    
300000000.0         0.033254841741      0.0111406263688     0.966691292674      -0.0204746666097    0.966691292674      -0.0204746666097    0.033254841741      0.0111406263688     
400000000.0         0.0335625050821     0.0148447528549     0.966346419371      -0.0272902017344    0.966346419371      -0.0272902017344    0.0335625050821     0.0148447528549     
500000000.0         0.0339046772708     0.0185437371875     0.9659572392        -0.0341006510302    0.9659572392        -0.0341006510302    0.0339046772708     0.0185437371875     
600000000.0         0.0342866830538     0.0222369652448     0.96551842456       -0.0409054142418    0.96551842456       -0.0409054142418    0.0342866830538     0.0222369652448     
700000000.0         0.0347116171677     0.0259237575919     0.965026877477      -0.0477038252785    0.965026877477      -0.0477038252785    0.0347116171677     0.0259237575919     
800000000.0         0.0351814327427     0.0296033957894     0.964480641188      -0.0544951786353    0.964480641188      -0.0544951786353    0.0351814327427     0.0296033957894     
900000000.0         0.0356974260215     0.0332751366718     0.963878415411      -0.0612787437443    0.963878415411      -0.0612787437443    0.0356974260215     0.0332751366718     
1000000000.0        0.0362604821155     0.0369382209387     0.963219310583      -0.0680537736168    0.963219310583      -0.0680537736168    0.0362604821155     0.0369382209387     
1100000000.0        0.0368712116688     0.0405918787358     0.962502711193      -0.0748195104614    0.962502711193      -0.0748195104614    0.0368712116688     0.0405918787358     
1200000000.0        0.0375300323387     0.0442353335069     0.961728194298      -0.0815751895635    0.961728194298      -0.0815751895635    0.0375300323387     0.0442353335069     
1300000000.0        0.0382372201064     0.047867804789      0.96089547821       -0.0883200421015    0.96089547821       -0.0883200421015    0.0382372201064     0.047867804789      
1400000000.0        0.0389929430518     0.0514885103255     0.960004388719      -0.095053297277     0.960004388719      -0.095053297277     0.0389929430518     0.0514885103255     
1500000000.0        0.0397972844173     0.0550966677242     0.959054836032      -0.101774183986     0.959054836032      -0.101774183986     0.0397972844173     0.0550966677242     
1600000000.0        0.0406502588558     0.0586914957982     0.95804679852       -0.10848193217      0.95804679852       -0.10848193217      0.0406502588558     0.0586914957982     
1700000000.0        0.0415518241914     0.0622722156793     0.956980310959      -0.115175773939     0.956980310959      -0.115175773939     0.0415518241914     0.0622722156793     
1800000000.0        0.0425018901354     0.0658380517658     0.955855455812      -0.121854944527     0.955855455812      -0.121854944527     0.0425018901354     0.0658380517658     
1900000000.0        0.043500324886      0.0693882325439     0.954672356631      -0.128518683115     0.954672356631      -0.128518683115     0.043500324886      0.0693882325439     
2000000000.0        0.0445469602222     0.0729219913118     0.953431172961      -0.135166233567     0.953431172961      -0.135166233567     0.0445469602222     0.0729219913118     
2100000000.0        0.045641595507      0.0764385668292     0.952132096337      -0.141796845077     0.952132096337      -0.141796845077     0.045641595507      0.0764385668292     
2200000000.0        0.0467840008868     0.0799372039036     0.950775347086      -0.148409772762     0.950775347086      -0.148409772762     0.0467840008868     0.0799372039036     
2300000000.0        0.0479739198881     0.0834171539284     0.949361171727      -0.155004278202     0.949361171727      -0.155004278202     0.0479739198881     0.0834171539284     
2400000000.0        0.0492110715588     0.0868776753778     0.947889840831      -0.161579629937     0.947889840831      -0.161579629937     0.0492110715588     0.0868776753778     
2500000000.0        0.0504951522581     0.0903180342676     0.946361647232      -0.168135103927     0.946361647232      -0.168135103927     0.0504951522581     0.0903180342676     
2600000000.0        0.0518258371753     0.0937375045844     0.944776904505      -0.174669983989     0.944776904505      -0.174669983989     0.0518258371753     0.0937375045844     
2700000000.0        0.0532027816347     0.0971353686884     0.943135945663      -0.181183562193     0.943135945663      -0.181183562193     0.0532027816347     0.0971353686884     
2800000000.0        0.0546256222333     0.100510917693      0.941439122021      -0.187675139248     0.941439122021      -0.187675139248     0.0546256222333     0.100510917693      
2900000000.0        0.0560939778435     0.103863451823      0.939686802186      -0.194144024857     0.939686802186      -0.194144024857     0.0560939778435     0.103863451823      
3000000000.0        0.0576074505079     0.107192280749      0.937879371171      -0.200589538055     0.937879371171      -0.200589538055     0.0576074505079     0.107192280749      
3100000000.0        0.0591656262483     0.110496723914      0.936017229578      -0.207011007532     0.936017229578      -0.207011007532     0.0591656262483     0.110496723914      
3200000000.0        0.0607680758026     0.113776110829      0.934100792864      -0.21340777193      0.934100792864      -0.21340777193      0.0607680758026     0.113776110829      
3300000000.0        0.062414355305      0.117029781364      0.932130490661      -0.219779180136     0.932130490661      -0.219779180136     0.062414355305      0.117029781364      
3400000000.0        0.0641040069179     0.120257086019      0.930106766141      -0.226124591548     0.930106766141      -0.226124591548     0.0641040069179     0.120257086019      
3500000000.0        0.0658365594251     0.123457386181      0.928030075426      -0.232443376333     0.928030075426      -0.232443376333     0.0658365594251     0.123457386181      
3600000000.0        0.0676115287915     0.126630054366      0.925900887023      -0.238734915672     0.925900887023      -0.238734915672     0.0676115287915     0.126630054366      
3700000000.0        0.0694284186968     0.129774474449      0.923719681296      -0.244998601984     0.923719681296      -0.244998601984     0.0694284186968     0.129774474449      
3800000000.0        0.0712867210448     0.132890041883      0.921486949949      -0.251233839145     0.921486949949      -0.251233839145     0.0712867210448     0.132890041883      
3900000000.0        0.0731859164545     0.135976163897      0.91920319554       -0.257440042688     0.91920319554       -0.257440042688     0.0731859164545     0.135976163897      
4000000000.0        0.0751254747345     0.139032259692      0.916868931003      -0.263616639992     0.916868931003      -0.263616639992     0.0751254747345     0.139032259692      
4100000000.0        0.0771048553426     0.142057760615      0.914484679189      -0.269763070464     0.914484679189      -0.269763070464     0.0771048553426     0.142057760615      
4200000000.0        0.079123507834      0.145052110331      0.912050972416      -0.275878785699     0.912050972416      -0.275878785699     0.079123507834      0.145052110331      
4300000000.0        0.0811808722989     0.148014764971      0.909568352032      -0.281963249633     0.909568352032      -0.281963249633     0.0811808722989     0.148014764971      
4400000000.0        0.0832763797904     0.150945193279      0.907037367984      -0.28801593869      0.907037367984      -0.28801593869      0.0832763797904     0.150945193279      
4500000000.0        0.0854094527447     0.153842876745      0.9044585784        -0.294036341905     0.9044585784        -0.294036341905     0.0854094527447     0.153842876745      
4600000000.0        0.0875795053931     0.156707309718      0.901832549176      -0.300023961046     0.901832549176      -0.300023961046     0.0875795053931     0.156707309718      
4700000000.0        0.0897859441684     0.159537999523      0.899159853564      -0.305978310719     0.899159853564      -0.305978310719     0.0897859441684     0.159537999523      
4800000000.0        0.0920281681042     0.162334466551      0.89644107178       -0.311898918468     0.89644107178       -0.311898918468     0.0920281681042     0.162334466551      
4900000000.0        0.0943055692293     0.165096244353      0.893676790599      -0.317785324853     0.893676790599      -0.317785324853     0.0943055692293     0.165096244353      
5000000000.0        0.096617532956      0.16782287971       0.890867602975      -0.323637083531     0.890867602975      -0.323637083531     0.096617532956      0.16782287971       
5100000000.0        0.0989634384635     0.170513932703      0.88801410765       -0.329453761317     0.88801410765       -0.329453761317     0.0989634384635     0.170513932703      
5200000000.0        0.101342659077      0.173168976766      0.885116908778      -0.335234938235     0.885116908778      -0.335234938235     0.101342659077      0.173168976766      
5300000000.0        0.103754562641      0.175787598731      0.882176615548      -0.340980207565     0.882176615548      -0.340980207565     0.103754562641      0.175787598731      
5400000000.0        0.106198511888      0.178369398865      0.879193841814      -0.346689175874     0.879193841814      -0.346689175874     0.106198511888      0.178369398865      
5500000000.0        0.108673864804      0.180913990893      0.876169205733      -0.352361463036     0.876169205733      -0.352361463036     0.108673864804      0.180913990893      
5600000000.0        0.111179974989      0.183421002013      0.873103329399      -0.357996702253     0.873103329399      -0.357996702253     0.111179974989      0.183421002013      
5700000000.0        0.113716192007      0.185890072904      0.869996838489      -0.36359454005      0.869996838489      -0.36359454005      0.113716192007      0.185890072904      
5800000000.0        0.116281861744      0.188320857723      0.866850361915      -0.369154636274     0.866850361915      -0.369154636274     0.116281861744      0.188320857723      
5900000000.0        0.118876326747      0.190713024091      0.86366453147       -0.37467666408      0.86366453147       -0.37467666408      0.118876326747      0.190713024091      
6000000000.0        0.121498926568      0.193066253069      0.860439981492      -0.380160309904     0.860439981492      -0.380160309904     0.121498926568      0.193066253069      
6100000000.0        0.124148998102      0.195380239137      0.857177348525      -0.385605273433     0.857177348525      -0.385605273433     0.124148998102      0.195380239137      
6200000000.0        0.126825875911      0.197654690143      0.853877270987      -0.391011267561     0.853877270987      -0.391011267561     0.126825875911      0.197654690143      
6300000000.0        0.129528892556      0.199889327268      0.850540388841      -0.396378018346     0.850540388841      -0.396378018346     0.129528892556      0.199889327268      
6400000000.0        0.132257378916      0.202083884964      0.847167343275      -0.401705264946     0.847167343275      -0.401705264946     0.132257378916      0.202083884964      
6500000000.0        0.135010664501      0.204238110892      0.843758776388      -0.406992759554     0.843758776388      -0.406992759554     0.135010664501      0.204238110892      
6600000000.0        0.137788077767      0.206351765856      0.840315330873      -0.41224026733      0.840315330873      -0.41224026733      0.137788077767      0.206351765856      
6700000000.0        0.140588946414      0.208424623719      0.836837649713      -0.417447566317     0.836837649713      -0.417447566317     0.140588946414      0.208424623719      
6800000000.0        0.14341259769       0.210456471324      0.833326375886      -0.422614447352     0.833326375886      -0.422614447352     0.14341259769       0.210456471324      
6900000000.0        0.146258358681      0.212447108399      0.829782152061      -0.427740713974     0.829782152061      -0.427740713974     0.146258358681      0.212447108399      
7000000000.0        0.1491255566        0.214396347458      0.826205620318      -0.432826182324     0.826205620318      -0.432826182324     0.1491255566        0.214396347458      
7100000000.0        0.152013519068      0.216304013699      0.82259742186       -0.437870681032     0.82259742186       -0.437870681032     0.152013519068      0.216304013699      
7200000000.0        0.154921574391      0.218169944889      0.818958196738      -0.442874051106     0.818958196738      -0.442874051106     0.154921574391      0.218169944889      
7300000000.0        0.157849051825      0.219993991251      0.815288583577      -0.447836145813     0.815288583577      -0.447836145813     0.157849051825      0.219993991251      
7400000000.0        0.160795281846      0.221776015339      0.811589219316      -0.452756830549     0.811589219316      -0.452756830549     0.160795281846      0.221776015339      
7500000000.0        0.163759596401      0.223515891907      0.807860738944      -0.457635982713     0.807860738944      -0.457635982713     0.163759596401      0.223515891907      
7600000000.0        0.166741329164      0.22521350778       0.804103775251      -0.462473491565     0.804103775251      -0.462473491565     0.166741329164      0.22521350778       
7700000000.0        0.169739815777      0.226868761714      0.800318958581      -0.467269258085     0.800318958581      -0.467269258085     0.169739815777      0.226868761714      
7800000000.0        0.172754394089      0.22848156425       0.796506916591      -0.472023194829     0.796506916591      -0.472023194829     0.172754394089      0.22848156425       
7900000000.0        0.17578440439       0.230051837568      0.792668274018      -0.476735225775     0.792668274018      -0.476735225775     0.17578440439       0.230051837568      
8000000000.0        0.178829189634      0.231579515335      0.788803652451      -0.481405286168     0.788803652451      -0.481405286168     0.178829189634      0.231579515335      
8100000000.0        0.18188809566       0.233064542546      0.784913670112      -0.48603332236      0.784913670112      -0.48603332236      0.18188809566       0.233064542546      
8200000000.0        0.184960471403      0.234506875369      0.780998941642      -0.490619291645     0.780998941642      -0.490619291645     0.184960471403      0.234506875369      
8300000000.0        0.188045669099      0.235906480975      0.77706007789       -0.495163162095     0.77706007789       -0.495163162095     0.188045669099      0.235906480975      
8400000000.0        0.191143044488      0.237263337373      0.773097685715      -0.499664912385     0.773097685715      -0.499664912385     0.191143044488      0.237263337373      
8500000000.0        0.194251957004      0.238577433243      0.769112367791      -0.50412453162      0.769112367791      -0.50412453162      0.194251957004      0.238577433243      
8600000000.0        0.197371769962      0.239848767755      0.765104722415      -0.508542019161     0.765104722415      -0.508542019161     0.197371769962      0.239848767755      
8700000000.0        0.200501850738      0.241077350402      0.761075343332      -0.51291738444      0.761075343332      -0.51291738444      0.200501850738      0.241077350402      
8800000000.0        0.203641570942      0.242263200815      0.757024819553      -0.517250646781     0.757024819553      -0.517250646781     0.203641570942      0.242263200815      
8900000000.0        0.206790306588      0.243406348583      0.752953735191      -0.521541835215     0.752953735191      -0.521541835215     0.206790306588      0.243406348583      
9000000000.0        0.209947438247      0.244506833073      0.748862669297      -0.52579098829      0.748862669297      -0.52579098829      0.209947438247      0.244506833073      
9100000000.0        0.21311235121       0.245564703243      0.744752195701      -0.529998153889     0.744752195701      -0.529998153889     0.21311235121       0.245564703243      
9200000000.0        0.216284435628      0.246580017455      0.740622882871      -0.53416338903      0.740622882871      -0.53416338903      0.216284435628      0.246580017455      
9300000000.0        0.219463086658      0.24755284329       0.736475293758      -0.538286759683     0.736475293758      -0.538286759683     0.219463086658      0.24755284329       
9400000000.0        0.222647704596      0.248483257355      0.732309985671      -0.542368340571     0.732309985671      -0.542368340571     0.222647704596      0.248483257355      
9500000000.0        0.225837695007      0.249371345098      0.728127510136      -0.546408214977     0.728127510136      -0.546408214977     0.225837695007      0.249371345098      
9600000000.0        0.229032468845      0.25021720061       0.723928412779      -0.55040647455      0.723928412779      -0.55040647455      0.229032468845      0.25021720061       
9700000000.0        0.232231442572      0.251020926441      0.719713233205      -0.554363219107     0.719713233205      -0.554363219107     0.232231442572      0.251020926441      
9800000000.0        0.235434038267      0.251782633401      0.715482504882      -0.558278556436     0.715482504882      -0.558278556436     0.235434038267      0.251782633401      
9900000000.0        0.238639683729      0.252502440373      0.711236755041      -0.562152602101     0.711236755041      -0.562152602101     0.238639683729      0.252502440373      
10000000000.0       0.24184781258       0.253180474115      0.706976504571      -0.565985479244     0.706976504571      -0.565985479244     0.24184781258       0.253180474115      
