# Hz S RI R 50.00 
100000000.0         0.00369964816037    0.00148557746644    0.996292842417      -0.00426699502268   0.996292842417      -0.00426699502268   0.00369964816037    0.00148557746644    
200000000.0         0.00374203444976    0.00297076308857    0.996236200243      -0.00853364021522   0.996236200243      -0.00853364021522   0.00374203444976    0.00297076308857    
300000000.0         0.00379066567369    0.00445555448833    0.996165565625      -0.012799957169     0.996165565625      -0.012799957169     0.00379066567369    0.00445555448833    
400000000.0         0.00384873572699    0.00593987564157    0.996077743303      -0.0170658858042    0.996077743303      -0.0170658858042    0.00384873572699    0.00593987564157    
500000000.0         0.00391747149995    0.00742363367886    0.995971504744      -0.021331345096     0.995971504744      -0.021331345096     0.00391747149995    0.00742363367886    
600000000.0         0.0039974956019     0.00890672843837    0.995846225438      -0.0255962440135    0.995846225438      -0.0255962440135    0.0039974956019     0.00890672843837    
700000000.0         0.00408917270039    0.0103890558854     0.995701538584      -0.0298604856486    0.995701538584      -0.0298604856486    0.00408917270039    0.0103890558854     
800000000.0         0.00419273589264    0.011870509694      0.995537208731      -0.0341239692243    0.995537208731      -0.0341239692243    0.00419273589264    0.011870509694      
900000000.0         0.00430834295787    0.0133509820953     0.99535307554       -0.0383865912258    0.99535307554       -0.0383865912258    0.00430834295787    0.0133509820953     
1000000000.0        0.00443610486259    0.0148303643791     0.995149025291      -0.0426482461016    0.995149025291      -0.0426482461016    0.00443610486259    0.0148303643791     
1100000000.0        0.00457610160221    0.0163085472139     0.994924975048      -0.0469088267311    0.994924975048      -0.0469088267311    0.00457610160221    0.0163085472139     
1200000000.0        0.00472839163809    0.0177854208617     0.994680863235      -0.0511682247536    0.994680863235      -0.0511682247536    0.00472839163809    0.0177854208617     
1300000000.0        0.00489301783364    0.0192608753295     0.994416643702      -0.0554263308087    0.994416643702      -0.0554263308087    0.00489301783364    0.0192608753295     
1400000000.0        0.00507001135545    0.0207348004801     0.994132281837      -0.0596830347203    0.994132281837      -0.0596830347203    0.00507001135545    0.0207348004801     
1500000000.0        0.0052593943314     0.0222070861158     0.99382775191       -0.0639382256398    0.99382775191       -0.0639382256398    0.0052593943314     0.0222070861158     
1600000000.0        0.00546118171761    0.0236776220438     0.993503035211      -0.0681917921611    0.993503035211      -0.0681917921611    0.00546118171761    0.0236776220438     
1700000000.0        0.00567538264412    0.0251462981275     0.993158118714      -0.0724436224154    0.993158118714      -0.0724436224154    0.00567538264412    0.0251462981275     
1800000000.0        0.00590200140682    0.0266130043296     0.992792994085      -0.0766936041497    0.992792994085      -0.0766936041497    0.00590200140682    0.0266130043296     
1900000000.0        0.00614103821307    0.0280776307468     0.992407656944      -0.0809416247942    0.992407656944      -0.0809416247942    0.00614103821307    0.0280776307468     
2000000000.0        0.00639248975192    0.0295400676406     0.9920021063        -0.0851875715197    0.9920021063        -0.0851875715197    0.00639248975192    0.0295400676406     
2100000000.0        0.00665634963709    0.0310002054629     0.991576344108      -0.0894313312883    0.991576344108      -0.0894313312883    0.00665634963709    0.0310002054629     
2200000000.0        0.00693260875577    0.0324579348786     0.991130374927      -0.093672790898     0.991130374927      -0.093672790898     0.00693260875577    0.0324579348786     
2300000000.0        0.0072212555469     0.0339131467866     0.990664205643      -0.0979118370223    0.990664205643      -0.0979118370223    0.0072212555469     0.0339131467866     
2400000000.0        0.00752227622567    0.0353657323379     0.990177845251      -0.102148356246     0.990177845251      -0.102148356246     0.00752227622567    0.0353657323379     
2500000000.0        0.00783565496664    0.0368155829525     0.989671304673      -0.1063822351       0.989671304673      -0.1063822351       0.00783565496664    0.0368155829525     
2600000000.0        0.00816137405457    0.0382625903351     0.989144596609      -0.110613360086     0.989144596609      -0.110613360086     0.00816137405457    0.0382625903351     
2700000000.0        0.00849941400976    0.0397066464892     0.988597735416      -0.11484161771      0.988597735416      -0.11484161771      0.00849941400976    0.0397066464892     
2800000000.0        0.00884975369327    0.0411476437314     0.988030737006      -0.119066894504     0.988030737006      -0.119066894504     0.00884975369327    0.0411476437314     
2900000000.0        0.0092123703958     0.0425854747038     0.987443618759      -0.123289077052     0.987443618759      -0.123289077052     0.0092123703958     0.0425854747038     
3000000000.0        0.0095872399135     0.0440200323864     0.986836399449      -0.127508052011     0.986836399449      -0.127508052011     0.0095872399135     0.0440200323864     
3100000000.0        0.00997433661309    0.0454512101091     0.986209099182      -0.131723706133     0.986209099182      -0.131723706133     0.00997433661309    0.0454512101091     
3200000000.0        0.0103736334882     0.046878901563      0.98556173934       -0.135935926286     0.98556173934       -0.135935926286     0.0103736334882     0.046878901563      
3300000000.0        0.0107851022083     0.0483030008112     0.984894342538      -0.140144599469     0.984894342538      -0.140144599469     0.0107851022083     0.0483030008112     
3400000000.0        0.0112087131621     0.0497234022993     0.98420693258       -0.144349612836     0.98420693258       -0.144349612836     0.0112087131621     0.0497234022993     
3500000000.0        0.0116444354952     0.0511400008661     0.983499534423      -0.148550853707     0.983499534423      -0.148550853707     0.0116444354952     0.0511400008661     
3600000000.0        0.0120922371445     0.0525526917537     0.982772174145      -0.152748209591     0.982772174145      -0.152748209591     0.0120922371445     0.0525526917537     
3700000000.0        0.0125520848677     0.0539613706167     0.982024878919      -0.156941568197     0.982024878919      -0.156941568197     0.0125520848677     0.0539613706167     
3800000000.0        0.0130239442714     0.0553659335326     0.981257676983      -0.161130817452     0.981257676983      -0.161130817452     0.0130239442714     0.0553659335326     
3900000000.0        0.0135077798351     0.0567662770107     0.980470597621      -0.165315845514     0.980470597621      -0.165315845514     0.0135077798351     0.0567662770107     
4000000000.0        0.0140035549343     0.0581622980017     0.979663671141      -0.169496540787     0.979663671141      -0.169496540787     0.0140035549343     0.0581622980017     
4100000000.0        0.0145112318612     0.0595538939065     0.978836928854      -0.173672791938     0.978836928854      -0.173672791938     0.0145112318612     0.0595538939065     
4200000000.0        0.0150307718432     0.0609409625854     0.977990403059      -0.177844487904     0.977990403059      -0.177844487904     0.0150307718432     0.0609409625854     
4300000000.0        0.0155621350614     0.0623234023668     0.977124127023      -0.182011517911     0.977124127023      -0.182011517911     0.0155621350614     0.0623234023668     
4400000000.0        0.0161052806664     0.063701112056      0.976238134972      -0.186173771485     0.976238134972      -0.186173771485     0.0161052806664     0.063701112056      
4500000000.0        0.0166601667944     0.0650739909436     0.97533246207       -0.190331138462     0.97533246207       -0.190331138462     0.0166601667944     0.0650739909436     
4600000000.0        0.0172267505815     0.0664419388139     0.974407144411      -0.194483509002     0.974407144411      -0.194483509002     0.0172267505815     0.0664419388139     
4700000000.0        0.0178049881776     0.0678048559534     0.973462219002      -0.198630773603     0.973462219002      -0.198630773603     0.0178049881776     0.0678048559534     
4800000000.0        0.0183948347595     0.069162643159      0.972497723755      -0.202772823108     0.972497723755      -0.202772823108     0.0183948347595     0.069162643159      
4900000000.0        0.0189962445436     0.070515201746      0.971513697475      -0.206909548719     0.971513697475      -0.206909548719     0.0189962445436     0.070515201746      
5000000000.0        0.019609170798      0.0718624335561     0.970510179844      -0.211040842006     0.970510179844      -0.211040842006     0.019609170798      0.0718624335561     
5100000000.0        0.020233565854      0.0732042409653     0.969487211418      -0.215166594922     0.969487211418      -0.215166594922     0.020233565854      0.0732042409653     
5200000000.0        0.0208693811173     0.0745405268918     0.968444833613      -0.219286699807     0.968444833613      -0.219286699807     0.0208693811173     0.0745405268918     
5300000000.0        0.0215165670791     0.0758711948037     0.967383088692      -0.223401049404     0.967383088692      -0.223401049404     0.0215165670791     0.0758711948037     
5400000000.0        0.0221750733265     0.0771961487263     0.966302019764      -0.227509536865     0.966302019764      -0.227509536865     0.0221750733265     0.0771961487263     
5500000000.0        0.022844848553      0.07851529325       0.965201670764      -0.231612055765     0.965201670764      -0.231612055765     0.022844848553      0.07851529325       
5600000000.0        0.0235258405684     0.0798285335374     0.964082086453      -0.235708500105     0.964082086453      -0.235708500105     0.0235258405684     0.0798285335374     
5700000000.0        0.0242179963089     0.0811357753309     0.962943312403      -0.23979876433      0.962943312403      -0.23979876433      0.0242179963089     0.0811357753309     
5800000000.0        0.0249212618469     0.0824369249595     0.961785394993      -0.24388274333      0.961785394993      -0.24388274333      0.0249212618469     0.0824369249595     
5900000000.0        0.0256355824004     0.0837318893462     0.960608381395      -0.247960332455     0.960608381395      -0.247960332455     0.0256355824004     0.0837318893462     
6000000000.0        0.0263609023426     0.0850205760151     0.959412319569      -0.25203142752      0.959412319569      -0.25203142752      0.0263609023426     0.0850205760151     
6100000000.0        0.027097165211      0.0863028930981     0.958197258253      -0.256095924816     0.958197258253      -0.256095924816     0.027097165211      0.0863028930981     
6200000000.0        0.0278443137171     0.0875787493416     0.956963246956      -0.260153721118     0.956963246956      -0.260153721118     0.0278443137171     0.0875787493416     
6300000000.0        0.0286022897551     0.0888480541138     0.955710335948      -0.264204713692     0.955710335948      -0.264204713692     0.0286022897551     0.0888480541138     
6400000000.0        0.0293710344113     0.0901107174107     0.954438576251      -0.268248800304     0.954438576251      -0.268248800304     0.0293710344113     0.0901107174107     
6500000000.0        0.030150487973      0.0913666498628     0.953148019635      -0.272285879229     0.953148019635      -0.272285879229     0.030150487973      0.0913666498628     
6600000000.0        0.0309405899376     0.0926157627419     0.951838718603      -0.276315849258     0.951838718603      -0.276315849258     0.0309405899376     0.0926157627419     
6700000000.0        0.0317412790212     0.0938579679671     0.95051072639       -0.280338609705     0.95051072639       -0.280338609705     0.0317412790212     0.0938579679671     
6800000000.0        0.032552493168      0.0950931781108     0.949164096947      -0.284354060414     0.949164096947      -0.284354060414     0.032552493168      0.0950931781108     
6900000000.0        0.0333741695587     0.0963213064054     0.947798884942      -0.288362101771     0.947798884942      -0.288362101771     0.0333741695587     0.0963213064054     
7000000000.0        0.0342062446197     0.0975422667492     0.946415145743      -0.292362634703     0.946415145743      -0.292362634703     0.0342062446197     0.0975422667492     
7100000000.0        0.0350486540315     0.0987559737119     0.945012935415      -0.296355560692     0.945012935415      -0.296355560692     0.0350486540315     0.0987559737119     
7200000000.0        0.0359013327379     0.099962342541      0.943592310709      -0.300340781781     0.943592310709      -0.300340781781     0.0359013327379     0.099962342541      
7300000000.0        0.0367642149546     0.101161289167      0.942153329057      -0.304318200577     0.942153329057      -0.304318200577     0.0367642149546     0.101161289167      
7400000000.0        0.037637234178      0.10235273021       0.940696048562      -0.308287720261     0.940696048562      -0.308287720261     0.037637234178      0.10235273021       
7500000000.0        0.038520323194      0.103536582984      0.939220527988      -0.312249244592     0.939220527988      -0.312249244592     0.038520323194      0.103536582984      
7600000000.0        0.0394134140868     0.104712765504      0.937726826754      -0.316202677917     0.937726826754      -0.316202677917     0.0394134140868     0.104712765504      
7700000000.0        0.0403164382473     0.105881196488      0.936215004928      -0.320147925174     0.936215004928      -0.320147925174     0.0403164382473     0.105881196488      
7800000000.0        0.0412293263826     0.107041795366      0.934685123211      -0.324084891897     0.934685123211      -0.324084891897     0.0412293263826     0.107041795366      
7900000000.0        0.042152008524      0.108194482285      0.933137242939      -0.328013484226     0.933137242939      -0.328013484226     0.042152008524      0.108194482285      
8000000000.0        0.0430844140363     0.10933917811       0.931571426065      -0.33193360891      0.931571426065      -0.33193360891      0.0430844140363     0.10933917811       
8100000000.0        0.0440264716261     0.110475804433      0.929987735159      -0.335845173313     0.929987735159      -0.335845173313     0.0440264716261     0.110475804433      
8200000000.0        0.0449781093513     0.111604283577      0.928386233393      -0.33974808542      0.928386233393      -0.33974808542      0.0449781093513     0.111604283577      
8300000000.0        0.0459392546289     0.112724538599      0.926766984538      -0.343642253842     0.926766984538      -0.343642253842     0.0459392546289     0.112724538599      
8400000000.0        0.0469098342447     0.113836493297      0.925130052952      -0.347527587819     0.925130052952      -0.347527587819     0.0469098342447     0.113836493297      
8500000000.0        0.0478897743616     0.114940072213      0.923475503571      -0.351403997232     0.923475503571      -0.351403997232     0.0478897743616     0.114940072213      
8600000000.0        0.0488790005283     0.116035200635      0.921803401907      -0.355271392598     0.921803401907      -0.355271392598     0.0488790005283     0.116035200635      
8700000000.0        0.0498774376887     0.11712180461       0.92011381403       -0.359129685083     0.92011381403       -0.359129685083     0.0498774376887     0.11712180461       
8800000000.0        0.0508850101898     0.118199810936      0.91840680657       -0.362978786504     0.91840680657       -0.362978786504     0.0508850101898     0.118199810936      
8900000000.0        0.0519016417915     0.119269147176      0.916682446699      -0.366818609332     0.916682446699      -0.366818609332     0.0519016417915     0.119269147176      
9000000000.0        0.0529272556747     0.120329741657      0.914940802128      -0.370649066698     0.914940802128      -0.370649066698     0.0529272556747     0.120329741657      
9100000000.0        0.0539617744502     0.121381523477      0.9131819411        -0.374470072397     0.9131819411        -0.374470072397     0.0539617744502     0.121381523477      
9200000000.0        0.0550051201681     0.122424422505      0.911405932375      -0.378281540892     0.911405932375      -0.378281540892     0.0550051201681     0.122424422505      
9300000000.0        0.056057214326      0.123458369387      0.909612845229      -0.382083387319     0.909612845229      -0.382083387319     0.056057214326      0.123458369387      
9400000000.0        0.0571179778779     0.12448329555       0.90780274944       -0.385875527488     0.90780274944       -0.385875527488     0.0571179778779     0.12448329555       
9500000000.0        0.0581873312434     0.125499133206      0.905975715281      -0.389657877892     0.905975715281      -0.389657877892     0.0581873312434     0.125499133206      
9600000000.0        0.0592651943163     0.126505815351      0.904131813516      -0.393430355705     0.904131813516      -0.393430355705     0.0592651943163     0.126505815351      
9700000000.0        0.0603514864735     0.127503275775      0.902271115382      -0.397192878789     0.902271115382      -0.397192878789     0.0603514864735     0.127503275775      
9800000000.0        0.0614461265837     0.128491449059      0.90039369259       -0.400945365697     0.90039369259       -0.400945365697     0.0614461265837     0.128491449059      
9900000000.0        0.0625490330164     0.129470270581      0.898499617312      -0.404687735673     0.898499617312      -0.404687735673     0.0625490330164     0.129470270581      
10000000000.0       0.0636601236507     0.13043967652       0.896588962171      -0.408419908662     0.896588962171      -0.408419908662     0.0636601236507     0.13043967652       
