# Hz S RI R 50.00 
100000000.0         0.000362963610305   3.76610387159e-05   0.999634672476      -0.000994552998328  0.999634672476      -0.000994552998328  0.000362963610305   3.76610387161e-05   
200000000.0         0.0003650629203     7.5311589972e-05    0.999630293417      -0.00198911928479   0.999630293417      -0.00198911928479   0.0003650629203     7.53115899719e-05   
300000000.0         0.000366598132877   0.00011295042673    0.999625562494      -0.0029837101855    0.999625562494      -0.0029837101855    0.000366598132877   0.00011295042673    
400000000.0         0.000367884449583   0.000150575815741   0.999620164343      -0.00397833334057   0.999620164343      -0.00397833334057   0.000367884449583   0.000150575815741   
500000000.0         0.000369043085638   0.000188186145834   0.999613977559      -0.00497299488888   0.999613977559      -0.00497299488888   0.000369043085638   0.000188186145835   
600000000.0         0.00037013575962    0.000225779962921   0.999606940209      -0.00596770005235   0.999606940209      -0.00596770005235   0.000370135759619   0.000225779962921   
700000000.0         0.000371198861465   0.000263355961124   0.999599015665      -0.00696245340851   0.999599015665      -0.00696245340851   0.000371198861465   0.000263355961124   
800000000.0         0.000372255915851   0.000300912967955   0.999590180148      -0.00795725904617   0.999590180148      -0.00795725904617   0.000372255915851   0.000300912967955   
900000000.0         0.000373323128529   0.000338449931186   0.999580417177      -0.00895212066407   0.999580417177      -0.00895212066407   0.000373323128529   0.000338449931186   
1000000000.0        0.000374412196229   0.000375965906951   0.999569714765      -0.00994704163921   0.999569714765      -0.00994704163921   0.000374412196229   0.000375965906951   
1100000000.0        0.000375531867909   0.00041346005021    0.99955806386       -0.010942025076     0.99955806386       -0.010942025076     0.000375531867909   0.00041346005021    
1200000000.0        0.000376688874631   0.000450931606254   0.999545457411      -0.0119370738438    0.999545457411      -0.0119370738438    0.000376688874631   0.000450931606254   
1300000000.0        0.000377888514361   0.000488379903838   0.99953188979       -0.0129321906056    0.99953188979       -0.0129321906056    0.000377888514361   0.000488379903838   
1400000000.0        0.000379135036191   0.000525804349069   0.999517356405      -0.0139273778415    0.999517356405      -0.0139273778415    0.000379135036191   0.000525804349069   
1500000000.0        0.000380431902104   0.000563204420186   0.999501853442      -0.0149226378674    0.999501853442      -0.0149226378674    0.000380431902104   0.000563204420186   
1600000000.0        0.00038178197075    0.000600579662962   0.999485377679      -0.0159179728506    0.999485377679      -0.0159179728506    0.00038178197075    0.000600579662962   
1700000000.0        0.000383187629865   0.000637929686542   0.999467926356      -0.0169133848234    0.999467926356      -0.0169133848234    0.000383187629864   0.000637929686542   
1800000000.0        0.000384650893824   0.000675254159963   0.999449497078      -0.017908875694     0.999449497078      -0.017908875694     0.000384650893824   0.000675254159963   
1900000000.0        0.000386173476925   0.000712552808865   0.999430087743      -0.0189044472563    0.999430087743      -0.0189044472563    0.000386173476925   0.000712552808865   
2000000000.0        0.00038775684938    0.000749825412441   0.999409696484      -0.0199001011985    0.999409696484      -0.0199001011985    0.000387756849379   0.000749825412441   
2100000000.0        0.000389402280742   0.000787071800952   0.999388321629      -0.0208958391103    0.999388321629      -0.0208958391103    0.000389402280742   0.000787071800952   
2200000000.0        0.000391110874073   0.000824291853181   0.999365961667      -0.0218916624896    0.999365961667      -0.0218916624896    0.000391110874073   0.000824291853181   
2300000000.0        0.00039288359312    0.000861485494253   0.99934261522       -0.0228875727483    0.99934261522       -0.0228875727483    0.00039288359312    0.000861485494253   
2400000000.0        0.000394721284201   0.00089865269354    0.99931828102       -0.0238835712175    0.99931828102       -0.0238835712175    0.000394721284201   0.00089865269354    
2500000000.0        0.000396624693986   0.000935793462812   0.999292957898      -0.0248796591522    0.999292957898      -0.0248796591522    0.000396624693986   0.000935793462812   
2600000000.0        0.000398594484091   0.000972907854429   0.999266644761      -0.0258758377359    0.999266644761      -0.0258758377359    0.000398594484091   0.000972907854429   
2700000000.0        0.000400631243147   0.00100999595972    0.999239340589      -0.026872108084     0.999239340589      -0.026872108084     0.000400631243147   0.00100999595972    
2800000000.0        0.000402735496866   0.00104705790748    0.999211044418      -0.0278684712476    0.999211044418      -0.0278684712476    0.000402735496866   0.00104705790748    
2900000000.0        0.000404907716489   0.00108409386242    0.999181755337      -0.0288649282167    0.999181755337      -0.0288649282167    0.000404907716488   0.00108409386242    
3000000000.0        0.000407148325932   0.00112110402398    0.999151472478      -0.0298614799233    0.999151472478      -0.0298614799233    0.000407148325932   0.00112110402398    
3100000000.0        0.000409457707861   0.00115808862493    0.999120195012      -0.0308581272439    0.999120195012      -0.0308581272439    0.000409457707861   0.00115808862493    
3200000000.0        0.000411836208893   0.00119504793026    0.999087922145      -0.0318548710024    0.999087922145      -0.0318548710024    0.000411836208892   0.00119504793026    
3300000000.0        0.000414284144059   0.00123198223593    0.99905465311       -0.0328517119724    0.99905465311       -0.0328517119724    0.000414284144059   0.00123198223593    
3400000000.0        0.000416801800679   0.00126889186796    0.999020387168      -0.0338486508789    0.999020387168      -0.0338486508789    0.000416801800679   0.00126889186796    
3500000000.0        0.000419389441713   0.00130577718127    0.998985123601      -0.0348456884012    0.998985123601      -0.0348456884012    0.000419389441713   0.00130577718127    
3600000000.0        0.000422047308691   0.00134263855878    0.998948861711      -0.0358428251741    0.998948861711      -0.0358428251741    0.000422047308691   0.00134263855878    
3700000000.0        0.00042477562428    0.00137947641048    0.99891160082       -0.0368400617902    0.99891160082       -0.0368400617902    0.00042477562428    0.00137947641048    
3800000000.0        0.000427574594545   0.00141629117257    0.998873340264      -0.0378373988013    0.998873340264      -0.0378373988013    0.000427574594545   0.00141629117257    
3900000000.0        0.00043044441094    0.00145308330658    0.998834079393      -0.0388348367201    0.998834079393      -0.0388348367201    0.00043044441094    0.00145308330658    
4000000000.0        0.000433385252075   0.00148985329861    0.99879381757       -0.0398323760217    0.99879381757       -0.0398323760217    0.000433385252075   0.00148985329861    
4100000000.0        0.000436397285291   0.00152660165857    0.998752554168      -0.0408300171448    0.998752554168      -0.0408300171448    0.000436397285291   0.00152660165857    
4200000000.0        0.00043948066806    0.00156332891939    0.99871028857       -0.0418277604937    0.99871028857       -0.0418277604937    0.00043948066806    0.00156332891939    
4300000000.0        0.000442635549241   0.00160003563641    0.99866702017       -0.0428256064386    0.99866702017       -0.0428256064386    0.000442635549241   0.00160003563641    
4400000000.0        0.000445862070209   0.00163672238662    0.998622748367      -0.0438235553177    0.998622748367      -0.0438235553177    0.000445862070209   0.00163672238662    
4500000000.0        0.000449160365867   0.00167338976808    0.998577472567      -0.0448216074376    0.998577472567      -0.0448216074376    0.000449160365867   0.00167338976808    
4600000000.0        0.000452530565564   0.00171003839925    0.998531192185      -0.0458197630749    0.998531192185      -0.0458197630749    0.000452530565564   0.00171003839925    
4700000000.0        0.000455972793924   0.00174666891845    0.998483906639      -0.0468180224772    0.998483906639      -0.0468180224772    0.000455972793924   0.00174666891845    
4800000000.0        0.000459487171595   0.00178328198322    0.998435615353      -0.0478163858635    0.998435615353      -0.0478163858635    0.000459487171595   0.00178328198322    
4900000000.0        0.000463073815939   0.00181987826982    0.998386317756      -0.048814853426     0.998386317756      -0.048814853426     0.000463073815939   0.00181987826982    
5000000000.0        0.000466732841653   0.00185645847265    0.998336013278      -0.0498134253302    0.998336013278      -0.0498134253302    0.000466732841653   0.00185645847265    
5100000000.0        0.000470464361338   0.00189302330382    0.998284701357      -0.0508121017164    0.998284701357      -0.0508121017164    0.000470464361339   0.00189302330382    
5200000000.0        0.000474268486022   0.00192957349253    0.998232381431      -0.0518108826998    0.998232381431      -0.0518108826998    0.000474268486022   0.00192957349253    
5300000000.0        0.00047814532564    0.00196610978472    0.998179052942      -0.0528097683722    0.998179052942      -0.0528097683722    0.00047814532564    0.00196610978472    
5400000000.0        0.000482094989472   0.0020026329425     0.998124715334      -0.0538087588016    0.998124715334      -0.0538087588016    0.000482094989472   0.0020026329425     
5500000000.0        0.000486117586552   0.00203914374378    0.998069368053      -0.0548078540341    0.998069368053      -0.0548078540341    0.000486117586552   0.00203914374378    
5600000000.0        0.000490213226038   0.00207564298181    0.998013010548      -0.0558070540936    0.998013010548      -0.0558070540936    0.000490213226038   0.00207564298181    
5700000000.0        0.000494382017561   0.00211213146474    0.997955642269      -0.0568063589831    0.997955642269      -0.0568063589831    0.000494382017561   0.00211213146474    
5800000000.0        0.000498624071546   0.00214861001525    0.997897262668      -0.0578057686849    0.997897262668      -0.0578057686849    0.000498624071546   0.00214861001525    
5900000000.0        0.000502939499506   0.00218507947014    0.997837871198      -0.0588052831615    0.997837871198      -0.0588052831615    0.000502939499506   0.00218507947014    
6000000000.0        0.00050732841432    0.00222154067997    0.997777467313      -0.0598049023559    0.997777467313      -0.0598049023559    0.000507328414321   0.00222154067997    
6100000000.0        0.000511790930493   0.00225799450867    0.997716050467      -0.0608046261927    0.997716050467      -0.0608046261927    0.000511790930493   0.00225799450867    
6200000000.0        0.000516327164389   0.00229444183318    0.997653620118      -0.0618044545777    0.997653620118      -0.0618044545777    0.000516327164389   0.00229444183318    
6300000000.0        0.000520937234459   0.00233088354312    0.997590175723      -0.0628043873993    0.997590175723      -0.0628043873993    0.000520937234459   0.00233088354312    
6400000000.0        0.000525621261447   0.00236732054047    0.997525716737      -0.0638044245286    0.997525716737      -0.0638044245286    0.000525621261447   0.00236732054047    
6500000000.0        0.000530379368591   0.00240375373922    0.99746024262       -0.0648045658199    0.99746024262       -0.0648045658199    0.000530379368591   0.00240375373922    
6600000000.0        0.000535211681799   0.00244018406503    0.99739375283       -0.0658048111111    0.99739375283       -0.0658048111111    0.000535211681799   0.00244018406503    
6700000000.0        0.000540118329825   0.00247661245499    0.997326246826      -0.0668051602244    0.997326246826      -0.0668051602244    0.000540118329825   0.00247661245499    
6800000000.0        0.000545099444427   0.00251303985726    0.997257724067      -0.0678056129664    0.997257724067      -0.0678056129664    0.000545099444426   0.00251303985726    
6900000000.0        0.000550155160524   0.00254946723082    0.997188184011      -0.0688061691287    0.997188184011      -0.0688061691287    0.000550155160524   0.00254946723082    
7000000000.0        0.000555285616335   0.00258589554516    0.997117626119      -0.0698068284881    0.997117626119      -0.0698068284881    0.000555285616335   0.00258589554516    
7100000000.0        0.000560490953514   0.00262232578003    0.997046049849      -0.0708075908075    0.997046049849      -0.0708075908075    0.000560490953514   0.00262232578003    
7200000000.0        0.000565771317279   0.00265875892515    0.996973454661      -0.0718084558355    0.996973454661      -0.0718084558355    0.000565771317279   0.00265875892515    
7300000000.0        0.000571126856528   0.00269519597998    0.996899840015      -0.0728094233073    0.996899840015      -0.0728094233073    0.000571126856528   0.00269519597998    
7400000000.0        0.000576557723956   0.00273163795344    0.99682520537       -0.0738104929451    0.99682520537       -0.0738104929451    0.000576557723956   0.00273163795344    
7500000000.0        0.000582064076165   0.00276808586368    0.996749550184      -0.0748116644579    0.996749550184      -0.0748116644579    0.000582064076165   0.00276808586368    
7600000000.0        0.000587646073756   0.00280454073784    0.996672873918      -0.0758129375423    0.996672873918      -0.0758129375423    0.000587646073756   0.00280454073784    
7700000000.0        0.000593303881436   0.00284100361179    0.996595176029      -0.0768143118828    0.996595176029      -0.0768143118828    0.000593303881436   0.00284100361179    
7800000000.0        0.000599037668104   0.00287747552995    0.996516455976      -0.0778157871516    0.996516455976      -0.0778157871516    0.000599037668104   0.00287747552995    
7900000000.0        0.00060484760694    0.00291395754505    0.996436713218      -0.0788173630096    0.996436713218      -0.0788173630096    0.000604847606941   0.00291395754505    
8000000000.0        0.000610733875486   0.00295045071789    0.996355947213      -0.0798190391062    0.996355947213      -0.0798190391062    0.000610733875487   0.00295045071789    
8100000000.0        0.000616696655727   0.00298695611716    0.996274157418      -0.0808208150796    0.996274157418      -0.0808208150796    0.000616696655727   0.00298695611716    
8200000000.0        0.000622736134159   0.00302347481922    0.996191343291      -0.0818226905573    0.996191343291      -0.0818226905573    0.000622736134159   0.00302347481922    
8300000000.0        0.000628852501873   0.00306000790791    0.996107504288      -0.0828246651561    0.996107504288      -0.0828246651561    0.000628852501873   0.00306000790791    
8400000000.0        0.00063504595461    0.00309655647435    0.996022639867      -0.0838267384826    0.996022639867      -0.0838267384826    0.00063504595461    0.00309655647435    
8500000000.0        0.000641316692836   0.00313312161674    0.995936749484      -0.0848289101332    0.995936749484      -0.0848289101332    0.000641316692835   0.00313312161674    
8600000000.0        0.000647664921794   0.00316970444018    0.995849832595      -0.0858311796944    0.995849832595      -0.0858311796944    0.000647664921794   0.00316970444018    
8700000000.0        0.000654090851575   0.00320630605651    0.995761888655      -0.0868335467432    0.995761888655      -0.0868335467432    0.000654090851575   0.00320630605651    
8800000000.0        0.000660594697164   0.0032429275841     0.99567291712       -0.0878360108469    0.99567291712       -0.0878360108469    0.000660594697164   0.0032429275841     
8900000000.0        0.000667176678498   0.00327957014769    0.995582917444      -0.0888385715638    0.995582917444      -0.0888385715638    0.000667176678498   0.00327957014769    
9000000000.0        0.000673837020519   0.00331623487822    0.995491889081      -0.0898412284431    0.995491889081      -0.0898412284431    0.000673837020519   0.00331623487822    
9100000000.0        0.000680575953226   0.00335292291267    0.995399831485      -0.0908439810253    0.995399831485      -0.0908439810253    0.000680575953226   0.00335292291267    
9200000000.0        0.000687393711715   0.0033896353939     0.99530674411       -0.091846828842     0.99530674411       -0.091846828842     0.000687393711715   0.0033896353939     
9300000000.0        0.000694290536233   0.00342637347048    0.995212626408      -0.0928497714166    0.995212626408      -0.0928497714166    0.000694290536233   0.00342637347048    
9400000000.0        0.000701266672208   0.00346313829652    0.995117477832      -0.093852808264     0.995117477832      -0.093852808264     0.000701266672208   0.00346313829652    
9500000000.0        0.000708322370313   0.00349993103159    0.995021297834      -0.0948559388913    0.995021297834      -0.0948559388913    0.000708322370313   0.00349993103159    
9600000000.0        0.000715457886486   0.00353675284047    0.994924085866      -0.0958591627974    0.994924085866      -0.0958591627974    0.000715457886487   0.00353675284047    
9700000000.0        0.000722673481979   0.00357360489309    0.994825841378      -0.0968624794735    0.994825841378      -0.0968624794735    0.000722673481979   0.00357360489309    
9800000000.0        0.000729969423391   0.00361048836433    0.99472656382       -0.0978658884032    0.99472656382       -0.0978658884032    0.000729969423391   0.00361048836433    
9900000000.0        0.000737345982705   0.00364740443392    0.994626252644      -0.0988693890627    0.994626252644      -0.0988693890627    0.000737345982705   0.00364740443392    
10000000000.0       0.000744803437324   0.0036843542863     0.994524907299      -0.0998729809209    0.994524907299      -0.0998729809209    0.000744803437324   0.0036843542863     
