# Hz S RI R 50.00 
100000000.0         0.000614674837814   0.000387155307385   0.99938356259       -0.00100386737834   0.99938356259       -0.00100386737834   0.000614674837814   0.000387155307385   
200000000.0         0.000619667619755   0.000774298269659   0.999377426791      -0.00200773512585   0.999377426791      -0.00200773512585   0.000619667619755   0.000774298269659   
300000000.0         0.000624355075228   0.00116143205157    0.999371215824      -0.00301161317357   0.999371215824      -0.00301161317357   0.000624355075228   0.00116143205157    
400000000.0         0.000629270571453   0.00154855686524    0.999364396267      -0.00401550686269   0.999364396267      -0.00401550686269   0.000629270571454   0.00154855686524    
500000000.0         0.00063461940949    0.00193567226709    0.99935676275       -0.00501942004052   0.99935676275       -0.00501942004052   0.00063461940949    0.00193567226709    
600000000.0         0.000640506241807   0.00232277754437    0.999348210546      -0.00602335572964   0.999348210546      -0.00602335572964   0.000640506241807   0.00232277754437    
700000000.0         0.000646992863759   0.0027098718528     0.999338677778      -0.00702731641064   0.999338677778      -0.00702731641064   0.000646992863758   0.0027098718528     
800000000.0         0.000654119298256   0.0030969542793     0.999328124332      -0.00803130417266   0.999328124332      -0.00803130417266   0.000654119298256   0.0030969542793     
900000000.0         0.000661913180521   0.00348402387524    0.999316522479      -0.00903532080451   0.999316522479      -0.00903532080451   0.00066191318052    0.00348402387524    
1000000000.0        0.000670394513363   0.00387107967549    0.999303852114      -0.0100393678549    0.999303852114      -0.0100393678549    0.000670394513363   0.00387107967549    
1100000000.0        0.000679578309651   0.00425812070981    0.99929009812       -0.011043446675     0.99929009812       -0.011043446675     0.000679578309651   0.00425812070981    
1200000000.0        0.000689476166318   0.00464514601072    0.999275248788      -0.0120475584491    0.999275248788      -0.0120475584491    0.000689476166318   0.00464514601072    
1300000000.0        0.000700097254293   0.00503215461812    0.999259294833      -0.0130517042188    0.999259294833      -0.0130517042188    0.000700097254293   0.00503215461812    
1400000000.0        0.000711448968948   0.00541914558271    0.99924222874       -0.0140558849007    0.99924222874       -0.0140558849007    0.000711448968948   0.00541914558271    
1500000000.0        0.000723537373168   0.00580611796823    0.999224044324      -0.0150601013023    0.999224044324      -0.0150601013023    0.000723537373168   0.00580611796823    
1600000000.0        0.000736367508404   0.006193070853      0.999204736416      -0.016064354133     0.999204736416      -0.016064354133     0.000736367508405   0.006193070853      
1700000000.0        0.000749943618786   0.00658000333087    0.999184300644      -0.017068644015     0.999184300644      -0.017068644015     0.000749943618786   0.00658000333087    
1800000000.0        0.000764269316152   0.00696691451196    0.999162733262      -0.0180729714911    0.999162733262      -0.0180729714911    0.000764269316152   0.00696691451196    
1900000000.0        0.000779347704005   0.00735380352307    0.999140031031      -0.0190773370324    0.999140031031      -0.0190773370324    0.000779347704005   0.00735380352307    
2000000000.0        0.000795181472174   0.0077406695079     0.999116191125      -0.0200817410441    0.999116191125      -0.0200817410441    0.000795181472174   0.0077406695079     
2100000000.0        0.000811772970216   0.00812751162713    0.999091211052      -0.0210861838712    0.999091211052      -0.0210861838712    0.000811772970216   0.00812751162713    
2200000000.0        0.000829124265106   0.00851432905839    0.999065088603      -0.0220906658028    0.999065088603      -0.0220906658028    0.000829124265106   0.00851432905839    
2300000000.0        0.000847237187115   0.00890112099624    0.999037821802      -0.0230951870765    0.999037821802      -0.0230951870765    0.000847237187115   0.00890112099624    
2400000000.0        0.000866113366722   0.00928788665197    0.999009408872      -0.0240997478822    0.999009408872      -0.0240997478822    0.000866113366722   0.00928788665197    
2500000000.0        0.000885754264572   0.0096746252534     0.998979848203      -0.0251043483651    0.998979848203      -0.0251043483651    0.000885754264572   0.0096746252534     
2600000000.0        0.000906161196047   0.0100613360447     0.998949138329      -0.0261089886285    0.998949138329      -0.0261089886285    0.000906161196047   0.0100613360447     
2700000000.0        0.000927335351559   0.0104480182862     0.998917277908      -0.0271136687371    0.998917277908      -0.0271136687371    0.00092733535156    0.0104480182862     
2800000000.0        0.000949277813456   0.0108346712539     0.998884265703      -0.0281183887186    0.998884265703      -0.0281183887186    0.000949277813457   0.0108346712539     
2900000000.0        0.00097198957019    0.0112212942396     0.998850100571      -0.0291231485666    0.998850100571      -0.0291231485666    0.00097198957019    0.0112212942396     
3000000000.0        0.000995471528288   0.0116078865501     0.998814781448      -0.0301279482419    0.998814781448      -0.0301279482419    0.000995471528288   0.0116078865501     
3100000000.0        0.00101972452251    0.0119944475074     0.998778307344      -0.0311327876751    0.998778307344      -0.0311327876751    0.00101972452251    0.0119944475074     
3200000000.0        0.00104474932451    0.0123809764482     0.998740677327      -0.0321376667674    0.998740677327      -0.0321376667674    0.00104474932451    0.0123809764482     
3300000000.0        0.00107054665032    0.0127674727234     0.998701890521      -0.0331425853928    0.998701890521      -0.0331425853928    0.00107054665032    0.0127674727234     
3400000000.0        0.00109711716675    0.0131539356984     0.998661946101      -0.0341475433994    0.998661946101      -0.0341475433994    0.00109711716675    0.0131539356984     
3500000000.0        0.00112446149694    0.013540364752      0.99862084328       -0.0351525406104    0.99862084328       -0.0351525406104    0.00112446149694    0.013540364752      
3600000000.0        0.00115258022525    0.0139267592769     0.998578581314      -0.0361575768256    0.998578581314      -0.0361575768256    0.00115258022525    0.0139267592769     
3700000000.0        0.0011814739015     0.0143131186791     0.998535159489      -0.0371626518225    0.998535159489      -0.0371626518225    0.0011814739015     0.0143131186791     
3800000000.0        0.00121114304463    0.0146994423772     0.998490577123      -0.0381677653573    0.998490577123      -0.0381677653573    0.00121114304463    0.0146994423772     
3900000000.0        0.00124158814605    0.0150857298029     0.998444833562      -0.0391729171658    0.998444833562      -0.0391729171658    0.00124158814605    0.0150857298029     
4000000000.0        0.00127280967248    0.0154719804003     0.998397928175      -0.0401781069646    0.998397928175      -0.0401781069646    0.00127280967248    0.0154719804003     
4100000000.0        0.00130480806855    0.0158581936257     0.998349860353      -0.0411833344517    0.998349860353      -0.0411833344517    0.00130480806855    0.0158581936257     
4200000000.0        0.00133758375908    0.0162443689471     0.998300629507      -0.0421885993073    0.998300629507      -0.0421885993073    0.00133758375908    0.0162443689471     
4300000000.0        0.0013711371511     0.0166305058445     0.998250235064      -0.0431939011947    0.998250235064      -0.0431939011947    0.0013711371511     0.0166305058445     
4400000000.0        0.00140546863568    0.0170166038091     0.998198676469      -0.0441992397611    0.998198676469      -0.0441992397611    0.00140546863568    0.0170166038091     
4500000000.0        0.00144057858958    0.0174026623435     0.99814595318       -0.0452046146378    0.99814595318       -0.0452046146378    0.00144057858958    0.0174026623435     
4600000000.0        0.00147646737672    0.0177886809611     0.998092064669      -0.0462100254414    0.998092064669      -0.0462100254414    0.00147646737672    0.0177886809611     
4700000000.0        0.00151313534948    0.0181746591862     0.998037010416      -0.0472154717741    0.998037010416      -0.0472154717741    0.00151313534948    0.0181746591862     
4800000000.0        0.00155058284993    0.0185605965533     0.997980789917      -0.0482209532243    0.997980789917      -0.0482209532243    0.00155058284993    0.0185605965533     
4900000000.0        0.0015888102109     0.0189464926074     0.997923402672      -0.0492264693671    0.997923402672      -0.0492264693671    0.0015888102109     0.0189464926074     
5000000000.0        0.001627817757      0.0193323469036     0.997864848193      -0.0502320197649    0.997864848193      -0.0502320197649    0.001627817757      0.0193323469036     
5100000000.0        0.00166760580544    0.0197181590066     0.997805125998      -0.0512376039677    0.997805125998      -0.0512376039677    0.00166760580544    0.0197181590066     
5200000000.0        0.00170817466695    0.020103928491      0.997744235612      -0.0522432215139    0.997744235612      -0.0522432215139    0.00170817466695    0.020103928491      
5300000000.0        0.00174952464645    0.0204896549407     0.997682176566      -0.0532488719302    0.997682176566      -0.0532488719302    0.00174952464645    0.0204896549407     
5400000000.0        0.00179165604378    0.0208753379487     0.997618948398      -0.0542545547325    0.997618948398      -0.0542545547325    0.00179165604378    0.0208753379487     
5500000000.0        0.00183456915429    0.0212609771173     0.997554550648      -0.055260269426     0.997554550648      -0.055260269426     0.00183456915429    0.0212609771173     
5600000000.0        0.00187826426946    0.0216465720575     0.997488982863      -0.0562660155056    0.997488982863      -0.0562660155056    0.00187826426946    0.0216465720575     
5700000000.0        0.00192274167742    0.0220321223889     0.997422244592      -0.0572717924564    0.997422244592      -0.0572717924564    0.00192274167742    0.0220321223889     
5800000000.0        0.0019680016634     0.0224176277398     0.997354335389      -0.0582775997539    0.997354335389      -0.0582775997539    0.0019680016634     0.0224176277398     
5900000000.0        0.00201404451023    0.0228030877464     0.997285254808      -0.0592834368642    0.997285254808      -0.0592834368642    0.00201404451023    0.0228030877464     
6000000000.0        0.00206087049875    0.0231885020535     0.99721500241       -0.0602893032446    0.99721500241       -0.0602893032446    0.00206087049875    0.0231885020535     
6100000000.0        0.00210847990818    0.0235738703134     0.997143577755      -0.0612951983435    0.997143577755      -0.0612951983435    0.00210847990818    0.0235738703134     
6200000000.0        0.00215687301648    0.0239591921866     0.997070980406      -0.0623011216012    0.997070980406      -0.0623011216012    0.00215687301648    0.0239591921866     
6300000000.0        0.0022060501007     0.0243444673408     0.996997209926      -0.0633070724495    0.996997209926      -0.0633070724495    0.0022060501007     0.0243444673408     
6400000000.0        0.0022560114373     0.0247296954514     0.996922265883      -0.0643130503124    0.996922265883      -0.0643130503124    0.0022560114373     0.0247296954514     
6500000000.0        0.00230675730238    0.0251148762012     0.996846147843      -0.0653190546064    0.996846147843      -0.0653190546064    0.00230675730238    0.0251148762012     
6600000000.0        0.00235828797203    0.0255000092798     0.996768855373      -0.0663250847403    0.996768855373      -0.0663250847403    0.00235828797203    0.0255000092798     
6700000000.0        0.00241060372253    0.025885094384      0.996690388041      -0.0673311401156    0.996690388041      -0.0673311401156    0.00241060372253    0.025885094384      
6800000000.0        0.0024637048306     0.0262701312175     0.996610745418      -0.068337220127     0.996610745418      -0.068337220127     0.0024637048306     0.0262701312175     
6900000000.0        0.00251759157361    0.0266551194907     0.99652992707       -0.0693433241622    0.99652992707       -0.0693433241622    0.00251759157361    0.0266551194907     
7000000000.0        0.00257226422981    0.0270400589202     0.996447932568      -0.0703494516022    0.996447932568      -0.0703494516022    0.00257226422981    0.0270400589202     
7100000000.0        0.00262772307851    0.0274249492295     0.996364761479      -0.0713556018215    0.996364761479      -0.0713556018215    0.00262772307851    0.0274249492295     
7200000000.0        0.00268396840025    0.0278097901481     0.996280413373      -0.0723617741883    0.996280413373      -0.0723617741883    0.00268396840025    0.0278097901481     
7300000000.0        0.002741000477      0.0281945814117     0.996194887818      -0.0733679680646    0.996194887818      -0.0733679680646    0.002741000477      0.0281945814117     
7400000000.0        0.00279881959229    0.0285793227618     0.996108184381      -0.0743741828064    0.996108184381      -0.0743741828064    0.00279881959229    0.0285793227618     
7500000000.0        0.00285742603137    0.0289640139462     0.996020302628      -0.0753804177638    0.996020302628      -0.0753804177638    0.00285742603137    0.0289640139462     
7600000000.0        0.0029168200814     0.0293486547181     0.995931242127      -0.0763866722812    0.995931242127      -0.0763866722812    0.0029168200814     0.0293486547181     
7700000000.0        0.0029770020315     0.0297332448365     0.995841002441      -0.0773929456972    0.995841002441      -0.0773929456972    0.0029770020315     0.0297332448365     
7800000000.0        0.00303797217294    0.0301177840656     0.995749583135      -0.0783992373451    0.995749583135      -0.0783992373451    0.00303797217294    0.0301177840656     
7900000000.0        0.00309973079925    0.0305022721754     0.995656983772      -0.0794055465528    0.995656983772      -0.0794055465528    0.00309973079925    0.0305022721754     
8000000000.0        0.00316227820632    0.0308867089409     0.995563203913      -0.0804118726429    0.995563203913      -0.0804118726429    0.00316227820632    0.0308867089409     
8100000000.0        0.00322561469252    0.0312710941422     0.995468243119      -0.0814182149328    0.995468243119      -0.0814182149328    0.00322561469252    0.0312710941422     
8200000000.0        0.0032897405588     0.0316554275645     0.995372100949      -0.0824245727349    0.995372100949      -0.0824245727349    0.0032897405588     0.0316554275645     
8300000000.0        0.00335465610878    0.0320397089979     0.995274776959      -0.0834309453567    0.995274776959      -0.0834309453567    0.00335465610878    0.0320397089979     
8400000000.0        0.00342036164886    0.0324239382374     0.995176270707      -0.0844373321007    0.995176270707      -0.0844373321007    0.00342036164886    0.0324239382374     
8500000000.0        0.00348685748829    0.0328081150823     0.995076581746      -0.0854437322647    0.995076581746      -0.0854437322647    0.00348685748829    0.0328081150823     
8600000000.0        0.00355414393925    0.0331922393369     0.994975709629      -0.0864501451419    0.994975709629      -0.0864501451419    0.00355414393925    0.0331922393369     
8700000000.0        0.00362222131698    0.0335763108097     0.994873653907      -0.0874565700206    0.994873653907      -0.0874565700206    0.00362222131698    0.0335763108097     
8800000000.0        0.00369108993976    0.0339603293136     0.994770414128      -0.088463006185     0.994770414128      -0.088463006185     0.00369108993976    0.0339603293136     
8900000000.0        0.00376075012908    0.0343442946659     0.994665989841      -0.0894694529143    0.994665989841      -0.0894694529143    0.00376075012908    0.0343442946659     
9000000000.0        0.00383120220965    0.0347282066878     0.99456038059       -0.0904759094838    0.99456038059       -0.0904759094838    0.00383120220965    0.0347282066878     
9100000000.0        0.00390244650948    0.0351120652048     0.994453585919      -0.0914823751641    0.994453585919      -0.0914823751641    0.00390244650948    0.0351120652048     
9200000000.0        0.00397448335996    0.035495870046      0.994345605368      -0.0924888492217    0.994345605368      -0.0924888492217    0.00397448335996    0.035495870046      
9300000000.0        0.00404731309588    0.0358796210447     0.994236438478      -0.0934953309188    0.994236438478      -0.0934953309188    0.00404731309588    0.0358796210447     
9400000000.0        0.00412093605554    0.0362633180376     0.994126084786      -0.0945018195134    0.994126084786      -0.0945018195134    0.00412093605554    0.0362633180376     
9500000000.0        0.00419535258075    0.0366469608654     0.994014543827      -0.0955083142596    0.994014543827      -0.0955083142596    0.00419535258075    0.0366469608654     
9600000000.0        0.00427056301693    0.0370305493722     0.993901815133      -0.0965148144071    0.993901815133      -0.0965148144071    0.00427056301693    0.0370305493722     
9700000000.0        0.00434656771312    0.0374140834053     0.993787898236      -0.0975213192018    0.993787898236      -0.0975213192018    0.00434656771312    0.0374140834053     
9800000000.0        0.00442336702205    0.0377975628157     0.993672792664      -0.0985278278855    0.993672792664      -0.0985278278855    0.00442336702205    0.0377975628157     
9900000000.0        0.00450096130018    0.0381809874575     0.993556497943      -0.0995343396961    0.993556497943      -0.0995343396961    0.00450096130018    0.0381809874575     
10000000000.0       0.00457935090775    0.0385643571881     0.993439013597      -0.100540853867     0.993439013597      -0.100540853867     0.00457935090775    0.0385643571881     
