# Hz S RI R 50.00 
100000000.0         -0.000210640946209  -0.0180666716156    0.99950824637       -0.0184022065024    0.99950824637       -0.0184022065024    -0.000210640946209  -0.0180666716156    
200000000.0         -0.00122416007909   -0.0360957610705    0.998492645172      -0.0367668404478    0.998492645172      -0.0367668404478    -0.00122416007909   -0.0360957610705    
300000000.0         -0.00289767713833   -0.0540512623659    0.996817418222      -0.0550579029209    0.996817418222      -0.0550579029209    -0.00289767713833   -0.0540512623659    
400000000.0         -0.00522443645707   -0.0718976572627    0.99448907916       -0.0732398814099    0.99448907916       -0.0732398814099    -0.00522443645707   -0.0718976572627    
500000000.0         -0.00819523876313   -0.0896001429446    0.991516734438      -0.0912779782365    0.991516734438      -0.0912779782365    -0.00819523876313   -0.0896001429446    
600000000.0         -0.0117984786199    -0.107124850782     0.987911942338      -0.109138329543     0.987911942338      -0.109138329543     -0.0117984786199    -0.107124850782     
700000000.0         -0.0160202427664    -0.124439052712     0.983688588366      -0.126788211777     0.983688588366      -0.126788211777     -0.0160202427664    -0.124439052712     
800000000.0         -0.0208444371128    -0.141511352563     0.978862748688      -0.144196233081     0.978862748688      -0.144196233081     -0.0208444371128    -0.141511352563     
900000000.0         -0.0262529344163    -0.15831186007      0.973452538205      -0.161332507344     0.973452538205      -0.161332507344     -0.0262529344163    -0.15831186007      
1000000000.0        -0.0322257384902    -0.174812345738     0.967477944187      -0.178168809095     0.967477944187      -0.178168809095     -0.0322257384902    -0.174812345738     
1100000000.0        -0.0387411616489    -0.19098637511      0.960960647643      -0.194678707788     0.960960647643      -0.194678707788     -0.0387411616489    -0.19098637511      
1200000000.0        -0.0457760123092    -0.206809421448     0.953923835003      -0.210837680502     0.953923835003      -0.210837680502     -0.0457760123092    -0.206809421448     
1300000000.0        -0.0533057897534    -0.222258956232     0.946392002911      -0.226623202449     0.946392002911      -0.226623202449     -0.0533057897534    -0.222258956232     
1400000000.0        -0.0613048831327    -0.237314517331     0.938390758932      -0.242014815151     0.938390758932      -0.242014815151     -0.0613048831327    -0.237314517331     
1500000000.0        -0.0697467719002    -0.251957755049     0.929946620915      -0.256994172505     0.929946620915      -0.256994172505     -0.0697467719002    -0.251957755049     
1600000000.0        -0.0786042250158    -0.266172456676     0.921086817655      -0.271545065327     0.921086817655      -0.271545065327     -0.0786042250158    -0.266172456676     
1700000000.0        -0.0878494964597    -0.279944550434     0.911839093274      -0.285653425311     0.911839093274      -0.285653425311     -0.0878494964597    -0.279944550434     
1800000000.0        -0.0974545148208    -0.293262090034     0.902231517562      -0.299307309588     0.902231517562      -0.299307309588     -0.0974545148208    -0.293262090034     
1900000000.0        -0.107391064987     -0.306115221285     0.892292304228      -0.312496867342     0.892292304228      -0.312496867342     -0.107391064987     -0.306115221285     
2000000000.0        -0.117630960242     -0.318496132378     0.882049638769      -0.325214290093     0.882049638769      -0.325214290093     -0.117630960242     -0.318496132378     
2100000000.0        -0.12814620336      -0.330398989594     0.871531517331      -0.337453747412     0.871531517331      -0.337453747412     -0.12814620336      -0.330398989594     
2200000000.0        -0.138909135585     -0.341819860304     0.860765597714      -0.349211309918     0.860765597714      -0.349211309918     -0.138909135585     -0.341819860304     
2300000000.0        -0.149892572674     -0.352756625129     0.849779063306      -0.36048486145      0.849779063306      -0.36048486145      -0.149892572674     -0.352756625129     
2400000000.0        -0.161069927432     -0.363208881168     0.838598500526      -0.371274002286     0.838598500526      -0.371274002286     -0.161069927432     -0.363208881168     
2500000000.0        -0.172415318473     -0.373177838133     0.827249790061      -0.381579945287     0.827249790061      -0.381579945287     -0.172415318473     -0.373177838133     
2600000000.0        -0.183903665117     -0.38266620918      0.815758011947      -0.391405406731     0.815758011947      -0.391405406731     -0.183903665117     -0.38266620918      
2700000000.0        -0.195510768607     -0.391678098127     0.804147364348      -0.400754493523     0.804147364348      -0.400754493523     -0.195510768607     -0.391678098127     
2800000000.0        -0.207213379971     -0.400218884613     0.792441095689      -0.409632588369     0.792441095689      -0.409632588369     -0.207213379971     -0.400218884613     
2900000000.0        -0.218989255021     -0.40829510866      0.780661449647      -0.418046234327     0.780661449647      -0.418046234327     -0.218989255021     -0.40829510866      
3000000000.0        -0.230817197136     -0.415914355902     0.768829622363      -0.426003020045     0.768829622363      -0.426003020045     -0.230817197136     -0.415914355902     
3100000000.0        -0.242677088553     -0.423085144648     0.756965731151      -0.433511466822     0.756965731151      -0.433511466822     -0.242677088553     -0.423085144648     
3200000000.0        -0.254549910961     -0.429816815753     0.745088793893      -0.440580918482     0.745088793893      -0.440580918482     -0.254549910961     -0.429816815753     
3300000000.0        -0.266417756292     -0.436119426154     0.733216718252      -0.447221434907     0.733216718252      -0.447221434907     -0.266417756292     -0.436119426154     
3400000000.0        -0.278263828579     -0.442003646744     0.721366299805      -0.453443689918     0.721366299805      -0.453443689918     -0.278263828579     -0.442003646744     
3500000000.0        -0.290072437803     -0.447480665167     0.7095532282        -0.459258874064     0.7095532282        -0.459258874064     -0.290072437803     -0.447480665167     
3600000000.0        -0.301828986625     -0.452562093937     0.697792100416      -0.464678602748     0.697792100416      -0.464678602748     -0.301828986625     -0.452562093937     
3700000000.0        -0.313519950905     -0.457259884204     0.686096440246      -0.469714829989     0.686096440246      -0.469714829989     -0.313519950905     -0.457259884204     
3800000000.0        -0.325132854842     -0.461586245363     0.674478723154      -0.474379768036     0.674478723154      -0.474379768036     -0.325132854842     -0.461586245363     
3900000000.0        -0.336656241572     -0.465553570601     0.662950405676      -0.478685812913     0.662950405676      -0.478685812913     -0.336656241572     -0.465553570601     
4000000000.0        -0.348079639985     -0.469174368419     0.6515219586        -0.48264547594      0.6515219586        -0.48264547594      -0.348079639985     -0.469174368419     
4100000000.0        -0.359393528477     -0.472461200046     0.640202903218      -0.486271321151     0.640202903218      -0.486271321151     -0.359393528477     -0.472461200046     
4200000000.0        -0.370589296305     -0.475426622657     0.629001849963      -0.489575908514     0.629001849963      -0.489575908514     -0.370589296305     -0.475426622657     
4300000000.0        -0.381659203149     -0.478083138208     0.617926538851      -0.492571742759     0.617926538851      -0.492571742759     -0.381659203149     -0.478083138208     
4400000000.0        -0.392596337428     -0.48044314768      0.606983881165      -0.495271227632     0.606983881165      -0.495271227632     -0.392596337428     -0.48044314768      
4500000000.0        -0.403394573851     -0.4825189105       0.596180001897      -0.497686625309     0.596180001897      -0.497686625309     -0.403394573851     -0.4825189105       
4600000000.0        -0.414048530659     -0.484322508857     0.585520282514      -0.499830020717     0.585520282514      -0.499830020717     -0.414048530659     -0.484322508857     
4700000000.0        -0.424553526917     -0.485865816636     0.575009403661      -0.501713290465     0.575009403661      -0.501713290465     -0.424553526917     -0.485865816636     
4800000000.0        -0.434905540191     -0.487160472678     0.56465138748       -0.50334807611      0.56465138748       -0.50334807611      -0.434905540191     -0.487160472678     
4900000000.0        -0.445101164901     -0.488217858058     0.554449639262      -0.504745761427     0.554449639262      -0.504745761427     -0.445101164901     -0.488217858058     
5000000000.0        -0.45513757158      -0.48904907708      0.544406988189      -0.505917453414     0.544406988189      -0.505917453414     -0.45513757158      -0.48904907708      
5100000000.0        -0.465012467231     -0.489664941698     0.534525726969      -0.506873966706     0.534525726969      -0.506873966706     -0.465012467231     -0.489664941698     
5200000000.0        -0.474724056952     -0.490075959065     0.524807650218      -0.507625811127     0.524807650218      -0.507625811127     -0.474724056952     -0.490075959065     
5300000000.0        -0.48427100695      -0.490292321929     0.515254091441      -0.508183182088     0.515254091441      -0.508183182088     -0.48427100695      -0.490292321929     
5400000000.0        -0.493652409038     -0.490323901604     0.505865958539      -0.508555953556     0.505865958539      -0.508555953556     -0.493652409038     -0.490323901604     
5500000000.0        -0.502867746689     -0.490180243262     0.49664376775       -0.508753673347     0.49664376775       -0.508753673347     -0.502867746689     -0.490180243262     
5600000000.0        -0.511916862685     -0.489870563298     0.487587676005      -0.50878556049      0.487587676005      -0.50878556049      -0.511916862685     -0.489870563298     
5700000000.0        -0.520799928395     -0.489403748534     0.478697511643      -0.508660504437     0.478697511643      -0.508660504437     -0.520799928395     -0.489403748534     
5800000000.0        -0.529517414689     -0.488788357054     0.469972803503      -0.50838706589      0.469972803503      -0.50838706589      -0.529517414689     -0.488788357054     
5900000000.0        -0.538070064472     -0.488032620473     0.46141280839       -0.507973479077     0.46141280839       -0.507973479077     -0.538070064472     -0.488032620473     
6000000000.0        -0.546458866821     -0.487144447437     0.45301653693       -0.50742765525      0.45301653693       -0.50742765525      -0.546458866821     -0.487144447437     
6100000000.0        -0.55468503271      -0.48613142821      0.444782777856      -0.50675718727      0.444782777856      -0.50675718727      -0.55468503271      -0.48613142821      
6200000000.0        -0.562749972252     -0.485000840168     0.436710120756      -0.505969355105     0.436710120756      -0.505969355105     -0.562749972252     -0.485000840168     
6300000000.0        -0.570655273446     -0.483759654073     0.428796977332      -0.505071132103     0.428796977332      -0.505071132103     -0.570655273446     -0.483759654073     
6400000000.0        -0.57840268235      -0.482414540991     0.421041601223      -0.504069191909     0.421041601223      -0.504069191909     -0.57840268235      -0.482414540991     
6500000000.0        -0.58599408464      -0.480971879741     0.413442106451      -0.502969915917     0.413442106451      -0.502969915917     -0.58599408464      -0.480971879741     
6600000000.0        -0.593431488492     -0.479437764764     0.405996484534      -0.501779401135     0.405996484534      -0.501779401135     -0.593431488492     -0.479437764764     
6700000000.0        -0.600717008721     -0.477818014329     0.398702620348      -0.500503468396     0.398702620348      -0.500503468396     -0.600717008721     -0.477818014329     
6800000000.0        -0.607852852122     -0.476118178974     0.391558306786      -0.499147670797     0.391558306786      -0.499147670797     -0.607852852122     -0.476118178974     
6900000000.0        -0.614841303953     -0.474343550132     0.384561258279      -0.497717302322     0.384561258279      -0.497717302322     -0.614841303953     -0.474343550132     
7000000000.0        -0.621684715481     -0.472499168849     0.377709123241      -0.49621740657      0.377709123241      -0.49621740657      -0.621684715481     -0.472499168849     
7100000000.0        -0.628385492555     -0.470589834561     0.370999495506      -0.494652785519     0.370999495506      -0.494652785519     -0.628385492555     -0.470589834561     
7200000000.0        -0.634946085125     -0.46862011386      0.364429924802      -0.493028008305     0.364429924802      -0.493028008305     -0.634946085125     -0.46862011386      
7300000000.0        -0.641368977658     -0.46659434922      0.357997926337      -0.491347419938     0.357997926337      -0.491347419938     -0.641368977658     -0.46659434922      
7400000000.0        -0.647656680395     -0.464516667636     0.351700989544      -0.489615149948     0.351700989544      -0.489615149948     -0.647656680395     -0.464516667636     
7500000000.0        -0.65381172139      -0.462390989147     0.345536586038      -0.487835120904     0.345536586038      -0.487835120904     -0.65381172139      -0.462390989147     
7600000000.0        -0.659836639281     -0.460221035213     0.339502176848      -0.486011056796     0.339502176848      -0.486011056796     -0.659836639281     -0.460221035213     
7700000000.0        -0.665733976742     -0.458010336933     0.333595218962      -0.484146491246     0.333595218962      -0.484146491246     -0.665733976742     -0.458010336933     
7800000000.0        -0.671506274571     -0.455762243069     0.327813171244      -0.48224477554      0.327813171244      -0.48224477554      -0.671506274571     -0.455762243069     
7900000000.0        -0.677156066365     -0.453479927878     0.322153499754      -0.480309086456     0.322153499754      -0.480309086456     -0.677156066365     -0.453479927878     
8000000000.0        -0.682685873737     -0.451166398725     0.316613682534      -0.478342433876     0.316613682534      -0.478342433876     -0.682685873737     -0.451166398725     
8100000000.0        -0.68809820204      -0.448824503477     0.31119121388       -0.476347668183     0.31119121388       -0.476347668183     -0.68809820204      -0.448824503477     
8200000000.0        -0.693395536559     -0.446456937669     0.305883608156      -0.47432748743      0.305883608156      -0.47432748743      -0.693395536559     -0.446456937669     
8300000000.0        -0.698580339128     -0.444066251438     0.300688403171      -0.472284444263     0.300688403171      -0.472284444263     -0.698580339128     -0.444066251438     
8400000000.0        -0.703655045146     -0.441654856215     0.29560316317       -0.470220952628     0.29560316317       -0.470220952628     -0.703655045146     -0.441654856215     
8500000000.0        -0.708622060953     -0.439225031189     0.290625481446      -0.468139294224     0.290625481446      -0.468139294224     -0.708622060953     -0.439225031189     
8600000000.0        -0.713483761548     -0.436778929525     0.285752982638      -0.466041624725     0.285752982638      -0.466041624725     -0.713483761548     -0.436778929525     
8700000000.0        -0.718242488602     -0.434318584352     0.280983324703      -0.46392997977      0.280983324703      -0.46392997977      -0.718242488602     -0.434318584352     
8800000000.0        -0.722900548763     -0.431845914519     0.276314200621      -0.461806280717     0.276314200621      -0.461806280717     -0.722900548763     -0.431845914519     
8900000000.0        -0.727460212208     -0.429362730116     0.271743339839      -0.459672340164     0.271743339839      -0.459672340164     -0.727460212208     -0.429362730116     
9000000000.0        -0.731923711432     -0.426870737777     0.267268509481      -0.457529867253     0.267268509481      -0.457529867253     -0.731923711432     -0.426870737777     
9100000000.0        -0.736293240256     -0.424371545753     0.262887515343      -0.455380472744     0.262887515343      -0.455380472744     -0.736293240256     -0.424371545753     
9200000000.0        -0.740570953015     -0.421866668781     0.258598202701      -0.453225673882     0.258598202701      -0.453225673882     -0.740570953015     -0.421866668781     
9300000000.0        -0.744758963938     -0.419357532734     0.254398456938      -0.45106689905      0.254398456938      -0.45106689905      -0.744758963938     -0.419357532734     
9400000000.0        -0.748859346671     -0.416845479073     0.25028620401       -0.448905492215     0.25028620401       -0.448905492215     -0.748859346671     -0.416845479073     
9500000000.0        -0.752874133959     -0.414331769094     0.246259410776      -0.446742717188     0.246259410776      -0.446742717188     -0.752874133959     -0.414331769094     
9600000000.0        -0.756805317447     -0.411817587996     0.242316085188      -0.444579761675     0.242316085188      -0.444579761675     -0.756805317447     -0.411817587996     
9700000000.0        -0.760654847601     -0.40930404875      0.238454276374      -0.442417741162     0.238454276374      -0.442417741162     -0.760654847601     -0.40930404875      
9800000000.0        -0.764424633737     -0.406792195802     0.234672074608      -0.440257702607     0.234672074608      -0.440257702607     -0.764424633737     -0.406792195802     
9900000000.0        -0.768116544138     -0.404283008594     0.230967611194      -0.438100627967     0.230967611194      -0.438100627967     -0.768116544138     -0.404283008594     
10000000000.0       -0.771732406262     -0.401777404927     0.227339058255      -0.43594743756      0.227339058255      -0.43594743756      -0.771732406262     -0.401777404927     
