# Hz S RI R 50.00 
100000000.0         -2.36645725091e-05  -0.0058091492326    0.999942111247      -0.00593241804521   0.999942111247      -0.00593241804521   -2.36645725092e-05  -0.0058091492326    
200000000.0         -0.000132731689285  -0.0116169215248    0.999832788388      -0.0118634754833    0.999832788388      -0.0118634754833    -0.000132731689285  -0.0116169215248    
300000000.0         -0.000310691840304  -0.0174220917308    0.999654616385      -0.0177919555803    0.999654616385      -0.0177919555803    -0.000310691840304  -0.0174220917308    
400000000.0         -0.000557454343726  -0.0232234398215    0.999407656455      -0.0237166447363    0.999407656455      -0.0237166447363    -0.000557454343726  -0.0232234398215    
500000000.0         -0.000872909027668  -0.0290197499917    0.999092007463      -0.0296363325589    0.999092007463      -0.0296363325589    -0.000872909027669  -0.0290197499917    
600000000.0         -0.00125692007117   -0.0348098109096    0.998707799484      -0.0355498124509    0.998707799484      -0.0355498124509    -0.00125692007117   -0.0348098109096    
700000000.0         -0.00170932456516   -0.0405924162546    0.998255192036      -0.0414558823208    0.998255192036      -0.0414558823208    -0.00170932456516   -0.0405924162546    
800000000.0         -0.00222993211224   -0.0463663653703    0.997734373323      -0.0473533453393    0.997734373323      -0.0473533453393    -0.00222993211224   -0.0463663653703    
900000000.0         -0.00281852477471   -0.052130463974     0.997145559768      -0.0532410107175    0.997145559768      -0.0532410107175    -0.00281852477471   -0.052130463974     
1000000000.0        -0.00347485717624   -0.0578835248881    0.996488995648      -0.0591176944873    0.996488995648      -0.0591176944873    -0.00347485717624   -0.0578835248881    
1100000000.0        -0.00419865668814   -0.0636243687857    0.995764952764      -0.0649822202828    0.995764952764      -0.0649822202828    -0.00419865668814   -0.0636243687857    
1200000000.0        -0.00498962367128   -0.0693518249363    0.994973730111      -0.070833420115     0.994973730111      -0.070833420115     -0.00498962367128   -0.0693518249363    
1300000000.0        -0.0058474317602    -0.0750647319521    0.994115653544      -0.0766701351393    0.994115653544      -0.0766701351393    -0.0058474317602    -0.0750647319521    
1400000000.0        -0.00677172818216   -0.0807619385245    0.993191075418      -0.0824912164111    0.993191075418      -0.0824912164111    -0.00677172818216   -0.0807619385245    
1500000000.0        -0.00776213410698   -0.0864423041527    0.992200374219      -0.0882955256295    0.992200374219      -0.0882955256295    -0.00776213410698   -0.0864423041527    
1600000000.0        -0.00881824502526   -0.0921046998601    0.991143954165      -0.0940819358666    0.991143954165      -0.0940819358666    -0.00881824502526   -0.0921046998601    
1700000000.0        -0.00993963115289   -0.0977480088981    0.990022244791      -0.0998493322827    0.990022244791      -0.0998493322827    -0.00993963115289   -0.0977480088981    
1800000000.0        -0.0111258378602    -0.103371127433     0.988835700512      -0.105596612823     0.988835700512      -0.105596612823     -0.0111258378602    -0.103371127433     
1900000000.0        -0.0123763861253    -0.108972965219     0.987584800161      -0.111322688898     0.987584800161      -0.111322688898     -0.0123763861253    -0.108972965219     
2000000000.0        -0.0136907730091    -0.114552446253     0.98627004651       -0.117026486049     0.98627004651       -0.117026486049     -0.0136907730091    -0.114552446253     
2100000000.0        -0.0150684721524    -0.120108509406     0.98489196577       -0.122706944584     0.98489196577       -0.122706944584     -0.0150684721524    -0.120108509406     
2200000000.0        -0.016508934293     -0.125640109048     0.983451107069      -0.128363020207     0.983451107069      -0.128363020207     -0.016508934293     -0.125640109048     
2300000000.0        -0.0180115878023    -0.131146215633     0.981948041911      -0.133993684616     0.981948041911      -0.133993684616     -0.0180115878023    -0.131146215633     
2400000000.0        -0.01957583924      -0.136625816284     0.980383363627      -0.139597926084     0.980383363627      -0.139597926084     -0.01957583924      -0.136625816284     
2500000000.0        -0.0212010739264    -0.142077915338     0.978757686792      -0.145174750015     0.978757686792      -0.145174750015     -0.0212010739264    -0.142077915338     
2600000000.0        -0.0228866565305    -0.147501534882     0.977071646642      -0.150723179484     0.977071646642      -0.150723179484     -0.0228866565305    -0.147501534882     
2700000000.0        -0.0246319316738    -0.152895715258     0.975325898466      -0.156242255744     0.975325898466      -0.156242255744     -0.0246319316738    -0.152895715258     
2800000000.0        -0.0264362245476    -0.158259515546     0.973521116988      -0.161731038714     0.973521116988      -0.161731038714     -0.0264362245476    -0.158259515546     
2900000000.0        -0.0282988415442    -0.163592014029     0.971657995738      -0.167188607447     0.971657995738      -0.167188607447     -0.0282988415442    -0.163592014029     
3000000000.0        -0.030219070899     -0.168892308623     0.969737246405      -0.172614060566     0.969737246405      -0.172614060566     -0.030219070899     -0.168892308623     
3100000000.0        -0.0321961833443    -0.174159517292     0.967759598187      -0.178006516679     0.967759598187      -0.178006516679     -0.0321961833443    -0.174159517292     
3200000000.0        -0.0342294327732    -0.179392778433     0.965725797121      -0.18336511477      0.965725797121      -0.18336511477      -0.0342294327732    -0.179392778433     
3300000000.0        -0.036318056911     -0.184591251238     0.963636605418      -0.188689014559     0.963636605418      -0.188689014559     -0.036318056911     -0.184591251238     
3400000000.0        -0.0384612779955    -0.189754116029     0.961492800778      -0.193977396847     0.961492800778      -0.193977396847     -0.0384612779955    -0.189754116029     
3500000000.0        -0.0406583034636    -0.194880574571     0.959295175704      -0.199229463825     0.959295175704      -0.199229463825     -0.0406583034636    -0.194880574571     
3600000000.0        -0.042908326643     -0.199969850354     0.95704453681       -0.204444439363     0.95704453681       -0.204444439363     -0.042908326643     -0.199969850354     
3700000000.0        -0.0452105274486    -0.205021188856     0.954741704126      -0.209621569271     0.954741704126      -0.209621569271     -0.0452105274486    -0.205021188856     
3800000000.0        -0.0475640730831    -0.210033857774     0.952387510395      -0.21476012154      0.952387510395      -0.21476012154      -0.0475640730831    -0.210033857774     
3900000000.0        -0.0499681187386    -0.215007147238     0.949982800371      -0.219859386547     0.949982800371      -0.219859386547     -0.0499681187386    -0.215007147238     
4000000000.0        -0.052421808301     -0.219940369991     0.947528430118      -0.224918677247     0.947528430118      -0.224918677247     -0.052421808301     -0.219940369991     
4100000000.0        -0.0549242750538    -0.22483286155      0.945025266303      -0.22993732933      0.945025266303      -0.22993732933      -0.0549242750538    -0.22483286155      
4200000000.0        -0.057474642382     -0.229683980341     0.94247418549       -0.234914701359     0.94247418549       -0.234914701359     -0.057474642382     -0.229683980341     
4300000000.0        -0.0600720244741    -0.234493107807     0.939876073445      -0.239850174885     0.939876073445      -0.239850174885     -0.0600720244741    -0.234493107807     
4400000000.0        -0.0627155270217    -0.239259648497     0.937231824429      -0.244743154526     0.937231824429      -0.244743154526     -0.0627155270217    -0.239259648497     
4500000000.0        -0.0654042479161    -0.243983030124     0.934542340505      -0.249593068042     0.934542340505      -0.249593068042     -0.0654042479161    -0.243983030124     
4600000000.0        -0.0681372779403    -0.248662703607     0.931808530845      -0.254399366364     0.931808530845      -0.254399366364     -0.0681372779403    -0.248662703607     
4700000000.0        -0.0709137014558    -0.253298143085     0.929031311044      -0.259161523621     0.929031311044      -0.259161523621     -0.0709137014558    -0.253298143085     
4800000000.0        -0.073732597084     -0.257888845912     0.926211602438      -0.263879037126     0.926211602438      -0.263879037126     -0.073732597084     -0.257888845912     
4900000000.0        -0.0765930383805    -0.262434332625     0.923350331428      -0.268551427355     0.923350331428      -0.268551427355     -0.0765930383805    -0.262434332625     
5000000000.0        -0.0794940945023    -0.266934146896     0.920448428816      -0.273178237894     0.920448428816      -0.273178237894     -0.0794940945023    -0.266934146896     
5100000000.0        -0.0824348308662    -0.271387855457     0.917506829144      -0.277759035369     0.917506829144      -0.277759035369     -0.0824348308662    -0.271387855457     
5200000000.0        -0.0854143097988    -0.275795048012     0.914526470045      -0.282293409356     0.914526470045      -0.282293409356     -0.0854143097988    -0.275795048012     
5300000000.0        -0.0884315911773    -0.280155337124     0.911508291602      -0.286780972269     0.911508291602      -0.286780972269     -0.0884315911773    -0.280155337124     
5400000000.0        -0.091485733059     -0.284468358079     0.908453235719      -0.291221359232     0.908453235719      -0.291221359232     -0.091485733059     -0.284468358079     
5500000000.0        -0.0945757923012    -0.288733768743     0.905362245499      -0.295614227925     0.905362245499      -0.295614227925     -0.0945757923012    -0.288733768743     
5600000000.0        -0.0977008251689    -0.292951249387     0.90223626464       -0.299959258424     0.90223626464       -0.299959258424     -0.0977008251689    -0.292951249387     
5700000000.0        -0.100859887931     -0.297120502507     0.899076236834      -0.304256153007     0.899076236834      -0.304256153007     -0.100859887931     -0.297120502507     
5800000000.0        -0.104052037446     -0.301241252616     0.895883105188      -0.308504635962     0.895883105188      -0.308504635962     -0.104052037446     -0.301241252616     
5900000000.0        -0.107276331728     -0.305313246032     0.892657811649      -0.312704453363     0.892657811649      -0.312704453363     -0.107276331728     -0.305313246032     
6000000000.0        -0.110531830512     -0.309336250637     0.889401296446      -0.316855372838     0.889401296446      -0.316855372838     -0.110531830512     -0.309336250637     
6100000000.0        -0.11381759579      -0.313310055634     0.886114497552      -0.320957183324     0.886114497552      -0.320957183324     -0.11381759579      -0.313310055634     
6200000000.0        -0.117132692348     -0.31723447128      0.882798350145      -0.325009694802     0.882798350145      -0.325009694802     -0.117132692348     -0.31723447128      
6300000000.0        -0.120476188278     -0.321109328613     0.879453786098      -0.32901273802      0.879453786098      -0.32901273802      -0.120476188278     -0.321109328613     
6400000000.0        -0.123847155482     -0.324934479162     0.876081733476      -0.332966164211     0.876081733476      -0.332966164211     -0.123847155482     -0.324934479162     
6500000000.0        -0.127244670154     -0.328709794645     0.872683116049      -0.336869844788     0.872683116049      -0.336869844788     -0.127244670154     -0.328709794645     
6600000000.0        -0.130667813257     -0.332435166659     0.86925885282       -0.340723671032     0.86925885282       -0.340723671032     -0.130667813257     -0.332435166659     
6700000000.0        -0.134115670976     -0.336110506356     0.865809857571      -0.344527553773     0.865809857571      -0.344527553773     -0.134115670976     -0.336110506356     
6800000000.0        -0.137587335161     -0.339735744112     0.86233703842       -0.348281423059     0.86233703842       -0.348281423059     -0.137587335161     -0.339735744112     
6900000000.0        -0.141081903748     -0.343310829183     0.858841297397      -0.351985227811     0.858841297397      -0.351985227811     -0.141081903748     -0.343310829183     
7000000000.0        -0.144598481175     -0.346835729356     0.855323530032      -0.355638935474     0.855323530032      -0.355638935474     -0.144598481175     -0.346835729356     
7100000000.0        -0.148136178772     -0.350310430595     0.851784624963      -0.359242531664     0.851784624963      -0.359242531664     -0.148136178772     -0.350310430595     
7200000000.0        -0.151694115139     -0.353734936666     0.848225463557      -0.362796019798     0.848225463557      -0.362796019798     -0.151694115139     -0.353734936666     
7300000000.0        -0.155271416511     -0.357109268777     0.844646919549      -0.366299420726     0.844646919549      -0.366299420726     -0.155271416511     -0.357109268777     
7400000000.0        -0.158867217105     -0.360433465191     0.841049858691      -0.369752772351     0.841049858691      -0.369752772351     -0.158867217105     -0.360433465191     
7500000000.0        -0.162480659447     -0.363707580848     0.837435138424      -0.37315612925      0.837435138424      -0.37315612925      -0.162480659447     -0.363707580848     
7600000000.0        -0.166110894694     -0.366931686978     0.833803607562      -0.376509562285     0.833803607562      -0.376509562285     -0.166110894694     -0.366931686978     
7700000000.0        -0.169757082929     -0.370105870705     0.830156105991      -0.379813158213     0.830156105991      -0.379813158213     -0.169757082929     -0.370105870705     
7800000000.0        -0.173418393449     -0.373230234658     0.826493464384      -0.383067019288     0.826493464384      -0.383067019288     -0.173418393449     -0.373230234658     
7900000000.0        -0.177094005032     -0.376304896567     0.822816503934      -0.386271262868     0.822816503934      -0.386271262868     -0.177094005032     -0.376304896567     
8000000000.0        -0.180783106193     -0.37932998887      0.819126036096      -0.389426021014     0.819126036096      -0.389426021014     -0.180783106193     -0.37932998887      
8100000000.0        -0.184484895421     -0.382305658304     0.81542286235       -0.392531440087     0.81542286235       -0.392531440087     -0.184484895421     -0.382305658304     
8200000000.0        -0.188198581408     -0.385232065506     0.811707773977      -0.395587680346     0.811707773977      -0.395587680346     -0.188198581408     -0.385232065506     
8300000000.0        -0.191923383254     -0.388109384609     0.807981551848      -0.398594915544     0.807981551848      -0.398594915544     -0.191923383254     -0.388109384609     
8400000000.0        -0.195658530664     -0.390937802836     0.804244966227      -0.401553332527     0.804244966227      -0.401553332527     -0.195658530664     -0.390937802836     
8500000000.0        -0.199403264134     -0.393717520098     0.800498776593      -0.404463130824     0.800498776593      -0.404463130824     -0.199403264134     -0.393717520098     
8600000000.0        -0.20315683511      -0.396448748591     0.79674373147       -0.407324522253     0.79674373147       -0.407324522253     -0.20315683511      -0.396448748591     
8700000000.0        -0.206918506148     -0.399131712393     0.792980568274      -0.410137730511     0.792980568274      -0.410137730511     -0.206918506148     -0.399131712393     
8800000000.0        -0.210687551054     -0.401766647063     0.789210013171      -0.412902990779     0.789210013171      -0.412902990779     -0.210687551054     -0.401766647063     
8900000000.0        -0.21446325501      -0.404353799243     0.785432780953      -0.415620549323     0.785432780953      -0.415620549323     -0.21446325501      -0.404353799243     
9000000000.0        -0.218244914688     -0.406893426265     0.781649574919      -0.418290663095     0.781649574919      -0.418290663095     -0.218244914688     -0.406893426265     
9100000000.0        -0.222031838353     -0.409385795753     0.777861086777      -0.420913599343     0.777861086777      -0.420913599343     -0.222031838353     -0.409385795753     
9200000000.0        -0.225823345955     -0.411831185235     0.774067996551      -0.423489635222     0.774067996551      -0.423489635222     -0.225823345955     -0.411831185235     
9300000000.0        -0.229618769202     -0.414229881755     0.770270972505      -0.426019057403     0.770270972505      -0.426019057403     -0.229618769202     -0.414229881755     
9400000000.0        -0.233417451631     -0.416582181493     0.766470671077      -0.428502161691     0.766470671077      -0.428502161691     -0.233417451631     -0.416582181493     
9500000000.0        -0.237218748661     -0.418888389382     0.76266773682       -0.430939252652     0.76266773682       -0.430939252652     -0.237218748661     -0.418888389382     
9600000000.0        -0.241022027638     -0.421148818734     0.758862802364      -0.433330643229     0.758862802364      -0.433330643229     -0.241022027638     -0.421148818734     
9700000000.0        -0.244826667867     -0.423363790871     0.755056488375      -0.435676654378     0.755056488375      -0.435676654378     -0.244826667867     -0.423363790871     
9800000000.0        -0.248632060637     -0.425533634759     0.75124940354       -0.437977614702     0.75124940354       -0.437977614702     -0.248632060637     -0.425533634759     
9900000000.0        -0.252437609235     -0.427658686648     0.747442144547      -0.440233860088     0.747442144547      -0.440233860088     -0.252437609235     -0.427658686648     
10000000000.0       -0.256242728945     -0.429739289714     0.743635296084      -0.442445733354     0.743635296084      -0.442445733354     -0.256242728945     -0.429739289714     
