# Hz S RI R 50.00 
100000000.0         -9.08555047379e-05  -0.0129688940394    0.999713070406      -0.0135095676038    0.999713070406      -0.0135095676038    -9.08555047379e-05  -0.0129688940394    
200000000.0         -0.000628621900694  -0.0259235872415    0.999173533105      -0.0270049749035    0.999173533105      -0.0270049749035    -0.000628621900694  -0.0259235872415    
300000000.0         -0.00151558109157   -0.0388504613078    0.998284848808      -0.0404726274463    0.998284848808      -0.0404726274463    -0.00151558109157   -0.0388504613078    
400000000.0         -0.00274985296364   -0.0517359530331    0.997048728676      -0.0538989809787    0.997048728676      -0.0538989809787    -0.00274985296364   -0.0517359530331    
500000000.0         -0.00432890952006   -0.0645666185965    0.995467635778      -0.0672706082554    0.995467635778      -0.0672706082554    -0.00432890952006   -0.0645666185965    
600000000.0         -0.00624954972152   -0.0773291850487    0.993544738053      -0.0805742513593    0.993544738053      -0.0805742513593    -0.00624954972152   -0.0773291850487    
700000000.0         -0.00850790515926   -0.0900105974241    0.991283884319      -0.0937968692295    0.991283884319      -0.0937968692295    -0.00850790515926   -0.0900105974241    
800000000.0         -0.0110994550955    -0.102598063006     0.98868958256       -0.106925682175     0.98868958256       -0.106925682175     -0.0110994550955    -0.102598063006     
900000000.0         -0.0140190466358    -0.115079093104     0.98576697679       -0.119948213814     0.98576697679       -0.119948213814     -0.0140190466358    -0.115079093104     
1000000000.0        -0.0172609186615    -0.127441542368     0.98252182162       -0.132852330501     0.98252182162       -0.132852330501     -0.0172609186615    -0.127441542368     
1100000000.0        -0.0208187288688    -0.139673645534     0.97896045439       -0.14562627816      0.97896045439       -0.14562627816      -0.0208187288688    -0.139673645534     
1200000000.0        -0.0246855834831    -0.151764051476     0.975089764955      -0.158258716395     0.975089764955      -0.158258716395     -0.0246855834831    -0.151764051476     
1300000000.0        -0.0288540692975    -0.163701854424     0.970917163339      -0.170738749761     0.970917163339      -0.170738749761     -0.0288540692975    -0.163701854424     
1400000000.0        -0.033316287708     -0.175476622224     0.9664505455        -0.183055956069     0.9664505455        -0.183055956069     -0.033316287708     -0.175476622224     
1500000000.0        -0.038063890432     -0.187078421547     0.961698257466      -0.195200411622     0.961698257466      -0.195200411622     -0.038063890432     -0.187078421547     
1600000000.0        -0.0430881165995    -0.198497839957     0.956669058153      -0.207162713318     0.956669058153      -0.207162713318     -0.0430881165995    -0.198497839957     
1700000000.0        -0.048379830909     -0.209726004801     0.951372081138      -0.218933997557     0.951372081138      -0.218933997557     -0.048379830909     -0.209726004801     
1800000000.0        -0.0539295625453    -0.220754598896     0.945816795688      -0.230505955953     0.945816795688      -0.230505955953     -0.0539295625453    -0.220754598896     
1900000000.0        -0.0597275445643    -0.23157587301      0.94001296734       -0.241870847835     0.94001296734       -0.241870847835     -0.0597275445643    -0.23157587301      
2000000000.0        -0.0657637534568    -0.242182655202     0.933970618308      -0.253021509597     0.933970618308      -0.253021509597     -0.0657637534568    -0.242182655202     
2100000000.0        -0.0720279486157    -0.252568357042     0.927699987992      -0.263951360936     0.927699987992      -0.263951360936     -0.0720279486157    -0.252568357042     
2200000000.0        -0.0785097114452    -0.262726976829     0.92121149385       -0.274654408086     0.92121149385       -0.274654408086     -0.0785097114452    -0.262726976829     
2300000000.0        -0.0851984838664    -0.2726530999       0.914515692883      -0.285125244128     0.914515692883      -0.285125244128     -0.0851984838664    -0.2726530999       
2400000000.0        -0.0920836059903    -0.282341896157     0.907623243948      -0.29535904654      0.907623243948      -0.29535904654      -0.0920836059903    -0.282341896157     
2500000000.0        -0.0991543527507    -0.291789114964     0.900544871115      -0.305351572093     0.900544871115      -0.305351572093     -0.0991543527507    -0.291789114964     
2600000000.0        -0.106399969307     -0.300991077569     0.893291328261      -0.315099149287     0.893291328261      -0.315099149287     -0.106399969307     -0.300991077569     
2700000000.0        -0.113809705049     -0.309944667219     0.885873365055      -0.324598668474     0.885873365055      -0.324598668474     -0.113809705049     -0.309944667219     
2800000000.0        -0.121372846061     -0.318647317164     0.878301694489      -0.333847569867     0.878301694489      -0.333847569867     -0.121372846061     -0.318647317164     
2900000000.0        -0.129078745921     -0.327096996719     0.870586962081      -0.34284382961      0.870586962081      -0.34284382961      -0.129078745921     -0.327096996719     
3000000000.0        -0.13691685472      -0.335292195596     0.862739716845      -0.351585944118     0.862739716845      -0.351585944118     -0.13691685472      -0.335292195596     
3100000000.0        -0.144876746247     -0.343231906689     0.854770384106      -0.360072912863     0.854770384106      -0.360072912863     -0.144876746247     -0.343231906689     
3200000000.0        -0.152948143247     -0.350915607508     0.84668924024       -0.36830421982      0.84668924024       -0.36830421982      -0.152948143247     -0.350915607508     
3300000000.0        -0.161120940736     -0.358343240467     0.838506389355      -0.376279813757     0.838506389355      -0.376279813757     -0.161120940736     -0.358343240467     
3400000000.0        -0.169385227339     -0.365515192202     0.830231741955      -0.384000087556     0.830231741955      -0.384000087556     -0.169385227339     -0.365515192202     
3500000000.0        -0.177731304645     -0.372432272105     0.82187499558       -0.391465856756     0.82187499558       -0.391465856756     -0.177731304645     -0.372432272105     
3600000000.0        -0.186149704593     -0.379095690259     0.813445617419      -0.39867833749      0.813445617419      -0.39867833749      -0.186149704593     -0.379095690259     
3700000000.0        -0.194631204917     -0.385507034939     0.804952828867      -0.405639123988     0.804952828867      -0.405639123988     -0.194631204917     -0.385507034939     
3800000000.0        -0.203166842681     -0.391668249825     0.796405591983      -0.412350165801     0.796405591983      -0.412350165801     -0.203166842681     -0.391668249825     
3900000000.0        -0.211747925964     -0.397581611107     0.787812597813      -0.418813744901     0.787812597813      -0.418813744901     -0.211747925964     -0.397581611107     
4000000000.0        -0.220366043743     -0.403249704584     0.779182256495      -0.425032452792     0.779182256495      -0.425032452792     -0.220366043743     -0.403249704584     
4100000000.0        -0.229013074062     -0.408675402919     0.770522689102      -0.43100916776      0.770522689102      -0.43100916776      -0.229013074062     -0.408675402919     
4200000000.0        -0.237681190536     -0.413861843138     0.761841721126      -0.436747032383     0.761841721126      -0.436747032383     -0.237681190536     -0.413861843138     
4300000000.0        -0.246362867306     -0.4188124045       0.753146877532      -0.442249431399     0.753146877532      -0.442249431399     -0.246362867306     -0.4188124045       
4400000000.0        -0.255050882499     -0.423530686821     0.744445379288      -0.447519970037     0.744445379288      -0.447519970037     -0.255050882499     -0.423530686821     
4500000000.0        -0.263738320311     -0.428020489336     0.735744141289      -0.452562452878     0.735744141289      -0.452562452878     -0.263738320311     -0.428020489336     
4600000000.0        -0.272418571787     -0.432285790173     0.727049771577      -0.457380863336     0.727049771577      -0.457380863336     -0.272418571787     -0.432285790173     
4700000000.0        -0.281085334398     -0.436330726505     0.718368571757      -0.461979343806     0.718368571757      -0.461979343806     -0.281085334398     -0.436330726505     
4800000000.0        -0.289732610513     -0.440159575418     0.709706538531      -0.466362176544     0.709706538531      -0.466362176544     -0.289732610513     -0.440159575418     
4900000000.0        -0.298354704852     -0.443776735552     0.701069366241      -0.470533765305     0.701069366241      -0.470533765305     -0.298354704852     -0.443776735552     
5000000000.0        -0.306946221022     -0.447186709545     0.692462450335      -0.474498617785     0.692462450335      -0.474498617785     -0.306946221022     -0.447186709545     
5100000000.0        -0.315502057211     -0.450394087295     0.683890891674      -0.478261328896     0.683890891674      -0.478261328896     -0.315502057211     -0.450394087295     
5200000000.0        -0.324017401141     -0.45340353007      0.675359501572      -0.481826564871     0.675359501572      -0.481826564871     -0.324017401141     -0.45340353007      
5300000000.0        -0.332487724367     -0.456219755472     0.666872807508      -0.485199048228     0.666872807508      -0.485199048228     -0.332487724367     -0.456219755472     
5400000000.0        -0.340908775978     -0.45884752325      0.658435059414      -0.488383543596     0.658435059414      -0.488383543596     -0.340908775978     -0.45884752325      
5500000000.0        -0.349276575813     -0.461291621982     0.650050236464      -0.491384844383     0.650050236464      -0.491384844383     -0.349276575813     -0.461291621982     
5600000000.0        -0.357587407237     -0.463556856585     0.641722054298      -0.494207760305     0.641722054298      -0.494207760305     -0.357587407237     -0.463556856585     
5700000000.0        -0.365837809559     -0.465648036683     0.633453972605      -0.496857105741     0.633453972605      -0.496857105741     -0.365837809559     -0.465648036683     
5800000000.0        -0.374024570152     -0.467569965776     0.625249202998      -0.499337688916     0.625249202998      -0.499337688916     -0.374024570152     -0.467569965776     
5900000000.0        -0.382144716342     -0.469327431219     0.61711071713       -0.501654301874     0.61711071713       -0.501654301874     -0.382144716342     -0.469327431219     
6000000000.0        -0.390195507109     -0.470925194982     0.609041254988      -0.50381171124      0.609041254988      -0.50381171124      -0.390195507109     -0.470925194982     
6100000000.0        -0.398174424673     -0.472367985156     0.601043333315      -0.505814649733     0.601043333315      -0.505814649733     -0.398174424673     -0.472367985156     
6200000000.0        -0.406079165984     -0.473660488191     0.593119254109      -0.5076678084       0.593119254109      -0.5076678084       -0.406079165984     -0.473660488191     
6300000000.0        -0.41390763419      -0.474807341833     0.585271113165      -0.509375829559     0.585271113165      -0.509375829559     -0.41390763419      -0.474807341833     
6400000000.0        -0.4216579301       -0.475813128728     0.577500808604      -0.5109433004       0.577500808604      -0.5109433004       -0.4216579301       -0.475813128728     
6500000000.0        -0.429328343684     -0.476682370667     0.569810049379      -0.512374747237     0.569810049379      -0.512374747237     -0.429328343684     -0.476682370667     
6600000000.0        -0.436917345649     -0.477419523439     0.562200363694      -0.513674630354     0.562200363694      -0.513674630354     -0.436917345649     -0.477419523439     
6700000000.0        -0.444423579112     -0.478028972254     0.554673107335      -0.514847339441     0.554673107335      -0.514847339441     -0.444423579112     -0.478028972254     
6800000000.0        -0.451845851393     -0.478515027724     0.547229471875      -0.515897189566     0.547229471875      -0.515897189566     -0.451845851393     -0.478515027724     
6900000000.0        -0.459183125959     -0.478881922344     0.53987049273       -0.516828417662     0.53987049273       -0.516828417662     -0.459183125959     -0.478881922344     
7000000000.0        -0.46643451453      -0.479133807466     0.532597057052      -0.517645179504     0.532597057052      -0.517645179504     -0.46643451453      -0.479133807466     
7100000000.0        -0.473599269369     -0.479274750724     0.525409911441      -0.518351547129     0.525409911441      -0.518351547129     -0.473599269369     -0.479274750724     
7200000000.0        -0.480676775762     -0.479308733878     0.518309669463      -0.518951506688     0.518309669463      -0.518951506688     -0.480676775762     -0.479308733878     
7300000000.0        -0.487666544711     -0.479239651056     0.511296818958      -0.519448956685     0.511296818958      -0.519448956685     -0.487666544711     -0.479239651056     
7400000000.0        -0.494568205839     -0.479071307365     0.504371729135      -0.51984770659      0.504371729135      -0.51984770659      -0.494568205839     -0.479071307365     
7500000000.0        -0.501381500519     -0.478807417836     0.497534657444      -0.520151475788     0.497534657444      -0.520151475788     -0.501381500519     -0.478807417836     
7600000000.0        -0.508106275229     -0.47845160669      0.490785756216      -0.520363892839     0.490785756216      -0.520363892839     -0.508106275229     -0.47845160669      
7700000000.0        -0.514742475145     -0.478007406882     0.484125079077      -0.520488495034     0.484125079077      -0.520488495034     -0.514742475145     -0.478007406882     
7800000000.0        -0.521290137965     -0.477478259926     0.477552587118      -0.520528728209     0.477552587118      -0.520528728209     -0.521290137965     -0.477478259926     
7900000000.0        -0.527749387968     -0.476867515947     0.47106815484       -0.520487946805     0.47106815484       -0.520487946805     -0.527749387968     -0.476867515947     
8000000000.0        -0.534120430312     -0.476178433963     0.464671575854      -0.520369414152     0.464671575854      -0.520369414152     -0.534120430312     -0.476178433963     
8100000000.0        -0.540403545562     -0.475414182369     0.45836256835       -0.520176302948     0.45836256835       -0.520176302948     -0.540403545562     -0.475414182369     
8200000000.0        -0.546599084458     -0.474577839593     0.452140780338      -0.519911695922     0.452140780338      -0.519911695922     -0.546599084458     -0.474577839593     
8300000000.0        -0.552707462901     -0.473672394928     0.44600579465       -0.519578586664     0.44600579465       -0.519578586664     -0.552707462901     -0.473672394928     
8400000000.0        -0.558729157175     -0.472700749501     0.439957133727      -0.519179880595     0.439957133727      -0.519179880595     -0.558729157175     -0.472700749501     
8500000000.0        -0.564664699388     -0.471665717378     0.433994264176      -0.518718396072     0.433994264176      -0.518718396072     -0.564664699388     -0.471665717378     
8600000000.0        -0.570514673122     -0.47057002678      0.428116601115      -0.518196865606     0.428116601115      -0.518196865606     -0.570514673122     -0.47057002678      
8700000000.0        -0.576279709305     -0.469416321404     0.422323512308      -0.517617937187     0.422323512308      -0.517617937187     -0.576279709305     -0.469416321404     
8800000000.0        -0.581960482286     -0.468207161833     0.416614322085      -0.516984175686     0.416614322085      -0.516984175686     -0.581960482286     -0.468207161833     
8900000000.0        -0.587557706103     -0.466945027019     0.410988315077      -0.516298064348     0.410988315077      -0.516298064348     -0.587557706103     -0.466945027019     
9000000000.0        -0.593072130952     -0.465632315836     0.405444739742      -0.515562006342     0.405444739742      -0.515562006342     -0.593072130952     -0.465632315836     
9100000000.0        -0.598504539844     -0.464271348682     0.399982811716      -0.514778326362     0.399982811716      -0.514778326362     -0.598504539844     -0.464271348682     
9200000000.0        -0.603855745436     -0.462864369136     0.394601716972      -0.513949272288     0.394601716972      -0.513949272288     -0.603855745436     -0.462864369136     
9300000000.0        -0.609126587047     -0.461413545641     0.389300614813      -0.513077016865     0.389300614813      -0.513077016865     -0.609126587047     -0.461413545641     
9400000000.0        -0.614317927832     -0.459920973221     0.384078640694      -0.512163659428     0.384078640694      -0.512163659428     -0.614317927832     -0.459920973221     
9500000000.0        -0.619430652123     -0.458388675222     0.378934908879      -0.511211227638     0.378934908879      -0.511211227638     -0.619430652123     -0.458388675222     
9600000000.0        -0.624465662926     -0.456818605064     0.373868514946      -0.510221679234     0.373868514946      -0.510221679234     -0.624465662926     -0.456818605064     
9700000000.0        -0.629423879565     -0.455212648        0.368878538144      -0.509196903797     0.368878538144      -0.509196903797     -0.629423879565     -0.455212648        
9800000000.0        -0.634306235466     -0.453572622882     0.363964043607      -0.508138724513     0.363964043607      -0.508138724513     -0.634306235466     -0.453572622882     
9900000000.0        -0.639113676083     -0.451900283923     0.359124084428      -0.507048899939     0.359124084428      -0.507048899939     -0.639113676083     -0.451900283923     
10000000000.0       -0.643847156948     -0.450197322453     0.35435770361       -0.505929125754     0.35435770361       -0.505929125754     -0.643847156948     -0.450197322453     
