# Hz S RI R 50.00 
100000000.0         -2.86875662302e-05  -0.00507023203346   0.999966020401      -0.00508504198621   0.999966020401      -0.00508504198621   -2.86875662303e-05  -0.00507023203346   
200000000.0         -0.000111054709335  -0.010139334436     0.999883616778      -0.0101689562415    0.999883616778      -0.0101689562415    -0.000111054709334  -0.010139334436     
300000000.0         -0.000244940669825  -0.0152063998146    0.999749703224      -0.0152508363421    0.999749703224      -0.0152508363421    -0.000244940669825  -0.0152063998146    
400000000.0         -0.000430286112708  -0.0202705514394    0.999564334526      -0.0203298062961    0.999564334526      -0.0203298062961    -0.000430286112708  -0.0202705514394    
500000000.0         -0.000667014249653  -0.0253309297879    0.999327585729      -0.0254050071994    0.999327585729      -0.0254050071994    -0.000667014249653  -0.0253309297879    
600000000.0         -0.000955030423036  -0.0303866880274    0.999039550608      -0.0304755927563    0.999039550608      -0.0304755927563    -0.000955030423036  -0.0303866880274    
700000000.0         -0.00129422227994   -0.0354369899625    0.998700340997      -0.0355407272474    0.998700340997      -0.0355407272474    -0.00129422227994   -0.0354369899625    
800000000.0         -0.00168446005218   -0.0404810089763    0.998310086329      -0.0405995844826    0.998310086329      -0.0405995844826    -0.00168446005218   -0.0404810089763    
900000000.0         -0.0021255968546    -0.0455179274507    0.997868933258      -0.0456513472295    0.997868933258      -0.0456513472295    -0.0021255968546    -0.0455179274507    
1000000000.0        -0.00261746898441   -0.0505469365003    0.997377045324      -0.0506952069526    0.997377045324      -0.0506952069526    -0.00261746898441   -0.0505469365003    
1100000000.0        -0.0031598962179    -0.0555672358283    0.996834602624      -0.0557303636737    0.996834602624      -0.0557303636737    -0.0031598962179    -0.0555672358283    
1200000000.0        -0.00375268210721   -0.0605780337355    0.996241801514      -0.0607560259845    0.996241801514      -0.0607560259845    -0.00375268210721   -0.0605780337355    
1300000000.0        -0.00439561427576   -0.0655785471722    0.995598854293      -0.0657714111004    0.995598854293      -0.0657714111004    -0.00439561427576   -0.0655785471722    
1400000000.0        -0.00508846471408   -0.0705680018451    0.994905988913      -0.0707757449702    0.994905988913      -0.0707757449702    -0.00508846471408   -0.0705680018451    
1500000000.0        -0.00583099007825   -0.0755456323618    0.994163448669      -0.0757682624222    0.994163448669      -0.0757682624222    -0.00583099007825   -0.0755456323618    
1600000000.0        -0.00662293198812   -0.0805106823843    0.993371491899      -0.0807482073197    0.993371491899      -0.0807482073197    -0.00662293198811   -0.0805106823843    
1700000000.0        -0.00746401733147   -0.0854624048191    0.992530391684      -0.0857148327515    0.992530391684      -0.0857148327515    -0.00746401733147   -0.0854624048191    
1800000000.0        -0.00835395856733   -0.0904000619912    0.991640435535      -0.0906674012084    0.991640435535      -0.0906674012084    -0.00835395856733   -0.0904000619912    
1900000000.0        -0.00929245403473   -0.0953229258441    0.990701925088      -0.0956051847834    0.990701925088      -0.0956051847834    -0.00929245403473   -0.0953229258441    
2000000000.0        -0.0102791882627    -0.100230278127     0.989715175796      -0.10052746536      0.989715175796      -0.10052746536      -0.0102791882627    -0.100230278127     
2100000000.0        -0.0113138322854    -0.105121410596     0.988680516604      -0.105433534815     0.988680516604      -0.105433534815     -0.0113138322854    -0.105121410596     
2200000000.0        -0.0123960439586    -0.109995625205     0.987598289642      -0.11032269521      0.987598289642      -0.11032269521      -0.0123960439586    -0.109995625205     
2300000000.0        -0.0135254682792    -0.114852234295     0.986468849898      -0.115194258979     0.986468849898      -0.115194258979     -0.0135254682792    -0.114852234295     
2400000000.0        -0.0147017377083    -0.11969056078      0.9852925649        -0.12004754912      0.9852925649        -0.12004754912      -0.0147017377083    -0.11969056078      
2500000000.0        -0.0159244724979    -0.124509938332     0.984069814385      -0.124881899376     0.984069814385      -0.124881899376     -0.0159244724979    -0.124509938332     
2600000000.0        -0.017193281016     -0.12930971155      0.982800989975      -0.129696654409     0.982800989975      -0.129696654409     -0.017193281016     -0.12930971155      
2700000000.0        -0.0185077600798    -0.13408923614      0.981486494844      -0.134491169974     0.981486494844      -0.134491169974     -0.0185077600798    -0.13408923614      
2800000000.0        -0.0198674952872    -0.138847879071     0.980126743387      -0.139264813084     0.980126743387      -0.139264813084     -0.0198674952872    -0.138847879071     
2900000000.0        -0.0212720613503    -0.143585018732     0.978722160885      -0.144016962159     0.978722160885      -0.144016962159     -0.0212720613503    -0.143585018732     
3000000000.0        -0.0227210224331    -0.148300045083     0.977273183167      -0.148747007186     0.977273183167      -0.148747007186     -0.0227210224331    -0.148300045083     
3100000000.0        -0.0242139324877    -0.152992359797     0.975780256275      -0.153454349853     0.975780256275      -0.153454349853     -0.0242139324877    -0.152992359797     
3200000000.0        -0.0257503355944    -0.157661376391     0.974243836125      -0.158138403689     0.974243836125      -0.158138403689     -0.0257503355944    -0.157661376391     
3300000000.0        -0.0273297663014    -0.162306520357     0.972664388164      -0.162798594186     0.972664388164      -0.162798594186     -0.0273297663014    -0.162306520357     
3400000000.0        -0.0289517499654    -0.166927229275     0.971042387029      -0.167434358922     0.971042387029      -0.167434358922     -0.0289517499654    -0.166927229275     
3500000000.0        -0.030615803093     -0.171522952926     0.969378316211      -0.172045147666     0.969378316211      -0.172045147666     -0.030615803093     -0.171522952926     
3600000000.0        -0.0323214336829    -0.176093153391     0.967672667708      -0.176630422485     0.967672667708      -0.176630422485     -0.0323214336829    -0.176093153391     
3700000000.0        -0.0340681415667    -0.180637305146     0.965925941684      -0.181189657833     0.965925941684      -0.181189657833     -0.0340681415667    -0.180637305146     
3800000000.0        -0.0358554187521    -0.185154895148     0.964138646129      -0.185722340639     0.964138646129      -0.185722340639     -0.0358554187521    -0.185154895148     
3900000000.0        -0.0376827497631    -0.18964542291      0.962311296516      -0.190227970386     0.962311296516      -0.190227970386     -0.0376827497631    -0.18964542291      
4000000000.0        -0.0395496119808    -0.194108400569     0.960444415461      -0.194706059174     0.960444415461      -0.194706059174     -0.0395496119808    -0.194108400569     
4100000000.0        -0.0414554759842    -0.198543352947     0.958538532383      -0.199156131786     0.958538532383      -0.199156131786     -0.0414554759842    -0.198543352947     
4200000000.0        -0.0433998058873    -0.202949817603     0.956594183165      -0.203577725736     0.956594183165      -0.203577725736     -0.0433998058873    -0.202949817603     
4300000000.0        -0.0453820596782    -0.207327344875     0.954611909818      -0.207970391314     0.954611909818      -0.207970391314     -0.0453820596782    -0.207327344875     
4400000000.0        -0.0474016895542    -0.211675497918     0.952592260142      -0.212333691623     0.952592260142      -0.212333691623     -0.0474016895542    -0.211675497918     
4500000000.0        -0.0494581422563    -0.215993852727     0.950535787394      -0.216667202606     0.950535787394      -0.216667202606     -0.0494581422563    -0.215993852727     
4600000000.0        -0.0515508594002    -0.220281998159     0.948443049958      -0.220970513061     0.948443049958      -0.220970513061     -0.0515508594002    -0.220281998159     
4700000000.0        -0.0536792778081    -0.224539535943     0.946314611008      -0.225243224656     0.946314611008      -0.225243224656     -0.0536792778081    -0.224539535943     
4800000000.0        -0.0558428298347    -0.228766080685     0.94415103819       -0.229484951935     0.94415103819       -0.229484951935     -0.0558428298347    -0.228766080685     
4900000000.0        -0.0580409436924    -0.232961259859     0.941952903289      -0.233695322307     0.941952903289      -0.233695322307     -0.0580409436924    -0.232961259859     
5000000000.0        -0.0602730437739    -0.237124713798     0.939720781911      -0.237873976038     0.939720781911      -0.237873976038     -0.0602730437739    -0.237124713798     
5100000000.0        -0.0625385509702    -0.241256095674     0.937455253164      -0.242020566229     0.937455253164      -0.242020566229     -0.0625385509702    -0.241256095674     
5200000000.0        -0.0648368829869    -0.245355071468     0.935156899342      -0.246134758792     0.935156899342      -0.246134758792     -0.0648368829869    -0.245355071468     
5300000000.0        -0.0671674546565    -0.249421319939     0.932826305611      -0.250216232412     0.932826305611      -0.250216232412     -0.0671674546565    -0.249421319939     
5400000000.0        -0.0695296782468    -0.253454532579     0.930464059701      -0.254264678505     0.930464059701      -0.254264678505     -0.0695296782468    -0.253454532579     
5500000000.0        -0.0719229637661    -0.257454413564     0.928070751605      -0.258279801175     0.928070751605      -0.258279801175     -0.0719229637661    -0.257454413564     
5600000000.0        -0.0743467192633    -0.261420679699     0.925646973272      -0.262261317148     0.925646973272      -0.262261317148     -0.0743467192633    -0.261420679699     
5700000000.0        -0.0768003511262    -0.265353060357     0.923193318313      -0.266208955719     0.923193318313      -0.266208955719     -0.0768003511262    -0.265353060357     
5800000000.0        -0.079283264372     -0.269251297405     0.920710381711      -0.270122458677     0.920710381711      -0.270122458677     -0.079283264372     -0.269251297405     
5900000000.0        -0.0817948629374    -0.273115145136     0.918198759528      -0.274001580234     0.918198759528      -0.274001580234     -0.0817948629374    -0.273115145136     
6000000000.0        -0.0843345499608    -0.276944370179     0.915659048624      -0.277846086939     0.915659048624      -0.277846086939     -0.0843345499608    -0.276944370179     
6100000000.0        -0.0869017280609    -0.280738751413     0.913091846382      -0.28165575759      0.913091846382      -0.28165575759      -0.0869017280609    -0.280738751413     
6200000000.0        -0.0894957996114    -0.284498079879     0.910497750426      -0.285430383146     0.910497750426      -0.285430383146     -0.0894957996114    -0.284498079879     
6300000000.0        -0.09211616701      -0.288222158673     0.907877358359      -0.289169766622     0.907877358359      -0.289169766622     -0.09211616701      -0.288222158673     
6400000000.0        -0.0947622329408    -0.291910802844     0.905231267494      -0.292873722983     0.905231267494      -0.292873722983     -0.0947622329408    -0.291910802844     
6500000000.0        -0.0974334006352    -0.295563839285     0.902560074602      -0.29654207904      0.902560074602      -0.29654207904      -0.0974334006352    -0.295563839285     
6600000000.0        -0.100129074123     -0.299181106614     0.899864375651      -0.300174673328     0.899864375651      -0.300174673328     -0.100129074123     -0.299181106614     
6700000000.0        -0.102848658482     -0.302762455057     0.897144765563      -0.30377135599      0.897144765563      -0.30377135599      -0.102848658482     -0.302762455057     
6800000000.0        -0.105591560078     -0.306307746318     0.894401837972      -0.307331988648     0.894401837972      -0.307331988648     -0.105591560078     -0.306307746318     
6900000000.0        -0.108357186807     -0.309816853456     0.891636184981      -0.310856444276     0.891636184981      -0.310856444276     -0.108357186807     -0.309816853456     
7000000000.0        -0.11114494832      -0.313289660743     0.888848396941      -0.314344607065     0.888848396941      -0.314344607065     -0.11114494832      -0.313289660743     
7100000000.0        -0.113954256252     -0.31672606353      0.886039062214      -0.317796372282     0.886039062214      -0.317796372282     -0.113954256252     -0.31672606353      
7200000000.0        -0.116784524441     -0.320125968105     0.883208766961      -0.321211646133     0.883208766961      -0.321211646133     -0.116784524441     -0.320125968105     
7300000000.0        -0.119635169144     -0.323489291544     0.880358094928      -0.324590345612     0.880358094928      -0.324590345612     -0.119635169144     -0.323489291544     
7400000000.0        -0.122505609241     -0.326815961563     0.877487627233      -0.327932398353     0.877487627233      -0.327932398353     -0.122505609241     -0.326815961563     
7500000000.0        -0.125395266442     -0.330105916365     0.874597942165      -0.331237742478     0.874597942165      -0.331237742478     -0.125395266442     -0.330105916365     
7600000000.0        -0.128303565479     -0.333359104482     0.871689614993      -0.334506326436     0.871689614993      -0.334506326436     -0.128303565479     -0.333359104482     
7700000000.0        -0.131229934298     -0.336575484616     0.86876321777       -0.33773810885      0.86876321777       -0.33773810885      -0.131229934298     -0.336575484616     
7800000000.0        -0.134173804247     -0.339755025479     0.865819319148      -0.340933058352     0.865819319148      -0.340933058352     -0.134173804247     -0.339755025479     
7900000000.0        -0.137134610247     -0.342897705626     0.862858484206      -0.344091153414     0.862858484206      -0.344091153414     -0.137134610247     -0.342897705626     
8000000000.0        -0.140111790972     -0.346003513285     0.85988127427       -0.34721238219      0.85988127427       -0.34721238219      -0.140111790972     -0.346003513285     
8100000000.0        -0.14310478901      -0.349072446195     0.856888246751      -0.350296742337     0.856888246751      -0.350296742337     -0.14310478901      -0.349072446195     
8200000000.0        -0.146113051026     -0.352104511427     0.853879954985      -0.353344240848     0.853879954985      -0.353344240848     -0.146113051026     -0.352104511427     
8300000000.0        -0.149136027918     -0.355099725215     0.850856948072      -0.356354893881     0.850856948072      -0.356354893881     -0.149136027918     -0.355099725215     
8400000000.0        -0.152173174962     -0.358058112779     0.847819770738      -0.359328726578     0.847819770738      -0.359328726578     -0.152173174962     -0.358058112779     
8500000000.0        -0.155223951959     -0.360979708148     0.844768963181      -0.362265772894     0.844768963181      -0.362265772894     -0.155223951959     -0.360979708148     
8600000000.0        -0.158287823367     -0.363864553986     0.841705060943      -0.365166075415     0.841705060943      -0.365166075415     -0.158287823367     -0.363864553986     
8700000000.0        -0.161364258437     -0.366712701405     0.838628594772      -0.36802968518      0.838628594772      -0.36802968518      -0.161364258437     -0.366712701405     
8800000000.0        -0.164452731335     -0.369524209794     0.835540090503      -0.370856661504     0.835540090503      -0.370856661504     -0.164452731335     -0.369524209794     
8900000000.0        -0.167552721264     -0.372299146632     0.832440068933      -0.373647071792     0.832440068933      -0.373647071792     -0.167552721264     -0.372299146632     
9000000000.0        -0.170663712574     -0.375037587308     0.82932904571       -0.376400991362     0.82932904571       -0.376400991362     -0.170663712574     -0.375037587308     
9100000000.0        -0.173785194876     -0.377739614941     0.826207531226      -0.379118503259     0.826207531226      -0.379118503259     -0.173785194876     -0.377739614941     
9200000000.0        -0.176916663139     -0.380405320193     0.82307603051       -0.381799698077     0.82307603051       -0.381799698077     -0.176916663139     -0.380405320193     
9300000000.0        -0.18005761779      -0.383034801094     0.819935043134      -0.384444673773     0.819935043134      -0.384444673773     -0.18005761779      -0.383034801094     
9400000000.0        -0.183207564808     -0.385628162849     0.816785063122      -0.387053535486     0.816785063122      -0.387053535486     -0.183207564808     -0.385628162849     
9500000000.0        -0.186366015804     -0.388185517666     0.81362657886       -0.389626395352     0.81362657886       -0.389626395352     -0.186366015804     -0.388185517666     
9600000000.0        -0.189532488108     -0.390706984566     0.81046007302       -0.392163372327     0.81046007302       -0.392163372327     -0.189532488108     -0.390706984566     
9700000000.0        -0.192706504842     -0.393192689207     0.807286022478      -0.394664591999     0.807286022478      -0.394664591999     -0.192706504842     -0.393192689207     
9800000000.0        -0.195887594991     -0.395642763696     0.804104898251      -0.397130186412     0.804104898251      -0.397130186412     -0.195887594991     -0.395642763696     
9900000000.0        -0.199075293469     -0.398057346415     0.800917165424      -0.399560293882     0.800917165424      -0.399560293882     -0.199075293469     -0.398057346415     
10000000000.0       -0.202269141181     -0.400436581836     0.797723283092      -0.401955058816     0.797723283092      -0.401955058816     -0.202269141181     -0.400436581836     
