# Hz S RI R 50.00 
100000000.0         0.0517967037608     0.00204577539036    0.948201263131      -0.00282847316233   0.948201263131      -0.00282847316233   0.0517967037608     0.00204577539036    
200000000.0         0.0521374501865     0.00408813413765    0.947858859671      -0.00565353153457   0.947858859671      -0.00565353153457   0.0521374501865     0.00408813413765    
300000000.0         0.0524021028855     0.00612835157825    0.947591925866      -0.00847645244753   0.947591925866      -0.00847645244753   0.0524021028855     0.00612835157825    
400000000.0         0.0526336523785     0.00816681562573    0.947357471085      -0.0112976255685    0.947357471085      -0.0112976255685    0.0526336523785     0.00816681562573    
500000000.0         0.052848699871      0.01020370758       0.947138894026      -0.0141172338313    0.947138894026      -0.0141172338313    0.052848699871      0.01020370758       
600000000.0         0.0530557321121     0.012239117187      0.946927707849      -0.0169353685379    0.946927707849      -0.0169353685379    0.0530557321121     0.012239117187      
700000000.0         0.0532597729599     0.0142730839783     0.946718888607      -0.0197520707199    0.946718888607      -0.0197520707199    0.0532597729599     0.0142730839783     
800000000.0         0.0534640830212     0.016305616451      0.946509175605      -0.0225673503311    0.946509175605      -0.0225673503311    0.0534640830212     0.016305616451      
900000000.0         0.0536709172567     0.0183367023719     0.946296313793      -0.0253811965602    0.946296313793      -0.0253811965602    0.0536709172567     0.0183367023719     
1000000000.0        0.0538819094088     0.0203663148808     0.946078669339      -0.0281935839397    0.946078669339      -0.0281935839397    0.0538819094088     0.0203663148808     
1100000000.0        0.0540982859258     0.0223944163688     0.945855015701      -0.0310044762286    0.945855015701      -0.0310044762286    0.0540982859258     0.0223944163688     
1200000000.0        0.0543209935658     0.0244209610764     0.945624406024      -0.0338138290145    0.945624406024      -0.0338138290145    0.0543209935658     0.0244209610764     
1300000000.0        0.0545507797614     0.0264458969106     0.945386092777      -0.0366215915322    0.945386092777      -0.0366215915322    0.0545507797614     0.0264458969106     
1400000000.0        0.0547882454968     0.0284691667584     0.945139474872      -0.0394277079798    0.945139474872      -0.0394277079798    0.0547882454968     0.0284691667584     
1500000000.0        0.0550338813763     0.0304907094635     0.944884061599      -0.0422321184975    0.944884061599      -0.0422321184975    0.0550338813763     0.0304907094635     
1600000000.0        0.0552880929817     0.0325104605711     0.944619447266      -0.045034759913     0.944619447266      -0.045034759913     0.0552880929817     0.0325104605711     
1700000000.0        0.0555512191647     0.0345283529068     0.944345292907      -0.0478355663223    0.944345292907      -0.0478355663223    0.0555512191647     0.0345283529068     
1800000000.0        0.0558235455387     0.0365443170344     0.94406131279       -0.050634469548     0.94406131279       -0.050634469548     0.0558235455387     0.0365443170344     
1900000000.0        0.0561053146234     0.038558281625      0.943767264273      -0.0534313995096    0.943767264273      -0.0534313995096    0.0561053146234     0.038558281625      
2000000000.0        0.0563967336049     0.0405701737573     0.943462940042      -0.0562262845242    0.943462940042      -0.0562262845242    0.0563967336049     0.0405701737573     
2100000000.0        0.0566979803601     0.0425799191654     0.943148162091      -0.0590190515556    0.943148162091      -0.0590190515556    0.0566979803601     0.0425799191654     
2200000000.0        0.0570092081985     0.0445874424466     0.942822776973      -0.061809626422     0.942822776973      -0.061809626422     0.0570092081985     0.0445874424466     
2300000000.0        0.0573305496386     0.0465926672361     0.942486652031      -0.0645979339715    0.942486652031      -0.0645979339715    0.0573305496386     0.0465926672361     
2400000000.0        0.0576621194504     0.0485955163559     0.942139672351      -0.0673838982317    0.942139672351      -0.0673838982317    0.0576621194504     0.0485955163559     
2500000000.0        0.0580040171284     0.0505959119431     0.941781738288      -0.0701674425377    0.941781738288      -0.0701674425377    0.0580040171284     0.0505959119431     
2600000000.0        0.058356328923      0.0525937755605     0.94141276344       -0.0729484896442    0.94141276344       -0.0729484896442    0.058356328923      0.0525937755605     
2700000000.0        0.0587191295207     0.0545890282939     0.941032672962      -0.075726961822     0.941032672962      -0.075726961822     0.0587191295207     0.0545890282939     
2800000000.0        0.0590924834456     0.0565815908369     0.940641402167      -0.0785027809438    0.940641402167      -0.0785027809438    0.0590924834456     0.0565815908369     
2900000000.0        0.0594764462373     0.0585713835663     0.940238895349      -0.0812758685597    0.940238895349      -0.0812758685597    0.0594764462373     0.0585713835663     
3000000000.0        0.059871065446      0.0605583266094     0.939825104785      -0.0840461459647    0.939825104785      -0.0840461459647    0.059871065446      0.0605583266094     
3100000000.0        0.0602763814796     0.0625423399038     0.939399989893      -0.086813534259     0.939399989893      -0.086813534259     0.0602763814796     0.0625423399038     
3200000000.0        0.0606924283279     0.064523343252      0.938963516501      -0.089577954402     0.938963516501      -0.089577954402     0.0606924283279     0.064523343252      
3300000000.0        0.0611192341862     0.0665012563696     0.938515656229      -0.0923393272621    0.938515656229      -0.0923393272621    0.0611192341862     0.0665012563696     
3400000000.0        0.0615568219945     0.0684759989307     0.938056385946      -0.095097573661     0.938056385946      -0.095097573661     0.0615568219945     0.0684759989307     
3500000000.0        0.0620052099049     0.0704474906079     0.937585687307      -0.0978526144146    0.937585687307      -0.0978526144146    0.0620052099049     0.0704474906079     
3600000000.0        0.0624644116909     0.0724156511104     0.937103546337      -0.100604370371     0.937103546337      -0.100604370371     0.0624644116909     0.0724156511104     
3700000000.0        0.0629344371049     0.0743804002176     0.93660995308       -0.103352762444     0.93660995308       -0.103352762444     0.0629344371049     0.0743804002176     
3800000000.0        0.0634152921937     0.0763416578118     0.936104901282      -0.106097711647     0.936104901282      -0.106097711647     0.0634152921937     0.0763416578118     
3900000000.0        0.0639069795766     0.078299343907      0.93558838811       -0.10883913912      0.93558838811       -0.10883913912      0.0639069795766     0.078299343907      
4000000000.0        0.0644094986922     0.0802533786771     0.935060413906      -0.11157696616      0.935060413906      -0.11157696616      0.0644094986922     0.0802533786771     
4100000000.0        0.0649228460185     0.0822036824814     0.93452098197       -0.114311114246     0.93452098197       -0.114311114246     0.0649228460185     0.0822036824814     
4200000000.0        0.0654470152684     0.0841501758885     0.933970098363      -0.117041505062     0.933970098363      -0.117041505062     0.0654470152684     0.0841501758885     
4300000000.0        0.0659819975658     0.0860927796993     0.933407771728      -0.119768060521     0.933407771728      -0.119768060521     0.0659819975658     0.0860927796993     
4400000000.0        0.0665277816036     0.0880314149685     0.932834013136      -0.122490702787     0.932834013136      -0.122490702787     0.0665277816036     0.0880314149685     
4500000000.0        0.0670843537861     0.0899660030245     0.932248835941      -0.125209354293     0.932248835941      -0.125209354293     0.0670843537861     0.0899660030245     
4600000000.0        0.0676516983576     0.0918964654886     0.931652255653      -0.127923937763     0.931652255653      -0.127923937763     0.0676516983576     0.0918964654886     
4700000000.0        0.0682297975194     0.0938227242933     0.93104428982       -0.130634376229     0.93104428982       -0.130634376229     0.0682297975194     0.0938227242933     
4800000000.0        0.068818631536      0.0957447016996     0.930424957922      -0.133340593048     0.930424957922      -0.133340593048     0.068818631536      0.0957447016996     
4900000000.0        0.0694181788321     0.0976623203134     0.929794281274      -0.13604251192      0.929794281274      -0.13604251192      0.0694181788321     0.0976623203134     
5000000000.0        0.0700284160812     0.0995755031011     0.929152282939      -0.138740056901     0.929152282939      -0.138740056901     0.0700284160812     0.0995755031011     
5100000000.0        0.070649318287      0.101484173405      0.928498987643      -0.141433152421     0.928498987643      -0.141433152421     0.070649318287      0.101484173405      
5200000000.0        0.0712808588579     0.103388254956      0.927834421704      -0.144121723298     0.927834421704      -0.144121723298     0.0712808588579     0.103388254956      
5300000000.0        0.0719230096764     0.105287671892      0.927158612961      -0.146805694748     0.927158612961      -0.146805694748     0.0719230096764     0.105287671892      
5400000000.0        0.0725757411623     0.107182348764      0.92647159071       -0.149484992406     0.92647159071       -0.149484992406     0.0725757411623     0.107182348764      
5500000000.0        0.0732390223322     0.109072210555      0.925773385647      -0.15215954233      0.925773385647      -0.15215954233      0.0732390223322     0.109072210555      
5600000000.0        0.073912820854      0.110957182691      0.925064029812      -0.154829271021     0.925064029812      -0.154829271021     0.073912820854      0.110957182691      
5700000000.0        0.0745971030981     0.112837191048      0.924343556536      -0.157494105427     0.924343556536      -0.157494105427     0.0745971030981     0.112837191048      
5800000000.0        0.0752918341849     0.11471216197       0.923612000397      -0.160153972963     0.923612000397      -0.160153972963     0.0752918341849     0.11471216197       
5900000000.0        0.0759969780298     0.116582022277      0.922869397174      -0.162808801516     0.922869397174      -0.162808801516     0.0759969780298     0.116582022277      
6000000000.0        0.0767124973843     0.118446699274      0.922115783803      -0.165458519456     0.922115783803      -0.165458519456     0.0767124973843     0.118446699274      
6100000000.0        0.0774383538761     0.120306120763      0.92135119834       -0.168103055649     0.92135119834       -0.168103055649     0.0774383538761     0.120306120763      
6200000000.0        0.0781745080455     0.122160215053      0.920575679925      -0.170742339464     0.920575679925      -0.170742339464     0.0781745080455     0.122160215053      
6300000000.0        0.0789209193803     0.12400891097       0.919789268744      -0.173376300786     0.919789268744      -0.173376300786     0.0789209193803     0.12400891097       
6400000000.0        0.0796775463494     0.125852137863      0.918992005998      -0.17600487002      0.918992005998      -0.17600487002      0.0796775463494     0.125852137863      
6500000000.0        0.0804443464335     0.127689825616      0.918183933873      -0.178627978107     0.918183933873      -0.178627978107     0.0804443464335     0.127689825616      
6600000000.0        0.0812212761553     0.129521904656      0.917365095505      -0.181245556524     0.917365095505      -0.181245556524     0.0812212761553     0.129521904656      
6700000000.0        0.0820082911075     0.131348305961      0.916535534959      -0.183857537301     0.916535534959      -0.183857537301     0.0820082911075     0.131348305961      
6800000000.0        0.08280534598       0.133168961067      0.915695297195      -0.186463853023     0.915695297195      -0.186463853023     0.08280534598       0.133168961067      
6900000000.0        0.0836123945855     0.134983802077      0.914844428048      -0.189064436838     0.914844428048      -0.189064436838     0.0836123945855     0.134983802077      
7000000000.0        0.0844293898845     0.136792761668      0.913982974199      -0.191659222471     0.913982974199      -0.191659222471     0.0844293898845     0.136792761668      
7100000000.0        0.0852562840088     0.138595773101      0.913110983154      -0.194248144222     0.913110983154      -0.194248144222     0.0852562840088     0.138595773101      
7200000000.0        0.086093028284      0.140392770221      0.912228503219      -0.196831136981     0.912228503219      -0.196831136981     0.086093028284      0.140392770221      
7300000000.0        0.086939573252      0.142183687472      0.91133558348       -0.199408136229     0.91133558348       -0.199408136229     0.086939573252      0.142183687472      
7400000000.0        0.0877958686917     0.143968459897      0.910432273783      -0.201979078048     0.910432273783      -0.201979078048     0.0877958686917     0.143968459897      
7500000000.0        0.0886618636393     0.145747023149      0.909518624709      -0.204543899127     0.909518624709      -0.204543899127     0.0886618636393     0.145747023149      
7600000000.0        0.0895375064082     0.147519313496      0.908594687559      -0.207102536766     0.908594687559      -0.207102536766     0.0895375064082     0.147519313496      
7700000000.0        0.0904227446081     0.149285267822      0.907660514333      -0.209654928886     0.907660514333      -0.209654928886     0.0904227446081     0.149285267822      
7800000000.0        0.0913175251634     0.151044823642      0.906716157711      -0.212201014029     0.906716157711      -0.212201014029     0.0913175251634     0.151044823642      
7900000000.0        0.0922217943312     0.1527979191        0.905761671035      -0.21474073137      0.905761671035      -0.21474073137      0.0922217943312     0.1527979191        
8000000000.0        0.0931354977187     0.154544492974      0.904797108294      -0.217274020716     0.904797108294      -0.217274020716     0.0931354977187     0.154544492974      
8100000000.0        0.0940585803003     0.156284484689      0.903822524104      -0.219800822515     0.903822524104      -0.219800822515     0.0940585803003     0.156284484689      
8200000000.0        0.094990986434      0.158017834312      0.902837973693      -0.222321077862     0.902837973693      -0.222321077862     0.094990986434      0.158017834312      
8300000000.0        0.0959326598779     0.159744482564      0.901843512884      -0.224834728499     0.901843512884      -0.224834728499     0.0959326598779     0.159744482564      
8400000000.0        0.0968835438055     0.16146437082       0.90083919808       -0.227341716825     0.90083919808       -0.227341716825     0.0968835438055     0.16146437082       
8500000000.0        0.0978435808218     0.163177441117      0.899825086249      -0.229841985895     0.899825086249      -0.229841985895     0.0978435808218     0.163177441117      
8600000000.0        0.0988127129776     0.164883636155      0.898801234906      -0.232335479428     0.898801234906      -0.232335479428     0.0988127129776     0.164883636155      
8700000000.0        0.0997908817849     0.166582899303      0.897767702102      -0.234822141811     0.897767702102      -0.234822141811     0.0997908817849     0.166582899303      
8800000000.0        0.100778028231      0.1682751746        0.896724546408      -0.2373019181       0.896724546408      -0.2373019181       0.100778028231      0.1682751746        
8900000000.0        0.101774092794      0.169960406765      0.895671826899      -0.239774754026     0.895671826899      -0.239774754026     0.101774092794      0.169960406765      
9000000000.0        0.102779015454      0.171638541193      0.894609603143      -0.242240595999     0.894609603143      -0.242240595999     0.102779015454      0.171638541193      
9100000000.0        0.103792735709      0.173309523961      0.893537935185      -0.244699391107     0.893537935185      -0.244699391107     0.103792735709      0.173309523961      
9200000000.0        0.10481519259       0.174973301833      0.892456883536      -0.247151087126     0.892456883536      -0.247151087126     0.10481519259       0.174973301833      
9300000000.0        0.10584632467       0.176629822263      0.891366509155      -0.249595632518     0.891366509155      -0.249595632518     0.10584632467       0.176629822263      
9400000000.0        0.106886070079      0.178279033394      0.890266873442      -0.252032976433     0.890266873442      -0.252032976433     0.106886070079      0.178279033394      
9500000000.0        0.10793436652       0.179920884063      0.889158038221      -0.254463068716     0.889158038221      -0.254463068716     0.10793436652       0.179920884063      
9600000000.0        0.108991151275      0.181555323805      0.888040065727      -0.256885859907     0.888040065727      -0.256885859907     0.108991151275      0.181555323805      
9700000000.0        0.110056361225      0.183182302852      0.886913018597      -0.259301301243     0.886913018597      -0.259301301243     0.110056361225      0.183182302852      
9800000000.0        0.111129932858      0.18480177214       0.885776959856      -0.261709344661     0.885776959856      -0.261709344661     0.111129932858      0.18480177214       
9900000000.0        0.112211802279      0.186413683306      0.8846319529        -0.264109942799     0.8846319529        -0.264109942799     0.112211802279      0.186413683306      
10000000000.0       0.113301905229      0.18801798869       0.883478061494      -0.266503049001     0.883478061494      -0.266503049001     0.113301905229      0.18801798869       
