# Hz S RI R 50.00 
100000000.0         0.00779823211016    0.00127834792615    0.992200117382      -0.00182398842697   0.992200117382      -0.00182398842697   0.00779823211016    0.00127834792615    
200000000.0         0.00785631580658    0.0025563568152     0.992141084655      -0.00364764118292   0.992141084655      -0.00364764118292   0.00785631580658    0.0025563568152     
300000000.0         0.00790532826078    0.00383413600459    0.992090824625      -0.00547106972774   0.992090824625      -0.00547106972774   0.00790532826078    0.00383413600459    
400000000.0         0.00795200927509    0.00511171015883    0.992042597467      -0.00729430041622   0.992042597467      -0.00729430041622   0.00795200927509    0.00511171015883    
500000000.0         0.00799895759958    0.00638908421885    0.991993804406      -0.00911733966241   0.991993804406      -0.00911733966241   0.00799895759958    0.00638908421885    
600000000.0         0.00804749990932    0.0076662543841     0.991943118742      -0.0109401849969    0.991943118742      -0.0109401849969    0.00804749990932    0.0076662543841     
700000000.0         0.00809842051876    0.00894321205976    0.991889756131      -0.0127628290524    0.991889756131      -0.0127628290524    0.00809842051876    0.00894321205976    
800000000.0         0.00815222783282    0.0102199456887     0.991833208137      -0.0145852614192    0.991833208137      -0.0145852614192    0.00815222783282    0.0102199456887     
900000000.0         0.00820927303899    0.0114964417363     0.991773123541      -0.0164074696442    0.991773123541      -0.0164074696442    0.00820927303899    0.0114964417363     
1000000000.0        0.00826981029666    0.0127726852732     0.991709248148      -0.0182294398254    0.991709248148      -0.0182294398254    0.00826981029666    0.0127726852732     
1100000000.0        0.00833403021008    0.0140486603465     0.991641391316      -0.0200511569899    0.991641391316      -0.0200511569899    0.00833403021008    0.0140486603465     
1200000000.0        0.0084020797825     0.0153243502279     0.991569406005      -0.0218726053486    0.991569406005      -0.0218726053486    0.0084020797825     0.0153243502279     
1300000000.0        0.00847407497551    0.0165997375873     0.991493176211      -0.0236937684747    0.991493176211      -0.0236937684747    0.00847407497551    0.0165997375873     
1400000000.0        0.00855010896772    0.0178748046184     0.991412608714      -0.0255146294326    0.991412608714      -0.0255146294326    0.00855010896772    0.0178748046184     
1500000000.0        0.00863025778463    0.0191495331318     0.991327627443      -0.0273351708744    0.991327627443      -0.0273351708744    0.00863025778463    0.0191495331318     
1600000000.0        0.00871458425434    0.0204239046266     0.991238169525      -0.0291553751138    0.991238169525      -0.0291553751138    0.00871458425434    0.0204239046266     
1700000000.0        0.00880314085932    0.021697900345      0.991144182429      -0.0309752241833    0.991144182429      -0.0309752241833    0.00880314085932    0.021697900345      
1800000000.0        0.00889597183844    0.0229715013162     0.991045621866      -0.0327946998798    0.991045621866      -0.0327946998798    0.00889597183844    0.0229715013162     
1900000000.0        0.00899311476669    0.0242446883918     0.990942450211      -0.0346137838015    0.990942450211      -0.0346137838015    0.00899311476669    0.0242446883918     
2000000000.0        0.00909460176251    0.0255174422737     0.990834635292      -0.0364324573772    0.990834635292      -0.0364324573772    0.00909460176251    0.0255174422737     
2100000000.0        0.00920046042475    0.0267897435382     0.990722149457      -0.0382507018921    0.990722149457      -0.0382507018921    0.00920046042475    0.0267897435382     
2200000000.0        0.00931071456947    0.0280615726557     0.990604968832      -0.0400684985076    0.990604968832      -0.0400684985076    0.00931071456947    0.0280615726557     
2300000000.0        0.00942538481644    0.0293329100065     0.99048307274       -0.0418858282795    0.99048307274       -0.0418858282795    0.00942538481644    0.0293329100065     
2400000000.0        0.00954448906116    0.0306037358957     0.990356443228      -0.0437026721724    0.990356443228      -0.0437026721724    0.00954448906116    0.0306037358957     
2500000000.0        0.0096680428584     0.0318740305648     0.990225064679      -0.0455190110728    0.990225064679      -0.0455190110728    0.0096680428584     0.0318740305648     
2600000000.0        0.00979605973686    0.0331437742023     0.990088923503      -0.0473348258005    0.990088923503      -0.0473348258005    0.00979605973686    0.0331437742023     
2700000000.0        0.00992855145926    0.0344129469526     0.989948007874      -0.0491500971176    0.989948007874      -0.0491500971176    0.00992855145926    0.0344129469526     
2800000000.0        0.0100655282391     0.035681528924      0.989802307514      -0.0509648057378    0.989802307514      -0.0509648057378    0.0100655282391     0.035681528924      
2900000000.0        0.0102069989227     0.0369495001958     0.98965181351       -0.0527789323335    0.98965181351       -0.0527789323335    0.0102069989227     0.0369495001958     
3000000000.0        0.0103529711425     0.0382168408245     0.989496518161      -0.0545924575427    0.989496518161      -0.0545924575427    0.0103529711425     0.0382168408245     
3100000000.0        0.010503451448      0.0394835308492     0.98933641485       -0.0564053619748    0.98933641485       -0.0564053619748    0.010503451448      0.0394835308492     
3200000000.0        0.0106584454171     0.0407495502967     0.989171497928      -0.0582176262164    0.989171497928      -0.0582176262164    0.0106584454171     0.0407495502967     
3300000000.0        0.0108179577516     0.0420148791863     0.989001762623      -0.0600292308359    0.989001762623      -0.0600292308359    0.0108179577516     0.0420148791863     
3400000000.0        0.0109819923608     0.0432794975331     0.988827204951      -0.0618401563879    0.988827204951      -0.0618401563879    0.0109819923608     0.0432794975331     
3500000000.0        0.0111505524322     0.0445433853526     0.988647821652      -0.0636503834175    0.988647821652      -0.0636503834175    0.0111505524322     0.0445433853526     
3600000000.0        0.0113236404947     0.0458065226635     0.98846361012       -0.065459892464     0.98846361012       -0.065459892464     0.0113236404947     0.0458065226635     
3700000000.0        0.0115012584732     0.0470688894912     0.988274568356      -0.0672686640641    0.988274568356      -0.0672686640641    0.0115012584732     0.0470688894912     
3800000000.0        0.0116834077361     0.0483304658703     0.988080694911      -0.0690766787554    0.988080694911      -0.0690766787554    0.0116834077361     0.0483304658703     
3900000000.0        0.0118700891381     0.0495912318476     0.987881988854      -0.0708839170788    0.987881988854      -0.0708839170788    0.0118700891381     0.0495912318476     
4000000000.0        0.0120613030576     0.0508511674845     0.987678449724      -0.0726903595819    0.987678449724      -0.0726903595819    0.0120613030576     0.0508511674845     
4100000000.0        0.0122570494296     0.0521102528591     0.987470077507      -0.0744959868212    0.987470077507      -0.0744959868212    0.0122570494296     0.0521102528591     
4200000000.0        0.0124573277754     0.0533684680689     0.987256872597      -0.0763007793643    0.987256872597      -0.0763007793643    0.0124573277754     0.0533684680689     
4300000000.0        0.0126621372291     0.0546257932322     0.987038835778      -0.0781047177928    0.987038835778      -0.0781047177928    0.0126621372291     0.0546257932322     
4400000000.0        0.0128714765609     0.0558822084903     0.986815968195      -0.0799077827036    0.986815968195      -0.0799077827036    0.0128714765609     0.0558822084903     
4500000000.0        0.0130853441988     0.0571376940095     0.986588271333      -0.0817099547116    0.986588271333      -0.0817099547116    0.0130853441988     0.0571376940095     
4600000000.0        0.0133037382474     0.0583922299825     0.986355747002      -0.083511214451     0.986355747002      -0.083511214451     0.0133037382474     0.0583922299825     
4700000000.0        0.0135266565051     0.0596457966303     0.986118397314      -0.0853115425778    0.986118397314      -0.0853115425778    0.0135266565051     0.0596457966303     
4800000000.0        0.01375409648       0.0608983742034     0.985876224673      -0.0871109197708    0.985876224673      -0.0871109197708    0.01375409648       0.0608983742034     
4900000000.0        0.0139860554039     0.0621499429838     0.985629231757      -0.0889093267337    0.985629231757      -0.0889093267337    0.0139860554039     0.0621499429838     
5000000000.0        0.0142225302449     0.0634004832859     0.985377421507      -0.0907067441966    0.985377421507      -0.0907067441966    0.0142225302449     0.0634004832859     
5100000000.0        0.0144635177197     0.064649975458      0.985120797113      -0.0925031529173    0.985120797113      -0.0925031529173    0.0144635177197     0.064649975458      
5200000000.0        0.014709014304      0.065898399884      0.984859362008      -0.0942985336831    0.984859362008      -0.0942985336831    0.014709014304      0.065898399884      
5300000000.0        0.0149590162423     0.0671457369841     0.984593119851      -0.0960928673117    0.984593119851      -0.0960928673117    0.0149590162423     0.0671457369841     
5400000000.0        0.015213519557      0.0683919672163     0.984322074527      -0.097886134653     0.984322074527      -0.097886134653     0.015213519557      0.0683919672163     
5500000000.0        0.0154725200566     0.0696370710774     0.984046230129      -0.0996783165902    0.984046230129      -0.0996783165902    0.0154725200566     0.0696370710774     
5600000000.0        0.0157360133436     0.0708810291045     0.983765590959      -0.101469394041     0.983765590959      -0.101469394041     0.0157360133436     0.0708810291045     
5700000000.0        0.0160039948211     0.0721238218756     0.983480161516      -0.103259347958     0.983480161516      -0.103259347958     0.0160039948211     0.0721238218756     
5800000000.0        0.0162764596994     0.073365430011      0.983189946489      -0.105048159333     0.983189946489      -0.105048159333     0.0162764596994     0.073365430011      
5900000000.0        0.0165534030026     0.0746058341742     0.982894950756      -0.106835809194     0.982894950756      -0.106835809194     0.0165534030026     0.0746058341742     
6000000000.0        0.0168348195733     0.0758450150729     0.982595179372      -0.108622278608     0.982595179372      -0.108622278608     0.0168348195733     0.0758450150729     
6100000000.0        0.0171207040784     0.0770829534601     0.982290637569      -0.110407548683     0.982290637569      -0.110407548683     0.0171207040784     0.0770829534601     
6200000000.0        0.0174110510139     0.0783196301348     0.981981330748      -0.112191600568     0.981981330748      -0.112191600568     0.0174110510139     0.0783196301348     
6300000000.0        0.0177058547093     0.0795550259432     0.981667264477      -0.113974415455     0.981667264477      -0.113974415455     0.0177058547093     0.0795550259432     
6400000000.0        0.0180051093316     0.0807891217794     0.981348444483      -0.115755974577     0.981348444483      -0.115755974577     0.0180051093316     0.0807891217794     
6500000000.0        0.0183088088897     0.0820218985864     0.981024876653      -0.117536259215     0.981024876653      -0.117536259215     0.0183088088897     0.0820218985864     
6600000000.0        0.018616947238      0.0832533373569     0.980696567025      -0.119315250691     0.980696567025      -0.119315250691     0.018616947238      0.0832533373569     
6700000000.0        0.0189295180795     0.0844834191341     0.980363521791      -0.121092930377     0.980363521791      -0.121092930377     0.0189295180795     0.0844834191341     
6800000000.0        0.0192465149698     0.0857121250128     0.980025747285      -0.122869279689     0.980025747285      -0.122869279689     0.0192465149698     0.0857121250128     
6900000000.0        0.0195679313193     0.0869394361397     0.97968324999       -0.124644280092     0.97968324999       -0.124644280092     0.0195679313193     0.0869394361397     
7000000000.0        0.0198937603971     0.0881653337148     0.979336036527      -0.1264179131       0.979336036527      -0.1264179131       0.0198937603971     0.0881653337148     
7100000000.0        0.0202239953328     0.0893897989916     0.978984113654      -0.128190160277     0.978984113654      -0.128190160277     0.0202239953328     0.0893897989916     
7200000000.0        0.0205586291198     0.0906128132784     0.978627488269      -0.129961003237     0.978627488269      -0.129961003237     0.0205586291198     0.0906128132784     
7300000000.0        0.0208976546177     0.0918343579386     0.978266167399      -0.131730423644     0.978266167399      -0.131730423644     0.0208976546177     0.0918343579386     
7400000000.0        0.0212410645542     0.0930544143917     0.977900158203      -0.133498403215     0.977900158203      -0.133498403215     0.0212410645542     0.0930544143917     
7500000000.0        0.0215888515281     0.094272964114      0.97752946797       -0.135264923722     0.97752946797       -0.135264923722     0.0215888515281     0.094272964114      
7600000000.0        0.0219410080105     0.0954899886392     0.977154104113      -0.137029966987     0.977154104113      -0.137029966987     0.0219410080105     0.0954899886392     
7700000000.0        0.0222975263479     0.0967054695592     0.976774074172      -0.138793514889     0.976774074172      -0.138793514889     0.0222975263479     0.0967054695592     
7800000000.0        0.0226583987632     0.0979193885247     0.976389385806      -0.140555549361     0.976389385806      -0.140555549361     0.0226583987632     0.0979193885247     
7900000000.0        0.0230236173583     0.0991317272461     0.976000046798      -0.142316052391     0.976000046798      -0.142316052391     0.0230236173583     0.0991317272461     
8000000000.0        0.0233931741153     0.100342467494      0.975606065048      -0.144075006026     0.975606065048      -0.144075006026     0.0233931741153     0.100342467494      
8100000000.0        0.0237670608987     0.101551591099      0.975207448573      -0.145832392368     0.975207448573      -0.145832392368     0.0237670608987     0.101551591099      
8200000000.0        0.0241452694568     0.102759079955      0.974804205506      -0.147588193579     0.974804205506      -0.147588193579     0.0241452694568     0.102759079955      
8300000000.0        0.0245277914235     0.103964916017      0.974396344093      -0.149342391878     0.974396344093      -0.149342391878     0.0245277914235     0.103964916017      
8400000000.0        0.0249146183195     0.105169081302      0.973983872693      -0.151094969543     0.973983872693      -0.151094969543     0.0249146183195     0.105169081302      
8500000000.0        0.0253057415542     0.106371557892      0.973566799776      -0.152845908915     0.973566799776      -0.152845908915     0.0253057415542     0.106371557892      
8600000000.0        0.0257011524267     0.107572327931      0.97314513392       -0.154595192393     0.97314513392       -0.154595192393     0.0257011524267     0.107572327931      
8700000000.0        0.0261008421277     0.10877137363       0.972718883812      -0.156342802437     0.972718883812      -0.156342802437     0.0261008421277     0.10877137363       
8800000000.0        0.0265048017404     0.109968677264      0.972288058246      -0.158088721571     0.972288058246      -0.158088721571     0.0265048017404     0.109968677264      
8900000000.0        0.0269130222421     0.111164221174      0.97185266612       -0.159832932381     0.97185266612       -0.159832932381     0.0269130222421     0.111164221174      
9000000000.0        0.0273254945051     0.112357987767      0.971412716438      -0.161575417515     0.971412716438      -0.161575417515     0.0273254945051     0.112357987767      
9100000000.0        0.0277422092986     0.113549959517      0.970968218305      -0.163316159686     0.970968218305      -0.163316159686     0.0277422092986     0.113549959517      
9200000000.0        0.0281631572892     0.114740118965      0.970519180927      -0.165055141671     0.970519180927      -0.165055141671     0.0281631572892     0.114740118965      
9300000000.0        0.0285883290425     0.115928448722      0.970065613614      -0.166792346313     0.970065613614      -0.166792346313     0.0285883290425     0.115928448722      
9400000000.0        0.0290177150241     0.117114931465      0.969607525771      -0.168527756519     0.969607525771      -0.168527756519     0.0290177150241     0.117114931465      
9500000000.0        0.0294513056007     0.118299549943      0.969144926904      -0.170261355262     0.969144926904      -0.170261355262     0.0294513056007     0.118299549943      
9600000000.0        0.0298890910414     0.119482286973      0.968677826616      -0.171993125585     0.968677826616      -0.171993125585     0.0298890910414     0.119482286973      
9700000000.0        0.0303310615186     0.120663125441      0.968206234604      -0.173723050594     0.968206234604      -0.173723050594     0.0303310615186     0.120663125441      
9800000000.0        0.0307772071089     0.121842048306      0.967730160661      -0.175451113466     0.967730160661      -0.175451113466     0.0307772071089     0.121842048306      
9900000000.0        0.0312275177944     0.123019038597      0.967249614676      -0.177177297445     0.967249614676      -0.177177297445     0.0312275177944     0.123019038597      
10000000000.0       0.0316819834637     0.124194079416      0.966764606628      -0.178901585845     0.966764606628      -0.178901585845     0.0316819834637     0.124194079416      
