# Hz S RI R 50.00 
100000000.0         0.00551029493111    0.00038527218976    0.99448848228       -0.000598804447045  0.99448848228       -0.000598804447045  0.00551029493111    0.00038527218976    
200000000.0         0.00554706279817    0.000770472591226   0.994451445942      -0.00119753776631   0.994451445942      -0.00119753776631   0.00554706279817    0.000770472591226   
300000000.0         0.00557449201908    0.00115562988365    0.994423702564      -0.00179622902656   0.994423702564      -0.00179622902656   0.00557449201908    0.00115562988365    
400000000.0         0.00559736677141    0.00154075375083    0.994400467969      -0.00239488821595   0.994400467969      -0.00239488821595   0.00559736677141    0.00154075375083    
500000000.0         0.00561753394195    0.0019258494469     0.994379895266      -0.00299352085037   0.994379895266      -0.00299352085037   0.00561753394195    0.0019258494469     
600000000.0         0.00563593761058    0.00231092025997    0.994361040375      -0.00359213045228   0.994361040375      -0.00359213045228   0.00563593761058    0.00231092025997    
700000000.0         0.00565313674902    0.00269596839805    0.994343344321      -0.00419071944399   0.994343344321      -0.00419071944399   0.00565313674902    0.00269596839805    
800000000.0         0.00566949433751    0.00308099540011    0.994326444121      -0.0047892895635    0.994326444121      -0.0047892895635    0.00566949433751    0.00308099540011    
900000000.0         0.00568526164324    0.00346600235716    0.994310088506      -0.00538784208832   0.994310088506      -0.00538784208832   0.00568526164324    0.00346600235716    
1000000000.0        0.00570062097704    0.0038509900431     0.994294095162      -0.00598637796859   0.994294095162      -0.00598637796859   0.00570062097704    0.0038509900431     
1100000000.0        0.00571570948147    0.0042359589979     0.994278326945      -0.00658489791169   0.994278326945      -0.00658489791169   0.00571570948147    0.0042359589979     
1200000000.0        0.00573063331772    0.00462090958331    0.994262677691      -0.00718340243918   0.994262677691      -0.00718340243918   0.00573063331772    0.00462090958331    
1300000000.0        0.00574547659909    0.00500584202174    0.994247063282      -0.00778189192659   0.994247063282      -0.0077818919266    0.00574547659909    0.00500584202174    
1400000000.0        0.00576030726766    0.00539075642442    0.994231415775      -0.00838036663225   0.994231415775      -0.00838036663225   0.00576030726766    0.00539075642442    
1500000000.0        0.00577518110251    0.00577565281217    0.994215679387      -0.00897882671874   0.994215679387      -0.00897882671874   0.00577518110251    0.00577565281217    
1600000000.0        0.00579014453697    0.00616053113131    0.994199807681      -0.00957727226929   0.994199807681      -0.00957727226929   0.00579014453697    0.00616053113131    
1700000000.0        0.00580523669073    0.00654539126594    0.994183761536      -0.0101757033004    0.994183761536      -0.0101757033004    0.00580523669073    0.00654539126594    
1800000000.0        0.00582049086833    0.00693023304763    0.994167507642      -0.010774119772     0.994167507642      -0.010774119772     0.00582049086833    0.00693023304763    
1900000000.0        0.00583593568577    0.00731505626314    0.99415101738       -0.0113725215954    0.99415101738       -0.0113725215954    0.00583593568577    0.00731505626314    
2000000000.0        0.00585159593202    0.00769986066074    0.994134265959      -0.01197090864      0.994134265959      -0.01197090864      0.00585159593202    0.00769986066074    
2100000000.0        0.00586749323778    0.0080846459554     0.994117231743      -0.0125692807384    0.994117231743      -0.0125692807384    0.00586749323778    0.0080846459554     
2200000000.0        0.00588364660171    0.008469411833      0.994099895731      -0.0131676376912    0.994099895731      -0.0131676376912    0.00588364660171    0.008469411833      
2300000000.0        0.00590007280941    0.00885415795394    0.994082241133      -0.0137659792707    0.994082241133      -0.0137659792707    0.00590007280941    0.00885415795394    
2400000000.0        0.00591678677082    0.00923888395617    0.994064253034      -0.0143643052238    0.994064253034      -0.0143643052238    0.00591678677082    0.00923888395617    
2500000000.0        0.00593380179445    0.00962358945772    0.994045918124      -0.0149626152751    0.994045918124      -0.0149626152751    0.00593380179445    0.00962358945772    
2600000000.0        0.00595112981242    0.010008274059      0.994027224465      -0.015560909129     0.994027224465      -0.015560909129     0.00595112981242    0.010008274059      
2700000000.0        0.00596878156662    0.0103929373444     0.994008161312      -0.0161591864718    0.994008161312      -0.0161591864718    0.00596878156662    0.0103929373444     
2800000000.0        0.00598676676385    0.0107775788844     0.993988718954      -0.0167574469733    0.993988718954      -0.0167574469733    0.00598676676385    0.0107775788844     
2900000000.0        0.00600509420605    0.0111621982367     0.993968888584      -0.0173556902886    0.993968888584      -0.0173556902886    0.00600509420605    0.0111621982367     
3000000000.0        0.00602377190032    0.0115467949473     0.993948662192      -0.0179539160592    0.993948662192      -0.0179539160592    0.00602377190032    0.0115467949473     
3100000000.0        0.00604280715245    0.0119313685521     0.993928032466      -0.0185521239144    0.993928032466      -0.0185521239144    0.00604280715245    0.0119313685521     
3200000000.0        0.0060622066468     0.0123159185773     0.993906992719      -0.019150313472     0.993906992719      -0.019150313472     0.0060622066468     0.0123159185773     
3300000000.0        0.00608197651497    0.0127004445408     0.993885536814      -0.0197484843397    0.993885536814      -0.0197484843397    0.00608197651497    0.0127004445408     
3400000000.0        0.00610212239509    0.0130849459526     0.993863659108      -0.0203466361156    0.993863659108      -0.0203466361156    0.00610212239509    0.0130849459526     
3500000000.0        0.0061226494832     0.0134694223156     0.993841354401      -0.0209447683889    0.993841354401      -0.0209447683889    0.0061226494832     0.0134694223156     
3600000000.0        0.00614356257804    0.0138538731261     0.993818617889      -0.021542880741     0.993818617889      -0.021542880741     0.00614356257804    0.0138538731261     
3700000000.0        0.00616486612019    0.0142382978748     0.993795445127      -0.0221409727456    0.993795445127      -0.0221409727456    0.00616486612019    0.0142382978748     
3800000000.0        0.00618656422646    0.0146226960465     0.993771831993      -0.0227390439695    0.993771831993      -0.0227390439695    0.00618656422646    0.0146226960465     
3900000000.0        0.00620866072012    0.0150070671215     0.993747774659      -0.0233370939732    0.993747774659      -0.0233370939732    0.00620866072012    0.0150070671215     
4000000000.0        0.00623115915774    0.0153914105751     0.993723269564      -0.0239351223111    0.993723269564      -0.0239351223111    0.00623115915774    0.0153914105751     
4100000000.0        0.00625406285285    0.0157757258786     0.993698313389      -0.0245331285321    0.993698313389      -0.0245331285321    0.00625406285285    0.0157757258786     
4200000000.0        0.00627737489711    0.0161600124995     0.993672903037      -0.0251311121798    0.993672903037      -0.0251311121798    0.00627737489711    0.0161600124995     
4300000000.0        0.00630109817911    0.0165442699014     0.993647035615      -0.025729072793     0.993647035615      -0.025729072793     0.00630109817911    0.0165442699014     
4400000000.0        0.00632523540123    0.0169284975451     0.993620708414      -0.026327009906     0.993620708414      -0.026327009906     0.00632523540123    0.0169284975451     
4500000000.0        0.00634978909476    0.017312694888      0.993593918899      -0.026924923049     0.993593918899      -0.026924923049     0.00634978909476    0.017312694888      
4600000000.0        0.00637476163345    0.0176968613849     0.99356666469       -0.0275228117479    0.99356666469       -0.0275228117479    0.00637476163345    0.0176968613849     
4700000000.0        0.00640015524581    0.0180809964878     0.993538943554      -0.0281206755252    0.993538943554      -0.0281206755252    0.00640015524581    0.0180809964878     
4800000000.0        0.00642597202613    0.0184650996466     0.99351075339       -0.0287185138997    0.99351075339       -0.0287185138997    0.00642597202613    0.0184650996466     
4900000000.0        0.00645221394449    0.0188491703089     0.993482092223      -0.029316326387     0.993482092223      -0.029316326387     0.00645221394449    0.0188491703089     
5000000000.0        0.00647888285587    0.0192332079202     0.993452958193      -0.0299141124997    0.993452958193      -0.0299141124997    0.00647888285587    0.0192332079202     
5100000000.0        0.00650598050839    0.0196172119243     0.993423349546      -0.0305118717472    0.993423349546      -0.0305118717472    0.00650598050839    0.0196172119243     
5200000000.0        0.00653350855083    0.0200011817632     0.993393264628      -0.0311096036366    0.993393264628      -0.0311096036366    0.00653350855083    0.0200011817632     
5300000000.0        0.00656146853951    0.0203851168773     0.993362701876      -0.0317073076721    0.993362701876      -0.0317073076721    0.00656146853951    0.0203851168773     
5400000000.0        0.0065898619445     0.0207690167055     0.993331659815      -0.0323049833556    0.993331659815      -0.0323049833556    0.0065898619445     0.0207690167055     
5500000000.0        0.00661869015546    0.0211528806856     0.993300137049      -0.0329026301866    0.993300137049      -0.0329026301866    0.00661869015546    0.0211528806856     
5600000000.0        0.0066479544868     0.0215367082539     0.993268132258      -0.0335002476627    0.993268132258      -0.0335002476627    0.0066479544868     0.0215367082539     
5700000000.0        0.00667765618258    0.0219204988457     0.993235644193      -0.0340978352791    0.993235644193      -0.0340978352791    0.00667765618258    0.0219204988457     
5800000000.0        0.00670779642093    0.0223042518952     0.993202671668      -0.0346953925294    0.993202671668      -0.0346953925294    0.00670779642093    0.0223042518952     
5900000000.0        0.00673837631819    0.0226879668359     0.993169213562      -0.0352929189053    0.993169213562      -0.0352929189053    0.00673837631818    0.0226879668359     
6000000000.0        0.00676939693259    0.0230716431002     0.993135268811      -0.0358904138967    0.993135268811      -0.0358904138967    0.00676939693259    0.0230716431002     
6100000000.0        0.00680085926788    0.0234552801197     0.993100836404      -0.0364878769918    0.993100836404      -0.0364878769918    0.00680085926788    0.0234552801197     
6200000000.0        0.00683276427644    0.0238388773254     0.993065915384      -0.0370853076775    0.993065915384      -0.0370853076775    0.00683276427644    0.0238388773254     
6300000000.0        0.00686511286232    0.0242224341477     0.99303050484       -0.0376827054391    0.99303050484       -0.0376827054391    0.00686511286232    0.0242224341477     
6400000000.0        0.00689790588401    0.0246059500163     0.992994603907      -0.0382800697606    0.992994603907      -0.0382800697606    0.00689790588401    0.0246059500163     
6500000000.0        0.00693114415703    0.0249894243605     0.992958211763      -0.0388774001245    0.992958211763      -0.0388774001245    0.00693114415703    0.0249894243605     
6600000000.0        0.00696482845629    0.0253728566091     0.992921327628      -0.0394746960125    0.992921327628      -0.0394746960125    0.00696482845629    0.0253728566091     
6700000000.0        0.00699895951833    0.0257562461904     0.992883950759      -0.0400719569046    0.992883950759      -0.0400719569046    0.00699895951833    0.0257562461904     
6800000000.0        0.0070335380434     0.0261395925325     0.992846080449      -0.0406691822801    0.992846080449      -0.0406691822801    0.0070335380434     0.0261395925325     
6900000000.0        0.00706856469738    0.0265228950631     0.992807716025      -0.0412663716171    0.992807716025      -0.0412663716171    0.00706856469738    0.0265228950631     
7000000000.0        0.0071040401136     0.0269061532097     0.992768856849      -0.0418635243927    0.992768856849      -0.0418635243927    0.0071040401136     0.0269061532097     
7100000000.0        0.00713996489452    0.0272893663995     0.99272950231       -0.0424606400832    0.99272950231       -0.0424606400832    0.00713996489452    0.0272893663995     
7200000000.0        0.00717633961329    0.0276725340595     0.99268965183       -0.0430577181639    0.99268965183       -0.0430577181639    0.00717633961329    0.0276725340595     
7300000000.0        0.00721316481525    0.0280556556166     0.992649304857      -0.0436547581092    0.992649304857      -0.0436547581092    0.00721316481525    0.0280556556166     
7400000000.0        0.00725044101932    0.0284387304977     0.992608460864      -0.044251759393     0.992608460864      -0.044251759393     0.00725044101932    0.0284387304977     
7500000000.0        0.00728816871923    0.0288217581294     0.992567119352      -0.0448487214882    0.992567119352      -0.0448487214882    0.00728816871923    0.0288217581294     
7600000000.0        0.00732634838483    0.0292047379385     0.992525279844      -0.045445643867     0.992525279844      -0.045445643867     0.00732634838483    0.0292047379385     
7700000000.0        0.00736498046317    0.0295876693515     0.992482941887      -0.046042526001     0.992482941887      -0.046042526001     0.00736498046317    0.0295876693515     
7800000000.0        0.00740406537959    0.0299705517952     0.992440105048      -0.0466393673613    0.992440105048      -0.0466393673613    0.00740406537959    0.0299705517952     
7900000000.0        0.00744360353874    0.0303533846962     0.992396768916      -0.0472361674182    0.992396768916      -0.0472361674182    0.00744360353874    0.0303533846962     
8000000000.0        0.0074835953255     0.0307361674814     0.992352933099      -0.0478329256416    0.992352933099      -0.0478329256416    0.0074835953255     0.0307361674814     
8100000000.0        0.00752404110594    0.0311188995775     0.992308597225      -0.0484296415008    0.992308597225      -0.0484296415008    0.00752404110594    0.0311188995775     
8200000000.0        0.00756494122808    0.0315015804116     0.992263760938      -0.0490263144646    0.992263760938      -0.0490263144646    0.00756494122808    0.0315015804116     
8300000000.0        0.00760629602277    0.0318842094107     0.992218423901      -0.0496229440014    0.992218423901      -0.0496229440014    0.00760629602277    0.0318842094107     
8400000000.0        0.00764810580436    0.0322667860021     0.992172585793      -0.0502195295791    0.992172585793      -0.0502195295791    0.00764810580436    0.0322667860021     
8500000000.0        0.00769037087151    0.0326493096133     0.992126246308      -0.0508160706653    0.992126246308      -0.0508160706653    0.00769037087151    0.0326493096133     
8600000000.0        0.00773309150775    0.0330317796718     0.992079405155      -0.0514125667271    0.992079405155      -0.0514125667271    0.00773309150775    0.0330317796718     
8700000000.0        0.0077762679822     0.0334141956054     0.992032062058      -0.0520090172313    0.992032062058      -0.0520090172313    0.0077762679822     0.0334141956054     
8800000000.0        0.00781990055017    0.0337965568422     0.991984216755      -0.0526054216444    0.991984216755      -0.0526054216444    0.00781990055017    0.0337965568422     
8900000000.0        0.00786398945365    0.0341788628106     0.991935868998      -0.0532017794325    0.991935868998      -0.0532017794325    0.00786398945365    0.0341788628106     
9000000000.0        0.00790853492196    0.034561112939      0.991887018548      -0.0537980900616    0.991887018548      -0.0537980900616    0.00790853492196    0.034561112939      
9100000000.0        0.00795353717216    0.0349433066562     0.991837665184      -0.0543943529971    0.991837665184      -0.0543943529971    0.00795353717216    0.0349433066562     
9200000000.0        0.00799899640961    0.0353254433914     0.99178780869       -0.0549905677045    0.99178780869       -0.0549905677045    0.00799899640961    0.0353254433914     
9300000000.0        0.00804491282841    0.0357075225739     0.991737448868      -0.055586733649     0.991737448868      -0.055586733649     0.00804491282841    0.0357075225739     
9400000000.0        0.00809128661182    0.0360895436335     0.991686585525      -0.0561828502954    0.991686585525      -0.0561828502954    0.00809128661182    0.0360895436335     
9500000000.0        0.0081381179327     0.0364715060002     0.991635218483      -0.0567789171084    0.991635218483      -0.0567789171084    0.0081381179327     0.0364715060002     
9600000000.0        0.00818540695388    0.0368534091044     0.99158334757       -0.0573749335527    0.99158334757       -0.0573749335527    0.00818540695388    0.0368534091044     
9700000000.0        0.00823315382857    0.0372352523766     0.991530972626      -0.0579708990927    0.991530972626      -0.0579708990927    0.00823315382857    0.0372352523766     
9800000000.0        0.00828135870069    0.0376170352481     0.991478093501      -0.0585668131926    0.991478093501      -0.0585668131926    0.00828135870069    0.0376170352481     
9900000000.0        0.00833002170523    0.0379987571501     0.991424710052      -0.0591626753167    0.991424710052      -0.0591626753167    0.00833002170523    0.0379987571501     
10000000000.0       0.00837914296858    0.0383804175146     0.991370822145      -0.0597584849288    0.991370822145      -0.0597584849288    0.00837914296858    0.0383804175146     
