# Hz S RI R 50.00 
100000000.0         0.0628527628036     0.00390089301275    0.937143523848      -0.00546714104805   0.937143523848      -0.00546714104805   0.0628527628036     0.00390089301275    
200000000.0         0.063308613181      0.00779334499086    0.936682451341      -0.0109258557475    0.936682451341      -0.0109258557475    0.063308613181      0.00779334499086    
300000000.0         0.063704461695      0.0116798721702     0.936278871075      -0.0163786737268    0.936278871075      -0.0163786737268    0.063704461695      0.0116798721702     
400000000.0         0.06409173832       0.0155609224364     0.935881352343      -0.0218260548278    0.935881352343      -0.0218260548278    0.06409173832       0.0155609224364     
500000000.0         0.0644902434329     0.0194364638324     0.935470094041      -0.0272679783279    0.935470094041      -0.0272679783279    0.0644902434329     0.0194364638324     
600000000.0         0.0649100505134     0.023306252972      0.935035021933      -0.0327042116054    0.935035021933      -0.0327042116054    0.0649100505134     0.023306252972      
700000000.0         0.0653570787028     0.0271699315556     0.934570216077      -0.0381344067818    0.934570216077      -0.0381344067818    0.0653570787028     0.0271699315556     
800000000.0         0.0658351280621     0.0310270712408     0.934071875557      -0.0435581456699    0.934071875557      -0.0435581456699    0.0658351280621     0.0310270712408     
900000000.0         0.066346786364      0.034877197842      0.933537411686      -0.0489749640235    0.933537411686      -0.0489749640235    0.066346786364      0.034877197842      
1000000000.0        0.0668938890134     0.0387198057511     0.932964988083      -0.0543843659928    0.932964988083      -0.0543843659928    0.0668938890134     0.0387198057511     
1100000000.0        0.067477774873      0.0425543671794     0.93235326484       -0.0597858333935    0.93235326484       -0.0597858333935    0.067477774873      0.0425543671794     
1200000000.0        0.0680994388068     0.0463803384261     0.931701245986      -0.0651788319944    0.931701245986      -0.0651788319944    0.0680994388068     0.0463803384261     
1300000000.0        0.0687596277262     0.0501971643266     0.931008183431      -0.0705628159815    0.931008183431      -0.0705628159815    0.0687596277262     0.0501971643266     
1400000000.0        0.0694589037814     0.0540042815312     0.930273513776      -0.0759372312497    0.930273513776      -0.0759372312497    0.0694589037814     0.0540042815312     
1500000000.0        0.0701976874711     0.0578011210012     0.929496815207      -0.0813015179086    0.929496815207      -0.0813015179086    0.0701976874711     0.0578011210012     
1600000000.0        0.0709762879661     0.0615871099627     0.928677777164      -0.0866551122453    0.928677777164      -0.0866551122453    0.0709762879661     0.0615871099627     
1700000000.0        0.0717949250048     0.0653616734733     0.927816178451      -0.0919974482984    0.927816178451      -0.0919974482984    0.0717949250048     0.0653616734733     
1800000000.0        0.0726537450667     0.0691242357072     0.926911871058      -0.097327959149     0.926911871058      -0.097327959149     0.0726537450667     0.0691242357072     
1900000000.0        0.0735528335613     0.0728742210278     0.925964767975      -0.102646077999     0.925964767975      -0.102646077999     0.0735528335613     0.0728742210278     
2000000000.0        0.0744922241803     0.0766110549008     0.924974833838      -0.107951239089     0.924974833838      -0.107951239089     0.0744922241803     0.0766110549008     
2100000000.0        0.0754719061894     0.0803341646805     0.923942077635      -0.113242878489     0.923942077635      -0.113242878489     0.0754719061894     0.0803341646805     
2200000000.0        0.076491830198      0.0840429802991     0.922866546942      -0.118520434789     0.922866546942      -0.118520434789     0.076491830198      0.0840429802991     
2300000000.0        0.0775519127886     0.0877369348753     0.921748323288      -0.123783349714     0.921748323288      -0.123783349714     0.0775519127886     0.0877369348753     
2400000000.0        0.0786520402755     0.0914154652593     0.920587518399      -0.12903106867      0.920587518399      -0.12903106867      0.0786520402755     0.0914154652593     
2500000000.0        0.079792071797      0.0950780125243     0.919384271103      -0.13426304124      0.919384271103      -0.13426304124      0.079792071797      0.0950780125243     
2600000000.0        0.0809718418844     0.0987240224135     0.918138744767      -0.139478721631     0.918138744767      -0.139478721631     0.0809718418844     0.0987240224135     
2700000000.0        0.0821911626226     0.102352945749      0.916851125127      -0.144677569086     0.916851125127      -0.144677569086     0.0821911626226     0.102352945749      
2800000000.0        0.0834498254838     0.105964238811      0.915521618465      -0.149859048265     0.915521618465      -0.149859048265     0.0834498254838     0.105964238811      
2900000000.0        0.0847476029008     0.10955736368       0.914150450026      -0.155022629592     0.914150450026      -0.155022629592     0.0847476029008     0.10955736368       
3000000000.0        0.0860842496296     0.113131788571      0.912737862661      -0.160167789584     0.912737862661      -0.160167789584     0.0860842496296     0.113131788571      
3100000000.0        0.0874595039401     0.116686988125      0.911284115636      -0.165294011152     0.911284115636      -0.165294011152     0.0874595039401     0.116686988125      
3200000000.0        0.0888730886667     0.120222443698      0.90978948358       -0.170400783886     0.90978948358       -0.170400783886     0.0888730886667     0.120222443698      
3300000000.0        0.0903247121434     0.123737643624      0.908254255548      -0.175487604321     0.908254255548      -0.175487604321     0.0903247121434     0.123737643624      
3400000000.0        0.0918140690426     0.127232083459      0.906678734186      -0.180553976182     0.906678734186      -0.180553976182     0.0918140690426     0.127232083459      
3500000000.0        0.0933408411343     0.130705266221      0.905063234972      -0.185599410626     0.905063234972      -0.185599410626     0.0933408411343     0.130705266221      
3600000000.0        0.094904697978      0.134156702601      0.903408085518      -0.190623426454     0.903408085518      -0.190623426454     0.094904697978      0.134156702601      
3700000000.0        0.0965052975584     0.137585911173      0.901713624941      -0.195625550321     0.901713624941      -0.195625550321     0.0965052975584     0.137585911173      
3800000000.0        0.0981422868737     0.140992418586      0.899980203272      -0.200605316928     0.899980203272      -0.200605316928     0.0981422868737     0.140992418586      
3900000000.0        0.0998153024822     0.144375759746      0.89820818091       -0.205562269209     0.89820818091       -0.205562269209     0.0998153024822     0.144375759746      
4000000000.0        0.101523971016      0.147735477984      0.896397928105      -0.210495958494     0.896397928105      -0.210495958494     0.101523971016      0.147735477984      
4100000000.0        0.103267909661      0.151071125214      0.894549824483      -0.215405944675     0.894549824483      -0.215405944675     0.103267909661      0.151071125214      
4200000000.0        0.105046726621      0.154382262087      0.892664258581      -0.220291796353     0.892664258581      -0.220291796353     0.105046726621      0.154382262087      
4300000000.0        0.106860021542      0.157668458123      0.890741627416      -0.225153090976     0.890741627416      -0.225153090976     0.106860021542      0.157668458123      
4400000000.0        0.108707385938      0.160929291844      0.88878233607       -0.229989414971     0.88878233607       -0.229989414971     0.108707385938      0.160929291844      
4500000000.0        0.110588403583      0.164164350892      0.886786797288      -0.234800363863     0.886786797288      -0.234800363863     0.110588403583      0.164164350892      
4600000000.0        0.112502650897      0.167373232139      0.884755431098      -0.239585542384     0.884755431098      -0.239585542384     0.112502650897      0.167373232139      
4700000000.0        0.114449697317      0.170555541788      0.882688664438      -0.244344564579     0.882688664438      -0.244344564579     0.114449697317      0.170555541788      
4800000000.0        0.116429105653      0.173710895466      0.8805869308        -0.249077053893     0.8805869308        -0.249077053893     0.116429105653      0.173710895466      
4900000000.0        0.118440432439      0.176838918307      0.878450669879      -0.253782643262     0.878450669879      -0.253782643262     0.118440432439      0.176838918307      
5000000000.0        0.120483228269      0.179939245029      0.876280327237      -0.258460975182     0.876280327237      -0.258460975182     0.120483228269      0.179939245029      
5100000000.0        0.122557038127      0.183011520001      0.87407635397       -0.263111701783     0.87407635397       -0.263111701783     0.122557038127      0.183011520001      
5200000000.0        0.124661401711      0.1860553973        0.871839206392      -0.267734484886     0.871839206392      -0.267734484886     0.124661401711      0.1860553973        
5300000000.0        0.126795853742      0.189070540766      0.869569345713      -0.272328996054     0.869569345713      -0.272328996054     0.126795853742      0.189070540766      
5400000000.0        0.12895992428       0.192056624042      0.867267237739      -0.276894916638     0.867267237739      -0.276894916638     0.12895992428       0.192056624042      
5500000000.0        0.131153139017      0.195013330614      0.864933352564      -0.281431937814     0.864933352564      -0.281431937814     0.131153139017      0.195013330614      
5600000000.0        0.133375019577      0.197940353838      0.862568164279      -0.285939760611     0.862568164279      -0.285939760611     0.133375019577      0.197940353838      
5700000000.0        0.135625083802      0.200837396961      0.86017215068       -0.290418095932     0.86017215068       -0.290418095932     0.135625083802      0.200837396961      
5800000000.0        0.137902846039      0.203704173139      0.857745792988      -0.294866664573     0.857745792988      -0.294866664573     0.137902846039      0.203704173139      
5900000000.0        0.140207817419      0.206540405439      0.855289575563      -0.299285197226     0.855289575563      -0.299285197226     0.140207817419      0.206540405439      
6000000000.0        0.142539506127      0.209345826847      0.852803985638      -0.303673434485     0.852803985638      -0.303673434485     0.142539506127      0.209345826847      
6100000000.0        0.144897417673      0.212120180257      0.850289513046      -0.30803112684      0.850289513046      -0.30803112684      0.144897417673      0.212120180257      
6200000000.0        0.147281055157      0.21486321846       0.847746649954      -0.31235803466      0.847746649954      -0.31235803466      0.147281055157      0.21486321846       
6300000000.0        0.149689919524      0.217574704129      0.845175890611      -0.316653928182     0.845175890611      -0.316653928182     0.149689919524      0.217574704129      
6400000000.0        0.152123509824      0.220254409791      0.842577731085      -0.320918587485     0.842577731085      -0.320918587485     0.152123509824      0.220254409791      
6500000000.0        0.154581323457      0.222902117798      0.83995266902       -0.325151802457     0.83995266902       -0.325151802457     0.154581323457      0.222902117798      
6600000000.0        0.157062856418      0.22551762029       0.837301203388      -0.329353372761     0.837301203388      -0.329353372761     0.157062856418      0.22551762029       
6700000000.0        0.159567603541      0.228100719156      0.834623834246      -0.333523107795     0.834623834246      -0.333523107795     0.159567603541      0.228100719156      
6800000000.0        0.162095058733      0.230651225982      0.831921062506      -0.337660826641     0.831921062506      -0.337660826641     0.162095058733      0.230651225982      
6900000000.0        0.164644715205      0.233168962003      0.829193389696      -0.341766358019     0.829193389696      -0.341766358019     0.164644715205      0.233168962003      
7000000000.0        0.167216065697      0.235653758042      0.826441317741      -0.345839540221     0.826441317741      -0.345839540221     0.167216065697      0.235653758042      
7100000000.0        0.169808602704      0.23810545445       0.823665348733      -0.349880221057     0.823665348733      -0.349880221057     0.169808602704      0.23810545445       
7200000000.0        0.172421818692      0.240523901034      0.820865984719      -0.35388825778      0.820865984719      -0.35388825778      0.172421818692      0.240523901034      
7300000000.0        0.175055206308      0.24290895699       0.818043727487      -0.35786351702      0.818043727487      -0.35786351702      0.175055206308      0.24290895699       
7400000000.0        0.177708258594      0.245260490824      0.815199078353      -0.361805874704     0.815199078353      -0.361805874704     0.177708258594      0.245260490824      
7500000000.0        0.180380469184      0.247578380268      0.812332537962      -0.365715215975     0.812332537962      -0.365715215975     0.180380469184      0.247578380268      
7600000000.0        0.18307133251       0.249862512199      0.809444606088      -0.369591435111     0.809444606088      -0.369591435111     0.18307133251       0.249862512199      
7700000000.0        0.185780343989      0.252112782549      0.806535781439      -0.373434435428     0.806535781439      -0.373434435428     0.185780343989      0.252112782549      
7800000000.0        0.188507000219      0.254329096209      0.803606561463      -0.377244129195     0.803606561463      -0.377244129195     0.188507000219      0.254329096209      
7900000000.0        0.191250799162      0.256511366935      0.800657442172      -0.381020437533     0.800657442172      -0.381020437533     0.191250799162      0.256511366935      
8000000000.0        0.194011240323      0.258659517245      0.79768891795       -0.384763290317     0.79768891795       -0.384763290317     0.194011240323      0.258659517245      
8100000000.0        0.196787824924      0.260773478319      0.794701481388      -0.388472626069     0.794701481388      -0.388472626069     0.196787824924      0.260773478319      
8200000000.0        0.199580056081      0.262853189889      0.791695623106      -0.392148391855     0.791695623106      -0.392148391855     0.199580056081      0.262853189889      
8300000000.0        0.202387438963      0.26489860013       0.788671831588      -0.395790543174     0.788671831588      -0.395790543174     0.202387438963      0.26489860013       
8400000000.0        0.20520948096       0.266909665548      0.785630593022      -0.399399043843     0.785630593022      -0.399399043843     0.20520948096       0.266909665548      
8500000000.0        0.208045691833      0.268886350863      0.782572391141      -0.402973865887     0.782572391141      -0.402973865887     0.208045691833      0.268886350863      
8600000000.0        0.210895583871      0.270828628892      0.779497707073      -0.406514989415     0.779497707073      -0.406514989415     0.210895583871      0.270828628892      
8700000000.0        0.213758672037      0.272736480429      0.776407019192      -0.410022402503     0.776407019192      -0.410022402503     0.213758672037      0.272736480429      
8800000000.0        0.216634474108      0.274609894119      0.773300802975      -0.413496101072     0.773300802975      -0.413496101072     0.216634474108      0.274609894119      
8900000000.0        0.219522510819      0.276448866338      0.770179530864      -0.416936088761     0.770179530864      -0.416936088761     0.219522510819      0.276448866338      
9000000000.0        0.222422305986      0.278253401064      0.767043672135      -0.420342376801     0.767043672135      -0.420342376801     0.222422305986      0.278253401064      
9100000000.0        0.225333386647      0.280023509748      0.763893692764      -0.423714983889     0.763893692764      -0.423714983889     0.225333386647      0.280023509748      
9200000000.0        0.228255283175      0.281759211185      0.760730055307      -0.427053936054     0.760730055307      -0.427053936054     0.228255283175      0.281759211185      
9300000000.0        0.231187529403      0.283460531379      0.757553218781      -0.430359266529     0.757553218781      -0.430359266529     0.231187529403      0.283460531379      
9400000000.0        0.234129662738      0.285127503416      0.754363638545      -0.433631015616     0.754363638545      -0.433631015616     0.234129662738      0.285127503416      
9500000000.0        0.23708122427       0.286760167324      0.751161766192      -0.43686923055      0.751161766192      -0.43686923055      0.23708122427       0.286760167324      
9600000000.0        0.240041758879      0.288358569942      0.747948049445      -0.440073965371     0.747948049445      -0.440073965371     0.240041758879      0.288358569942      
9700000000.0        0.243010815334      0.289922764779      0.74472293205       -0.443245280777     0.74472293205       -0.443245280777     0.243010815334      0.289922764779      
9800000000.0        0.245987946394      0.291452811882      0.741486853686      -0.446383243997     0.741486853686      -0.446383243997     0.245987946394      0.291452811882      
9900000000.0        0.248972708893      0.292948777695      0.738240249864      -0.449487928648     0.738240249864      -0.449487928648     0.248972708893      0.292948777695      
10000000000.0       0.251964663836      0.294410734919      0.734983551848      -0.452559414595     0.734983551848      -0.452559414595     0.251964663836      0.294410734919      
