# Hz S RI R 50.00 
100000000.0         -0.00159952865109   -0.0397815299568    0.99833110031       -0.0400025908958    0.99833110031       -0.0400025908958    -0.00159952865109   -0.0397815299568    
200000000.0         -0.00638958947957   -0.0791753219863    0.99354049242       -0.0796174835052    0.99354049242       -0.0796174835052    -0.00638958947957   -0.0791753219863    
300000000.0         -0.0142450520934    -0.117813317845     0.985684552887      -0.118476640882     0.985684552887      -0.118476640882     -0.0142450520934    -0.117813317845     
400000000.0         -0.0250195687403    -0.15535121539      0.974909569773      -0.156235777509     0.974909569773      -0.156235777509     -0.0250195687403    -0.15535121539      
500000000.0         -0.0385184451023    -0.191478004557     0.961410214479      -0.192583897536     0.961410214479      -0.192583897536     -0.0385184451023    -0.191478004557     
600000000.0         -0.0545071289415    -0.225923537282     0.94542102757       -0.227250865484     0.94542102757       -0.227250865484     -0.0545071289415    -0.225923537282     
700000000.0         -0.0727208585736    -0.258463752792     0.927206763826      -0.260012631942     0.927206763826      -0.260012631942     -0.0727208585736    -0.258463752792     
800000000.0         -0.0928747732805    -0.288923446964     0.907052279477      -0.290694003167     0.907052279477      -0.290694003167     -0.0928747732805    -0.288923446964     
900000000.0         -0.114673834739     -0.317176688309     0.885252609723      -0.319169057226     0.885252609723      -0.319169057226     -0.114673834739     -0.317176688309     
1000000000.0        -0.137822010252     -0.34314515275      0.862103784979      -0.345359478893     0.862103784979      -0.345359478893     -0.137822010252     -0.34314515275      
1100000000.0        -0.162030306775     -0.366794764813     0.837894796545      -0.369231200921     0.837894796545      -0.369231200921     -0.162030306775     -0.366794764813     
1200000000.0        -0.187023396961     -0.388131091286     0.812900970401      -0.39078979777      0.812900970401      -0.39078979777      -0.187023396961     -0.388131091286     
1300000000.0        -0.212544724551     -0.407193940045     0.787378861698      -0.410075084492     0.787378861698      -0.410075084492     -0.212544724551     -0.407193940045     
1400000000.0        -0.238360101927     -0.424051582344     0.761562657134      -0.427155339057     0.761562657134      -0.427155339057     -0.238360101927     -0.424051582344     
1500000000.0        -0.264259909024     -0.438794954744     0.735661975995      -0.442121504325     0.735661975995      -0.442121504325     -0.264259909024     -0.438794954744     
1600000000.0        -0.290060067584     -0.45153212036      0.709860895868      -0.455081649325     0.709860895868      -0.455081649325     -0.290060067584     -0.45153212036      
1700000000.0        -0.315601999876     -0.462383189482     0.684317993898      -0.466155889903     0.684317993898      -0.466155889903     -0.315601999876     -0.462383189482     
1800000000.0        -0.340751791295     -0.471475825295     0.659167184164      -0.475471894468     0.659167184164      -0.475471894468     -0.340751791295     -0.471475825295     
1900000000.0        -0.365398767886     -0.478941396655     0.634519140149      -0.48316103679      0.634519140149      -0.48316103679      -0.365398767886     -0.478941396655     
2000000000.0        -0.389453678898     -0.484911789128     0.610463112175      -0.48935520706      0.610463112175      -0.48935520706      -0.389453678898     -0.484911789128     
2100000000.0        -0.412846646637     -0.489516848162     0.587068977538      -0.494184255081     0.587068977538      -0.494184255081     -0.412846646637     -0.489516848162     
2200000000.0        -0.435525015426     -0.492882403225     0.564389391547      -0.49777401442      0.564389391547      -0.49777401442      -0.435525015426     -0.492882403225     
2300000000.0        -0.457451201614     -0.49512880711      0.542461937506      -0.500244841732     0.542461937506      -0.500244841732     -0.457451201614     -0.49512880711      
2400000000.0        -0.478600619361     -0.496369918213     0.521311200928      -0.501710599049     0.521311200928      -0.501710599049     -0.478600619361     -0.496369918213     
2500000000.0        -0.498959733455     -0.496712453179     0.500950716713      -0.502278006445     0.500950716713      -0.502278006445     -0.498959733455     -0.496712453179     
2600000000.0        -0.518524271076     -0.4962556411       0.481384757383      -0.502046296241     0.481384757383      -0.502046296241     -0.518524271076     -0.4962556411       
2700000000.0        -0.537297609216     -0.495091116676     0.46260994566       -0.501107106181     0.46260994566       -0.501107106181     -0.537297609216     -0.495091116676     
2800000000.0        -0.555289342931     -0.493302997367     0.444616686213      -0.499544556593     0.444616686213      -0.499544556593     -0.555289342931     -0.493302997367     
2900000000.0        -0.572514031306     -0.490968097528     0.427390419685      -0.497435464538     0.427390419685      -0.497435464538     -0.572514031306     -0.490968097528     
3000000000.0        -0.588990112367     -0.488156240334     0.410912707791      -0.494849655741     0.410912707791      -0.494849655741     -0.588990112367     -0.488156240334     
3100000000.0        -0.604738974585     -0.484930635537     0.395162161805      -0.49185034236      0.395162161805      -0.49185034236      -0.604738974585     -0.484930635537     
3200000000.0        -0.619784170699     -0.481348297518     0.380115228736      -0.488494541045     0.380115228736      -0.488494541045     -0.619784170699     -0.481348297518     
3300000000.0        -0.634150758794     -0.477460483734     0.365746850257      -0.484833511397     0.365746850257      -0.484833511397     -0.634150758794     -0.477460483734     
3400000000.0        -0.647864755629     -0.473313138344     0.352031009367      -0.480913199596     0.352031009367      -0.480913199596     -0.647864755629     -0.473313138344     
3500000000.0        -0.660952687865     -0.468947329748     0.338941179167      -0.476774675953     0.338941179167      -0.476774675953     -0.660952687865     -0.468947329748     
3600000000.0        -0.673441227796     -0.464399673924     0.326450687128      -0.472454558253     0.326450687128      -0.472454558253     -0.673441227796     -0.464399673924     
3700000000.0        -0.685356901381     -0.459702738024     0.314533007062      -0.467985415356     0.314533007062      -0.467985415356     -0.685356901381     -0.459702738024     
3800000000.0        -0.696725857609     -0.454885420646     0.303161989748      -0.463396147476     0.303161989748      -0.463396147476     -0.696725857609     -0.454885420646     
3900000000.0        -0.707573689528     -0.449973306768     0.292312041912      -0.458712341125     0.292312041912      -0.458712341125     -0.707573689528     -0.449973306768     
4000000000.0        -0.717925298423     -0.444988996468     0.281958262044      -0.453956597833     0.281958262044      -0.453956597833     -0.717925298423     -0.444988996468     
4100000000.0        -0.727804793815     -0.439952407431     0.272076540399      -0.449148836663     0.272076540399      -0.449148836663     -0.727804793815     -0.439952407431     
4200000000.0        -0.737235422956     -0.434881051829     0.262643629502      -0.444306571101     0.262643629502      -0.444306571101     -0.737235422956     -0.434881051829     
4300000000.0        -0.746239524415     -0.429790288632     0.253637190563      -0.439445161364     0.253637190563      -0.439445161364     -0.746239524415     -0.429790288632     
4400000000.0        -0.754838501199     -0.424693552641     0.245035820355      -0.434578043442     0.245035820355      -0.434578043442     -0.754838501199     -0.424693552641     
4500000000.0        -0.763052809545     -0.419602561722     0.236819062422      -0.429716936341     0.236819062422      -0.429716936341     -0.763052809545     -0.419602561722     
4600000000.0        -0.770901960154     -0.414527503815     0.228967405845      -0.424872029086     0.228967405845      -0.424872029086     -0.770901960154     -0.414527503815     
4700000000.0        -0.778404529193     -0.409477205274     0.221462274239      -0.420052149076     0.221462274239      -0.420052149076     -0.778404529193     -0.409477205274     
4800000000.0        -0.785578176803     -0.404459282119     0.214286007244      -0.415264913331     0.214286007244      -0.415264913331     -0.785578176803     -0.404459282119     
4900000000.0        -0.792439671314     -0.399480275681     0.207421836315      -0.410516864148     0.207421836315      -0.410516864148     -0.792439671314     -0.399480275681     
5000000000.0        -0.799004917616     -0.394545774088     0.200853856345      -0.405813590587     0.200853856345      -0.405813590587     -0.799004917616     -0.394545774088     
5100000000.0        -0.805288988495     -0.38966052091      0.194566994332      -0.401159837118     0.194566994332      -0.401159837118     -0.805288988495     -0.38966052091      
5200000000.0        -0.811306157914     -0.384828512231     0.188546976096      -0.396559600702     0.188546976096      -0.396559600702     -0.811306157914     -0.384828512231     
5300000000.0        -0.817069935446     -0.380053083285     0.182780291848      -0.392016217422     0.182780291848      -0.392016217422     -0.817069935446     -0.380053083285     
5400000000.0        -0.822593101228     -0.375336985716     0.177254161234      -0.387532439753     0.177254161234      -0.387532439753     -0.822593101228     -0.375336985716     
5500000000.0        -0.827887740925     -0.370682456426     0.171956498374      -0.383110505411     0.171956498374      -0.383110505411     -0.827887740925     -0.370682456426     
5600000000.0        -0.832965280309     -0.36609127889      0.16687587728       -0.378752198666     0.16687587728       -0.378752198666     -0.832965280309     -0.36609127889      
5700000000.0        -0.837836519164     -0.36156483772      0.16200149795       -0.374458904914     0.16200149795       -0.374458904914     -0.837836519164     -0.36156483772      
5800000000.0        -0.842511664285     -0.357104167202     0.157323153373      -0.370231659218     0.157323153373      -0.370231659218     -0.842511664285     -0.357104167202     
5900000000.0        -0.847000361397     -0.352709994455     0.152831197605      -0.366071189462     0.152831197605      -0.366071189462     -0.847000361397     -0.352709994455     
6000000000.0        -0.851311725895     -0.348382777779     0.148516515035      -0.361977954704     0.148516515035      -0.361977954704     -0.851311725895     -0.348382777779     
6100000000.0        -0.855454372312     -0.344122740714     0.144370490911      -0.357952179244     0.144370490911      -0.357952179244     -0.855454372312     -0.344122740714     
6200000000.0        -0.859436442482     -0.339929902292     0.14038498318       -0.353993882864     0.14038498318       -0.353993882864     -0.859436442482     -0.339929902292     
6300000000.0        -0.86326563237      -0.335804103867     0.136552295658      -0.350102907674     0.136552295658      -0.350102907674     -0.86326563237      -0.335804103867     
6400000000.0        -0.866949217577     -0.33174503293      0.132865152524      -0.34627894192      0.132865152524      -0.34627894192      -0.866949217577     -0.33174503293      
6500000000.0        -0.870494077525     -0.32775224421      0.129316674135      -0.342521541091     0.129316674135      -0.342521541091     -0.870494077525     -0.32775224421      
6600000000.0        -0.873906718364     -0.323825178383     0.12590035412       -0.338830146625     0.12590035412       -0.338830146625     -0.873906718364     -0.323825178383     
6700000000.0        -0.877193294617     -0.319963178631     0.122610037733      -0.335204102475     0.122610037733      -0.335204102475     -0.877193294617     -0.319963178631     
6800000000.0        -0.880359629626     -0.316165505306     0.119439901409      -0.331642669768     0.119439901409      -0.331642669768     -0.880359629626     -0.316165505306     
6900000000.0        -0.883411234829     -0.312431348894     0.116384433487      -0.328145039777     0.116384433487      -0.328145039777     -0.883411234829     -0.312431348894     
7000000000.0        -0.886353327926     -0.308759841473     0.11343841604       -0.324710345375     0.11343841604       -0.324710345375     -0.886353327926     -0.308759841473     
7100000000.0        -0.889190849987     -0.305150066834     0.110596907773      -0.32133767116      0.110596907773      -0.32133767116      -0.889190849987     -0.305150066834     
7200000000.0        -0.891928481542     -0.3016010694       0.10785522793       -0.318026062375     0.10785522793       -0.318026062375     -0.891928481542     -0.3016010694       
7300000000.0        -0.894570657718     -0.298111862098     0.105208941154      -0.31477453278      0.105208941154      -0.31477453278      -0.894570657718     -0.298111862098     
7400000000.0        -0.897121582468     -0.294681433275     0.102653843262      -0.311582071567     0.102653843262      -0.311582071567     -0.897121582468     -0.294681433275     
7500000000.0        -0.899585241943     -0.291308752783     0.100185947876      -0.30844764945      0.100185947876      -0.30844764945      -0.899585241943     -0.291308752783     
7600000000.0        -0.901965417046     -0.287992777315     0.0978014738573     -0.305370224        0.0978014738573     -0.305370224        -0.901965417046     -0.287992777315     
7700000000.0        -0.904265695238     -0.284732455077     0.0954968335133     -0.302348744317     0.0954968335133     -0.302348744317     -0.904265695238     -0.284732455077     
7800000000.0        -0.906489481615     -0.281526729878     0.0932686215147     -0.299382155122     0.0932686215147     -0.299382155122     -0.906489481615     -0.281526729878     
7900000000.0        -0.908640009309     -0.278374544688     0.0911136044918     -0.296469400314     0.0911136044918     -0.296469400314     -0.908640009309     -0.278374544688     
8000000000.0        -0.910720349264     -0.275274844733     0.0890287112641     -0.293609426068     0.0890287112641     -0.293609426068     -0.910720349264     -0.275274844733     
8100000000.0        -0.912733419407     -0.272226580185     0.0870110236659     -0.290801183523     0.0870110236659     -0.290801183523     -0.912733419407     -0.272226580185     
8200000000.0        -0.914681993264     -0.269228708474     0.0850577679308     -0.288043631098     0.0850577679308     -0.288043631098     -0.914681993264     -0.269228708474     
8300000000.0        -0.916568708051     -0.266280196284     0.0831663066011     -0.285335736485     0.0831663066011     -0.285335736485     -0.916568708051     -0.266280196284     
8400000000.0        -0.918396072274     -0.263380021255     0.0813341309278     -0.282676478352     0.0813341309278     -0.282676478352     -0.918396072274     -0.263380021255     
8500000000.0        -0.920166472864     -0.260527173434     0.0795588537333     -0.280064847797     0.0795588537333     -0.280064847797     -0.920166472864     -0.260527173434     
8600000000.0        -0.921882181889     -0.257720656495     0.0778382027036     -0.277499849565     0.0778382027036     -0.277499849565     -0.921882181889     -0.257720656495     
8700000000.0        -0.923545362853     -0.254959488763     0.0761700140874     -0.274980503077     0.0761700140874     -0.274980503077     -0.923545362853     -0.254959488763     
8800000000.0        -0.925158076615     -0.252242704058     0.0745522267726     -0.272505843269     0.0745522267726     -0.272505843269     -0.925158076615     -0.252242704058     
8900000000.0        -0.926722286966     -0.249569352385     0.072982876719      -0.270074921284     0.072982876719      -0.270074921284     -0.926722286966     -0.249569352385     
9000000000.0        -0.928239865854     -0.246938500481     0.0714600917223     -0.267686805025     0.0714600917223     -0.267686805025     -0.928239865854     -0.246938500481     
9100000000.0        -0.929712598316     -0.24434923225      0.0699820864911     -0.265340579578     0.0699820864911     -0.265340579578     -0.929712598316     -0.24434923225      
9200000000.0        -0.931142187104     -0.241800649077     0.0685471580144     -0.263035347541     0.0685471580144     -0.263035347541     -0.931142187104     -0.241800649077     
9300000000.0        -0.932530257047     -0.239291870062     0.0671536812031     -0.260770229247     0.0671536812031     -0.260770229247     -0.932530257047     -0.239291870062     
9400000000.0        -0.933878359154     -0.236822032164     0.0658001047875     -0.258544362912     0.0658001047875     -0.258544362912     -0.933878359154     -0.236822032164     
9500000000.0        -0.935187974474     -0.234390290271     0.0644849474545     -0.256356904705     0.0644849474545     -0.256356904705     -0.935187974474     -0.234390290271     
9600000000.0        -0.936460517734     -0.231995817213     0.0632067942098     -0.254207028765     0.0632067942098     -0.254207028765     -0.936460517734     -0.231995817213     
9700000000.0        -0.937697340768     -0.229637803716     0.061964292951      -0.252093927148     0.061964292951      -0.252093927148     -0.937697340768     -0.229637803716     
9800000000.0        -0.938899735747     -0.227315458312     0.0607561512379     -0.250016809741     0.0607561512379     -0.250016809741     -0.938899735747     -0.227315458312     
9900000000.0        -0.94006893822      -0.225028007201     0.0595811332479     -0.247974904126     0.0595811332479     -0.247974904126     -0.94006893822      -0.225028007201     
10000000000.0       -0.941206129988     -0.222774694089     0.0584380569061     -0.245967455413     0.0584380569061     -0.245967455413     -0.941206129988     -0.222774694089     
