# Hz S RI R 50.00 
100000000.0         -1.5135940196e-05   -0.0175308047057    0.999334580335      -0.0183544353675    0.999334580335      -0.0183544353675    -1.51359401963e-05  -0.0175308047057    
200000000.0         -0.000995075573735  -0.0350260722501    0.998349202723      -0.0366733530122    0.998349202723      -0.0366733530122    -0.000995075573736  -0.0350260722501    
300000000.0         -0.00261437314488   -0.0524517005277    0.996724908106      -0.0549226729197    0.996724908106      -0.0549226729197    -0.00261437314488   -0.0524517005277    
400000000.0         -0.00486660994917   -0.0697740138834    0.994467554926      -0.0730687378927    0.994467554926      -0.0730687378927    -0.00486660994917   -0.0697740138834    
500000000.0         -0.00774320121141   -0.0869599769983    0.991585512857      -0.0910785297594    0.991585512857      -0.0910785297594    -0.00774320121141   -0.0869599769983    
600000000.0         -0.0112333546519    -0.103977396752     0.988089464718      -0.108919871788     0.988089464718      -0.108919871788     -0.0112333546519    -0.103977396752     
700000000.0         -0.0153241385855    -0.120795112159     0.983992277608      -0.126561618869     0.983992277608      -0.126561618869     -0.0153241385855    -0.120795112159     
800000000.0         -0.020000587738     -0.137383170729     0.97930887494       -0.143973834009     0.97930887494       -0.143973834009     -0.020000587738     -0.137383170729     
900000000.0         -0.0252458316182    -0.153712989479     0.974056098236      -0.161127949432     0.974056098236      -0.161127949432     -0.0252458316182    -0.153712989479     
1000000000.0        -0.0310412395294    -0.169757499057     0.968252557124      -0.17799691075      0.968252557124      -0.17799691075      -0.0310412395294    -0.169757499057     
1100000000.0        -0.0373665785359    -0.185491269706     0.961918468621      -0.194555302978     0.961918468621      -0.194555302978     -0.0373665785359    -0.185491269706     
1200000000.0        -0.0442001813749    -0.200890618155     0.955075487567      -0.210779457448     0.955075487567      -0.210779457448     -0.0442001813749    -0.200890618155     
1300000000.0        -0.0515191215459    -0.215933694852     0.947746530508      -0.226647539072     0.947746530508      -0.226647539072     -0.0515191215459    -0.215933694852     
1400000000.0        -0.059299392945     -0.230600551342     0.939955595382      -0.242139613733     0.939955595382      -0.242139613733     -0.059299392945     -0.230600551342     
1500000000.0        -0.0675160915283    -0.244873187883     0.9317275794        -0.257237695917     0.9317275794        -0.257237695917     -0.0675160915283    -0.244873187883     
1600000000.0        -0.0761435966261    -0.258735581737     0.923088097403      -0.271925777022     0.923088097403      -0.271925777022     -0.0761435966261    -0.258735581737     
1700000000.0        -0.0851557496933    -0.272173696873     0.914063302879      -0.286189835064     0.914063302879      -0.286189835064     -0.0851557496933    -0.272173696873     
1800000000.0        -0.0945260284756    -0.285175476025     0.904679713633      -0.300017826751     0.904679713633      -0.300017826751     -0.0945260284756    -0.285175476025     
1900000000.0        -0.104227714784     -0.297730816311     0.894964043877      -0.313399663105     0.894964043877      -0.313399663105     -0.104227714784     -0.297730816311     
2000000000.0        -0.114234054309     -0.309831529761     0.884943044322      -0.32632717         0.884943044322      -0.32632717         -0.114234054309     -0.309831529761     
2100000000.0        -0.12451840714      -0.321471290254     0.874643351581      -0.338794035101     0.874643351581      -0.338794035101     -0.12451840714      -0.321471290254     
2200000000.0        -0.135054387924     -0.332645568422     0.864091347952      -0.350795742782     0.864091347952      -0.350795742782     -0.135054387924     -0.332645568422     
2300000000.0        -0.145815994823     -0.343351556189     0.853313032416      -0.36232949866      0.853313032416      -0.36232949866      -0.145815994823     -0.343351556189     
2400000000.0        -0.156777726677     -0.35358808256      0.842333903428      -0.373394145393     0.842333903428      -0.373394145393     -0.156777726677     -0.35358808256      
2500000000.0        -0.167914688028     -0.363355522311     0.831178853874      -0.383990071376     0.831178853874      -0.383990071376     -0.167914688028     -0.363355522311     
2600000000.0        -0.179202681822     -0.372655699159     0.819872078334      -0.39411911391      0.819872078334      -0.39411911391      -0.179202681822     -0.372655699159     
2700000000.0        -0.190618289863     -0.381491784924     0.808436992611      -0.403784458374     0.808436992611      -0.403784458374     -0.190618289863     -0.381491784924     
2800000000.0        -0.202138941202     -0.389868196117     0.796896165327      -0.412990534807     0.796896165327      -0.412990534807     -0.202138941202     -0.389868196117     
2900000000.0        -0.213742968832     -0.397790489251     0.785271261208      -0.421742913233     0.785271261208      -0.421742913233     -0.213742968832     -0.397790489251     
3000000000.0        -0.225409655173     -0.405265256098     0.773582995593      -0.430048198912     0.773582995593      -0.430048198912     -0.225409655173     -0.405265256098     
3100000000.0        -0.237119266924     -0.41230001995      0.761851099567      -0.437913928607     0.761851099567      -0.437913928607     -0.237119266924     -0.41230001995      
3200000000.0        -0.248853079958     -0.41890313384      0.75009429506       -0.445348468807     0.75009429506       -0.445348468807     -0.248853079958     -0.41890313384      
3300000000.0        -0.260593394967     -0.425083681523     0.738330279193      -0.452360916712     0.738330279193      -0.452360916712     -0.260593394967     -0.425083681523     
3400000000.0        -0.272323544634     -0.430851381934     0.726575717098      -0.45896100469      0.726575717098      -0.45896100469      -0.272323544634     -0.430851381934     
3500000000.0        -0.284027893119     -0.436216497663     0.714846242431      -0.465159008759     0.714846242431      -0.465159008759     -0.284027893119     -0.436216497663     
3600000000.0        -0.295691828629     -0.441189747913     0.703156464791      -0.470965661541     0.703156464791      -0.470965661541     -0.295691828629     -0.441189747913     
3700000000.0        -0.307301749881     -0.445782226285     0.691519983258      -0.476392070054     0.691519983258      -0.476392070054     -0.307301749881     -0.445782226285     
3800000000.0        -0.318845047212     -0.450005323623     0.679949405276      -0.481449638557     0.679949405276      -0.481449638557     -0.318845047212     -0.450005323623     
3900000000.0        -0.330310079068     -0.453870656087     0.668456370161      -0.486149996623     0.668456370161      -0.486149996623     -0.330310079068     -0.453870656087     
4000000000.0        -0.341686144599     -0.457389998517     0.657051576504      -0.490504932507     0.657051576504      -0.490504932507     -0.341686144599     -0.457389998517     
4100000000.0        -0.352963452986     -0.460575223097     0.645744812841      -0.494526331813     0.645744812841      -0.494526331813     -0.352963452986     -0.460575223097     
4200000000.0        -0.364133090157     -0.463438243259     0.634544990934      -0.498226121397     0.634544990934      -0.498226121397     -0.364133090157     -0.463438243259     
4300000000.0        -0.375186983427     -0.465990962725     0.623460181128      -0.501616218412     0.623460181128      -0.501616218412     -0.375186983427     -0.465990962725     
4400000000.0        -0.386117864612     -0.468245229524     0.612497649239      -0.504708484324     0.612497649239      -0.504708484324     -0.386117864612     -0.468245229524     
4500000000.0        -0.396919232064     -0.47021279481      0.601663894511      -0.507514683735     0.601663894511      -0.507514683735     -0.396919232064     -0.47021279481      
4600000000.0        -0.407585312068     -0.471905276258     0.590964688222      -0.510046447781     0.590964688222      -0.510046447781     -0.407585312068     -0.471905276258     
4700000000.0        -0.41811101997      -0.473334125813     0.580405112556      -0.512315241877     0.580405112556      -0.512315241877     -0.41811101997      -0.473334125813     
4800000000.0        -0.428491921358     -0.474510601533     0.569989599413      -0.514332337567     0.569989599413      -0.514332337567     -0.428491921358     -0.474510601533     
4900000000.0        -0.438724193597     -0.475445743283     0.559721968881      -0.516108788217     0.559721968881      -0.516108788217     -0.438724193597     -0.475445743283     
5000000000.0        -0.448804587952     -0.476150352002     0.549605467108      -0.517655408286     0.549605467108      -0.517655408286     -0.448804587952     -0.476150352002     
5100000000.0        -0.458730392512     -0.476634972298     0.539642803375      -0.518982755914     0.539642803375      -0.518982755914     -0.458730392512     -0.476634972298     
5200000000.0        -0.468499396089     -0.476909878089     0.529836186202      -0.520101118579     0.529836186202      -0.520101118579     -0.468499396089     -0.476909878089     
5300000000.0        -0.478109853225     -0.476985061063     0.520187358333      -0.521020501541     0.520187358333      -0.521020501541     -0.478109853225     -0.476985061063     
5400000000.0        -0.487560450434     -0.476870221684     0.510697630497      -0.521750618866     0.510697630497      -0.521750618866     -0.487560450434     -0.476870221684     
5500000000.0        -0.496850273747     -0.476574762526     0.501367913863      -0.522300886746     0.501367913863      -0.522300886746     -0.496850273747     -0.476574762526     
5600000000.0        -0.505978777643     -0.476107783694     0.492198751106      -0.522680418936     0.492198751106      -0.522680418936     -0.505978777643     -0.476107783694     
5700000000.0        -0.514945755386     -0.475478080134     0.483190346069      -0.522898024051     0.483190346069      -0.522898024051     -0.514945755386     -0.475478080134     
5800000000.0        -0.523751310819     -0.474694140608     0.47434259197       -0.522962204554     0.47434259197       -0.522962204554     -0.523751310819     -0.474694140608     
5900000000.0        -0.5323958316       -0.473764148164     0.465655098164      -0.522881157219     0.465655098164      -0.522881157219     -0.5323958316       -0.473764148164     
6000000000.0        -0.540879963895     -0.472695981912     0.45712721545       -0.522662774915     0.45712721545       -0.522662774915     -0.540879963895     -0.472695981912     
6100000000.0        -0.549204588498     -0.471497219947     0.448758059949      -0.522314649523     0.448758059949      -0.522314649523     -0.549204588498     -0.471497219947     
6200000000.0        -0.55737079837      -0.470175143265     0.440546535567      -0.521844075859     0.440546535567      -0.521844075859     -0.55737079837      -0.470175143265     
6300000000.0        -0.565379877542     -0.468736740534     0.432491355087      -0.521258056445     0.432491355087      -0.521258056445     -0.565379877542     -0.468736740534     
6400000000.0        -0.57323328137      -0.467188713593     0.424591059919      -0.520563307005     0.424591059919      -0.520563307005     -0.57323328137      -0.467188713593     
6500000000.0        -0.580932618074     -0.465537483561     0.416844038555      -0.519766262582     0.416844038555      -0.519766262582     -0.580932618074     -0.465537483561     
6600000000.0        -0.588479631534     -0.463789197452     0.409248543778      -0.518873084149     0.409248543778      -0.518873084149     -0.588479631534     -0.463789197452     
6700000000.0        -0.595876185269     -0.461949735201     0.401802708674      -0.517889665637     0.401802708674      -0.517889665637     -0.595876185269     -0.461949735201     
6800000000.0        -0.603124247573     -0.460024717017     0.394504561504      -0.516821641293     0.394504561504      -0.516821641293     -0.603124247573     -0.460024717017     
6900000000.0        -0.610225877738     -0.45801951098      0.387352039478      -0.51567439327      0.387352039478      -0.51567439327      -0.610225877738     -0.45801951098      
7000000000.0        -0.617183213305     -0.45593924082      0.3803430015        -0.514453059418     0.3803430015        -0.514453059418     -0.617183213305     -0.45593924082      
7100000000.0        -0.623998458308     -0.45378879382      0.373475239925      -0.513162541178     0.373475239925      -0.513162541178     -0.623998458308     -0.45378879382      
7200000000.0        -0.630673872443     -0.451572828778     0.366746491394      -0.511807511551     0.366746491394      -0.511807511551     -0.630673872443     -0.451572828778     
7300000000.0        -0.637211761107     -0.449295783989     0.360154446786      -0.510392423081     0.360154446786      -0.510392423081     -0.637211761107     -0.449295783989     
7400000000.0        -0.643614466269     -0.446961885213     0.353696760355      -0.508921515822     0.353696760355      -0.508921515822     -0.643614466269     -0.446961885213     
7500000000.0        -0.649884358105     -0.444575153576     0.347371058086      -0.507398825239     0.347371058086      -0.507398825239     -0.649884358105     -0.444575153576     
7600000000.0        -0.656023827373     -0.442139413383     0.341174945329      -0.505828190028     0.341174945329      -0.505828190028     -0.656023827373     -0.442139413383     
7700000000.0        -0.662035278445     -0.439658299827     0.335106013755      -0.504213259819     0.335106013755      -0.504213259819     -0.662035278445     -0.439658299827     
7800000000.0        -0.667921122995     -0.43713526655      0.329161847681      -0.502557502742     0.329161847681      -0.502557502742     -0.667921122995     -0.43713526655      
7900000000.0        -0.673683774257     -0.434573593053     0.323340029797      -0.500864212839     0.323340029797      -0.500864212839     -0.673683774257     -0.434573593053     
8000000000.0        -0.679325641847     -0.431976391941     0.317638146355      -0.499136517306     0.317638146355      -0.499136517306     -0.679325641847     -0.431976391941     
8100000000.0        -0.684849127089     -0.429346615974     0.312053791835      -0.497377383552     0.312053791835      -0.497377383552     -0.684849127089     -0.429346615974     
8200000000.0        -0.690256618811     -0.426687064942     0.306584573152      -0.495589626066     0.306584573152      -0.495589626066     -0.690256618811     -0.426687064942     
8300000000.0        -0.69555048959      -0.424000392322     0.301228113411      -0.493775913085     0.301228113411      -0.493775913085     -0.69555048959      -0.424000392322     
8400000000.0        -0.700733092391     -0.421289111748     0.295982055263      -0.491938773056     0.295982055263      -0.491938773056     -0.700733092391     -0.421289111748     
8500000000.0        -0.705806757588     -0.418555603257     0.290844063889      -0.490080600892     0.290844063889      -0.490080600892     -0.705806757588     -0.418555603257     
8600000000.0        -0.71077379033      -0.415802119339     0.285811829629      -0.488203664012     0.285811829629      -0.488203664012     -0.71077379033      -0.415802119339     
8700000000.0        -0.715636468218     -0.41303079076      0.280883070306      -0.486310108177     0.280883070306      -0.486310108177     -0.715636468218     -0.41303079076      
8800000000.0        -0.720397039288     -0.410243632188     0.276055533242      -0.484401963112     0.276055533242      -0.484401963112     -0.720397039288     -0.410243632188     
8900000000.0        -0.725057720247     -0.4074425476       0.271326997023      -0.482481147913     0.271326997023      -0.482481147913     -0.725057720247     -0.4074425476       
9000000000.0        -0.729620694968     -0.404629335492     0.266695273001      -0.480549476256     0.266695273001      -0.480549476256     -0.729620694968     -0.404629335492     
9100000000.0        -0.734088113201     -0.401805693871     0.262158206582      -0.478608661398     0.262158206582      -0.478608661398     -0.734088113201     -0.401805693871     
9200000000.0        -0.738462089498     -0.398973225061     0.257713678303      -0.476660320977     0.257713678303      -0.476660320977     -0.738462089498     -0.398973225061     
9300000000.0        -0.742744702322     -0.396133440302     0.253359604723      -0.474705981618     0.253359604723      -0.474705981618     -0.742744702322     -0.396133440302     
9400000000.0        -0.746937993323     -0.393287764167     0.249093939138      -0.472747083342     0.249093939138      -0.472747083342     -0.746937993323     -0.393287764167     
9500000000.0        -0.75104396678      -0.390437538782     0.244914672151      -0.4707849838       0.244914672151      -0.4707849838       -0.75104396678      -0.390437538782     
9600000000.0        -0.755064589174     -0.387584027875     0.240819832087      -0.46882096231      0.240819832087      -0.46882096231      -0.755064589174     -0.387584027875     
9700000000.0        -0.759001788897     -0.384728420639     0.236807485289      -0.466856223734     0.236807485289      -0.466856223734     -0.759001788897     -0.384728420639     
9800000000.0        -0.762857456073     -0.381871835435     0.232875736298      -0.46489190217      0.232875736298      -0.46489190217      -0.762857456073     -0.381871835435     
9900000000.0        -0.766633442478     -0.37901532332      0.229022727925      -0.46292906449      0.229022727925      -0.46292906449      -0.766633442478     -0.37901532332      
10000000000.0       -0.770331561569     -0.376159871424     0.225246641228      -0.460968713716     0.225246641228      -0.460968713716     -0.770331561569     -0.376159871424     
