# Hz S RI R 50.00 
100000000.0         0.00859718759284    0.00166262667731    0.99140091205       -0.00236682354901   0.99140091205       -0.00236682354901   0.00859718759284    0.00166262667731    
200000000.0         0.00866528901628    0.00332475425948    0.991331412899      -0.00473315610281   0.991331412899      -0.00473315610281   0.00866528901628    0.00332475425948    
300000000.0         0.00872617179742    0.00498652433657    0.991268634968      -0.00709914411249   0.991268634968      -0.00709914411249   0.00872617179742    0.00498652433657    
400000000.0         0.00878725639351    0.00664795701177    0.991205157742      -0.00946481153253   0.991205157742      -0.00946481153253   0.00878725639351    0.00664795701177    
500000000.0         0.00885140295362    0.00830904404442    0.991138121005      -0.0118301534624    0.991138121005      -0.0118301534624    0.00885140295362    0.00830904404442    
600000000.0         0.00892007078197    0.0099697646253     0.991066065382      -0.014195152097     0.991066065382      -0.014195152097     0.00892007078197    0.0099697646253     
700000000.0         0.00899412187669    0.0116300910544     0.990988128795      -0.0165597824942    0.990988128795      -0.0165597824942    0.00899412187669    0.0116300910544     
800000000.0         0.00907411431575    0.0132899913797     0.990903753083      -0.0189240152671    0.990903753083      -0.0189240152671    0.00907411431575    0.0132899913797     
900000000.0         0.00916043293718    0.0149494308175     0.990812553314      -0.0212878180398    0.990812553314      -0.0212878180398    0.00916043293718    0.0149494308175     
1000000000.0        0.00925335560237    0.0166083725948     0.990714251529      -0.023651156315     0.990714251529      -0.023651156315     0.00925335560237    0.0166083725948     
1100000000.0        0.0093530900439     0.0182667784864     0.990608639894      -0.0260139940292    0.990608639894      -0.0260139940292    0.0093530900439     0.0182667784864     
1200000000.0        0.00945979582974    0.0199246091751     0.990495558731      -0.028376293927     0.990495558731      -0.028376293927     0.00945979582974    0.0199246091751     
1300000000.0        0.00957359818655    0.0215818245041     0.990374882698      -0.0307380178249    0.990374882698      -0.0307380178249    0.00957359818655    0.0215818245041     
1400000000.0        0.00969459708879    0.0232383836602     0.990246511702      -0.0330991268035    0.990246511702      -0.0330991268035    0.00969459708879    0.0232383836602     
1500000000.0        0.00982287345419    0.0248942453104     0.990110364699      -0.0354595813514    0.990110364699      -0.0354595813514    0.00982287345419    0.0248942453104     
1600000000.0        0.00995849349659    0.0265493677066     0.989966375347      -0.0378193414757    0.989966375347      -0.0378193414757    0.00995849349659    0.0265493677066     
1700000000.0        0.0101015118638     0.0282037087667     0.989814488862      -0.0401783667889    0.989814488862      -0.0401783667889    0.0101015118638     0.0282037087667     
1800000000.0        0.0102519739504     0.0298572261398     0.989654659711      -0.0425366165782    0.989654659711      -0.0425366165782    0.0102519739504     0.0298572261398     
1900000000.0        0.0104099176359     0.0315098772583     0.98948684987       -0.0448940498617    0.98948684987       -0.0448940498617    0.0104099176359     0.0315098772583     
2000000000.0        0.0105753746128     0.0331616193814     0.989311027499      -0.047250625435     0.989311027499      -0.047250625435     0.0105753746129     0.0331616193814     
2100000000.0        0.0107483714182     0.0348124096298     0.989127165908      -0.0496063019095    0.989127165908      -0.0496063019095    0.0107483714182     0.0348124096298     
2200000000.0        0.0109289302434     0.0364622050168     0.988935242749      -0.0519610377452    0.988935242749      -0.0519610377452    0.0109289302434     0.0364622050168     
2300000000.0        0.0111170695806     0.038110962473      0.988735239369      -0.0543147912787    0.988735239369      -0.0543147912787    0.0111170695806     0.038110962473      
2400000000.0        0.0113128047413     0.0397586388687     0.98852714029       -0.056667520747     0.98852714029       -0.056667520747     0.0113128047413     0.0397586388687     
2500000000.0        0.0115161482793     0.0414051910323     0.988310932792      -0.0590191843086    0.988310932792      -0.0590191843086    0.0115161482793     0.0414051910323     
2600000000.0        0.0117271103369     0.0430505757678     0.988086606558      -0.0613697400617    0.988086606558      -0.0613697400617    0.0117271103369     0.0430505757678     
2700000000.0        0.0119456989314     0.0446947498683     0.987854153395      -0.0637191460605    0.987854153395      -0.0637191460605    0.0119456989314     0.0446947498683     
2800000000.0        0.012171920194      0.0463376701299     0.987613566992      -0.0660673603296    0.987613566992      -0.0660673603296    0.012171920194      0.0463376701299     
2900000000.0        0.0124057785707     0.0479792933629     0.98736484272       -0.0684143408771    0.98736484272       -0.0684143408771    0.0124057785707     0.0479792933629     
3000000000.0        0.0126472769913     0.0496195764025     0.987107977461      -0.0707600457059    0.987107977461      -0.0707600457059    0.0126472769913     0.0496195764025     
3100000000.0        0.0128964170141     0.0512584761179     0.986842969466      -0.0731044328248    0.986842969466      -0.0731044328248    0.0128964170141     0.0512584761179     
3200000000.0        0.0131531989489     0.0528959494214     0.986569818232      -0.0754474602581    0.986569818232      -0.0754474602581    0.0131531989489     0.0528959494214     
3300000000.0        0.0134176219631     0.054531953276      0.986288524394      -0.0777890860544    0.986288524394      -0.0777890860544    0.0134176219631     0.054531953276      
3400000000.0        0.0136896841738     0.056166444703      0.985999089636      -0.0801292682948    0.985999089636      -0.0801292682948    0.0136896841738     0.056166444703      
3500000000.0        0.0139693827266     0.0577993807886     0.985701516607      -0.0824679651006    0.985701516607      -0.0824679651006    0.0139693827266     0.0577993807886     
3600000000.0        0.0142567138659     0.0594307186902     0.985395808857      -0.0848051346407    0.985395808857      -0.0848051346407    0.0142567138659     0.0594307186902     
3700000000.0        0.0145516729957     0.0610604156424     0.985081970772      -0.0871407351377    0.985081970772      -0.0871407351377    0.0145516729957     0.0610604156424     
3800000000.0        0.0148542547326     0.0626884289623     0.984760007522      -0.0894747248746    0.984760007522      -0.0894747248746    0.0148542547326     0.0626884289623     
3900000000.0        0.015164452954      0.0643147160553     0.984429925016      -0.0918070622004    0.984429925016      -0.0918070622004    0.015164452954      0.0643147160553     
4000000000.0        0.0154822608397     0.0659392344191     0.984091729855      -0.094137705536     0.984091729855      -0.094137705536     0.0154822608397     0.0659392344191     
4100000000.0        0.0158076709092     0.0675619416492     0.983745429298      -0.0964666133789    0.983745429298      -0.0964666133789    0.0158076709092     0.0675619416492     
4200000000.0        0.0161406750557     0.0691827954431     0.983391031228      -0.098793744309     0.983391031228      -0.098793744309     0.0161406750557     0.0691827954431     
4300000000.0        0.0164812645753     0.0708017536043     0.983028544122      -0.101119056993     0.983028544122      -0.101119056993     0.0164812645753     0.0708017536043     
4400000000.0        0.0168294301948     0.0724187740467     0.982657977025      -0.103442510187     0.982657977025      -0.103442510187     0.0168294301948     0.0724187740467     
4500000000.0        0.0171851620954     0.0740338147983     0.982279339523      -0.105764062747     0.982279339523      -0.105764062747     0.0171851620954     0.0740338147983     
4600000000.0        0.017548449935      0.0756468340049     0.981892641724      -0.108083673625     0.981892641724      -0.108083673625     0.017548449935      0.0756468340049     
4700000000.0        0.0179192828684     0.0772577899338     0.981497894235      -0.110401301878     0.981497894235      -0.110401301878     0.0179192828684     0.0772577899338     
4800000000.0        0.0182976495652     0.0788666409774     0.981095108149      -0.112716906672     0.981095108149      -0.112716906672     0.0182976495652     0.0788666409774     
4900000000.0        0.0186835382268     0.0804733456564     0.980684295022      -0.115030447284     0.980684295022      -0.115030447284     0.0186835382268     0.0804733456564     
5000000000.0        0.0190769366014     0.0820778626229     0.980265466862      -0.117341883104     0.980265466862      -0.117341883104     0.0190769366014     0.0820778626229     
5100000000.0        0.0194778319982     0.083680150664      0.979838636112      -0.119651173645     0.979838636112      -0.119651173645     0.0194778319982     0.083680150664      
5200000000.0        0.0198862113004     0.0852801687045     0.979403815641      -0.12195827854      0.979403815641      -0.12195827854      0.0198862113004     0.0852801687045     
5300000000.0        0.020302060977      0.0868778758098     0.978961018729      -0.124263157546     0.978961018729      -0.124263157546     0.020302060977      0.0868778758098     
5400000000.0        0.0207253670939     0.0884732311893     0.978510259056      -0.126565770552     0.978510259056      -0.126565770552     0.0207253670939     0.0884732311893     
5500000000.0        0.0211561153246     0.0900661941987     0.978051550693      -0.128866077575     0.978051550693      -0.128866077575     0.0211561153246     0.0900661941987     
5600000000.0        0.021594290959      0.091656724343      0.977584908094      -0.131164038771     0.977584908094      -0.131164038771     0.021594290959      0.091656724343      
5700000000.0        0.0220398789133     0.0932447812792     0.977110346081      -0.133459614431     0.977110346081      -0.133459614431     0.0220398789133     0.0932447812792     
5800000000.0        0.0224928637378     0.0948303248187     0.976627879843      -0.135752764989     0.976627879843      -0.135752764989     0.0224928637378     0.0948303248187     
5900000000.0        0.0229532296248     0.0964133149304     0.976137524925      -0.138043451019     0.976137524925      -0.138043451019     0.0229532296248     0.0964133149304     
6000000000.0        0.0234209604165     0.0979937117424     0.975639297216      -0.140331633246     0.975639297216      -0.140331633246     0.0234209604165     0.0979937117424     
6100000000.0        0.0238960396115     0.0995714755452     0.975133212953      -0.142617272541     0.975133212953      -0.142617272541     0.0238960396115     0.0995714755452     
6200000000.0        0.0243784503718     0.101146566794      0.974619288702      -0.144900329928     0.974619288702      -0.144900329928     0.0243784503718     0.101146566794      
6300000000.0        0.0248681755286     0.10271894611       0.97409754136       -0.147180766584     0.97409754136       -0.147180766584     0.0248681755286     0.10271894611       
6400000000.0        0.0253651975891     0.104288574285      0.973567988148      -0.149458543846     0.973567988148      -0.149458543846     0.0253651975891     0.104288574285      
6500000000.0        0.0258694987415     0.10585541228       0.973030646601      -0.151733623206     0.973030646601      -0.151733623206     0.0258694987415     0.10585541228       
6600000000.0        0.0263810608606     0.107419421233      0.972485534567      -0.154005966321     0.972485534567      -0.154005966321     0.0263810608606     0.107419421233      
6700000000.0        0.0268998655131     0.108980562455      0.971932670202      -0.156275535012     0.971932670202      -0.156275535012     0.0268998655131     0.108980562455      
6800000000.0        0.0274258939628     0.110538797435      0.97137207196       -0.158542291265     0.97137207196       -0.158542291265     0.0274258939628     0.110538797435      
6900000000.0        0.027959127175      0.112094087845      0.970803758594      -0.160806197235     0.970803758594      -0.160806197235     0.027959127175      0.112094087845      
7000000000.0        0.0284995458213     0.113646395535      0.970227749148      -0.163067215249     0.970227749148      -0.163067215249     0.0284995458213     0.113646395535      
7100000000.0        0.0290471302841     0.115195682543      0.969644062953      -0.165325307807     0.969644062953      -0.165325307807     0.0290471302841     0.115195682543      
7200000000.0        0.0296018606609     0.116741911091      0.969052719626      -0.167580437584     0.969052719626      -0.167580437584     0.0296018606609     0.116741911091      
7300000000.0        0.0301637167684     0.118285043588      0.96845373906       -0.169832567433     0.96845373906       -0.169832567433     0.0301637167684     0.118285043588      
7400000000.0        0.0307326781467     0.119825042636      0.967847141425      -0.172081660386     0.967847141425      -0.172081660386     0.0307326781467     0.119825042636      
7500000000.0        0.0313087240631     0.121361871027      0.967232947161      -0.174327679657     0.967232947161      -0.174327679657     0.0313087240631     0.121361871027      
7600000000.0        0.0318918335158     0.122895491747      0.966611176977      -0.176570588644     0.966611176977      -0.176570588644     0.0318918335158     0.122895491747      
7700000000.0        0.032481985238      0.124425867978      0.965981851843      -0.178810350929     0.965981851843      -0.178810350929     0.032481985238      0.124425867978      
7800000000.0        0.0330791577013     0.125952963098      0.965344992992      -0.181046930284     0.965344992992      -0.181046930284     0.0330791577013     0.125952963098      
7900000000.0        0.0336833291192     0.127476740686      0.964700621913      -0.183280290667     0.964700621913      -0.183280290667     0.0336833291192     0.127476740686      
8000000000.0        0.0342944774507     0.12899716452       0.964048760346      -0.185510396232     0.964048760346      -0.185510396232     0.0342944774507     0.12899716452       
8100000000.0        0.0349125804037     0.130514198582      0.963389430283      -0.187737211321     0.963389430283      -0.187737211321     0.0349125804037     0.130514198582      
8200000000.0        0.0355376154385     0.132027807057      0.962722653962      -0.189960700475     0.962722653962      -0.189960700475     0.0355376154385     0.132027807057      
8300000000.0        0.0361695597705     0.133537954336      0.962048453862      -0.192180828429     0.962048453862      -0.192180828429     0.0361695597705     0.133537954336      
8400000000.0        0.0368083903743     0.135044605017      0.961366852705      -0.194397560117     0.961366852705      -0.194397560117     0.0368083903743     0.135044605017      
8500000000.0        0.0374540839861     0.136547723908      0.960677873448      -0.196610860674     0.960677873448      -0.196610860674     0.0374540839861     0.136547723908      
8600000000.0        0.0381066171075     0.138047276026      0.959981539283      -0.198820695435     0.959981539283      -0.198820695435     0.0381066171075     0.138047276026      
8700000000.0        0.0387659660078     0.139543226601      0.959277873629      -0.201027029939     0.959277873629      -0.201027029939     0.0387659660078     0.139543226601      
8800000000.0        0.039432106728      0.141035541077      0.958566900138      -0.20322982993      0.958566900138      -0.20322982993      0.039432106728      0.141035541077      
8900000000.0        0.040105015083      0.14252418511       0.957848642681      -0.20542906136      0.957848642681      -0.20542906136      0.040105015083      0.14252418511       
9000000000.0        0.0407846666649     0.144009124576      0.957123125356      -0.207624690385     0.957123125356      -0.207624690385     0.0407846666649     0.144009124576      
9100000000.0        0.041471036846      0.145490325565      0.956390372474      -0.209816683375     0.956390372474      -0.209816683375     0.041471036846      0.145490325565      
9200000000.0        0.0421641007818     0.146967754389      0.955650408568      -0.212005006906     0.955650408568      -0.212005006906     0.0421641007818     0.146967754389      
9300000000.0        0.0428638334134     0.148441377579      0.954903258378      -0.214189627772     0.954903258378      -0.214189627772     0.0428638334134     0.148441377579      
9400000000.0        0.0435702094709     0.149911161887      0.954148946858      -0.216370512975     0.954148946858      -0.216370512975     0.0435702094709     0.149911161887      
9500000000.0        0.0442832034762     0.15137707429       0.953387499168      -0.218547629737     0.953387499168      -0.218547629737     0.0442832034762     0.15137707429       
9600000000.0        0.0450027897451     0.152839081987      0.952618940672      -0.220720945493     0.952618940672      -0.220720945493     0.0450027897451     0.152839081987      
9700000000.0        0.0457289423912     0.154297152404      0.951843296936      -0.222890427898     0.951843296936      -0.222890427898     0.0457289423912     0.154297152404      
9800000000.0        0.0464616353278     0.155751253192      0.951060593726      -0.225056044824     0.951060593726      -0.225056044824     0.0464616353278     0.155751253192      
9900000000.0        0.0472008422709     0.157201352232      0.950270857003      -0.227217764364     0.950270857003      -0.227217764364     0.0472008422709     0.157201352232      
10000000000.0       0.0479465367422     0.158647417631      0.949474112923      -0.229375554834     0.949474112923      -0.229375554834     0.0479465367422     0.158647417631      
