# Hz S RI R 50.00 
100000000.0         0.000880366572119   0.000147433013742   0.999117197425      -0.00114756628607   0.999117197425      -0.00114756628607   0.000880366572119   0.000147433013742   
200000000.0         0.000886299875109   0.000294849349153   0.999108827529      -0.00229512131249   0.999108827529      -0.00229512131249   0.000886299875109   0.000294849349153   
300000000.0         0.00089102170839    0.000442253467527   0.999100668471      -0.00344267287285   0.999100668471      -0.00344267287285   0.00089102170839    0.000442253467527   
400000000.0         0.000895295776676   0.00058964606014    0.999091956495      -0.00459022403611   0.999091956495      -0.00459022403611   0.000895295776676   0.00058964606014    
500000000.0         0.00089941597276    0.000737027002146   0.999082397646      -0.00573777657472   0.999082397646      -0.00573777657472   0.00089941597276    0.000737027002146   
600000000.0         0.000903532058751   0.000884395831866   0.999071842092      -0.0068853316111    0.999071842092      -0.0068853316111    0.000903532058751   0.000884395831866   
700000000.0         0.000907732424518   0.00103175191734    0.999060201367      -0.00803288986916   0.999060201367      -0.00803288986916   0.000907732424517   0.00103175191734    
800000000.0         0.000912074280306   0.00117909453115    0.999047418178      -0.00918045179947   0.999047418178      -0.00918045179947   0.000912074280306   0.00117909453115    
900000000.0         0.000916597094982   0.00132642288888    0.999033452965      -0.0103280176516    0.999033452965      -0.0103280176516    0.000916597094982   0.00132642288888    
1000000000.0        0.000921329404997   0.00147373617099    0.999018277097      -0.0114755875196    0.999018277097      -0.0114755875196    0.000921329404997   0.00147373617099    
1100000000.0        0.000926292597945   0.0016210335364     0.999001869086      -0.0126231613727    0.999001869086      -0.0126231613727    0.000926292597945   0.0016210335364     
1200000000.0        0.000931503166243   0.00176831413092    0.998984212334      -0.0137707390772    0.998984212334      -0.0137707390772    0.000931503166243   0.00176831413092    
1300000000.0        0.00093697412448    0.00191557709295    0.998965293716      -0.0149183204122    0.998965293716      -0.0149183204122    0.00093697412448    0.00191557709295    
1400000000.0        0.000942715940648   0.00206282155736    0.998945102648      -0.0160659050825    0.998945102648      -0.0160659050825    0.000942715940648   0.00206282155736    
1500000000.0        0.000948737170501   0.0022100466582     0.998923630457      -0.0172134927277    0.998923630457      -0.0172134927277    0.0009487371705     0.0022100466582     
1600000000.0        0.000955044902874   0.00235725153059    0.998900869929      -0.0183610829301    0.998900869929      -0.0183610829301    0.000955044902874   0.00235725153059    
1700000000.0        0.000961645080483   0.00250443531225    0.998876814996      -0.0195086752207    0.998876814996      -0.0195086752207    0.000961645080483   0.00250443531225    
1800000000.0        0.000968542736213   0.00265159714426    0.998851460494      -0.0206562690846    0.998851460494      -0.0206562690846    0.000968542736214   0.00265159714426    
1900000000.0        0.000975742170523   0.00279873617206    0.998824801989      -0.0218038639652    0.998824801989      -0.0218038639652    0.000975742170524   0.00279873617206    
2000000000.0        0.000983247086948   0.0029458515458     0.998796835639      -0.0229514592679    0.998796835639      -0.0229514592679    0.000983247086948   0.0029458515458     
2100000000.0        0.000991060697154   0.00309294242079    0.998767558092      -0.0240990543631    0.998767558092      -0.0240990543631    0.000991060697154   0.00309294242079    
2200000000.0        0.000999185803497   0.00324000795779    0.998736966404      -0.0252466485891    0.998736966404      -0.0252466485891    0.000999185803497   0.00324000795779    
2300000000.0        0.00100762486468    0.0033870473232     0.998705057967      -0.0263942412544    0.998705057967      -0.0263942412544    0.00100762486468    0.0033870473232     
2400000000.0        0.00101638004855    0.00353405968914    0.998671830466      -0.0275418316395    0.998671830466      -0.0275418316395    0.00101638004855    0.00353405968914    
2500000000.0        0.00102545327496    0.00368104423362    0.99863728183       -0.0286894189994    0.99863728183       -0.0286894189994    0.00102545327496    0.00368104423362    
2600000000.0        0.00103484625093    0.00382800014047    0.998601410195      -0.0298370025643    0.998601410195      -0.0298370025643    0.00103484625093    0.00382800014047    
2700000000.0        0.00104456049963    0.00397492659947    0.998564213884      -0.0309845815418    0.998564213884      -0.0309845815418    0.00104456049963    0.00397492659947    
2800000000.0        0.00105459738458    0.00412182280628    0.998525691372      -0.0321321551181    0.998525691372      -0.0321321551181    0.00105459738458    0.00412182280628    
2900000000.0        0.00106495812987    0.00426868796241    0.998485841275      -0.0332797224588    0.998485841275      -0.0332797224588    0.00106495812987    0.00426868796241    
3000000000.0        0.00107564383731    0.00441552127518    0.998444662328      -0.0344272827103    0.998444662328      -0.0344272827103    0.00107564383731    0.00441552127518    
3100000000.0        0.00108665550088    0.00456232195773    0.998402153372      -0.0355748350007    0.998402153372      -0.0355748350007    0.00108665550088    0.00456232195773    
3200000000.0        0.00109799401915    0.00470908922885    0.998358313339      -0.0367223784407    0.998358313339      -0.0367223784407    0.00109799401915    0.00470908922885    
3300000000.0        0.00110966020591    0.00485582231304    0.998313141249      -0.0378699121243    0.998313141249      -0.0378699121243    0.00110966020591    0.00485582231304    
3400000000.0        0.00112165479932    0.00500252044034    0.99826663619       -0.0390174351299    0.99826663619       -0.0390174351299    0.00112165479932    0.00500252044033    
3500000000.0        0.00113397846987    0.00514918284631    0.99821879732       -0.0401649465204    0.99821879732       -0.0401649465204    0.00113397846987    0.00514918284631    
3600000000.0        0.00114663182727    0.00529580877195    0.998169623856      -0.0413124453444    0.998169623856      -0.0413124453444    0.00114663182727    0.00529580877195    
3700000000.0        0.0011596154265     0.0054423974636     0.998119115066      -0.0424599306367    0.998119115066      -0.0424599306367    0.0011596154265     0.0054423974636     
3800000000.0        0.0011729297731     0.0055889481729     0.998067270267      -0.0436074014185    0.998067270267      -0.0436074014185    0.0011729297731     0.0055889481729     
3900000000.0        0.0011865753278     0.00573546015666    0.99801408882       -0.0447548566982    0.99801408882       -0.0447548566982    0.0011865753278     0.00573546015666    
4000000000.0        0.00120055251067    0.00588193267684    0.997959570125      -0.0459022954721    0.997959570125      -0.0459022954721    0.00120055251067    0.00588193267684    
4100000000.0        0.00121486170475    0.00602836500041    0.997903713617      -0.0470497167242    0.997903713617      -0.0470497167242    0.00121486170475    0.00602836500041    
4200000000.0        0.00122950325928    0.00617475639933    0.997846518764      -0.0481971194273    0.997846518764      -0.0481971194273    0.00122950325928    0.00617475639933    
4300000000.0        0.00124447749259    0.00632110615042    0.997787985065      -0.0493445025431    0.997787985065      -0.0493445025431    0.00124447749259    0.00632110615042    
4400000000.0        0.00125978469469    0.00646741353533    0.997728112044      -0.0504918650224    0.997728112044      -0.0504918650224    0.00125978469469    0.00646741353533    
4500000000.0        0.00127542512955    0.00661367784044    0.997666899251      -0.0516392058058    0.997666899251      -0.0516392058058    0.00127542512955    0.00661367784044    
4600000000.0        0.0012913990372     0.00675989835678    0.99760434626       -0.0527865238239    0.99760434626       -0.0527865238239    0.0012913990372     0.00675989835678    
4700000000.0        0.00130770663561    0.00690607437995    0.997540452664      -0.0539338179974    0.997540452664      -0.0539338179974    0.00130770663561    0.00690607437995    
4800000000.0        0.00132434812235    0.00705220521009    0.997475218077      -0.0550810872378    0.997475218077      -0.0550810872378    0.00132434812235    0.00705220521009    
4900000000.0        0.00134132367613    0.00719829015176    0.997408642131      -0.0562283304475    0.997408642131      -0.0562283304475    0.00134132367613    0.00719829015176    
5000000000.0        0.00135863345818    0.0073443285139     0.997340724474      -0.0573755465197    0.997340724474      -0.0573755465197    0.00135863345818    0.0073443285139     
5100000000.0        0.0013762776135     0.00749031960974    0.997271464769      -0.0585227343395    0.997271464769      -0.0585227343395    0.0013762776135     0.00749031960974    
5200000000.0        0.00139425627202    0.00763626275674    0.997200862695      -0.0596698927832    0.997200862695      -0.0596698927832    0.00139425627202    0.00763626275674    
5300000000.0        0.00141256954964    0.00778215727653    0.997128917944      -0.0608170207191    0.997128917944      -0.0608170207191    0.00141256954964    0.00778215727653    
5400000000.0        0.00143121754917    0.00792800249485    0.997055630219      -0.0619641170079    0.997055630219      -0.0619641170079    0.00143121754917    0.00792800249485    
5500000000.0        0.0014502003612     0.00807379774145    0.996980999236      -0.0631111805021    0.996980999236      -0.0631111805021    0.0014502003612     0.00807379774145    
5600000000.0        0.00146951806492    0.00821954235008    0.996905024721      -0.064258210047     0.996905024721      -0.064258210047     0.00146951806492    0.00821954235008    
5700000000.0        0.00148917072884    0.00836523565839    0.996827706411      -0.0654052044806    0.996827706411      -0.0654052044806    0.00148917072884    0.00836523565839    
5800000000.0        0.00150915841144    0.00851087700786    0.996749044053      -0.0665521626337    0.996749044053      -0.0665521626337    0.00150915841144    0.00851087700786    
5900000000.0        0.00152948116185    0.00865646574381    0.996669037401      -0.0676990833303    0.996669037401      -0.0676990833303    0.00152948116185    0.00865646574381    
6000000000.0        0.00155013902037    0.00880200121523    0.996587686219      -0.0688459653874    0.996587686219      -0.0688459653874    0.00155013902037    0.00880200121523    
6100000000.0        0.00157113201902    0.00894748277484    0.996504990278      -0.0699928076155    0.996504990278      -0.0699928076155    0.00157113201902    0.00894748277484    
6200000000.0        0.00159246018201    0.00909290977894    0.996420949359      -0.0711396088188    0.996420949359      -0.0711396088188    0.00159246018201    0.00909290977894    
6300000000.0        0.00161412352624    0.00923828158741    0.996335563246      -0.0722863677949    0.996335563246      -0.0722863677949    0.00161412352624    0.00923828158741    
6400000000.0        0.00163612206165    0.00938359756365    0.996248831733      -0.0734330833356    0.996248831733      -0.0734330833356    0.00163612206165    0.00938359756365    
6500000000.0        0.00165845579169    0.0095288570745     0.996160754619      -0.0745797542264    0.996160754619      -0.0745797542264    0.00165845579169    0.0095288570745     
6600000000.0        0.00168112471361    0.00967405949021    0.996071331708      -0.075726379247     0.996071331708      -0.075726379247     0.00168112471361    0.00967405949021    
6700000000.0        0.00170412881882    0.00981920418438    0.995980562813      -0.0768729571714    0.995980562813      -0.0768729571714    0.00170412881882    0.00981920418438    
6800000000.0        0.00172746809325    0.00996429053392    0.995888447748      -0.0780194867679    0.995888447748      -0.0780194867679    0.00172746809325    0.00996429053392    
6900000000.0        0.00175114251755    0.010109317919      0.995794986336      -0.0791659667993    0.995794986336      -0.0791659667993    0.00175114251755    0.010109317919      
7000000000.0        0.00177515206747    0.010254285723      0.995700178403      -0.0803123960231    0.995700178403      -0.0803123960231    0.00177515206747    0.010254285723      
7100000000.0        0.00179949671401    0.0103991933324     0.995604023779      -0.0814587731914    0.995604023779      -0.0814587731914    0.00179949671401    0.0103991933324     
7200000000.0        0.00182417642376    0.0105440401369     0.995506522301      -0.0826050970513    0.995506522301      -0.0826050970513    0.00182417642376    0.0105440401369     
7300000000.0        0.00184919115903    0.0106888255292     0.995407673808      -0.0837513663445    0.995407673808      -0.0837513663445    0.00184919115903    0.0106888255292     
7400000000.0        0.00187454087813    0.0108335489049     0.995307478144      -0.0848975798082    0.995307478144      -0.0848975798082    0.00187454087813    0.0108335489049     
7500000000.0        0.00190022553554    0.010978209663      0.995205935157      -0.0860437361743    0.995205935157      -0.0860437361743    0.00190022553554    0.010978209663      
7600000000.0        0.00192624508207    0.0111228072048     0.995103044698      -0.0871898341702    0.995103044698      -0.0871898341702    0.00192624508207    0.0111228072048     
7700000000.0        0.00195259946509    0.0112673409351     0.994998806622      -0.0883358725186    0.994998806622      -0.0883358725186    0.00195259946509    0.0112673409351     
7800000000.0        0.00197928862863    0.0114118102612     0.994893220789      -0.0894818499374    0.994893220789      -0.0894818499374    0.00197928862863    0.0114118102612     
7900000000.0        0.0020063125136     0.0115562145933     0.99478628706       -0.0906277651403    0.99478628706       -0.0906277651403    0.0020063125136     0.0115562145933     
8000000000.0        0.00203367105787    0.0117005533443     0.9946780053        -0.0917736168363    0.9946780053        -0.0917736168363    0.00203367105787    0.0117005533443     
8100000000.0        0.00206136419644    0.0118448259299     0.994568375379      -0.0929194037303    0.994568375379      -0.0929194037303    0.00206136419644    0.0118448259299     
8200000000.0        0.00208939186158    0.0119890317687     0.994457397167      -0.0940651245228    0.994457397167      -0.0940651245228    0.00208939186158    0.0119890317687     
8300000000.0        0.00211775398292    0.0121331702815     0.994345070538      -0.0952107779101    0.994345070538      -0.0952107779101    0.00211775398292    0.0121331702815     
8400000000.0        0.00214645048758    0.012277240892      0.994231395371      -0.0963563625846    0.994231395371      -0.0963563625846    0.00214645048758    0.012277240892      
8500000000.0        0.0021754813003     0.0124212430266     0.994116371544      -0.0975018772343    0.994116371544      -0.0975018772343    0.0021754813003     0.0124212430266     
8600000000.0        0.00220484634349    0.0125651761139     0.993999998941      -0.0986473205437    0.993999998941      -0.0986473205437    0.00220484634349    0.0125651761139     
8700000000.0        0.00223454553739    0.0127090395852     0.993882277447      -0.0997926911931    0.993882277447      -0.0997926911931    0.00223454553739    0.0127090395852     
8800000000.0        0.00226457880011    0.0128528328744     0.993763206949      -0.100937987859     0.993763206949      -0.100937987859     0.00226457880011    0.0128528328744     
8900000000.0        0.00229494604775    0.0129965554175     0.993642787337      -0.102083209214     0.993642787337      -0.102083209214     0.00229494604775    0.0129965554175     
9000000000.0        0.00232564719446    0.0131402066532     0.993521018505      -0.103228353928     0.993521018505      -0.103228353928     0.00232564719446    0.0131402066532     
9100000000.0        0.00235668215256    0.0132837860225     0.993397900347      -0.104373420665     0.993397900347      -0.104373420665     0.00235668215256    0.0132837860225     
9200000000.0        0.00238805083255    0.0134272929687     0.99327343276       -0.105518408088     0.99327343276       -0.105518408088     0.00238805083255    0.0134272929687     
9300000000.0        0.00241975314323    0.0135707269373     0.993147615643      -0.106663314856     0.993147615643      -0.106663314856     0.00241975314323    0.0135707269373     
9400000000.0        0.00245178899176    0.0137140873762     0.993020448898      -0.107808139622     0.993020448898      -0.107808139622     0.00245178899176    0.0137140873762     
9500000000.0        0.00248415828372    0.0138573737356     0.99289193243       -0.108952881039     0.99289193243       -0.108952881039     0.00248415828372    0.0138573737356     
9600000000.0        0.00251686092316    0.0140005854678     0.992762066142      -0.110097537754     0.992762066142      -0.110097537754     0.00251686092316    0.0140005854678     
9700000000.0        0.00254989681268    0.0141437220273     0.992630849944      -0.111242108413     0.992630849944      -0.111242108413     0.00254989681268    0.0141437220273     
9800000000.0        0.00258326585346    0.0142867828707     0.992498283746      -0.112386591657     0.992498283746      -0.112386591657     0.00258326585346    0.0142867828707     
9900000000.0        0.00261696794534    0.0144297674568     0.992364367458      -0.113530986125     0.992364367458      -0.113530986125     0.00261696794534    0.0144297674568     
10000000000.0       0.00265100298685    0.0145726752466     0.992229100995      -0.114675290451     0.992229100995      -0.114675290451     0.00265100298685    0.0145726752466     
