# Hz S RI R 50.00 
100000000.0         0.0619174544803     0.00394719068956    0.938077675823      -0.00592948984842   0.938077675823      -0.00592948984842   0.0619174544803     0.00394719068956    
200000000.0         0.0623747020355     0.00788552208168    0.937612541337      -0.0118501372081    0.937612541337      -0.0118501372081    0.0623747020355     0.00788552208168    
300000000.0         0.0627779852983     0.0118175245692     0.937197352551      -0.0177644897878    0.937197352551      -0.0177644897878    0.0627779852983     0.0118175245692     
400000000.0         0.0631779884612     0.0157435802067     0.936781424065      -0.0236729452644    0.936781424065      -0.0236729452644    0.0631779884612     0.0157435802067     
500000000.0         0.0635942121402     0.0196635730745     0.936345254037      -0.0295754024905    0.936345254037      -0.0295754024905    0.0635942121402     0.0196635730745     
600000000.0         0.0640365665084     0.0235771681183     0.935878930994      -0.0354715406294    0.935878930994      -0.0354715406294    0.0640365665084     0.0235771681183     
700000000.0         0.0645108646417     0.0274839114291     0.935376640464      -0.0413609195857    0.935376640464      -0.0413609195857    0.0645108646417     0.0274839114291     
800000000.0         0.065020828686      0.0313832768858     0.934834658795      -0.0472430267388    0.934834658795      -0.0472430267388    0.065020828686      0.0313832768858     
900000000.0         0.0655689836195     0.035274691334      0.934250459378      -0.0531173021794    0.934250459378      -0.0531173021794    0.0655689836195     0.035274691334      
1000000000.0        0.0661571105343     0.0391575496091     0.933622259367      -0.0589831537754    0.933622259367      -0.0589831537754    0.0661571105343     0.0391575496091     
1100000000.0        0.0667864987559     0.043031224185      0.932948767552      -0.0648399668509    0.932948767552      -0.0648399668509    0.0667864987559     0.043031224185      
1200000000.0        0.0674580961738     0.0468950717346     0.932229034024      -0.0706871107699    0.932229034024      -0.0706871107699    0.0674580961738     0.0468950717346     
1300000000.0        0.0681726038965     0.0507484378015     0.931462355523      -0.076523943626     0.931462355523      -0.076523943626     0.0681726038965     0.0507484378015     
1400000000.0        0.0689305385321     0.0545906602566     0.930648213151      -0.0823498157146    0.930648213151      -0.0823498157146    0.0689305385321     0.0545906602566     
1500000000.0        0.0697322746852     0.058421071943      0.929786229875      -0.0881640721889    0.929786229875      -0.0881640721889    0.0697322746852     0.058421071943      
1600000000.0        0.0705780748571     0.0622390027556     0.928876140628      -0.0939660551497    0.928876140628      -0.0939660551497    0.0705780748571     0.0622390027556     
1700000000.0        0.0714681110459     0.06604378132       0.927917770707      -0.0997551053333    0.927917770707      -0.0997551053333    0.0714681110459     0.06604378132       
1800000000.0        0.0724024807111     0.0698347363767     0.926911019806      -0.105530563502     0.926911019806      -0.105530563502     0.0724024807111     0.0698347363767     
1900000000.0        0.0733812188165     0.0736111979451     0.925855849975      -0.111291771615     0.925855849975      -0.111291771615     0.0733812188165     0.0736111979451     
2000000000.0        0.0744043070802     0.0773724983196     0.924752276371      -0.11703807383      0.924752276371      -0.11703807383      0.0744043070802     0.0773724983196     
2100000000.0        0.0754716811978     0.0811179729334     0.923600360029      -0.12276881737      0.923600360029      -0.12276881737      0.0754716811978     0.0811179729334     
2200000000.0        0.0765832365697     0.0848469611206     0.922400202139      -0.128483353291     0.922400202139      -0.128483353291     0.0765832365697     0.0848469611206     
2300000000.0        0.0777388329048     0.0885588067923     0.921151939443      -0.134181037162     0.921151939443      -0.134181037162     0.0777388329048     0.0885588067923     
2400000000.0        0.0789382979719     0.0922528590464     0.919855740478      -0.139861229679     0.919855740478      -0.139861229679     0.0789382979719     0.0922528590464     
2500000000.0        0.0801814306942     0.0959284727191     0.918511802487      -0.145523297215     0.918511802487      -0.145523297215     0.0801814306942     0.0959284727191     
2600000000.0        0.0814680037317     0.0995850088897     0.917120348832      -0.151166612333     0.917120348832      -0.151166612333     0.0814680037317     0.0995850088897     
2700000000.0        0.0827977656627     0.103221835344      0.915681626816      -0.156790554248     0.915681626816      -0.156790554248     0.0827977656627     0.103221835344      
2800000000.0        0.0841704428448     0.106838327001      0.914195905821      -0.162394509257     0.914195905821      -0.162394509257     0.0841704428448     0.106838327001      
2900000000.0        0.0855857410218     0.110433866314      0.912663475696      -0.167977871143     0.912663475696      -0.167977871143     0.0855857410218     0.110433866314      
3000000000.0        0.0870433467234     0.114007843634      0.911084645367      -0.173540041539     0.911084645367      -0.173540041539     0.0870433467234     0.114007843634      
3100000000.0        0.0885429284978     0.117559657563      0.909459741594      -0.179080430282     0.909459741594      -0.179080430282     0.0885429284978     0.117559657563      
3200000000.0        0.0900841380076     0.121088715267      0.907789107881      -0.184598455731     0.907789107881      -0.184598455731     0.0900841380076     0.121088715267      
3300000000.0        0.0916666110123     0.124594432787      0.906073103493      -0.190093545077     0.906073103493      -0.190093545077     0.0916666110123     0.124594432787      
3400000000.0        0.0932899682578     0.128076235318      0.904312102564      -0.195565134621     0.904312102564      -0.195565134621     0.0932899682578     0.128076235318      
3500000000.0        0.094953816288      0.131533557474      0.902506493286      -0.201012670045     0.902506493286      -0.201012670045     0.094953816288      0.131533557474      
3600000000.0        0.0966577481909     0.134965843539      0.900656677164      -0.206435606661     0.900656677164      -0.206435606661     0.0966577481909     0.134965843539      
3700000000.0        0.0984013442907     0.138372547702      0.898763068323      -0.211833409647     0.898763068323      -0.211833409647     0.0984013442907     0.138372547702      
3800000000.0        0.100184172792      0.141753134269      0.896826092862      -0.217205554264     0.896826092862      -0.217205554264     0.100184172792      0.141753134269      
3900000000.0        0.102005790387      0.145107077876      0.89484618825       -0.222551526061     0.89484618825       -0.222551526061     0.102005790387      0.145107077876      
4000000000.0        0.103865742827      0.148433863673      0.892823802753      -0.227870821069     0.892823802753      -0.227870821069     0.103865742827      0.148433863673      
4100000000.0        0.105763565462      0.151732987504      0.890759394889      -0.233162945979     0.890759394889      -0.233162945979     0.105763565462      0.151732987504      
4200000000.0        0.107698783764      0.155003956072      0.888653432913      -0.238427418305     0.888653432913      -0.238427418305     0.107698783764      0.155003956072      
4300000000.0        0.109670913821      0.158246287091      0.886506394319      -0.243663766537     0.886506394319      -0.243663766537     0.109670913821      0.158246287091      
4400000000.0        0.111679462812      0.161459509425      0.884318765363      -0.248871530286     0.884318765363      -0.248871530286     0.111679462812      0.161459509425      
4500000000.0        0.113723929468      0.164643163219      0.882091040603      -0.254050260408     0.882091040603      -0.254050260408     0.113723929468      0.164643163219      
4600000000.0        0.11580380452       0.167796800014      0.879823722452      -0.259199519124     0.879823722452      -0.259199519124     0.11580380452       0.167796800014      
4700000000.0        0.117918571128      0.170919982854      0.877517320747      -0.264318880129     0.877517320747      -0.264318880129     0.117918571128      0.170919982854      
4800000000.0        0.120067705303      0.174012286382      0.875172352329      -0.269407928683     0.875172352329      -0.269407928683     0.120067705303      0.174012286382      
4900000000.0        0.122250676315      0.177073296921      0.872789340631      -0.274466261698     0.872789340631      -0.274466261698     0.122250676315      0.177073296921      
5000000000.0        0.124466947094      0.180102612553      0.870368815281      -0.279493487813     0.870368815281      -0.279493487813     0.124466947094      0.180102612553      
5100000000.0        0.126715974618      0.183099843178      0.86791131171       -0.284489227456     0.86791131171       -0.284489227456     0.126715974618      0.183099843178      
5200000000.0        0.128997210297      0.186064610573      0.865417370768      -0.289453112903     0.865417370768      -0.289453112903     0.128997210297      0.186064610573      
5300000000.0        0.131310100349      0.188996548429      0.862887538355      -0.294384788314     0.862887538355      -0.294384788314     0.131310100349      0.188996548429      
5400000000.0        0.133654086159      0.191895302393      0.860322365046      -0.299283909777     0.860322365046      -0.299283909777     0.133654086159      0.191895302393      
5500000000.0        0.136028604647      0.194760530087      0.85772240574       -0.304150145328     0.85772240574       -0.304150145328     0.136028604647      0.194760530087      
5600000000.0        0.138433088617      0.197591901129      0.855088219301      -0.308983174965     0.855088219301      -0.308983174965     0.138433088617      0.197591901129      
5700000000.0        0.1408669671        0.200389097133      0.852420368212      -0.313782690662     0.852420368212      -0.313782690662     0.1408669671        0.200389097133      
5800000000.0        0.1433296657        0.203151811715      0.84971941824       -0.318548396362     0.84971941824       -0.318548396362     0.1433296657        0.203151811715      
5900000000.0        0.145820606923      0.205879750477      0.846985938095      -0.323280007967     0.846985938095      -0.323280007967     0.145820606923      0.205879750477      
6000000000.0        0.148339210503      0.208572630993      0.844220499108      -0.327977253323     0.844220499108      -0.327977253323     0.148339210503      0.208572630993      
6100000000.0        0.15088489373       0.211230182775      0.841423674905      -0.33263987219      0.841423674905      -0.33263987219      0.15088489373       0.211230182775      
6200000000.0        0.153457071758      0.213852147247      0.838596041097      -0.337267616208     0.838596041097      -0.337267616208     0.153457071758      0.213852147247      
6300000000.0        0.156055157917      0.216438277695      0.835738174962      -0.341860248856     0.835738174962      -0.341860248856     0.156055157917      0.216438277695      
6400000000.0        0.158678564019      0.218988339221      0.83285065515       -0.3464175454       0.83285065515       -0.3464175454       0.158678564019      0.218988339221      
6500000000.0        0.161326700652      0.221502108687      0.829934061377      -0.350939292839     0.829934061377      -0.350939292839     0.161326700652      0.221502108687      
6600000000.0        0.163998977472      0.223979374646      0.826988974139      -0.355425289837     0.826988974139      -0.355425289837     0.163998977472      0.223979374646      
6700000000.0        0.166694803492      0.226419937274      0.824015974423      -0.359875346655     0.824015974423      -0.359875346655     0.166694803492      0.226419937274      
6800000000.0        0.169413587359      0.228823608295      0.821015643424      -0.364289285071     0.821015643424      -0.364289285071     0.169413587359      0.228823608295      
6900000000.0        0.172154737626      0.23119021089       0.817988562278      -0.368666938299     0.817988562278      -0.368666938299     0.172154737626      0.23119021089       
7000000000.0        0.174917663026      0.233519579613      0.814935311785      -0.373008150896     0.814935311785      -0.373008150896     0.174917663026      0.233519579613      
7100000000.0        0.177701772729      0.235811560292      0.811856472154      -0.377312778667     0.811856472154      -0.377312778667     0.177701772729      0.235811560292      
7200000000.0        0.180506476598      0.238066009927      0.808752622739      -0.381580688562     0.808752622739      -0.381580688562     0.180506476598      0.238066009927      
7300000000.0        0.183331185441      0.240282796585      0.805624341796      -0.385811758571     0.805624341796      -0.385811758571     0.183331185441      0.240282796585      
7400000000.0        0.186175311256      0.242461799283      0.802472206235      -0.390005877611     0.802472206235      -0.390005877611     0.186175311256      0.242461799283      
7500000000.0        0.189038267463      0.244602907877      0.79929679138       -0.394162945404     0.79929679138       -0.394162945404     0.189038267463      0.244602907877      
7600000000.0        0.191919469144      0.246706022931      0.796098670739      -0.39828287236      0.796098670739      -0.39828287236      0.191919469144      0.246706022931      
7700000000.0        0.194818333259      0.248771055599      0.792878415779      -0.402365579447     0.792878415779      -0.402365579447     0.194818333259      0.248771055599      
7800000000.0        0.197734278874      0.250797927487      0.789636595704      -0.406410998062     0.789636595704      -0.406410998062     0.197734278874      0.250797927487      
7900000000.0        0.200666727369      0.252786570519      0.786373777241      -0.410419069891     0.786373777241      -0.410419069891     0.200666727369      0.252786570519      
8000000000.0        0.203615102646      0.2547369268        0.783090524433      -0.414389746773     0.783090524433      -0.414389746773     0.203615102646      0.2547369268        
8100000000.0        0.20657883133       0.25664894847       0.779787398441      -0.418322990557     0.779787398441      -0.418322990557     0.20657883133       0.25664894847       
8200000000.0        0.209557342965      0.258522597559      0.77646495734       -0.422218772953     0.77646495734       -0.422218772953     0.209557342965      0.258522597559      
8300000000.0        0.212550070201      0.260357845838      0.77312375594       -0.426077075383     0.77312375594       -0.426077075383     0.212550070201      0.260357845838      
8400000000.0        0.215556448977      0.262154674662      0.769764345594      -0.429897888828     0.769764345594      -0.429897888828     0.215556448977      0.262154674662      
8500000000.0        0.218575918696      0.263913074817      0.766387274029      -0.433681213672     0.766387274029      -0.433681213672     0.218575918696      0.263913074817      
8600000000.0        0.221607922398      0.265633046364      0.76299308517       -0.437427059544     0.76299308517       -0.437427059544     0.221607922398      0.265633046364      
8700000000.0        0.224651906919      0.267314598474      0.759582318974      -0.441135445154     0.759582318974      -0.441135445154     0.224651906919      0.267314598474      
8800000000.0        0.227707323054      0.268957749265      0.756155511279      -0.444806398136     0.756155511279      -0.444806398136     0.227707323054      0.268957749265      
8900000000.0        0.230773625707      0.27056252564       0.752713193644      -0.448439954873     0.752713193644      -0.448439954873     0.230773625707      0.27056252564       
9000000000.0        0.233850274036      0.272128963117      0.749255893204      -0.452036160341     0.749255893204      -0.452036160341     0.233850274036      0.272128963117      
9100000000.0        0.236936731593      0.273657105662      0.745784132532      -0.45559506793      0.745784132532      -0.45559506793      0.236936731593      0.273657105662      
9200000000.0        0.240032466459      0.275147005519      0.742298429501      -0.459116739281     0.742298429501      -0.459116739281     0.240032466459      0.275147005519      
9300000000.0        0.243136951371      0.276598723036      0.738799297159      -0.462601244109     0.738799297159      -0.462601244109     0.243136951371      0.276598723036      
9400000000.0        0.246249663846      0.278012326496      0.735287243601      -0.466048660034     0.735287243601      -0.466048660034     0.246249663846      0.278012326496      
9500000000.0        0.249370086295      0.279387891941      0.731762771857      -0.469459072406     0.731762771857      -0.469459072406     0.249370086295      0.279387891941      
9600000000.0        0.252497706135      0.280725502999      0.728226379774      -0.472832574128     0.728226379774      -0.472832574128     0.252497706135      0.280725502999      
9700000000.0        0.255632015895      0.282025250707      0.724678559918      -0.476169265486     0.724678559918      -0.476169265486     0.255632015895      0.282025250707      
9800000000.0        0.258772513317      0.28328723334       0.721119799464      -0.479469253969     0.721119799464      -0.479469253969     0.258772513317      0.28328723334       
9900000000.0        0.261918701443      0.284511556232      0.717550580112      -0.482732654094     0.717550580112      -0.482732654094     0.261918701443      0.284511556232      
10000000000.0       0.265070088714      0.285698331598      0.713971377986      -0.485959587231     0.713971377986      -0.485959587231     0.265070088714      0.285698331598      
