# Hz S RI R 50.00 
100000000.0         0.0612368365576     0.00286024259366    0.938760933913      -0.00374898473741   0.938760933913      -0.00374898473741   0.0612368365576     0.00286024259366    
200000000.0         0.0616484927333     0.00571493028501    0.93834724091       -0.00749242516993   0.93834724091       -0.00749242516993   0.0616484927333     0.00571493028501    
300000000.0         0.0619796148806     0.00856602501115    0.938013274372      -0.0112322903602    0.938013274372      -0.0112322903602    0.0619796148806     0.00856602501115    
400000000.0         0.062280515139      0.0114140649046     0.937708721941      -0.0149691243654    0.937708721941      -0.0149691243654    0.062280515139      0.0114140649046     
500000000.0         0.0625706110633     0.0142592566014     0.937414165849      -0.0187031391412    0.937414165849      -0.0187031391412    0.0625706110633     0.0142592566014     
600000000.0         0.0628598201661     0.0171016599356     0.937119688372      -0.0224343994448    0.937119688372      -0.0224343994448    0.0628598201661     0.0171016599356     
700000000.0         0.0631540052033     0.0199412543318     0.936819426539      -0.0261628893344    0.936819426539      -0.0261628893344    0.0631540052033     0.0199412543318     
800000000.0         0.0634569636843     0.0227779696301     0.936509582614      -0.0298885430578    0.936509582614      -0.0298885430578    0.0634569636843     0.0227779696301     
900000000.0         0.0637713146086     0.0256117026633     0.936187537365      -0.0336112616711    0.936187537365      -0.0336112616711    0.0637713146086     0.0256117026633     
1000000000.0        0.0640989483753     0.0284423270885     0.935851400149      -0.0373309229008    0.935851400149      -0.0373309229008    0.0640989483753     0.0284423270885     
1100000000.0        0.0644412771219     0.0312696996466     0.935499758573      -0.0410473874242    0.935499758573      -0.0410473874242    0.0644412771219     0.0312696996466     
1200000000.0        0.0647993840337     0.034093664367      0.935131529187      -0.0447605030912    0.935131529187      -0.0447605030912    0.0647993840337     0.034093664367      
1300000000.0        0.0651741173689     0.0369140555158     0.934745863455      -0.0484701078851    0.934745863455      -0.0484701078851    0.0651741173689     0.0369140555158     
1400000000.0        0.065566152319      0.0397306997359     0.934342085897      -0.0521760320741    0.934342085897      -0.0521760320741    0.065566152319      0.0397306997359     
1500000000.0        0.0659760332016     0.0425434176472     0.933919651894      -0.0558780998192    0.933919651894      -0.0558780998192    0.0659760332016     0.0425434176472     
1600000000.0        0.0664042031222     0.0453520250722     0.933478118029      -0.0595761304077    0.933478118029      -0.0595761304077    0.0664042031222     0.0453520250722     
1700000000.0        0.0668510253722     0.048156333996      0.933017120687      -0.0632699392187    0.933017120687      -0.0632699392187    0.0668510253722     0.048156333996      
1800000000.0        0.0673167992116     0.0509561533318     0.932536360272      -0.0669593384944    0.932536360272      -0.0669593384944    0.0673167992116     0.0509561533318     
1900000000.0        0.0678017717385     0.0537512895424     0.932035589337      -0.0706441379657    0.932035589337      -0.0706441379657    0.0678017717385     0.0537512895424     
2000000000.0        0.06830614697       0.0565415471518     0.931514603507      -0.074324145368     0.931514603507      -0.074324145368     0.06830614697       0.0565415471518     
2100000000.0        0.0688300928948     0.059326729173      0.930973234423      -0.0779991668722    0.930973234423      -0.0779991668722    0.0688300928948     0.059326729173      
2200000000.0        0.0693737470266     0.0621066374692     0.930411344187      -0.0816690074489    0.930411344187      -0.0816690074489    0.0693737470266     0.0621066374692     
2300000000.0        0.069937220831      0.0648810730627     0.929828820941      -0.0853334711808    0.929828820941      -0.0853334711808    0.069937220831      0.0648810730627     
2400000000.0        0.0705206032929     0.0676498364024     0.929225575294      -0.0889923615316    0.929225575294      -0.0889923615316    0.0705206032929     0.0676498364024     
2500000000.0        0.0711239638218     0.0704127275968     0.928601537419      -0.0926454815818    0.928601537419      -0.0926454815818    0.0711239638218     0.0704127275968     
2600000000.0        0.07174735464       0.0731695466192     0.927956654666      -0.0962926342359    0.927956654666      -0.0962926342359    0.07174735464       0.0731695466192     
2700000000.0        0.0723908127618     0.0759200934897     0.927290889582      -0.0999336224062    0.927290889582      -0.0999336224062    0.0723908127618     0.0759200934897     
2800000000.0        0.0730543616482     0.0786641684387     0.926604218253      -0.103568249178     0.926604218253      -0.103568249178     0.0730543616482     0.0786641684387     
2900000000.0        0.0737380126003     0.0814015720531     0.925896628917      -0.107196317956     0.925896628917      -0.107196317956     0.0737380126003     0.0814015720531     
3000000000.0        0.0744417659404     0.0841321054095     0.925168120779      -0.110817632602     0.925168120779      -0.110817632602     0.0744417659404     0.0841321054095     
3100000000.0        0.075165612021      0.0868555701962     0.924418703002      -0.114431997556     0.924418703002      -0.114431997556     0.075165612021      0.0868555701962     
3200000000.0        0.075909532091      0.0895717688233     0.923648393842      -0.118039217947     0.923648393842      -0.118039217947     0.075909532091      0.0895717688233     
3300000000.0        0.0766734990445     0.0922805045265     0.9228572199        -0.121639099699     0.9228572199        -0.121639099699     0.0766734990445     0.0922805045265     
3400000000.0        0.0774574780721     0.094981581461      0.922045215467      -0.125231449627     0.922045215467      -0.125231449627     0.0774574780721     0.094981581461      
3500000000.0        0.0782614272299     0.0976748047904     0.92121242196       -0.128816075523     0.92121242196       -0.128816075523     0.0782614272299     0.0976748047904     
3600000000.0        0.0790852979389     0.100359980769      0.92035888742       -0.132392786245     0.92035888742       -0.132392786245     0.0790852979389     0.100359980769      
3700000000.0        0.0799290354275     0.103036916818      0.91948466607       -0.135961391789     0.91948466607       -0.135961391789     0.0799290354275     0.103036916818      
3800000000.0        0.0807925791229     0.105705421599      0.918589817923      -0.139521703366     0.918589817923      -0.139521703366     0.0807925791229     0.105705421599      
3900000000.0        0.0816758630014     0.108365305082      0.917674408433      -0.143073533469     0.917674408433      -0.143073533469     0.0816758630014     0.108365305082      
4000000000.0        0.0825788159014     0.111016378609      0.916738508182      -0.14661669594      0.916738508182      -0.14661669594      0.0825788159014     0.111016378609      
4100000000.0        0.0835013618058     0.113658454956      0.915782192595      -0.150151006029     0.915782192595      -0.150151006029     0.0835013618058     0.113658454956      
4200000000.0        0.0844434200975     0.116291348389      0.914805541689      -0.153676280455     0.914805541689      -0.153676280455     0.0844434200975     0.116291348389      
4300000000.0        0.0854049057914     0.118914874722      0.913808639837      -0.157192337459     0.913808639837      -0.157192337459     0.0854049057914     0.118914874722      
4400000000.0        0.0863857297456     0.121528851363      0.91279157556       -0.160698996858     0.91279157556       -0.160698996858     0.0863857297456     0.121528851363      
4500000000.0        0.0873857988559     0.124133097372      0.91175444133       -0.164196080097     0.91175444133       -0.164196080097     0.0873857988559     0.124133097372      
4600000000.0        0.0884050162341     0.1267274335        0.910697333394      -0.167683410291     0.910697333394      -0.167683410291     0.0884050162341     0.1267274335        
4700000000.0        0.0894432813728     0.129311682241      0.909620351608      -0.171160812276     0.909620351608      -0.171160812276     0.0894432813728     0.129311682241      
4800000000.0        0.0905004902984     0.131885667869      0.908523599282      -0.174628112652     0.908523599282      -0.174628112652     0.0905004902984     0.131885667869      
4900000000.0        0.0915765357136     0.134449216483      0.907407183043      -0.178085139822     0.907407183043      -0.178085139822     0.0915765357136     0.134449216483      
5000000000.0        0.0926713071302     0.137002156045      0.906271212697      -0.181531724033     0.906271212697      -0.181531724033     0.0926713071302     0.137002156045      
5100000000.0        0.0937846909942     0.139544316419      0.905115801106      -0.184967697413     0.905115801106      -0.184967697413     0.0937846909942     0.139544316419      
5200000000.0        0.0949165708031     0.142075529402      0.903941064071      -0.188392894009     0.903941064071      -0.188392894009     0.0949165708031     0.142075529402      
5300000000.0        0.0960668272168     0.144595628764      0.902747120222      -0.191807149821     0.902747120222      -0.191807149821     0.0960668272168     0.144595628764      
5400000000.0        0.0972353381627     0.147104450277      0.90153409091       -0.195210302834     0.90153409091       -0.195210302834     0.0972353381627     0.147104450277      
5500000000.0        0.0984219789357     0.149601831748      0.90030210011       -0.198602193048     0.90030210011       -0.198602193048     0.0984219789357     0.149601831748      
5600000000.0        0.099626622293      0.152087613047      0.899051274323      -0.201982662514     0.899051274323      -0.201982662514     0.099626622293      0.152087613047      
5700000000.0        0.100849138545      0.154561636138      0.89778174249       -0.205351555355     0.89778174249       -0.205351555355     0.100849138545      0.154561636138      
5800000000.0        0.102089395644      0.157023745101      0.8964936359        -0.208708717801     0.8964936359        -0.208708717801     0.102089395644      0.157023745101      
5900000000.0        0.103347259263      0.159473786164      0.895187088109      -0.212053998207     0.895187088109      -0.212053998207     0.103347259263      0.159473786164      
6000000000.0        0.104622592885      0.161911607724      0.893862234858      -0.215387247085     0.893862234858      -0.215387247085     0.104622592885      0.161911607724      
6100000000.0        0.105915257871      0.164337060369      0.892519213996      -0.218708317122     0.892519213996      -0.218708317122     0.105915257871      0.164337060369      
6200000000.0        0.107225113542      0.166749996902      0.891158165406      -0.222017063206     0.891158165406      -0.222017063206     0.107225113542      0.166749996902      
6300000000.0        0.108552017249      0.169150272361      0.88977923093       -0.225313342445     0.88977923093       -0.225313342445     0.108552017249      0.169150272361      
6400000000.0        0.109895824444      0.171537744041      0.8883825543        -0.228597014188     0.8883825543        -0.228597014188     0.109895824444      0.171537744041      
6500000000.0        0.11125638875       0.173912271508      0.886968281068      -0.231867940041     0.886968281068      -0.231867940041     0.11125638875       0.173912271508      
6600000000.0        0.112633562025      0.176273716618      0.885536558541      -0.23512598389      0.885536558541      -0.23512598389      0.112633562025      0.176273716618      
6700000000.0        0.114027194431      0.178621943537      0.884087535713      -0.238371011911     0.884087535713      -0.238371011911     0.114027194431      0.178621943537      
6800000000.0        0.115437134495      0.18095681875       0.882621363204      -0.241602892592     0.882621363204      -0.241602892592     0.115437134495      0.18095681875       
6900000000.0        0.116863229172      0.18327821108       0.881138193197      -0.24482149674      0.881138193197      -0.24482149674      0.116863229172      0.18327821108       
7000000000.0        0.118305323908      0.185585991699      0.879638179375      -0.248026697502     0.879638179375      -0.248026697502     0.118305323908      0.185585991699      
7100000000.0        0.119763262694      0.18788003414       0.878121476866      -0.251218370373     0.878121476866      -0.251218370373     0.119763262694      0.18788003414       
7200000000.0        0.121236888132      0.190160214311      0.876588242179      -0.254396393206     0.876588242179      -0.254396393206     0.121236888132      0.190160214311      
7300000000.0        0.122726041488      0.192426410499      0.875038633149      -0.257560646227     0.875038633149      -0.257560646227     0.122726041488      0.192426410499      
7400000000.0        0.124230562747      0.194678503385      0.873472808882      -0.26071101204      0.873472808882      -0.26071101204      0.124230562747      0.194678503385      
7500000000.0        0.125750290673      0.196916376051      0.871890929699      -0.263847375637     0.871890929699      -0.263847375637     0.125750290673      0.196916376051      
7600000000.0        0.127285062861      0.199139913983      0.870293157079      -0.266969624407     0.870293157079      -0.266969624407     0.127285062861      0.199139913983      
7700000000.0        0.12883471579       0.201349005085      0.868679653608      -0.270077648139     0.868679653608      -0.270077648139     0.12883471579       0.201349005085      
7800000000.0        0.130399084878      0.203543539676      0.867050582926      -0.273171339032     0.867050582926      -0.273171339032     0.130399084878      0.203543539676      
7900000000.0        0.131978004529      0.2057234105        0.865406109672      -0.276250591694     0.865406109672      -0.276250591694     0.131978004529      0.2057234105        
8000000000.0        0.133571308193      0.20788851273       0.86374639944       -0.279315303154     0.86374639944       -0.279315303154     0.133571308193      0.20788851273       
8100000000.0        0.135178828407      0.210038743967      0.862071618718      -0.282365372855     0.862071618718      -0.282365372855     0.135178828407      0.210038743967      
8200000000.0        0.136800396851      0.212174004245      0.86038193485       -0.285400702664     0.86038193485       -0.285400702664     0.136800396851      0.212174004245      
8300000000.0        0.138435844395      0.21429419603       0.858677515976      -0.288421196871     0.858677515976      -0.288421196871     0.138435844395      0.21429419603       
8400000000.0        0.140085001148      0.216399224223      0.856958530993      -0.291426762186     0.856958530993      -0.291426762186     0.140085001148      0.216399224223      
8500000000.0        0.141747696502      0.218488996155      0.8552251495        -0.294417307746     0.8552251495        -0.294417307746     0.141747696502      0.218488996155      
8600000000.0        0.143423759185      0.220563421593      0.853477541756      -0.297392745104     0.853477541756      -0.297392745104     0.143423759185      0.220563421593      
8700000000.0        0.145113017304      0.222622412728      0.851715878631      -0.300352988237     0.851715878631      -0.300352988237     0.145113017304      0.222622412728      
8800000000.0        0.14681529839       0.224665884182      0.849940331561      -0.303297953537     0.849940331561      -0.303297953537     0.14681529839       0.224665884182      
8900000000.0        0.148530429445      0.226693752998      0.848151072505      -0.306227559807     0.848151072505      -0.306227559807     0.148530429445      0.226693752998      
9000000000.0        0.150258236986      0.228705938637      0.846348273895      -0.309141728262     0.846348273895      -0.309141728262     0.150258236986      0.228705938637      
9100000000.0        0.151998547088      0.230702362975      0.8445321086        -0.31204038252      0.8445321086        -0.31204038252      0.151998547088      0.230702362975      
9200000000.0        0.153751185428      0.232682950293      0.842702749874      -0.314923448596     0.842702749874      -0.314923448596     0.153751185428      0.232682950293      
9300000000.0        0.155515977329      0.234647627277      0.84086037132       -0.317790854899     0.84086037132       -0.317790854899     0.155515977329      0.234647627277      
9400000000.0        0.157292747798      0.236596323003      0.839005146846      -0.320642532221     0.839005146846      -0.320642532221     0.157292747798      0.236596323003      
9500000000.0        0.159081321573      0.238528968936      0.837137250622      -0.323478413733     0.837137250622      -0.323478413733     0.159081321573      0.238528968936      
9600000000.0        0.160881523159      0.240445498916      0.835256857041      -0.326298434973     0.835256857041      -0.326298434973     0.160881523159      0.240445498916      
9700000000.0        0.162693176872      0.242345849155      0.833364140678      -0.329102533838     0.833364140678      -0.329102533838     0.162693176872      0.242345849155      
9800000000.0        0.164516106876      0.24422995822       0.831459276249      -0.331890650578     0.831459276249      -0.331890650578     0.164516106876      0.24422995822       
9900000000.0        0.166350137224      0.246097767029      0.829542438575      -0.334662727781     0.829542438575      -0.334662727781     0.166350137224      0.246097767029      
10000000000.0       0.168195091896      0.247949218834      0.82761380254       -0.337418710363     0.82761380254       -0.337418710363     0.168195091896      0.247949218834      
