# Hz S RI R 50.00 
100000000.0         0.0606107733925     0.00294245438521    0.939386955513      -0.0038536547809    0.939386955513      -0.0038536547809    0.0606107733925     0.00294245438521    
200000000.0         0.0610208377406     0.00587923901997    0.938974771653      -0.00770165133161   0.938974771653      -0.00770165133161   0.0610208377406     0.00587923901997    
300000000.0         0.0613526810388     0.00881233440591    0.938639960147      -0.011545977864     0.938639960147      -0.011545977864     0.0613526810388     0.00881233440591    
400000000.0         0.0616561252675     0.0117422721488     0.93833269878       -0.0153871723919    0.93833269878       -0.0153871723919    0.0616561252675     0.0117422721488     
500000000.0         0.0619503962584     0.0146692465609     0.938033761492      -0.0192254349791    0.938033761492      -0.0192254349791    0.0619503962584     0.0146692465609     
600000000.0         0.062245311694      0.0175933026174     0.937733330373      -0.0230608159218    0.937733330373      -0.0230608159218    0.062245311694      0.0175933026174     
700000000.0         0.0625466736759     0.0205144035234     0.937425603086      -0.0268932834316    0.937425603086      -0.0268932834316    0.0625466736759     0.0205144035234     
800000000.0         0.0628582389198     0.0234324620867     0.93710682267       -0.0307227550767    0.93710682267       -0.0307227550767    0.0628582389198     0.0234324620867     
900000000.0         0.0631825968595     0.026347357591      0.936774399436      -0.0345491147013    0.936774399436      -0.0345491147013    0.0631825968595     0.026347357591      
1000000000.0        0.0635216151637     0.0292589458065     0.93642646545       -0.0383722224678    0.93642646545       -0.0383722224678    0.0635216151637     0.0292589458065     
1100000000.0        0.0638766876231     0.0321670653639     0.936061626642      -0.0421919212546    0.936061626642      -0.0421919212546    0.0638766876231     0.0321670653639     
1200000000.0        0.0642488819943     0.0350715420384     0.935678814963      -0.0460080409581    0.935678814963      -0.0460080409581    0.0642488819943     0.0350715420384     
1300000000.0        0.0646390330995     0.0379721917554     0.935277195286      -0.0498204015126    0.935277195286      -0.0498204015126    0.0646390330995     0.0379721917554     
1400000000.0        0.0650478040768     0.0408688227735     0.934856104157      -0.0536288150848    0.934856104157      -0.0536288150848    0.0650478040768     0.0408688227735     
1500000000.0        0.0654757281558     0.0437612373182     0.934415008015      -0.0574330877167    0.934415008015      -0.0574330877167    0.0654757281558     0.0437612373182     
1600000000.0        0.0659232380269     0.0466492328344     0.933953473826      -0.0612330205863    0.933953473826      -0.0612330205863    0.0659232380269     0.0466492328344     
1700000000.0        0.0663906870276     0.0495326029685     0.933471147896      -0.065028410996     0.933471147896      -0.065028410996     0.0663906870276     0.0495326029685     
1800000000.0        0.0668783647691     0.0524111383535     0.932967740245      -0.0688190531633    0.932967740245      -0.0688190531633    0.0668783647691     0.0524111383535     
1900000000.0        0.06738650889       0.0552846272457     0.93244301285       -0.0726047388627    0.93244301285       -0.0726047388627    0.06738650889       0.0552846272457     
2000000000.0        0.0679153140477     0.0581528560517     0.931896770658      -0.076385257957     0.931896770658      -0.076385257957     0.0679153140477     0.0581528560517     
2100000000.0        0.068464938903      0.0610156097683     0.9313288546        -0.0801603988405    0.9313288546        -0.0801603988405    0.068464938903      0.0610156097683     
2200000000.0        0.0690355116207     0.0638726723554     0.93073913609       -0.0839299488157    0.93073913609       -0.0839299488157    0.0690355116207     0.0638726723554     
2300000000.0        0.0696271342543     0.0667238270559     0.93012751264       -0.087693694416     0.93012751264       -0.087693694416     0.0696271342543     0.0667238270559     
2400000000.0        0.0702398862806     0.0695688566725     0.929493904326      -0.0914514216853    0.929493904326      -0.0914514216853    0.0702398862806     0.0695688566725     
2500000000.0        0.0708738274797     0.07240754381       0.928838250907      -0.0952029164224    0.928838250907      -0.0952029164224    0.0708738274797     0.07240754381       
2600000000.0        0.0715290003018     0.075239671089      0.928160509462      -0.0989479643973    0.928160509462      -0.0989479643973    0.0715290003018     0.075239671089      
2700000000.0        0.0722054318303     0.0780650213366     0.927460652423      -0.102686351543     0.927460652423      -0.102686351543     0.0722054318303     0.0780650213366     
2800000000.0        0.0729031354239     0.0808833777561     0.926738665933      -0.10641786413      0.926738665933      -0.10641786413      0.0729031354239     0.0808833777561     
2900000000.0        0.0736221120999     0.0836945240821     0.925994548466      -0.110142288917     0.925994548466      -0.110142288917     0.0736221120999     0.0836945240821     
3000000000.0        0.0743623517074     0.0864982447199     0.925228309651      -0.1138594133       0.925228309651      -0.1138594133       0.0743623517074     0.0864982447199     
3100000000.0        0.0751238339303     0.0892943248734     0.924439969271      -0.117569025433     0.924439969271      -0.117569025433     0.0751238339303     0.0892943248734     
3200000000.0        0.0759065291499     0.092082550663      0.923629556397      -0.121270914354     0.923629556397      -0.121270914354     0.0759065291499     0.092082550663      
3300000000.0        0.0767103991905     0.0948627092344     0.922797108649      -0.124964870093     0.922797108649      -0.124964870093     0.0767103991905     0.0948627092344     
3400000000.0        0.0775353979687     0.0976345888588     0.92194267154       -0.128650683772     0.92194267154       -0.128650683772     0.0775353979687     0.0976345888588     
3500000000.0        0.0783814720617     0.100397979027      0.921066297911      -0.132328147699     0.921066297911      -0.132328147699     0.0783814720617     0.100397979027      
3600000000.0        0.0792485612073     0.103152670538      0.92016804743       -0.135997055464     0.92016804743       -0.135997055464     0.0792485612073     0.103152670538      
3700000000.0        0.0801365987465     0.105898455578      0.919247986152      -0.139657202011     0.919247986152      -0.139657202011     0.0801365987465     0.105898455578      
3800000000.0        0.0810455120167     0.108635127804      0.918306186123      -0.143308383727     0.918306186123      -0.143308383727     0.0810455120167     0.108635127804      
3900000000.0        0.0819752227036     0.111362482409      0.917342725028      -0.146950398509     0.917342725028      -0.146950398509     0.0819752227036     0.111362482409      
4000000000.0        0.082925647157      0.114080316198      0.916357685879      -0.150583045835     0.916357685879      -0.150583045835     0.082925647157      0.114080316198      
4100000000.0        0.0838966966758     0.116788427648      0.915351156724      -0.154206126833     0.915351156724      -0.154206126833     0.0838966966758     0.116788427648      
4200000000.0        0.0848882777669     0.119486616972      0.914323230396      -0.15781944434      0.914323230396      -0.15781944434      0.0848882777669     0.119486616972      
4300000000.0        0.0859002923803     0.12217468618       0.91327400427       -0.161422802962     0.91327400427       -0.161422802962     0.0859002923803     0.12217468618       
4400000000.0        0.0869326381246     0.12485243913       0.912203580052      -0.165016009133     0.912203580052      -0.165016009133     0.0869326381246     0.12485243913       
4500000000.0        0.0879852084655     0.127519681586      0.911112063581      -0.168598871168     0.911112063581      -0.168598871168     0.0879852084655     0.127519681586      
4600000000.0        0.089057892908      0.130176221265      0.909999564644      -0.17217119931      0.909999564644      -0.17217119931      0.089057892908      0.130176221265      
4700000000.0        0.0901505771664     0.132821867889      0.908866196809      -0.175732805786     0.908866196809      -0.175732805786     0.0901505771664     0.132821867889      
4800000000.0        0.0912631433215     0.135456433228      0.907712077267      -0.179283504849     0.907712077267      -0.179283504849     0.0912631433215     0.135456433228      
4900000000.0        0.092395469968      0.138079731145      0.906537326681      -0.182823112824     0.906537326681      -0.182823112824     0.092395469968      0.138079731145      
5000000000.0        0.0935474323527     0.140691577638      0.905342069055      -0.186351448149     0.905342069055      -0.186351448149     0.0935474323527     0.140691577638      
5100000000.0        0.0947189025044     0.143291790882      0.904126431597      -0.189868331419     0.904126431597      -0.189868331419     0.0947189025044     0.143291790882      
5200000000.0        0.0959097493567     0.145880191265      0.902890544602      -0.193373585421     0.902890544602      -0.193373585421     0.0959097493567     0.145880191265      
5300000000.0        0.0971198388639     0.148456601424      0.901634541331      -0.196867035173     0.901634541331      -0.196867035173     0.0971198388639     0.148456601424      
5400000000.0        0.0983490341122     0.151020846282      0.900358557905      -0.200348507958     0.900358557905      -0.200348507958     0.0983490341122     0.151020846282      
5500000000.0        0.0995971954245     0.153572753079      0.899062733196      -0.203817833358     0.899062733196      -0.203817833358     0.0995971954245     0.153572753079      
5600000000.0        0.100864180462      0.156112151406      0.897747208729      -0.207274843288     0.897747208729      -0.207274843288     0.100864180462      0.156112151406      
5700000000.0        0.102149844319      0.158638873233      0.896412128582      -0.210719372022     0.896412128582      -0.210719372022     0.102149844319      0.158638873233      
5800000000.0        0.103454039617      0.161152752937      0.895057639297      -0.214151256226     0.895057639297      -0.214151256226     0.103454039617      0.161152752937      
5900000000.0        0.104776616597      0.163653627331      0.893683889788      -0.217570334983     0.893683889788      -0.217570334983     0.104776616597      0.163653627331      
6000000000.0        0.1061174232        0.166141335688      0.892291031258      -0.220976449819     0.892291031258      -0.220976449819     0.1061174232        0.166141335688      
6100000000.0        0.107476305154      0.168615719767      0.89087921711       -0.224369444728     0.89087921711       -0.224369444728     0.107476305154      0.168615719767      
6200000000.0        0.108853106056      0.171076623833      0.889448602869      -0.227749166197     0.889448602869      -0.227749166197     0.108853106056      0.171076623833      
6300000000.0        0.110247667448      0.173523894681      0.887999346106      -0.231115463223     0.887999346106      -0.231115463223     0.110247667448      0.173523894681      
6400000000.0        0.111659828896      0.175957381656      0.886531606356      -0.23446818734      0.886531606356      -0.23446818734      0.111659828896      0.175957381656      
6500000000.0        0.113089428065      0.178376936669      0.885045545047      -0.237807192632     0.885045545047      -0.237807192632     0.113089428065      0.178376936669      
6600000000.0        0.114536300787      0.180782414219      0.883541325428      -0.241132335754     0.883541325428      -0.241132335754     0.114536300787      0.180782414219      
6700000000.0        0.116000281139      0.183173671406      0.882019112493      -0.244443475948     0.882019112493      -0.244443475948     0.116000281139      0.183173671406      
6800000000.0        0.117481201507      0.185550567948      0.880479072918      -0.247740475061     0.880479072918      -0.247740475061     0.117481201507      0.185550567948      
6900000000.0        0.118978892658      0.187912966194      0.878921374986      -0.251023197553     0.878921374986      -0.251023197553     0.118978892658      0.187912966194      
7000000000.0        0.120493183805      0.190260731137      0.877346188528      -0.254291510516     0.877346188528      -0.254291510516     0.120493183805      0.190260731137      
7100000000.0        0.122023902672      0.192593730426      0.875753684849      -0.257545283684     0.875753684849      -0.257545283684     0.122023902672      0.192593730426      
7200000000.0        0.123570875558      0.194911834377      0.87414403667       -0.260784389444     0.87414403667       -0.260784389444     0.123570875558      0.194911834377      
7300000000.0        0.125133927405      0.197214915981      0.872517418065      -0.264008702843     0.872517418065      -0.264008702843     0.125133927405      0.197214915981      
7400000000.0        0.126712881852      0.199502850913      0.870874004392      -0.2672181016       0.870874004392      -0.2672181016       0.126712881852      0.199502850913      
7500000000.0        0.128307561304      0.20177551754       0.86921397224       -0.270412466113     0.86921397224       -0.270412466113     0.128307561304      0.20177551754       
7600000000.0        0.129917786987      0.204032796924      0.867537499364      -0.273591679463     0.867537499364      -0.273591679463     0.129917786987      0.204032796924      
7700000000.0        0.131543379009      0.206274572833      0.865844764629      -0.276755627422     0.865844764629      -0.276755627422     0.131543379009      0.206274572833      
7800000000.0        0.133184156418      0.20850073174       0.864135947948      -0.279904198454     0.864135947948      -0.279904198454     0.133184156418      0.20850073174       
7900000000.0        0.13483993726       0.210711162827      0.862411230228      -0.283037283724     0.862411230228      -0.283037283724     0.13483993726       0.210711162827      
8000000000.0        0.136510538636      0.212905757989      0.86067079331       -0.286154777091     0.86067079331       -0.286154777091     0.136510538636      0.212905757989      
8100000000.0        0.138195776756      0.215084411832      0.858914819919      -0.289256575121     0.858914819919      -0.289256575121     0.138195776756      0.215084411832      
8200000000.0        0.139895466995      0.217247021676      0.857143493602      -0.292342577076     0.857143493602      -0.292342577076     0.139895466995      0.217247021676      
8300000000.0        0.141609423948      0.219393487554      0.855356998677      -0.295412684922     0.855356998677      -0.295412684922     0.141609423948      0.219393487554      
8400000000.0        0.143337461482      0.221523712208      0.853555520182      -0.298466803321     0.853555520182      -0.298466803321     0.143337461482      0.221523712208      
8500000000.0        0.14507939279       0.223637601088      0.851739243818      -0.301504839635     0.851739243818      -0.301504839635     0.14507939279       0.223637601088      
8600000000.0        0.146835030443      0.225735062348      0.8499083559        -0.304526703914     0.8499083559        -0.304526703914     0.146835030443      0.225735062348      
8700000000.0        0.148604186439      0.227816006842      0.848063043303      -0.307532308902     0.848063043303      -0.307532308902     0.148604186439      0.227816006842      
8800000000.0        0.150386672258      0.229880348119      0.846203493415      -0.310521570022     0.846203493415      -0.310521570022     0.150386672258      0.229880348119      
8900000000.0        0.152182298907      0.231928002414      0.844329894084      -0.313494405377     0.844329894084      -0.313494405377     0.152182298907      0.231928002414      
9000000000.0        0.153990876972      0.233958888646      0.84244243357       -0.316450735742     0.84244243357       -0.316450735742     0.153990876972      0.233958888646      
9100000000.0        0.155812216666      0.235972928405      0.840541300498      -0.31939048455      0.840541300498      -0.31939048455      0.155812216666      0.235972928405      
9200000000.0        0.157646127876      0.237970045948      0.838626683808      -0.322313577895     0.838626683808      -0.322313577895     0.157646127876      0.237970045948      
9300000000.0        0.159492420211      0.239950168185      0.83669877271       -0.325219944511     0.83669877271       -0.325219944511     0.159492420211      0.239950168185      
9400000000.0        0.161350903049      0.241913224675      0.834757756633      -0.328109515771     0.834757756633      -0.328109515771     0.161350903049      0.241913224675      
9500000000.0        0.163221385581      0.243859147608      0.832803825187      -0.33098222567      0.832803825187      -0.33098222567      0.163221385581      0.243859147608      
9600000000.0        0.165103676857      0.245787871798      0.830837168111      -0.333838010818     0.830837168111      -0.333838010818     0.165103676857      0.245787871798      
9700000000.0        0.166997585829      0.24769933467       0.828857975234      -0.336676810426     0.828857975234      -0.336676810426     0.166997585829      0.24769933467       
9800000000.0        0.168902921398      0.249593476247      0.826866436425      -0.339498566292     0.826866436425      -0.339498566292     0.168902921398      0.249593476247      
9900000000.0        0.170819492453      0.251470239135      0.824862741556      -0.342303222789     0.824862741556      -0.342303222789     0.170819492453      0.251470239135      
10000000000.0       0.172747107917      0.253329568511      0.822847080458      -0.34509072685      0.822847080458      -0.34509072685      0.172747107917      0.253329568511      
