# Hz S RI R 50.00 
100000000.0         0.000461529372848   0.00012978234795    0.999537261145      -0.000329635535653  0.999537261145      -0.000329635535653  0.000461529372848   0.00012978234795    
200000000.0         0.00046464027308    0.000259562043511   0.99953390081       -0.000659271232434  0.99953390081       -0.000659271232434  0.000464640273079   0.000259562043511   
300000000.0         0.000467019153661   0.000389340272605   0.999531232539      -0.000988909753617  0.999531232539      -0.000988909753617  0.000467019153661   0.000389340272605   
400000000.0         0.000469067489401   0.000519117470167   0.999528854851      -0.00131855266994   0.999528854851      -0.00131855266994   0.000469067489401   0.000519117470167   
500000000.0         0.000470939946762   0.000648893897446   0.999526613075      -0.00164820120562   0.999526613075      -0.00164820120562   0.000470939946762   0.000648893897446   
600000000.0         0.000472715428828   0.0007786697414     0.999524428302      -0.00197785639569   0.999524428302      -0.00197785639569   0.000472715428828   0.0007786697414     
700000000.0         0.000474440559622   0.000908445149356   0.999522253901      -0.00230751915303   0.999522253901      -0.00230751915303   0.000474440559622   0.000908445149356   
800000000.0         0.000476145555253   0.00103822024594    0.999520059649      -0.00263719030281   0.999520059649      -0.00263719030281   0.000476145555253   0.00103822024594    
900000000.0         0.000477851290631   0.00116799514203    0.999517824665      -0.00296687060339   0.999517824665      -0.00296687060339   0.000477851290631   0.00116799514203    
1000000000.0        0.000479572881614   0.00129776994016    0.999515533825      -0.00329656075987   0.999515533825      -0.00329656075987   0.000479572881614   0.00129776994016    
1100000000.0        0.000481321676539   0.00142754473722    0.999513175772      -0.00362626143433   0.999513175772      -0.00362626143433   0.000481321676538   0.00142754473722    
1200000000.0        0.000483106442664   0.00155731962749    0.999510741731      -0.00395597325195   0.999510741731      -0.00395597325195   0.000483106442664   0.00155731962749    
1300000000.0        0.000484934112849   0.00168709470353    0.999508224761      -0.00428569680692   0.999508224761      -0.00428569680692   0.000484934112849   0.00168709470353    
1400000000.0        0.000486810276187   0.00181687005749    0.999505619263      -0.00461543266639   0.999505619263      -0.00461543266639   0.000486810276187   0.00181687005749    
1500000000.0        0.000488739512528   0.00194664578175    0.999502920648      -0.00494518137378   0.999502920648      -0.00494518137378   0.000488739512528   0.00194664578175    
1600000000.0        0.000490725627197   0.00207642196976    0.999500125102      -0.00527494345131   0.999500125102      -0.00527494345131   0.000490725627197   0.00207642196976    
1700000000.0        0.000492771820383   0.00220619871611    0.999497229415      -0.00560471940243   0.999497229415      -0.00560471940243   0.000492771820383   0.00220619871611    
1800000000.0        0.000494880811741   0.00233597611716    0.999494230856      -0.00593450971348   0.999494230856      -0.00593450971348   0.000494880811741   0.00233597611716    
1900000000.0        0.00049705493411    0.00246575427105    0.999491127084      -0.00626431485542   0.999491127084      -0.00626431485542   0.00049705493411    0.00246575427105    
2000000000.0        0.000499296205106   0.00259553327815    0.99948791607       -0.00659413528497   0.99948791607       -0.00659413528497   0.000499296205106   0.00259553327815    
2100000000.0        0.000501606382589   0.00272531324086    0.999484596045      -0.00692397144602   0.999484596045      -0.00692397144602   0.000501606382589   0.00272531324086    
2200000000.0        0.000503987008337   0.00285509426407    0.999481165456      -0.00725382377043   0.999481165456      -0.00725382377043   0.000503987008337   0.00285509426407    
2300000000.0        0.000506439442755   0.00298487645497    0.999477622934      -0.00758369267903   0.999477622934      -0.00758369267903   0.000506439442755   0.00298487645497    
2400000000.0        0.000508964892805   0.00311465992325    0.999473967258      -0.00791357858242   0.999473967258      -0.00791357858242   0.000508964892805   0.00311465992325    
2500000000.0        0.000511564434697   0.0032444447811     0.999470197342      -0.00824348188161   0.999470197342      -0.00824348188161   0.000511564434697   0.0032444447811     
2600000000.0        0.000514239032479   0.00337423114335    0.99946631221       -0.00857340296862   0.99946631221       -0.00857340296862   0.000514239032479   0.00337423114335    
2700000000.0        0.000516989553413   0.0035040191273     0.999462310983      -0.00890334222715   0.999462310983      -0.00890334222715   0.000516989553413   0.0035040191273     
2800000000.0        0.000519816780784   0.00363380885283    0.999458192865      -0.00923330003306   0.999458192865      -0.00923330003306   0.000519816780784   0.00363380885283    
2900000000.0        0.000522721424614   0.00376360044244    0.999453957136      -0.00956327675474   0.999453957136      -0.00956327675474   0.000522721424614   0.00376360044244    
3000000000.0        0.000525704130736   0.00389339402116    0.999449603137      -0.00989327275367   0.999449603137      -0.00989327275367   0.000525704130736   0.00389339402116    
3100000000.0        0.000528765488495   0.00402318971667    0.999445130265      -0.0102232883847    0.999445130265      -0.0102232883847    0.000528765488495   0.00402318971667    
3200000000.0        0.000531906037295   0.00415298765916    0.999440537971      -0.0105533239963    0.999440537971      -0.0105533239963    0.000531906037295   0.00415298765916    
3300000000.0        0.000535126272264   0.00428278798135    0.999435825745      -0.0108833799314    0.999435825745      -0.0108833799314    0.000535126272264   0.00428278798135    
3400000000.0        0.000538426649099   0.00441259081853    0.999430993119      -0.0112134565268    0.999430993119      -0.0112134565268    0.000538426649099   0.00441259081853    
3500000000.0        0.000541807588289   0.0045423963085     0.999426039661      -0.0115435541144    0.999426039661      -0.0115435541144    0.000541807588289   0.0045423963085     
3600000000.0        0.000545269478782   0.00467220459158    0.999420964969      -0.0118736730207    0.999420964969      -0.0118736730207    0.000545269478782   0.00467220459158    
3700000000.0        0.000548812681191   0.00480201581046    0.999415768668      -0.0122038135676    0.999415768668      -0.0122038135676    0.00054881268119    0.00480201581046    
3800000000.0        0.000552437530596   0.00493183011043    0.999410450412      -0.0125339760721    0.999410450412      -0.0125339760721    0.000552437530596   0.00493183011043    
3900000000.0        0.00055614433903    0.00506164763913    0.999405009874      -0.012864160847     0.999405009874      -0.012864160847     0.000556144339029   0.00506164763913    
4000000000.0        0.000559933397656   0.00519146854654    0.999399446751      -0.0131943682007    0.999399446751      -0.0131943682007    0.000559933397655   0.00519146854654    
4100000000.0        0.000563804978701   0.00532129298517    0.999393760757      -0.0135245984377    0.999393760757      -0.0135245984377    0.000563804978701   0.00532129298517    
4200000000.0        0.000567759337185   0.00545112110975    0.999387951624      -0.0138548518586    0.999387951624      -0.0138548518586    0.000567759337185   0.00545112110975    
4300000000.0        0.000571796712448   0.00558095307741    0.999382019099      -0.0141851287601    0.999382019099      -0.0141851287601    0.000571796712449   0.00558095307741    
4400000000.0        0.000575917329521   0.00571078904761    0.999375962943      -0.0145154294354    0.999375962943      -0.0145154294354    0.000575917329521   0.00571078904761    
4500000000.0        0.000580121400354   0.00584062918199    0.999369782932      -0.0148457541746    0.999369782932      -0.0148457541746    0.000580121400354   0.00584062918199    
4600000000.0        0.000584409124923   0.00597047364452    0.999363478851      -0.0151761032639    0.999363478851      -0.0151761032639    0.000584409124923   0.00597047364452    
4700000000.0        0.000588780692217   0.0061003226014     0.999357050499      -0.0155064769869    0.999357050499      -0.0155064769869    0.000588780692217   0.0061003226014     
4800000000.0        0.000593236281142   0.00623017622099    0.999350497682      -0.0158368756237    0.999350497682      -0.0158368756237    0.000593236281142   0.00623017622099    
4900000000.0        0.000597776061325   0.00636003467385    0.999343820217      -0.0161672994518    0.999343820217      -0.0161672994518    0.000597776061326   0.00636003467385    
5000000000.0        0.000602400193858   0.0064898981327     0.99933701793       -0.0164977487456    0.99933701793       -0.0164977487456    0.000602400193858   0.0064898981327     
5100000000.0        0.000607108831955   0.00661976677239    0.999330090654      -0.0168282237769    0.999330090654      -0.0168282237769    0.000607108831955   0.00661976677239    
5200000000.0        0.000611902121568   0.00674964076985    0.999323038228      -0.0171587248149    0.999323038228      -0.0171587248149    0.000611902121568   0.00674964076985    
5300000000.0        0.000616780201935   0.00687952030408    0.9993158605        -0.0174892521262    0.9993158605        -0.0174892521262    0.000616780201935   0.00687952030408    
5400000000.0        0.000621743206092   0.00700940555617    0.999308557323      -0.0178198059748    0.999308557323      -0.0178198059748    0.000621743206092   0.00700940555617    
5500000000.0        0.000626791261331   0.00713929670923    0.999301128556      -0.0181503866227    0.999301128556      -0.0181503866227    0.000626791261331   0.00713929670923    
5600000000.0        0.000631924489626   0.00726919394837    0.999293574063      -0.0184809943291    0.999293574063      -0.0184809943291    0.000631924489626   0.00726919394837    
5700000000.0        0.000637143008021   0.00739909746068    0.999285893713      -0.0188116293515    0.999285893713      -0.0188116293515    0.000637143008021   0.00739909746068    
5800000000.0        0.000642446928986   0.00752900743519    0.99927808738       -0.0191422919448    0.99927808738       -0.0191422919448    0.000642446928986   0.00752900743519    
5900000000.0        0.000647836360755   0.0076589240629     0.999270154942      -0.0194729823621    0.999270154942      -0.0194729823621    0.000647836360756   0.0076589240629     
6000000000.0        0.00065331140762    0.00778884753673    0.99926209628       -0.0198037008543    0.99926209628       -0.0198037008543    0.00065331140762    0.00778884753673    
6100000000.0        0.000658872170214   0.00791877805145    0.99925391128       -0.0201344476706    0.99925391128       -0.0201344476706    0.000658872170214   0.00791877805145    
6200000000.0        0.000664518745771   0.00804871580372    0.999245599831      -0.020465223058     0.999245599831      -0.020465223058     0.000664518745771   0.00804871580372    
6300000000.0        0.000670251228364   0.00817866099207    0.999237161824      -0.0207960272619    0.999237161824      -0.0207960272619    0.000670251228364   0.00817866099207    
6400000000.0        0.000676069709133   0.00830861381683    0.999228597156      -0.0211268605259    0.999228597156      -0.0211268605259    0.000676069709133   0.00830861381683    
6500000000.0        0.000681974276483   0.00843857448013    0.999219905723      -0.0214577230917    0.999219905723      -0.0214577230917    0.000681974276483   0.00843857448013    
6600000000.0        0.000687965016279   0.00856854318592    0.999211087426      -0.0217886151995    0.999211087426      -0.0217886151995    0.000687965016279   0.00856854318592    
6700000000.0        0.000694042012026   0.0086985201399     0.999202142168      -0.0221195370878    0.999202142168      -0.0221195370878    0.000694042012026   0.0086985201399     
6800000000.0        0.000700205345031   0.00882850554949    0.999193069853      -0.0224504889935    0.999193069853      -0.0224504889935    0.000700205345031   0.00882850554949    
6900000000.0        0.000706455094562   0.00895849962385    0.999183870388      -0.0227814711521    0.999183870388      -0.0227814711521    0.000706455094562   0.00895849962385    
7000000000.0        0.000712791337985   0.00908850257388    0.999174543683      -0.0231124837974    0.999174543683      -0.0231124837974    0.000712791337985   0.00908850257388    
7100000000.0        0.000719214150909   0.00921851461211    0.999165089647      -0.0234435271619    0.999165089647      -0.0234435271619    0.000719214150909   0.00921851461211    
7200000000.0        0.0007257236073     0.00934853595277    0.999155508194      -0.0237746014767    0.999155508194      -0.0237746014767    0.000725723607301   0.00934853595277    
7300000000.0        0.000732319779609   0.00947856681175    0.999145799236      -0.0241057069715    0.999145799236      -0.0241057069715    0.000732319779609   0.00947856681175    
7400000000.0        0.000739002738874   0.00960860740653    0.99913596269       -0.0244368438746    0.99913596269       -0.0244368438746    0.000739002738875   0.00960860740653    
7500000000.0        0.000745772554829   0.00973865795624    0.999125998471      -0.024768012413     0.999125998471      -0.024768012413     0.00074577255483    0.00973865795624    
7600000000.0        0.000752629296001   0.00986871868159    0.999115906498      -0.0250992128126    0.999115906498      -0.0250992128126    0.000752629296001   0.00986871868159    
7700000000.0        0.000759573029793   0.00999878980486    0.99910568669       -0.025430445298     0.99910568669       -0.025430445298     0.000759573029793   0.00999878980486    
7800000000.0        0.000766603822581   0.0101288715499     0.999095338966      -0.0257617100925    0.999095338966      -0.0257617100925    0.000766603822581   0.0101288715499     
7900000000.0        0.000773721739787   0.0102589641422     0.999084863248      -0.0260930074184    0.999084863248      -0.0260930074184    0.000773721739787   0.0102589641422     
8000000000.0        0.000780926845956   0.0103890678085     0.999074259458      -0.0264243374967    0.999074259458      -0.0264243374967    0.000780926845956   0.0103890678085     
8100000000.0        0.000788219204831   0.0105191827773     0.999063527519      -0.0267557005473    0.999063527519      -0.0267557005473    0.000788219204831   0.0105191827773     
8200000000.0        0.000795598879411   0.0106493092786     0.999052667354      -0.0270870967893    0.999052667354      -0.0270870967893    0.000795598879411   0.0106493092786     
8300000000.0        0.00080306593203    0.0107794475438     0.999041678887      -0.0274185264404    0.999041678887      -0.0274185264404    0.000803065932029   0.0107794475438     
8400000000.0        0.000810620424397   0.0109095978056     0.999030562044      -0.0277499897175    0.999030562044      -0.0277499897175    0.000810620424397   0.0109095978056     
8500000000.0        0.000818262417672   0.0110397602985     0.999019316751      -0.0280814868364    0.999019316751      -0.0280814868364    0.000818262417672   0.0110397602985     
8600000000.0        0.000825991972508   0.0111699352582     0.999007942932      -0.0284130180119    0.999007942932      -0.0284130180119    0.000825991972507   0.0111699352582     
8700000000.0        0.0008338091491     0.0113001229218     0.998996440516      -0.0287445834579    0.998996440516      -0.0287445834579    0.0008338091491     0.0113001229218     
8800000000.0        0.000841714007244   0.0114303235279     0.998984809429      -0.0290761833875    0.998984809429      -0.0290761833875    0.000841714007244   0.0114303235279     
8900000000.0        0.000849706606372   0.0115605373165     0.998973049599      -0.0294078180127    0.998973049599      -0.0294078180127    0.000849706606372   0.0115605373165     
9000000000.0        0.0008577870056     0.0116907645288     0.998961160953      -0.0297394875447    0.998961160953      -0.0297394875447    0.0008577870056     0.0116907645288     
9100000000.0        0.000865955263766   0.0118210054076     0.998949143421      -0.0300711921937    0.998949143421      -0.0300711921937    0.000865955263766   0.0118210054076     
9200000000.0        0.000874211439473   0.0119512601969     0.99893699693       -0.0304029321694    0.99893699693       -0.0304029321694    0.000874211439473   0.0119512601969     
9300000000.0        0.000882555591121   0.0120815291421     0.998924721409      -0.0307347076802    0.998924721409      -0.0307347076802    0.00088255559112    0.0120815291421     
9400000000.0        0.000890987776944   0.0122118124898     0.998912316788      -0.0310665189342    0.998912316788      -0.0310665189342    0.000890987776944   0.0122118124898     
9500000000.0        0.000899508055047   0.012342110488      0.998899782995      -0.0313983661384    0.998899782995      -0.0313983661384    0.000899508055047   0.012342110488      
9600000000.0        0.000908116483429   0.012472423386      0.998887119961      -0.031730249499     0.998887119961      -0.031730249499     0.000908116483429   0.012472423386      
9700000000.0        0.000916813120023   0.0126027514345     0.998874327614      -0.0320621692216    0.998874327614      -0.0320621692216    0.000916813120023   0.0126027514345     
9800000000.0        0.000925598022716   0.012733094885      0.998861405884      -0.032394125511     0.998861405884      -0.032394125511     0.000925598022716   0.012733094885      
9900000000.0        0.000934471249382   0.0128634539909     0.998848354702      -0.0327261185713    0.998848354702      -0.0327261185713    0.000934471249382   0.0128634539909     
10000000000.0       0.000943432857907   0.0129938290064     0.998835173997      -0.033058148606     0.998835173997      -0.033058148606     0.000943432857907   0.0129938290064     
