# Hz S RI R 50.00 
100000000.0         0.00191051800387    0.000625591835614   0.998076563405      -0.00465297034999   0.998076563405      -0.00465297034999   0.00191051800387    0.000625591835614   
200000000.0         0.00193017540988    0.00125098757822    0.998028756125      -0.00930577595629   0.998028756125      -0.00930577595629   0.00193017540988    0.00125098757822    
300000000.0         0.00195233351205    0.00187617507233    0.99796221488       -0.0139584089407    0.99796221488       -0.0139584089407    0.00195233351205    0.00187617507233    
400000000.0         0.00197864308668    0.00250111005916    0.997875286329      -0.0186108150981    0.997875286329      -0.0186108150981    0.00197864308668    0.00250111005916    
500000000.0         0.00200973754892    0.00312574178646    0.997767334033      -0.0232629264311    0.997767334033      -0.0232629264311    0.00200973754892    0.00312574178646    
600000000.0         0.00204593792783    0.00375001706442    0.997638033556      -0.027914667653     0.997638033556      -0.027914667653     0.00204593792783    0.00375001706442    
700000000.0         0.00208743197914    0.00437388164067    0.997487193414      -0.0325659588167    0.997487193414      -0.0325659588167    0.00208743197914    0.00437388164067    
800000000.0         0.00213433952261    0.00499728079965    0.997314689774      -0.0372167166698    0.997314689774      -0.0372167166698    0.00213433952261    0.00499728079965    
900000000.0         0.0021867415203     0.00562015966315    0.997120437421      -0.0418668554555    0.997120437421      -0.0418668554555    0.0021867415203     0.00562015966315    
1000000000.0        0.00224469480998    0.00624246335512    0.996904375048      -0.0465162874313    0.996904375048      -0.0465162874313    0.00224469480998    0.00624246335512    
1100000000.0        0.0023082402927     0.00686413709771    0.996666457102      -0.0511649232276    0.996666457102      -0.0511649232276    0.0023082402927     0.00686413709771    
1200000000.0        0.00237740781064    0.00748512626981    0.996406648922      -0.0558126721085    0.996406648922      -0.0558126721085    0.00237740781064    0.00748512626981    
1300000000.0        0.00245221921585    0.00810537644342    0.996124923699      -0.0604594421677    0.996124923699      -0.0604594421677    0.00245221921585    0.00810537644342    
1400000000.0        0.00253269038759    0.00872483340704    0.99582126047       -0.0651051404813    0.99582126047       -0.0651051404813    0.00253269038759    0.00872483340704    
1500000000.0        0.00261883260745    0.00934344318051    0.995495642765      -0.0697496732298    0.995495642765      -0.0697496732298    0.00261883260745    0.00934344318051    
1600000000.0        0.00271065352575    0.00996115202455    0.995148057656      -0.0743929457971    0.995148057656      -0.0743929457971    0.00271065352575    0.00996115202455    
1700000000.0        0.00280815785861    0.0105779064468     0.994778495071      -0.0790348628528    0.994778495071      -0.0790348628528    0.00280815785861    0.0105779064468     
1800000000.0        0.00291134790213    0.0111936532054     0.994386947295      -0.0836753284218    0.994386947295      -0.0836753284218    0.00291134790213    0.0111936532054     
1900000000.0        0.00302022391937    0.011808339311      0.993973408596      -0.0883142459429    0.993973408596      -0.0883142459429    0.00302022391937    0.011808339311      
2000000000.0        0.0031347844366     0.0124219120278     0.99353787494       -0.0929515183207    0.99353787494       -0.0929515183207    0.0031347844366     0.0124219120278     
2100000000.0        0.00325502647362    0.0130343188736     0.993080343772      -0.0975870479697    0.993080343772      -0.0975870479697    0.00325502647362    0.0130343188736     
2200000000.0        0.00338094572552    0.01364550762       0.992600813842      -0.102220736854     0.992600813842      -0.102220736854     0.00338094572552    0.01364550762       
2300000000.0        0.00351253670774    0.0142554262912     0.992099285072      -0.106852486521     0.992099285072      -0.106852486521     0.00351253670774    0.0142554262912     
2400000000.0        0.00364979287336    0.0148640231637     0.991575758448      -0.111482198136     0.991575758448      -0.111482198136     0.00364979287336    0.0148640231637     
2500000000.0        0.0037927067088     0.0154712467652     0.99103023593       -0.116109772507     0.99103023593       -0.116109772507     0.0037927067088     0.0154712467652     
2600000000.0        0.00394126981284    0.016077045874      0.990462720386      -0.120735110111     0.990462720386      -0.120735110111     0.00394126981284    0.016077045874      
2700000000.0        0.00409547296227    0.0166813695177     0.989873215529      -0.12535811112      0.989873215529      -0.12535811112      0.00409547296227    0.0166813695177     
2800000000.0        0.00425530616714    0.0172841669725     0.989261725873      -0.129978675419     0.989261725873      -0.129978675419     0.00425530616714    0.0172841669725     
2900000000.0        0.00442075871735    0.0178853877625     0.98862825669       -0.134596702627     0.98862825669       -0.134596702627     0.00442075871735    0.0178853877625     
3000000000.0        0.00459181922251    0.0184849816584     0.987972813981      -0.139212092118     0.987972813981      -0.139212092118     0.00459181922251    0.0184849816584     
3100000000.0        0.00476847564608    0.0190828986776     0.987295404445      -0.143824743033     0.987295404445      -0.143824743033     0.00476847564609    0.0190828986776     
3200000000.0        0.00495071533492    0.0196790890827     0.986596035456      -0.1484345543       0.986596035456      -0.1484345543       0.00495071533492    0.0196790890827     
3300000000.0        0.00513852504494    0.0202735033814     0.985874715046      -0.153041424649     0.985874715046      -0.153041424649     0.00513852504494    0.0202735033814     
3400000000.0        0.00533189096371    0.0208660923262     0.985131451885      -0.157645252622     0.985131451885      -0.157645252622     0.00533189096371    0.0208660923262     
3500000000.0        0.00553079873016    0.0214568069134     0.984366255268      -0.16224593659      0.984366255268      -0.16224593659      0.00553079873016    0.0214568069134     
3600000000.0        0.00573523345219    0.0220455983834     0.983579135102      -0.166843374765     0.983579135102      -0.166843374765     0.00573523345219    0.0220455983834     
3700000000.0        0.00594517972232    0.0226324182199     0.982770101897      -0.17143746521      0.982770101897      -0.17143746521      0.00594517972232    0.0226324182199     
3800000000.0        0.00616062163162    0.0232172181504     0.981939166756      -0.176028105853     0.981939166756      -0.176028105853     0.00616062163162    0.0232172181504     
3900000000.0        0.00638154278234    0.0237999501454     0.981086341366      -0.180615194495     0.981086341366      -0.180615194495     0.00638154278234    0.0237999501454     
4000000000.0        0.00660792629932    0.024380566419      0.980211637992      -0.185198628822     0.980211637992      -0.185198628822     0.00660792629932    0.024380566419      
4100000000.0        0.00683975484028    0.0249590194284     0.979315069472      -0.189778306412     0.979315069472      -0.189778306412     0.00683975484028    0.0249590194284     
4200000000.0        0.00707701060528    0.0255352618744     0.97839664921       -0.194354124751     0.97839664921       -0.194354124751     0.00707701060528    0.0255352618744     
4300000000.0        0.00731967534541    0.0261092467018     0.977456391174      -0.198925981234     0.977456391174      -0.198925981234     0.00731967534541    0.0261092467018     
4400000000.0        0.0075677303707     0.0266809270989     0.976494309888      -0.203493773179     0.976494309888      -0.203493773179     0.0075677303707     0.0266809270989     
4500000000.0        0.00782115655755    0.0272502564985     0.975510420433      -0.208057397833     0.975510420433      -0.208057397833     0.00782115655755    0.0272502564985     
4600000000.0        0.00807993435552    0.0278171885781     0.974504738439      -0.212616752381     0.974504738439      -0.212616752381     0.00807993435552    0.0278171885781     
4700000000.0        0.00834404379373    0.02838167726       0.973477280087      -0.217171733953     0.973477280087      -0.217171733953     0.00834404379373    0.02838167726       
4800000000.0        0.00861346448679    0.0289436767123     0.972428062103      -0.221722239633     0.972428062103      -0.221722239633     0.00861346448679    0.0289436767123     
4900000000.0        0.00888817564042    0.029503141349      0.971357101757      -0.226268166464     0.971357101757      -0.226268166464     0.00888817564042    0.029503141349      
5000000000.0        0.00916815605673    0.0300600258308     0.970264416862      -0.230809411459     0.970264416862      -0.230809411459     0.00916815605673    0.0300600258308     
5100000000.0        0.00945338413913    0.0306142850657     0.96915002577       -0.235345871601     0.96915002577       -0.235345871601     0.00945338413913    0.0306142850657     
5200000000.0        0.00974383789711    0.0311658742093     0.968013947372      -0.239877443859     0.968013947372      -0.239877443859     0.00974383789711    0.0311658742093     
5300000000.0        0.0100394949507     0.0317147486664     0.966856201097      -0.244404025185     0.966856201097      -0.244404025185     0.0100394949507     0.0317147486664     
5400000000.0        0.0103403325348     0.0322608640905     0.965676806907      -0.248925512528     0.965676806907      -0.248925512528     0.0103403325348     0.0322608640905     
5500000000.0        0.0106463275031     0.0328041763857     0.9644757853        -0.253441802835     0.9644757853        -0.253441802835     0.0106463275031     0.0328041763857     
5600000000.0        0.0109574563322     0.033344641707      0.963253157308      -0.257952793059     0.963253157308      -0.257952793059     0.0109574563322     0.033344641707      
5700000000.0        0.0112736951252     0.0338822164609     0.962008944493      -0.262458380167     0.962008944493      -0.262458380167     0.0112736951252     0.0338822164609     
5800000000.0        0.0115950196156     0.0344168573069     0.960743168949      -0.266958461142     0.960743168949      -0.266958461142     0.0115950196156     0.0344168573069     
5900000000.0        0.0119214051702     0.034948521158      0.959455853298      -0.271452932989     0.959455853298      -0.271452932989     0.0119214051702     0.034948521158      
6000000000.0        0.0122528267934     0.0354771651817     0.958147020695      -0.275941692743     0.958147020695      -0.275941692743     0.0122528267934     0.0354771651817     
6100000000.0        0.0125892591295     0.0360027468009     0.956816694819      -0.280424637474     0.956816694819      -0.280424637474     0.0125892591295     0.0360027468009     
6200000000.0        0.0129306764666     0.0365252236953     0.955464899877      -0.28490166429      0.955464899877      -0.28490166429      0.0129306764666     0.0365252236953     
6300000000.0        0.0132770527394     0.0370445538018     0.954091660605      -0.289372670343     0.954091660605      -0.289372670343     0.0132770527394     0.0370445538018     
6400000000.0        0.0136283615323     0.0375606953161     0.952697002261      -0.293837552836     0.952697002261      -0.293837552836     0.0136283615323     0.0375606953161     
6500000000.0        0.0139845760822     0.0380736066933     0.951280950628      -0.298296209026     0.951280950628      -0.298296209026     0.0139845760822     0.0380736066933     
6600000000.0        0.0143456692815     0.0385832466493     0.949843532015      -0.302748536228     0.949843532015      -0.302748536228     0.0143456692815     0.0385832466493     
6700000000.0        0.014711613681      0.0390895741621     0.948384773253      -0.307194431823     0.948384773253      -0.307194431823     0.014711613681      0.0390895741621     
6800000000.0        0.0150823814925     0.0395925484721     0.946904701694      -0.31163379326      0.946904701694      -0.31163379326      0.0150823814925     0.0395925484721     
6900000000.0        0.0154579445916     0.0400921290844     0.945403345213      -0.316066518062     0.945403345213      -0.316066518062     0.0154579445916     0.0400921290844     
7000000000.0        0.0158382745203     0.0405882757688     0.943880732205      -0.320492503829     0.943880732205      -0.320492503829     0.0158382745203     0.0405882757688     
7100000000.0        0.0162233424898     0.041080948562      0.942336891584      -0.324911648244     0.942336891584      -0.324911648244     0.0162233424898     0.041080948562      
7200000000.0        0.0166131193827     0.041570107768      0.940771852784      -0.329323849078     0.940771852784      -0.329323849078     0.0166131193827     0.041570107768      
7300000000.0        0.017007575756      0.0420557139598     0.939185645757      -0.333729004192     0.939185645757      -0.333729004192     0.017007575756      0.0420557139598     
7400000000.0        0.0174066818433     0.0425377279805     0.937578300973      -0.338127011543     0.937578300973      -0.338127011543     0.0174066818433     0.0425377279805     
7500000000.0        0.0178104075575     0.0430161109445     0.935949849418      -0.342517769187     0.935949849418      -0.342517769187     0.0178104075575     0.0430161109445     
7600000000.0        0.018218722493      0.0434908242386     0.934300322593      -0.346901175286     0.934300322593      -0.346901175286     0.018218722493      0.0434908242386     
7700000000.0        0.0186315959283     0.0439618295236     0.932629752515      -0.351277128107     0.932629752515      -0.351277128107     0.0186315959283     0.0439618295236     
7800000000.0        0.0190489968283     0.0444290887353     0.930938171716      -0.355645526032     0.930938171716      -0.355645526032     0.0190489968283     0.0444290887353     
7900000000.0        0.0194708938468     0.0448925640859     0.929225613238      -0.360006267558     0.929225613238      -0.360006267558     0.0194708938468     0.0448925640859     
8000000000.0        0.0198972553287     0.0453522180653     0.927492110639      -0.3643592513       0.927492110639      -0.3643592513       0.0198972553287     0.0453522180653     
8100000000.0        0.0203280493126     0.0458080134423     0.925737697987      -0.368704375999     0.925737697987      -0.368704375999     0.0203280493126     0.0458080134423     
8200000000.0        0.0207632435327     0.046259913266      0.923962409858      -0.373041540525     0.923962409858      -0.373041540525     0.0207632435327     0.046259913266      
8300000000.0        0.0212028054214     0.0467078808671     0.922166281343      -0.377370643875     0.922166281343      -0.377370643875     0.0212028054214     0.0467078808671     
8400000000.0        0.0216467021118     0.0471518798593     0.920349348037      -0.381691585187     0.920349348037      -0.381691585187     0.0216467021118     0.0471518798593     
8500000000.0        0.0220949004392     0.0475918741404     0.918511646045      -0.386004263733     0.918511646045      -0.386004263733     0.0220949004392     0.0475918741404     
8600000000.0        0.0225473669443     0.048027827894      0.916653211978      -0.390308578929     0.916653211978      -0.390308578929     0.0225473669443     0.048027827894      
8700000000.0        0.0230040678748     0.0484597055904     0.914774082954      -0.394604430339     0.914774082954      -0.394604430339     0.0230040678748     0.0484597055904     
8800000000.0        0.0234649691879     0.0488874719885     0.912874296594      -0.398891717676     0.912874296594      -0.398891717676     0.0234649691879     0.0488874719885     
8900000000.0        0.0239300365524     0.0493110921366     0.910953891025      -0.403170340804     0.910953891025      -0.403170340804     0.0239300365524     0.0493110921366     
9000000000.0        0.024399235351      0.0497305313742     0.909012904875      -0.407440199747     0.909012904875      -0.407440199747     0.024399235351      0.0497305313742     
9100000000.0        0.0248725306826     0.0501457553329     0.907051377275      -0.411701194687     0.907051377275      -0.411701194687     0.0248725306826     0.0501457553329     
9200000000.0        0.0253498873643     0.0505567299385     0.905069347856      -0.415953225971     0.905069347856      -0.415953225971     0.0253498873643     0.0505567299385     
9300000000.0        0.0258312699337     0.0509634214116     0.903066856749      -0.420196194113     0.903066856749      -0.420196194113     0.0258312699337     0.0509634214116     
9400000000.0        0.0263166426512     0.0513657962694     0.901043944583      -0.424429999796     0.901043944583      -0.424429999796     0.0263166426512     0.0513657962694     
9500000000.0        0.026805969502      0.0517638213269     0.899000652486      -0.428654543878     0.899000652486      -0.428654543878     0.026805969502      0.0517638213269     
9600000000.0        0.0272992141982     0.0521574636986     0.89693702208       -0.432869727395     0.89693702208       -0.432869727395     0.0272992141982     0.0521574636986     
9700000000.0        0.0277963401815     0.0525466907995     0.894853095486      -0.437075451561     0.894853095486      -0.437075451561     0.0277963401815     0.0525466907995     
9800000000.0        0.0282973106245     0.0529314703466     0.892748915315      -0.441271617775     0.892748915315      -0.441271617775     0.0282973106245     0.0529314703466     
9900000000.0        0.0288020884337     0.0533117703604     0.890624524674      -0.445458127622     0.890624524674      -0.445458127622     0.0288020884337     0.0533117703604     
10000000000.0       0.0293106362514     0.0536875591664     0.888479967159      -0.449634882878     0.888479967159      -0.449634882878     0.0293106362514     0.0536875591664     
