# Hz S RI R 50.00 
100000000.0         0.00109558071419    0.000463631896528   0.998899358399      -0.00251962315771   0.998899358399      -0.00251962315771   0.00109558071419    0.000463631896528   
200000000.0         0.00110545235423    0.000927201954477   0.998881196841      -0.00503924001556   0.998881196841      -0.00503924001556   0.00110545235423    0.000927201954477   
300000000.0         0.00111573938542    0.00139071071734    0.998858390176      -0.00755887995588   0.998858390176      -0.00755887995588   0.00111573938542    0.00139071071734    
400000000.0         0.00112739092467    0.00185414885523    0.998829988395      -0.010078553913     0.998829988395      -0.010078553913     0.00112739092467    0.00185414885523    
500000000.0         0.00114077200578    0.00231750525085    0.998795625407      -0.0125982666279    0.998795625407      -0.0125982666279    0.00114077200578    0.00231750525085    
600000000.0         0.00115606846662    0.00278076823179    0.998755114173      -0.0151180193567    0.998755114173      -0.0151180193567    0.00115606846662    0.00278076823179    
700000000.0         0.00117338982744    0.00324392597049    0.998708343844      -0.0176378110297    0.998708343844      -0.0176378110297    0.00117338982744    0.00324392597049    
800000000.0         0.00119280682165    0.00370696664881    0.998655242248      -0.0201576388744    0.998655242248      -0.0201576388744    0.00119280682165    0.00370696664881    
900000000.0         0.00121436809963    0.00416987853408    0.998595759196      -0.0226774987959    0.998595759196      -0.0226774987959    0.00121436809963    0.00416987853408    
1000000000.0        0.00123810869227    0.00463265001625    0.998529858025      -0.0251973856304    0.998529858025      -0.0251973856304    0.00123810869227    0.00463265001625    
1100000000.0        0.00126405471414    0.00509526962586    0.99845751091       -0.027717293324     0.99845751091       -0.027717293324     0.00126405471414    0.00509526962586    
1200000000.0        0.00129222616519    0.00555772604209    0.998378696062      -0.0302372150651    0.998378696062      -0.0302372150651    0.00129222616519    0.00555772604209    
1300000000.0        0.00132263869302    0.00602000809534    0.998293395976      -0.0327571433852    0.998293395976      -0.0327571433852    0.00132263869302    0.00602000809534    
1400000000.0        0.00135530475108    0.00648210476661    0.998201596279      -0.0352770702391    0.998201596279      -0.0352770702391    0.00135530475108    0.00648210476661    
1500000000.0        0.00139023438784    0.00694400518515    0.998103284944      -0.0377969870683    0.998103284944      -0.0377969870683    0.00139023438784    0.00694400518515    
1600000000.0        0.00142743580105    0.00740569862514    0.997998451743      -0.0403168848537    0.997998451743      -0.0403168848537    0.00142743580105    0.00740569862514    
1700000000.0        0.00146691573733    0.00786717450168    0.997887087848      -0.0428367541598    0.997887087848      -0.0428367541598    0.00146691573733    0.00786717450168    
1800000000.0        0.0015086797866     0.00832842236662    0.997769185546      -0.0453565851712    0.997769185546      -0.0453565851712    0.0015086797866     0.00832842236662    
1900000000.0        0.0015527326034     0.00878943190419    0.997644738017      -0.0478763677244    0.997644738017      -0.0478763677244    0.0015527326034     0.00878943190419    
2000000000.0        0.00159907807614    0.00925019292671    0.99751373917       -0.0503960913352    0.99751373917       -0.0503960913352    0.00159907807614    0.00925019292671    
2100000000.0        0.00164771945841    0.00971069537024    0.997376183513      -0.0529157452223    0.997376183513      -0.0529157452223    0.00164771945841    0.00971069537024    
2200000000.0        0.00169865947238    0.0101709292905     0.997232066056      -0.0554353183285    0.997232066056      -0.0554353183285    0.00169865947238    0.0101709292905     
2300000000.0        0.0017519003912     0.0106308848586     0.997081382231      -0.0579547993391    0.997081382231      -0.0579547993391    0.0017519003912     0.0106308848586     
2400000000.0        0.00180744410528    0.0110905523575     0.996924127824      -0.0604741766985    0.996924127824      -0.0604741766985    0.00180744410528    0.0110905523575     
2500000000.0        0.00186529217638    0.0115499221777     0.996760298928      -0.0629934386245    0.996760298928      -0.0629934386245    0.00186529217638    0.0115499221777     
2600000000.0        0.0019254458819     0.012008984814      0.996589891901      -0.0655125731224    0.996589891901      -0.0655125731224    0.0019254458819     0.012008984814      
2700000000.0        0.0019879062517     0.012467730862      0.996412903329      -0.0680315679965    0.996412903329      -0.0680315679965    0.0019879062517     0.012467730862      
2800000000.0        0.00205267409872    0.0129261510143     0.996229329999      -0.0705504108612    0.996229329999      -0.0705504108612    0.00205267409872    0.0129261510143     
2900000000.0        0.00211975004487    0.0133842360578     0.996039168875      -0.0730690891508    0.996039168875      -0.0730690891508    0.00211975004487    0.0133842360578     
3000000000.0        0.00218913454283    0.0138419768701     0.995842417077      -0.0755875901291    0.995842417077      -0.0755875901291    0.00218913454283    0.0138419768701     
3100000000.0        0.00226082789474    0.0142993644171     0.995639071867      -0.0781059008972    0.995639071867      -0.0781059008972    0.00226082789474    0.0142993644171     
3200000000.0        0.00233483026811    0.0147563897494     0.995429130632      -0.0806240084019    0.995429130632      -0.0806240084019    0.00233483026811    0.0147563897494     
3300000000.0        0.00241114170968    0.0152130440001     0.995212590873      -0.083141899442     0.995212590873      -0.083141899442     0.00241114170968    0.0152130440001     
3400000000.0        0.00248976215725    0.0156693183819     0.994989450195      -0.0856595606759    0.994989450195      -0.0856595606759    0.00248976215725    0.0156693183819     
3500000000.0        0.00257069145016    0.0161252041846     0.994759706297      -0.0881769786271    0.994759706297      -0.0881769786271    0.00257069145016    0.0161252041846     
3600000000.0        0.00265392933835    0.0165806927726     0.994523356967      -0.0906941396899    0.994523356967      -0.0906941396899    0.00265392933835    0.0165806927726     
3700000000.0        0.00273947549032    0.0170357755824     0.994280400071      -0.0932110301352    0.994280400071      -0.0932110301352    0.00273947549032    0.0170357755824     
3800000000.0        0.00282732950024    0.0174904441207     0.994030833551      -0.095727636115     0.994030833551      -0.095727636115     0.00282732950024    0.0174904441207     
3900000000.0        0.00291749089412    0.0179446899617     0.99377465542       -0.0982439436675    0.99377465542       -0.0982439436675    0.00291749089412    0.0179446899617     
4000000000.0        0.00300995913542    0.0183985047451     0.993511863755      -0.100759938721     0.993511863755      -0.100759938721     0.00300995913542    0.0183985047451     
4100000000.0        0.00310473362997    0.0188518801744     0.993242456695      -0.103275607098     0.993242456695      -0.103275607098     0.00310473362997    0.0188518801744     
4200000000.0        0.00320181373041    0.0193048080144     0.992966432439      -0.105790934521     0.992966432439      -0.105790934521     0.00320181373041    0.0193048080144     
4300000000.0        0.00330119874017    0.0197572800895     0.99268378924       -0.108305906612     0.99268378924       -0.108305906612     0.00330119874017    0.0197572800895     
4400000000.0        0.00340288791704    0.020209288282      0.992394525405      -0.110820508899     0.992394525405      -0.110820508899     0.00340288791704    0.020209288282      
4500000000.0        0.00350688047641    0.0206608245297     0.992098639291      -0.113334726821     0.992098639291      -0.113334726821     0.00350688047641    0.0206608245297     
4600000000.0        0.00361317559423    0.0211118808251     0.991796129305      -0.115848545726     0.991796129305      -0.115848545726     0.00361317559423    0.0211118808251     
4700000000.0        0.00372177240962    0.0215624492127     0.991486993902      -0.118361950878     0.991486993902      -0.118361950878     0.00372177240962    0.0215624492127     
4800000000.0        0.00383267002732    0.022012521788      0.991171231579      -0.120874927457     0.991171231579      -0.120874927457     0.00383267002732    0.022012521788      
4900000000.0        0.00394586751988    0.0224620906959     0.990848840881      -0.123387460565     0.990848840881      -0.123387460565     0.00394586751988    0.0224620906959     
5000000000.0        0.00406136392972    0.0229111481285     0.990519820396      -0.125899535224     0.990519820396      -0.125899535224     0.00406136392972    0.0229111481285     
5100000000.0        0.00417915827091    0.0233596863246     0.990184168752      -0.128411136383     0.990184168752      -0.128411136383     0.00417915827091    0.0233596863246     
5200000000.0        0.00429924953092    0.0238076975673     0.989841884619      -0.130922248917     0.989841884619      -0.130922248917     0.00429924953093    0.0238076975673     
5300000000.0        0.00442163667217    0.0242551741833     0.989492966708      -0.133432857629     0.989492966708      -0.133432857629     0.00442163667217    0.0242551741833     
5400000000.0        0.00454631863342    0.0247021085409     0.98913741377       -0.135942947256     0.98913741377       -0.135942947256     0.00454631863342    0.0247021085409     
5500000000.0        0.00467329433117    0.0251484930492     0.988775224594      -0.138452502464     0.988775224594      -0.138452502464     0.00467329433117    0.0251484930492     
5600000000.0        0.00480256266082    0.0255943201566     0.988406398007      -0.140961507858     0.988406398007      -0.140961507858     0.00480256266082    0.0255943201566     
5700000000.0        0.00493412249781    0.0260395823492     0.988030932876      -0.143469947978     0.988030932876      -0.143469947978     0.00493412249781    0.0260395823492     
5800000000.0        0.00506797269871    0.02648427215       0.987648828104      -0.1459778073       0.987648828104      -0.1459778073       0.00506797269871    0.02648427215       
5900000000.0        0.00520411210212    0.0269283821178     0.987260082632      -0.148485070243     0.987260082632      -0.148485070243     0.00520411210212    0.0269283821178     
6000000000.0        0.00534253952965    0.0273719048455     0.986864695437      -0.150991721167     0.986864695437      -0.150991721167     0.00534253952965    0.0273719048455     
6100000000.0        0.00548325378669    0.0278148329591     0.986462665534      -0.153497744373     0.986462665534      -0.153497744373     0.00548325378669    0.0278148329591     
6200000000.0        0.00562625366322    0.0282571591171     0.986053991973      -0.156003124107     0.986053991973      -0.156003124107     0.00562625366322    0.0282571591171     
6300000000.0        0.00577153793452    0.0286988760088     0.985638673841      -0.158507844562     0.985638673841      -0.158507844562     0.00577153793452    0.0286988760088     
6400000000.0        0.00591910536187    0.0291399763534     0.985216710261      -0.161011889875     0.985216710261      -0.161011889875     0.00591910536187    0.0291399763534     
6500000000.0        0.00606895469314    0.0295804528992     0.984788100391      -0.163515244135     0.984788100391      -0.163515244135     0.00606895469314    0.0295804528992     
6600000000.0        0.00622108466339    0.0300202984222     0.984352843426      -0.166017891375     0.984352843426      -0.166017891375     0.00622108466339    0.0300202984222     
6700000000.0        0.00637549399544    0.0304595057255     0.983910938596      -0.168519815583     0.983910938596      -0.168519815583     0.00637549399544    0.0304595057255     
6800000000.0        0.00653218140031    0.0308980676381     0.983462385167      -0.171021000695     0.983462385167      -0.171021000695     0.00653218140031    0.0308980676381     
6900000000.0        0.00669114557779    0.0313359770138     0.983007182441      -0.173521430601     0.983007182441      -0.173521430601     0.00669114557779    0.0313359770138     
7000000000.0        0.00685238521678    0.0317732267309     0.982545329755      -0.176021089145     0.982545329755      -0.176021089145     0.00685238521678    0.0317732267309     
7100000000.0        0.00701589899577    0.0322098096904     0.98207682648       -0.178519960124     0.98207682648       -0.178519960124     0.00701589899577    0.0322098096904     
7200000000.0        0.0071816855832     0.0326457188159     0.981601672026      -0.181018027289     0.981601672026      -0.181018027289     0.0071816855832     0.0326457188159     
7300000000.0        0.00734974363781    0.0330809470522     0.981119865836      -0.183515274349     0.981119865836      -0.183515274349     0.00734974363781    0.0330809470522     
7400000000.0        0.00752007180897    0.0335154873649     0.980631407389      -0.186011684971     0.980631407389      -0.186011684971     0.00752007180897    0.0335154873649     
7500000000.0        0.00769266873699    0.033949332739      0.9801362962        -0.188507242776     0.9801362962        -0.188507242776     0.00769266873699    0.033949332739      
7600000000.0        0.00786753305342    0.0343824761787     0.979634531821      -0.191001931345     0.979634531821      -0.191001931345     0.00786753305342    0.0343824761787     
7700000000.0        0.0080446633813     0.0348149107063     0.979126113838      -0.19349573422      0.979126113838      -0.19349573422      0.0080446633813     0.0348149107063     
7800000000.0        0.00822405833537    0.0352466293612     0.978611041874      -0.1959886349       0.978611041874      -0.1959886349       0.00822405833537    0.0352466293612     
7900000000.0        0.00840571652238    0.0356776251994     0.978089315586      -0.198480616846     0.978089315586      -0.198480616846     0.00840571652238    0.0356776251994     
8000000000.0        0.0085896365412     0.036107891293      0.977560934671      -0.20097166348      0.977560934671      -0.20097166348      0.0085896365412     0.036107891293      
8100000000.0        0.00877581698308    0.0365374207288     0.977025898857      -0.203461758186     0.977025898857      -0.203461758186     0.00877581698308    0.0365374207288     
8200000000.0        0.00896425643179    0.0369662066082     0.976484207913      -0.205950884309     0.976484207913      -0.205950884309     0.00896425643179    0.0369662066082     
8300000000.0        0.00915495346378    0.0373942420459     0.975935861642      -0.208439025157     0.975935861642      -0.208439025157     0.00915495346378    0.0373942420459     
8400000000.0        0.00934790664835    0.0378215201698     0.975380859883      -0.210926164005     0.975380859883      -0.210926164005     0.00934790664835    0.0378215201698     
8500000000.0        0.00954311454772    0.03824803412       0.974819202514      -0.213412284086     0.974819202514      -0.213412284086     0.00954311454772    0.03824803412       
8600000000.0        0.00974057571722    0.0386737770479     0.974250889448      -0.215897368604     0.974250889448      -0.215897368604     0.00974057571722    0.0386737770479     
8700000000.0        0.00994028870532    0.0390987421162     0.973675920636      -0.218381400722     0.973675920636      -0.218381400722     0.00994028870532    0.0390987421162     
8800000000.0        0.0101422520538     0.0395229224974     0.973094296064      -0.220864363572     0.973094296064      -0.220864363572     0.0101422520538     0.0395229224974     
8900000000.0        0.0103464642977     0.0399463113738     0.972506015757      -0.223346240252     0.972506015757      -0.223346240252     0.0103464642977     0.0399463113738     
9000000000.0        0.0105529239655     0.0403689019368     0.971911079778      -0.225827013824     0.971911079778      -0.225827013824     0.0105529239655     0.0403689019368     
9100000000.0        0.0107616295792     0.0407906873857     0.971309488227      -0.228306667319     0.971309488227      -0.228306667319     0.0107616295792     0.0407906873857     
9200000000.0        0.0109725796543     0.041211660928      0.970701241239      -0.230785183734     0.970701241239      -0.230785183734     0.0109725796543     0.041211660928      
9300000000.0        0.0111857726996     0.0416318157779     0.970086338992      -0.233262546034     0.970086338992      -0.233262546034     0.0111857726996     0.0416318157779     
9400000000.0        0.0114012072179     0.0420511451565     0.969464781697      -0.235738737152     0.969464781697      -0.235738737152     0.0114012072179     0.0420511451565     
9500000000.0        0.0116188817051     0.0424696422905     0.968836569607      -0.238213739989     0.968836569607      -0.238213739989     0.0116188817051     0.0424696422905     
9600000000.0        0.0118387946509     0.0428873004122     0.968201703011      -0.240687537414     0.968201703011      -0.240687537414     0.0118387946509     0.0428873004122     
9700000000.0        0.0120609445386     0.0433041127585     0.967560182238      -0.243160112266     0.967560182238      -0.243160112266     0.0120609445386     0.0433041127585     
9800000000.0        0.012285329845      0.0437200725708     0.966912007655      -0.245631447353     0.966912007655      -0.245631447353     0.012285329845      0.0437200725708     
9900000000.0        0.0125119490403     0.0441351730939     0.966257179668      -0.248101525451     0.966257179668      -0.248101525451     0.0125119490403     0.0441351730939     
10000000000.0       0.0127408005884     0.0445494075759     0.965595698723      -0.25057032931      0.965595698723      -0.25057032931      0.0127408005884     0.0445494075759     
