# Hz S RI R 50.00 
100000000.0         -0.00310912302659   -0.055323748511     0.996830158129      -0.0555634576321    0.996830158129      -0.0555634576321    -0.00310912302659   -0.055323748511     
200000000.0         -0.0122994351935    -0.109615686838     0.987639344555      -0.110095160062     0.987639344555      -0.110095160062     -0.0122994351935    -0.109615686838     
300000000.0         -0.0272081145035    -0.161920767207     0.972730210214      -0.16264008903      0.972730210214      -0.16264008903      -0.0272081145035    -0.161920767207     
400000000.0         -0.0473153578122    -0.211400484728     0.952622505994      -0.212359762631     0.952622505994      -0.212359762631     -0.0473153578122    -0.211400484728     
500000000.0         -0.0719583925942    -0.257372346805     0.927978984327      -0.258571707818     0.927978984327      -0.258571707818     -0.0719583925942    -0.257372346805     
600000000.0         -0.100382493063     -0.299332435731     0.89955436074       -0.300772024088     0.89955436074       -0.300772024088     -0.100382493063     -0.299332435731     
700000000.0         -0.13179275197      -0.336960675408     0.868143536389      -0.338640650749     0.868143536389      -0.338640650749     -0.13179275197      -0.336960675408     
800000000.0         -0.16540087402      -0.370111051477     0.834534802582      -0.372031587404     0.834534802582      -0.372031587404     -0.16540087402      -0.370111051477     
900000000.0         -0.200463089445     -0.398790680196     0.799471926292      -0.400951963042     0.799471926292      -0.400951963042     -0.200463089445     -0.398790680196     
1000000000.0        -0.236307349578     -0.42313220985      0.76362695412       -0.425534437627     0.76362695412       -0.425534437627     -0.236307349578     -0.42313220985      
1100000000.0        -0.272349781219     -0.44336374334      0.727583757673      -0.4460071248       0.727583757673      -0.4460071248       -0.272349781219     -0.44336374334      
1200000000.0        -0.308101668621     -0.459779615675     0.691831051426      -0.462664369482     0.691831051426      -0.462664369482     -0.308101668621     -0.459779615675     
1300000000.0        -0.343168935621     -0.472714284719     0.656762910495      -0.475840638696     0.656762910495      -0.475840638696     -0.343168935621     -0.472714284719     
1400000000.0        -0.377246298668     -0.482520560454     0.622684617547      -0.485888750899     0.622684617547      -0.485888750899     -0.377246298668     -0.482520560454     
1500000000.0        -0.410108106499     -0.489552561324     0.589821823084      -0.49316283239      0.589821823084      -0.49316283239      -0.410108106499     -0.489552561324     
1600000000.0        -0.441597532586     -0.494153200861     0.558331352963      -0.49800580398      0.558331352963      -0.49800580398      -0.441597532586     -0.494153200861     
1700000000.0        -0.471615369948     -0.496645661037     0.528312413564      -0.500740854398     0.528312413564      -0.500740854398     -0.471615369948     -0.496645661037     
1800000000.0        -0.500109279191     -0.497328152803     0.499817343738      -0.501666200863     0.499817343738      -0.501666200863     -0.500109279191     -0.497328152803     
1900000000.0        -0.527064004812     -0.496471241295     0.472861398487      -0.501052414336     0.472861398487      -0.501052414336     -0.527064004812     -0.496471241295     
2000000000.0        -0.552492817504     -0.494317070942     0.447431306652      -0.499141644653     0.447431306652      -0.499141644653     -0.552492817504     -0.494317070942     
2100000000.0        -0.576430258677     -0.491079923496     0.423492526386      -0.496148178594     0.423492526386      -0.496148178594     -0.576430258677     -0.491079923496     
2200000000.0        -0.598926146031     -0.4869476521       0.400995239575      -0.492259873972     0.400995239575      -0.492259873972     -0.598926146031     -0.4869476521       
2300000000.0        -0.620040730984     -0.482083640086     0.379879194407      -0.487640118468     0.379879194407      -0.487640118468     -0.620040730984     -0.482083640086     
2400000000.0        -0.639840866007     -0.476629025659     0.360077538032      -0.482430054325     0.360077538032      -0.482430054325     -0.639840866007     -0.476629025659     
2500000000.0        -0.658397030701     -0.470705009656     0.341519790484      -0.476750886148     0.341519790484      -0.476750886148     -0.658397030701     -0.470705009656     
2600000000.0        -0.675781070653     -0.464415123373     0.32413410582       -0.470706148736     0.32413410582       -0.470706148736     -0.675781070653     -0.464415123373     
2700000000.0        -0.692064516303     -0.457847378561     0.307848953257      -0.464383857109     0.307848953257      -0.464383857109     -0.692064516303     -0.457847378561     
2800000000.0        -0.707317365807     -0.451076254679     0.292594334301      -0.457858493775     0.292594334301      -0.457858493775     -0.707317365807     -0.451076254679     
2900000000.0        -0.721607233454     -0.444164501742     0.278302634335      -0.451192811599     0.278302634335      -0.451192811599     -0.721607233454     -0.444164501742     
3000000000.0        -0.73499878198      -0.437164752878     0.264909190297      -0.444439446372     0.264909190297      -0.444439446372     -0.73499878198      -0.437164752878     
3100000000.0        -0.747553372212     -0.430120950987     0.252352641043      -0.437642343492     0.252352641043      -0.437642343492     -0.747553372212     -0.430120950987     
3200000000.0        -0.759328876589     -0.423069600147     0.240575113818      -0.430838009377     0.240575113818      -0.430838009377     -0.759328876589     -0.423069600147     
3300000000.0        -0.770379614196     -0.416040855843     0.229522289225      -0.424056601715     0.229522289225      -0.424056601715     -0.770379614196     -0.416040855843     
3400000000.0        -0.780756374071     -0.409059469638     0.219143377919      -0.417322874144     0.219143377919      -0.417322874144     -0.780756374071     -0.409059469638     
3500000000.0        -0.790506501023     -0.402145604144     0.209391034786      -0.410656991237     0.209391034786      -0.410656991237     -0.790506501023     -0.402145604144     
3600000000.0        -0.799674024183     -0.39531553362      0.200221230392      -0.40407522911      0.200221230392      -0.40407522911      -0.799674024183     -0.39531553362      
3700000000.0        -0.80829981325      -0.388582244533     0.191593094736      -0.397590575995     0.191593094736      -0.397590575995     -0.80829981325      -0.388582244533     
3800000000.0        -0.816421751175     -0.381955949155     0.183468744568      -0.391213245845     0.183468744568      -0.391213245845     -0.816421751175     -0.381955949155     
3900000000.0        -0.824074914912     -0.375444523943     0.175813102636      -0.384951116727     0.175813102636      -0.384951116727     -0.824074914912     -0.375444523943     
4000000000.0        -0.831291758158     -0.369053883136     0.168593714944      -0.378810104427     0.168593714944      -0.378810104427     -0.831291758158     -0.369053883136     
4100000000.0        -0.838102291748     -0.362788296696     0.161780570362      -0.372794480394     0.161780570362      -0.372794480394     -0.838102291748     -0.362788296696     
4200000000.0        -0.84453425866      -0.356650660583     0.155345925615      -0.366907142033     0.155345925615      -0.366907142033     -0.84453425866      -0.356650660583     
4300000000.0        -0.850613301657     -0.35064272628      0.149264137647      -0.361149842228     0.149264137647      -0.361149842228     -0.850613301657     -0.35064272628      
4400000000.0        -0.856363122263     -0.344765295515     0.143511504634      -0.355523384075     0.143511504634      -0.355523384075     -0.856363122263     -0.344765295515     
4500000000.0        -0.861805630418     -0.339018385323     0.138066116344      -0.350027785949     0.138066116344      -0.350027785949     -0.861805630418     -0.339018385323     
4600000000.0        -0.866961084469     -0.333401367839     0.132907714132      -0.344662421309     0.132907714132      -0.344662421309     -0.866961084469     -0.333401367839     
4700000000.0        -0.871848221541     -0.327913088582     0.128017560578      -0.339426136975     0.128017560578      -0.339426136975     -0.871848221541     -0.327913088582     
4800000000.0        -0.876484378458     -0.32255196643      0.123378318563      -0.334317353122     0.123378318563      -0.334317353122     -0.876484378458     -0.32255196643      
4900000000.0        -0.88088560357      -0.317316078047     0.118973939436      -0.329334147703     0.118973939436      -0.329334147703     -0.88088560357      -0.317316078047     
5000000000.0        -0.885066759936     -0.312203229068     0.114789559844      -0.324474327641     0.114789559844      -0.324474327641     -0.885066759936     -0.312203229068     
5100000000.0        -0.889041620316     -0.307211014052     0.110811406725      -0.319735488787     0.110811406725      -0.319735488787     -0.889041620316     -0.307211014052     
5200000000.0        -0.892822954524     -0.302336866871     0.107026709965      -0.315115066314     0.107026709965      -0.315115066314     -0.892822954524     -0.302336866871     
5300000000.0        -0.896422609644     -0.297578102996     0.103423622181      -0.310610377003     0.103423622181      -0.310610377003     -0.896422609644     -0.297578102996     
5400000000.0        -0.899851583627     -0.292931954882     0.0999911451172     -0.306218654636     0.0999911451172     -0.306218654636     -0.899851583627     -0.292931954882     
5500000000.0        -0.903120092786     -0.288395601506     0.0967190621589     -0.301937079532     0.0967190621589     -0.301937079532     -0.903120092786     -0.288395601506     
5600000000.0        -0.906237633643     -0.283966192937     0.0935978764768     -0.297762803124     0.0935978764768     -0.297762803124     -0.906237633643     -0.283966192937     
5700000000.0        -0.909213039613     -0.279640870689     0.0906187543497     -0.293692968314     0.0906187543497     -0.293692968314     -0.909213039613     -0.279640870689     
5800000000.0        -0.912054532922     -0.275416784506     0.087773473241      -0.289724726259     0.087773473241      -0.289724726259     -0.912054532922     -0.275416784506     
5900000000.0        -0.914769772184     -0.271291106111     0.0850543742286     -0.285855250124     0.0850543742286     -0.285855250124     -0.914769772184     -0.271291106111     
6000000000.0        -0.917365895976     -0.267261040393     0.082454318421      -0.28208174627      0.082454318421      -0.28208174627      -0.917365895976     -0.267261040393     
6100000000.0        -0.919849562783     -0.263323834422     0.0799666470188     -0.27840146327      0.0799666470188     -0.27840146327      -0.919849562783     -0.263323834422     
6200000000.0        -0.922226987603     -0.259476784626     0.0775851447056     -0.274811699092     0.0775851447056     -0.274811699092     -0.922226987603     -0.259476784626     
6300000000.0        -0.924503975517     -0.255717242425     0.0753040060833     -0.271309806729     0.0753040060833     -0.271309806729     -0.924503975517     -0.255717242425     
6400000000.0        -0.926685952471     -0.252042618551     0.0731178048834     -0.267893198525     0.0731178048834     -0.267893198525     -0.926685952471     -0.252042618551     
6500000000.0        -0.928777993529     -0.248450386273     0.0710214657168     -0.2645593494       0.0710214657168     -0.2645593494       -0.928777993529     -0.248450386273     
6600000000.0        -0.93078484881      -0.244938083703     0.0690102381382     -0.261305799154     0.0690102381382     -0.261305799154     -0.93078484881      -0.244938083703     
6700000000.0        -0.932710967307     -0.241503315323     0.0670796728247     -0.258130154002     0.0670796728247     -0.258130154002     -0.932710967307     -0.241503315323     
6800000000.0        -0.93456051878      -0.238143752875     0.065225599685      -0.255030087459     0.065225599685      -0.255030087459     -0.93456051878      -0.238143752875     
6900000000.0        -0.93633741388      -0.23485713571      0.0634441077318     -0.252003340693     0.0634441077318     -0.252003340693     -0.93633741388      -0.23485713571      
7000000000.0        -0.938045322669     -0.231641270699     0.0617315265646     -0.249047722434     0.0617315265646     -0.249047722434     -0.938045322669     -0.231641270699     
7100000000.0        -0.939687691666     -0.228494031777     0.060084409324      -0.246161108523     0.060084409324      -0.246161108523     -0.939687691666     -0.228494031777     
7200000000.0        -0.941267759545     -0.22541335919      0.0584995169919     -0.243341441158     0.0584995169919     -0.243341441158     -0.941267759545     -0.22541335919      
7300000000.0        -0.942788571603     -0.222397258505     0.0569738039221     -0.2405867279       0.0569738039221     -0.2405867279       -0.942788571603     -0.222397258505     
7400000000.0        -0.944252993109     -0.219443799424     0.0555044044967     -0.237895040495     0.0555044044967     -0.237895040495     -0.944252993109     -0.219443799424     
7500000000.0        -0.94566372161      -0.216551114445     0.0540886208123     -0.235264513533     0.0540886208123     -0.235264513533     -0.94566372161      -0.216551114445     
7600000000.0        -0.947023298305     -0.213717397415     0.0527239113114     -0.232693342997     0.0527239113114     -0.232693342997     -0.947023298305     -0.213717397415     
7700000000.0        -0.948334118551     -0.210940901983     0.0514078802778     -0.230179784721     0.0514078802778     -0.230179784721     -0.948334118551     -0.210940901983     
7800000000.0        -0.949598441568     -0.208219939995     0.0501382681246     -0.227722152786     0.0501382681246     -0.227722152786     -0.949598441568     -0.208219939995     
7900000000.0        -0.950818399428     -0.20555287985      0.0489129424102     -0.225318817874     0.0489129424102     -0.225318817874     -0.950818399428     -0.20555287985      
8000000000.0        -0.951996005372     -0.202938144822     0.0477298895216     -0.222968205588     0.0477298895216     -0.222968205588     -0.951996005372     -0.202938144822     
8100000000.0        -0.953133161511     -0.200374211377     0.0465872069708     -0.220668794775     0.0465872069708     -0.220668794775     -0.953133161511     -0.200374211377     
8200000000.0        -0.954231665967     -0.197859607484     0.0454830962547     -0.218419115833     0.0454830962547     -0.218419115833     -0.954231665967     -0.197859607484     
8300000000.0        -0.955293219494     -0.195392910942     0.0444158562326     -0.216217749039     0.0444158562326     -0.216217749039     -0.955293219494     -0.195392910942     
8400000000.0        -0.956319431629     -0.192972747724     0.043383876981      -0.214063322893     0.043383876981      -0.214063322893     -0.956319431629     -0.192972747724     
8500000000.0        -0.957311826389     -0.19059779034      0.0423856340864     -0.211954512482     0.0423856340864     -0.211954512482     -0.957311826389     -0.19059779034      
8600000000.0        -0.958271847584     -0.188266756235     0.0414196833426     -0.209890037878     0.0414196833426     -0.209890037878     -0.958271847584     -0.188266756235     
8700000000.0        -0.959200863739     -0.185978406223     0.0404846558208     -0.207868662569     0.0404846558208     -0.207868662569     -0.959200863739     -0.185978406223     
8800000000.0        -0.960100172686     -0.183731542948     0.0395792532821     -0.205889191928     0.0395792532821     -0.205889191928     -0.960100172686     -0.183731542948     
8900000000.0        -0.960971005833     -0.1815250094       0.0387022439084     -0.203950471716     0.0387022439084     -0.203950471716     -0.960971005833     -0.1815250094       
9000000000.0        -0.961814532136     -0.179357687456     0.0378524583252     -0.202051386635     0.0378524583252     -0.202051386635     -0.961814532136     -0.179357687456     
9100000000.0        -0.962631861812     -0.177228496473     0.0370287858947     -0.200190858917     0.0370287858947     -0.200190858917     -0.962631861812     -0.177228496473     
9200000000.0        -0.963424049792     -0.175136391924     0.0362301712596     -0.198367846958     0.0362301712596     -0.198367846958     -0.963424049792     -0.175136391924     
9300000000.0        -0.964192098948     -0.173080364074     0.0354556111178     -0.196581343996     0.0354556111178     -0.196581343996     -0.964192098948     -0.173080364074     
9400000000.0        -0.964936963101     -0.171059436702     0.0347041512108     -0.194830376831     0.0347041512108     -0.194830376831     -0.964936963101     -0.171059436702     
9500000000.0        -0.965659549838     -0.169072665866     0.0339748835113     -0.193114004592     0.0339748835113     -0.193114004592     -0.965659549838     -0.169072665866     
9600000000.0        -0.966360723137     -0.167119138711     0.0332669435935     -0.191431317545     0.0332669435935     -0.191431317545     -0.966360723137     -0.167119138711     
9700000000.0        -0.96704130583      -0.165197972316     0.0325795081748     -0.189781435938     0.0325795081748     -0.189781435938     -0.96704130583      -0.165197972316     
9800000000.0        -0.9677020819       -0.16330831259      0.0319117928145     -0.1881635089       0.0319117928145     -0.1881635089       -0.9677020819       -0.16330831259      
9900000000.0        -0.968343798636     -0.161449333202     0.0312630497599     -0.186576713366     0.0312630497599     -0.186576713366     -0.968343798636     -0.161449333202     
10000000000.0       -0.968967168653     -0.159620234552     0.0306325659289     -0.185020253054     0.0306325659289     -0.185020253054     -0.968967168653     -0.159620234552     
