# Hz S RI R 50.00 
100000000.0         0.0143896358687     0.000832440251152   0.985609059183      -0.00111832494208   0.985609059183      -0.00111832494208   0.0143896358687     0.000832440251152   
200000000.0         0.0144857325091     0.0016645065233     0.985512575458      -0.00223627702283   0.985512575458      -0.00223627702283   0.0144857325091     0.0016645065233     
300000000.0         0.0145582837879     0.00249634521309    0.985439554952      -0.00335400331703   0.985439554952      -0.00335400331703   0.0145582837879     0.00249634521309    
400000000.0         0.0146196854507     0.00332800434031    0.985377601914      -0.00447155238107   0.985377601914      -0.00447155238107   0.0146196854507     0.00332800434031    
500000000.0         0.0146747247911     0.00415950899015    0.985321929043      -0.00558894976605   0.985321929043      -0.00558894976605   0.0146747247911     0.00415950899015    
600000000.0         0.014725849919      0.00499087407169    0.985270088225      -0.00670621080099   0.985270088225      -0.00670621080099   0.014725849919      0.00499087407169    
700000000.0         0.014774510862      0.00582210890396    0.985220629426      -0.00782334519164   0.985220629426      -0.00782334519164   0.014774510862      0.00582210890396    
800000000.0         0.0148216495638     0.00665321934453    0.985172610695      -0.00894035915647   0.985172610695      -0.00894035915647   0.0148216495638     0.00665321934453    
900000000.0         0.0148679182891     0.00748420893328    0.985125379761      -0.0100572565754    0.985125379761      -0.0100572565754    0.0148679182891     0.00748420893328    
1000000000.0        0.0149137904444     0.00831507956985    0.985078463212      -0.0111740396709    0.985078463212      -0.0111740396709    0.0149137904444     0.00831507956985    
1100000000.0        0.014959622246      0.00914583194401    0.985031504825      -0.0122907094405    0.985031504825      -0.0122907094405    0.014959622246      0.00914583194401    
1200000000.0        0.015005689504      0.00997646582386    0.984984228781      -0.0134072659475    0.984984228781      -0.0134072659475    0.015005689504      0.00997646582386    
1300000000.0        0.0150522107885     0.0108069802572     0.984936416505      -0.0145237085234    0.984936416505      -0.0145237085234    0.0150522107885     0.0108069802572     
1400000000.0        0.0150993626727     0.0116373737168     0.984887891415      -0.0156400359146    0.984887891415      -0.0156400359146    0.0150993626727     0.0116373737168     
1500000000.0        0.0151472901301     0.0124676442083     0.98483850853       -0.0167562463911    0.98483850853       -0.0167562463911    0.0151472901301     0.0124676442083     
1600000000.0        0.0151961138445     0.0132977893523     0.984788147158      -0.01787233783      0.984788147158      -0.01787233783      0.0151961138445     0.0132977893523     
1700000000.0        0.0152459354832     0.0141278064481     0.984736705624      -0.018988307779     0.984736705624      -0.018988307779     0.0152459354832     0.0141278064481     
1800000000.0        0.0152968415862     0.0149576925234     0.984684097379      -0.0201041535077    0.984684097379      -0.0201041535077    0.0152968415862     0.0149576925234     
1900000000.0        0.015348906491      0.015787444375      0.984630248078      -0.0212198720478    0.984630248078      -0.0212198720478    0.015348906491      0.015787444375      
2000000000.0        0.015402194569      0.016617058601      0.98457509334       -0.0223354602267    0.98457509334       -0.0223354602267    0.015402194569      0.016617058601      
2100000000.0        0.0154567619624     0.0174465316274     0.984518577013      -0.0234509146941    0.984518577013      -0.0234509146941    0.0154567619624     0.0174465316274     
2200000000.0        0.0155126579507     0.0182758597309     0.984460649809      -0.0245662319448    0.984460649809      -0.0245662319448    0.0155126579507     0.0182758597309     
2300000000.0        0.0155699260394     0.0191050390567     0.984401268213      -0.0256814083375    0.984401268213      -0.0256814083375    0.0155699260394     0.0191050390567     
2400000000.0        0.0156286048361     0.0199340656348     0.984340393607      -0.0267964401106    0.984340393607      -0.0267964401106    0.0156286048361     0.0199340656348     
2500000000.0        0.0156887287636     0.0207629353928     0.98427799156       -0.0279113233961    0.98427799156       -0.0279113233961    0.0156887287636     0.0207629353928     
2600000000.0        0.0157503286445     0.0215916441678     0.984214031237      -0.0290260542307    0.984214031237      -0.0290260542307    0.0157503286445     0.0215916441678     
2700000000.0        0.0158134321852     0.0224201877158     0.984148484923      -0.0301406285666    0.984148484923      -0.0301406285666    0.0158134321852     0.0224201877158     
2800000000.0        0.0158780643791     0.0232485617207     0.984081327613      -0.0312550422797    0.984081327613      -0.0312550422797    0.0158780643791     0.0232485617207     
2900000000.0        0.0159442478455     0.0240767618013     0.984012536677      -0.0323692911771    0.984012536677      -0.0323692911771    0.0159442478455     0.0240767618013     
3000000000.0        0.0160120031156     0.0249047835182     0.983942091574      -0.0334833710044    0.983942091574      -0.0334833710044    0.0160120031156     0.0249047835182     
3100000000.0        0.0160813488757     0.0257326223793     0.983869973605      -0.034597277451     0.983869973605      -0.034597277451     0.0160813488757     0.0257326223793     
3200000000.0        0.0161523021752     0.0265602738451     0.983796165711      -0.0357110061556    0.983796165711      -0.0357110061556    0.0161523021752     0.0265602738451     
3300000000.0        0.0162248786053     0.0273877333331     0.983720652287      -0.036824552711     0.983720652287      -0.036824552711     0.0162248786053     0.0273877333331     
3400000000.0        0.0162990924534     0.0282149962219     0.983643419036      -0.0379379126678    0.983643419036      -0.0379379126678    0.0162990924534     0.0282149962219     
3500000000.0        0.0163749568364     0.0290420578548     0.983564452829      -0.0390510815385    0.983564452829      -0.0390510815385    0.0163749568364     0.0290420578548     
3600000000.0        0.0164524838179     0.0298689135428     0.983483741589      -0.0401640548008    0.983483741589      -0.0401640548008    0.0164524838179     0.0298689135428     
3700000000.0        0.0165316845099     0.0306955585681     0.983401274193      -0.0412768279004    0.983401274193      -0.0412768279004    0.0165316845099     0.0306955585681     
3800000000.0        0.0166125691623     0.0315219881861     0.983317040378      -0.042389396254     0.983317040378      -0.042389396254     0.0166125691623     0.0315219881861     
3900000000.0        0.0166951472418     0.0323481976285     0.983231030665      -0.0435017552515    0.983231030665      -0.0435017552515    0.0166951472418     0.0323481976285     
4000000000.0        0.0167794275018     0.0331741821046     0.983143236288      -0.0446139002587    0.983143236288      -0.0446139002587    0.0167794275018     0.0331741821046     
4100000000.0        0.016865418044      0.0339999368041     0.983053649132      -0.0457258266189    0.983053649132      -0.0457258266189    0.016865418044      0.0339999368041     
4200000000.0        0.0169531263737     0.0348254568984     0.982962261679      -0.0468375296547    0.982962261679      -0.0468375296547    0.0169531263737     0.0348254568984     
4300000000.0        0.017042559449      0.0356507375426     0.982869066958      -0.0479490046705    0.982869066958      -0.0479490046705    0.017042559449      0.0356507375426     
4400000000.0        0.0171337237242     0.0364757738769     0.9827740585        -0.0490602469532    0.9827740585        -0.0490602469532    0.0171337237242     0.0364757738769     
4500000000.0        0.01722662519       0.0373005610277     0.982677230302      -0.0501712517741    0.982677230302      -0.0501712517741    0.01722662519       0.0373005610277     
4600000000.0        0.0173212694084     0.0381250941096     0.982578576788      -0.0512820143903    0.982578576788      -0.0512820143903    0.0173212694084     0.0381250941096     
4700000000.0        0.0174176615449     0.0389493682258     0.982478092778      -0.0523925300457    0.982478092778      -0.0523925300457    0.0174176615449     0.0389493682258     
4800000000.0        0.0175158063972     0.0397733784698     0.98237577346       -0.0535027939725    0.98237577346       -0.0535027939725    0.0175158063972     0.0397733784698     
4900000000.0        0.0176157084216     0.0405971199262     0.982271614365      -0.0546128013918    0.982271614365      -0.0546128013918    0.0176157084216     0.0405971199262     
5000000000.0        0.0177173717567     0.0414205876716     0.98216561134       -0.055722547515     0.98216561134       -0.055722547515     0.0177173717567     0.0414205876716     
5100000000.0        0.0178208002449     0.0422437767756     0.982057760526      -0.0568320275447    0.982057760526      -0.0568320275447    0.0178208002449     0.0422437767756     
5200000000.0        0.0179259974518     0.0430666823016     0.981948058345      -0.0579412366753    0.981948058345      -0.0579412366753    0.0179259974518     0.0430666823016     
5300000000.0        0.0180329666849     0.0438892993077     0.981836501473      -0.0590501700941    0.981836501473      -0.0590501700941    0.0180329666849     0.0438892993077     
5400000000.0        0.0181417110091     0.044711622847      0.981723086832      -0.060158822982     0.981723086832      -0.060158822982     0.0181417110091     0.044711622847      
5500000000.0        0.0182522332624     0.0455336479689     0.981607811568      -0.061267190514     0.981607811568      -0.061267190514     0.0182522332624     0.0455336479689     
5600000000.0        0.0183645360694     0.0463553697191     0.98149067304       -0.0623752678602    0.98149067304       -0.0623752678602    0.0183645360694     0.0463553697191     
5700000000.0        0.018478621854      0.0471767831407     0.981371668811      -0.0634830501862    0.981371668811      -0.0634830501862    0.018478621854      0.0471767831407     
5800000000.0        0.0185944928512     0.0479978832747     0.981250796629      -0.0645905326536    0.981250796629      -0.0645905326536    0.0185944928512     0.0479978832747     
5900000000.0        0.0187121511176     0.0488186651601     0.981128054423      -0.0656977104212    0.981128054423      -0.0656977104212    0.0187121511176     0.0488186651601     
6000000000.0        0.0188315985414     0.0496391238349     0.981003440287      -0.0668045786446    0.981003440287      -0.0668045786446    0.0188315985414     0.0496391238349     
6100000000.0        0.0189528368519     0.0504592543364     0.980876952479      -0.0679111324773    0.980876952479      -0.0679111324773    0.0189528368519     0.0504592543364     
6200000000.0        0.0190758676273     0.0512790517016     0.980748589401      -0.0690173670711    0.980748589401      -0.0690173670711    0.0190758676273     0.0512790517016     
6300000000.0        0.0192006923033     0.0520985109675     0.980618349604      -0.0701232775764    0.980618349604      -0.0701232775764    0.0192006923033     0.0520985109675     
6400000000.0        0.0193273121799     0.0529176271719     0.980486231771      -0.0712288591429    0.980486231771      -0.0712288591429    0.0193273121799     0.0529176271719     
6500000000.0        0.0194557284284     0.0537363953535     0.980352234715      -0.0723341069196    0.980352234715      -0.0723341069196    0.0194557284284     0.0537363953535     
6600000000.0        0.0195859420975     0.0545548105521     0.980216357369      -0.0734390160555    0.980216357369      -0.0734390160555    0.0195859420975     0.0545548105521     
6700000000.0        0.0197179541194     0.0553728678094     0.980078598785      -0.0745435816999    0.980078598785      -0.0745435816999    0.0197179541194     0.0553728678094     
6800000000.0        0.0198517653152     0.056190562169      0.979938958126      -0.0756477990028    0.979938958126      -0.0756477990028    0.0198517653152     0.056190562169      
6900000000.0        0.0199873763999     0.0570078886767     0.979797434659      -0.0767516631149    0.979797434659      -0.0767516631149    0.0199873763999     0.0570078886767     
7000000000.0        0.0201247879873     0.057824842381      0.979654027754      -0.0778551691885    0.979654027754      -0.0778551691885    0.0201247879873     0.057824842381      
7100000000.0        0.0202640005943     0.0586414183333     0.979508736877      -0.0789583123774    0.979508736877      -0.0789583123774    0.0202640005943     0.0586414183333     
7200000000.0        0.0204050146454     0.059457611588      0.979361561586      -0.0800610878371    0.979361561586      -0.0800610878371    0.0204050146454     0.059457611588      
7300000000.0        0.020547830476      0.0602734172031     0.979212501527      -0.0811634907255    0.979212501527      -0.0811634907255    0.020547830476      0.0602734172031     
7400000000.0        0.0206924483368     0.0610888302403     0.979061556434      -0.0822655162029    0.979061556434      -0.0822655162029    0.0206924483368     0.0610888302403     
7500000000.0        0.0208388683968     0.0619038457649     0.97890872612       -0.0833671594321    0.97890872612       -0.0833671594321    0.0208388683968     0.0619038457649     
7600000000.0        0.0209870907464     0.0627184588468     0.978754010476      -0.0844684155792    0.978754010476      -0.0844684155792    0.0209870907464     0.0627184588468     
7700000000.0        0.021137115401      0.0635326645598     0.97859740947       -0.0855692798133    0.97859740947       -0.0855692798133    0.021137115401      0.0635326645598     
7800000000.0        0.0212889423032     0.0643464579827     0.978438923141      -0.0866697473067    0.978438923141      -0.0866697473067    0.0212889423032     0.0643464579827     
7900000000.0        0.0214425713261     0.0651598341988     0.978278551597      -0.0877698132358    0.978278551597      -0.0877698132358    0.0214425713261     0.0651598341988     
8000000000.0        0.0215980022754     0.0659727882965     0.978116295016      -0.0888694727804    0.978116295016      -0.0888694727804    0.0215980022754     0.0659727882965     
8100000000.0        0.0217552348918     0.0667853153693     0.977952153637      -0.0899687211247    0.977952153637      -0.0899687211247    0.0217552348918     0.0667853153693     
8200000000.0        0.0219142688538     0.0675974105163     0.977786127765      -0.0910675534571    0.977786127765      -0.0910675534571    0.0219142688538     0.0675974105163     
8300000000.0        0.0220751037792     0.0684090688418     0.977618217764      -0.0921659649702    0.977618217764      -0.0921659649702    0.0220751037792     0.0684090688418     
8400000000.0        0.0222377392274     0.0692202854562     0.977448424054      -0.0932639508615    0.977448424054      -0.0932639508615    0.0222377392274     0.0692202854562     
8500000000.0        0.0224021747012     0.0700310554754     0.977276747116      -0.0943615063334    0.977276747116      -0.0943615063334    0.0224021747012     0.0700310554754     
8600000000.0        0.022568409649      0.0708413740216     0.977103187481      -0.0954586265929    0.977103187481      -0.0954586265929    0.022568409649      0.0708413740216     
8700000000.0        0.0227364434659     0.0716512362231     0.976927745736      -0.0965553068526    0.976927745736      -0.0965553068526    0.0227364434659     0.0716512362231     
8800000000.0        0.0229062754957     0.0724606372146     0.976750422519      -0.0976515423303    0.976750422519      -0.0976515423303    0.0229062754957     0.0724606372146     
8900000000.0        0.0230779050327     0.0732695721373     0.976571218516      -0.098747328249     0.976571218516      -0.098747328249     0.0230779050327     0.0732695721373     
9000000000.0        0.0232513313224     0.074078036139      0.976390134462      -0.0998426598379    0.976390134462      -0.0998426598379    0.0232513313224     0.074078036139      
9100000000.0        0.0234265535636     0.0748860243744     0.97620717114       -0.100937532331     0.97620717114       -0.100937532331     0.0234265535636     0.0748860243744     
9200000000.0        0.0236035709096     0.075693532005      0.976022329377      -0.10203194097      0.976022329377      -0.10203194097      0.0236035709096     0.075693532005      
9300000000.0        0.023782382469      0.0765005541993     0.975835610044      -0.103125881001     0.975835610044      -0.103125881001     0.023782382469      0.0765005541993     
9400000000.0        0.0239629873075     0.0773070861332     0.975647014058      -0.104219347677     0.975647014058      -0.104219347677     0.0239629873075     0.0773070861332     
9500000000.0        0.0241453844488     0.0781131229897     0.975456542375      -0.105312336258     0.975456542375      -0.105312336258     0.0241453844488     0.0781131229897     
9600000000.0        0.0243295728755     0.0789186599594     0.975264195992      -0.106404842008     0.975264195992      -0.106404842008     0.0243295728755     0.0789186599594     
9700000000.0        0.0245155515304     0.0797236922402     0.975069975947      -0.107496860201     0.975069975947      -0.107496860201     0.0245155515304     0.0797236922402     
9800000000.0        0.0247033193176     0.0805282150379     0.974873883316      -0.108588386116     0.974873883316      -0.108588386116     0.0247033193176     0.0805282150379     
9900000000.0        0.0248928751028     0.081332223566      0.974675919214      -0.109679415039     0.974675919214      -0.109679415039     0.0248928751028     0.081332223566      
10000000000.0       0.0250842177151     0.0821357130457     0.974476084792      -0.110769942262     0.974476084792      -0.110769942262     0.0250842177151     0.0821357130457     
