# Hz S RI R 50.00 
100000000.0         0.00247048273931    -0.000465227594077  0.997514118793      -0.00403018558919   0.997514118793      -0.00403018558919   0.00247048273931    -0.000465227594077  
200000000.0         0.00247928242662    -0.000930536954201  0.997470694865      -0.00806019367082   0.997470694865      -0.00806019367082   0.00247928242662    -0.000930536954201  
300000000.0         0.00248000713999    -0.00139585784377   0.997415120213      -0.0120900163614    0.997415120213      -0.0120900163614    0.00248000713999    -0.00139585784377   
400000000.0         0.00247479791905    -0.00186114912658   0.997345254209      -0.0161196116323    0.997345254209      -0.0161196116323    0.00247479791905    -0.00186114912658   
500000000.0         0.00246447881765    -0.00232637596235   0.997260273563      -0.0201489286263    0.997260273563      -0.0201489286263    0.00246447881765    -0.00232637596235   
600000000.0         0.00244947005469    -0.00279150611385   0.9971597592        -0.0241779122334    0.9971597592        -0.0241779122334    0.00244947005469    -0.00279150611385   
700000000.0         0.00243002003302    -0.00325650866677   0.99704346425       -0.0282065048206    0.99704346425       -0.0282065048206    0.00243002003302    -0.00325650866677   
800000000.0         0.00240628998024    -0.00372135345818   0.99691122943       -0.0322346470744    0.99691122943       -0.0322346470744    0.00240628998024    -0.00372135345818   
900000000.0         0.00237839161854    -0.00418601078144   0.996762945379      -0.0362622784747    0.996762945379      -0.0362622784747    0.00237839161854    -0.00418601078143   
1000000000.0        0.00234640625085    -0.00465045121911   0.996598533586      -0.040289337588     0.996598533586      -0.040289337588     0.00234640625085    -0.00465045121911   
1100000000.0        0.00231039536633    -0.00511464554185   0.99641793579       -0.0443157622626    0.99641793579       -0.0443157622626    0.00231039536633    -0.00511464554185   
1200000000.0        0.00227040695763    -0.00557856464438   0.996221107672      -0.0483414897646    0.996221107672      -0.0483414897646    0.00227040695763    -0.00557856464438   
1300000000.0        0.00222647949404    -0.00604217950341   0.99600801489       -0.0523664568778    0.99600801489       -0.0523664568778    0.00222647949404    -0.00604217950341   
1400000000.0        0.00217864453221    -0.00650546114939   0.995778630471      -0.0563905999784    0.995778630471      -0.0563905999784    0.00217864453221    -0.00650546114939   
1500000000.0        0.00212692849475    -0.00696838064722   0.995532933039      -0.0604138550932    0.995532933039      -0.0604138550932    0.00212692849475    -0.00696838064722   
1600000000.0        0.00207135391912    -0.00743090908296   0.995270905574      -0.0644361579461    0.995270905574      -0.0644361579461    0.00207135391912    -0.00743090908296   
1700000000.0        0.00201194035751    -0.00789301755471   0.994992534513      -0.0684574439949    0.994992534513      -0.0684574439949    0.00201194035751    -0.00789301755471   
1800000000.0        0.00194870503977    -0.00835467716636   0.994697809091      -0.0724776484625    0.994697809091      -0.0724776484625    0.00194870503977    -0.00835467716636   
1900000000.0        0.00188166337139    -0.00881585902354   0.994386720852      -0.0764967063628    0.994386720852      -0.0764967063628    0.00188166337139    -0.00881585902354   
2000000000.0        0.00181082931405    -0.00927653423103   0.994059263264      -0.0805145525223    0.994059263264      -0.0805145525223    0.00181082931405    -0.00927653423103   
2100000000.0        0.00173621568069    -0.00973667389137   0.993715431435      -0.0845311215991    0.993715431435      -0.0845311215991    0.00173621568069    -0.00973667389137   
2200000000.0        0.00165783436761    -0.0101962491043    0.993355221879      -0.088546348099     0.993355221879      -0.088546348099     0.00165783436761    -0.0101962491043    
2300000000.0        0.00157569653912    -0.0106552309668    0.992978632338      -0.0925601663901    0.992978632338      -0.0925601663901    0.00157569653912    -0.0106552309668    
2400000000.0        0.00148981277618    -0.0111135905738    0.99258566163       -0.0965725107156    0.99258566163       -0.0965725107156    0.00148981277618    -0.0111135905738    
2500000000.0        0.00140019319709    -0.0115712990192    0.992176309539      -0.100583315204     0.992176309539      -0.100583315204     0.00140019319709    -0.0115712990192    
2600000000.0        0.00130684755655    -0.012028327397     0.991750576711      -0.104592513882     0.991750576711      -0.104592513882     0.00130684755655    -0.012028327397     
2700000000.0        0.00120978532753    -0.012484646803     0.991308464579      -0.108600040679     0.991308464579      -0.108600040679     0.00120978532753    -0.012484646803     
2800000000.0        0.00110901576948    -0.0129402283364    0.990849975294      -0.112605829442     0.990849975294      -0.112605829442     0.00110901576948    -0.0129402283364    
2900000000.0        0.00100454798555    -0.0133950431019    0.990375111672      -0.116609813936     0.990375111672      -0.116609813936     0.00100454798555    -0.0133950431019    
3000000000.0        0.000896390970971   -0.0138490622114    0.989883877145      -0.120611927857     0.989883877145      -0.120611927857     0.000896390970972   -0.0138490622114    
3100000000.0        0.000784553654078   -0.0143022567862    0.989376275725      -0.124612104837     0.989376275725      -0.124612104837     0.000784553654079   -0.0143022567862    
3200000000.0        0.000669044931408   -0.0147545979593    0.988852311966      -0.128610278447     0.988852311966      -0.128610278447     0.000669044931408   -0.0147545979593    
3300000000.0        0.000549873697813   -0.0152060568775    0.988311990939      -0.132606382207     0.988311990939      -0.132606382207     0.000549873697814   -0.0152060568775    
3400000000.0        0.000427048872458   -0.0156566047037    0.987755318206      -0.13660034959      0.987755318206      -0.13660034959      0.000427048872458   -0.0156566047037    
3500000000.0        0.000300579421325   -0.0161062126191    0.9871822998        -0.140592114026     0.9871822998        -0.140592114026     0.000300579421325   -0.0161062126191    
3600000000.0        0.000170474376825   -0.0165548518258    0.986592942204      -0.144581608907     0.986592942204      -0.144581608907     0.000170474376825   -0.0165548518258    
3700000000.0        3.67428549009e-05   -0.017002493549     0.985987252336      -0.148568767595     0.985987252336      -0.148568767595     3.67428549009e-05   -0.017002493549     
3800000000.0        -0.000100605929962  -0.0174491090392    0.985365237538      -0.152553523419     0.985365237538      -0.152553523419     -0.000100605929962  -0.0174491090392    
3900000000.0        -0.000241562651552  -0.017894669575     0.984726905558      -0.156535809688     0.984726905558      -0.156535809688     -0.000241562651552  -0.017894669575     
4000000000.0        -0.000386117860282  -0.0183391464652    0.984072264545      -0.160515559689     0.984072264545      -0.160515559689     -0.000386117860282  -0.0183391464652    
4100000000.0        -0.000534261972914  -0.0187825110514    0.983401323035      -0.164492706692     0.983401323035      -0.164492706692     -0.000534261972914  -0.0187825110514    
4200000000.0        -0.000685985263425  -0.0192247347102    0.982714089945      -0.168467183956     0.982714089945      -0.168467183956     -0.000685985263425  -0.0192247347102    
4300000000.0        -0.000841277854898  -0.0196657888559    0.982010574566      -0.172438924729     0.982010574566      -0.172438924729     -0.000841277854898  -0.0196657888559    
4400000000.0        -0.00100012971231   -0.0201056449427    0.981290786554      -0.176407862254     0.981290786554      -0.176407862254     -0.00100012971231   -0.0201056449427    
4500000000.0        -0.0011625306361    -0.0205442744672    0.980554735926      -0.180373929772     0.980554735926      -0.180373929772     -0.0011625306361    -0.0205442744672    
4600000000.0        -0.00132847025638   -0.0209816489709    0.979802433053      -0.184337060526     0.979802433053      -0.184337060526     -0.00132847025638   -0.0209816489709    
4700000000.0        -0.00149793802784   -0.0214177400425    0.979033888658      -0.18829718776      0.979033888658      -0.18829718776      -0.00149793802784   -0.0214177400425    
4800000000.0        -0.0016709232251    -0.0218525193203    0.978249113807      -0.192254244729     0.978249113807      -0.192254244729     -0.0016709232251    -0.0218525193203    
4900000000.0        -0.00184741493863   -0.0222859584949    0.97744811991       -0.196208164696     0.97744811991       -0.196208164696     -0.00184741493863   -0.0222859584949    
5000000000.0        -0.00202740207097   -0.0227180293112    0.976630918715      -0.200158880937     0.976630918715      -0.200158880937     -0.00202740207097   -0.0227180293112    
5100000000.0        -0.00221087333349   -0.0231487035709    0.975797522305      -0.204106326745     0.975797522305      -0.204106326745     -0.00221087333349   -0.0231487035709    
5200000000.0        -0.00239781724339   -0.0235779531353    0.974947943096      -0.208050435432     0.974947943096      -0.208050435432     -0.00239781724339   -0.0235779531353    
5300000000.0        -0.00258822212101   -0.0240057499272    0.974082193832      -0.211991140329     0.974082193832      -0.211991140329     -0.00258822212101   -0.0240057499272    
5400000000.0        -0.00278207608749   -0.0244320659334    0.973200287585      -0.215928374795     0.973200287585      -0.215928374795     -0.00278207608749   -0.0244320659334    
5500000000.0        -0.00297936706258   -0.0248568732073    0.972302237751      -0.219862072215     0.972302237751      -0.219862072215     -0.00297936706258   -0.0248568732073    
5600000000.0        -0.0031800827628    -0.025280143871     0.97138805805       -0.223792166        0.97138805805       -0.223792166        -0.0031800827628    -0.025280143871     
5700000000.0        -0.00338421069969   -0.0257018501178    0.970457762521      -0.227718589599     0.970457762521      -0.227718589599     -0.00338421069969   -0.0257018501178    
5800000000.0        -0.00359173817835   -0.0261219642146    0.969511365525      -0.23164127649      0.969511365525      -0.23164127649      -0.00359173817835   -0.0261219642146    
5900000000.0        -0.00380265229611   -0.0265404585042    0.968548881737      -0.235560160193     0.968548881737      -0.235560160193     -0.00380265229611   -0.0265404585042    
6000000000.0        -0.00401693994131   -0.0269573054075    0.967570326148      -0.239475174264     0.967570326148      -0.239475174264     -0.00401693994131   -0.0269573054075    
6100000000.0        -0.00423458779237   -0.0273724774261    0.966575714066      -0.243386252302     0.966575714066      -0.243386252302     -0.00423458779237   -0.0273724774261    
6200000000.0        -0.00445558231682   -0.0277859471445    0.96556506111       -0.247293327952     0.96556506111       -0.247293327952     -0.00445558231682   -0.0277859471445    
6300000000.0        -0.00467990977062   -0.0281976872322    0.964538383209      -0.251196334903     0.964538383209      -0.251196334903     -0.00467990977062   -0.0281976872322    
6400000000.0        -0.00490755619745   -0.0286076704465    0.963495696606      -0.255095206895     0.963495696606      -0.255095206895     -0.00490755619745   -0.0286076704465    
6500000000.0        -0.00513850742826   -0.0290158696343    0.962437017849      -0.258989877719     0.962437017849      -0.258989877719     -0.00513850742826   -0.0290158696343    
6600000000.0        -0.00537274908076   -0.0294222577347    0.961362363798      -0.26288028122      0.961362363798      -0.26288028122      -0.00537274908076   -0.0294222577347    
6700000000.0        -0.00561026655914   -0.0298268077811    0.960271751617      -0.266766351297     0.960271751617      -0.266766351297     -0.00561026655914   -0.0298268077811    
6800000000.0        -0.00585104505382   -0.0302294929037    0.959165198777      -0.270648021908     0.959165198777      -0.270648021908     -0.00585104505382   -0.0302294929037    
6900000000.0        -0.00609506954126   -0.0306302863315    0.958042723053      -0.274525227074     0.958042723053      -0.274525227074     -0.00609506954126   -0.0306302863315    
7000000000.0        -0.0063423247839    -0.0310291613948    0.956904342526      -0.278397900873     0.956904342526      -0.278397900873     -0.0063423247839    -0.0310291613948    
7100000000.0        -0.00659279533014   -0.0314260915272    0.955750075577      -0.282265977453     0.955750075577      -0.282265977453     -0.00659279533014   -0.0314260915272    
7200000000.0        -0.00684646551442   -0.0318210502679    0.954579940892      -0.286129391025     0.954579940892      -0.286129391025     -0.00684646551442   -0.0318210502679    
7300000000.0        -0.00710331945731   -0.0322140112641    0.953393957456      -0.289988075871     0.953393957456      -0.289988075871     -0.00710331945731   -0.0322140112641    
7400000000.0        -0.00736334106571   -0.0326049482732    0.952192144555      -0.293841966342     0.952192144555      -0.293841966342     -0.00736334106571   -0.0326049482732    
7500000000.0        -0.00762651403312   -0.0329938351647    0.950974521775      -0.297690996864     0.950974521775      -0.297690996864     -0.00762651403312   -0.0329938351647    
7600000000.0        -0.00789282183991   -0.0333806459226    0.949741108999      -0.301535101936     0.949741108999      -0.301535101936     -0.00789282183991   -0.0333806459226    
7700000000.0        -0.00816224775368   -0.0337653546476    0.948491926408      -0.305374216136     0.948491926408      -0.305374216136     -0.00816224775368   -0.0337653546476    
7800000000.0        -0.00843477482971   -0.0341479355595    0.947226994483      -0.309208274119     0.947226994483      -0.309208274119     -0.00843477482971   -0.0341479355595    
7900000000.0        -0.00871038591136   -0.0345283629987    0.945946333996      -0.313037210623     0.945946333996      -0.313037210623     -0.00871038591136   -0.0345283629987    
8000000000.0        -0.00898906363058   -0.0349066114292    0.944649966018      -0.316860960468     0.944649966018      -0.316860960468     -0.00898906363058   -0.0349066114292    
8100000000.0        -0.00927079040852   -0.0352826554398    0.943337911913      -0.320679458559     0.943337911913      -0.320679458559     -0.00927079040852   -0.0352826554398    
8200000000.0        -0.00955554845604   -0.0356564697473    0.942010193339      -0.324492639887     0.942010193339      -0.324492639887     -0.00955554845604   -0.0356564697473    
8300000000.0        -0.00984331977439   -0.0360280291976    0.940666832246      -0.328300439535     0.940666832246      -0.328300439535     -0.00984331977439   -0.0360280291976    
8400000000.0        -0.0101340861559    -0.0363973087685    0.939307850877      -0.332102792673     0.939307850877      -0.332102792673     -0.0101340861559    -0.0363973087685    
8500000000.0        -0.0104278291846    -0.0367642835715    0.937933271765      -0.335899634565     0.937933271765      -0.335899634565     -0.0104278291846    -0.0367642835715    
8600000000.0        -0.0107245302371    -0.0371289288541    0.936543117735      -0.339690900571     0.936543117735      -0.339690900571     -0.0107245302371    -0.0371289288541    
8700000000.0        -0.0110241704833    -0.0374912200014    0.935137411901      -0.343476526145     0.935137411901      -0.343476526145     -0.0110241704833    -0.0374912200014    
8800000000.0        -0.0113267308872    -0.0378511325388    0.933716177664      -0.347256446842     0.933716177664      -0.347256446842     -0.0113267308872    -0.0378511325388    
8900000000.0        -0.0116321922078    -0.0382086421336    0.932279438716      -0.351030598313     0.932279438716      -0.351030598313     -0.0116321922078    -0.0382086421336    
9000000000.0        -0.011940535        -0.038563724597     0.930827219033      -0.354798916315     0.930827219033      -0.354798916315     -0.011940535        -0.038563724597     
9100000000.0        -0.0122517396154    -0.0389163558867    0.929359542879      -0.358561336707     0.929359542879      -0.358561336707     -0.0122517396154    -0.0389163558867    
9200000000.0        -0.0125657862033    -0.039266512108     0.927876434803      -0.362317795453     0.927876434803      -0.362317795453     -0.0125657862033    -0.039266512108     
9300000000.0        -0.0128826547119    -0.0396141695168    0.926377919639      -0.366068228624     0.926377919639      -0.366068228624     -0.0128826547119    -0.0396141695168    
9400000000.0        -0.013202324889     -0.0399593045208    0.924864022505      -0.369812572402     0.924864022505      -0.369812572402     -0.013202324889     -0.0399593045208    
9500000000.0        -0.0135247762832    -0.0403018936817    0.9233347688        -0.373550763077     0.9233347688        -0.373550763077     -0.0135247762832    -0.0403018936817    
9600000000.0        -0.0138499882449    -0.0406419137175    0.921790184207      -0.377282737054     0.921790184207      -0.377282737054     -0.0138499882449    -0.0406419137175    
9700000000.0        -0.0141779399275    -0.040979341504     0.920230294689      -0.381008430851     0.920230294689      -0.381008430851     -0.0141779399275    -0.040979341504     
9800000000.0        -0.0145086102885    -0.0413141540768    0.91865512649       -0.384727781102     0.91865512649       -0.384727781102     -0.0145086102885    -0.0413141540768    
9900000000.0        -0.0148419780903    -0.0416463286336    0.917064706133      -0.388440724557     0.917064706133      -0.388440724557     -0.0148419780903    -0.0416463286336    
10000000000.0       -0.0151780219022    -0.0419758425356    0.91545906042       -0.392147198089     0.91545906042       -0.392147198089     -0.0151780219022    -0.0419758425356    
