# Hz S RI R 50.00 
100000000.0         0.00288334000842    0.000667999475099   0.997114982307      -0.00122775997951   0.997114982307      -0.00122775997951   0.00288334000842    0.000667999475099   
200000000.0         0.00290466688646    0.00133592307252    0.997092664096      -0.00245544745774   0.997092664096      -0.00245544745774   0.00290466688646    0.00133592307252    
300000000.0         0.00292253924442    0.00200379588002    0.997073486742      -0.00368308957587   0.997073486742      -0.00368308957587   0.00292253924442    0.00200379588002    
400000000.0         0.0029394582818     0.00267162383235    0.997054949026      -0.00491069386251   0.997054949026      -0.00491069386251   0.0029394582818     0.00267162383235    
500000000.0         0.00295638790639    0.00333940839721    0.99703608702       -0.00613826314846   0.99703608702       -0.00613826314846   0.00295638790639    0.00333940839721    
600000000.0         0.00297381999779    0.00400714906126    0.997016408821      -0.00736579813264   0.997016408821      -0.00736579813264   0.00297381999779    0.00400714906126    
700000000.0         0.00299204527353    0.00467484422437    0.996995623685      -0.00859329831715   0.996995623685      -0.00859329831715   0.00299204527353    0.00467484422437    
800000000.0         0.00301125216745    0.00534249161463    0.996973543151      -0.00982076244715   0.996973543151      -0.00982076244715   0.00301125216745    0.00534249161463    
900000000.0         0.00303157086415    0.00601008851171    0.996950037004      -0.01104818875      0.996950037004      -0.01104818875      0.00303157086415    0.00601008851171    
1000000000.0        0.00305309562323    0.00667763187921    0.996925010953      -0.0122755750792    0.996925010953      -0.0122755750792    0.00305309562323    0.00667763187921    
1100000000.0        0.00307589719147    0.00734511844859    0.996898394218      -0.0135029190062    0.996898394218      -0.0135029190062    0.00307589719147    0.00734511844859    
1200000000.0        0.00310003020004    0.0080125447756     0.996870132131      -0.0147302178837    0.996870132131      -0.0147302178837    0.00310003020004    0.0080125447756     
1300000000.0        0.0031255378194     0.00867990727951    0.996840181487      -0.0159574688899    0.996840181487      -0.0159574688899    0.0031255378194     0.00867990727951    
1400000000.0        0.00315245481932    0.00934720227157    0.996808507475      -0.0171846690606    0.996808507475      -0.0171846690606    0.00315245481932    0.00934720227157    
1500000000.0        0.00318080965446    0.0100144259761     0.9967750816        -0.0184118153138    0.9967750816        -0.0184118153138    0.00318080965446    0.0100144259761     
1600000000.0        0.00321062592934    0.0106815745465     0.996739880218      -0.0196389044686    0.996739880218      -0.0196389044686    0.00321062592934    0.0106815745465     
1700000000.0        0.00324192345421    0.0113486440777     0.996702883473      -0.0208659332597    0.996702883473      -0.0208659332597    0.00324192345421    0.0113486440777     
1800000000.0        0.00327471902311    0.0120156306158     0.996664074526      -0.0220928983496    0.996664074526      -0.0220928983496    0.00327471902311    0.0120156306158     
1900000000.0        0.00330902699851    0.0126825301662     0.99662343897       -0.0233197963375    0.99662343897       -0.0233197963375    0.00330902699851    0.0126825301662     
2000000000.0        0.00334485975796    0.0133493386998     0.996580964379      -0.0245466237679    0.996580964379      -0.0245466237679    0.00334485975796    0.0133493386998     
2100000000.0        0.00338222804057    0.0140160521579     0.996536639965      -0.0257733771365    0.996536639965      -0.0257733771365    0.00338222804057    0.0140160521579     
2200000000.0        0.00342114121954    0.0146826664572     0.996490456304      -0.0270000528962    0.996490456304      -0.0270000528962    0.00342114121954    0.0146826664572     
2300000000.0        0.00346160751888    0.0153491774929     0.996442405121      -0.0282266474614    0.996442405121      -0.0282266474614    0.00346160751888    0.0153491774929     
2400000000.0        0.00350363418785    0.0160155811417     0.996392479114      -0.029453157212     0.996392479114      -0.029453157212     0.00350363418785    0.0160155811417     
2500000000.0        0.00354722764265    0.0166818732649     0.996340671813      -0.0306795784971    0.996340671813      -0.0306795784971    0.00354722764265    0.0166818732649     
2600000000.0        0.00359239358259    0.01734804971       0.996286977464      -0.0319059076378    0.996286977464      -0.0319059076378    0.00359239358259    0.01734804971       
2700000000.0        0.00363913708611    0.018014106313      0.996231390931      -0.0331321409297    0.996231390931      -0.0331321409297    0.00363913708611    0.018014106313      
2800000000.0        0.00368746269077    0.0186800389002     0.99617390762       -0.0343582746454    0.99617390762       -0.0343582746454    0.00368746269077    0.0186800389002     
2900000000.0        0.00373737446033    0.0193458432889     0.996114523409      -0.0355843050365    0.996114523409      -0.0355843050365    0.00373737446033    0.0193458432889     
3000000000.0        0.00378887604136    0.0200115152898     0.996053234592      -0.0368102283352    0.996053234592      -0.0368102283352    0.00378887604136    0.0200115152898     
3100000000.0        0.00384197071136    0.0206770507068     0.995990037831      -0.038036040756     0.995990037831      -0.038036040756     0.00384197071136    0.0206770507068     
3200000000.0        0.00389666141983    0.0213424453393     0.995924930114      -0.0392617384974    0.995924930114      -0.0392617384974    0.00389666141983    0.0213424453393     
3300000000.0        0.00395295082352    0.0220076949821     0.995857908723      -0.0404873177428    0.995857908723      -0.0404873177428    0.00395295082352    0.0220076949821     
3400000000.0        0.00401084131684    0.0226727954265     0.9957889712        -0.0417127746619    0.9957889712        -0.0417127746619    0.00401084131684    0.0226727954265     
3500000000.0        0.00407033505827    0.0233377424611     0.995718115321      -0.0429381054116    0.995718115321      -0.0429381054116    0.00407033505827    0.0233377424611     
3600000000.0        0.00413143399324    0.0240025318724     0.995645339077      -0.0441633061374    0.995645339077      -0.0441633061374    0.00413143399324    0.0240025318724     
3700000000.0        0.00419413987422    0.0246671594453     0.995570640647      -0.0453883729737    0.995570640647      -0.0453883729737    0.00419413987422    0.0246671594453     
3800000000.0        0.00425845427833    0.0253316209635     0.995494018389      -0.0466133020448    0.995494018389      -0.0466133020448    0.00425845427833    0.0253316209635     
3900000000.0        0.00432437862275    0.02599591221       0.995415470817      -0.047838089466     0.995415470817      -0.047838089466     0.00432437862275    0.02599591221       
4000000000.0        0.00439191417847    0.026660028968      0.995334996591      -0.0490627313438    0.995334996591      -0.0490627313438    0.00439191417847    0.026660028968      
4100000000.0        0.00446106208239    0.0273239670203     0.995252594505      -0.0502872237769    0.995252594505      -0.0502872237769    0.00446106208239    0.0273239670203     
4200000000.0        0.00453182334808    0.0279877221507     0.995168263473      -0.0515115628564    0.995168263473      -0.0515115628564    0.00453182334808    0.0279877221507     
4300000000.0        0.00460419887539    0.0286512901436     0.995082002526      -0.0527357446669    0.995082002526      -0.0527357446669    0.00460419887539    0.0286512901436     
4400000000.0        0.00467818945908    0.0293146667846     0.994993810797      -0.0539597652864    0.994993810797      -0.0539597652864    0.00467818945908    0.0293146667846     
4500000000.0        0.00475379579643    0.0299778478606     0.994903687514      -0.0551836207872    0.994903687514      -0.0551836207872    0.00475379579643    0.0299778478606     
4600000000.0        0.00483101849426    0.0306408291604     0.994811631999      -0.0564073072362    0.994811631999      -0.0564073072362    0.00483101849426    0.0306408291604     
4700000000.0        0.00490985807508    0.0313036064744     0.994717643653      -0.0576308206953    0.994717643653      -0.0576308206953    0.00490985807508    0.0313036064744     
4800000000.0        0.00499031498276    0.0319661755952     0.994621721958      -0.0588541572218    0.994621721958      -0.0588541572218    0.00499031498276    0.0319661755952     
4900000000.0        0.0050723895876     0.0326285323178     0.994523866467      -0.0600773128688    0.994523866467      -0.0600773128688    0.0050723895876     0.0326285323178     
5000000000.0        0.00515608219095    0.0332906724395     0.994424076804      -0.0613002836855    0.994424076804      -0.0613002836855    0.00515608219095    0.0332906724395     
5100000000.0        0.0052413930294     0.0339525917603     0.994322352653      -0.0625230657176    0.994322352653      -0.0625230657176    0.0052413930294     0.0339525917603     
5200000000.0        0.0053283222786     0.034614286083      0.994218693762      -0.0637456550074    0.994218693762      -0.0637456550074    0.0053283222786     0.034614286083      
5300000000.0        0.00541687005676    0.0352757512135     0.994113099933      -0.0649680475944    0.994113099933      -0.0649680475944    0.00541687005676    0.0352757512135     
5400000000.0        0.00550703642778    0.0359369829606     0.994005571024      -0.0661902395154    0.994005571024      -0.0661902395154    0.00550703642778    0.0359369829606     
5500000000.0        0.00559882140423    0.0365979771364     0.993896106941      -0.0674122268048    0.993896106941      -0.0674122268048    0.00559882140423    0.0365979771364     
5600000000.0        0.00569222494994    0.0372587295564     0.993784707642      -0.0686340054946    0.993784707642      -0.0686340054946    0.00569222494994    0.0372587295564     
5700000000.0        0.00578724698252    0.0379192360395     0.993671373126      -0.0698555716152    0.993671373126      -0.0698555716152    0.00578724698252    0.0379192360395     
5800000000.0        0.0058838873756     0.0385794924082     0.993556103438      -0.0710769211952    0.993556103438      -0.0710769211952    0.0058838873756     0.0385794924082     
5900000000.0        0.00598214596085    0.0392394944886     0.993438898665      -0.0722980502615    0.993438898665      -0.0722980502615    0.00598214596085    0.0392394944886     
6000000000.0        0.00608202252997    0.0398992381107     0.993319758932      -0.0735189548399    0.993319758932      -0.0735189548399    0.00608202252997    0.0398992381107     
6100000000.0        0.00618351683641    0.0405587191085     0.993198684401      -0.0747396309551    0.993198684401      -0.0747396309551    0.00618351683641    0.0405587191085     
6200000000.0        0.00628662859705    0.0412179333195     0.993075675272      -0.0759600746309    0.993075675272      -0.0759600746309    0.00628662859705    0.0412179333195     
6300000000.0        0.00639135749366    0.0418768765858     0.992950731779      -0.0771802818904    0.992950731779      -0.0771802818904    0.00639135749366    0.0418768765858     
6400000000.0        0.00649770317435    0.0425355447533     0.992823854188      -0.078400248756     0.992823854188      -0.078400248756     0.00649770317435    0.0425355447533     
6500000000.0        0.00660566525485    0.0431939336722     0.992695042797      -0.0796199712499    0.992695042797      -0.0796199712499    0.00660566525485    0.0431939336722     
6600000000.0        0.00671524331974    0.0438520391969     0.992564297935      -0.0808394453941    0.992564297935      -0.0808394453941    0.00671524331974    0.0438520391969     
6700000000.0        0.00682643692357    0.0445098571862     0.992431619962      -0.0820586672103    0.992431619962      -0.0820586672103    0.00682643692357    0.0445098571862     
6800000000.0        0.00693924559194    0.0451673835034     0.992297009265      -0.0832776327206    0.992297009265      -0.0832776327206    0.00693924559194    0.0451673835034     
6900000000.0        0.00705366882241    0.0458246140162     0.992160466257      -0.0844963379471    0.992160466257      -0.0844963379471    0.00705366882241    0.0458246140162     
7000000000.0        0.00716970608552    0.0464815445968     0.992021991381      -0.0857147789123    0.992021991381      -0.0857147789123    0.00716970608552    0.0464815445968     
7100000000.0        0.00728735682556    0.0471381711221     0.991881585102      -0.0869329516393    0.991881585102      -0.0869329516393    0.00728735682556    0.0471381711221     
7200000000.0        0.00740662046141    0.0477944894736     0.991739247914      -0.0881508521519    0.991739247914      -0.0881508521519    0.00740662046141    0.0477944894736     
7300000000.0        0.00752749638732    0.0484504955375     0.991594980331      -0.0893684764743    0.991594980331      -0.0893684764743    0.00752749638732    0.0484504955375     
7400000000.0        0.00764998397354    0.0491061852049     0.991448782893      -0.090585820632     0.991448782893      -0.090585820632     0.00764998397354    0.0491061852049     
7500000000.0        0.00777408256706    0.0497615543715     0.991300656163      -0.0918028806512    0.991300656163      -0.0918028806512    0.00777408256706    0.0497615543715     
7600000000.0        0.00789979149219    0.0504165989381     0.991150600725      -0.0930196525594    0.991150600725      -0.0930196525594    0.00789979149219    0.0504165989381     
7700000000.0        0.00802711005117    0.0510713148103     0.990998617185      -0.0942361323853    0.990998617185      -0.0942361323853    0.00802711005117    0.0510713148103     
7800000000.0        0.00815603752468    0.0517256978987     0.990844706171      -0.0954523161587    0.990844706171      -0.0954523161587    0.00815603752468    0.0517256978987     
7900000000.0        0.00828657317242    0.0523797441189     0.990688868331      -0.0966681999112    0.990688868331      -0.0966681999112    0.00828657317242    0.0523797441189     
8000000000.0        0.00841871623354    0.0530334493915     0.990531104331      -0.0978837796756    0.990531104331      -0.0978837796756    0.00841871623354    0.0530334493915     
8100000000.0        0.00855246592715    0.0536868096423     0.990371414861      -0.0990990514866    0.990371414861      -0.0990990514866    0.00855246592715    0.0536868096423     
8200000000.0        0.00868782145273    0.0543398208023     0.990209800627      -0.100314011381     0.990209800627      -0.100314011381     0.00868782145273    0.0543398208023     
8300000000.0        0.00882478199057    0.0549924788075     0.990046262354      -0.101528655395     0.990046262354      -0.101528655395     0.00882478199056    0.0549924788075     
8400000000.0        0.0089633467021     0.0556447795993     0.989880800787      -0.102742979571     0.989880800787      -0.102742979571     0.0089633467021     0.0556447795993     
8500000000.0        0.00910351473035    0.0562967191242     0.989713416687      -0.103956979951     0.989713416687      -0.103956979951     0.00910351473035    0.0562967191242     
8600000000.0        0.00924528520024    0.0569482933342     0.989544110835      -0.105170652577     0.989544110835      -0.105170652577     0.00924528520024    0.0569482933342     
8700000000.0        0.00938865721891    0.0575994981865     0.989372884027      -0.106383993497     0.989372884027      -0.106383993497     0.00938865721891    0.0575994981865     
8800000000.0        0.0095336298761     0.0582503296437     0.989199737078      -0.10759699876      0.989199737078      -0.10759699876      0.0095336298761     0.0582503296437     
8900000000.0        0.00968020224436    0.0589007836738     0.989024670819      -0.108809664415     0.989024670819      -0.108809664415     0.00968020224436    0.0589007836738     
9000000000.0        0.00982837337942    0.0595508562504     0.988847686098      -0.110021986518     0.988847686098      -0.110021986518     0.00982837337942    0.0595508562504     
9100000000.0        0.00997814232041    0.0602005433525     0.988668783778      -0.111233961122     0.988668783778      -0.111233961122     0.00997814232041    0.0602005433525     
9200000000.0        0.0101295080901     0.0608498409644     0.98848796474       -0.112445584288     0.98848796474       -0.112445584288     0.0101295080901     0.0608498409644     
9300000000.0        0.0102824696953     0.0614987450762     0.988305229877      -0.113656852076     0.988305229877      -0.113656852076     0.0102824696953     0.0614987450762     
9400000000.0        0.0104370261269     0.0621472516837     0.988120580103      -0.11486776055      0.988120580103      -0.11486776055      0.0104370261269     0.0621472516837     
9500000000.0        0.0105931763602     0.0627953567879     0.987934016342      -0.116078305776     0.987934016342      -0.116078305776     0.0105931763602     0.0627953567879     
9600000000.0        0.0107509193549     0.0634430563959     0.987745539537      -0.117288483825     0.987745539537      -0.117288483825     0.0107509193549     0.0634430563959     
9700000000.0        0.0109102540559     0.0640903465203     0.987555150643      -0.118498290768     0.987555150643      -0.118498290768     0.0109102540559     0.0640903465203     
9800000000.0        0.0110711793929     0.0647372231792     0.987362850632      -0.11970772268      0.987362850632      -0.11970772268      0.0110711793929     0.0647372231792     
9900000000.0        0.0112336942806     0.0653836823967     0.987168640489      -0.120916775642     0.987168640489      -0.120916775642     0.0112336942806     0.0653836823967     
10000000000.0       0.0113977976194     0.0660297202028     0.986972521213      -0.122125445733     0.986972521213      -0.122125445733     0.0113977976194     0.0660297202028     
