# Hz S RI R 50.00 
100000000.0         0.0445264923959     0.00370594993608    0.955470528454      -0.00497544971351   0.955470528454      -0.00497544971351   0.0445264923959     0.00370594993608    
200000000.0         0.0448646992903     0.00740628017021    0.955128705375      -0.00994528771085   0.955128705375      -0.00994528771085   0.0448646992903     0.00740628017021    
300000000.0         0.0451654268603     0.0111025592406     0.954822724199      -0.014911090368     0.954822724199      -0.014911090368     0.0451654268603     0.0111025592406     
400000000.0         0.0454657776662     0.014795001742      0.954515482024      -0.0198730793627    0.954515482024      -0.0198730793627    0.0454657776662     0.014795001742      
500000000.0         0.0457800344293     0.0184835082998     0.954192695793      -0.0248311620251    0.954192695793      -0.0248311620251    0.0457800344293     0.0184835082998     
600000000.0         0.0461154632329     0.0221678412342     0.953847099069      -0.0297851071339    0.953847099069      -0.0297851071339    0.0461154632329     0.0221678412342     
700000000.0         0.046476333761      0.0258476877101     0.953474421793      -0.0347346081333    0.953474421793      -0.0347346081333    0.046476333761      0.0258476877101     
800000000.0         0.0468653874612     0.0295226890899     0.953071922117      -0.0396793125264    0.953071922117      -0.0396793125264    0.0468653874612     0.0295226890899     
900000000.0         0.0472844916148     0.0331924567619     0.952637732331      -0.0446188377294    0.952637732331      -0.0446188377294    0.0472844916148     0.0331924567619     
1000000000.0        0.0477349710503     0.0368565815696     0.952170527147      -0.0495527805208    0.952170527147      -0.0495527805208    0.0477349710503     0.0368565815696     
1100000000.0        0.0482177926398     0.0405146398566     0.9516693392        -0.054480723098     0.9516693392        -0.054480723098     0.0482177926398     0.0405146398566     
1200000000.0        0.0487336752992     0.0441661975637     0.951133449053      -0.059402237187     0.951133449053      -0.059402237187     0.0487336752992     0.0441661975637     
1300000000.0        0.0492831592416     0.0478108131389     0.950562315935      -0.0643168869586    0.950562315935      -0.0643168869586    0.0492831592416     0.0478108131389     
1400000000.0        0.0498666515335     0.0514480396804     0.949955532192      -0.06922423118      0.949955532192      -0.06922423118      0.0498666515335     0.0514480396804     
1500000000.0        0.0504844571691     0.0550774265703     0.949312792205      -0.0741238248522    0.949312792205      -0.0741238248522    0.0504844571691     0.0550774265703     
1600000000.0        0.0511368009224     0.0586985207523     0.948633870545      -0.0790152204934    0.948633870545      -0.0790152204934    0.0511368009224     0.0586985207523     
1700000000.0        0.0518238431218     0.0623108677584     0.947918606192      -0.0838979691686    0.947918606192      -0.0838979691686    0.0518238431218     0.0623108677584     
1800000000.0        0.0525456912966     0.0659140125501     0.947166890891      -0.0887716213352    0.947166890891      -0.0887716213352    0.0525456912966     0.0659140125501     
1900000000.0        0.0533024089512     0.0695075002233     0.94637866038       -0.0936357275492    0.94637866038       -0.0936357275492    0.0533024089512     0.0695075002233     
2000000000.0        0.0540940222914     0.0730908766066     0.94555388766       -0.0984898390677    0.94555388766       -0.0984898390677    0.0540940222914     0.0730908766066     
2100000000.0        0.0549205254656     0.0766636887806     0.944692577752      -0.103333508369     0.944692577752      -0.103333508369     0.0549205254656     0.0766636887806     
2200000000.0        0.0557818847076     0.0802254855304     0.943794763563      -0.108166289607     0.943794763563      -0.108166289607     0.0557818847076     0.0802254855304     
2300000000.0        0.0566780416561     0.0837758177496     0.942860502555      -0.112987739018     0.942860502555      -0.112987739018     0.0566780416561     0.0837758177496     
2400000000.0        0.0576089160465     0.0873142388003     0.941889874063      -0.117797415282     0.941889874063      -0.117797415282     0.0576089160465     0.0873142388003     
2500000000.0        0.0585744079213     0.0908403048403     0.940882977077      -0.12259487985      0.940882977077      -0.12259487985      0.0585744079213     0.0908403048403     
2600000000.0        0.0595743994627     0.0943535751213     0.939839928415      -0.127379697245     0.939839928415      -0.127379697245     0.0595743994627     0.0943535751213     
2700000000.0        0.0606087565302     0.0978536122626     0.938760861182      -0.132151435336     0.938760861182      -0.132151435336     0.0606087565302     0.0978536122626     
2800000000.0        0.0616773299626     0.101339982505      0.937645923469      -0.136909665593     0.937645923469      -0.136909665593     0.0616773299626     0.101339982505      
2900000000.0        0.0627799566913     0.104812255945      0.936495277241      -0.141653963323     0.936495277241      -0.141653963323     0.0627799566913     0.104812255945      
3000000000.0        0.0639164607014     0.108270006757      0.935309097374      -0.14638390789      0.935309097374      -0.14638390789      0.0639164607014     0.108270006757      
3100000000.0        0.0650866538691     0.111712813397      0.934087570816      -0.151099082925     0.934087570816      -0.151099082925     0.0650866538691     0.111712813397      
3200000000.0        0.0662903366975     0.115140258798      0.932830895858      -0.155799076518     0.932830895858      -0.155799076518     0.0662903366975     0.115140258798      
3300000000.0        0.0675272989683     0.118551930552      0.931539281474      -0.160483481399     0.931539281474      -0.160483481399     0.0675272989683     0.118551930552      
3400000000.0        0.0687973203255     0.12194742108       0.930212946743      -0.165151895116     0.930212946743      -0.165151895116     0.0687973203255     0.12194742108       
3500000000.0        0.0701001707996     0.1253263278        0.928852120321      -0.169803920197     0.928852120321      -0.169803920197     0.0701001707996     0.1253263278        
3600000000.0        0.0714356112849     0.128688253277      0.927457039967      -0.174439164301     0.927457039967      -0.174439164301     0.0714356112849     0.128688253277      
3700000000.0        0.0728033939757     0.132032805371      0.926027952105      -0.179057240371     0.926027952105      -0.179057240371     0.0728033939757     0.132032805371      
3800000000.0        0.0742032627674     0.135359597378      0.924565111424      -0.183657766768     0.924565111424      -0.183657766768     0.0742032627674     0.135359597378      
3900000000.0        0.0756349536294     0.138668248154      0.923068780502      -0.188240367406     0.923068780502      -0.188240367406     0.0756349536294     0.138668248154      
4000000000.0        0.0770981949525     0.141958382248      0.921539229463      -0.192804671876     0.921539229463      -0.192804671876     0.0770981949525     0.141958382248      
4100000000.0        0.0785927078752     0.145229630015      0.919976735648      -0.197350315563     0.919976735648      -0.197350315563     0.0785927078752     0.145229630015      
4200000000.0        0.0801182065916     0.148481627729      0.918381583308      -0.201876939762     0.918381583308      -0.201876939762     0.0801182065916     0.148481627729      
4300000000.0        0.0816743986433     0.15171401769       0.91675406331       -0.206384191777     0.91675406331       -0.206384191777     0.0816743986433     0.15171401769       
4400000000.0        0.0832609851982     0.15492644832       0.915094472862      -0.210871725029     0.915094472862      -0.210871725029     0.0832609851982     0.15492644832       
4500000000.0        0.0848776613167     0.158118574259      0.913403115244      -0.215339199145     0.913403115244      -0.215339199145     0.0848776613167     0.158118574259      
4600000000.0        0.0865241162076     0.161290056455      0.911680299552      -0.219786280048     0.911680299552      -0.219786280048     0.0865241162076     0.161290056455      
4700000000.0        0.0882000334754     0.164440562243      0.909926340452      -0.224212640039     0.909926340452      -0.224212640039     0.0882000334754     0.164440562243      
4800000000.0        0.0899050913586     0.167569765426      0.908141557942      -0.228617957878     0.908141557942      -0.228617957878     0.0899050913586     0.167569765426      
4900000000.0        0.0916389629617     0.170677346345      0.906326277118      -0.233001918854     0.906326277118      -0.233001918854     0.0916389629617     0.170677346345      
5000000000.0        0.0934013164803     0.173762991946      0.90448082795       -0.23736421485      0.90448082795       -0.23736421485      0.0934013164803     0.173762991946      
5100000000.0        0.0951918154202     0.176826395846      0.902605545063      -0.241704544413     0.902605545063      -0.241704544413     0.0951918154202     0.176826395846      
5200000000.0        0.0970101188126     0.179867258384      0.900700767523      -0.246022612802     0.900700767523      -0.246022612802     0.0970101188126     0.179867258384      
5300000000.0        0.0988558814226     0.182885286677      0.898766838624      -0.250318132049     0.898766838624      -0.250318132049     0.0988558814226     0.182885286677      
5400000000.0        0.100728753955      0.18588019467       0.896804105688      -0.254590821001     0.896804105688      -0.254590821001     0.100728753955      0.18588019467       
5500000000.0        0.102628383257      0.188851703172      0.894812919859      -0.258840405365     0.894812919859      -0.258840405365     0.102628383257      0.188851703172      
5600000000.0        0.104554412513      0.1917995399        0.892793635907      -0.263066617748     0.892793635907      -0.263066617748     0.104554412513      0.1917995399        
5700000000.0        0.10650648144       0.194723439512      0.890746612036      -0.267269197689     0.890746612036      -0.267269197689     0.10650648144       0.194723439512      
5800000000.0        0.108484226481      0.197623143634      0.888672209688      -0.271447891687     0.888672209688      -0.271447891687     0.108484226481      0.197623143634      
5900000000.0        0.110487280989      0.200498400886      0.886570793361      -0.275602453232     0.886570793361      -0.275602453232     0.110487280989      0.200498400886      
6000000000.0        0.112515275415      0.203348966902      0.884442730417      -0.279732642819     0.884442730417      -0.279732642819     0.112515275415      0.203348966902      
6100000000.0        0.114567837489      0.206174604349      0.882288390907      -0.283838227968     0.882288390907      -0.283838227968     0.114567837489      0.206174604349      
6200000000.0        0.116644592399      0.208975082936      0.880108147386      -0.287918983236     0.880108147386      -0.287918983236     0.116644592399      0.208975082936      
6300000000.0        0.118745162968      0.211750179422      0.877902374738      -0.291974690225     0.877902374738      -0.291974690225     0.118745162968      0.211750179422      
6400000000.0        0.120869169832      0.214499677625      0.875671450002      -0.296005137585     0.875671450002      -0.296005137585     0.120869169832      0.214499677625      
6500000000.0        0.123016231604      0.217223368414      0.873415752201      -0.300010121019     0.873415752201      -0.300010121019     0.123016231604      0.217223368414      
6600000000.0        0.125185965051      0.219921049713      0.871135662171      -0.303989443271     0.871135662171      -0.303989443271     0.125185965051      0.219921049713      
6700000000.0        0.127377985256      0.222592526488      0.868831562393      -0.307942914128     0.868831562393      -0.307942914128     0.127377985256      0.222592526488      
6800000000.0        0.129591905786      0.225237610741      0.866503836832      -0.311870350401     0.866503836832      -0.311870350401     0.129591905786      0.225237610741      
6900000000.0        0.131827338849      0.227856121488      0.864152870774      -0.315771575918     0.864152870774      -0.315771575918     0.131827338849      0.227856121488      
7000000000.0        0.134083895457      0.230447884749      0.861779050664      -0.319646421497     0.861779050664      -0.319646421497     0.134083895457      0.230447884749      
7100000000.0        0.136361185584      0.23301273352       0.859382763953      -0.323494724933     0.859382763953      -0.323494724933     0.136361185584      0.23301273352       
7200000000.0        0.138658818316      0.235550507749      0.85696439894       -0.327316330966     0.85696439894       -0.327316330966     0.138658818316      0.235550507749      
7300000000.0        0.140976402008      0.23806105431       0.854524344621      -0.331111091257     0.854524344621      -0.331111091257     0.140976402008      0.23806105431       
7400000000.0        0.143313544429      0.24054422697       0.852062990541      -0.334878864354     0.852062990541      -0.334878864354     0.143313544429      0.24054422697       
7500000000.0        0.145669852913      0.242999886352      0.849580726644      -0.33861951566      0.849580726644      -0.33861951566      0.145669852913      0.242999886352      
7600000000.0        0.148044934502      0.2454278999        0.847077943131      -0.342332917392     0.847077943131      -0.342332917392     0.148044934502      0.2454278999        
7700000000.0        0.150438396085      0.247828141836      0.844555030316      -0.346018948542     0.844555030316      -0.346018948542     0.150438396085      0.247828141836      
7800000000.0        0.152849844545      0.250200493121      0.842012378488      -0.349677494834     0.842012378488      -0.349677494834     0.152849844545      0.250200493121      
7900000000.0        0.155278886886      0.2525448414        0.839450377772      -0.353308448676     0.839450377772      -0.353308448676     0.155278886886      0.2525448414        
8000000000.0        0.157725130377      0.254861080962      0.836869417998      -0.356911709112     0.836869417998      -0.356911709112     0.157725130377      0.254861080962      
8100000000.0        0.160188182675      0.257149112682      0.834269888566      -0.360487181771     0.834269888566      -0.360487181771     0.160188182675      0.257149112682      
8200000000.0        0.162667651962      0.25940884397       0.831652178317      -0.364034778811     0.831652178317      -0.364034778811     0.162667651962      0.25940884397       
8300000000.0        0.165163147063      0.261640188712      0.829016675411      -0.367554418866     0.829016675411      -0.367554418866     0.165163147063      0.261640188712      
8400000000.0        0.167674277578      0.263843067214      0.826363767195      -0.37104602698      0.826363767195      -0.37104602698      0.167674277578      0.263843067214      
8500000000.0        0.170200653998      0.266017406136      0.823693840092      -0.374509534555     0.823693840092      -0.374509534555     0.170200653998      0.266017406136      
8600000000.0        0.172741887825      0.268163138435      0.821007279473      -0.377944879281     0.821007279473      -0.377944879281     0.172741887825      0.268163138435      
8700000000.0        0.175297591686      0.270280203293      0.818304469547      -0.381352005072     0.818304469547      -0.381352005072     0.175297591686      0.270280203293      
8800000000.0        0.177867379448      0.272368546055      0.815585793247      -0.384730862001     0.815585793247      -0.384730862001     0.177867379448      0.272368546055      
8900000000.0        0.180450866328      0.274428118155      0.812851632119      -0.388081406227     0.812851632119      -0.388081406227     0.180450866328      0.274428118155      
9000000000.0        0.183047668999      0.276458877048      0.810102366212      -0.391403599928     0.810102366212      -0.391403599928     0.183047668999      0.276458877048      
9100000000.0        0.185657405696      0.278460786136      0.80733837398       -0.394697411224     0.80733837398       -0.394697411224     0.185657405696      0.278460786136      
9200000000.0        0.188279696318      0.280433814693      0.804560032173      -0.397962814106     0.804560032173      -0.397962814106     0.188279696318      0.280433814693      
9300000000.0        0.190914162527      0.282377937791      0.801767715739      -0.401199788357     0.801767715739      -0.401199788357     0.190914162527      0.282377937791      
9400000000.0        0.193560427842      0.284293136217      0.798961797732      -0.404408319478     0.798961797732      -0.404408319478     0.193560427842      0.284293136217      
9500000000.0        0.196218117739      0.286179396403      0.796142649211      -0.407588398606     0.796142649211      -0.407588398606     0.196218117739      0.286179396403      
9600000000.0        0.198886859736      0.288036710336      0.793310639156      -0.410740022435     0.793310639156      -0.410740022435     0.198886859736      0.288036710336      
9700000000.0        0.201566283483      0.289865075483      0.790466134375      -0.413863193133     0.790466134375      -0.413863193133     0.201566283483      0.289865075483      
9800000000.0        0.204256020849      0.291664494707      0.787609499419      -0.416957918265     0.787609499419      -0.416957918265     0.204256020849      0.291664494707      
9900000000.0        0.206955706003      0.293434976182      0.784741096499      -0.420024210701     0.784741096499      -0.420024210701     0.206955706003      0.293434976182      
10000000000.0       0.209664975496      0.295176533309      0.781861285409      -0.423062088538     0.781861285409      -0.423062088538     0.209664975496      0.295176533309      
