# Hz S RI R 50.00 
100000000.0         -0.000934593319101  -0.0305949179708    0.998971229581      -0.0310386815156    0.998971229581      -0.0310386815156    -0.000934593319101  -0.0305949179708    
200000000.0         -0.00380530963291   -0.0610101034645    0.996099575438      -0.0618977364051    0.996099575438      -0.0618977364051    -0.00380530963291   -0.0610101034645    
300000000.0         -0.00853322641851   -0.0910735624515    0.991370685033      -0.0924052275225    0.991370685033      -0.0924052275225    -0.00853322641851   -0.0910735624515    
400000000.0         -0.0150651369759    -0.12062002905      0.984837683812      -0.122395933263     0.984837683812      -0.122395933263     -0.0150651369759    -0.12062002905      
500000000.0         -0.0233289688783    -0.149493809069     0.976572612809      -0.151714197147     0.976572612809      -0.151714197147     -0.0233289688783    -0.149493809069     
600000000.0         -0.033235719223     -0.177551303614     0.966664458756      -0.180216453539     0.966664458756      -0.180216453539     -0.033235719223     -0.177551303614     
700000000.0         -0.0446817738666    -0.204663101493     0.955216826064      -0.207773321144     0.955216826064      -0.207773321144     -0.0446817738666    -0.204663101493     
800000000.0         -0.0575514932631    -0.230715580576     0.942345347793      -0.234271205022     0.942345347793      -0.234271205022     -0.0575514932631    -0.230715580576     
900000000.0         -0.0717199496714    -0.25561199067      0.928174947025      -0.259613379913     0.928174947025      -0.259613379913     -0.0717199496714    -0.25561199067      
1000000000.0        -0.0870557038474    -0.279273019091     0.912837059456      -0.283720556117     0.912837059456      -0.283720556117     -0.0870557038474    -0.279273019091     
1100000000.0        -0.103423518429     -0.301636865054     0.896466919615      -0.306530954134     0.896466919615      -0.306530954134     -0.103423518429     -0.301636865054     
1200000000.0        -0.120686919317     -0.322658869336     0.879200999249      -0.327999934513     0.879200999249      -0.327999934513     -0.120686919317     -0.322658869336     
1300000000.0        -0.138710533848     -0.342310760589     0.861174669004      -0.348099244317     0.861174669004      -0.348099244317     -0.138710533848     -0.342310760589     
1400000000.0        -0.157362153735     -0.360579588943     0.842520135388      -0.36681595086      0.842520135388      -0.36681595086      -0.157362153735     -0.360579588943     
1500000000.0        -0.176514489984     -0.377466421496     0.823364685786      -0.384151137301     0.823364685786      -0.384151137301     -0.176514489984     -0.377466421496     
1600000000.0        -0.196046605011     -0.392984873432     0.803829256309      -0.400118433859     0.803829256309      -0.400118433859     -0.196046605011     -0.392984873432     
1700000000.0        -0.215845022878     -0.4071595439       0.784027321514      -0.414742453778     0.784027321514      -0.414742453778     -0.215845022878     -0.4071595439       
1800000000.0        -0.235804531545     -0.420024418359     0.764064092136      -0.428057195737     0.764064092136      -0.428057195737     -0.235804531545     -0.420024418359     
1900000000.0        -0.255828700767     -0.431621289894     0.744035997172      -0.440104465245     0.744035997172      -0.440104465245     -0.255828700767     -0.431621289894     
2000000000.0        -0.275830146091     -0.441998242032     0.724030419871      -0.450932357505     0.724030419871      -0.450932357505     -0.275830146091     -0.441998242032     
2100000000.0        -0.29573057328      -0.451208225475     0.704125653299      -0.46059383421      0.704125653299      -0.46059383421      -0.29573057328      -0.451208225475     
2200000000.0        -0.315460639085     -0.459307751709     0.684391039562      -0.469145417198     0.684391039562      -0.469145417198     -0.315460639085     -0.459307751709     
2300000000.0        -0.334959663786     -0.466355717868     0.664887257258      -0.476646013361     0.664887257258      -0.476646013361     -0.334959663786     -0.466355717868     
2400000000.0        -0.354175229103     -0.472412369901     0.645666723562      -0.483155877862     0.645666723562      -0.483155877862     -0.354175229103     -0.472412369901     
2500000000.0        -0.373062692089     -0.477538405098     0.626774080326      -0.488735716691     0.626774080326      -0.488735716691     -0.373062692089     -0.477538405098     
2600000000.0        -0.391584642142     -0.481794210278     0.608246737068      -0.493445924896     0.608246737068      -0.493445924896     -0.391584642142     -0.481794210278     
2700000000.0        -0.409710324406     -0.485239228475     0.590115447568      -0.497345953302     0.590115447568      -0.497345953302     -0.409710324406     -0.485239228475     
2800000000.0        -0.427415049002     -0.487931444545     0.572404900633      -0.500493794149     0.572404900633      -0.500493794149     -0.427415049002     -0.487931444545     
2900000000.0        -0.444679601837     -0.489926978638     0.55513430929       -0.502945574594     0.55513430929       -0.502945574594     -0.444679601837     -0.489926978638     
3000000000.0        -0.46148966932      -0.491279775731     0.538317986063      -0.504755246278     0.538317986063      -0.504755246278     -0.46148966932      -0.491279775731     
3100000000.0        -0.477835286307     -0.492041379328     0.521965895035      -0.505974359041     0.521965895035      -0.505974359041     -0.477835286307     -0.492041379328     
3200000000.0        -0.493710313932     -0.492260777686     0.506084174005      -0.506651907186     0.506084174005      -0.506651907186     -0.493710313932     -0.492260777686     
3300000000.0        -0.50911195179      -0.491984311605     0.490675622318      -0.506834237281     0.490675622318      -0.506834237281     -0.50911195179      -0.491984311605     
3400000000.0        -0.524040287054     -0.491255633608     0.475740151733      -0.506565007371     0.475740151733      -0.506565007371     -0.524040287054     -0.491255633608     
3500000000.0        -0.538497881703     -0.490115709325     0.461275199208      -0.505885188374     0.461275199208      -0.505885188374     -0.538497881703     -0.490115709325     
3600000000.0        -0.552489397802     -0.488602852865     0.447276101607      -0.504833099478     0.447276101607      -0.504833099478     -0.552489397802     -0.488602852865     
3700000000.0        -0.566021259975     -0.486752788994     0.433736433238      -0.503444470336     0.433736433238      -0.503444470336     -0.566021259975     -0.486752788994     
3800000000.0        -0.57910135352      -0.484598735879     0.420648307726      -0.501752523826     0.420648307726      -0.501752523826     -0.57910135352      -0.484598735879     
3900000000.0        -0.591738756217     -0.482171503088     0.408002646216      -0.499788074071     0.408002646216      -0.499788074071     -0.591738756217     -0.482171503088     
4000000000.0        -0.603943501549     -0.479499600356     0.395789414142      -0.497579635218     0.395789414142      -0.497579635218     -0.603943501549     -0.479499600356     
4100000000.0        -0.615726370964     -0.476609353388     0.383997828972      -0.495153537251     0.383997828972      -0.495153537251     -0.615726370964     -0.476609353388     
4200000000.0        -0.627098712681     -0.473525023618     0.372616541397      -0.492534045775     0.372616541397      -0.492534045775     -0.627098712681     -0.473525023618     
4300000000.0        -0.638072284627     -0.47026892946      0.361633792396      -0.489743483267     0.361633792396      -0.489743483267     -0.638072284627     -0.47026892946      
4400000000.0        -0.648659119104     -0.46686156705      0.351037548567      -0.486802349839     0.351037548567      -0.486802349839     -0.648659119104     -0.46686156705      
4500000000.0        -0.658871406954     -0.463321728942     0.340815617965      -0.483729441945     0.340815617965      -0.483729441945     -0.658871406954     -0.463321728942     
4600000000.0        -0.668721399068     -0.459666619574     0.330955748586      -0.480541967851     0.330955748586      -0.480541967851     -0.668721399068     -0.459666619574     
4700000000.0        -0.678221323288     -0.455911966615     0.321445711474      -0.477255659        0.321445711474      -0.477255659        -0.678221323288     -0.455911966615     
4800000000.0        -0.687383314873     -0.452072127575     0.312273370249      -0.473884876625     0.312273370249      -0.473884876625     -0.687383314873     -0.452072127575     
4900000000.0        -0.696219358871     -0.448160191254     0.303426738733      -0.470442713214     0.303426738733      -0.470442713214     -0.696219358871     -0.448160191254     
5000000000.0        -0.704741242904     -0.444188073783     0.294894028169      -0.466941088551     0.294894028169      -0.466941088551     -0.704741242904     -0.444188073783     
5100000000.0        -0.712960519007     -0.440166609129     0.286663685381      -0.463390840239     0.286663685381      -0.463390840239     -0.712960519007     -0.440166609129     
5200000000.0        -0.720888473308     -0.436105634076     0.27872442309       -0.459801808678     0.27872442309       -0.459801808678     -0.720888473308     -0.436105634076     
5300000000.0        -0.728536102489     -0.43201406772      0.271065243461      -0.456182916575     0.271065243461      -0.456182916575     -0.728536102489     -0.43201406772      
5400000000.0        -0.735914096041     -0.427899985648     0.263675455837      -0.452542243123     0.263675455837      -0.452542243123     -0.735914096041     -0.427899985648     
5500000000.0        -0.743032823495     -0.42377068895      0.256544689513      -0.448887093029     0.256544689513      -0.448887093029     -0.743032823495     -0.42377068895      
5600000000.0        -0.749902325882     -0.419632768303     0.249662902281      -0.44522406059      0.249662902281      -0.44522406059      -0.749902325882     -0.419632768303     
5700000000.0        -0.75653231075      -0.415492163338     0.243020385403      -0.441559089079     0.243020385403      -0.441559089079     -0.75653231075      -0.415492163338     
5800000000.0        -0.762932150197     -0.411354217566     0.236607765583      -0.437897525667     0.236607765583      -0.437897525667     -0.762932150197     -0.411354217566     
5900000000.0        -0.769110881403     -0.40722372909      0.230416004435      -0.434244172143     0.230416004435      -0.434244172143     -0.769110881403     -0.40722372909      
6000000000.0        -0.775077209242     -0.403104997384     0.22443639587       -0.430603331698     0.22443639587       -0.430603331698     -0.775077209242     -0.403104997384     
6100000000.0        -0.78083951059      -0.399001866375     0.218660561785      -0.426978852011     0.218660561785      -0.426978852011     -0.78083951059      -0.399001866375     
6200000000.0        -0.786405840024     -0.394917764093     0.213080446368      -0.4233741649       0.213080446368      -0.4233741649       -0.786405840024     -0.394917764093     
6300000000.0        -0.791783936622     -0.390855739108     0.207688309298      -0.419792322768     0.207688309298      -0.419792322768     -0.791783936622     -0.390855739108     
6400000000.0        -0.796981231624     -0.386818494004     0.202476718076      -0.416236032075     0.202476718076      -0.416236032075     -0.796981231624     -0.386818494004     
6500000000.0        -0.802004856774     -0.382808416093     0.197438539696      -0.412707684061     0.197438539696      -0.412707684061     -0.802004856774     -0.382808416093     
6600000000.0        -0.806861653137     -0.378827605592     0.192566931811      -0.409209382918     0.192566931811      -0.409209382918     -0.806861653137     -0.378827605592     
6700000000.0        -0.811558180281     -0.374877901436     0.187855333568      -0.405742971615     0.187855333568      -0.405742971615     -0.811558180281     -0.374877901436     
6800000000.0        -0.816100725671     -0.370960904935     0.183297456202      -0.402310055551     0.183297456202      -0.402310055551     -0.816100725671     -0.370960904935     
6900000000.0        -0.82049531419      -0.36707800143      0.178887273516      -0.398912024214     0.178887273516      -0.398912024214     -0.82049531419      -0.36707800143      
7000000000.0        -0.824747717695     -0.363230380105     0.174619012332      -0.395550071        0.174619012332      -0.395550071        -0.824747717695     -0.363230380105     
7100000000.0        -0.828863464536     -0.359419052126     0.170487142961      -0.392225211348     0.170487142961      -0.392225211348     -0.828863464536     -0.359419052126     
7200000000.0        -0.832847848984     -0.355644867211     0.166486369786      -0.388938299316     0.166486369786      -0.388938299316     -0.832847848984     -0.355644867211     
7300000000.0        -0.836705940511     -0.35190852879      0.162611621973      -0.385690042743     0.162611621973      -0.385690042743     -0.836705940511     -0.35190852879      
7400000000.0        -0.840442592895     -0.348210607853     0.158858044369      -0.382481017095     0.158858044369      -0.382481017095     -0.840442592895     -0.348210607853     
7500000000.0        -0.844062453115     -0.3445515556       0.155220988606      -0.37931167812      0.155220988606      -0.37931167812      -0.844062453115     -0.3445515556       
7600000000.0        -0.84756997001      -0.340931714999     0.151696004444      -0.376182373406     0.151696004444      -0.376182373406     -0.84756997001      -0.340931714999     
7700000000.0        -0.850969402688     -0.337351331333     0.148278831358      -0.373093352931     0.148278831358      -0.373093352931     -0.850969402688     -0.337351331333     
7800000000.0        -0.854264828671     -0.333810561834     0.144965390398      -0.370044778694     0.144965390398      -0.370044778694     -0.854264828671     -0.333810561834     
7900000000.0        -0.857460151768     -0.330309484465     0.141751776308      -0.367036733506     0.141751776308      -0.367036733506     -0.857460151768     -0.330309484465     
8000000000.0        -0.860559109669     -0.326848105945     0.138634249939      -0.364069229005     0.138634249939      -0.364069229005     -0.860559109669     -0.326848105945     
8100000000.0        -0.863565281263     -0.323426369053     0.135609230928      -0.361142212974     0.135609230928      -0.361142212974     -0.863565281263     -0.323426369053     
8200000000.0        -0.866482093669     -0.320044159303     0.132673290664      -0.358255576005     0.132673290664      -0.358255576005     -0.866482093669     -0.320044159303     
8300000000.0        -0.869312828997     -0.316701311017     0.129823145531      -0.35540915758      0.129823145531      -0.35540915758      -0.869312828997     -0.316701311017     
8400000000.0        -0.872060630832     -0.313397612865     0.127055650424      -0.352602751612     0.127055650424      -0.352602751612     -0.872060630832     -0.313397612865     
8500000000.0        -0.874728510444     -0.310132812912     0.124367792532      -0.349836111485     0.124367792532      -0.349836111485     -0.874728510444     -0.310132812912     
8600000000.0        -0.877319352745     -0.30690662321      0.121756685388      -0.347108954657     0.121756685388      -0.347108954657     -0.877319352745     -0.30690662321      
8700000000.0        -0.87983592198      -0.303718723981     0.119219563178      -0.34442096684      0.119219563178      -0.34442096684      -0.87983592198      -0.303718723981     
8800000000.0        -0.88228086717      -0.300568767427     0.116753775287      -0.341771805804     0.116753775287      -0.341771805804     -0.88228086717      -0.300568767427     
8900000000.0        -0.884656727325     -0.297456381187     0.114356781101      -0.339161104845     0.114356781101      -0.339161104845     -0.884656727325     -0.297456381187     
9000000000.0        -0.886965936404     -0.29438117149      0.112026145037      -0.336588475932     0.112026145037      -0.336588475932     -0.886965936404     -0.29438117149      
9100000000.0        -0.889210828067     -0.291342726009     0.109759531789      -0.334053512562     0.109759531789      -0.334053512562     -0.889210828067     -0.291342726009     
9200000000.0        -0.891393640203     -0.288340616466     0.107554701809      -0.331555792369     0.107554701809      -0.331555792369     -0.891393640203     -0.288340616466     
9300000000.0        -0.893516519251     -0.285374400982     0.105409506978      -0.32909487947      0.105409506978      -0.32909487947      -0.893516519251     -0.285374400982     
9400000000.0        -0.895581524318     -0.282443626225     0.103321886489      -0.326670326616     0.103321886489      -0.326670326616     -0.895581524318     -0.282443626225     
9500000000.0        -0.897590631112     -0.279547829338     0.101289862916      -0.324281677119     0.101289862916      -0.324281677119     -0.897590631112     -0.279547829338     
9600000000.0        -0.899545735685     -0.276686539702     0.0993115384703     -0.321928466618     0.0993115384703     -0.321928466618     -0.899545735685     -0.276686539702     
9700000000.0        -0.901448658002     -0.273859280522     0.0973850914267     -0.319610224662     0.0973850914267     -0.319610224662     -0.901448658002     -0.273859280522     
9800000000.0        -0.903301145348     -0.271065570261     0.0955087727241     -0.317326476147     0.0955087727241     -0.317326476147     -0.903301145348     -0.271065570261     
9900000000.0        -0.905104875563     -0.268304923941     0.0936809027223     -0.315076742612     0.0936809027223     -0.315076742612     -0.905104875563     -0.268304923941     
10000000000.0       -0.906861460134     -0.265576854307     0.0918998681138     -0.312860543413     0.0918998681138     -0.312860543413     -0.906861460134     -0.265576854307     
