# Hz S RI R 50.00 
100000000.0         0.000397383592519   -0.00269907430661   0.999565569213      -0.00488108008458   0.999565569213      -0.00488108008458   0.000397383592519   -0.00269907430661   
200000000.0         0.000356999154572   -0.00539797925856   0.999512437113      -0.00976203686683   0.999512437113      -0.00976203686683   0.000356999154572   -0.00539797925856   
300000000.0         0.000289540895812   -0.00809649939055   0.999428908921      -0.0146427019174    0.999428908921      -0.0146427019174    0.000289540895812   -0.00809649939055   
400000000.0         0.000195369011441   -0.0107944012851    0.999314627204      -0.0195228747448    0.999314627204      -0.0195228747448    0.000195369011441   -0.0107944012851    
500000000.0         7.46253320001e-05   -0.0134914413332    0.99916945716       -0.0244023393307    0.99916945716       -0.0244023393307    7.46253320003e-05   -0.0134914413332    
600000000.0         -7.26133730825e-05  -0.0161873689604    0.998993333882      -0.0292808695491    0.998993333882      -0.0292808695491    -7.26133730825e-05  -0.0161873689604    
700000000.0         -0.00024629634737   -0.0188819283716    0.998786223718      -0.0341582319044    0.998786223718      -0.0341582319044    -0.00024629634737   -0.0188819283716    
800000000.0         -0.00044638453339   -0.0215748596462    0.998548110268      -0.0390341871792    0.998548110268      -0.0390341871792    -0.00044638453339   -0.0215748596462    
900000000.0         -0.000672844151798  -0.0242658994931    0.998278988219      -0.0439084915363    0.998278988219      -0.0439084915363    -0.000672844151798  -0.0242658994931    
1000000000.0        -0.000925643410627  -0.0269547818077    0.997978860263      -0.0487808973105    0.997978860263      -0.0487808973105    -0.000925643410627  -0.0269547818077    
1100000000.0        -0.00120475064808   -0.0296412381039    0.997647735422      -0.053651153609     0.997647735422      -0.053651153609     -0.00120475064808   -0.0296412381039    
1200000000.0        -0.00151013320399   -0.0323249978632    0.997285628073      -0.0585190067856    0.997285628073      -0.0585190067856    -0.00151013320399   -0.0323249978632    
1300000000.0        -0.00184175669255   -0.0350057888258    0.996892557355      -0.0633842008288    0.996892557355      -0.0633842008288    -0.00184175669255   -0.0350057888258    
1400000000.0        -0.00219958451056   -0.0376833372395    0.996468546795      -0.0682464776866    0.996468546795      -0.0682464776866    -0.00219958451056   -0.0376833372395    
1500000000.0        -0.00258357749138   -0.0403573680782    0.996013624068      -0.0731055775473    0.996013624068      -0.0731055775473    -0.00258357749138   -0.0403573680782    
1600000000.0        -0.00299369365333   -0.0430276052365    0.995527820832      -0.0779612390833    0.995527820832      -0.0779612390833    -0.00299369365333   -0.0430276052365    
1700000000.0        -0.00342988801143   -0.0456937717051    0.995011172625      -0.0828131996705    0.995011172625      -0.0828131996705    -0.00342988801143   -0.0456937717051    
1800000000.0        -0.00389211243354   -0.0483555897331    0.994463718791      -0.0876611955846    0.994463718791      -0.0876611955846    -0.00389211243354   -0.0483555897331    
1900000000.0        -0.00438031552824   -0.0510127809771    0.993885502425      -0.0925049621814    0.993885502425      -0.0925049621814    -0.00438031552824   -0.0510127809771    
2000000000.0        -0.00489444255633   -0.0536650666417    0.993276570343      -0.097344234063     0.993276570343      -0.097344234063     -0.00489444255633   -0.0536650666417    
2100000000.0        -0.00543443536019   -0.0563121676114    0.992636973054      -0.102178745233     0.992636973054      -0.102178745233     -0.00543443536019   -0.0563121676114    
2200000000.0        -0.00600023230718   -0.0589538045763    0.991966764743      -0.107008229241     0.991966764743      -0.107008229241     -0.00600023230718   -0.0589538045763    
2300000000.0        -0.00659176824413   -0.0615896981515    0.991266003255      -0.111832419321     0.991266003255      -0.111832419321     -0.00659176824413   -0.0615896981515    
2400000000.0        -0.007208974461     -0.0642195689925    0.990534750088      -0.11665104852      0.990534750088      -0.11665104852      -0.007208974461     -0.0642195689925    
2500000000.0        -0.00785177866203   -0.0668431379054    0.989773070379      -0.121463849827     0.989773070379      -0.121463849827     -0.00785177866203   -0.0668431379054    
2600000000.0        -0.00852010494342   -0.0694601259541    0.988981032899      -0.126270556284     0.988981032899      -0.126270556284     -0.00852010494342   -0.0694601259541    
2700000000.0        -0.00921387377649   -0.0720702545636    0.98815871004       -0.13107090111      0.98815871004       -0.13107090111      -0.00921387377649   -0.0720702545636    
2800000000.0        -0.00993300199574   -0.0746732456209    0.987306177809      -0.135864617805     0.987306177809      -0.135864617805     -0.00993300199574   -0.0746732456209    
2900000000.0        -0.0106774027912    -0.077268821573     0.986423515818      -0.14065144026      0.986423515818      -0.14065144026      -0.0106774027912    -0.077268821573     
3000000000.0        -0.0114469857048    -0.079856705522     0.985510807271      -0.145431102861     0.985510807271      -0.145431102861     -0.0114469857048    -0.079856705522     
3100000000.0        -0.01224165663      -0.0824366213188    0.98456813895       -0.150203340587     0.98456813895       -0.150203340587     -0.01224165663      -0.0824366213188    
3200000000.0        -0.0130613178151    -0.0850082936538    0.983595601208      -0.154967889113     0.983595601208      -0.154967889113     -0.0130613178151    -0.0850082936538    
3300000000.0        -0.0139058678694    -0.0875714481463    0.982593287944      -0.159724484899     0.982593287944      -0.159724484899     -0.0139058678694    -0.0875714481463    
3400000000.0        -0.0147752017719    -0.0901258114316    0.981561296596      -0.164472865288     0.981561296596      -0.164472865288     -0.0147752017719    -0.0901258114316    
3500000000.0        -0.0156692108829    -0.0926711112464    0.980499728117      -0.169212768595     0.980499728117      -0.169212768595     -0.0156692108829    -0.0926711112464    
3600000000.0        -0.0165877829585    -0.095207076513     0.979408686954      -0.173943934197     0.979408686954      -0.173943934197     -0.0165877829585    -0.095207076513     
3700000000.0        -0.0175308021667    -0.0977334374209    0.978288281031      -0.178666102616     0.978288281031      -0.178666102616     -0.0175308021667    -0.0977334374209    
3800000000.0        -0.0184981491062    -0.100249925507     0.977138621724      -0.183379015608     0.977138621724      -0.183379015608     -0.0184981491062    -0.100249925507     
3900000000.0        -0.0194897008277    -0.102756273737     0.975959823834      -0.188082416244     0.975959823834      -0.188082416244     -0.0194897008277    -0.102756273737     
4000000000.0        -0.0205053308562    -0.105252216578     0.974752005564      -0.19277604899      0.974752005564      -0.19277604899      -0.0205053308562    -0.105252216578     
4100000000.0        -0.0215449092167    -0.10773749008      0.973515288488      -0.197459659788     0.973515288488      -0.197459659788     -0.0215449092167    -0.10773749008      
4200000000.0        -0.0226083024607    -0.110211831946     0.972249797523      -0.202132996134     0.972249797523      -0.202132996134     -0.0226083024607    -0.110211831946     
4300000000.0        -0.023695373695     -0.112674981606     0.970955660899      -0.206795807149     0.970955660899      -0.206795807149     -0.023695373695     -0.112674981606     
4400000000.0        -0.0248059826122    -0.115126680292     0.969633010124      -0.211447843661     0.969633010124      -0.211447843661     -0.0248059826122    -0.115126680292     
4500000000.0        -0.0259399855232    -0.117566671103     0.96828197995       -0.216088858271     0.96828197995       -0.216088858271     -0.0259399855232    -0.117566671103     
4600000000.0        -0.0270972353906    -0.119994699075     0.966902708341      -0.220718605427     0.966902708341      -0.220718605427     -0.0270972353906    -0.119994699075     
4700000000.0        -0.0282775818645    -0.12241051125      0.96549533643       -0.225336841493     0.96549533643       -0.225336841493     -0.0282775818645    -0.12241051125      
4800000000.0        -0.0294808713196    -0.124813856742     0.964060008485      -0.229943324815     0.964060008485      -0.229943324815     -0.0294808713196    -0.124813856742     
4900000000.0        -0.0307069468932    -0.127204486799     0.962596871869      -0.23453781579      0.962596871869      -0.23453781579      -0.0307069468932    -0.127204486799     
5000000000.0        -0.0319556485259    -0.129582154865     0.961106076998      -0.239120076928     0.961106076998      -0.239120076928     -0.0319556485259    -0.129582154865     
5100000000.0        -0.033226813002     -0.131946616645     0.959587777295      -0.243689872917     0.959587777295      -0.243689872917     -0.033226813002     -0.131946616645     
5200000000.0        -0.0345202739931    -0.134297630163     0.958042129154      -0.248246970683     0.958042129154      -0.248246970683     -0.0345202739931    -0.134297630163     
5300000000.0        -0.0358358621012    -0.13663495582      0.956469291888      -0.252791139449     0.956469291888      -0.252791139449     -0.0358358621012    -0.13663495582      
5400000000.0        -0.0371734049043    -0.138958356453     0.954869427689      -0.257322150798     0.954869427689      -0.257322150798     -0.0371734049043    -0.138958356453     
5500000000.0        -0.0385327270027    -0.141267597386     0.953242701573      -0.261839778722     0.953242701573      -0.261839778722     -0.0385327270027    -0.141267597386     
5600000000.0        -0.0399136500664    -0.143562446491     0.95158928134       -0.266343799686     0.95158928134       -0.266343799686     -0.0399136500664    -0.143562446491     
5700000000.0        -0.0413159928838    -0.145842674233     0.949909337521      -0.270833992674     0.949909337521      -0.270833992674     -0.0413159928838    -0.145842674233     
5800000000.0        -0.0427395714112    -0.148108053728     0.948203043325      -0.275310139245     0.948203043325      -0.275310139245     -0.0427395714112    -0.148108053728     
5900000000.0        -0.0441841988235    -0.150358360787     0.946470574594      -0.279772023583     0.946470574594      -0.279772023583     -0.0441841988235    -0.150358360787     
6000000000.0        -0.0456496855658    -0.152593373968     0.944712109743      -0.284219432546     0.944712109743      -0.284219432546     -0.0456496855658    -0.152593373968     
6100000000.0        -0.0471358394059    -0.15481287462      0.942927829714      -0.288652155711     0.942927829714      -0.288652155711     -0.0471358394059    -0.15481287462      
6200000000.0        -0.0486424654879    -0.15701664693      0.941117917919      -0.293069985423     0.941117917919      -0.293069985423     -0.0486424654879    -0.15701664693      
6300000000.0        -0.0501693663858    -0.159204477966     0.939282560184      -0.297472716837     0.939282560184      -0.297472716837     -0.0501693663858    -0.159204477966     
6400000000.0        -0.0517163421594    -0.161376157717     0.937421944694      -0.301860147964     0.937421944694      -0.301860147964     -0.0517163421594    -0.161376157717     
6500000000.0        -0.0532831904091    -0.163531479138     0.935536261939      -0.306232079705     0.935536261939      -0.306232079705     -0.0532831904091    -0.163531479138     
6600000000.0        -0.054869706333     -0.165670238185     0.933625704656      -0.310588315898     0.933625704656      -0.310588315898     -0.054869706333     -0.165670238185     
6700000000.0        -0.0564756827837    -0.167792233852     0.931690467767      -0.314928663351     0.931690467767      -0.314928663351     -0.0564756827837    -0.167792233852     
6800000000.0        -0.0581009103259    -0.169897268213     0.929730748329      -0.319252931883     0.929730748329      -0.319252931883     -0.0581009103259    -0.169897268213     
6900000000.0        -0.0597451772952    -0.171985146448     0.927746745468      -0.323560934352     0.927746745468      -0.323560934352     -0.0597451772952    -0.171985146448     
7000000000.0        -0.061408269856     -0.174055676884     0.925738660323      -0.327852486695     0.925738660323      -0.327852486695     -0.061408269856     -0.174055676884     
7100000000.0        -0.0630899720617    -0.176108671021     0.923706695986      -0.332127407954     0.923706695986      -0.332127407954     -0.0630899720617    -0.176108671021     
7200000000.0        -0.0647900659137    -0.178143943562     0.921651057441      -0.336385520311     0.921651057441      -0.336385520311     -0.0647900659137    -0.178143943562     
7300000000.0        -0.0665083314222    -0.180161312446     0.919571951505      -0.340626649113     0.919571951505      -0.340626649113     -0.0665083314222    -0.180161312446     
7400000000.0        -0.068244546666     -0.18216059887      0.917469586764      -0.344850622901     0.917469586764      -0.344850622901     -0.068244546666     -0.18216059887      
7500000000.0        -0.069998487854     -0.184141627317     0.915344173515      -0.349057273434     0.915344173515      -0.349057273434     -0.069998487854     -0.184141627317     
7600000000.0        -0.0717699293857    -0.186104225579     0.913195923701      -0.353246435712     0.913195923701      -0.353246435712     -0.0717699293857    -0.186104225579     
7700000000.0        -0.0735586439131    -0.188048224779     0.911025050852      -0.357417948002     0.911025050852      -0.357417948002     -0.0735586439131    -0.188048224779     
7800000000.0        -0.075364402402     -0.189973459394     0.908831770023      -0.361571651856     0.908831770023      -0.361571651856     -0.075364402402     -0.189973459394     
7900000000.0        -0.0771869741937    -0.19187976727      0.906616297729      -0.365707392131     0.906616297729      -0.365707392131     -0.0771869741937    -0.19187976727      
8000000000.0        -0.0790261270669    -0.193766989645     0.904378851885      -0.369825017006     0.904378851885      -0.369825017006     -0.0790261270669    -0.193766989645     
8100000000.0        -0.0808816273       -0.195634971164     0.902119651743      -0.373924378        0.902119651743      -0.373924378        -0.0808816273       -0.195634971164     
8200000000.0        -0.0827532397325    -0.197483559891     0.899838917828      -0.378005329984     0.899838917828      -0.378005329984     -0.0827532397325    -0.197483559891     
8300000000.0        -0.0846407278279    -0.199312607326     0.897536871878      -0.382067731199     0.897536871878      -0.382067731199     -0.0846407278279    -0.199312607326     
8400000000.0        -0.0865438537348    -0.201121968416     0.895213736781      -0.386111443263     0.895213736781      -0.386111443263     -0.0865438537348    -0.201121968416     
8500000000.0        -0.0884623783497    -0.202911501567     0.892869736509      -0.390136331185     0.892869736509      -0.390136331185     -0.0884623783497    -0.202911501567     
8600000000.0        -0.0903960613788    -0.20468106865      0.890505096061      -0.394142263371     0.890505096061      -0.394142263371     -0.0903960613788    -0.20468106865      
8700000000.0        -0.0923446613991    -0.206430535012     0.888120041395      -0.398129111635     0.888120041395      -0.398129111635     -0.0923446613991    -0.206430535012     
8800000000.0        -0.0943079359212    -0.208159769482     0.885714799371      -0.402096751202     0.885714799371      -0.402096751202     -0.0943079359212    -0.208159769482     
8900000000.0        -0.09628564145      -0.209868644376     0.883289597686      -0.406045060715     0.883289597686      -0.406045060715     -0.09628564145      -0.209868644376     
9000000000.0        -0.098277533546     -0.211557035501     0.880844664812      -0.409973922237     0.880844664812      -0.409973922237     -0.098277533546     -0.211557035501     
9100000000.0        -0.100283366887     -0.213224822155     0.878380229936      -0.413883221255     0.878380229936      -0.413883221255     -0.100283366887     -0.213224822155     
9200000000.0        -0.102302895328     -0.214871887133     0.875896522899      -0.417772846678     0.875896522899      -0.417772846678     -0.102302895328     -0.214871887133     
9300000000.0        -0.104335871963     -0.216498116724     0.873393774131      -0.421642690838     0.873393774131      -0.421642690838     -0.104335871963     -0.216498116724     
9400000000.0        -0.106382049182     -0.21810340071      0.870872214597      -0.425492649489     0.870872214597      -0.425492649489     -0.106382049182     -0.21810340071      
9500000000.0        -0.108441178736     -0.219687632361     0.868332075731      -0.429322621803     0.868332075731      -0.429322621803     -0.108441178736     -0.219687632361     
9600000000.0        -0.110513011792     -0.221250708437     0.865773589376      -0.433132510365     0.865773589376      -0.433132510365     -0.110513011792     -0.221250708437     
9700000000.0        -0.112597298994     -0.222792529177     0.863196987731      -0.436922221165     0.863196987731      -0.436922221165     -0.112597298994     -0.222792529177     
9800000000.0        -0.114693790519     -0.224312998297     0.860602503284      -0.440691663599     0.860602503284      -0.440691663599     -0.114693790519     -0.224312998297     
9900000000.0        -0.11680223614      -0.22581202298      0.857990368758      -0.444440750451     0.857990368758      -0.444440750451     -0.11680223614      -0.22581202298      
10000000000.0       -0.118922385279     -0.227289513867     0.855360817051      -0.448169397892     0.855360817051      -0.448169397892     -0.118922385279     -0.227289513867     
