# Hz S RI R 50.00 
100000000.0         0.00502801279779    0.00116938167466    0.994969454098      -0.002216339499     0.994969454098      -0.002216339499     0.00502801279779    0.00116938167466    
200000000.0         0.00506859693852    0.00233851459314    0.994926238823      -0.00443243917527   0.994926238823      -0.00443243917527   0.00506859693852    0.00233851459315    
300000000.0         0.00510552183305    0.00350746459543    0.99488558468       -0.00664837058548   0.99488558468       -0.00664837058548   0.00510552183305    0.00350746459543    
400000000.0         0.00514313829689    0.00467623794692    0.994843140754      -0.00886414443482   0.994843140754      -0.00886414443482   0.00514313829689    0.00467623794692    
500000000.0         0.00518312263483    0.00584482704304    0.994797230626      -0.0110797569144    0.994797230626      -0.0110797569144    0.00518312263483    0.00584482704304    
600000000.0         0.00522632987211    0.00701321813913    0.994746999142      -0.0132951976539    0.994746999142      -0.0132951976539    0.00522632987211    0.00701321813913    
700000000.0         0.00527326497426    0.00818139412941    0.994691941193      -0.0155104526136    0.994691941193      -0.0155104526136    0.00527326497426    0.00818139412941    
800000000.0         0.00532425486133    0.00934933583696    0.994631729705      -0.0177255054429    0.994631729705      -0.0177255054429    0.00532425486133    0.00934933583696    
900000000.0         0.0053795250112     0.010517022707      0.994566139029      -0.0199403382179    0.994566139029      -0.0199403382179    0.0053795250112     0.010517022707      
1000000000.0        0.00543923829456    0.0116844332179     0.994495006114      -0.0221549318839    0.994495006114      -0.0221549318839    0.00543923829456    0.0116844332179     
1100000000.0        0.00550351656615    0.0128515451421     0.994418208913      -0.0243692665401    0.994418208913      -0.0243692665401    0.00550351656615    0.0128515451421     
1200000000.0        0.00557245353225    0.0140183357213     0.994335653515      -0.0265833216323    0.994335653515      -0.0265833216323    0.00557245353225    0.0140183357213     
1300000000.0        0.00564612284739    0.0151847817889     0.99424726605       -0.0287970760892    0.99424726605       -0.0287970760892    0.00564612284739    0.0151847817889     
1400000000.0        0.00572458343693    0.0163508598587     0.994152987367      -0.0310105084225    0.994152987367      -0.0310105084225    0.00572458343693    0.0163508598587     
1500000000.0        0.00580788312445    0.0175165461903     0.994052769406      -0.0332235968017    0.994052769406      -0.0332235968017    0.00580788312445    0.0175165461903     
1600000000.0        0.00589606117975    0.01868181684       0.993946572651      -0.0354363191123    0.993946572651      -0.0354363191123    0.00589606117975    0.01868181684       
1700000000.0        0.00598915015517    0.0198466476992     0.993834364294      -0.0376486530016    0.993834364294      -0.0376486530016    0.00598915015517    0.0198466476992     
1800000000.0        0.00608717723889    0.0210110145259     0.99371611688       -0.0398605759147    0.99371611688       -0.0398605759147    0.00608717723889    0.0210110145259     
1900000000.0        0.00619016527148    0.0221748929693     0.993591807293      -0.0420720651248    0.993591807293      -0.0420720651248    0.00619016527148    0.0221748929693     
2000000000.0        0.00629813352285    0.0233382585902     0.99346141598       -0.0442830977573    0.99346141598       -0.0442830977573    0.00629813352285    0.0233382585902     
2100000000.0        0.00641109829483    0.0245010868779     0.993324926347      -0.0464936508107    0.993324926347      -0.0464936508107    0.00641109829483    0.0245010868779     
2200000000.0        0.00652907339505    0.025663353264      0.993182324282      -0.0487037011738    0.993182324282      -0.0487037011738    0.00652907339505    0.025663353264      
2300000000.0        0.00665207051399    0.0268250331345     0.993033597786      -0.0509132256402    0.993033597786      -0.0509132256402    0.00665207051399    0.0268250331345     
2400000000.0        0.00678009952832    0.02798610184       0.992878736663      -0.0531222009217    0.992878736663      -0.0531222009217    0.00678009952832    0.02798610184       
2500000000.0        0.00691316874749    0.0291465347041     0.992717732277      -0.0553306036589    0.992717732277      -0.0553306036589    0.00691316874749    0.0291465347041     
2600000000.0        0.00705128511579    0.0303063070313     0.992550577349      -0.0575384104311    0.992550577349      -0.0575384104311    0.00705128511579    0.0303063070313     
2700000000.0        0.00719445437948    0.0314653941133     0.99237726579       -0.059745597765     0.99237726579       -0.059745597765     0.00719445437948    0.0314653941133     
2800000000.0        0.00734268122602    0.0326237712353     0.992197792562      -0.061952142142     0.992197792562      -0.061952142142     0.00734268122602    0.0326237712353     
2900000000.0        0.00749596940088    0.0337814136808     0.992012153561      -0.0641580200054    0.992012153561      -0.0641580200054    0.00749596940088    0.0337814136808     
3000000000.0        0.0076543218062     0.0349382967363     0.99182034552       -0.0663632077666    0.99182034552       -0.0663632077666    0.0076543218062     0.0349382967363     
3100000000.0        0.00781774058461    0.0360943956957     0.991622365923      -0.0685676818102    0.991622365923      -0.0685676818102    0.00781774058461    0.0360943956957     
3200000000.0        0.00798622719085    0.0372496858639     0.991418212936      -0.0707714184996    0.991418212936      -0.0707714184996    0.00798622719085    0.0372496858639     
3300000000.0        0.00815978245331    0.0384041425602     0.991207885344      -0.0729743941814    0.991207885344      -0.0729743941814    0.00815978245331    0.0384041425602     
3400000000.0        0.00833840662716    0.0395577411215     0.990991382496      -0.0751765851895    0.990991382496      -0.0751765851895    0.00833840662716    0.0395577411215     
3500000000.0        0.00852209944043    0.0407104569052     0.990768704264      -0.0773779678493    0.990768704264      -0.0773779678493    0.00852209944043    0.0407104569052     
3600000000.0        0.00871086013419    0.0418622652918     0.990539851         -0.0795785184816    0.990539851         -0.0795785184816    0.00871086013419    0.0418622652918     
3700000000.0        0.00890468749764    0.0430131416877     0.990304823499      -0.0817782134052    0.990304823499      -0.0817782134052    0.00890468749764    0.0430131416877     
3800000000.0        0.00910357989899    0.044163061527      0.990063622974      -0.0839770289407    0.990063622974      -0.0839770289407    0.00910357989899    0.044163061527      
3900000000.0        0.0093075353127     0.0453120002738     0.989816251021      -0.0861749414136    0.989816251021      -0.0861749414136    0.0093075353127     0.0453120002738     
4000000000.0        0.00951655134353    0.0464599334247     0.989562709603      -0.0883719271565    0.989562709603      -0.0883719271565    0.00951655134353    0.0464599334247     
4100000000.0        0.00973062524795    0.0476068365101     0.989303001022      -0.090567962512     0.989303001022      -0.090567962512     0.00973062524795    0.0476068365101     
4200000000.0        0.00994975395316    0.0487526850962     0.989037127907      -0.0927630238357    0.989037127907      -0.0927630238357    0.00994975395316    0.0487526850962     
4300000000.0        0.0101739340742     0.0498974547869     0.988765093189      -0.0949570874976    0.988765093189      -0.0949570874976    0.0101739340742     0.0498974547869     
4400000000.0        0.0104031619291     0.0510411212254     0.988486900093      -0.0971501298852    0.988486900093      -0.0971501298852    0.0104031619291     0.0510411212254     
4500000000.0        0.0106374335529     0.0521836600954     0.988202552119      -0.0993421274052    0.988202552119      -0.0993421274052    0.0106374335529     0.0521836600954     
4600000000.0        0.0108767447094     0.053325047123      0.987912053033      -0.101533056486     0.987912053033      -0.101533056486     0.0108767447094     0.053325047123      
4700000000.0        0.0111210909032     0.0544652580782     0.987615406854      -0.103722893578     0.987615406854      -0.103722893578     0.0111210909032     0.0544652580782     
4800000000.0        0.0113704673892     0.0556042687757     0.987312617847      -0.10591161516      0.987312617847      -0.10591161516      0.0113704673892     0.0556042687757     
4900000000.0        0.0116248691822     0.056742055077      0.98700369051       -0.108099197733     0.98700369051       -0.108099197733     0.0116248691822     0.056742055077      
5000000000.0        0.011884291065      0.0578785928909     0.986688629566      -0.110285617832     0.986688629566      -0.110285617832     0.011884291065      0.0578785928909     
5100000000.0        0.0121487275965     0.0590138581754     0.986367439959      -0.112470852018     0.986367439959      -0.112470852018     0.0121487275965     0.0590138581754     
5200000000.0        0.0124181731183     0.0601478269386     0.986040126843      -0.114654876888     0.986040126843      -0.114654876888     0.0124181731183     0.0601478269386     
5300000000.0        0.0126926217614     0.0612804752398     0.985706695578      -0.116837669069     0.985706695578      -0.116837669069     0.0126926217614     0.0612804752398     
5400000000.0        0.0129720674523     0.062411779191      0.985367151724      -0.119019205227     0.985367151724      -0.119019205227     0.0129720674523     0.062411779191      
5500000000.0        0.0132565039181     0.0635417149574     0.985021501033      -0.121199462061     0.985021501033      -0.121199462061     0.0132565039181     0.0635417149574     
5600000000.0        0.0135459246919     0.0646702587592     0.984669749448      -0.12337841631      0.984669749448      -0.12337841631      0.0135459246919     0.0646702587592     
5700000000.0        0.0138403231174     0.0657973868721     0.984311903094      -0.125556044753     0.984311903094      -0.125556044753     0.0138403231174     0.0657973868721     
5800000000.0        0.0141396923532     0.0669230756285     0.98394796828       -0.127732324209     0.98394796828       -0.127732324209     0.0141396923532     0.0669230756285     
5900000000.0        0.014444025377      0.0680473014186     0.983577951485      -0.129907231539     0.983577951485      -0.129907231539     0.014444025377      0.0680473014186     
6000000000.0        0.0147533149891     0.0691700406913     0.983201859366      -0.132080743649     0.983201859366      -0.132080743649     0.0147533149891     0.0691700406913     
6100000000.0        0.0150675538164     0.0702912699553     0.982819698745      -0.134252837488     0.982819698745      -0.134252837488     0.0150675538164     0.0702912699553     
6200000000.0        0.0153867343154     0.0714109657799     0.982431476611      -0.136423490053     0.982431476611      -0.136423490053     0.0153867343154     0.0714109657799     
6300000000.0        0.0157108487754     0.0725291047958     0.982037200114      -0.138592678385     0.982037200114      -0.138592678385     0.0157108487754     0.0725291047958     
6400000000.0        0.0160398893213     0.0736456636965     0.981636876567      -0.140760379578     0.981636876567      -0.140760379578     0.0160398893213     0.0736456636965     
6500000000.0        0.0163738479166     0.0747606192386     0.981230513435      -0.142926570771     0.981230513435      -0.142926570771     0.0163738479166     0.0747606192386     
6600000000.0        0.016712716366      0.0758739482432     0.980818118341      -0.145091229157     0.980818118341      -0.145091229157     0.016712716366      0.0758739482432     
6700000000.0        0.0170564863174     0.0769856275965     0.980399699058      -0.147254331979     0.980399699058      -0.147254331979     0.0170564863174     0.0769856275965     
6800000000.0        0.017405149265      0.0780956342507     0.979975263508      -0.149415856534     0.979975263508      -0.149415856534     0.017405149265      0.0780956342507     
6900000000.0        0.0177586965509     0.0792039452248     0.979544819763      -0.151575780173     0.979544819763      -0.151575780173     0.0177586965509     0.0792039452248     
7000000000.0        0.0181171193676     0.0803105376057     0.979108376037      -0.1537340803       0.979108376037      -0.1537340803       0.0181171193676     0.0803105376057     
7100000000.0        0.0184804087595     0.0814153885486     0.978665940689      -0.155890734379     0.978665940689      -0.155890734379     0.0184804087595     0.0814153885486     
7200000000.0        0.0188485556257     0.0825184752782     0.978217522221      -0.158045719927     0.978217522221      -0.158045719927     0.0188485556257     0.0825184752782     
7300000000.0        0.019221550721      0.0836197750891     0.97776312927       -0.160199014521     0.97776312927       -0.160199014521     0.019221550721      0.0836197750891     
7400000000.0        0.0195993846581     0.0847192653472     0.977302770616      -0.162350595799     0.977302770616      -0.162350595799     0.0195993846581     0.0847192653472     
7500000000.0        0.0199820479092     0.0858169234897     0.976836455171      -0.164500441455     0.976836455171      -0.164500441455     0.0199820479092     0.0858169234897     
7600000000.0        0.0203695308076     0.0869127270265     0.976364191985      -0.166648529246     0.976364191985      -0.166648529246     0.0203695308076     0.0869127270265     
7700000000.0        0.0207618235494     0.0880066535406     0.975885990239      -0.168794836993     0.975885990239      -0.168794836993     0.0207618235494     0.0880066535406     
7800000000.0        0.0211589161949     0.0890986806892     0.975401859245      -0.170939342576     0.975401859245      -0.170939342576     0.0211589161949     0.0890986806892     
7900000000.0        0.0215607986701     0.0901887862041     0.974911808448      -0.173082023942     0.974911808448      -0.173082023942     0.0215607986701     0.0901887862041     
8000000000.0        0.0219674607682     0.0912769478924     0.974415847418      -0.1752228591       0.974415847418      -0.1752228591       0.0219674607682     0.0912769478924     
8100000000.0        0.0223788921508     0.0923631436375     0.973913985856      -0.177361826128     0.973913985856      -0.177361826128     0.0223788921508     0.0923631436375     
8200000000.0        0.0227950823495     0.0934473513998     0.973406233587      -0.179498903166     0.973406233587      -0.179498903166     0.0227950823495     0.0934473513998     
8300000000.0        0.0232160207671     0.094529549217      0.972892600561      -0.181634068425     0.972892600561      -0.181634068425     0.0232160207671     0.094529549217      
8400000000.0        0.0236416966787     0.0956097152055     0.972373096851      -0.183767300182     0.972373096851      -0.183767300182     0.0236416966787     0.0956097152055     
8500000000.0        0.0240720992331     0.0966878275604     0.971847732655      -0.185898576784     0.971847732655      -0.185898576784     0.0240720992331     0.0966878275604     
8600000000.0        0.0245072174541     0.0977638645564     0.971316518289      -0.188027876648     0.971316518289      -0.188027876648     0.0245072174541     0.0977638645564     
8700000000.0        0.0249470402417     0.0988378045488     0.970779464191      -0.19015517826      0.970779464191      -0.19015517826      0.0249470402417     0.0988378045488     
8800000000.0        0.0253915563727     0.0999096259736     0.970236580916      -0.192280460179     0.970236580916      -0.192280460179     0.0253915563727     0.0999096259736     
8900000000.0        0.0258407545029     0.100979307349      0.96968787914       -0.194403701036     0.96968787914       -0.194403701036     0.0258407545029     0.100979307349      
9000000000.0        0.026294623167      0.102046827274      0.969133369653      -0.196524879533     0.969133369653      -0.196524879533     0.026294623167      0.102046827274      
9100000000.0        0.0267531507807     0.103112164433      0.96857306336       -0.198643974449     0.96857306336       -0.198643974449     0.0267531507807     0.103112164433      
9200000000.0        0.0272163256413     0.104175297593      0.968006971284      -0.200760964635     0.968006971284      -0.200760964635     0.0272163256413     0.104175297593      
9300000000.0        0.0276841359286     0.105236205603      0.967435104559      -0.202875829017     0.967435104559      -0.202875829017     0.0276841359286     0.105236205603      
9400000000.0        0.0281565697066     0.1062948674        0.966857474431      -0.204988546599     0.966857474431      -0.204988546599     0.0281565697066     0.1062948674        
9500000000.0        0.0286336149237     0.107351262005      0.96627409226       -0.20709909646      0.96627409226       -0.20709909646      0.0286336149237     0.107351262005      
9600000000.0        0.0291152594143     0.108405368524      0.965684969513      -0.209207457757     0.965684969513      -0.209207457757     0.0291152594143     0.108405368524      
9700000000.0        0.0296014908997     0.109457166153      0.965090117771      -0.211313609725     0.965090117771      -0.211313609725     0.0296014908997     0.109457166153      
9800000000.0        0.0300922969889     0.110506634172      0.96448954872       -0.213417531676     0.96448954872       -0.213417531676     0.0300922969889     0.110506634172      
9900000000.0        0.0305876651798     0.111553751949      0.963883274156      -0.215519203006     0.963883274156      -0.215519203006     0.0305876651798     0.111553751949      
10000000000.0       0.0310875828599     0.112598498943      0.963271305978      -0.217618603186     0.963271305978      -0.217618603186     0.0310875828599     0.112598498943      
