# Hz S RI R 50.00 
100000000.0         0.0214451647168     0.00207639690054    0.978551989817      -0.00328449941128   0.978551989817      -0.00328449941128   0.0214451647168     0.00207639690054    
200000000.0         0.0216044154236     0.00415116013328    0.978389423312      -0.00656736653911   0.978389423312      -0.00656736653911   0.0216044154236     0.00415116013328    
300000000.0         0.0217402041625     0.0062247939807     0.97824884828       -0.00984910845516   0.97824884828       -0.00984910845516   0.0217402041625     0.0062247939807     
400000000.0         0.0218708229432     0.00829740086698    0.978111972571      -0.0131298300627    0.978111972571      -0.0131298300627    0.0218708229432     0.00829740086698    
500000000.0         0.0220033230644     0.0103689899354     0.977971744745      -0.0164095428292    0.977971744745      -0.0164095428292    0.0220033230644     0.0103689899354     
600000000.0         0.0221413018831     0.0124395291175     0.977824567298      -0.0196882169105    0.977824567298      -0.0196882169105    0.0221413018831     0.0124395291175     
700000000.0         0.022286883549      0.0145089638219     0.977668315925      -0.0229657998666    0.977668315925      -0.0229657998666    0.022286883549      0.0145089638219     
800000000.0         0.0224414423161     0.0165772255989     0.977501616204      -0.0262422253434    0.977501616204      -0.0262422253434    0.0224414423161     0.0165772255989     
900000000.0         0.0226059247686     0.0186442367944     0.977323521373      -0.0295174177373    0.977323521373      -0.0295174177373    0.0226059247686     0.0186442367944     
1000000000.0        0.0227810132319     0.0207099133063     0.977133348913      -0.0327912949585    0.977133348913      -0.0327912949585    0.0227810132319     0.0207099133063     
1100000000.0        0.0229672166562     0.0227741663369     0.976930589669      -0.0360637701902    0.976930589669      -0.0360637701902    0.0229672166562     0.0227741663369     
1200000000.0        0.0231649247964     0.0248369035692     0.976714853668      -0.0393347530682    0.976714853668      -0.0393347530682    0.0231649247964     0.0248369035692     
1300000000.0        0.0233744423165     0.0268980299907     0.976485836012      -0.0426041505086    0.976485836012      -0.0426041505086    0.0233744423165     0.0268980299907     
1400000000.0        0.0235960112159     0.0289574484908     0.976243294456      -0.0458718673072    0.976243294456      -0.0458718673072    0.0235960112159     0.0289574484908     
1500000000.0        0.0238298261194     0.031015060307      0.975987034113      -0.0491378065884    0.975987034113      -0.0491378065884    0.0238298261194     0.031015060307      
1600000000.0        0.0240760450206     0.0330707653664     0.975716896715      -0.0524018701486    0.975716896715      -0.0524018701486    0.0240760450206     0.0330707653664     
1700000000.0        0.0243347970288     0.0351244625531     0.975432752861      -0.0556639587248    0.975432752861      -0.0556639587248    0.0243347970288     0.0351244625531     
1800000000.0        0.0246061880794     0.0371760499215     0.975134496312      -0.058923972209     0.975134496312      -0.058923972209     0.0246061880794     0.0371760499215     
1900000000.0        0.0248903052268     0.039225424869      0.974822039694      -0.0621818098229    0.974822039694      -0.0621818098229    0.0248903052268     0.039225424869      
2000000000.0        0.0251872199261     0.041272484279      0.97449531122       -0.0654373702606    0.97449531122       -0.0654373702606    0.0251872199261     0.041272484279      
2100000000.0        0.0254969905805     0.0433171246393     0.974154252136      -0.068690551809     0.974154252136      -0.068690551809     0.0254969905805     0.0433171246393     
2200000000.0        0.0258196645463     0.0453592421433     0.973798814724      -0.071941252449     0.973798814724      -0.071941252449     0.0258196645463     0.0453592421433     
2300000000.0        0.0261552797287     0.0473987327763     0.973428960701      -0.0751893699425    0.973428960701      -0.0751893699425    0.0261552797287     0.0473987327763     
2400000000.0        0.0265038658676     0.0494354923896     0.973044659936      -0.0784348019078    0.973044659936      -0.0784348019078    0.0265038658676     0.0494354923896     
2500000000.0        0.0268654455838     0.0514694167664     0.972645889399      -0.081677445885     0.972645889399      -0.081677445885     0.0268654455838     0.0514694167664     
2600000000.0        0.027240035237      0.0535004016788     0.972232632309      -0.0849171993942    0.972232632309      -0.0849171993942    0.027240035237      0.0535004016788     
2700000000.0        0.0276276456373     0.0555283429396     0.971804877421      -0.0881539599875    0.971804877421      -0.0881539599875    0.0276276456373     0.0555283429396     
2800000000.0        0.0280282826382     0.0575531364478     0.971362618429      -0.0913876252949    0.971362618429      -0.0913876252949    0.0280282826382     0.0575531364478     
2900000000.0        0.0284419476356     0.0595746782305     0.970905853471      -0.0946180930664    0.970905853471      -0.0946180930664    0.0284419476356     0.0595746782305     
3000000000.0        0.0288686379899     0.0615928644807     0.970434584708      -0.0978452612102    0.970434584708      -0.0978452612102    0.0288686379899     0.0615928644807     
3100000000.0        0.0293083473859     0.0636075915919     0.969948817957      -0.101069027828     0.969948817957      -0.101069027828     0.0293083473859     0.0636075915919     
3200000000.0        0.0297610661412     0.0656187561899     0.969448562393      -0.104289291246     0.969448562393      -0.104289291246     0.0297610661412     0.0656187561899     
3300000000.0        0.0302267814715     0.0676262551629     0.968933830274      -0.107505950047     0.968933830274      -0.107505950047     0.0302267814715     0.0676262551629     
3400000000.0        0.0307054777218     0.0696299856885     0.968404636716      -0.110718903095     0.968404636716      -0.110718903095     0.0307054777218     0.0696299856885     
3500000000.0        0.0311971365665     0.0716298452601     0.967860999491      -0.113928049566     0.967860999491      -0.113928049566     0.0311971365665     0.0716298452601     
3600000000.0        0.0317017371856     0.0736257317104     0.96730293885       -0.117133288966     0.96730293885       -0.117133288966     0.0317017371856     0.0736257317104     
3700000000.0        0.0322192564193     0.0756175432352     0.966730477368      -0.12033452116      0.966730477368      -0.12033452116      0.0322192564193     0.0756175432352     
3800000000.0        0.0327496689047     0.0776051784143     0.966143639812      -0.123531646391     0.966143639812      -0.123531646391     0.0327496689047     0.0776051784143     
3900000000.0        0.0332929471973     0.0795885362325     0.965542453012      -0.1267245653       0.965542453012      -0.1267245653       0.0332929471973     0.0795885362325     
4000000000.0        0.0338490618797     0.0815675160988     0.964926945759      -0.129913178949     0.964926945759      -0.129913178949     0.0338490618797     0.0815675160988     
4100000000.0        0.0344179816578     0.0835420178658     0.964297148703      -0.133097388836     0.964297148703      -0.133097388836     0.0344179816578     0.0835420178658     
4200000000.0        0.0349996734491     0.0855119418468     0.963653094272      -0.136277096915     0.963653094272      -0.136277096915     0.0349996734491     0.0855119418468     
4300000000.0        0.035594102461      0.0874771888334     0.962994816585      -0.139452205614     0.962994816585      -0.139452205614     0.035594102461      0.0874771888334     
4400000000.0        0.0362012322624     0.0894376601122     0.962322351388      -0.14262261785      0.962322351388      -0.14262261785      0.0362012322624     0.0894376601122     
4500000000.0        0.0368210248488     0.0913932574803     0.961635735984      -0.145788237046     0.961635735984      -0.145788237046     0.0368210248488     0.0913932574803     
4600000000.0        0.037453440702      0.0933438832609     0.960935009176      -0.148948967145     0.960935009176      -0.148948967145     0.037453440702      0.0933438832609     
4700000000.0        0.0380984388445     0.095289440318      0.960220211212      -0.152104712628     0.960220211212      -0.152104712628     0.0380984388445     0.095289440318      
4800000000.0        0.0387559768898     0.0972298320709     0.959491383732      -0.155255378526     0.959491383732      -0.155255378526     0.0387559768898     0.0972298320709     
4900000000.0        0.039426011089      0.0991649625077     0.958748569726      -0.158400870434     0.958748569726      -0.158400870434     0.039426011089      0.0991649625077     
5000000000.0        0.0401084963741     0.101094736199      0.957991813488      -0.161541094524     0.957991813488      -0.161541094524     0.0401084963741     0.101094736199      
5100000000.0        0.0408033863975     0.103019058311      0.957221160576      -0.164675957561     0.957221160576      -0.164675957561     0.0408033863975     0.103019058311      
5200000000.0        0.0415106335703     0.104937834619      0.956436657777      -0.167805366912     0.956436657777      -0.167805366912     0.0415106335703     0.104937834619      
5300000000.0        0.0422301890967     0.106850971516      0.955638353067      -0.170929230562     0.955638353067      -0.170929230562     0.0422301890967     0.106850971516      
5400000000.0        0.0429620030078     0.10875837603       0.954826295583      -0.174047457123     0.954826295583      -0.174047457123     0.0429620030078     0.10875837603       
5500000000.0        0.0437060241923     0.110659955832      0.954000535588      -0.177159955845     0.954000535588      -0.177159955845     0.0437060241923     0.110659955832      
5600000000.0        0.0444622004259     0.112555619248      0.953161124444      -0.180266636633     0.953161124444      -0.180266636633     0.0444622004259     0.112555619248      
5700000000.0        0.0452304784        0.11444527527       0.952308114584      -0.18336741005      0.952308114584      -0.18336741005      0.0452304784        0.11444527527       
5800000000.0        0.0460108037478     0.116328833566      0.951441559482      -0.186462187335     0.951441559482      -0.186462187335     0.0460108037478     0.116328833566      
5900000000.0        0.0468031210698     0.118206204494      0.950561513632      -0.189550880407     0.950561513632      -0.189550880407     0.0468031210698     0.118206204494      
6000000000.0        0.0476073739585     0.120077299105      0.94966803252       -0.192633401881     0.94966803252       -0.192633401881     0.0476073739585     0.120077299105      
6100000000.0        0.0484235050218     0.12194202916       0.948761172604      -0.195709665073     0.948761172604      -0.195709665073     0.0484235050218     0.12194202916       
6200000000.0        0.0492514559051     0.123800307136      0.947840991287      -0.198779584013     0.947840991287      -0.198779584013     0.0492514559051     0.123800307136      
6300000000.0        0.0500911673137     0.125652046234      0.946907546899      -0.201843073452     0.946907546899      -0.201843073452     0.0500911673137     0.125652046234      
6400000000.0        0.0509425790332     0.127497160392      0.945960898676      -0.204900048872     0.945960898676      -0.204900048872     0.0509425790332     0.127497160392      
6500000000.0        0.0518056299504     0.12933556429       0.945001106736      -0.207950426496     0.945001106736      -0.207950426496     0.0518056299504     0.12933556429       
6600000000.0        0.0526802580725     0.131167173361      0.944028232062      -0.210994123294     0.944028232062      -0.210994123294     0.0526802580725     0.131167173361      
6700000000.0        0.0535664005469     0.132991903797      0.943042336484      -0.214031056992     0.943042336484      -0.214031056992     0.0535664005469     0.132991903797      
6800000000.0        0.0544639936796     0.13480967256       0.942043482658      -0.217061146083     0.942043482658      -0.217061146083     0.0544639936796     0.13480967256       
6900000000.0        0.0553729729536     0.136620397385      0.941031734048      -0.220084309829     0.941031734048      -0.220084309829     0.0553729729536     0.136620397385      
7000000000.0        0.0562932730468     0.138423996794      0.940007154907      -0.223100468276     0.940007154907      -0.223100468276     0.0562932730468     0.138423996794      
7100000000.0        0.0572248278493     0.140220390097      0.938969810264      -0.226109542253     0.938969810264      -0.226109542253     0.0572248278493     0.140220390097      
7200000000.0        0.058167570481      0.142009497405      0.9379197659        -0.229111453386     0.9379197659        -0.229111453386     0.058167570481      0.142009497405      
7300000000.0        0.0591214333081     0.143791239631      0.936857088339      -0.232106124102     0.936857088339      -0.232106124102     0.0591214333081     0.143791239631      
7400000000.0        0.0600863479596     0.145565538501      0.935781844824      -0.235093477636     0.935781844824      -0.235093477636     0.0600863479596     0.145565538501      
7500000000.0        0.0610622453441     0.147332316557      0.934694103305      -0.238073438037     0.934694103305      -0.238073438037     0.0610622453441     0.147332316557      
7600000000.0        0.0620490556651     0.149091497169      0.933593932422      -0.241045930174     0.933593932422      -0.241045930174     0.0620490556651     0.149091497169      
7700000000.0        0.0630467084377     0.150843004533      0.93248140149       -0.244010879743     0.93248140149       -0.244010879743     0.0630467084377     0.150843004533      
7800000000.0        0.0640551325035     0.152586763682      0.931356580481      -0.246968213274     0.931356580481      -0.246968213274     0.0640551325035     0.152586763682      
7900000000.0        0.0650742560463     0.154322700492      0.93021954001       -0.249917858132     0.93021954001       -0.249917858132     0.0650742560463     0.154322700492      
8000000000.0        0.0661040066075     0.156050741683      0.929070351322      -0.252859742527     0.929070351322      -0.252859742527     0.0661040066075     0.156050741683      
8100000000.0        0.0671443111007     0.157770814828      0.927909086271      -0.255793795518     0.927909086271      -0.255793795518     0.0671443111007     0.157770814828      
8200000000.0        0.0681950958272     0.159482848358      0.926735817312      -0.258719947016     0.926735817312      -0.258719947016     0.0681950958272     0.159482848358      
8300000000.0        0.0692562864905     0.161186771564      0.925550617482      -0.26163812779      0.925550617482      -0.26163812779      0.0692562864905     0.161186771564      
8400000000.0        0.0703278082106     0.162882514603      0.924353560386      -0.264548269472     0.924353560386      -0.264548269472     0.0703278082106     0.162882514603      
8500000000.0        0.0714095855392     0.164570008503      0.923144720182      -0.267450304562     0.923144720182      -0.267450304562     0.0714095855392     0.164570008503      
8600000000.0        0.0725015424733     0.166249185164      0.92192417157       -0.270344166428     0.92192417157       -0.270344166428     0.0725015424733     0.166249185164      
8700000000.0        0.0736036024702     0.167919977369      0.920691989772      -0.273229789317     0.920691989772      -0.273229789317     0.0736036024702     0.167919977369      
8800000000.0        0.0747156884609     0.169582318777      0.919448250524      -0.27610710835      0.919448250524      -0.27610710835      0.0747156884609     0.169582318777      
8900000000.0        0.0758377228647     0.171236143937      0.918193030057      -0.278976059534     0.918193030057      -0.278976059534     0.0758377228647     0.171236143937      
9000000000.0        0.0769696276028     0.172881388285      0.916926405086      -0.28183657976      0.916926405086      -0.28183657976      0.0769696276028     0.172881388285      
9100000000.0        0.0781113241123     0.174517988148      0.915648452795      -0.284688606806     0.915648452795      -0.284688606806     0.0781113241123     0.174517988148      
9200000000.0        0.0792627333598     0.17614588075       0.914359250824      -0.287532079343     0.914359250824      -0.287532079343     0.0792627333598     0.17614588075       
9300000000.0        0.0804237758551     0.177765004211      0.913058877253      -0.290366936936     0.913058877253      -0.290366936936     0.0804237758551     0.177765004211      
9400000000.0        0.0815943716648     0.17937529755       0.911747410594      -0.293193120047     0.911747410594      -0.293193120047     0.0815943716648     0.17937529755       
9500000000.0        0.0827744404254     0.18097670069       0.91042492977       -0.296010570036     0.91042492977       -0.296010570036     0.0827744404254     0.18097670069       
9600000000.0        0.0839639013573     0.182569154458      0.909091514107      -0.298819229164     0.909091514107      -0.298819229164     0.0839639013573     0.182569154458      
9700000000.0        0.0851626732774     0.184152600588      0.907747243319      -0.301619040597     0.907747243319      -0.301619040597     0.0851626732774     0.184152600588      
9800000000.0        0.0863706746128     0.18572698172       0.906392197497      -0.304409948403     0.906392197497      -0.304409948403     0.0863706746128     0.18572698172       
9900000000.0        0.0875878234135     0.187292241406      0.90502645709       -0.30719189756      0.90502645709       -0.30719189756      0.0875878234135     0.187292241406      
10000000000.0       0.0888140373658     0.188848324109      0.903650102899      -0.30996483395      0.903650102899      -0.30996483395      0.0888140373658     0.188848324109      
