# Hz S RI R 50.00 
100000000.0         0.0201822762184     0.00216211145001    0.979815797004      -0.00288785970565   0.979815797004      -0.00288785970565   0.0201822762184     0.00216211145001    
200000000.0         0.0203317781113     0.00432278274682    0.979664837946      -0.0057742828893    0.979664837946      -0.0057742828893    0.0203317781113     0.00432278274682    
300000000.0         0.0204587193624     0.00648246639334    0.979535909079      -0.00865972481284   0.979535909079      -0.00865972481284   0.0204587193624     0.00648246639334    
400000000.0         0.0205803454456     0.00864125839406    0.979411764872      -0.0115442837975    0.979411764872      -0.0115442837975    0.0205803454456     0.00864125839406    
500000000.0         0.0207033065279     0.010799171879      0.979285755102      -0.0144279750683    0.979285755102      -0.0144279750683    0.0207033065279     0.010799171879      
600000000.0         0.0208309967477     0.0129561833176     0.97915448557       -0.0173107770454    0.97915448557       -0.0173107770454    0.0208309967477     0.0129561833176     
700000000.0         0.0209654213279     0.0151122491181     0.979015950989      -0.020192647982     0.979015950989      -0.020192647982     0.0209654213279     0.0151122491181     
800000000.0         0.0211078784686     0.0172673133273     0.978868853093      -0.0230735336889    0.978868853093      -0.0230735336889    0.0211078784686     0.0172673133273     
900000000.0         0.0212592631527     0.0194213117688     0.978712296828      -0.0259533716873    0.978712296828      -0.0259533716873    0.0212592631527     0.0194213117688     
1000000000.0        0.0214202212317     0.0215741744954     0.978545636268      -0.0288320936721    0.978545636268      -0.0288320936721    0.0214202212317     0.0215741744954     
1100000000.0        0.0215912351313     0.0237258273482     0.978368388906      -0.0317096270794    0.978368388906      -0.0317096270794    0.0215912351313     0.0237258273482     
1200000000.0        0.02177267495       0.0258761930038     0.97818018456       -0.0345858961397    0.97818018456       -0.0345858961397    0.02177267495       0.0258761930038     
1300000000.0        0.021964830627      0.0280251917075     0.977980733203      -0.0374608226158    0.977980733203      -0.0374608226158    0.021964830627      0.0280251917075     
1400000000.0        0.0221679330974     0.0301727418052     0.977769803807      -0.0403343263383    0.977769803807      -0.0403343263383    0.0221679330974     0.0301727418052     
1500000000.0        0.0223821687167     0.03231876014       0.977547209919      -0.0432063256061    0.977547209919      -0.0432063256061    0.0223821687167     0.03231876014       
1600000000.0        0.0226076893972     0.0344631623565     0.977312799525      -0.0460767374926    0.977312799525      -0.0460767374926    0.0226076893972     0.0344631623565     
1700000000.0        0.0228446199174     0.0366058631381     0.977066447741      -0.0489454780854    0.977066447741      -0.0489454780854    0.0228446199174     0.0366058631381     
1800000000.0        0.0230930633114     0.0387467763964     0.976808051422      -0.051812462678     0.976808051422      -0.051812462678     0.0230930633114     0.0387467763964     
1900000000.0        0.0233531049191     0.0408858154247     0.976537525114      -0.0546776059244    0.976537525114      -0.0546776059244    0.0233531049191     0.0408858154247     
2000000000.0        0.0236248154839     0.043022893024      0.976254797954      -0.057540821967     0.976254797954      -0.057540821967     0.0236248154839     0.043022893024      
2100000000.0        0.023908253557      0.0451579216086     0.975959811268      -0.0604020245428    0.975959811268      -0.0604020245428    0.023908253557      0.0451579216086     
2200000000.0        0.0242034673889     0.0472908132945     0.975652516678      -0.0632611270737    0.975652516678      -0.0632611270737    0.0242034673889     0.0472908132945     
2300000000.0        0.0245104964365     0.0494214799758     0.975332874594      -0.0661180427435    0.975332874594      -0.0661180427435    0.0245104964365     0.0494214799758     
2400000000.0        0.024829372576      0.0515498333902     0.975000853005      -0.0689726845641    0.975000853005      -0.0689726845641    0.024829372576      0.0515498333902     
2500000000.0        0.0251601210902     0.053675785176      0.974656426486      -0.0718249654334    0.974656426486      -0.0718249654334    0.0251601210902     0.053675785176      
2600000000.0        0.0255027614781     0.0557992469225     0.974299575396      -0.074674798187     0.974299575396      -0.074674798187     0.0255027614781     0.0557992469225     
2700000000.0        0.0258573081262     0.0579201302149     0.973930285198      -0.0775220956427    0.973930285198      -0.0775220956427    0.0258573081262     0.0579201302149     
2800000000.0        0.0262237708675     0.0600383466739     0.973548545907      -0.0803667706416    0.973548545907      -0.0803667706416    0.0262237708675     0.0600383466739     
2900000000.0        0.0266021554525     0.0621538079922     0.973154351614      -0.0832087360848    0.973154351614      -0.0832087360848    0.0266021554525     0.0621538079922     
3000000000.0        0.0269924639466     0.0642664259667     0.972747700094      -0.0860479049658    0.972747700094      -0.0860479049658    0.0269924639466     0.0642664259667     
3100000000.0        0.0273946950696     0.0663761125286     0.972328592462      -0.0888841904019    0.972328592462      -0.0888841904019    0.0273946950696     0.0663761125286     
3200000000.0        0.0278088444854     0.068482779771      0.971897032885      -0.0917175056614    0.971897032885      -0.0917175056614    0.0278088444854     0.068482779771      
3300000000.0        0.0282349050526     0.0705863399741     0.97145302833       -0.0945477641893    0.97145302833       -0.0945477641893    0.0282349050526     0.0705863399741     
3400000000.0        0.028672867041      0.0726867056287     0.970996588351      -0.0973748796317    0.970996588351      -0.0973748796317    0.028672867041      0.0726867056287     
3500000000.0        0.0291227183203     0.0747837894581     0.970527724896      -0.100198765858     0.970527724896      -0.100198765858     0.0291227183203     0.0747837894581     
3600000000.0        0.0295844445252     0.0768775044389     0.970046452145      -0.10301933698      0.970046452145      -0.10301933698      0.0295844445252     0.0768775044389     
3700000000.0        0.0300580292        0.0789677638205     0.969552786366      -0.105836507377     0.969552786366      -0.105836507377     0.0300580292        0.0789677638205     
3800000000.0        0.0305434539274     0.0810544811429     0.969046745782      -0.108650191707     0.969046745782      -0.108650191707     0.0305434539274     0.0810544811429     
3900000000.0        0.0310406984412     0.0831375702544     0.968528350462      -0.111460304928     0.968528350462      -0.111460304928     0.0310406984412     0.0831375702544     
4000000000.0        0.0315497407283     0.0852169453279     0.967997622218      -0.114266762318     0.967997622218      -0.114266762318     0.0315497407283     0.0852169453279     
4100000000.0        0.0320705571186     0.0872925208769     0.967454584516      -0.117069479484     0.967454584516      -0.117069479484     0.0320705571186     0.0872925208769     
4200000000.0        0.0326031223663     0.0893642117702     0.966899262392      -0.119868372382     0.966899262392      -0.119868372382     0.0326031223663     0.0893642117702     
4300000000.0        0.0331474097231     0.0914319332461     0.966331682382      -0.122663357332     0.966331682382      -0.122663357332     0.0331474097231     0.0914319332461     
4400000000.0        0.0337033910045     0.0934956009268     0.965751872455      -0.125454351027     0.965751872455      -0.125454351027     0.0337033910045     0.0934956009268     
4500000000.0        0.0342710366499     0.095555130831      0.96515986195       -0.128241270553     0.96515986195       -0.128241270553     0.0342710366499     0.095555130831      
4600000000.0        0.0348503157773     0.0976104393871     0.964555681525      -0.131024033397     0.964555681525      -0.131024033397     0.0348503157773     0.0976104393871     
4700000000.0        0.0354411962335     0.0996614434454     0.963939363105      -0.133802557461     0.963939363105      -0.133802557461     0.0354411962335     0.0996614434454     
4800000000.0        0.0360436446401     0.10170806029       0.963310939838      -0.136576761077     0.963310939838      -0.136576761077     0.0360436446401     0.10170806029       
4900000000.0        0.0366576264362     0.10375020765       0.962670446049      -0.139346563012     0.962670446049      -0.139346563012     0.0366576264362     0.10375020765       
5000000000.0        0.037283105917      0.105787803711      0.962017917202      -0.142111882486     0.962017917202      -0.142111882486     0.037283105917      0.105787803711      
5100000000.0        0.0379200462709     0.107820767126      0.961353389867      -0.14487263918      0.961353389867      -0.14487263918      0.0379200462709     0.107820767126      
5200000000.0        0.0385684096127     0.109849017027      0.960676901683      -0.147628753245     0.960676901683      -0.147628753245     0.0385684096127     0.109849017027      
5300000000.0        0.0392281570156     0.11187247303       0.959988491325      -0.150380145317     0.959988491325      -0.150380145317     0.0392281570156     0.11187247303       
5400000000.0        0.0398992485407     0.113891055253      0.959288198478      -0.153126736521     0.959288198478      -0.153126736521     0.0398992485407     0.113891055253      
5500000000.0        0.0405816432647     0.115904684318      0.958576063808      -0.155868448486     0.958576063808      -0.155868448486     0.0405816432647     0.115904684318      
5600000000.0        0.0412752993063     0.117913281366      0.957852128935      -0.158605203352     0.957852128935      -0.158605203352     0.0412752993063     0.117913281366      
5700000000.0        0.041980173851      0.119916768064      0.957116436408      -0.161336923779     0.957116436408      -0.161336923779     0.041980173851      0.119916768064      
5800000000.0        0.0426962231742     0.12191506661       0.956369029682      -0.164063532956     0.956369029682      -0.164063532956     0.0426962231742     0.12191506661       
5900000000.0        0.0434234026642     0.123908099749      0.955609953096      -0.16678495461      0.955609953096      -0.16678495461      0.0434234026642     0.123908099749      
6000000000.0        0.0441616668429     0.125895790776      0.954839251854      -0.169501113016     0.954839251854      -0.169501113016     0.0441616668429     0.125895790776      
6100000000.0        0.0449109693863     0.127878063545      0.954056971998      -0.172211933003     0.954056971998      -0.172211933003     0.0449109693863     0.127878063545      
6200000000.0        0.0456712631445     0.129854842478      0.953263160396      -0.174917339961     0.953263160396      -0.174917339961     0.0456712631445     0.129854842478      
6300000000.0        0.0464425001596     0.131826052572      0.952457864718      -0.177617259854     0.952457864718      -0.177617259854     0.0464425001596     0.131826052572      
6400000000.0        0.0472246316844     0.133791619409      0.95164113342       -0.180311619222     0.95164113342       -0.180311619222     0.0472246316844     0.133791619409      
6500000000.0        0.0480176081996     0.135751469157      0.950813015729      -0.18300034519      0.950813015729      -0.18300034519      0.0480176081996     0.135751469157      
6600000000.0        0.0488213794305     0.137705528584      0.949973561621      -0.185683365477     0.949973561621      -0.185683365477     0.0488213794305     0.137705528584      
6700000000.0        0.0496358943635     0.139653725061      0.949122821807      -0.188360608401     0.949122821807      -0.188360608401     0.0496358943635     0.139653725061      
6800000000.0        0.0504611012618     0.141595986571      0.948260847721      -0.191032002889     0.948260847721      -0.191032002889     0.0504611012618     0.141595986571      
6900000000.0        0.0512969476811     0.143532241713      0.947387691497      -0.193697478476     0.947387691497      -0.193697478476     0.0512969476811     0.143532241713      
7000000000.0        0.0521433804841     0.145462419709      0.946503405962      -0.196356965322     0.946503405962      -0.196356965322     0.0521433804841     0.145462419709      
7100000000.0        0.0530003458555     0.147386450414      0.945608044614      -0.199010394209     0.945608044614      -0.199010394209     0.0530003458555     0.147386450414      
7200000000.0        0.0538677893165     0.149304264315      0.944701661613      -0.201657696552     0.944701661613      -0.201657696552     0.0538677893165     0.149304264315      
7300000000.0        0.0547456557382     0.151215792542      0.943784311766      -0.204298804406     0.943784311766      -0.204298804406     0.0547456557382     0.151215792542      
7400000000.0        0.0556338893559     0.153120966875      0.942856050512      -0.206933650465     0.942856050512      -0.206933650465     0.0556338893559     0.153120966875      
7500000000.0        0.0565324337824     0.155019719742      0.941916933907      -0.209562168077     0.941916933907      -0.209562168077     0.0565324337824     0.155019719742      
7600000000.0        0.057441232021      0.156911984232      0.940967018616      -0.212184291239     0.940967018616      -0.212184291239     0.057441232021      0.156911984232      
7700000000.0        0.0583602264789     0.158797694097      0.940006361894      -0.214799954612     0.940006361894      -0.214799954612     0.0583602264789     0.158797694097      
7800000000.0        0.0592893589799     0.160676783757      0.939035021577      -0.21740909352      0.939035021577      -0.21740909352      0.0592893589799     0.160676783757      
7900000000.0        0.0602285707768     0.162549188304      0.93805305607       -0.220011643956     0.93805305607       -0.220011643956     0.0602285707768     0.162549188304      
8000000000.0        0.0611778025641     0.164414843509      0.93706052433       -0.222607542586     0.93706052433       -0.222607542586     0.0611778025641     0.164414843509      
8100000000.0        0.0621369944904     0.166273685824      0.936057485858      -0.225196726758     0.936057485858      -0.225196726758     0.0621369944904     0.166273685824      
8200000000.0        0.0631060861701     0.168125652388      0.935044000686      -0.227779134501     0.935044000686      -0.227779134501     0.0631060861701     0.168125652388      
8300000000.0        0.064085016696      0.16997068103       0.934020129363      -0.230354704529     0.934020129363      -0.230354704529     0.064085016696      0.16997068103       
8400000000.0        0.0650737246507     0.171808710273      0.932985932947      -0.232923376252     0.932985932947      -0.232923376252     0.0650737246507     0.171808710273      
8500000000.0        0.0660721481185     0.17363967934       0.931941472987      -0.235485089771     0.931941472987      -0.235485089771     0.0660721481185     0.17363967934       
8600000000.0        0.0670802246971     0.175463528155      0.930886811519      -0.238039785887     0.930886811519      -0.238039785887     0.0670802246971     0.175463528155      
8700000000.0        0.0680978915093     0.177280197347      0.929822011049      -0.240587406105     0.929822011049      -0.240587406105     0.0680978915093     0.177280197347      
8800000000.0        0.0691250852139     0.179089628255      0.928747134542      -0.243127892635     0.928747134542      -0.243127892635     0.0691250852139     0.179089628255      
8900000000.0        0.0701617420176     0.18089176293       0.927662245415      -0.245661188394     0.927662245415      -0.245661188394     0.0701617420176     0.18089176293       
9000000000.0        0.0712077976858     0.182686544137      0.926567407519      -0.248187237013     0.926567407519      -0.248187237013     0.0712077976858     0.182686544137      
9100000000.0        0.0722631875541     0.18447391536       0.925462685135      -0.25070598284      0.925462685135      -0.25070598284      0.0722631875541     0.18447391536       
9200000000.0        0.0733278465391     0.186253820805      0.924348142958      -0.253217370937     0.924348142958      -0.253217370937     0.0733278465391     0.186253820805      
9300000000.0        0.0744017091494     0.188026205399      0.923223846086      -0.255721347089     0.923223846086      -0.255721347089     0.0744017091494     0.188026205399      
9400000000.0        0.0754847094968     0.189791014796      0.922089860013      -0.258217857804     0.922089860013      -0.258217857804     0.0754847094968     0.189791014796      
9500000000.0        0.0765767813066     0.191548195379      0.920946250615      -0.260706850315     0.920946250615      -0.260706850315     0.0765767813066     0.191548195379      
9600000000.0        0.077677857929      0.193297694261      0.919793084139      -0.263188272583     0.919793084139      -0.263188272583     0.077677857929      0.193297694261      
9700000000.0        0.0787878723491     0.195039459287      0.918630427196      -0.265662073298     0.918630427196      -0.265662073298     0.0787878723491     0.195039459287      
9800000000.0        0.0799067571979     0.196773439037      0.917458346744      -0.268128201883     0.917458346744      -0.268128201883     0.0799067571979     0.196773439037      
9900000000.0        0.0810344447629     0.198499582826      0.916276910085      -0.270586608492     0.916276910085      -0.270586608492     0.0810344447629     0.198499582826      
10000000000.0       0.0821708669984     0.200217840708      0.915086184848      -0.273037244018     0.915086184848      -0.273037244018     0.0821708669984     0.200217840708      
