# Hz S RI R 50.00 
100000000.0         0.00305934285825    0.000286320538732   0.996939537486      -0.000407244490308  0.996939537486      -0.000407244490308  0.00305934285825    0.000286320538732   
200000000.0         0.00307979179967    0.000572613396734   0.99691895425       -0.000814461951059  0.99691895425       -0.000814461951059  0.00307979179967    0.000572613396734   
300000000.0         0.00309502454189    0.000858890024997   0.996903572573      -0.00122166418433   0.996903572573      -0.00122166418433   0.00309502454189    0.000858890024997   
400000000.0         0.00310770268054    0.00114515440256    0.996890730859      -0.0016288554416    0.996890730859      -0.0016288554416    0.00310770268054    0.00114515440256    
500000000.0         0.00311885348597    0.00143140875615    0.996879401837      -0.00203603818276   0.996879401837      -0.00203603818276   0.00311885348597    0.00143140875615    
600000000.0         0.00312900196666    0.00171765453158    0.996869060497      -0.00244321406115   0.996869060497      -0.00244321406115   0.00312900196666    0.00171765453158    
700000000.0         0.00313845890904    0.00200389274413    0.996859396051      -0.00285038428085   0.996859396051      -0.00285038428085   0.00313845890904    0.00200389274413    
800000000.0         0.00314742608978    0.00229012414138    0.996850206723      -0.00325754976406   0.996850206723      -0.00325754976406   0.00314742608978    0.00229012414138    
900000000.0         0.00315604315887    0.0025763492914     0.996841352859      -0.00366471124157   0.996841352859      -0.00366471124157   0.00315604315887    0.0025763492914     
1000000000.0        0.00316441142241    0.00286256863475    0.996832733154      -0.00407186930703   0.996832733154      -0.00407186930703   0.0031644114224     0.00286256863475    
1100000000.0        0.0031726070735     0.00314878251788    0.996824271413      -0.00447902445154   0.996824271413      -0.00447902445154   0.0031726070735     0.00314878251788    
1200000000.0        0.0031806890823     0.00343499121535    0.996815908664      -0.00488617708718   0.996815908664      -0.00488617708718   0.0031806890823     0.00343499121535    
1300000000.0        0.00318870416369    0.00372119494561    0.996807598192      -0.00529332756332   0.996807598192      -0.00529332756332   0.00318870416369    0.00372119494561    
1400000000.0        0.00319669004532    0.00400739388213    0.996799302266      -0.0057004761789    0.996799302266      -0.0057004761789    0.00319669004532    0.00400739388213    
1500000000.0        0.00320467769594    0.00429358816199    0.996790989917      -0.00610762319114   0.996790989917      -0.00610762319114   0.00320467769594    0.00429358816199    
1600000000.0        0.0032126928918     0.0045797778923     0.996782635367      -0.00651476882253   0.996782635367      -0.00651476882253   0.0032126928918     0.00457977789229    
1700000000.0        0.00322075734637    0.004865963155      0.996774216901      -0.00692191326631   0.996774216901      -0.00692191326631   0.00322075734637    0.004865963155      
1800000000.0        0.00322888954309    0.00515214401109    0.996765716033      -0.00732905669054   0.996765716033      -0.00732905669054   0.00322888954309    0.00515214401109    
1900000000.0        0.00323710536184    0.00543832050352    0.996757116883      -0.00773619924175   0.996757116883      -0.00773619924175   0.00323710536184    0.00543832050352    
2000000000.0        0.00324541855754    0.00572449265991    0.996748405694      -0.00814334104763   0.996748405694      -0.00814334104763   0.00324541855754    0.00572449265991    
2100000000.0        0.00325384113185    0.00601066049462    0.996739570463      -0.00855048221941   0.996739570463      -0.00855048221941   0.00325384113185    0.00601066049462    
2200000000.0        0.0032623836256     0.0062968240105     0.996730600646      -0.0089576228538    0.996730600646      -0.0089576228538    0.0032623836256     0.0062968240105     
2300000000.0        0.00327105535161    0.00658298320039    0.996721486929      -0.00936476303463   0.996721486929      -0.00936476303463   0.00327105535161    0.00658298320039    
2400000000.0        0.00327986458205    0.00686913804831    0.996712221038      -0.00977190283426   0.996712221038      -0.00977190283426   0.00327986458205    0.00686913804831    
2500000000.0        0.00328881870089    0.00715528853053    0.996702795588      -0.0101790423147    0.996702795588      -0.0101790423147    0.00328881870089    0.00715528853053    
2600000000.0        0.00329792432884    0.00744143461654    0.996693203955      -0.0105861815289    0.996693203955      -0.0105861815289    0.00329792432884    0.00744143461654    
2700000000.0        0.00330718742676    0.00772757626975    0.996683440178      -0.0109933205212    0.996683440178      -0.0109933205212    0.00330718742676    0.00772757626975    
2800000000.0        0.00331661338185    0.00801371344816    0.996673498866      -0.0114004593284    0.996673498866      -0.0114004593284    0.00331661338185    0.00801371344816    
2900000000.0        0.00332620707994    0.00829984610505    0.996663375133      -0.0118075979807    0.996663375133      -0.0118075979807    0.00332620707994    0.00829984610505    
3000000000.0        0.0033359729666     0.0085859741894     0.996653064529      -0.0122147365016    0.996653064529      -0.0122147365016    0.0033359729666     0.0085859741894     
3100000000.0        0.00334591509905    0.00887209764641    0.996642562997      -0.0126218749091    0.996642562997      -0.0126218749091    0.00334591509905    0.00887209764641    
3200000000.0        0.00335603719056    0.00915821641784    0.996631866821      -0.013029013216     0.996631866821      -0.013029013216     0.00335603719056    0.00915821641784    
3300000000.0        0.0033663426485     0.00944433044242    0.996620972592      -0.01343615143      0.996620972592      -0.01343615143      0.0033663426485     0.00944433044242    
3400000000.0        0.00337683460732    0.00973043965615    0.996609877172      -0.0138432895546    0.996609877172      -0.0138432895546    0.00337683460732    0.00973043965615    
3500000000.0        0.003387515957      0.0100165439926     0.99659857767       -0.0142504275889    0.99659857767       -0.0142504275889    0.003387515957      0.0100165439926     
3600000000.0        0.00339838936798    0.0103026433831     0.996587071413      -0.0146575655285    0.996587071413      -0.0146575655285    0.00339838936798    0.0103026433831     
3700000000.0        0.00340945731281    0.0105887377571     0.996575355926      -0.0150647033652    0.996575355926      -0.0150647033652    0.00340945731281    0.0105887377571     
3800000000.0        0.00342072208531    0.0108748270421     0.996563428914      -0.0154718410877    0.996563428914      -0.0154718410877    0.00342072208531    0.0108748270421     
3900000000.0        0.00343218581726    0.0111609111643     0.996551288243      -0.0158789786817    0.996551288243      -0.0158789786817    0.00343218581726    0.0111609111643     
4000000000.0        0.00344385049334    0.0114469900484     0.996538931924      -0.0162861161298    0.996538931924      -0.0162861161298    0.00344385049334    0.0114469900484     
4100000000.0        0.00345571796427    0.0117330636177     0.996526358107      -0.0166932534123    0.996526358107      -0.0166932534123    0.00345571796427    0.0117330636177     
4200000000.0        0.0034677899585     0.0120191317946     0.996513565059      -0.0171003905068    0.996513565059      -0.0171003905068    0.0034677899585     0.0120191317946     
4300000000.0        0.00348006809267    0.0123051945004     0.996500551162      -0.0175075273888    0.996500551162      -0.0175075273888    0.00348006809267    0.0123051945004     
4400000000.0        0.00349255388098    0.0125912516555     0.996487314899      -0.0179146640314    0.996487314899      -0.0179146640314    0.00349255388098    0.0125912516555     
4500000000.0        0.00350524874351    0.0128773031797     0.996473854848      -0.018321800406     0.996473854848      -0.018321800406     0.00350524874351    0.0128773031797     
4600000000.0        0.00351815401382    0.0131633489918     0.996460169673      -0.0187289364818    0.996460169673      -0.0187289364818    0.00351815401383    0.0131633489918     
4700000000.0        0.0035312709457     0.0134493890105     0.996446258118      -0.0191360722266    0.996446258118      -0.0191360722266    0.0035312709457     0.0134493890105     
4800000000.0        0.00354460071928    0.0137354231537     0.996432119         -0.0195432076063    0.996432119         -0.0195432076063    0.00354460071928    0.0137354231537     
4900000000.0        0.00355814444665    0.0140214513388     0.996417751204      -0.0199503425852    0.996417751204      -0.0199503425852    0.00355814444665    0.0140214513388     
5000000000.0        0.00357190317684    0.014307473483      0.996403153681      -0.0203574771264    0.996403153681      -0.0203574771264    0.00357190317684    0.014307473483      
5100000000.0        0.00358587790039    0.0145934895033     0.996388325435      -0.0207646111915    0.996388325435      -0.0207646111915    0.00358587790039    0.0145934895033     
5200000000.0        0.00360006955357    0.0148794993163     0.996373265529      -0.0211717447407    0.996373265529      -0.0211717447407    0.00360006955357    0.0148794993163     
5300000000.0        0.00361447902212    0.0151655028385     0.996357973074      -0.0215788777331    0.996357973074      -0.0215788777331    0.00361447902212    0.0151655028385     
5400000000.0        0.00362910714478    0.0154514999861     0.99634244723       -0.0219860101268    0.99634244723       -0.0219860101268    0.00362910714478    0.0154514999861     
5500000000.0        0.00364395471641    0.0157374906756     0.996326687198      -0.0223931418787    0.996326687198      -0.0223931418787    0.00364395471641    0.0157374906756     
5600000000.0        0.00365902249098    0.0160234748232     0.996310692223      -0.0228002729445    0.996310692223      -0.0228002729445    0.00365902249098    0.0160234748232     
5700000000.0        0.00367431118416    0.016309452345      0.996294461586      -0.0232074032794    0.996294461586      -0.0232074032794    0.00367431118416    0.016309452345      
5800000000.0        0.00368982147589    0.0165954231573     0.996277994604      -0.0236145328373    0.996277994604      -0.0236145328373    0.00368982147589    0.0165954231573     
5900000000.0        0.00370555401252    0.0168813871766     0.99626129063       -0.0240216615714    0.99626129063       -0.0240216615714    0.00370555401252    0.0168813871766     
6000000000.0        0.00372150940904    0.0171673443193     0.996244349044      -0.0244287894343    0.996244349044      -0.0244287894343    0.00372150940904    0.0171673443193     
6100000000.0        0.00373768825089    0.0174532945019     0.99622716926       -0.0248359163775    0.99622716926       -0.0248359163775    0.00373768825089    0.0174532945019     
6200000000.0        0.00375409109585    0.0177392376412     0.996209750717      -0.0252430423521    0.996209750717      -0.0252430423521    0.00375409109585    0.0177392376412     
6300000000.0        0.00377071847561    0.0180251736542     0.99619209288       -0.0256501673084    0.99619209288       -0.0256501673084    0.00377071847561    0.0180251736542     
6400000000.0        0.00378757089738    0.0183111024581     0.99617419524       -0.026057291196     0.99617419524       -0.026057291196     0.00378757089738    0.0183111024581     
6500000000.0        0.00380464884524    0.0185970239701     0.99615605731       -0.0264644139641    0.99615605731       -0.0264644139641    0.00380464884524    0.0185970239701     
6600000000.0        0.00382195278155    0.018882938108      0.996137678625      -0.0268715355613    0.996137678625      -0.0268715355613    0.00382195278155    0.018882938108      
6700000000.0        0.00383948314809    0.0191688447897     0.996119058741      -0.0272786559355    0.996119058741      -0.0272786559355    0.00383948314809    0.0191688447897     
6800000000.0        0.00385724036727    0.0194547439333     0.996100197232      -0.0276857750344    0.996100197232      -0.0276857750344    0.00385724036727    0.0194547439333     
6900000000.0        0.00387522484321    0.0197406354575     0.996081093693      -0.0280928928049    0.996081093693      -0.0280928928049    0.00387522484321    0.0197406354575     
7000000000.0        0.00389343696266    0.0200265192809     0.996061747732      -0.0285000091939    0.996061747732      -0.0285000091939    0.00389343696266    0.0200265192809     
7100000000.0        0.00391187709602    0.0203123953229     0.996042158979      -0.0289071241474    0.996042158979      -0.0289071241474    0.00391187709602    0.0203123953229     
7200000000.0        0.00393054559817    0.020598263503      0.996022327074      -0.0293142376114    0.996022327074      -0.0293142376114    0.00393054559817    0.020598263503      
7300000000.0        0.00394944280927    0.020884123741      0.996002251675      -0.0297213495313    0.996002251675      -0.0297213495313    0.00394944280927    0.020884123741      
7400000000.0        0.00396856905557    0.0211699759571     0.995981932454      -0.0301284598524    0.995981932454      -0.0301284598524    0.00396856905557    0.0211699759571     
7500000000.0        0.00398792465009    0.0214558200721     0.995961369094      -0.0305355685194    0.995961369094      -0.0305355685194    0.00398792465009    0.0214558200721     
7600000000.0        0.00400750989332    0.021741656007      0.995940561292      -0.030942675477     0.995940561292      -0.030942675477     0.00400750989332    0.021741656007      
7700000000.0        0.00402732507382    0.0220274836832     0.995919508757      -0.0313497806693    0.995919508757      -0.0313497806693    0.00402732507382    0.0220274836832     
7800000000.0        0.00404737046885    0.0223133030226     0.995898211209      -0.0317568840405    0.995898211209      -0.0317568840405    0.00404737046885    0.0223133030226     
7900000000.0        0.00406764634489    0.0225991139475     0.99587666838       -0.0321639855342    0.99587666838       -0.0321639855342    0.00406764634489    0.0225991139475     
8000000000.0        0.00408815295819    0.0228849163805     0.995854880009      -0.032571085094     0.995854880009      -0.032571085094     0.00408815295819    0.0228849163805     
8100000000.0        0.00410889055528    0.0231707102449     0.995832845847      -0.0329781826633    0.995832845847      -0.0329781826633    0.00410889055528    0.0231707102449     
8200000000.0        0.00412985937339    0.0234564954642     0.995810565656      -0.0333852781852    0.995810565656      -0.0333852781852    0.00412985937339    0.0234564954642     
8300000000.0        0.00415105964094    0.0237422719624     0.995788039203      -0.0337923716026    0.995788039203      -0.0337923716026    0.00415105964094    0.0237422719624     
8400000000.0        0.00417249157793    0.024028039664      0.995765266266      -0.0341994628582    0.995765266266      -0.0341994628582    0.00417249157793    0.024028039664      
8500000000.0        0.00419415539633    0.024313798494      0.99574224663       -0.0346065518948    0.99574224663       -0.0346065518948    0.00419415539633    0.024313798494      
8600000000.0        0.00421605130047    0.0245995483777     0.995718980089      -0.0350136386549    0.995718980089      -0.0350136386549    0.00421605130047    0.0245995483777     
8700000000.0        0.00423817948737    0.024885289241      0.995695466441      -0.0354207230806    0.995695466441      -0.0354207230806    0.00423817948737    0.024885289241      
8800000000.0        0.00426054014708    0.0251710210102     0.995671705496      -0.0358278051144    0.995671705496      -0.0358278051144    0.00426054014708    0.0251710210102     
8900000000.0        0.00428313346302    0.0254567436122     0.995647697065      -0.0362348846983    0.995647697065      -0.0362348846983    0.00428313346302    0.0254567436122     
9000000000.0        0.00430595961223    0.0257424569742     0.995623440971      -0.0366419617742    0.995623440971      -0.0366419617742    0.00430595961223    0.0257424569742     
9100000000.0        0.00432901876569    0.026028161024      0.995598937038      -0.0370490362842    0.995598937038      -0.0370490362842    0.00432901876569    0.026028161024      
9200000000.0        0.00435231108858    0.0263138556897     0.9955741851        -0.03745610817      0.9955741851        -0.03745610817      0.00435231108858    0.0263138556897     
9300000000.0        0.00437583674054    0.0265995409002     0.995549184993      -0.0378631773735    0.995549184993      -0.0378631773735    0.00437583674054    0.0265995409002     
9400000000.0        0.00439959587588    0.0268852165846     0.995523936561      -0.0382702438363    0.995523936561      -0.0382702438363    0.00439959587588    0.0268852165846     
9500000000.0        0.00442358864385    0.0271708826726     0.995498439651      -0.0386773075       0.995498439651      -0.0386773075       0.00442358864385    0.0271708826726     
9600000000.0        0.00444781518885    0.0274565390944     0.995472694117      -0.0390843683063    0.995472694117      -0.0390843683063    0.00444781518885    0.0274565390944     
9700000000.0        0.00447227565063    0.0277421857807     0.995446699816      -0.0394914261966    0.995446699816      -0.0394914261966    0.00447227565063    0.0277421857807     
9800000000.0        0.00449697016447    0.0280278226625     0.99542045661       -0.0398984811125    0.99542045661       -0.0398984811125    0.00449697016447    0.0280278226625     
9900000000.0        0.00452189886141    0.0283134496715     0.995393964365      -0.0403055329954    0.995393964365      -0.0403055329954    0.00452189886141    0.0283134496715     
10000000000.0       0.00454706186839    0.02859906674       0.995367222952      -0.0407125817868    0.995367222952      -0.0407125817868    0.00454706186839    0.02859906674       
