# Hz S RI R 50.00 
100000000.0         0.000968110535762   0.000330070427967   0.999030400105      -0.000753926672289  0.999030400105      -0.000753926672289  0.000968110535761   0.000330070427967   
200000000.0         0.000975108069152   0.000660127040362   0.999022733486      -0.00150784582712   0.999022733486      -0.00150784582712   0.000975108069153   0.000660127040362   
300000000.0         0.00098089181947    0.000990175061998   0.999016100907      -0.00226176607443   0.999016100907      -0.00226176607443   0.00098089181947    0.000990175061998   
400000000.0         0.000986302727976   0.00132021599982    0.999009661404      -0.00301569151445   0.999009661404      -0.00301569151445   0.000986302727976   0.00132021599982    
500000000.0         0.000991664732898   0.00165025049177    0.999003091017      -0.00376962497699   0.999003091017      -0.00376962497699   0.000991664732898   0.00165025049177    
600000000.0         0.000997143078757   0.00198027879317    0.998996224475      -0.00452356864584   0.998996224475      -0.00452356864584   0.000997143078757   0.00198027879317    
700000000.0         0.00100283540296    0.00231030095327    0.998988964109      -0.00527752430447   0.998988964109      -0.00527752430447   0.00100283540296    0.00231030095327    
800000000.0         0.00100880497973    0.00264031689713    0.998981246616      -0.00603149346058   0.998981246616      -0.00603149346058   0.00100880497973    0.00264031689713    
900000000.0         0.00101509552182    0.00297032646955    0.998973028248      -0.00678547741837   0.998973028248      -0.00678547741837   0.00101509552182    0.00297032646955    
1000000000.0        0.00102173868295    0.00330032946176    0.998964277316      -0.00753947732408   0.998964277316      -0.00753947732408   0.00102173868295    0.00330032946176    
1100000000.0        0.00102875822839    0.00363032562782    0.998954970018      -0.00829349419736   0.998954970018      -0.00829349419736   0.00102875822839    0.00363032562782    
1200000000.0        0.00103617251994    0.00396031469568    0.998945087951      -0.00904752895363   0.998945087951      -0.00904752895363   0.00103617251994    0.00396031469568    
1300000000.0        0.00104399607936    0.0042902963751     0.998934616554      -0.00980158242041   0.998934616554      -0.00980158242041   0.00104399607935    0.0042902963751     
1400000000.0        0.0010522406159     0.00462027036308    0.998923544075      -0.0105556553501    0.998923544075      -0.0105556553501    0.0010522406159     0.00462027036308    
1500000000.0        0.00106091572658    0.00495023634787    0.998911860873      -0.01130974843      0.998911860873      -0.01130974843      0.00106091572658    0.00495023634787    
1600000000.0        0.00107002938784    0.00528019401218    0.998899558927      -0.0120638622899    0.998899558927      -0.0120638622899    0.00107002938784    0.00528019401218    
1700000000.0        0.00107958830999    0.00561014303542    0.998886631478      -0.0128179975091    0.998886631478      -0.0128179975091    0.00107958830999    0.00561014303542    
1800000000.0        0.00108959819819    0.00594008309553    0.998873072775      -0.0135721546213    0.998873072775      -0.0135721546213    0.00108959819819    0.00594008309553    
1900000000.0        0.00110006394863    0.0062700138704     0.998858877872      -0.0143263341195    0.998858877872      -0.0143263341195    0.00110006394863    0.0062700138704     
2000000000.0        0.00111098979836    0.00659993503895    0.998844042481      -0.0150805364595    0.998844042481      -0.0150805364595    0.00111098979836    0.00659993503895    
2100000000.0        0.00112237944144    0.00692984628209    0.998828562859      -0.0158347620635    0.998828562859      -0.0158347620635    0.00112237944144    0.00692984628209    
2200000000.0        0.00113423612033    0.00725974728341    0.998812435709      -0.0165890113225    0.998812435709      -0.0165890113225    0.00113423612033    0.00725974728341    
2300000000.0        0.00114656269855    0.00758963772972    0.998795658115      -0.0173432845995    0.998795658115      -0.0173432845995    0.00114656269855    0.00758963772972    
2400000000.0        0.00115936171912    0.00791951731158    0.998778227481      -0.0180975822307    0.998778227481      -0.0180975822307    0.00115936171912    0.00791951731158    
2500000000.0        0.0011726354521     0.0082493857236     0.998760141481      -0.0188519045284    0.998760141481      -0.0188519045284    0.0011726354521     0.0082493857236     
2600000000.0        0.00118638593343    0.00857924266481    0.998741398023      -0.019606251782     0.998741398023      -0.019606251782     0.00118638593343    0.00857924266481    
2700000000.0        0.00120061499718    0.00890908783889    0.998721995217      -0.0203606242598    0.998721995217      -0.0203606242598    0.00120061499718    0.00890908783889    
2800000000.0        0.00121532430228    0.00923892095431    0.998701931347      -0.0211150222106    0.998701931347      -0.0211150222106    0.00121532430228    0.00923892095431    
2900000000.0        0.00123051535502    0.00956874172457    0.998681204848      -0.0218694458644    0.998681204848      -0.0218694458644    0.00123051535502    0.00956874172457    
3000000000.0        0.00124618952799    0.00989854986823    0.99865981429       -0.0226238954339    0.99865981429       -0.0226238954339    0.00124618952799    0.00989854986823    
3100000000.0        0.00126234807619    0.0102283451091     0.998637758356      -0.0233783711156    0.998637758356      -0.0233783711156    0.00126234807619    0.0102283451091     
3200000000.0        0.00127899215081    0.0105581271763     0.998615035838      -0.0241328730903    0.998615035838      -0.0241328730903    0.00127899215081    0.0105581271763     
3300000000.0        0.00129612281097    0.0108878958041     0.998591645615      -0.0248874015244    0.998591645615      -0.0248874015244    0.00129612281097    0.0108878958041     
3400000000.0        0.00131374103396    0.0112176507324     0.998567586649      -0.0256419565704    0.998567586649      -0.0256419565704    0.00131374103396    0.0112176507324     
3500000000.0        0.00133184772403    0.0115473917062     0.998542857973      -0.0263965383679    0.998542857973      -0.0263965383679    0.00133184772403    0.0115473917062     
3600000000.0        0.00135044372007    0.0118771184761     0.998517458688      -0.0271511470438    0.998517458688      -0.0271511470438    0.00135044372007    0.0118771184761     
3700000000.0        0.00136952980234    0.012206830798      0.99849138795       -0.0279057827133    0.99849138795       -0.0279057827133    0.00136952980234    0.012206830798      
3800000000.0        0.00138910669833    0.0125365284332     0.998464644969      -0.0286604454805    0.998464644969      -0.0286604454805    0.00138910669833    0.0125365284332     
3900000000.0        0.00140917508795    0.0128662111482     0.998437229002      -0.0294151354386    0.998437229002      -0.0294151354386    0.00140917508795    0.0128662111482     
4000000000.0        0.00142973560812    0.0131958787152     0.998409139348      -0.0301698526706    0.998409139348      -0.0301698526706    0.00142973560812    0.0131958787152     
4100000000.0        0.00145078885678    0.0135255309113     0.998380375345      -0.0309245972497    0.998380375345      -0.0309245972497    0.00145078885678    0.0135255309113     
4200000000.0        0.00147233539655    0.0138551675191     0.998350936366      -0.03167936924      0.998350936366      -0.03167936924      0.00147233539655    0.0138551675191     
4300000000.0        0.00149437575791    0.0141847883264     0.998320821816      -0.0324341686965    0.998320821816      -0.0324341686965    0.00149437575791    0.0141847883264     
4400000000.0        0.00151691044209    0.0145143931262     0.998290031129      -0.0331889956654    0.998290031129      -0.0331889956654    0.00151691044209    0.0145143931262     
4500000000.0        0.00153993992362    0.0148439817166     0.998258563765      -0.0339438501852    0.998258563765      -0.0339438501852    0.00153993992362    0.0148439817166     
4600000000.0        0.00156346465267    0.0151735539007     0.998226419209      -0.034698732286     0.998226419209      -0.034698732286     0.00156346465267    0.0151735539007     
4700000000.0        0.00158748505711    0.0155031094869     0.998193596966      -0.0354536419907    0.998193596966      -0.0354536419907    0.00158748505711    0.0155031094869     
4800000000.0        0.00161200154443    0.0158326482885     0.998160096563      -0.0362085793148    0.998160096563      -0.0362085793148    0.00161200154443    0.0158326482885     
4900000000.0        0.00163701450338    0.0161621701236     0.998125917546      -0.0369635442668    0.998125917546      -0.0369635442668    0.00163701450338    0.0161621701236     
5000000000.0        0.00166252430559    0.0164916748154     0.998091059476      -0.0377185368485    0.998091059476      -0.0377185368485    0.00166252430559    0.0164916748154     
5100000000.0        0.00168853130691    0.0168211621918     0.998055521932      -0.038473557055     0.998055521932      -0.038473557055     0.00168853130691    0.0168211621918     
5200000000.0        0.0017150358487     0.0171506320856     0.998019304505      -0.0392286048755    0.998019304505      -0.0392286048755    0.0017150358487     0.0171506320856     
5300000000.0        0.00174203825904    0.0174800843343     0.9979824068        -0.0399836802928    0.9979824068        -0.0399836802928    0.00174203825904    0.0174800843343     
5400000000.0        0.00176953885373    0.0178095187801     0.997944828435      -0.0407387832842    0.997944828435      -0.0407387832842    0.00176953885373    0.0178095187801     
5500000000.0        0.0017975379373     0.0181389352697     0.997906569038      -0.0414939138212    0.997906569038      -0.0414939138212    0.0017975379373     0.0181389352697     
5600000000.0        0.00182603580391    0.0184683336546     0.997867628249      -0.0422490718698    0.997867628249      -0.0422490718698    0.00182603580391    0.0184683336546     
5700000000.0        0.00185503273813    0.0187977137905     0.997828005715      -0.0430042573909    0.997828005715      -0.0430042573909    0.00185503273813    0.0187977137905     
5800000000.0        0.00188452901575    0.0191270755378     0.997787701094      -0.0437594703403    0.997787701094      -0.0437594703403    0.00188452901575    0.0191270755378     
5900000000.0        0.00191452490442    0.0194564187614     0.99774671405       -0.0445147106686    0.99774671405       -0.0445147106686    0.00191452490442    0.0194564187614     
6000000000.0        0.00194502066433    0.0197857433301     0.997705044258      -0.045269978322     0.997705044258      -0.045269978322     0.00194502066433    0.0197857433301     
6100000000.0        0.00197601654879    0.0201150491175     0.997662691395      -0.0460252732418    0.997662691395      -0.0460252732418    0.00197601654879    0.0201150491175     
6200000000.0        0.00200751280478    0.020444336001      0.997619655149      -0.046780595365     0.997619655149      -0.046780595365     0.00200751280478    0.020444336001      
6300000000.0        0.00203950967343    0.0207736038626     0.997575935211      -0.0475359446241    0.997575935211      -0.0475359446241    0.00203950967343    0.0207736038626     
6400000000.0        0.00207200739055    0.0211028525882     0.997531531277      -0.0482913209475    0.997531531277      -0.0482913209475    0.00207200739055    0.0211028525882     
6500000000.0        0.00210500618701    0.0214320820676     0.997486443051      -0.0490467242594    0.997486443051      -0.0490467242594    0.00210500618701    0.0214320820676     
6600000000.0        0.00213850628916    0.0217612921949     0.997440670239      -0.0498021544801    0.997440670239      -0.0498021544801    0.00213850628916    0.0217612921949     
6700000000.0        0.00217250791924    0.0220904828682     0.997394212551      -0.0505576115259    0.997394212551      -0.0505576115259    0.00217250791924    0.0220904828682     
6800000000.0        0.0022070112957     0.0224196539892     0.997347069703      -0.0513130953094    0.997347069703      -0.0513130953094    0.0022070112957     0.0224196539892     
6900000000.0        0.00224201663352    0.0227488054637     0.997299241413      -0.0520686057395    0.997299241413      -0.0520686057395    0.00224201663352    0.0227488054637     
7000000000.0        0.00227752414456    0.0230779372014     0.997250727402      -0.0528241427217    0.997250727402      -0.0528241427217    0.00227752414457    0.0230779372014     
7100000000.0        0.00231353403781    0.0234070491154     0.997201527395      -0.0535797061577    0.997201527395      -0.0535797061577    0.00231353403781    0.0234070491154     
7200000000.0        0.00235004651967    0.0237361411228     0.997151641119      -0.054335295946     0.997151641119      -0.054335295946     0.00235004651967    0.0237361411228     
7300000000.0        0.0023870617942     0.0240652131442     0.997101068305      -0.0550909119819    0.997101068305      -0.0550909119819    0.0023870617942     0.0240652131442     
7400000000.0        0.00242458006337    0.024394265104      0.997049808683      -0.0558465541572    0.997049808683      -0.0558465541572    0.00242458006337    0.024394265104      
7500000000.0        0.00246260152725    0.0247232969299     0.996997861989      -0.0566022223607    0.996997861989      -0.0566022223607    0.00246260152725    0.0247232969299     
7600000000.0        0.00250112638425    0.0250523085534     0.996945227958      -0.0573579164782    0.996945227958      -0.0573579164782    0.00250112638425    0.0250523085534     
7700000000.0        0.00254015483131    0.0253812999091     0.996891906327      -0.0581136363924    0.996891906327      -0.0581136363924    0.00254015483131    0.0253812999091     
7800000000.0        0.00257968706407    0.0257102709353     0.996837896837      -0.058869381983     0.996837896837      -0.058869381983     0.00257968706407    0.0257102709353     
7900000000.0        0.00261972327704    0.0260392215735     0.996783199226      -0.059625153127     0.996783199226      -0.059625153127     0.00261972327704    0.0260392215735     
8000000000.0        0.00266026366381    0.0263681517687     0.996727813237      -0.0603809496984    0.996727813237      -0.0603809496984    0.00266026366381    0.0263681517687     
8100000000.0        0.00270130841712    0.0266970614689     0.996671738612      -0.0611367715686    0.996671738612      -0.0611367715686    0.00270130841712    0.0266970614689     
8200000000.0        0.0027428577291     0.0270259506254     0.996614975094      -0.0618926186062    0.996614975094      -0.0618926186062    0.0027428577291     0.0270259506254     
8300000000.0        0.00278491179134    0.0273548191929     0.996557522429      -0.0626484906773    0.996557522429      -0.0626484906773    0.00278491179134    0.0273548191929     
8400000000.0        0.00282747079504    0.027683667129      0.99649938036       -0.0634043876453    0.99649938036       -0.0634043876453    0.00282747079504    0.027683667129      
8500000000.0        0.00287053493115    0.0280124943945     0.996440548634      -0.0641603093711    0.996440548634      -0.0641603093711    0.00287053493115    0.0280124943945     
8600000000.0        0.00291410439046    0.028341300953      0.996381026995      -0.0649162557131    0.996381026995      -0.0649162557131    0.00291410439046    0.028341300953      
8700000000.0        0.00295817936374    0.0286700867715     0.99632081519       -0.0656722265273    0.99632081519       -0.0656722265273    0.00295817936374    0.0286700867715     
8800000000.0        0.0030027600418     0.0289988518196     0.996259912966      -0.0664282216674    0.996259912966      -0.0664282216674    0.0030027600418     0.0289988518196     
8900000000.0        0.00304784661566    0.0293275960699     0.996198320068      -0.0671842409844    0.996198320068      -0.0671842409844    0.00304784661566    0.0293275960699     
9000000000.0        0.00309343927656    0.0296563194981     0.996136036244      -0.0679402843275    0.996136036244      -0.0679402843275    0.00309343927656    0.0296563194981     
9100000000.0        0.00313953821612    0.0299850220824     0.996073061239      -0.0686963515431    0.996073061239      -0.0686963515431    0.00313953821612    0.0299850220824     
9200000000.0        0.00318614362639    0.0303137038039     0.9960093948        -0.0694524424758    0.9960093948        -0.0694524424758    0.00318614362639    0.0303137038039     
9300000000.0        0.00323325569994    0.0306423646465     0.995945036673      -0.0702085569678    0.995945036673      -0.0702085569678    0.00323325569994    0.0306423646465     
9400000000.0        0.00328087462993    0.0309710045967     0.995879986604      -0.0709646948591    0.995879986604      -0.0709646948591    0.00328087462993    0.0309710045967     
9500000000.0        0.00332900061021    0.0312996236439     0.995814244338      -0.0717208559876    0.995814244338      -0.0717208559876    0.00332900061021    0.0312996236439     
9600000000.0        0.00337763383534    0.0316282217797     0.99574780962       -0.0724770401893    0.99574780962       -0.0724770401893    0.00337763383534    0.0316282217797     
9700000000.0        0.00342677450072    0.0319567989987     0.995680682196      -0.0732332472978    0.995680682196      -0.0732332472978    0.00342677450072    0.0319567989987     
9800000000.0        0.00347642280261    0.0322853552977     0.995612861809      -0.0739894771449    0.995612861809      -0.0739894771449    0.00347642280261    0.0322853552977     
9900000000.0        0.0035265789382     0.0326138906763     0.995544348202      -0.0747457295603    0.995544348202      -0.0747457295603    0.0035265789382     0.0326138906763     
10000000000.0       0.00357724310567    0.0329424051364     0.99547514112       -0.0755020043717    0.99547514112       -0.0755020043717    0.00357724310567    0.0329424051364     
