# Hz S RI R 50.00 
100000000.0         0.00379462303629    0.00200821566144    0.99619397414       -0.00572265974167   0.99619397414       -0.00572265974167   0.00379462303629    0.00200821566144    
200000000.0         0.00385276511064    0.00401577119093    0.996111613431      -0.0114447110731    0.996111613431      -0.0114447110731    0.00385276511064    0.00401577119093    
300000000.0         0.00392736721863    0.00602254041537    0.995998974686      -0.0171660557257    0.995998974686      -0.0171660557257    0.00392736721863    0.00602254041537    
400000000.0         0.00402169201014    0.00802829604446    0.99585279233       -0.0228864820274    0.99585279233       -0.0228864820274    0.00402169201014    0.00802829604446    
500000000.0         0.00413698585176    0.0100327878321     0.99567181642       -0.0286057490415    0.99567181642       -0.0286057490415    0.00413698585176    0.0100327878321     
600000000.0         0.00427387415358    0.0120357557351     0.99545541737       -0.0343236018367    0.99545541737       -0.0343236018367    0.00427387415358    0.0120357557351     
700000000.0         0.00443271592501    0.0140369346401     0.99520323144       -0.040039777297     0.99520323144       -0.040039777297     0.00443271592501    0.0140369346401     
800000000.0         0.00461373311985    0.0160360565663     0.994915031422      -0.0457540069762    0.994915031422      -0.0457540069762    0.00461373311985    0.0160360565663     
900000000.0         0.0048170682025     0.0180328518611     0.994590669101      -0.0514660187255    0.994590669101      -0.0514660187255    0.0048170682025     0.0180328518611     
1000000000.0        0.00504281331551    0.0200270499217     0.994230046116      -0.0571755377198    0.994230046116      -0.0571755377198    0.00504281331551    0.0200270499217     
1100000000.0        0.00529102648855    0.0220183796658     0.993833097767      -0.0628822871549    0.993833097767      -0.0628822871549    0.00529102648855    0.0220183796658     
1200000000.0        0.00556174129544    0.0240065698599     0.993399783376      -0.0685859887493    0.993399783376      -0.0685859887493    0.00556174129544    0.0240065698599     
1300000000.0        0.00585497293056    0.0259913493607     0.99293008023       -0.0742863631223    0.99293008023       -0.0742863631223    0.00585497293056    0.0259913493607     
1400000000.0        0.00617072220468    0.0279724473        0.992423979595      -0.0799831300899    0.992423979595      -0.0799831300899    0.00617072220468    0.0279724473        
1500000000.0        0.00650897827062    0.0299495932337     0.991881484007      -0.0856760089049    0.991881484007      -0.0856760089049    0.00650897827062    0.0299495932337     
1600000000.0        0.00686972054076    0.0319225172641     0.991302605366      -0.0913647184555    0.991302605366      -0.0913647184555    0.00686972054076    0.0319225172641     
1700000000.0        0.00725292007262    0.0338909501454     0.990687363561      -0.0970489774349    0.990687363561      -0.0970489774349    0.00725292007262    0.0338909501454     
1800000000.0        0.00765854059351    0.0358546233747     0.990035785452      -0.102728504489     0.990035785452      -0.102728504489     0.00765854059351    0.0358546233747     
1900000000.0        0.00808653927444    0.0378132692747     0.989347904113      -0.108403018343     0.989347904113      -0.108403018343     0.00808653927444    0.0378132692747     
2000000000.0        0.00853686732557    0.0397666210676     0.988623758239      -0.114072237925     0.988623758239      -0.114072237925     0.00853686732557    0.0397666210676     
2100000000.0        0.00900947046229    0.0417144129444     0.98786339169       -0.119735882462     0.98786339169       -0.119735882462     0.00900947046229    0.0417144129444     
2200000000.0        0.00950428927608    0.043656380129      0.987066853127      -0.125393671584     0.987066853127      -0.125393671584     0.00950428927608    0.043656380129      
2300000000.0        0.0100212595339     0.0455922589389     0.986234195724      -0.131045325412     0.986234195724      -0.131045325412     0.0100212595339     0.0455922589389     
2400000000.0        0.0105603124236     0.0475217868432     0.985365476924      -0.136690564639     0.985365476924      -0.136690564639     0.0105603124236     0.0475217868432     
2500000000.0        0.0111213747575     0.0494447025177     0.984460758243      -0.142329110613     0.984460758243      -0.142329110613     0.0111213747575     0.0494447025177     
2600000000.0        0.0117043691437     0.0513607458985     0.983520105108      -0.147960685406     0.983520105108      -0.147960685406     0.0117043691437     0.0513607458985     
2700000000.0        0.0123092141328     0.0532696582334     0.982543586714      -0.15358501189      0.982543586714      -0.15358501189      0.0123092141328     0.0532696582334     
2800000000.0        0.0129358243433     0.0551711821318     0.981531275902      -0.159201813802     0.981531275902      -0.159201813802     0.0129358243433     0.0551711821318     
2900000000.0        0.0135841105727     0.0570650616136     0.980483249056      -0.164810815807     0.980483249056      -0.164810815807     0.0135841105727     0.0570650616136     
3000000000.0        0.0142539798941     0.0589510421568     0.979399586011      -0.170411743564     0.979399586011      -0.170411743564     0.0142539798941     0.0589510421568     
3100000000.0        0.0149453357444     0.0608288707438     0.978280369967      -0.17600432378      0.978280369967      -0.17600432378      0.0149453357444     0.0608288707438     
3200000000.0        0.0156580780026     0.0626982959068     0.97712568742       -0.181588284272     0.97712568742       -0.181588284272     0.0156580780026     0.0626982959068     
3300000000.0        0.0163921030617     0.0645590677723     0.975935628088      -0.187163354024     0.975935628088      -0.187163354024     0.0163921030617     0.0645590677723     
3400000000.0        0.0171473038959     0.0664109381047     0.974710284855      -0.192729263234     0.974710284855      -0.192729263234     0.0171473038959     0.0664109381047     
3500000000.0        0.0179235701223     0.0682536603493     0.973449753705      -0.198285743374     0.973449753705      -0.198285743374     0.0179235701223     0.0682536603493     
3600000000.0        0.0187207880588     0.070086989674      0.972154133678      -0.203832527236     0.972154133678      -0.203832527236     0.0187207880588     0.070086989674      
3700000000.0        0.0195388407798     0.0719106830106     0.970823526807      -0.209369348982     0.970823526807      -0.209369348982     0.0195388407798     0.0719106830106     
3800000000.0        0.0203776081688     0.0737244990953     0.969458038079      -0.214895944194     0.969458038079      -0.214895944194     0.0203776081688     0.0737244990953     
3900000000.0        0.0212369669685     0.0755281985084     0.968057775378      -0.22041204992      0.968057775378      -0.22041204992      0.0212369669685     0.0755281985084     
4000000000.0        0.0221167908303     0.0773215437133     0.966622849451      -0.225917404717     0.966622849451      -0.225917404717     0.0221167908303     0.0773215437133     
4100000000.0        0.0230169503612     0.0791042990947     0.96515337385       -0.231411748698     0.96515337385       -0.231411748698     0.0230169503612     0.0791042990947     
4200000000.0        0.0239373131703     0.0808762309961     0.963649464902      -0.236894823574     0.963649464902      -0.236894823574     0.0239373131703     0.0808762309961     
4300000000.0        0.0248777439143     0.082637107757      0.962111241656      -0.242366372696     0.962111241656      -0.242366372696     0.0248777439143     0.082637107757      
4400000000.0        0.0258381043417     0.0843866997484     0.960538825847      -0.247826141097     0.960538825847      -0.247826141097     0.0258381043417     0.0843866997484     
4500000000.0        0.0268182533371     0.0861247794088     0.958932341854      -0.253273875529     0.958932341854      -0.253273875529     0.0268182533371     0.0861247794088     
4600000000.0        0.0278180469646     0.0878511212788     0.957291916656      -0.258709324506     0.957291916656      -0.258709324506     0.0278180469646     0.0878511212788     
4700000000.0        0.0288373385108     0.0895655020348     0.955617679797      -0.264132238337     0.955617679797      -0.264132238337     0.0288373385108     0.0895655020348     
4800000000.0        0.0298759785275     0.0912677005226     0.953909763339      -0.269542369166     0.953909763339      -0.269542369166     0.0298759785275     0.0912677005226     
4900000000.0        0.0309338148748     0.0929574977899     0.952168301825      -0.274939471009     0.952168301825      -0.274939471009     0.0309338148748     0.0929574977899     
5000000000.0        0.0320106927626     0.0946346771182     0.950393432242      -0.280323299785     0.950393432242      -0.280323299785     0.0320106927626     0.0946346771182     
5100000000.0        0.033106454794      0.0962990240538     0.948585293974      -0.285693613351     0.948585293974      -0.285693613351     0.033106454794      0.0962990240538     
5200000000.0        0.0342209410065     0.0979503264385     0.946744028767      -0.291050171538     0.946744028767      -0.291050171538     0.0342209410065     0.0979503264385     
5300000000.0        0.0353539889152     0.0995883744391     0.944869780688      -0.296392736179     0.944869780688      -0.296392736179     0.0353539889152     0.0995883744391     
5400000000.0        0.0365054335541     0.101212960576      0.942962696083      -0.301721071141     0.942962696083      -0.301721071141     0.0365054335541     0.101212960576      
5500000000.0        0.0376751075189     0.102823879753      0.941022923538      -0.307034942358     0.941022923538      -0.307034942358     0.0376751075189     0.102823879753      
5600000000.0        0.0388628410093     0.104420929282      0.939050613837      -0.312334117857     0.939050613837      -0.312334117857     0.0388628410093     0.104420929282      
5700000000.0        0.0400684618711     0.106003908913      0.937045919926      -0.317618367787     0.937045919926      -0.317618367787     0.0400684618711     0.106003908913      
5800000000.0        0.0412917956385     0.107572620858      0.935008996865      -0.322887464448     0.935008996865      -0.322887464448     0.0412917956385     0.107572620858      
5900000000.0        0.0425326655771     0.109126869817      0.932940001795      -0.328141182314     0.932940001795      -0.328141182314     0.0425326655771     0.109126869817      
6000000000.0        0.0437908927258     0.110666463001      0.930839093891      -0.333379298063     0.930839093891      -0.333379298063     0.0437908927258     0.110666463001      
6100000000.0        0.0450662959401     0.112191210159      0.928706434325      -0.3386015906       0.928706434325      -0.3386015906       0.0450662959401     0.112191210159      
6200000000.0        0.0463586919343     0.1137009236        0.926542186221      -0.343807841078     0.926542186221      -0.343807841078     0.0463586919343     0.1137009236        
6300000000.0        0.0476678953246     0.115195418211      0.92434651462       -0.348997832925     0.92434651462       -0.348997832925     0.0476678953246     0.115195418211      
6400000000.0        0.0489937186718     0.116674511486      0.922119586431      -0.354171351865     0.922119586431      -0.354171351865     0.0489937186718     0.116674511486      
6500000000.0        0.0503359725246     0.118138023541      0.919861570393      -0.359328185939     0.919861570393      -0.359328185939     0.0503359725246     0.118138023541      
6600000000.0        0.0516944654623     0.119585777136      0.917572637037      -0.364468125522     0.917572637037      -0.364468125522     0.0516944654623     0.119585777136      
6700000000.0        0.0530690041381     0.121017597694      0.915252958637      -0.369590963349     0.915252958637      -0.369590963349     0.0530690041381     0.121017597694      
6800000000.0        0.0544593933222     0.122433313322      0.912902709174      -0.374696494529     0.912902709174      -0.374696494529     0.0544593933222     0.122433313322      
6900000000.0        0.055865435945      0.123832754824      0.910522064292      -0.379784516564     0.910522064292      -0.379784516564     0.055865435945      0.123832754824      
7000000000.0        0.0572869331404     0.125215755721      0.908111201256      -0.384854829365     0.908111201256      -0.384854829365     0.0572869331404     0.125215755721      
7100000000.0        0.0587236842892     0.126582152269      0.90567029891       -0.389907235271     0.90567029891       -0.389907235271     0.0587236842892     0.126582152269      
7200000000.0        0.0601754870622     0.12793178347       0.903199537635      -0.394941539059     0.903199537635      -0.394941539059     0.0601754870622     0.12793178347       
7300000000.0        0.0616421374638     0.129264491091      0.900699099307      -0.399957547965     0.900699099307      -0.399957547965     0.0616421374638     0.129264491091      
7400000000.0        0.0631234298752     0.130580119675      0.898169167255      -0.404955071691     0.898169167255      -0.404955071691     0.0631234298752     0.130580119675      
7500000000.0        0.0646191570975     0.131878516558      0.89560992622       -0.409933922424     0.89560992622       -0.409933922424     0.0646191570975     0.131878516558      
7600000000.0        0.0661291103955     0.133159531876      0.893021562311      -0.414893914843     0.893021562311      -0.414893914843     0.0661291103955     0.133159531876      
7700000000.0        0.0676530795407     0.134423018582      0.890404262962      -0.419834866132     0.890404262962      -0.419834866132     0.0676530795407     0.134423018582      
7800000000.0        0.0691908528546     0.135668832456      0.887758216893      -0.424756595989     0.887758216893      -0.424756595989     0.0691908528546     0.135668832456      
7900000000.0        0.0707422172519     0.136896832113      0.885083614066      -0.42965892664      0.885083614066      -0.42965892664      0.0707422172519     0.136896832113      
8000000000.0        0.0723069582836     0.138106879014      0.882380645645      -0.434541682842     0.882380645645      -0.434541682842     0.0723069582836     0.138106879014      
8100000000.0        0.0738848601802     0.139298837477      0.879649503949      -0.439404691892     0.879649503949      -0.439404691892     0.0738848601802     0.139298837477      
8200000000.0        0.0754757058945     0.140472574682      0.876890382417      -0.444247783639     0.876890382417      -0.444247783639     0.0754757058945     0.140472574682      
8300000000.0        0.0770792771445     0.141627960679      0.87410347556       -0.449070790483     0.87410347556       -0.449070790483     0.0770792771445     0.141627960679      
8400000000.0        0.0786953544565     0.142764868398      0.871288978924      -0.453873547388     0.871288978924      -0.453873547388     0.0786953544565     0.142764868398      
8500000000.0        0.0803237172072     0.143883173652      0.868447089046      -0.45865589188      0.868447089046      -0.45865589188      0.0803237172072     0.143883173652      
8600000000.0        0.0819641436667     0.144982755141      0.865578003412      -0.463417664055     0.865578003412      -0.463417664055     0.0819641436667     0.144982755141      
8700000000.0        0.0836164110406     0.146063494462      0.862681920418      -0.468158706583     0.862681920418      -0.468158706583     0.0836164110406     0.146063494462      
8800000000.0        0.0852802955125     0.147125276109      0.859759039328      -0.472878864706     0.859759039328      -0.472878864706     0.0852802955125     0.147125276109      
8900000000.0        0.0869555722856     0.148167987475      0.85680956023       -0.477577986245     0.85680956023       -0.477577986245     0.0869555722856     0.148167987475      
9000000000.0        0.0886420156251     0.149191518859      0.853833683999      -0.482255921599     0.853833683999      -0.482255921599     0.0886420156251     0.149191518859      
9100000000.0        0.0903393988996     0.150195763467      0.850831612257      -0.486912523744     0.850831612257      -0.486912523744     0.0903393988996     0.150195763467      
9200000000.0        0.0920474946227     0.15118061741       0.847803547326      -0.491547648234     0.847803547326      -0.491547648234     0.0920474946227     0.15118061741       
9300000000.0        0.0937660744941     0.152145979708      0.844749692197      -0.4961611532       0.844749692197      -0.4961611532       0.0937660744941     0.152145979708      
9400000000.0        0.0954949094411     0.15309175229       0.841670250482      -0.500752899349     0.841670250482      -0.500752899349     0.0954949094411     0.15309175229       
9500000000.0        0.0972337696589     0.154017839989      0.838565426378      -0.505322749959     0.838565426378      -0.505322749959     0.0972337696589     0.154017839989      
9600000000.0        0.0989824246517     0.15492415055       0.835435424627      -0.509870570878     0.835435424627      -0.509870570878     0.0989824246517     0.15492415055       
9700000000.0        0.100740643273      0.155810594617      0.832280450477      -0.514396230521     0.832280450477      -0.514396230521     0.100740643273      0.155810594617      
9800000000.0        0.102508193764      0.156677085741      0.829100709641      -0.518899599863     0.829100709641      -0.518899599863     0.102508193764      0.156677085741      
9900000000.0        0.104284843798      0.157523540367      0.825896408262      -0.523380552435     0.825896408262      -0.523380552435     0.104284843798      0.157523540367      
10000000000.0       0.106070360514      0.15834987784       0.822667752868      -0.527838964319     0.822667752868      -0.527838964319     0.106070360514      0.15834987784       
