# Hz S RI R 50.00 
100000000.0         0.0182706655717     0.00174514728749    0.98172397648       -0.00390167850662   0.98172397648       -0.00390167850662   0.0182706655717     0.00174514728749    
200000000.0         0.0184094991885     0.0034888059542     0.981576105006      -0.00780186252756   0.981576105006      -0.00780186252756   0.0184094991885     0.0034888059542     
300000000.0         0.0185303611119     0.00523140602229    0.981441524868      -0.0117009828018    0.981441524868      -0.0117009828018    0.0185303611119     0.00523140602229    
400000000.0         0.0186488695104     0.00697301708733    0.981304617484      -0.0155991091204    0.981304617484      -0.0155991091204    0.0186488695104     0.00697301708733    
500000000.0         0.0187710414294     0.00871362518341    0.981159365381      -0.0194962274529    0.981159365381      -0.0194962274529    0.0187710414294     0.00871362518341    
600000000.0         0.018899944377      0.0104531794694     0.98100270059       -0.0233922867237    0.98100270059       -0.0233922867237    0.018899944377      0.0104531794694     
700000000.0         0.0190373879648     0.012191608978      0.980832812994      -0.0272872156084    0.980832812994      -0.0272872156084    0.0190373879648     0.012191608978      
800000000.0         0.0191845415368     0.0139288303782     0.980648532698      -0.031180930323     0.980648532698      -0.031180930323     0.0191845415368     0.0139288303782     
900000000.0         0.0193422092635     0.015664752143      0.980449054931      -0.0350733388095    0.980449054931      -0.0350733388095    0.0193422092635     0.015664752143      
1000000000.0        0.0195109696274     0.0173992770179     0.980233800557      -0.0389643432175    0.980233800557      -0.0389643432175    0.0195109696274     0.0173992770179     
1100000000.0        0.0196912529847     0.0191323035904     0.980002338513      -0.0428538414823    0.980002338513      -0.0428538414823    0.0196912529847     0.0191323035904     
1200000000.0        0.0198833877967     0.0208637273433     0.979754339579      -0.0467417283854    0.979754339579      -0.0467417283854    0.0198833877967     0.0208637273433     
1300000000.0        0.020087629724      0.0225934413932     0.979489547278      -0.0506278962978    0.979489547278      -0.0506278962978    0.020087629724      0.0225934413932     
1400000000.0        0.0203041807564     0.0243213370258     0.979207758752      -0.0545122357203    0.979207758752      -0.0545122357203    0.0203041807564     0.0243213370258     
1500000000.0        0.0205332022525     0.0260473040969     0.978908811716      -0.058394635687     0.978908811716      -0.058394635687     0.0205332022525     0.0260473040969     
1600000000.0        0.0207748241006     0.0277712313387     0.978592575302      -0.0622749840754    0.978592575302      -0.0622749840754    0.0207748241006     0.0277712313387     
1700000000.0        0.0210291513229     0.0294930066011     0.978258943449      -0.066153167849     0.978258943449      -0.066153167849     0.0210291513229     0.0294930066011     
1800000000.0        0.021296268944      0.0312125170437     0.977907830041      -0.0700290732517    0.977907830041      -0.0700290732517    0.021296268944      0.0312125170437     
1900000000.0        0.0215762456492     0.0329296492922     0.977539165243      -0.073902585966     0.977539165243      -0.073902585966     0.0215762456492     0.0329296492922     
2000000000.0        0.0218691365814     0.0346442895678     0.977152892707      -0.0777735912431    0.977152892707      -0.0777735912431    0.0218691365814     0.0346442895678     
2100000000.0        0.0221749855122     0.0363563237949     0.976748967399      -0.0816419740126    0.976748967399      -0.0816419740126    0.0221749855122     0.0363563237949     
2200000000.0        0.0224938265493     0.0380656376936     0.976327353893      -0.0855076189753    0.976327353893      -0.0855076189753    0.0224938265493     0.0380656376936     
2300000000.0        0.0228256854974     0.0397721168586     0.975888025011      -0.0893704106832    0.975888025011      -0.0893704106832    0.0228256854974     0.0397721168586     
2400000000.0        0.023170580953      0.0414756468275     0.975430960725      -0.0932302336084    0.975430960725      -0.0932302336084    0.023170580953      0.0414756468275     
2500000000.0        0.0235285251957     0.0431761131412     0.974956147268      -0.0970869722046    0.974956147268      -0.0970869722046    0.0235285251957     0.0431761131412     
2600000000.0        0.02389952492       0.0448734013978     0.974463576402      -0.100940510961     0.974463576402      -0.100940510961     0.02389952492       0.0448734013978     
2700000000.0        0.0242835818409     0.0465673972997     0.973953244812      -0.104790734449     0.973953244812      -0.104790734449     0.0242835818409     0.0465673972997     
2800000000.0        0.0246806931999     0.048257986697      0.9734251536        -0.108637527369     0.9734251536        -0.108637527369     0.0246806931999     0.048257986697      
2900000000.0        0.0250908521902     0.0499450556269     0.972879307859      -0.112480774587     0.972879307859      -0.112480774587     0.0250908521902     0.0499450556269     
3000000000.0        0.025514048317      0.0516284903491     0.972315716316      -0.116320361172     0.972315716316      -0.116320361172     0.025514048317      0.0516284903491     
3100000000.0        0.0259502677043     0.0533081773792     0.97173439102       -0.120156172427     0.97173439102       -0.120156172427     0.0259502677043     0.0533081773792     
3200000000.0        0.0263994933584     0.054984003519      0.971135347084      -0.123988093924     0.971135347084      -0.123988093924     0.0263994933584     0.054984003519      
3300000000.0        0.0268617053945     0.056655855885      0.970518602454      -0.127816011529     0.970518602454      -0.127816011529     0.0268617053945     0.056655855885      
3400000000.0        0.0273368812345     0.0583236219354     0.969884177713      -0.131639811431     0.969884177713      -0.131639811431     0.0273368812345     0.0583236219354     
3500000000.0        0.0278249957782     0.0599871894947     0.969232095912      -0.135459380166     0.969232095912      -0.135459380166     0.0278249957782     0.0599871894947     
3600000000.0        0.0283260215542     0.0616464467779     0.968562382414      -0.13927460464      0.968562382414      -0.13927460464      0.0283260215542     0.0616464467779     
3700000000.0        0.0288399288527     0.0633012824125     0.967875064767      -0.143085372154     0.967875064767      -0.143085372154     0.0288399288527     0.0633012824125     
3800000000.0        0.0293666858427     0.06495158546       0.967170172581      -0.146891570423     0.967170172581      -0.146891570423     0.0293666858427     0.06495158546       
3900000000.0        0.0299062586769     0.0665972454365     0.96644773743       -0.150693087597     0.96644773743       -0.150693087597     0.0299062586769     0.0665972454365     
4000000000.0        0.0304586115849     0.0682381523319     0.96570779275       -0.154489812282     0.96570779275       -0.154489812282     0.0304586115849     0.0682381523319     
4100000000.0        0.031023706957      0.0698741966288     0.964950373766      -0.158281633557     0.964950373766      -0.158281633557     0.031023706957      0.0698741966288     
4200000000.0        0.0316015054202     0.0715052693203     0.964175517405      -0.162068440991     0.964175517405      -0.162068440991     0.0316015054202     0.0715052693203     
4300000000.0        0.0321919659058     0.0731312619274     0.963383262237      -0.165850124664     0.963383262237      -0.165850124664     0.0321919659058     0.0731312619274     
4400000000.0        0.0327950457126     0.0747520665158     0.962573648407      -0.169626575179     0.962573648407      -0.169626575179     0.0327950457126     0.0747520665158     
4500000000.0        0.0334107005631     0.076367575712      0.961746717581      -0.173397683683     0.961746717581      -0.173397683683     0.0334107005631     0.076367575712      
4600000000.0        0.0340388846557     0.0779776827186     0.960902512892      -0.177163341876     0.960902512892      -0.177163341876     0.0340388846557     0.0779776827186     
4700000000.0        0.0346795507129     0.0795822813301     0.960041078894      -0.180923442034     0.960041078894      -0.180923442034     0.0346795507129     0.0795822813301     
4800000000.0        0.0353326500254     0.0811812659469     0.959162461517      -0.184677877017     0.959162461517      -0.184677877017     0.0353326500254     0.0811812659469     
4900000000.0        0.0359981324934     0.0827745315901     0.958266708024      -0.188426540286     0.958266708024      -0.188426540286     0.0359981324934     0.0827745315901     
5000000000.0        0.0366759466645     0.0843619739149     0.957353866977      -0.192169325916     0.957353866977      -0.192169325916     0.0366759466645     0.0843619739149     
5100000000.0        0.0373660397701     0.0859434892246     0.956423988197      -0.195906128611     0.956423988197      -0.195906128611     0.0373660397701     0.0859434892246     
5200000000.0        0.0380683577586     0.087518974483      0.955477122732      -0.199636843716     0.955477122732      -0.199636843716     0.0380683577586     0.087518974483      
5300000000.0        0.0387828453269     0.0890883273282     0.954513322825      -0.203361367225     0.954513322825      -0.203361367225     0.0387828453269     0.0890883273282     
5400000000.0        0.0395094459506     0.0906514460838     0.953532641887      -0.207079595804     0.953532641887      -0.207079595804     0.0395094459506     0.0906514460838     
5500000000.0        0.0402481019124     0.0922082297721     0.952535134464      -0.210791426791     0.952535134464      -0.210791426791     0.0402481019124     0.0922082297721     
5600000000.0        0.0409987543283     0.0937585781253     0.951520856212      -0.214496758217     0.951520856212      -0.214496758217     0.0409987543283     0.0937585781253     
5700000000.0        0.0417613431742     0.0953023915972     0.950489863875      -0.21819548881      0.950489863875      -0.21819548881      0.0417613431742     0.0953023915972     
5800000000.0        0.0425358073099     0.0968395713743     0.949442215252      -0.221887518013     0.949442215252      -0.221887518013     0.0425358073099     0.0968395713743     
5900000000.0        0.0433220845027     0.098370019387      0.948377969185      -0.225572745988     0.948377969185      -0.225572745988     0.0433220845027     0.098370019387      
6000000000.0        0.0441201114504     0.09989363832       0.947297185524      -0.229251073632     0.947297185524      -0.229251073632     0.0441201114504     0.09989363832       
6100000000.0        0.0449298238028     0.101410331623      0.946199925114      -0.232922402585     0.946199925114      -0.232922402585     0.0449298238028     0.101410331623      
6200000000.0        0.0457511561831     0.10292000352       0.945086249772      -0.236586635237     0.945086249772      -0.236586635237     0.0457511561831     0.10292000352       
6300000000.0        0.0465840422082     0.104422559021      0.943956222263      -0.240243674745     0.943956222263      -0.240243674745     0.0465840422082     0.104422559021      
6400000000.0        0.0474284145086     0.10591790393       0.942809906284      -0.243893425035     0.942809906284      -0.243893425035     0.0474284145086     0.10591790393       
6500000000.0        0.0482842047482     0.107405944854      0.941647366442      -0.247535790814     0.941647366442      -0.247535790814     0.0482842047482     0.107405944854      
6600000000.0        0.0491513436424     0.108886589214      0.940468668239      -0.251170677581     0.940468668239      -0.251170677581     0.0491513436424     0.108886589214      
6700000000.0        0.0500297609773     0.110359745253      0.939273878049      -0.254797991631     0.939273878049      -0.254797991631     0.0500297609773     0.110359745253      
6800000000.0        0.0509193856274     0.111825322043      0.938063063101      -0.258417640069     0.938063063101      -0.258417640069     0.0509193856274     0.111825322043      
6900000000.0        0.0518201455731     0.113283229497      0.936836291464      -0.262029530814     0.936836291464      -0.262029530814     0.0518201455731     0.113283229497      
7000000000.0        0.0527319679185     0.114733378374      0.935593632027      -0.265633572609     0.935593632027      -0.265633572609     0.0527319679185     0.114733378374      
7100000000.0        0.0536547789083     0.116175680288      0.934335154483      -0.269229675027     0.934335154483      -0.269229675027     0.0536547789083     0.116175680288      
7200000000.0        0.0545885039444     0.117610047717      0.933060929312      -0.27281774848      0.933060929312      -0.27281774848      0.0545885039444     0.117610047717      
7300000000.0        0.0555330676026     0.119036394009      0.931771027764      -0.276397704226     0.931771027764      -0.276397704226     0.0555330676026     0.119036394009      
7400000000.0        0.0564883936489     0.120454633388      0.930465521845      -0.279969454376     0.930465521845      -0.279969454376     0.0564883936489     0.120454633388      
7500000000.0        0.0574544050557     0.121864680965      0.929144484295      -0.2835329119       0.929144484295      -0.2835329119       0.0574544050557     0.121864680965      
7600000000.0        0.0584310240175     0.123266452742      0.927807988581      -0.287087990636     0.927807988581      -0.287087990636     0.0584310240175     0.123266452742      
7700000000.0        0.0594181719668     0.124659865619      0.926456108873      -0.290634605293     0.926456108873      -0.290634605293     0.0594181719668     0.124659865619      
7800000000.0        0.0604157695897     0.1260448374        0.925088920033      -0.29417267146      0.925088920033      -0.29417267146      0.0604157695897     0.1260448374        
7900000000.0        0.0614237368411     0.1274212868        0.923706497598      -0.297702105608     0.923706497598      -0.297702105608     0.0614237368411     0.1274212868        
8000000000.0        0.0624419929603     0.128789133452      0.922308917766      -0.301222825103     0.922308917766      -0.301222825103     0.0624419929603     0.128789133452      
8100000000.0        0.0634704564856     0.130148297911      0.920896257379      -0.304734748203     0.920896257379      -0.304734748203     0.0634704564856     0.130148297911      
8200000000.0        0.0645090452701     0.131498701659      0.91946859391       -0.30823779407      0.91946859391       -0.30823779407      0.0645090452701     0.131498701659      
8300000000.0        0.0655576764961     0.132840267113      0.918026005446      -0.311731882771     0.918026005446      -0.311731882771     0.0655576764961     0.132840267113      
8400000000.0        0.0666162666898     0.134172917628      0.916568570674      -0.315216935284     0.916568570674      -0.315216935284     0.0666162666898     0.134172917628      
8500000000.0        0.0676847317364     0.135496577502      0.915096368868      -0.318692873503     0.915096368868      -0.318692873503     0.0676847317364     0.135496577502      
8600000000.0        0.0687629868944     0.136811171983      0.913609479873      -0.322159620243     0.913609479873      -0.322159620243     0.0687629868944     0.136811171983      
8700000000.0        0.0698509468103     0.13811662727       0.912107984087      -0.325617099243     0.912107984087      -0.325617099243     0.0698509468103     0.13811662727       
8800000000.0        0.0709485255329     0.13941287052       0.910591962455      -0.329065235171     0.910591962455      -0.329065235171     0.0709485255329     0.13941287052       
8900000000.0        0.0720556365275     0.14069982985       0.909061496446      -0.332503953628     0.909061496446      -0.332503953628     0.0720556365275     0.14069982985       
9000000000.0        0.0731721926907     0.141977434344      0.907516668044      -0.335933181149     0.907516668044      -0.335933181149     0.0731721926907     0.141977434344      
9100000000.0        0.0742981063639     0.143245614054      0.905957559732      -0.33935284521      0.905957559732      -0.33935284521      0.0742981063639     0.143245614054      
9200000000.0        0.0754332893478     0.144504300005      0.904384254477      -0.342762874229     0.904384254477      -0.342762874229     0.0754332893478     0.144504300005      
9300000000.0        0.0765776529163     0.145753424195      0.902796835718      -0.346163197571     0.902796835718      -0.346163197571     0.0765776529163     0.145753424195      
9400000000.0        0.0777311078307     0.146992919603      0.901195387352      -0.349553745548     0.901195387352      -0.349553745548     0.0777311078307     0.146992919603      
9500000000.0        0.0788935643531     0.148222720191      0.899579993718      -0.352934449424     0.899579993718      -0.352934449424     0.0788935643531     0.148222720191      
9600000000.0        0.0800649322607     0.149442760903      0.897950739584      -0.356305241416     0.897950739584      -0.356305241416     0.0800649322607     0.149442760903      
9700000000.0        0.0812451208592     0.15065297767       0.896307710134      -0.359666054698     0.896307710134      -0.359666054698     0.0812451208592     0.15065297767       
9800000000.0        0.0824340389966     0.151853307413      0.894650990956      -0.363016823399     0.894650990956      -0.363016823399     0.0824340389966     0.151853307413      
9900000000.0        0.083631595077      0.153043688046      0.892980668023      -0.366357482611     0.892980668023      -0.366357482611     0.083631595077      0.153043688046      
10000000000.0       0.0848376970738     0.154224058474      0.891296827685      -0.369687968386     0.891296827685      -0.369687968386     0.0848376970738     0.154224058474      
