# Hz S RI R 50.00 
100000000.0         0.000413958992117   -0.00158402464056   0.999568653842      -0.0032623994961    0.999568653842      -0.0032623994961    0.000413958992117   -0.00158402464056   
200000000.0         0.000398979443875   -0.00316801694793   0.999543754264      -0.00652477521823   0.999543754264      -0.00652477521823   0.000398979443875   -0.00316801694793   
300000000.0         0.000372927384807   -0.00475192625037   0.999506434401      -0.0097870980795    0.999506434401      -0.0097870980795    0.000372927384807   -0.00475192625037   
400000000.0         0.000336167292853   -0.00633569753818   0.999456329186      -0.0130493265369    0.999456329186      -0.0130493265369    0.000336167292853   -0.00633569753818   
500000000.0         0.000288839372084   -0.00791927288411   0.999393298264      -0.0163114134059    0.999393298264      -0.0163114134059    0.000288839372083   -0.00791927288411   
600000000.0         0.00023101533328    -0.00950259229621   0.999317270329      -0.0195733079135    0.999317270329      -0.0195733079135    0.00023101533328    -0.00950259229621   
700000000.0         0.00016273797333    -0.0110855942058    0.999228203629      -0.0228349567009    0.999228203629      -0.0228349567009    0.00016273797333    -0.0110855942058    
800000000.0         8.40356202547e-05   -0.0126682157784    0.999126071584      -0.0260963044109    0.999126071584      -0.0260963044109    8.40356202547e-05   -0.0126682157784    
900000000.0         -5.07143108253e-06  -0.0142503931283    0.999010856404      -0.0293572940707    0.999010856404      -0.0293572940707    -5.0714310823e-06   -0.0142503931283    
1000000000.0        -0.000104567652276  -0.0158320614749    0.998882545864      -0.0326178673606    0.998882545864      -0.0326178673606    -0.000104567652276  -0.0158320614749    
1100000000.0        -0.000214440461188  -0.0174131552615    0.998741131522      -0.0358779648111    0.998741131522      -0.0358779648111    -0.000214440461188  -0.0174131552615    
1200000000.0        -0.000334679133633  -0.0189936082491    0.998586607666      -0.0391375259553    0.998586607666      -0.0391375259553    -0.000334679133633  -0.0189936082491    
1300000000.0        -0.000465274115433  -0.0205733535931    0.998418970651      -0.0423964894489    0.998418970651      -0.0423964894489    -0.000465274115433  -0.0205733535931    
1400000000.0        -0.00060621656751   -0.0221523239056    0.998238218471      -0.0456547931677    0.998238218471      -0.0456547931677    -0.00060621656751   -0.0221523239056    
1500000000.0        -0.000757498053507  -0.0237304513095    0.998044350472      -0.0489123742892    0.998044350472      -0.0489123742892    -0.000757498053507  -0.0237304513095    
1600000000.0        -0.000919110318374  -0.0253076674846    0.997837367149      -0.0521691693608    0.997837367149      -0.0521691693608    -0.000919110318374  -0.0253076674846    
1700000000.0        -0.00109104512705   -0.0268839037075    0.997617270006      -0.0554251143591    0.997617270006      -0.0554251143591    -0.00109104512705   -0.0268839037075    
1800000000.0        -0.0012732941441    -0.0284590908875    0.997384061453      -0.058680144741     0.997384061453      -0.058680144741     -0.0012732941441    -0.0284590908875    
1900000000.0        -0.00146584884194   -0.0300331595989    0.997137744727      -0.0619341954894    0.997137744727      -0.0619341954894    -0.00146584884194   -0.0300331595989    
2000000000.0        -0.0016687004296    -0.0316060401092    0.996878323841      -0.0651872011531    0.996878323841      -0.0651872011531    -0.0016687004296    -0.0316060401092    
2100000000.0        -0.00188183979651   -0.0331776624063    0.99660580354       -0.0684390958834    0.99660580354       -0.0684390958834    -0.00188183979651   -0.0331776624063    
2200000000.0        -0.00210525746733   -0.0347479562225    0.996320189265      -0.0716898134673    0.996320189265      -0.0716898134673    -0.00210525746733   -0.0347479562225    
2300000000.0        -0.0023389435654    -0.0363168510572    0.996021487133      -0.0749392873571    0.996021487133      -0.0749392873571    -0.0023389435654    -0.0363168510572    
2400000000.0        -0.00258288778256   -0.0378842761977    0.995709703916      -0.0781874506989    0.995709703916      -0.0781874506989    -0.00258288778256   -0.0378842761977    
2500000000.0        -0.00283707935411   -0.0394501607394    0.995384847026      -0.0814342363578    0.995384847026      -0.0814342363578    -0.00283707935411   -0.0394501607394    
2600000000.0        -0.00310150703785   -0.0410144336043    0.995046924502      -0.0846795769422    0.995046924502      -0.0846795769422    -0.00310150703785   -0.0410144336043    
2700000000.0        -0.00337615909623   -0.0425770235586    0.994695945002      -0.0879234048264    0.994695945002      -0.0879234048264    -0.00337615909623   -0.0425770235586    
2800000000.0        -0.0036610232812    -0.0441378592297    0.9943319178        -0.0911656521714    0.9943319178        -0.0911656521714    -0.0036610232812    -0.0441378592297    
2900000000.0        -0.00395608682121   -0.0456968691225    0.993954852772      -0.0944062509456    0.993954852772      -0.0944062509456    -0.00395608682121   -0.0456968691225    
3000000000.0        -0.0042613364099    -0.0472539816344    0.993564760398      -0.0976451329431    0.993564760398      -0.0976451329431    -0.0042613364099    -0.0472539816344    
3100000000.0        -0.00457675819643   -0.0488091250708    0.993161651757      -0.100882229802     0.993161651757      -0.100882229802     -0.00457675819643   -0.0488091250708    
3200000000.0        -0.0049023377769    -0.0503622276588    0.992745538522      -0.104117473023     0.992745538522      -0.104117473023     -0.0049023377769    -0.0503622276588    
3300000000.0        -0.00523806018702   -0.0519132175615    0.992316432962      -0.107350793984     0.992316432962      -0.107350793984     -0.00523806018702   -0.0519132175615    
3400000000.0        -0.00558390989553   -0.0534620228916    0.991874347935      -0.110582123957     0.991874347935      -0.110582123957     -0.00558390989553   -0.0534620228916    
3500000000.0        -0.00593987079864   -0.0550085717239    0.991419296891      -0.113811394123     0.991419296891      -0.113811394123     -0.00593987079864   -0.0550085717239    
3600000000.0        -0.00630592621495   -0.0565527921086    0.990951293868      -0.117038535589     0.990951293868      -0.117038535589     -0.00630592621495   -0.0565527921086    
3700000000.0        -0.00668205888118   -0.0580946120833    0.990470353492      -0.120263479399     0.990470353492      -0.120263479399     -0.00668205888118   -0.0580946120833    
3800000000.0        -0.00706825094836   -0.0596339596854    0.989976490977      -0.12348615655      0.989976490977      -0.12348615655      -0.00706825094836   -0.0596339596854    
3900000000.0        -0.00746448397855   -0.0611707629637    0.989469722122      -0.126706498007     0.989469722122      -0.126706498007     -0.00746448397855   -0.0611707629637    
4000000000.0        -0.00787073894204   -0.0627049499902    0.988950063311      -0.129924434712     0.988950063311      -0.129924434712     -0.00787073894204   -0.0627049499902    
4100000000.0        -0.00828699621486   -0.064236448871     0.988417531513      -0.133139897601     0.988417531513      -0.133139897601     -0.00828699621486   -0.064236448871     
4200000000.0        -0.00871323557682   -0.0657651877581    0.987872144282      -0.136352817612     0.987872144282      -0.136352817612     -0.00871323557682   -0.0657651877581    
4300000000.0        -0.00914943620976   -0.0672910948596    0.987313919753      -0.139563125703     0.987313919753      -0.139563125703     -0.00914943620976   -0.0672910948596    
4400000000.0        -0.0095955766962    -0.068814098451     0.986742876644      -0.142770752859     0.986742876644      -0.142770752859     -0.0095955766962    -0.068814098451     
4500000000.0        -0.0100516350183    -0.0703341268854    0.986159034254      -0.145975630106     0.986159034254      -0.145975630106     -0.0100516350183    -0.0703341268854    
4600000000.0        -0.0105175885569    -0.071851108604     0.985562412462      -0.149177688521     0.985562412462      -0.149177688521     -0.0105175885569    -0.071851108604     
4700000000.0        -0.0109934140913    -0.073364972146     0.984953031728      -0.152376859246     0.984953031728      -0.152376859246     -0.0109934140913    -0.073364972146     
4800000000.0        -0.0114790877985    -0.0748756461593    0.984330913086      -0.155573073496     0.984330913086      -0.155573073496     -0.0114790877985    -0.0748756461593    
4900000000.0        -0.0119745852538    -0.0763830594096    0.983696078151      -0.15876626257      0.983696078151      -0.15876626257      -0.0119745852538    -0.0763830594096    
5000000000.0        -0.0124798814303    -0.0778871407906    0.983048549112      -0.161956357863     0.983048549112      -0.161956357863     -0.0124798814303    -0.0778871407906    
5100000000.0        -0.0129949506997    -0.0793878193337    0.982388348729      -0.165143290877     0.982388348729      -0.165143290877     -0.0129949506997    -0.0793878193337    
5200000000.0        -0.0135197668327    -0.0808850242171    0.98171550034       -0.168326993229     0.98171550034       -0.168326993229     -0.0135197668327    -0.0808850242171    
5300000000.0        -0.0140543029998    -0.0823786847753    0.981030027849      -0.17150739666      0.981030027849      -0.17150739666      -0.0140543029998    -0.0823786847753    
5400000000.0        -0.0145985317724    -0.0838687305083    0.980331955733      -0.174684433051     0.980331955733      -0.174684433051     -0.0145985317724    -0.0838687305083    
5500000000.0        -0.0151524251238    -0.085355091091     0.979621309032      -0.177858034425     0.979621309032      -0.177858034425     -0.0151524251238    -0.085355091091     
5600000000.0        -0.0157159544304    -0.0868376963815    0.978898113356      -0.181028132962     0.978898113356      -0.181028132962     -0.0157159544304    -0.0868376963815    
5700000000.0        -0.0162890904734    -0.0883164764306    0.978162394875      -0.184194661006     0.978162394875      -0.184194661006     -0.0162890904734    -0.0883164764306    
5800000000.0        -0.0168718034404    -0.0897913614901    0.977414180321      -0.187357551076     0.977414180321      -0.187357551076     -0.0168718034404    -0.0897913614901    
5900000000.0        -0.017464062927     -0.0912622820216    0.976653496984      -0.190516735871     0.976653496984      -0.190516735871     -0.017464062927     -0.0912622820216    
6000000000.0        -0.018065837939     -0.092729168705     0.975880372713      -0.193672148285     0.975880372713      -0.193672148285     -0.018065837939     -0.092729168705     
6100000000.0        -0.0186770968944    -0.0941919524471    0.975094835908      -0.196823721411     0.975094835908      -0.196823721411     -0.0186770968944    -0.0941919524471    
6200000000.0        -0.0192978076253    -0.0956505643893    0.974296915522      -0.199971388551     0.974296915522      -0.199971388551     -0.0192978076253    -0.0956505643893    
6300000000.0        -0.0199279373809    -0.0971049359166    0.973486641056      -0.203115083228     0.973486641056      -0.203115083228     -0.0199279373809    -0.0971049359166    
6400000000.0        -0.0205674528295    -0.0985549986648    0.972664042555      -0.206254739187     0.972664042555      -0.206254739187     -0.0205674528295    -0.0985549986648    
6500000000.0        -0.0212163200612    -0.100000684529     0.971829150611      -0.209390290411     0.971829150611      -0.209390290411     -0.0212163200612    -0.100000684529     
6600000000.0        -0.021874504591     -0.101441925672     0.970981996351      -0.212521671125     0.970981996351      -0.212521671125     -0.021874504591     -0.101441925672     
6700000000.0        -0.0225419713611    -0.102878654531     0.970122611442      -0.215648815805     0.970122611442      -0.215648815805     -0.0225419713611    -0.102878654531     
6800000000.0        -0.0232186847446    -0.104310803826     0.969251028082      -0.218771659186     0.969251028082      -0.218771659186     -0.0232186847446    -0.104310803826     
6900000000.0        -0.023904608548     -0.105738306566     0.968367279001      -0.221890136271     0.968367279001      -0.221890136271     -0.023904608548     -0.105738306566     
7000000000.0        -0.0245997060149    -0.107161096059     0.967471397455      -0.225004182335     0.967471397455      -0.225004182335     -0.0245997060149    -0.107161096059     
7100000000.0        -0.0253039398288    -0.108579105917     0.966563417221      -0.228113732939     0.966563417221      -0.228113732939     -0.0253039398288    -0.108579105917     
7200000000.0        -0.0260172721173    -0.109992270066     0.965643372599      -0.231218723929     0.965643372599      -0.231218723929     -0.0260172721173    -0.109992270066     
7300000000.0        -0.0267396644551    -0.111400522748     0.9647112984        -0.234319091453     0.9647112984        -0.234319091453     -0.0267396644551    -0.111400522748     
7400000000.0        -0.0274710778679    -0.112803798534     0.963767229952      -0.237414771959     0.963767229952      -0.237414771959     -0.0274710778679    -0.112803798534     
7500000000.0        -0.028211472836     -0.114202032328     0.962811203086      -0.240505702209     0.962811203086      -0.240505702209     -0.028211472836     -0.114202032328     
7600000000.0        -0.0289608092985    -0.115595159374     0.961843254139      -0.243591819284     0.961843254139      -0.243591819284     -0.0289608092985    -0.115595159374     
7700000000.0        -0.0297190466569    -0.116983115262     0.960863419949      -0.246673060588     0.960863419949      -0.246673060588     -0.0297190466569    -0.116983115262     
7800000000.0        -0.0304861437795    -0.118365835939     0.959871737846      -0.24974936386      0.959871737846      -0.24974936386      -0.0304861437795    -0.118365835939     
7900000000.0        -0.0312620590052    -0.119743257707     0.958868245655      -0.252820667176     0.958868245655      -0.252820667176     -0.0312620590052    -0.119743257707     
8000000000.0        -0.0320467501481    -0.12111531724      0.957852981684      -0.255886908959     0.957852981684      -0.255886908959     -0.0320467501481    -0.12111531724      
8100000000.0        -0.0328401745016    -0.122481951582     0.956825984728      -0.258948027983     0.956825984728      -0.258948027983     -0.0328401745016    -0.122481951582     
8200000000.0        -0.0336422888431    -0.123843098157     0.955787294055      -0.26200396338      0.955787294055      -0.26200396338      -0.0336422888431    -0.123843098157     
8300000000.0        -0.0344530494382    -0.125198694774     0.954736949408      -0.26505465465      0.954736949408      -0.26505465465      -0.0344530494382    -0.125198694774     
8400000000.0        -0.0352724120453    -0.126548679634     0.953674991001      -0.26810004166      0.953674991001      -0.26810004166      -0.0352724120453    -0.126548679634     
8500000000.0        -0.0361003319207    -0.127892991337     0.952601459508      -0.271140064655     0.952601459508      -0.271140064655     -0.0361003319207    -0.127892991337     
8600000000.0        -0.0369367638227    -0.129231568885     0.951516396064      -0.274174664265     0.951516396064      -0.274174664265     -0.0369367638227    -0.129231568885     
8700000000.0        -0.037781662017     -0.130564351688     0.950419842258      -0.277203781507     0.950419842258      -0.277203781507     -0.037781662017     -0.130564351688     
8800000000.0        -0.0386349802813    -0.131891279573     0.949311840126      -0.280227357792     0.949311840126      -0.280227357792     -0.0386349802813    -0.131891279573     
8900000000.0        -0.0394966719104    -0.133212292786     0.948192432151      -0.283245334932     0.948192432151      -0.283245334932     -0.0394966719104    -0.133212292786     
9000000000.0        -0.0403666897211    -0.134527332001     0.947061661251      -0.286257655145     0.947061661251      -0.286257655145     -0.0403666897211    -0.134527332001     
9100000000.0        -0.0412449860575    -0.13583633832      0.945919570782      -0.289264261059     0.945919570782      -0.289264261059     -0.0412449860575    -0.13583633832      
9200000000.0        -0.0421315127961    -0.137139253284     0.944766204525      -0.292265095719     0.944766204525      -0.292265095719     -0.0421315127961    -0.137139253284     
9300000000.0        -0.0430262213507    -0.138436018875     0.943601606685      -0.295260102591     0.943601606685      -0.295260102591     -0.0430262213507    -0.138436018875     
9400000000.0        -0.0439290626785    -0.139726577521     0.942425821885      -0.298249225569     0.942425821885      -0.298249225569     -0.0439290626785    -0.139726577521     
9500000000.0        -0.0448399872846    -0.141010872104     0.94123889516       -0.301232408976     0.94123889516       -0.301232408976     -0.0448399872846    -0.141010872104     
9600000000.0        -0.045758945228     -0.142288845959     0.940040871951      -0.304209597574     0.940040871951      -0.304209597574     -0.045758945228     -0.142288845959     
9700000000.0        -0.0466858861269    -0.143560442886     0.938831798103      -0.307180736565     0.938831798103      -0.307180736565     -0.0466858861269    -0.143560442886     
9800000000.0        -0.047620759164     -0.144825607148     0.937611719851      -0.310145771597     0.937611719851      -0.310145771597     -0.047620759164     -0.144825607148     
9900000000.0        -0.0485635130926    -0.146084283481     0.936380683826      -0.313104648769     0.936380683826      -0.313104648769     -0.0485635130926    -0.146084283481     
10000000000.0       -0.0495140962417    -0.147336417094     0.93513873704       -0.316057314634     0.93513873704       -0.316057314634     -0.0495140962417    -0.147336417094     
