# Hz S RI R 50.00 
100000000.0         0.0281871806826     0.00423100750409    0.971805917996      -0.00684582297428   0.971805917996      -0.00684582297428   0.0281871806826     0.00423100750409    
200000000.0         0.0284571932131     0.00845688069558    0.97152309964       -0.0136865348336    0.97152309964       -0.0136865348336    0.0284571932131     0.00845688069558    
300000000.0         0.0287382454174     0.0126782902673     0.971222335609      -0.0205228310355    0.971222335609      -0.0205228310355    0.0287382454174     0.0126782902673     
400000000.0         0.0290541047478     0.016894817166      0.970879856824      -0.0273543145443    0.970879856824      -0.0273543145443    0.0290541047478     0.016894817166      
500000000.0         0.0294138680409     0.021105791108      0.970486564575      -0.0341803357091    0.970486564575      -0.0341803357091    0.0294138680409     0.021105791108      
600000000.0         0.0298221140979     0.0253104324023     0.970037877906      -0.0410001345641    0.970037877906      -0.0410001345641    0.0298221140979     0.0253104324023     
700000000.0         0.0302814851907     0.0295079031362     0.969531152095      -0.047812892258     0.969531152095      -0.047812892258     0.0302814851907     0.0295079031362     
800000000.0         0.0307936293927     0.0336973311489     0.968964736315      -0.0546177551728    0.968964736315      -0.0546177551728    0.0307936293927     0.0336973311489     
900000000.0         0.0313596202287     0.0378778231198     0.968337553981      -0.0614138481075    0.968337553981      -0.0614138481075    0.0313596202287     0.0378778231198     
1000000000.0        0.0319801694465     0.0420484725071     0.967648889976      -0.0682002822844    0.967648889976      -0.0682002822844    0.0319801694465     0.0420484725071     
1100000000.0        0.0326557453519     0.0462083647621     0.966898272314      -0.0749761606114    0.966898272314      -0.0749761606114    0.0326557453519     0.0462083647621     
1200000000.0        0.033386643383      0.0503565809754     0.966085401569      -0.0817405813669    0.966085401569      -0.0817405813669    0.033386643383      0.0503565809754     
1300000000.0        0.0341730305756     0.0544922005643     0.965210106405      -0.0884926409155    0.965210106405      -0.0884926409155    0.0341730305756     0.0544922005643     
1400000000.0        0.0350149748569     0.058614303341      0.964272314281      -0.0952314358003    0.964272314281      -0.0952314358003    0.0350149748569     0.058614303341      
1500000000.0        0.0359124650769     0.0627219711654     0.963272031428      -0.101956064414     0.963272031428      -0.101956064414     0.0359124650769     0.0627219711654     
1600000000.0        0.0368654251464     0.0668142893077     0.962209328702      -0.108665628379     0.962209328702      -0.108665628379     0.0368654251464     0.0668142893077     
1700000000.0        0.0378737242983     0.0708903476029     0.961084331328      -0.115359233713     0.961084331328      -0.115359233713     0.0378737242983     0.0708903476029     
1800000000.0        0.0389371847201     0.0749492414502     0.959897211268      -0.12203599184      0.959897211268      -0.12203599184      0.0389371847201     0.0749492414502     
1900000000.0        0.04005558736       0.0789900726962     0.958648181412      -0.128695020484     0.958648181412      -0.128695020484     0.04005558736       0.0789900726962     
2000000000.0        0.0412286764371     0.0830119504254     0.957337491071      -0.135335444468     0.957337491071      -0.135335444468     0.0412286764371     0.0830119504254     
2100000000.0        0.0424561630116     0.0870139916783     0.955965422405      -0.141956396439     0.955965422405      -0.141956396439     0.0424561630116     0.0870139916783     
2200000000.0        0.0437377278649     0.0909953221106     0.954532287544      -0.14855701753      0.954532287544      -0.14855701753      0.0437377278649     0.0909953221106     
2300000000.0        0.0450730238631     0.0949550766015     0.953038426227      -0.155136457981     0.953038426227      -0.155136457981     0.0450730238631     0.0949550766015     
2400000000.0        0.0464616779312     0.0988923998212     0.951484203822      -0.161693877704     0.951484203822      -0.161693877704     0.0464616779312     0.0988923998212     
2500000000.0        0.0479032927268     0.102806446761      0.949870009659      -0.168228446821     0.949870009659      -0.168228446821     0.0479032927268     0.102806446761      
2600000000.0        0.0493974480838     0.106696383231      0.948196255582      -0.174739346166     0.948196255582      -0.174739346166     0.0493974480838     0.106696383231      
2700000000.0        0.0509437022748     0.11056138633       0.946463374689      -0.181225767757     0.946463374689      -0.181225767757     0.0509437022748     0.11056138633       
2800000000.0        0.052541593132      0.114400644888      0.944671820208      -0.18768691524      0.944671820208      -0.18768691524      0.052541593132      0.114400644888      
2900000000.0        0.0541906390546     0.118213359883      0.942822064495      -0.194122004312     0.942822064495      -0.194122004312     0.0541906390546     0.118213359883      
3000000000.0        0.0558903399264     0.121998744838      0.940914598109      -0.200530263119     0.940914598109      -0.200530263119     0.0558903399264     0.121998744838      
3100000000.0        0.0576401779611     0.125756026194      0.938949928975      -0.206910932629     0.938949928975      -0.206910932629     0.0576401779611     0.125756026194      
3200000000.0        0.0594396184887     0.129484443664      0.936928581589      -0.21326326699      0.936928581589      -0.21326326699      0.0594396184887     0.129484443664      
3300000000.0        0.0612881106941     0.133183250567      0.934851096287      -0.219586533866     0.934851096287      -0.219586533866     0.0612881106941     0.133183250567      
3400000000.0        0.0631850883167     0.13685171414       0.932718028537      -0.22588001475      0.932718028537      -0.22588001475      0.0631850883167     0.13685171414       
3500000000.0        0.0651299703178     0.140489115837      0.930529948279      -0.232143005263     0.930529948279      -0.232143005263     0.0651299703178     0.140489115837      
3600000000.0        0.0671221615213     0.144094751605      0.928287439281      -0.238374815434     0.928287439281      -0.238374815434     0.0671221615213     0.144094751605      
3700000000.0        0.0691610532323     0.147667932148      0.925991098518      -0.244574769961     0.925991098518      -0.244574769961     0.0691610532323     0.147667932148      
3800000000.0        0.071246023836      0.151207983164      0.923641535575      -0.250742208453     0.923641535575      -0.250742208453     0.071246023836      0.151207983164      
3900000000.0        0.0733764393824     0.154714245577      0.921239372061      -0.256876485661     0.921239372061      -0.256876485661     0.0733764393824     0.154714245577      
4000000000.0        0.0755516541553     0.158186075743      0.918785241042      -0.262976971686     0.918785241042      -0.262976971686     0.0755516541553     0.158186075743      
4100000000.0        0.0777710112313     0.161622845645      0.916279786478      -0.269043052171     0.916279786478      -0.269043052171     0.0777710112313     0.161622845645      
4200000000.0        0.0800338430275     0.16502394307       0.913723662677      -0.275074128482     0.913723662677      -0.275074128482     0.0800338430275     0.16502394307       
4300000000.0        0.0823394718399     0.168388771767      0.911117533753      -0.281069617868     0.911117533753      -0.281069617868     0.0823394718399     0.168388771767      
4400000000.0        0.0846872103738     0.171716751596      0.908462073102      -0.287028953603     0.908462073102      -0.287028953603     0.0846872103738     0.171716751596      
4500000000.0        0.0870763622667     0.175007318656      0.90575796287       -0.292951585123     0.90575796287       -0.292951585123     0.0870763622667     0.175007318656      
4600000000.0        0.0895062226038     0.178259925398      0.903005893442      -0.298836978134     0.903005893442      -0.298836978134     0.0895062226038     0.178259925398      
4700000000.0        0.0919760784267     0.181474040728      0.900206562932      -0.304684614715     0.900206562932      -0.304684614715     0.0919760784267     0.181474040728      
4800000000.0        0.0944852092363     0.184649150087      0.897360676679      -0.310493993401     0.897360676679      -0.310493993401     0.0944852092363     0.184649150087      
4900000000.0        0.0970328874889     0.187784755525      0.894468946749      -0.316264629254     0.894468946749      -0.316264629254     0.0970328874889     0.187784755525      
5000000000.0        0.099618379086      0.190880375751      0.891532091447      -0.321996053918     0.891532091447      -0.321996053918     0.099618379086      0.190880375751      
5100000000.0        0.102240943859      0.193935546183      0.888550834828      -0.327687815661     0.888550834828      -0.327687815661     0.102240943859      0.193935546183      
5200000000.0        0.104899836046      0.196949818967      0.885525906223      -0.3333394794       0.885525906223      -0.3333394794       0.104899836046      0.196949818967      
5300000000.0        0.107594304766      0.199922762996      0.882458039762      -0.338950626717     0.882458039762      -0.338950626717     0.107594304766      0.199922762996      
5400000000.0        0.110323594482      0.202853963909      0.879347973911      -0.34452085586      0.879347973911      -0.34452085586      0.110323594482      0.202853963909      
5500000000.0        0.113086945461      0.205743024078      0.876196451009      -0.350049781729     0.876196451009      -0.350049781729     0.113086945461      0.205743024078      
5600000000.0        0.115883594226      0.208589562587      0.873004216817      -0.355537035849     0.873004216817      -0.355537035849     0.115883594226      0.208589562587      
5700000000.0        0.118712774006      0.211393215188      0.869772020068      -0.360982266338     0.869772020068      -0.360982266338     0.118712774006      0.211393215188      
5800000000.0        0.12157371517       0.214153634256      0.866500612029      -0.366385137849     0.866500612029      -0.366385137849     0.12157371517       0.214153634256      
5900000000.0        0.124465645664      0.21687048873       0.863190746066      -0.371745331515     0.863190746066      -0.371745331515     0.124465645664      0.21687048873       
6000000000.0        0.127387791432      0.219543464031      0.859843177218      -0.377062544872     0.859843177218      -0.377062544872     0.127387791432      0.219543464031      
6100000000.0        0.130339376841      0.222172261987      0.856458661778      -0.382336491774     0.856458661778      -0.382336491774     0.130339376841      0.222172261987      
6200000000.0        0.133319625082      0.224756600736      0.853037956882      -0.387566902302     0.853037956882      -0.387566902302     0.133319625082      0.224756600736      
6300000000.0        0.136327758581      0.227296214617      0.849581820102      -0.392753522651     0.849581820102      -0.392753522651     0.136327758581      0.227296214617      
6400000000.0        0.139362999394      0.229790854058      0.846091009053      -0.397896115021     0.846091009053      -0.397896115021     0.139362999394      0.229790854058      
6500000000.0        0.142424569586      0.232240285451      0.842566281004      -0.402994457487     0.842566281004      -0.402994457487     0.142424569586      0.232240285451      
6600000000.0        0.145511691622      0.234644291016      0.839008392493      -0.408048343863     0.839008392493      -0.408048343863     0.145511691622      0.234644291016      
6700000000.0        0.148623588729      0.237002668657      0.835418098962      -0.413057583561     0.835418098962      -0.413057583561     0.148623588729      0.237002668657      
6800000000.0        0.151759485262      0.23931523181       0.831796154387      -0.418022001435     0.831796154387      -0.418022001435     0.151759485262      0.23931523181       
6900000000.0        0.154918607059      0.241581809282      0.828143310927      -0.42294143762      0.828143310927      -0.42294143762      0.154918607059      0.241581809282      
7000000000.0        0.158100181783      0.243802245084      0.824460318575      -0.427815747361     0.824460318575      -0.427815747361     0.158100181783      0.243802245084      
7100000000.0        0.161303439263      0.245976398253      0.820747924818      -0.432644800839     0.820747924818      -0.432644800839     0.161303439263      0.245976398253      
7200000000.0        0.16452761182       0.248104142666      0.817006874313      -0.437428482984     0.817006874313      -0.437428482984     0.16452761182       0.248104142666      
7300000000.0        0.167771934584      0.250185366853      0.813237908562      -0.442166693281     0.813237908562      -0.442166693281     0.167771934584      0.250185366853      
7400000000.0        0.171035645807      0.252219973799      0.809441765603      -0.446859345576     0.809441765603      -0.446859345576     0.171035645807      0.252219973799      
7500000000.0        0.174317987162      0.25420788074       0.805619179706      -0.451506367871     0.805619179706      -0.451506367871     0.174317987162      0.25420788074       
7600000000.0        0.177618204035      0.256149018951      0.801770881082      -0.456107702111     0.801770881082      -0.456107702111     0.177618204035      0.256149018951      
7700000000.0        0.180935545811      0.258043333538      0.797897595596      -0.460663303969     0.797897595596      -0.460663303969     0.180935545811      0.258043333538      
7800000000.0        0.184269266139      0.25989078321       0.794000044496      -0.465173142627     0.794000044496      -0.465173142627     0.184269266139      0.25989078321       
7900000000.0        0.187618623206      0.261691340061      0.790078944142      -0.469637200546     0.790078944142      -0.469637200546     0.187618623206      0.261691340061      
8000000000.0        0.190982879985      0.263444989338      0.786135005754      -0.474055473241     0.786135005754      -0.474055473241     0.190982879985      0.263444989338      
8100000000.0        0.194361304485      0.265151729206      0.782168935163      -0.478427969042     0.782168935163      -0.478427969042     0.194361304485      0.265151729206      
8200000000.0        0.197753169984      0.266811570514      0.778181432572      -0.482754708857     0.778181432572      -0.482754708857     0.197753169984      0.266811570514      
8300000000.0        0.20115775526       0.268424536553      0.774173192329      -0.487035725931     0.774173192329      -0.487035725931     0.20115775526       0.268424536553      
8400000000.0        0.204574344803      0.269990662814      0.770144902705      -0.491271065601     0.770144902705      -0.491271065601     0.204574344803      0.269990662814      
8500000000.0        0.208002229034      0.271509996738      0.766097245685      -0.495460785047     0.766097245685      -0.495460785047     0.208002229034      0.271509996738      
8600000000.0        0.211440704495      0.272982597471      0.762030896764      -0.499604953042     0.762030896764      -0.499604953042     0.211440704495      0.272982597471      
8700000000.0        0.214889074045      0.274408535611      0.757946524758      -0.503703649699     0.757946524758      -0.503703649699     0.214889074045      0.274408535611      
8800000000.0        0.218346647041      0.275787892954      0.753844791616      -0.507756966219     0.753844791616      -0.507756966219     0.218346647041      0.275787892954      
8900000000.0        0.221812739512      0.277120762243      0.749726352247      -0.511765004632     0.749726352247      -0.511765004632     0.221812739512      0.277120762243      
9000000000.0        0.225286674323      0.278407246906      0.745591854355      -0.51572787754      0.745591854355      -0.51572787754      0.225286674323      0.278407246906      
9100000000.0        0.228767781327      0.279647460808      0.741441938279      -0.51964570786      0.741441938279      -0.51964570786      0.228767781327      0.279647460808      
9200000000.0        0.23225539752       0.280841527983      0.737277236846      -0.523518628562     0.737277236846      -0.523518628562     0.23225539752       0.280841527983      
9300000000.0        0.235748867171      0.281989582383      0.733098375229      -0.527346782413     0.733098375229      -0.527346782413     0.235748867171      0.281989582383      
9400000000.0        0.239247541957      0.283091767619      0.728905970814      -0.531130321713     0.728905970814      -0.531130321713     0.239247541957      0.283091767619      
9500000000.0        0.242750781087      0.284148236697      0.72470063308       -0.534869408036     0.72470063308       -0.534869408036     0.242750781087      0.284148236697      
9600000000.0        0.246257951409      0.285159151768      0.72048296348       -0.53856421197      0.72048296348       -0.53856421197      0.246257951409      0.285159151768      
9700000000.0        0.249768427523      0.286124683861      0.71625355533       -0.542214912859     0.71625355533       -0.542214912859     0.249768427523      0.286124683861      
9800000000.0        0.253281591872      0.287045012636      0.712012993718      -0.545821698542     0.712012993718      -0.545821698542     0.253281591872      0.287045012636      
9900000000.0        0.256796834841      0.287920326119      0.707761855401      -0.549384765095     0.707761855401      -0.549384765095     0.256796834841      0.287920326119      
10000000000.0       0.260313554832      0.288750820453      0.703500708727      -0.552904316576     0.703500708727      -0.552904316576     0.260313554832      0.288750820453      
