# Hz S RI R 50.00 
100000000.0         0.00329542729319    0.000434048348749   0.996702759068      -0.00108211462949   0.996702759068      -0.00108211462949   0.00329542729319    0.000434048348749   
200000000.0         0.00331837720503    0.000868028492678   0.996678575055      -0.00216416173333   0.996678575055      -0.00216416173333   0.00331837720503    0.000868028492679   
300000000.0         0.003336440652      0.00130196488114    0.996658857032      -0.00324616647374   0.996658857032      -0.00324616647374   0.003336440652      0.00130196488114    
400000000.0         0.00335247603517    0.0017358645537     0.996640746588      -0.0043281364242    0.996640746588      -0.0043281364242    0.00335247603517    0.0017358645537     
500000000.0         0.00336758503949    0.00216973051303    0.996623142027      -0.00541007503216   0.996623142027      -0.00541007503216   0.00336758503949    0.00216973051303    
600000000.0         0.00338232992151    0.00260356397876    0.996605481079      -0.00649198390431   0.996605481079      -0.00649198390431   0.00338232992151    0.00260356397876    
700000000.0         0.00339704304356    0.00303736519553    0.996587431367      -0.00757386363051   0.996587431367      -0.00757386363051   0.00339704304356    0.00303736519553    
800000000.0         0.00341193987224    0.00347113380688    0.996568777412      -0.00865571416751   0.996568777412      -0.00865571416751   0.00341193987224    0.00347113380688    
900000000.0         0.00342716930305    0.00390486905603    0.996549370302      -0.00973753504545   0.996549370302      -0.00973753504545   0.00342716930305    0.00390486905603    
1000000000.0        0.0034428391749     0.00433856990402    0.996529102181      -0.010819325491     0.996529102181      -0.010819325491     0.0034428391749     0.00433856990402    
1100000000.0        0.00345903045631    0.00477223510488    0.996507892063      -0.0119010845054    0.996507892063      -0.0119010845054    0.00345903045631    0.00477223510488    
1200000000.0        0.0034758057006     0.00520586325588    0.996485677377      -0.0129828109172    0.996485677377      -0.0129828109172    0.0034758057006     0.00520586325588    
1300000000.0        0.00349321436648    0.00563945283221    0.996462408644      -0.014064503419     0.996462408644      -0.014064503419     0.00349321436648    0.00563945283221    
1400000000.0        0.00351129631609    0.00607300221237    0.996438045982      -0.0151461605941    0.996438045982      -0.0151461605941    0.00351129631609    0.00607300221237    
1500000000.0        0.00353008419905    0.00650650969659    0.996412556719      -0.0162277809366    0.996412556719      -0.0162277809366    0.00353008419905    0.00650650969659    
1600000000.0        0.00354960512728    0.0069399735211     0.996385913723      -0.0173093628664    0.996385913723      -0.0173093628664    0.00354960512728    0.00693997352109    
1700000000.0        0.00356988188211    0.00737339186892    0.996358094188      -0.0183909047409    0.996358094188      -0.0183909047409    0.00356988188211    0.00737339186892    
1800000000.0        0.00359093380391    0.00780676287855    0.996329078751      -0.0194724048646    0.996329078751      -0.0194724048646    0.00359093380391    0.00780676287855    
1900000000.0        0.00361277746049    0.0082400846507     0.996298850819      -0.0205538614963    0.996298850819      -0.0205538614963    0.00361277746049    0.0082400846507     
2000000000.0        0.00363542715783    0.00867335525399    0.99626739606       -0.0216352728555    0.99626739606       -0.0216352728555    0.00363542715783    0.00867335525399    
2100000000.0        0.00365889533635    0.00910657272929    0.996234702008      -0.0227166371272    0.996234702008      -0.0227166371272    0.00365889533635    0.00910657272929    
2200000000.0        0.00368319288248    0.00953973509368    0.99620075775       -0.0237979524662    0.99620075775       -0.0237979524662    0.00368319288248    0.00953973509368    
2300000000.0        0.00370832937653    0.00997284034338    0.996165553677      -0.0248792170005    0.996165553677      -0.0248792170005    0.00370832937653    0.00997284034338    
2400000000.0        0.00373431329222    0.0104058864565     0.996129081286      -0.0259604288344    0.996129081286      -0.0259604288344    0.00373431329222    0.0104058864565     
2500000000.0        0.0037611521587     0.0108388713953     0.99609133302       -0.0270415860511    0.99609133302       -0.0270415860511    0.0037611521587     0.0108388713953     
2600000000.0        0.00378885269345    0.0112717931081     0.996052302131      -0.0281226867147    0.996052302131      -0.0281226867147    0.00378885269345    0.0112717931081     
2700000000.0        0.00381742091208    0.0117046495306     0.996011982572      -0.0292037288721    0.996011982572      -0.0292037288721    0.00381742091208    0.0117046495306     
2800000000.0        0.00384686221988    0.0121374385879     0.995970368906      -0.0302847105548    0.995970368906      -0.0302847105548    0.00384686221988    0.0121374385879     
2900000000.0        0.00387718148848    0.0125701581952     0.99592745623       -0.0313656297803    0.99592745623       -0.0313656297803    0.00387718148848    0.0125701581952     
3000000000.0        0.00390838312068    0.0130028062592     0.995883240107      -0.0324464845534    0.995883240107      -0.0324464845534    0.00390838312068    0.0130028062592     
3100000000.0        0.00394047110546    0.0134353806788     0.995837716515      -0.0335272728671    0.995837716515      -0.0335272728671    0.00394047110546    0.0134353806788     
3200000000.0        0.00397344906496    0.0138678793463     0.995790881797      -0.034607992704     0.995790881797      -0.034607992704     0.00397344906496    0.0138678793463     
3300000000.0        0.00400732029484    0.0143003001475     0.995742732623      -0.0356886420366    0.995742732623      -0.0356886420366    0.00400732029484    0.0143003001475     
3400000000.0        0.00404208779906    0.0147326409632     0.995693265953      -0.0367692188289    0.995693265953      -0.0367692188289    0.00404208779906    0.0147326409632     
3500000000.0        0.00407775432003    0.0151648996692     0.995642479008      -0.0378497210362    0.995642479008      -0.0378497210362    0.00407775432003    0.0151648996692     
3600000000.0        0.0041143223649     0.0155970741367     0.995590369243      -0.0389301466067    0.995590369243      -0.0389301466067    0.0041143223649     0.0155970741367     
3700000000.0        0.00415179422847    0.0160291622336     0.995536934327      -0.0400104934813    0.995536934327      -0.0400104934813    0.00415179422847    0.0160291622336     
3800000000.0        0.0041901720133     0.0164611618238     0.995482172117      -0.0410907595944    0.995482172117      -0.0410907595944    0.0041901720133     0.0164611618238     
3900000000.0        0.00422945764746    0.0168930707685     0.995426080647      -0.0421709428746    0.995426080647      -0.0421709428746    0.00422945764746    0.0168930707685     
4000000000.0        0.00426965290014    0.0173248869262     0.995368658109      -0.0432510412449    0.995368658109      -0.0432510412449    0.00426965290014    0.0173248869262     
4100000000.0        0.00431075939553    0.0177566081528     0.995309902837      -0.0443310526231    0.995309902837      -0.0443310526231    0.00431075939553    0.0177566081528     
4200000000.0        0.00435277862514    0.0181882323024     0.995249813298      -0.0454109749224    0.995249813298      -0.0454109749224    0.00435277862514    0.0181882323024     
4300000000.0        0.00439571195878    0.0186197572271     0.995188388083      -0.0464908060512    0.995188388083      -0.0464908060512    0.00439571195878    0.0186197572271     
4400000000.0        0.00443956065441    0.0190511807774     0.99512562589       -0.0475705439143    0.99512562589       -0.0475705439143    0.00443956065441    0.0190511807774     
4500000000.0        0.0044843258669     0.0194825008025     0.995061525521      -0.0486501864123    0.995061525521      -0.0486501864123    0.0044843258669     0.0194825008025     
4600000000.0        0.00453000865594    0.0199137151505     0.994996085874      -0.0497297314424    0.994996085874      -0.0497297314424    0.00453000865594    0.0199137151505     
4700000000.0        0.0045766099932     0.0203448216684     0.994929305934      -0.0508091768985    0.994929305934      -0.0508091768985    0.0045766099932     0.0203448216684     
4800000000.0        0.00462413076871    0.0207758182024     0.994861184764      -0.0518885206715    0.994861184764      -0.0518885206715    0.00462413076871    0.0207758182024     
4900000000.0        0.00467257179671    0.0212067025982     0.994791721507      -0.0529677606492    0.994791721507      -0.0529677606492    0.00467257179671    0.0212067025982     
5000000000.0        0.00472193382088    0.0216374727009     0.994720915372      -0.054046894717     0.994720915372      -0.054046894717     0.00472193382088    0.0216374727009     
5100000000.0        0.00477221751919    0.0220681263553     0.994648765635      -0.0551259207579    0.994648765635      -0.0551259207579    0.00477221751919    0.0220681263553     
5200000000.0        0.00482342350817    0.0224986614059     0.994575271633      -0.0562048366522    0.994575271633      -0.0562048366522    0.00482342350817    0.0224986614059     
5300000000.0        0.00487555234697    0.0229290756972     0.994500432759      -0.0572836402786    0.994500432759      -0.0572836402786    0.00487555234697    0.0229290756972     
5400000000.0        0.00492860454093    0.0233593670737     0.994424248459      -0.0583623295136    0.994424248459      -0.0583623295136    0.00492860454093    0.0233593670737     
5500000000.0        0.00498258054491    0.0237895333798     0.994346718231      -0.0594409022318    0.994346718231      -0.0594409022318    0.00498258054491    0.0237895333798     
5600000000.0        0.00503748076634    0.0242195724604     0.994267841618      -0.0605193563063    0.994267841618      -0.0605193563063    0.00503748076634    0.0242195724604     
5700000000.0        0.00509330556799    0.0246494821606     0.994187618206      -0.0615976896085    0.994187618206      -0.0615976896085    0.00509330556799    0.0246494821606     
5800000000.0        0.00515005527059    0.0250792603258     0.994106047626      -0.0626759000086    0.994106047626      -0.0626759000086    0.00515005527059    0.0250792603258     
5900000000.0        0.00520773015511    0.0255089048018     0.994023129546      -0.0637539853753    0.994023129546      -0.0637539853753    0.00520773015511    0.0255089048018     
6000000000.0        0.005266330465      0.0259384134353     0.99393886367       -0.0648319435762    0.99393886367       -0.0648319435762    0.005266330465      0.0259384134353     
6100000000.0        0.00532585640817    0.0263677840732     0.993853249739      -0.0659097724778    0.993853249739      -0.0659097724778    0.00532585640817    0.0263677840732     
6200000000.0        0.00538630815888    0.0267970145633     0.993766287526      -0.0669874699456    0.993766287526      -0.0669874699456    0.00538630815888    0.0267970145633     
6300000000.0        0.00544768585939    0.0272261027542     0.993677976837      -0.0680650338443    0.993677976837      -0.0680650338443    0.00544768585939    0.0272261027542     
6400000000.0        0.00550998962163    0.0276550464951     0.993588317505      -0.0691424620376    0.993588317505      -0.0691424620376    0.00550998962163    0.0276550464951     
6500000000.0        0.00557321952864    0.0280838436362     0.993497309394      -0.0702197523888    0.993497309394      -0.0702197523888    0.00557321952864    0.0280838436362     
6600000000.0        0.00563737563593    0.0285124920287     0.993404952393      -0.0712969027602    0.993404952393      -0.0712969027602    0.00563737563593    0.0285124920287     
6700000000.0        0.0057024579728     0.0289409895245     0.99331124642       -0.0723739110138    0.99331124642       -0.0723739110138    0.0057024579728     0.0289409895245     
6800000000.0        0.00576846654346    0.0293693339768     0.993216191413      -0.0734507750112    0.993216191413      -0.0734507750112    0.00576846654346    0.0293693339768     
6900000000.0        0.00583540132823    0.0297975232398     0.993119787336      -0.0745274926133    0.993119787336      -0.0745274926133    0.00583540132823    0.0297975232398     
7000000000.0        0.00590326228446    0.0302255551687     0.993022034176      -0.0756040616809    0.993022034176      -0.0756040616809    0.00590326228446    0.0302255551687     
7100000000.0        0.00597204934761    0.0306534276199     0.992922931941      -0.0766804800745    0.992922931941      -0.0766804800745    0.00597204934761    0.0306534276199     
7200000000.0        0.00604176243205    0.0310811384512     0.992822480658      -0.0777567456543    0.992822480658      -0.0777567456543    0.00604176243205    0.0310811384512     
7300000000.0        0.00611240143197    0.0315086855212     0.992720680375      -0.0788328562806    0.992720680375      -0.0788328562806    0.00611240143197    0.0315086855212     
7400000000.0        0.00618396622213    0.0319360666903     0.992617531159      -0.0799088098133    0.992617531159      -0.0799088098133    0.00618396622213    0.0319360666903     
7500000000.0        0.00625645665865    0.0323632798199     0.992513033095      -0.0809846041125    0.992513033095      -0.0809846041125    0.00625645665865    0.0323632798199     
7600000000.0        0.00632987257962    0.0327903227727     0.992407186286      -0.0820602370383    0.992407186286      -0.0820602370383    0.00632987257962    0.0327903227727     
7700000000.0        0.00640421380584    0.033217193413      0.99229999085       -0.0831357064509    0.99229999085       -0.0831357064509    0.00640421380584    0.033217193413      
7800000000.0        0.00647948014138    0.0336438896064     0.992191446923      -0.0842110102104    0.992191446923      -0.0842110102104    0.00647948014138    0.0336438896064     
7900000000.0        0.00655567137416    0.0340704092199     0.992081554658      -0.0852861461775    0.992081554658      -0.0852861461775    0.00655567137416    0.0340704092199     
8000000000.0        0.0066327872765     0.0344967501221     0.991970314219      -0.0863611122128    0.991970314219      -0.0863611122128    0.0066327872765     0.0344967501221     
8100000000.0        0.00671082760565    0.0349229101831     0.991857725788      -0.0874359061774    0.991857725788      -0.0874359061774    0.00671082760565    0.0349229101831     
8200000000.0        0.00678979210423    0.0353488872743     0.99174378956       -0.0885105259326    0.99174378956       -0.0885105259326    0.00678979210423    0.0353488872743     
8300000000.0        0.00686968050071    0.0357746792689     0.991628505743      -0.0895849693401    0.991628505743      -0.0895849693401    0.00686968050071    0.0357746792689     
8400000000.0        0.00695049250983    0.0362002840417     0.991511874561      -0.090659234262     0.991511874561      -0.090659234262     0.00695049250983    0.0362002840417     
8500000000.0        0.007032227833      0.036625699469      0.991393896247      -0.091733318561     0.991393896247      -0.091733318561     0.007032227833      0.036625699469      
8600000000.0        0.00711488615871    0.0370509234287     0.99127457105       -0.0928072201001    0.99127457105       -0.0928072201001    0.00711488615871    0.0370509234287     
8700000000.0        0.00719846716285    0.0374759538007     0.991153899229      -0.093880936743     0.991153899229      -0.093880936743     0.00719846716285    0.0374759538007     
8800000000.0        0.00728297050907    0.0379007884661     0.991031881055      -0.0949544663538    0.991031881055      -0.0949544663538    0.00728297050907    0.0379007884661     
8900000000.0        0.00736839584911    0.038325425308      0.990908516811      -0.0960278067973    0.990908516811      -0.0960278067973    0.00736839584911    0.038325425308      
9000000000.0        0.0074547428231     0.0387498622112     0.990783806791      -0.0971009559392    0.990783806791      -0.0971009559392    0.0074547428231     0.0387498622112     
9100000000.0        0.00754201105987    0.0391740970624     0.990657751301      -0.0981739116453    0.990657751301      -0.0981739116453    0.00754201105987    0.0391740970624     
9200000000.0        0.00763020017719    0.0395981277497     0.990530350654      -0.0992466717828    0.990530350654      -0.0992466717828    0.00763020017719    0.0395981277497     
9300000000.0        0.00771930978206    0.0400219521634     0.990401605178      -0.100319234219     0.990401605178      -0.100319234219     0.00771930978206    0.0400219521634     
9400000000.0        0.00780933947095    0.0404455681953     0.990271515208      -0.101391596823     0.990271515208      -0.101391596823     0.00780933947095    0.0404455681953     
9500000000.0        0.00790028883003    0.0408689737393     0.99014008109       -0.102463757463     0.99014008109       -0.102463757463     0.00790028883003    0.0408689737393     
9600000000.0        0.00799215743542    0.041292166691      0.99000730318       -0.10353571401      0.99000730318       -0.10353571401      0.00799215743542    0.041292166691      
9700000000.0        0.00808494485337    0.0417151449479     0.989873181841      -0.104607464334     0.989873181841      -0.104607464334     0.00808494485337    0.0417151449479     
9800000000.0        0.00817865064051    0.0421379064096     0.989737717449      -0.105679006307     0.989737717449      -0.105679006307     0.00817865064051    0.0421379064096     
9900000000.0        0.00827327434397    0.0425604489772     0.989600910386      -0.106750337803     0.989600910386      -0.106750337803     0.00827327434397    0.0425604489772     
10000000000.0       0.00836881550167    0.0429827705542     0.989462761044      -0.107821456695     0.989462761044      -0.107821456695     0.00836881550167    0.0429827705542     
