# Hz S RI R 50.00 
100000000.0         0.0966326264277     0.00397115775764    0.903364433274      -0.00521075124159   0.903364433274      -0.00521075124159   0.0966326264277     0.00397115775764    
200000000.0         0.0972742823275     0.00792994394508    0.902719244916      -0.0104091451615    0.902719244916      -0.0104091451615    0.0972742823275     0.00792994394508    
300000000.0         0.0978046103212     0.0118804994413     0.902183791528      -0.0155993341914    0.902183791528      -0.0155993341914    0.0978046103212     0.0118804994413     
400000000.0         0.098300028505      0.015823836729      0.901681654391      -0.0207823410078    0.901681654391      -0.0207823410078    0.098300028505      0.015823836729      
500000000.0         0.0987899879269     0.0197602415217     0.90118338187       -0.0259584608343    0.90118338187       -0.0259584608343    0.0987899879269     0.0197602415217     
600000000.0         0.0992894952269     0.0236896786993     0.900673966746      -0.0311276676145    0.900673966746      -0.0311276676145    0.0992894952269     0.0236896786993     
700000000.0         0.0998073891577     0.0276119382539     0.900144569675      -0.0362897600782    0.900144569675      -0.0362897600782    0.0998073891577     0.0276119382539     
800000000.0         0.100349364071      0.0315267031001     0.899589495695      -0.041444429624     0.899589495695      -0.041444429624     0.100349364071      0.0315267031001     
900000000.0         0.100919317279      0.0354335856031     0.899004846854      -0.0465912968953    0.899004846854      -0.0465912968953    0.100919317279      0.0354335856031     
1000000000.0        0.101520032565      0.0393321493015     0.898387838703      -0.0517299335365    0.898387838703      -0.0517299335365    0.101520032565      0.0393321493015     
1100000000.0        0.102153560434      0.0432219227924     0.897736420034      -0.0568598761027    0.897736420034      -0.0568598761027    0.102153560434      0.0432219227924     
1200000000.0        0.102821444887      0.0471024091106     0.897049046112      -0.0619806354579    0.897049046112      -0.0619806354579    0.102821444887      0.0471024091106     
1300000000.0        0.103524866214      0.0509730923527     0.896324535874      -0.0670917034139    0.896324535874      -0.0670917034139    0.103524866214      0.0509730923527     
1400000000.0        0.104264734946      0.0548334425299     0.895561977979      -0.0721925575951    0.895561977979      -0.0721925575951    0.104264734946      0.0548334425299     
1500000000.0        0.105041755952      0.0586829192353     0.894760666712      -0.0772826651157    0.894760666712      -0.0772826651157    0.105041755952      0.0586829192353     
1600000000.0        0.10585647351       0.0625209744895     0.893920056907      -0.0823614854335    0.893920056907      -0.0823614854335    0.10585647351       0.0625209744895     
1700000000.0        0.106709303854      0.0663470550028     0.893039731405      -0.087428472619     0.893039731405      -0.087428472619     0.106709303854      0.0663470550028     
1800000000.0        0.10760055919       0.0701606040093     0.892119377034      -0.0924830771953    0.892119377034      -0.0924830771953    0.10760055919       0.0701606040093     
1900000000.0        0.108530465802      0.0739610627822     0.891158766505      -0.0975247476588    0.891158766505      -0.0975247476588    0.108530465802      0.0739610627822     
2000000000.0        0.109499177914      0.0777478719065     0.89015774455       -0.102552931756     0.89015774455       -0.102552931756     0.109499177914      0.0777478719065     
2100000000.0        0.110506788498      0.0815204723641     0.889116217109      -0.107567077574     0.889116217109      -0.107567077574     0.110506788498      0.0815204723641     
2200000000.0        0.111553337805      0.0852783064699     0.888034142805      -0.112566634478     0.888034142805      -0.112566634478     0.111553337805      0.0852783064699     
2300000000.0        0.112638820203      0.0890208186902     0.886911526102      -0.117551053933     0.886911526102      -0.117551053933     0.112638820203      0.0890208186902     
2400000000.0        0.113763189711      0.0927474563653     0.885748411775      -0.122519790231     0.885748411775      -0.122519790231     0.113763189711      0.0927474563653     
2500000000.0        0.114926364539      0.0964576703531     0.884544880363      -0.127472301137     0.884544880363      -0.127472301137     0.114926364539      0.0964576703531     
2600000000.0        0.116128230851      0.100150915607      0.883301044413      -0.132408048467     0.883301044413      -0.132408048467     0.116128230851      0.100150915607      
2700000000.0        0.117368645908      0.103826651699      0.882017045334      -0.137326498615     0.882017045334      -0.137326498615     0.117368645908      0.103826651699      
2800000000.0        0.118647440732      0.107484343296      0.880693050731      -0.142227123032     0.880693050731      -0.142227123032     0.118647440732      0.107484343296      
2900000000.0        0.119964422377      0.111123460596      0.879329252138      -0.14710939866      0.879329252138      -0.14710939866      0.119964422377      0.111123460596      
3000000000.0        0.121319375875      0.114743479727      0.877925863068      -0.151972808339     0.877925863068      -0.151972808339     0.121319375875      0.114743479727      
3100000000.0        0.122712065941      0.118343883119      0.876483117311      -0.156816841174     0.876483117311      -0.156816841174     0.122712065941      0.118343883119      
3200000000.0        0.124142238451      0.121924159843      0.875001267455      -0.16164099288      0.875001267455      -0.16164099288      0.124142238451      0.121924159843      
3300000000.0        0.125609621755      0.125483805931      0.873480583574      -0.1664447661       0.873480583574      -0.1664447661       0.125609621755      0.125483805931      
3400000000.0        0.12711392784       0.129022324672      0.87192135206       -0.171227670706     0.87192135206       -0.171227670706     0.12711392784       0.129022324672      
3500000000.0        0.12865485338       0.132539226884      0.870323874581      -0.175989224068     0.870323874581      -0.175989224068     0.12865485338       0.132539226884      
3600000000.0        0.130232080674      0.136034031171      0.868688467138      -0.180728951316     0.868688467138      -0.180728951316     0.130232080674      0.136034031171      
3700000000.0        0.131845278506      0.139506264165      0.867015459203      -0.185446385578     0.867015459203      -0.185446385578     0.131845278506      0.139506264165      
3800000000.0        0.133494102928      0.142955460742      0.865305192941      -0.190141068205     0.865305192941      -0.190141068205     0.133494102928      0.142955460742      
3900000000.0        0.135178197989      0.146381164238      0.86355802248       -0.194812548979     0.86355802248       -0.194812548979     0.135178197989      0.146381164238      
4000000000.0        0.136897196396      0.149782926636      0.861774313246      -0.199460386305     0.861774313246      -0.199460386305     0.136897196396      0.149782926636      
4100000000.0        0.138650720146      0.153160308749      0.859954441336      -0.204084147396     0.859954441336      -0.204084147396     0.138650720146      0.153160308749      
4200000000.0        0.140438381108      0.156512880384      0.858098792933      -0.208683408437     0.858098792933      -0.208683408437     0.140438381108      0.156512880384      
4300000000.0        0.142259781574      0.159840220498      0.856207763755      -0.21325775474      0.856207763755      -0.21325775474      0.142259781574      0.159840220498      
4400000000.0        0.144114514782      0.163141917342      0.854281758536      -0.217806780891     0.854281758536      -0.217806780891     0.144114514782      0.163141917342      
4500000000.0        0.146002165407      0.16641756859       0.852321190526      -0.222330090876     0.852321190526      -0.222330090876     0.146002165407      0.16641756859       
4600000000.0        0.147922310035      0.169666781461      0.850326481026      -0.226827298209     0.850326481026      -0.226827298209     0.147922310035      0.169666781461      
4700000000.0        0.149874517618      0.172889172824      0.848298058933      -0.231298026035     0.848298058933      -0.231298026035     0.149874517618      0.172889172824      
4800000000.0        0.151858349901      0.176084369305      0.846236360303      -0.235741907234     0.846236360303      -0.235741907234     0.151858349901      0.176084369305      
4900000000.0        0.153873361842      0.179252007368      0.844141827943      -0.24015858451      0.844141827943      -0.24015858451      0.153873361842      0.179252007368      
5000000000.0        0.155919102014      0.182391733401      0.842014910999      -0.244547710471     0.842014910999      -0.244547710471     0.155919102014      0.182391733401      
5100000000.0        0.157995112996      0.185503203781      0.839856064574      -0.248908947699     0.839856064574      -0.248908947699     0.157995112996      0.185503203781      
5200000000.0        0.160100931746      0.188586084938      0.837665749348      -0.25324196881      0.837665749348      -0.25324196881      0.160100931746      0.188586084938      
5300000000.0        0.16223608997       0.191640053405      0.835444431212      -0.25754645651      0.835444431212      -0.25754645651      0.16223608997       0.191640053405      
5400000000.0        0.164400114476      0.194664795863      0.833192580914      -0.261822103634     0.833192580914      -0.261822103634     0.164400114476      0.194664795863      
5500000000.0        0.166592527521      0.197660009171      0.83091067371       -0.266068613184     0.83091067371       -0.266068613184     0.166592527521      0.197660009171      
5600000000.0        0.168812847149      0.200625400399      0.82859918903       -0.270285698356     0.82859918903       -0.270285698356     0.168812847149      0.200625400399      
5700000000.0        0.171060587517      0.203560686841      0.826258610147      -0.274473082556     0.826258610147      -0.274473082556     0.171060587517      0.203560686841      
5800000000.0        0.173335259217      0.206465596026      0.823889423856      -0.278630499411     0.823889423856      -0.278630499411     0.173335259217      0.206465596026      
5900000000.0        0.175636369594      0.209339865722      0.821492120162      -0.282757692775     0.821492120162      -0.282757692775     0.175636369594      0.209339865722      
6000000000.0        0.177963423043      0.21218324393       0.819067191973      -0.286854416722     0.819067191973      -0.286854416722     0.177963423043      0.21218324393       
6100000000.0        0.180315921318      0.214995488872      0.8166151348        -0.290920435533     0.8166151348        -0.290920435533     0.180315921318      0.214995488872      
6200000000.0        0.18269336382       0.217776368972      0.814136446464      -0.294955523679     0.814136446464      -0.294955523679     0.18269336382       0.217776368972      
6300000000.0        0.18509524788       0.220525662831      0.811631626811      -0.298959465796     0.811631626811      -0.298959465796     0.18509524788       0.220525662831      
6400000000.0        0.187521069047      0.223243159189      0.809101177432      -0.302932056651     0.809101177432      -0.302932056651     0.187521069047      0.223243159189      
6500000000.0        0.189970321353      0.225928656894      0.806545601388      -0.306873101102     0.806545601388      -0.306873101102     0.189970321353      0.225928656894      
6600000000.0        0.192442497588      0.228581964848      0.803965402944      -0.310782414054     0.803965402944      -0.310782414054     0.192442497588      0.228581964848      
6700000000.0        0.194937089556      0.231202901962      0.801361087306      -0.31465982041      0.801361087306      -0.31465982041      0.194937089556      0.231202901962      
6800000000.0        0.197453588334      0.233791297093      0.798733160365      -0.318505155007     0.798733160365      -0.318505155007     0.197453588334      0.233791297093      
6900000000.0        0.199991484519      0.236346988984      0.796082128449      -0.322318262562     0.796082128449      -0.322318262562     0.199991484519      0.236346988984      
7000000000.0        0.202550268477      0.238869826196      0.793408498078      -0.326098997594     0.793408498078      -0.326098997594     0.202550268477      0.238869826196      
7100000000.0        0.205129430575      0.241359667028      0.790712775723      -0.329847224359     0.790712775723      -0.329847224359     0.205129430575      0.241359667028      
7200000000.0        0.207728461418      0.243816379447      0.787995467578      -0.333562816764     0.787995467578      -0.333562816764     0.207728461418      0.243816379447      
7300000000.0        0.210346852077      0.246239840995      0.785257079328      -0.337245658285     0.785257079328      -0.337245658285     0.210346852077      0.246239840995      
7400000000.0        0.212984094306      0.248629938704      0.782498115931      -0.340895641884     0.782498115931      -0.340895641884     0.212984094306      0.248629938704      
7500000000.0        0.21563968076       0.250986569006      0.7797190814        -0.344512669906     0.7797190814        -0.344512669906     0.21563968076       0.250986569006      
7600000000.0        0.218313105206      0.253309637626      0.776920478595      -0.34809665399      0.776920478595      -0.34809665399      0.218313105206      0.253309637626      
7700000000.0        0.221003862728      0.255599059491      0.774102809016      -0.351647514962     0.774102809016      -0.351647514962     0.221003862728      0.255599059491      
7800000000.0        0.223711449921      0.257854758616      0.771266572606      -0.355165182733     0.771266572606      -0.355165182733     0.223711449921      0.257854758616      
7900000000.0        0.226435365094      0.260076667997      0.768412267554      -0.358649596185     0.768412267554      -0.358649596185     0.226435365094      0.260076667997      
8000000000.0        0.229175108447      0.2622647295        0.765540390111      -0.362100703066     0.765540390111      -0.362100703066     0.229175108447      0.2622647295        
8100000000.0        0.231930182261      0.26441889374       0.762651434405      -0.365518459863     0.762651434405      -0.365518459863     0.231930182261      0.26441889374       
8200000000.0        0.234700091075      0.266539119966      0.759745892264      -0.368902831692     0.759745892264      -0.368902831692     0.234700091075      0.266539119966      
8300000000.0        0.237484341852      0.268625375933      0.756824253046      -0.37225379217      0.756824253046      -0.37225379217      0.237484341852      0.268625375933      
8400000000.0        0.240282444149      0.270677637783      0.753887003471      -0.375571323291     0.753887003471      -0.375571323291     0.240282444149      0.270677637783      
8500000000.0        0.243093910278      0.272695889909      0.750934627459      -0.378855415297     0.750934627459      -0.378855415297     0.243093910278      0.272695889909      
8600000000.0        0.245918255461      0.274680124831      0.747967605979      -0.382106066552     0.747967605979      -0.382106066552     0.245918255461      0.274680124831      
8700000000.0        0.248754997978      0.276630343056      0.744986416895      -0.385323283399     0.744986416895      -0.385323283399     0.248754997978      0.276630343056      
8800000000.0        0.251603659314      0.278546552952      0.741991534823      -0.388507080038     0.741991534823      -0.388507080038     0.251603659314      0.278546552952      
8900000000.0        0.254463764296      0.2804287706        0.73898343099       -0.391657478378     0.73898343099       -0.391657478378     0.254463764296      0.2804287706        
9000000000.0        0.257334841229      0.282277019664      0.735962573102      -0.394774507903     0.735962573102      -0.394774507903     0.257334841229      0.282277019664      
9100000000.0        0.260216422024      0.284091331246      0.732929425214      -0.397858205532     0.732929425214      -0.397858205532     0.260216422024      0.284091331246      
9200000000.0        0.263108042323      0.285871743743      0.729884447604      -0.400908615476     0.729884447604      -0.400908615476     0.263108042323      0.285871743743      
9300000000.0        0.266009241615      0.287618302706      0.726828096658      -0.403925789094     0.726828096658      -0.403925789094     0.266009241615      0.287618302706      
9400000000.0        0.268919563353      0.289331060694      0.723760824755      -0.406909784749     0.723760824755      -0.406909784749     0.268919563353      0.289331060694      
9500000000.0        0.271838555057      0.291010077131      0.720683080157      -0.409860667663     0.720683080157      -0.409860667663     0.271838555057      0.291010077131      
9600000000.0        0.274765768426      0.292655418153      0.717595306905      -0.41277850977      0.717595306905      -0.41277850977      0.274765768426      0.292655418153      
9700000000.0        0.277700759426      0.294267156468      0.714497944725      -0.415663389571     0.714497944725      -0.415663389571     0.277700759426      0.294267156468      
9800000000.0        0.280643088395      0.295845371204      0.711391428926      -0.418515391981     0.711391428926      -0.418515391981     0.280643088395      0.295845371204      
9900000000.0        0.283592320123      0.297390147762      0.708276190319      -0.421334608188     0.708276190319      -0.421334608188     0.283592320123      0.297390147762      
10000000000.0       0.286548023941      0.298901577667      0.705152655128      -0.424121135499     0.705152655128      -0.424121135499     0.286548023941      0.298901577667      
