# Hz S RI R 50.00 
100000000.0         0.0245721027888     0.00375355091205    0.975422443891      -0.00593999160179   0.975422443891      -0.00593999160179   0.0245721027888     0.00375355091205    
200000000.0         0.0247986610941     0.00750328359028    0.975186610901      -0.0118761831943    0.975186610901      -0.0118761831943    0.0247986610941     0.00750328359028    
300000000.0         0.02502838934       0.011249806508      0.974942785713      -0.017809201334     0.974942785713      -0.017809201334     0.02502838934       0.011249806508      
400000000.0         0.0252821080282     0.0149928964974     0.974670146872      -0.0237388387266    0.974670146872      -0.0237388387266    0.0252821080282     0.0149928964974     
500000000.0         0.0255678051366     0.0187321381715     0.974360705317      -0.029664694746     0.974360705317      -0.029664694746     0.0255678051366     0.0187321381715     
600000000.0         0.0258895202801     0.0224670319966     0.974010420198      -0.0355862838915    0.974010420198      -0.0355862838915    0.0258895202801     0.0224670319966     
700000000.0         0.0262496038465     0.0261970332244     0.973616939737      -0.0415030749158    0.973616939737      -0.0415030749158    0.0262496038465     0.0261970332244     
800000000.0         0.0266495417001     0.0299215700621     0.973178776516      -0.0474145091126    0.973178776516      -0.0474145091126    0.0266495417001     0.0299215700621     
900000000.0         0.0270903224599     0.0336400535367     0.972694940198      -0.0533200102581    0.972694940198      -0.0533200102581    0.0270903224599     0.0336400535367     
1000000000.0        0.027572623709      0.037351883431      0.972164751316      -0.059218990601     0.972164751316      -0.059218990601     0.027572623709      0.037351883431      
1100000000.0        0.0280969155411     0.0410564521398     0.971587737727      -0.0651108547589    0.971587737727      -0.0651108547589    0.0280969155411     0.0410564521398     
1200000000.0        0.028663522291      0.0447531473321     0.970963572882      -0.0709950024103    0.970963572882      -0.0709950024103    0.028663522291      0.0447531473321     
1300000000.0        0.0292726614038     0.0484413538819     0.970292036954      -0.0768708302502    0.970292036954      -0.0768708302502    0.0292726614038     0.0484413538819     
1400000000.0        0.0299244690138     0.0521204553288     0.969572991263      -0.0827377334689    0.969572991263      -0.0827377334689    0.0299244690138     0.0521204553288     
1500000000.0        0.0306190174061     0.0557898350237     0.968806360812      -0.0885951069141    0.968806360812      -0.0885951069141    0.0306190174061     0.0557898350237     
1600000000.0        0.0313563273122     0.0594488770555     0.967992121993      -0.0944423460302    0.967992121993      -0.0944423460302    0.0313563273122     0.0594488770555     
1700000000.0        0.0321363768037     0.0630969670212     0.967130293692      -0.10027884764      0.967130293692      -0.10027884764      0.0321363768037     0.0630969670212     
1800000000.0        0.0329591078773     0.0667334926818     0.966220930709      -0.106104010608     0.966220930709      -0.106104010608     0.0329591078773     0.0667334926818     
1900000000.0        0.0338244314349     0.0703578445303     0.96526411877       -0.11191723642      0.96526411877       -0.11191723642      0.0338244314349     0.0703578445303     
2000000000.0        0.0347322311221     0.0739694162949     0.964259970698      -0.117717929689     0.964259970698      -0.117717929689     0.0347322311221     0.0739694162949     
2100000000.0        0.0356823663378     0.0775676053888     0.963208623397      -0.123505498615     0.963208623397      -0.123505498615     0.0356823663378     0.0775676053888     
2200000000.0        0.0366746746346     0.0811518133188     0.962110235455      -0.129279355396     0.962110235455      -0.129279355396     0.0366746746346     0.0811518133188     
2300000000.0        0.0377089736617     0.0847214460596     0.9609649852        -0.135038916609     0.9609649852        -0.135038916609     0.0377089736617     0.0847214460596     
2400000000.0        0.0387850627601     0.0882759144005     0.959773069107      -0.140783603558     0.959773069107      -0.140783603558     0.0387850627601     0.0882759144005     
2500000000.0        0.0399027242931     0.0918146342672     0.958534700465      -0.146512842605     0.958534700465      -0.146512842605     0.0399027242931     0.0918146342672     
2600000000.0        0.0410617247683     0.0953370270243     0.957250108258      -0.15222606547      0.957250108258      -0.15222606547      0.0410617247683     0.0953370270243     
2700000000.0        0.0422618157989     0.0988425197591     0.955919536201      -0.157922709523     0.955919536201      -0.157922709523     0.0422618157989     0.0988425197591     
2800000000.0        0.0435027349353     0.10233054555       0.954543241911      -0.163602218049     0.954543241911      -0.163602218049     0.0435027349353     0.10233054555       
2900000000.0        0.0447842063958     0.105800543721      0.953121496176      -0.169264040512     0.953121496176      -0.169264040512     0.0447842063958     0.105800543721      
3000000000.0        0.0461059417145     0.109251960083      0.951654582306      -0.174907632792     0.951654582306      -0.174907632792     0.0461059417145     0.109251960083      
3100000000.0        0.047467640323      0.112684247162      0.950142795552      -0.180532457424     0.950142795552      -0.180532457424     0.047467640323      0.112684247162      
3200000000.0        0.0488689900782     0.11609686442       0.948586442579      -0.186137983809     0.948586442579      -0.186137983809     0.0488689900782     0.11609686442       
3300000000.0        0.0503096677456     0.119489278463      0.946985840982      -0.191723688433     0.946985840982      -0.191723688433     0.0503096677456     0.119489278463      
3400000000.0        0.0517893394473     0.122860963235      0.945341318839      -0.19728905506      0.945341318839      -0.19728905506      0.0517893394473     0.122860963235      
3500000000.0        0.0533076610789     0.126211400215      0.943653214292      -0.202833574929     0.943653214292      -0.202833574929     0.0533076610789     0.126211400215      
3600000000.0        0.054864278702      0.129540078588      0.941921875157      -0.208356746929     0.941921875157      -0.208356746929     0.054864278702      0.129540078588      
3700000000.0        0.0564588289167     0.132846495424      0.940147658551      -0.213858077776     0.940147658551      -0.213858077776     0.0564588289167     0.132846495424      
3800000000.0        0.0580909392154     0.136130155836      0.938330930536      -0.219337082175     0.938330930536      -0.219337082175     0.0580909392154     0.136130155836      
3900000000.0        0.0597602283232     0.139390573139      0.936472065781      -0.224793282977     0.936472065781      -0.224793282977     0.0597602283232     0.139390573139      
4000000000.0        0.0614663065255     0.14262726899       0.934571447233      -0.230226211327     0.934571447233      -0.230226211327     0.0614663065255     0.14262726899       
4100000000.0        0.0632087759848     0.145839773537      0.932629465803      -0.235635406801     0.932629465803      -0.235635406801     0.0632087759848     0.145839773537      
4200000000.0        0.0649872310493     0.149027625539      0.930646520053      -0.241020417543     0.930646520053      -0.241020417543     0.0649872310493     0.149027625539      
4300000000.0        0.0668012585533     0.152190372499      0.928623015896      -0.246380800384     0.928623015896      -0.246380800384     0.0668012585533     0.152190372499      
4400000000.0        0.0686504381111     0.155327570774      0.926559366306      -0.251716120962     0.926559366306      -0.251716120962     0.0686504381111     0.155327570774      
4500000000.0        0.0705343424052     0.158438785685      0.924455991027      -0.257025953829     0.924455991027      -0.257025953829     0.0705343424052     0.158438785685      
4600000000.0        0.0724525374692     0.16152359162       0.922313316289      -0.262309882558     0.922313316289      -0.262309882558     0.0724525374692     0.16152359162       
4700000000.0        0.0744045829661     0.164581572128      0.920131774531      -0.26756749983      0.920131774531      -0.26756749983      0.0744045829661     0.164581572128      
4800000000.0        0.0763900324634     0.167612320004      0.917911804125      -0.272798407528     0.917911804125      -0.272798407528     0.0763900324634     0.167612320004      
4900000000.0        0.0784084337032     0.170615437371      0.915653849108      -0.278002216814     0.915653849108      -0.278002216814     0.0784084337032     0.170615437371      
5000000000.0        0.0804593288696     0.173590535751      0.913358358908      -0.283178548205     0.913358358908      -0.283178548205     0.0804593288696     0.173590535751      
5100000000.0        0.0825422548536     0.176537236133      0.911025788089      -0.288327031637     0.911025788089      -0.288327031637     0.0825422548536     0.176537236133      
5200000000.0        0.0846567435134     0.179455169032      0.908656596081      -0.293447306525     0.908656596081      -0.293447306525     0.0846567435134     0.179455169032      
5300000000.0        0.0868023219337     0.182343974541      0.906251246925      -0.298539021819     0.906251246925      -0.298539021819     0.0868023219337     0.182343974541      
5400000000.0        0.0889785126809     0.185203302378      0.903810209017      -0.303601836046     0.903810209017      -0.303601836046     0.0889785126809     0.185203302378      
5500000000.0        0.0911848340562     0.188032811924      0.901333954855      -0.308635417353     0.901333954855      -0.308635417353     0.0911848340562     0.188032811924      
5600000000.0        0.0934208003465     0.190832172258      0.898822960787      -0.313639443538     0.898822960787      -0.313639443538     0.0934208003465     0.190832172258      
5700000000.0        0.0956859220716     0.193601062182      0.896277706762      -0.31861360208      0.896277706762      -0.31861360208      0.0956859220716     0.193601062182      
5800000000.0        0.0979797062302     0.196339170242      0.893698676088      -0.323557590157     0.893698676088      -0.323557590157     0.0979797062302     0.196339170242      
5900000000.0        0.100301656542      0.199046194743      0.891086355186      -0.328471114659     0.891086355186      -0.328471114659     0.100301656542      0.199046194743      
6000000000.0        0.102651273687      0.201721843757      0.888441233349      -0.3333538922       0.888441233349      -0.3333538922       0.102651273687      0.201721843757      
6100000000.0        0.105028055547      0.204365835123      0.885763802508      -0.338205649121     0.885763802508      -0.338205649121     0.105028055547      0.204365835123      
6200000000.0        0.107431497432      0.20697789645       0.883054556993      -0.343026121482     0.883054556993      -0.343026121482     0.107431497432      0.20697789645       
6300000000.0        0.109861092322      0.209557765098      0.880313993303      -0.347815055056     0.880313993303      -0.347815055056     0.109861092322      0.209557765098      
6400000000.0        0.112316331089      0.212105188171      0.877542609876      -0.352572205313     0.877542609876      -0.352572205313     0.112316331089      0.212105188171      
6500000000.0        0.114796702724      0.214619922496      0.874740906861      -0.357297337401     0.874740906861      -0.357297337401     0.114796702724      0.214619922496      
6600000000.0        0.117301694565      0.217101734591      0.871909385899      -0.361990226119     0.871909385899      -0.361990226119     0.117301694565      0.217101734591      
6700000000.0        0.119830792509      0.219550400643      0.869048549896      -0.366650655886     0.869048549896      -0.366650655886     0.119830792509      0.219550400643      
6800000000.0        0.122383481239      0.221965706464      0.866158902811      -0.371278420708     0.866158902811      -0.371278420708     0.122383481239      0.221965706464      
6900000000.0        0.124959244428      0.224347447455      0.863240949438      -0.37587332413      0.863240949438      -0.37587332413      0.124959244428      0.224347447455      
7000000000.0        0.127557564957      0.226695428557      0.860295195197      -0.380435179197     0.860295195197      -0.380435179197     0.127557564957      0.226695428557      
7100000000.0        0.130177925117      0.229009464204      0.857322145926      -0.3849638084       0.857322145926      -0.3849638084       0.130177925117      0.229009464204      
7200000000.0        0.132819806818      0.231289378263      0.854322307674      -0.389459043621     0.854322307674      -0.389459043621     0.132819806818      0.231289378263      
7300000000.0        0.135482691786      0.233535003976      0.851296186506      -0.39392072607      0.851296186506      -0.39392072607      0.135482691786      0.233535003976      
7400000000.0        0.138166061758      0.235746183898      0.848244288298      -0.398348706228     0.848244288298      -0.398348706228     0.138166061758      0.235746183898      
7500000000.0        0.140869398683      0.237922769828      0.84516711855       -0.402742843772     0.84516711855       -0.402742843772     0.140869398683      0.237922769828      
7600000000.0        0.143592184903      0.240064622732      0.842065182191      -0.407103007504     0.842065182191      -0.407103007504     0.143592184903      0.240064622732      
7700000000.0        0.146333903344      0.242171612673      0.838938983394      -0.411429075277     0.838938983394      -0.411429075277     0.146333903344      0.242171612673      
7800000000.0        0.149094037697      0.244243618728      0.835789025394      -0.415720933911     0.835789025394      -0.415720933911     0.149094037697      0.244243618728      
7900000000.0        0.151872072598      0.246280528903      0.832615810307      -0.419978479111     0.832615810307      -0.419978479111     0.151872072598      0.246280528903      
8000000000.0        0.154667493799      0.248282240049      0.829419838957      -0.42420161538      0.829419838957      -0.42420161538      0.154667493799      0.248282240049      
8100000000.0        0.157479788343      0.250248657767      0.826201610702      -0.428390255927     0.826201610702      -0.428390255927     0.157479788343      0.250248657767      
8200000000.0        0.160308444728      0.25217969632       0.822961623271      -0.432544322573     0.822961623271      -0.432544322573     0.160308444728      0.25217969632       
8300000000.0        0.163152953069      0.254075278529      0.819700372596      -0.436663745654     0.819700372596      -0.436663745654     0.163152953069      0.254075278529      
8400000000.0        0.166012805263      0.255935335679      0.816418352653      -0.440748463921     0.816418352653      -0.440748463921     0.166012805263      0.255935335679      
8500000000.0        0.168887495135      0.257759807414      0.813116055308      -0.444798424437     0.813116055308      -0.444798424437     0.168887495135      0.257759807414      
8600000000.0        0.171776518596      0.259548641631      0.809793970168      -0.448813582469     0.809793970168      -0.448813582469     0.171776518596      0.259548641631      
8700000000.0        0.174679373785      0.261301794373      0.806452584426      -0.452793901385     0.806452584426      -0.452793901385     0.174679373785      0.261301794373      
8800000000.0        0.177595561216      0.263019229717      0.803092382727      -0.456739352539     0.803092382727      -0.456739352539     0.177595561216      0.263019229717      
8900000000.0        0.180524583913      0.264700919667      0.799713847022      -0.460649915157     0.799713847022      -0.460649915157     0.180524583913      0.264700919667      
9000000000.0        0.183465947546      0.26634684403       0.796317456433      -0.464525576227     0.796317456433      -0.464525576227     0.183465947546      0.26634684403       
9100000000.0        0.18641916056       0.267956990308      0.792903687126      -0.468366330378     0.792903687126      -0.468366330378     0.18641916056       0.267956990308      
9200000000.0        0.189383734305      0.269531353576      0.789473012183      -0.472172179762     0.789473012183      -0.472172179762     0.189383734305      0.269531353576      
9300000000.0        0.192359183154      0.27106993636       0.786025901475      -0.475943133934     0.786025901475      -0.475943133934     0.192359183154      0.27106993636       
9400000000.0        0.195345024622      0.272572748519      0.782562821547      -0.479679209729     0.782562821547      -0.479679209729     0.195345024622      0.272572748519      
9500000000.0        0.198340779484      0.274039807117      0.779084235502      -0.483380431138     0.779084235502      -0.483380431138     0.198340779484      0.274039807117      
9600000000.0        0.201345971878      0.275471136304      0.775590602892      -0.487046829184     0.775590602892      -0.487046829184     0.201345971878      0.275471136304      
9700000000.0        0.204360129416      0.276866767185      0.772082379608      -0.490678441795     0.772082379608      -0.490678441795     0.204360129416      0.276866767185      
9800000000.0        0.207382783286      0.278226737695      0.768560017779      -0.494275313676     0.768560017779      -0.494275313676     0.207382783286      0.278226737695      
9900000000.0        0.210413468347      0.279551092473      0.765023965676      -0.497837496181     0.765023965676      -0.497837496181     0.210413468347      0.279551092473      
10000000000.0       0.213451723223      0.28083988273       0.761474667612      -0.501365047184     0.761474667612      -0.501365047184     0.213451723223      0.28083988273       
