# Hz S RI R 50.00 
100000000.0         0.0118127846325     0.000450620028702   0.988185936026      -0.000712766156449  0.988185936026      -0.000712766156449  0.0118127846325     0.000450620028702   
200000000.0         0.0118904332722     0.000901058239354   0.988107939046      -0.0014253507633    0.988107939046      -0.0014253507633    0.0118904332722     0.000901058239354   
300000000.0         0.0119477749829     0.00135138771468    0.988050179992      -0.00213782711575   0.988050179992      -0.00213782711575   0.0119477749829     0.00135138771468    
400000000.0         0.0119950169585     0.00180163339467    0.988002451668      -0.00285022032221   0.988002451668      -0.00285022032221   0.0119950169585     0.00180163339467    
500000000.0         0.0120361023395     0.00225180900143    0.98796081093       -0.00356254425139   0.98796081093       -0.00356254425139   0.0120361023395     0.00225180900143    
600000000.0         0.0120730481243     0.00270192328125    0.987923240777      -0.00427480778211   0.987923240777      -0.00427480778211   0.0120730481243     0.00270192328125    
700000000.0         0.0121070493496     0.00315198224772    0.98788854617       -0.00498701705028   0.98788854617       -0.00498701705028   0.0121070493496     0.00315198224772    
800000000.0         0.012138882568      0.00360199022244    0.987855950555      -0.00569917649203   0.987855950555      -0.00569917649203   0.012138882568      0.00360199022244    
900000000.0         0.0121690857062     0.00405195039414    0.987824916001      -0.00641128940431   0.987824916001      -0.00641128940431   0.0121690857062     0.00405195039414    
1000000000.0        0.0121980493372     0.00450186514971    0.987795051934      -0.00712335827703   0.987795051934      -0.00712335827703   0.0121980493372     0.00450186514971    
1100000000.0        0.0122260674751     0.00495173628444    0.987766064337      -0.0078353850041    0.987766064337      -0.0078353850041    0.0122260674751     0.00495173628444    
1200000000.0        0.0122533678764     0.00540156514278    0.987737725451      -0.00854737102476   0.987737725451      -0.00854737102476   0.0122533678764     0.00540156514278    
1300000000.0        0.0122801311264     0.00585135271665    0.987709854688      -0.00925931742235   0.987709854688      -0.00925931742235   0.0122801311264     0.00585135271665    
1400000000.0        0.0123065031982     0.00630109971628    0.987682306073      -0.00997122499564   0.987682306073      -0.00997122499564   0.0123065031982     0.00630109971628    
1500000000.0        0.0123326040207     0.00675080662297    0.987654959673      -0.0106830943117    0.987654959673      -0.0106830943117    0.0123326040207     0.00675080662297    
1600000000.0        0.012358533503      0.00720047372902    0.987627715577      -0.0113949257463    0.987627715577      -0.0113949257463    0.012358533503      0.00720047372902    
1700000000.0        0.0123843758806     0.00765010116875    0.987600489547      -0.012106719515     0.987600489547      -0.012106719515     0.0123843758806     0.00765010116875    
1800000000.0        0.0124102029215     0.00809968894295    0.987573209812      -0.0128184756977    0.987573209812      -0.0128184756977    0.0124102029215     0.00809968894295    
1900000000.0        0.0124360763375     0.00854923693837    0.987545814656      -0.0135301942587    0.987545814656      -0.0135301942587    0.0124360763375     0.00854923693837    
2000000000.0        0.012462049628      0.00899874494368    0.987518250579      -0.0142418750622    0.987518250579      -0.0142418750622    0.012462049628      0.00899874494368    
2100000000.0        0.0124881695123     0.00944821266237    0.987490470857      -0.0149535178858    0.987490470857      -0.0149535178858    0.0124881695123     0.00944821266237    
2200000000.0        0.0125144770567     0.00989763972358    0.98746243442       -0.0156651224313    0.98746243442       -0.0156651224313    0.0125144770567     0.00989763972358    
2300000000.0        0.0125410085723     0.0103470256911     0.987434104956      -0.0163766883337    0.987434104956      -0.0163766883337    0.0125410085723     0.0103470256911     
2400000000.0        0.0125677963379     0.010796370071      0.987405450181      -0.0170882151688    0.987405450181      -0.0170882151688    0.0125677963379     0.010796370071      
2500000000.0        0.0125948691881     0.011245672318      0.987376441257      -0.0177997024601    0.987376441257      -0.0177997024601    0.0125948691881     0.011245672318      
2600000000.0        0.0126222529958     0.0116949318413     0.987347052309      -0.0185111496842    0.987347052309      -0.0185111496842    0.0126222529958     0.0116949318413     
2700000000.0        0.0126499710716     0.0121441480088     0.987317260022      -0.0192225562755    0.987317260022      -0.0192225562755    0.0126499710716     0.0121441480088     
2800000000.0        0.0126780444965     0.0125933201518     0.987287043312      -0.0199339216305    0.987287043312      -0.0199339216305    0.0126780444965     0.0125933201518     
2900000000.0        0.0127064924017     0.0130424475683     0.987256383043      -0.0206452451115    0.987256383043      -0.0206452451116    0.0127064924017     0.0130424475683     
3000000000.0        0.0127353322046     0.0134915295262     0.987225261796      -0.02135652605      0.987225261796      -0.02135652605      0.0127353322046     0.0134915295262     
3100000000.0        0.0127645798098     0.0139405652661     0.987193663661      -0.0220677637488    0.987193663661      -0.0220677637488    0.0127645798098     0.0139405652661     
3200000000.0        0.0127942497805     0.0143895540038     0.987161574072      -0.0227789574853    0.987161574072      -0.0227789574853    0.0127942497805     0.0143895540038     
3300000000.0        0.0128243554864     0.0148384949324     0.987128979654      -0.0234901065133    0.987128979654      -0.0234901065133    0.0128243554864     0.0148384949324     
3400000000.0        0.012854909231      0.0152873872241     0.987095868101      -0.0242012100652    0.987095868101      -0.0242012100652    0.012854909231      0.0152873872241     
3500000000.0        0.0128859223619     0.0157362300324     0.987062228061      -0.0249122673533    0.987062228061      -0.0249122673533    0.0128859223619     0.0157362300324     
3600000000.0        0.0129174053674     0.016185022493      0.987028049042      -0.025623277572     0.987028049042      -0.025623277572     0.0129174053674     0.016185022493      
3700000000.0        0.0129493679608     0.0166337637257     0.986993321325      -0.0263342398986    0.986993321325      -0.0263342398986    0.0129493679608     0.0166337637257     
3800000000.0        0.0129818191538     0.0170824528354     0.986958035896      -0.0270451534952    0.986958035896      -0.0270451534952    0.0129818191538     0.0170824528354     
3900000000.0        0.0130147673226     0.0175310889136     0.986922184374      -0.0277560175094    0.986922184374      -0.0277560175094    0.0130147673226     0.0175310889136     
4000000000.0        0.0130482202646     0.0179796710388     0.986885758956      -0.0284668310755    0.986885758956      -0.0284668310755    0.0130482202646     0.0179796710388     
4100000000.0        0.0130821852504     0.0184281982781     0.986848752369      -0.0291775933156    0.986848752369      -0.0291775933156    0.0130821852504     0.0184281982781     
4200000000.0        0.0131166690685     0.0188766696874     0.986811157818      -0.0298883033402    0.986811157818      -0.0298883033402    0.0131166690685     0.0188766696874     
4300000000.0        0.0131516780665     0.019325084313      0.986772968953      -0.0305989602493    0.986772968953      -0.0305989602493    0.0131516780665     0.019325084313      
4400000000.0        0.0131872181873     0.0197734411914     0.986734179825      -0.0313095631328    0.986734179825      -0.0313095631328    0.0131872181873     0.0197734411914     
4500000000.0        0.0132232950014     0.0202217393508     0.98669478486       -0.0320201110715    0.98669478486       -0.0320201110715    0.0132232950014     0.0202217393508     
4600000000.0        0.0132599137367     0.020669977811      0.986654778824      -0.0327306031375    0.986654778824      -0.0327306031375    0.0132599137367     0.020669977811      
4700000000.0        0.0132970793044     0.0211181555844     0.986614156802      -0.033441038395     0.986614156802      -0.033441038395     0.0132970793044     0.0211181555844     
4800000000.0        0.0133347963234     0.0215662716764     0.98657291417       -0.0341514159003    0.98657291417       -0.0341514159003    0.0133347963234     0.0215662716764     
4900000000.0        0.0133730691415     0.0220143250859     0.986531046575      -0.034861734703     0.986531046575      -0.034861734703     0.0133730691415     0.0220143250859     
5000000000.0        0.0134119018553     0.0224623148054     0.986488549916      -0.0355719938461    0.986488549916      -0.0355719938461    0.0134119018553     0.0224623148054     
5100000000.0        0.013451298328      0.0229102398221     0.986445420325      -0.0362821923661    0.986445420325      -0.0362821923661    0.013451298328      0.0229102398221     
5200000000.0        0.0134912622055     0.0233580991176     0.98640165415       -0.0369923292941    0.98640165415       -0.0369923292941    0.0134912622055     0.0233580991176     
5300000000.0        0.0135317969315     0.0238058916686     0.986357247943      -0.0377024036554    0.986357247943      -0.0377024036554    0.0135317969315     0.0238058916686     
5400000000.0        0.0135729057609     0.0242536164472     0.986312198443      -0.0384124144706    0.986312198443      -0.0384124144706    0.0135729057609     0.0242536164472     
5500000000.0        0.013614591772      0.0247012724209     0.986266502568      -0.0391223607551    0.986266502568      -0.0391223607551    0.013614591772      0.0247012724209     
5600000000.0        0.0136568578787     0.0251488585534     0.986220157397      -0.0398322415202    0.986220157397      -0.0398322415202    0.0136568578787     0.0251488585534     
5700000000.0        0.0136997068398     0.0255963738046     0.986173160168      -0.0405420557727    0.986173160168      -0.0405420557727    0.0136997068398     0.0255963738046     
5800000000.0        0.0137431412697     0.0260438171306     0.986125508259      -0.0412518025155    0.986125508259      -0.0412518025155    0.0137431412697     0.0260438171306     
5900000000.0        0.0137871636467     0.0264911874843     0.986077199187      -0.041961480748     0.986077199187      -0.041961480748     0.0137871636467     0.0264911874843     
6000000000.0        0.0138317763214     0.0269384838157     0.986028230596      -0.0426710894657    0.986028230596      -0.0426710894657    0.0138317763214     0.0269384838157     
6100000000.0        0.013876981524      0.0273857050716     0.98597860025       -0.0433806276613    0.98597860025       -0.0433806276613    0.013876981524      0.0273857050716     
6200000000.0        0.0139227813718     0.0278328501961     0.985928306027      -0.0440900943239    0.985928306027      -0.0440900943239    0.0139227813718     0.0278328501961     
6300000000.0        0.0139691778754     0.0282799181309     0.985877345909      -0.0447994884401    0.985877345909      -0.0447994884401    0.0139691778754     0.0282799181309     
6400000000.0        0.0140161729444     0.0287269078154     0.985825717982      -0.0455088089937    0.985825717982      -0.0455088089937    0.0140161729444     0.0287269078154     
6500000000.0        0.0140637683937     0.0291738181866     0.985773420425      -0.0462180549658    0.985773420425      -0.0462180549658    0.0140637683937     0.0291738181866     
6600000000.0        0.0141119659481     0.0296206481794     0.985720451506      -0.0469272253351    0.985720451506      -0.0469272253351    0.0141119659481     0.0296206481794     
6700000000.0        0.0141607672476     0.0300673967271     0.985666809581      -0.0476363190783    0.985666809581      -0.0476363190783    0.0141607672476     0.0300673967271     
6800000000.0        0.0142101738514     0.030514062761      0.985612493084      -0.0483453351697    0.985612493084      -0.0483453351697    0.0142101738514     0.030514062761      
6900000000.0        0.0142601872426     0.0309606452107     0.985557500525      -0.0490542725819    0.985557500525      -0.0490542725819    0.0142601872426     0.0309606452107     
7000000000.0        0.0143108088318     0.0314071430044     0.985501830488      -0.0497631302853    0.985501830488      -0.0497631302853    0.0143108088318     0.0314071430044     
7100000000.0        0.0143620399609     0.0318535550688     0.985445481626      -0.0504719072489    0.985445481626      -0.0504719072489    0.0143620399609     0.0318535550688     
7200000000.0        0.0144138819065     0.0322998803293     0.985388452654      -0.05118060244      0.985388452654      -0.05118060244      0.0144138819065     0.0322998803293     
7300000000.0        0.0144663358833     0.0327461177101     0.985330742353      -0.0518892148241    0.985330742353      -0.0518892148241    0.0144663358833     0.0327461177101     
7400000000.0        0.0145194030466     0.0331922661343     0.98527234956       -0.0525977433658    0.98527234956       -0.0525977433658    0.0145194030466     0.0331922661343     
7500000000.0        0.0145730844958     0.033638324524      0.985213273171      -0.0533061870279    0.985213273171      -0.0533061870279    0.0145730844958     0.033638324524      
7600000000.0        0.0146273812766     0.0340842918004     0.985153512131      -0.0540145447723    0.985153512131      -0.0540145447723    0.0146273812766     0.0340842918004     
7700000000.0        0.0146822943837     0.0345301668836     0.985093065442      -0.0547228155597    0.985093065442      -0.0547228155597    0.0146822943837     0.0345301668836     
7800000000.0        0.0147378247629     0.0349759486933     0.985031932149      -0.0554309983495    0.985031932149      -0.0554309983495    0.0147378247629     0.0349759486933     
7900000000.0        0.0147939733136     0.0354216361483     0.984970111347      -0.0561390921005    0.984970111347      -0.0561390921005    0.0147939733136     0.0354216361483     
8000000000.0        0.0148507408907     0.0358672281666     0.984907602176      -0.0568470957705    0.984907602176      -0.0568470957705    0.0148507408907     0.0358672281666     
8100000000.0        0.0149081283067     0.0363127236661     0.984844403814      -0.0575550083162    0.984844403814      -0.0575550083162    0.0149081283067     0.0363127236661     
8200000000.0        0.0149661363333     0.0367581215639     0.984780515484      -0.0582628286939    0.984780515484      -0.0582628286939    0.0149661363333     0.0367581215639     
8300000000.0        0.0150247657036     0.0372034207766     0.984715936447      -0.058970555859     0.984715936447      -0.058970555859     0.0150247657036     0.0372034207766     
8400000000.0        0.0150840171131     0.0376486202206     0.984650665999      -0.0596781887664    0.984650665999      -0.0596781887664    0.0150840171131     0.0376486202206     
8500000000.0        0.0151438912219     0.0380937188121     0.984584703474      -0.0603857263704    0.984584703474      -0.0603857263704    0.0151438912219     0.0380937188121     
8600000000.0        0.0152043886556     0.0385387154667     0.984518048239      -0.0610931676248    0.984518048239      -0.0610931676248    0.0152043886556     0.0385387154667     
8700000000.0        0.0152655100073     0.0389836091        0.984450699694      -0.0618005114829    0.984450699694      -0.0618005114829    0.0152655100073     0.0389836091        
8800000000.0        0.0153272558384     0.0394283986276     0.98438265727       -0.0625077568976    0.98438265727       -0.0625077568976    0.0153272558384     0.0394283986276     
8900000000.0        0.0153896266801     0.0398730829648     0.98431392043       -0.0632149028215    0.98431392043       -0.0632149028215    0.0153896266801     0.0398730829648     
9000000000.0        0.0154526230344     0.0403176610267     0.984244488664      -0.063921948207     0.984244488664      -0.063921948207     0.0154526230344     0.0403176610267     
9100000000.0        0.0155162453757     0.0407621317287     0.984174361491      -0.064628892006     0.984174361491      -0.064628892006     0.0155162453757     0.0407621317287     
9200000000.0        0.0155804941511     0.041206493986      0.984103538455      -0.0653357331704    0.984103538455      -0.0653357331704    0.0155804941511     0.041206493986      
9300000000.0        0.0156453697822     0.041650746714      0.984032019129      -0.066042470652     0.984032019129      -0.066042470652     0.0156453697822     0.041650746714      
9400000000.0        0.0157108726656     0.0420948888282     0.983959803108      -0.0667491034021    0.983959803108      -0.0667491034021    0.0157108726656     0.0420948888282     
9500000000.0        0.0157770031738     0.0425389192441     0.983886890013      -0.0674556303724    0.983886890013      -0.0674556303724    0.0157770031738     0.0425389192441     
9600000000.0        0.0158437616564     0.0429828368775     0.983813279486      -0.0681620505143    0.983813279486      -0.0681620505143    0.0158437616564     0.0429828368775     
9700000000.0        0.0159111484405     0.0434266406444     0.983738971193      -0.0688683627791    0.983738971193      -0.0688683627791    0.0159111484405     0.0434266406444     
9800000000.0        0.0159791638319     0.043870329461      0.98366396482       -0.0695745661185    0.98366396482       -0.0695745661185    0.0159791638319     0.043870329461      
9900000000.0        0.0160478081156     0.0443139022439     0.983588260075      -0.0702806594839    0.983588260075      -0.0702806594839    0.0160478081156     0.0443139022439     
10000000000.0       0.0161170815566     0.0447573579098     0.983511856685      -0.0709866418269    0.983511856685      -0.0709866418269    0.0161170815566     0.0447573579098     
