# Hz S RI R 50.00 
100000000.0         0.00100413717082    7.49120063426e-05   0.998986738916      -0.00327397722211   0.998986738916      -0.00327397722211   0.00100413717082    7.49120063426e-05   
200000000.0         0.00101012989867    0.00014976444408    0.998962384195      -0.00654792894644   0.998962384195      -0.00654792894644   0.00101012989867    0.00014976444408    
300000000.0         0.0010148566421     0.000224561531307   0.998929056299      -0.00982187070662   0.998929056299      -0.00982187070662   0.0010148566421     0.000224561531307   
400000000.0         0.00101918725938    0.000299298473965   0.998885883985      -0.0130957986968    0.998885883985      -0.0130957986968    0.00101918725938    0.000299298473965   
500000000.0         0.00102345586499    0.000373969200419   0.998832531525      -0.0163697025451    0.998832531525      -0.0163697025451    0.00102345586499    0.000373969200419   
600000000.0         0.00102783225326    0.000448567424159   0.998768827325      -0.0196435681563    0.998768827325      -0.0196435681563    0.00102783225326    0.000448567424159   
700000000.0         0.00103241625152    0.000523086951639   0.998694669604      -0.0229173789338    0.998694669604      -0.0229173789338    0.00103241625152    0.000523086951639   
800000000.0         0.00103727213459    0.000597521790474   0.998609992011      -0.0261911164365    0.998609992011      -0.0261911164365    0.00103727213459    0.000597521790474   
900000000.0         0.00104244393971    0.000671866187858   0.998514748325      -0.0294647607831    0.998514748325      -0.0294647607831    0.00104244393971    0.000671866187858   
1000000000.0        0.00104796322587    0.00074611464117    0.998408904716      -0.0327382909198    0.998408904716      -0.0327382909198    0.00104796322587    0.00074611464117    
1100000000.0        0.00105385338569    0.000820261896543   0.998292435451      -0.0360116848112    0.998292435451      -0.0360116848112    0.00105385338569    0.000820261896543   
1200000000.0        0.00106013221437    0.000894302942036   0.998165320333      -0.0392849195806    0.998165320333      -0.0392849195806    0.00106013221437    0.000894302942036   
1300000000.0        0.00106681352584    0.00096823299867    0.998027543102      -0.0425579716181    0.998027543102      -0.0425579716181    0.00106681352584    0.00096823299867    
1400000000.0        0.00107390821523    0.00104204751057    0.99787909038       -0.0458308166651    0.99787909038       -0.0458308166651    0.00107390821523    0.00104204751057    
1500000000.0        0.00108142498325    0.00111574213509    0.997719950957      -0.0491034298835    0.997719950957      -0.0491034298835    0.00108142498325    0.00111574213509    
1600000000.0        0.00108937084519    0.00118931273329    0.997550115293      -0.0523757859114    0.997550115293      -0.0523757859114    0.00108937084519    0.00118931273329    
1700000000.0        0.00109775149815    0.00126275536075    0.997369575155      -0.0556478589103    0.997369575155      -0.0556478589103    0.00109775149815    0.00126275536075    
1800000000.0        0.00110657159195    0.00133606625898    0.997178323358      -0.0589196226049    0.997178323358      -0.0589196226049    0.00110657159195    0.00133606625898    
1900000000.0        0.00111583493295    0.00140924184724    0.996976353564      -0.062191050317     0.996976353564      -0.062191050317     0.00111583493295    0.00140924184724    
2000000000.0        0.00112554464013    0.00148227871502    0.996763660138      -0.0654621149952    0.996763660138      -0.0654621149952    0.00112554464013    0.00148227871502    
2100000000.0        0.00113570326642    0.0015551736148     0.996540238026      -0.0687327892406    0.996540238026      -0.0687327892406    0.00113570326642    0.0015551736148     
2200000000.0        0.00114631289438    0.00162792345541    0.99630608267       -0.0720030453294    0.99630608267       -0.0720030453294    0.00114631289438    0.00162792345541    
2300000000.0        0.00115737521258    0.00170052529569    0.996061189936      -0.0752728552332    0.996061189936      -0.0752728552332    0.00115737521258    0.00170052529569    
2400000000.0        0.00116889157729    0.0017729763386     0.995805556055      -0.0785421906369    0.995805556055      -0.0785421906369    0.00116889157729    0.0017729763386     
2500000000.0        0.00118086306281    0.00184527392556    0.995539177583      -0.0818110229552    0.995539177583      -0.0818110229552    0.00118086306281    0.00184527392556    
2600000000.0        0.00119329050292    0.00191741553122    0.995262051357      -0.0850793233465    0.995262051357      -0.0850793233465    0.00119329050292    0.00191741553122    
2700000000.0        0.00120617452533    0.00198939875845    0.994974174471      -0.0883470627271    0.994974174471      -0.0883470627271    0.00120617452533    0.00198939875845    
2800000000.0        0.00121951558061    0.00206122133358    0.994675544247      -0.0916142117824    0.994675544247      -0.0916142117824    0.00121951558061    0.00206122133358    
2900000000.0        0.00123331396651    0.0021328811019     0.994366158218      -0.0948807409788    0.994366158218      -0.0948807409788    0.00123331396651    0.0021328811019     
3000000000.0        0.00124756984873    0.00220437602341    0.994046014108      -0.0981466205733    0.994046014108      -0.0981466205733    0.00124756984873    0.00220437602341    
3100000000.0        0.00126228327866    0.00227570416869    0.99371510982       -0.101411820623     0.99371510982       -0.101411820623     0.00126228327866    0.00227570416869    
3200000000.0        0.00127745420864    0.002346863715      0.993373443423      -0.104676310995     0.993373443423      -0.104676310995     0.00127745420864    0.002346863715      
3300000000.0        0.00129308250522    0.00241785294261    0.993021013142      -0.107940061372     0.993021013142      -0.107940061372     0.00129308250522    0.00241785294261    
3400000000.0        0.00130916796069    0.00248867023118    0.99265781735       -0.111203041262     0.99265781735       -0.111203041262     0.00130916796069    0.00248867023118    
3500000000.0        0.00132571030316    0.00255931405633    0.992283854561      -0.114465220004     0.992283854561      -0.114465220004     0.00132571030316    0.00255931405633    
3600000000.0        0.00134270920548    0.00262978298642    0.991899123425      -0.117726566777     0.991899123425      -0.117726566777     0.00134270920548    0.00262978298642    
3700000000.0        0.00136016429302    0.00270007567931    0.991503622719      -0.120987050602     0.991503622719      -0.120987050602     0.00136016429302    0.00270007567931    
3800000000.0        0.00137807515071    0.00277019087938    0.991097351348      -0.124246640352     0.991097351348      -0.124246640352     0.00137807515071    0.00277019087938    
3900000000.0        0.00139644132921    0.00284012741456    0.990680308337      -0.127505304755     0.990680308337      -0.127505304755     0.00139644132921    0.00284012741456    
4000000000.0        0.00141526235047    0.00290988419353    0.99025249283       -0.1307630124       0.99025249283       -0.1307630124       0.00141526235047    0.00290988419353    
4100000000.0        0.00143453771272    0.00297946020301    0.989813904087      -0.134019731741     0.989813904087      -0.134019731741     0.00143453771272    0.00297946020301    
4200000000.0        0.00145426689495    0.00304885450504    0.989364541481      -0.137275431104     0.989364541481      -0.137275431104     0.00145426689495    0.00304885450504    
4300000000.0        0.00147444936102    0.00311806623454    0.988904404499      -0.140530078687     0.988904404499      -0.140530078687     0.00147444936102    0.00311806623454    
4400000000.0        0.00149508456325    0.00318709459676    0.988433492734      -0.14378364257      0.988433492734      -0.14378364257      0.00149508456325    0.00318709459676    
4500000000.0        0.00151617194587    0.0032559388649     0.987951805892      -0.147036090714     0.987951805892      -0.147036090714     0.00151617194587    0.0032559388649     
4600000000.0        0.001537710948      0.00332459837782    0.987459343784      -0.150287390967     0.987459343784      -0.150287390967     0.001537710948      0.00332459837782    
4700000000.0        0.00155970100646    0.00339307253773    0.986956106329      -0.153537511067     0.986956106329      -0.153537511067     0.00155970100646    0.00339307253773    
4800000000.0        0.00158214155836    0.00346136080806    0.98644209355       -0.156786418647     0.98644209355       -0.156786418647     0.00158214155836    0.00346136080806    
4900000000.0        0.00160503204336    0.00352946271129    0.985917305578      -0.160034081235     0.985917305578      -0.160034081235     0.00160503204336    0.00352946271129    
5000000000.0        0.00162837190594    0.00359737782688    0.985381742647      -0.163280466262     0.985381742647      -0.163280466262     0.00162837190594    0.00359737782688    
5100000000.0        0.00165216059728    0.00366510578928    0.984835405095      -0.166525541058     0.984835405095      -0.166525541058     0.00165216059728    0.00366510578928    
5200000000.0        0.00167639757719    0.00373264628593    0.984278293365      -0.169769272863     0.984278293365      -0.169769272863     0.00167639757719    0.00373264628593    
5300000000.0        0.00170108231573    0.00379999905538    0.983710408004      -0.173011628824     0.983710408004      -0.173011628824     0.00170108231573    0.00379999905538    
5400000000.0        0.00172621429485    0.00386716388542    0.983131749662      -0.176252576        0.983131749662      -0.176252576        0.00172621429485    0.00386716388542    
5500000000.0        0.0017517930098     0.00393414061122    0.982542319093      -0.179492081364     0.982542319093      -0.179492081364     0.0017517930098     0.00393414061122    
5600000000.0        0.0017778179705     0.0040009291136     0.981942117153      -0.182730111806     0.981942117153      -0.182730111806     0.0017778179705     0.0040009291136     
5700000000.0        0.00180428870283    0.00406752931729    0.981331144804      -0.185966634135     0.981331144804      -0.185966634135     0.00180428870283    0.00406752931729    
5800000000.0        0.00183120474974    0.00413394118918    0.980709403109      -0.189201615079     0.980709403109      -0.189201615079     0.00183120474974    0.00413394118918    
5900000000.0        0.00185856567241    0.00420016473675    0.980076893238      -0.192435021294     0.980076893238      -0.192435021294     0.00185856567241    0.00420016473675    
6000000000.0        0.00188637105122    0.00426620000636    0.97943361646       -0.195666819357     0.97943361646       -0.195666819357     0.00188637105122    0.00426620000636    
6100000000.0        0.0019146204867     0.00433204708173    0.978779574153      -0.198896975777     0.978779574153      -0.198896975777     0.0019146204867     0.00433204708173    
6200000000.0        0.00194331360045    0.00439770608236    0.978114767795      -0.202125456989     0.978114767795      -0.202125456989     0.00194331360045    0.00439770608236    
6300000000.0        0.00197245003593    0.004463177162      0.977439198971      -0.205352229362     0.977439198971      -0.205352229362     0.00197245003594    0.004463177162      
6400000000.0        0.00200202945926    0.00452846050718    0.976752869369      -0.208577259198     0.976752869369      -0.208577259198     0.00200202945926    0.00452846050718    
6500000000.0        0.00203205155991    0.00459355633575    0.976055780781      -0.211800512735     0.976055780781      -0.211800512735     0.00203205155991    0.00459355633575    
6600000000.0        0.00206251605137    0.00465846489543    0.975347935107      -0.215021956147     0.975347935107      -0.215021956147     0.00206251605137    0.00465846489543    
6700000000.0        0.00209342267182    0.00472318646244    0.974629334348      -0.218241555548     0.974629334348      -0.218241555548     0.00209342267182    0.00472318646244    
6800000000.0        0.00212477118467    0.00478772134007    0.973899980614      -0.221459276991     0.973899980614      -0.221459276991     0.00212477118467    0.00478772134007    
6900000000.0        0.00215656137912    0.00485206985741    0.973159876118      -0.224675086474     0.973159876118      -0.224675086474     0.00215656137912    0.00485206985741    
7000000000.0        0.00218879307065    0.00491623236795    0.97240902318       -0.227888949936     0.97240902318       -0.227888949936     0.00218879307065    0.00491623236795    
7100000000.0        0.00222146610152    0.00498020924831    0.971647424226      -0.231100833262     0.971647424226      -0.231100833262     0.00222146610152    0.00498020924831    
7200000000.0        0.00225458034119    0.00504400089697    0.970875081789      -0.234310702286     0.970875081789      -0.234310702286     0.00225458034119    0.00504400089697    
7300000000.0        0.00228813568673    0.00510760773301    0.970091998508      -0.237518522786     0.970091998508      -0.237518522786     0.00228813568673    0.00510760773301    
7400000000.0        0.00232213206318    0.00517103019485    0.969298177129      -0.240724260494     0.969298177129      -0.240724260494     0.00232213206318    0.00517103019485    
7500000000.0        0.00235656942393    0.0052342687391     0.968493620506      -0.24392788109      0.968493620506      -0.24392788109      0.00235656942393    0.0052342687391     
7600000000.0        0.00239144775101    0.00529732383929    0.9676783316        -0.247129350208     0.9676783316        -0.247129350208     0.00239144775101    0.00529732383929    
7700000000.0        0.00242676705539    0.00536019598475    0.966852313479      -0.250328633435     0.966852313479      -0.250328633435     0.00242676705539    0.00536019598475    
7800000000.0        0.00246252737726    0.00542288567946    0.96601556932       -0.253525696313     0.96601556932       -0.253525696313     0.00246252737726    0.00542288567946    
7900000000.0        0.00249872878626    0.00548539344088    0.965168102409      -0.25672050434      0.965168102409      -0.25672050434      0.00249872878626    0.00548539344088    
8000000000.0        0.00253537138172    0.00554771979886    0.964309916139      -0.259913022972     0.964309916139      -0.259913022972     0.00253537138172    0.00554771979886    
8100000000.0        0.00257245529285    0.00560986529455    0.963441014013      -0.263103217622     0.963441014013      -0.263103217622     0.00257245529285    0.00560986529455    
8200000000.0        0.00260998067891    0.00567183047929    0.962561399643      -0.266291053665     0.962561399643      -0.266291053665     0.00260998067891    0.00567183047929    
8300000000.0        0.00264794772939    0.00573361591357    0.961671076751      -0.269476496436     0.961671076751      -0.269476496436     0.00264794772938    0.00573361591357    
8400000000.0        0.00268635666412    0.00579522216597    0.960770049167      -0.27265951123      0.960770049167      -0.27265951123      0.00268635666412    0.00579522216597    
8500000000.0        0.00272520773346    0.00585664981213    0.959858320833      -0.275840063309     0.959858320833      -0.275840063309     0.00272520773346    0.00585664981213    
8600000000.0        0.00276450121829    0.00591789943374    0.9589358958        -0.279018117895     0.9589358958        -0.279018117895     0.00276450121829    0.00591789943374    
8700000000.0        0.00280423743023    0.00597897161751    0.958002778231      -0.282193640177     0.958002778231      -0.282193640177     0.00280423743023    0.00597897161751    
8800000000.0        0.00284441671157    0.00603986695424    0.957058972397      -0.285366595311     0.957058972397      -0.285366595311     0.00284441671157    0.00603986695425    
8900000000.0        0.00288503943544    0.00610058603779    0.956104482683      -0.288536948419     0.956104482683      -0.288536948419     0.00288503943544    0.00610058603779    
9000000000.0        0.0029261060058     0.00616112946414    0.955139313583      -0.291704664592     0.955139313583      -0.291704664592     0.0029261060058     0.00616112946414    
9100000000.0        0.00296761685744    0.00622149783044    0.954163469705      -0.294869708887     0.954163469705      -0.294869708887     0.00296761685744    0.00622149783044    
9200000000.0        0.00300957245601    0.00628169173411    0.953176955767      -0.298032046336     0.953176955767      -0.298032046336     0.00300957245601    0.00628169173411    
9300000000.0        0.00305197329805    0.00634171177187    0.952179776599      -0.301191641938     0.952179776599      -0.301191641938     0.00305197329805    0.00634171177187    
9400000000.0        0.00309481991087    0.00640155853886    0.951171937144      -0.304348460665     0.951171937144      -0.304348460665     0.00309481991087    0.00640155853886    
9500000000.0        0.00313811285263    0.00646123262774    0.950153442457      -0.307502467462     0.950153442457      -0.307502467462     0.00313811285263    0.00646123262774    
9600000000.0        0.00318185271219    0.00652073462782    0.949124297707      -0.310653627248     0.949124297707      -0.310653627248     0.00318185271219    0.00652073462782    
9700000000.0        0.00322604010915    0.00658006512418    0.948084508175      -0.313801904915     0.948084508175      -0.313801904915     0.00322604010915    0.00658006512418    
9800000000.0        0.00327067569368    0.00663922469679    0.947034079254      -0.31694726533      0.947034079254      -0.31694726533      0.00327067569368    0.00663922469679    
9900000000.0        0.00331576014648    0.0066982139197     0.945973016454      -0.320089673339     0.945973016454      -0.320089673339     0.00331576014648    0.0066982139197     
10000000000.0       0.00336129417869    0.00675703336018    0.944901325395      -0.323229093762     0.944901325395      -0.323229093762     0.00336129417869    0.00675703336018    
