# Hz S RI R 50.00 
100000000.0         0.00719486888918    0.000698254398768   0.992803779025      -0.00101860060906   0.992803779025      -0.00101860060906   0.00719486888918    0.000698254398768   
200000000.0         0.00724406520618    0.00139634431705    0.992754127744      -0.0020370394908    0.992754127744      -0.0020370394908    0.00724406520618    0.00139634431705    
300000000.0         0.00728193224609    0.00209433362166    0.992715702852      -0.0030553820478    0.992715702852      -0.0030553820478    0.00728193224609    0.00209433362166    
400000000.0         0.00731470294378    0.00279224279208    0.992682271406      -0.00407364995555   0.992682271406      -0.00407364995555   0.00731470294378    0.00279224279208    
500000000.0         0.00734478281869    0.0034900821656     0.992651427876      -0.00509185457638   0.992651427876      -0.00509185457638   0.00734478281869    0.0034900821656     
600000000.0         0.00737340117466    0.00418785757145    0.992621942949      -0.00611000265314   0.992621942949      -0.00611000265314   0.00737340117466    0.00418785757145    
700000000.0         0.00740128565332    0.00488557235966    0.992593088969      -0.00712809836794   0.992593088969      -0.00712809836794   0.00740128565332    0.00488557235966    
800000000.0         0.00742890862319    0.00558322834382    0.992564393558      -0.00814614430331   0.992564393558      -0.00814614430331   0.00742890862319    0.00558322834382    
900000000.0         0.00745659697004    0.00628082630869    0.992535529816      -0.00916414196139   0.992535529816      -0.00916414196139   0.00745659697003    0.00628082630869    
1000000000.0        0.00748458778992    0.00697836631109    0.992506260634      -0.0101820920733    0.992506260634      -0.0101820920733    0.00748458778992    0.00697836631109    
1100000000.0        0.00751305937168    0.00767584787135    0.992476407708      -0.0111999947969    0.992476407708      -0.0111999947969    0.00751305937168    0.00767584787135    
1200000000.0        0.00754214967232    0.00837327010165    0.992445833067      -0.0122178498496    0.992445833067      -0.0122178498496    0.00754214967232    0.00837327010165    
1300000000.0        0.00757196794951    0.00907063179583    0.992414427437      -0.0132356566017    0.992414427437      -0.0132356566017    0.00757196794951    0.00907063179583    
1400000000.0        0.00760260241325    0.0097679314942     0.992382102592      -0.0142534141449    0.992382102592      -0.0142534141449    0.00760260241325    0.0097679314942     
1500000000.0        0.00763412544375    0.0104651675318     0.992348786135      -0.015271121342     0.992348786135      -0.015271121342     0.00763412544375    0.0104651675318     
1600000000.0        0.00766659725882    0.0111623380749     0.992314417832      -0.0162887768663    0.992314417832      -0.0162887768663    0.00766659725882    0.0111623380749     
1700000000.0        0.00770006855874    0.0118594411497     0.992278946964      -0.0173063792316    0.992278946964      -0.0173063792316    0.00770006855874    0.0118594411497     
1800000000.0        0.00773458247635    0.0125564746647     0.99224233038       -0.0183239268157    0.99224233038       -0.0183239268157    0.00773458247635    0.0125564746647     
1900000000.0        0.00777017604314    0.0132534364284     0.99220453103       -0.0193414178803    0.99220453103       -0.0193414178803    0.00777017604314    0.0132534364284     
2000000000.0        0.0078068813101     0.0139503241643     0.992165516843      -0.0203588505861    0.992165516843      -0.0203588505861    0.0078068813101     0.0139503241643     
2100000000.0        0.00784472621779    0.0146471355227     0.99212525986       -0.0213762230062    0.99212525986       -0.0213762230062    0.00784472621779    0.0146471355227     
2200000000.0        0.00788373528084    0.0153438680903     0.992083735545      -0.0223935331364    0.992083735545      -0.0223935331364    0.00788373528084    0.0153438680903     
2300000000.0        0.00792393013292    0.0160405193993     0.992040922243      -0.0234107789048    0.992040922243      -0.0234107789048    0.00792393013292    0.0160405193993     
2400000000.0        0.00796532996547    0.0167370869333     0.991996800744      -0.0244279581791    0.991996800744      -0.0244279581791    0.00796532996547    0.0167370869333     
2500000000.0        0.00800795188439    0.0174335681344     0.991951353918      -0.0254450687732    0.991951353918      -0.0254450687732    0.00800795188439    0.0174335681344     
2600000000.0        0.00805181120254    0.0181299604076     0.991904566432      -0.0264621084531    0.991904566432      -0.0264621084531    0.00805181120254    0.0181299604076     
2700000000.0        0.00809692168182    0.0188262611252     0.991856424501      -0.0274790749417    0.991856424501      -0.0274790749417    0.00809692168182    0.0188262611252     
2800000000.0        0.0081432957348     0.0195224676311     0.99180691569       -0.0284959659229    0.99180691569       -0.0284959659229    0.0081432957348     0.0195224676311     
2900000000.0        0.00819094459403    0.0202185772435     0.991756028743      -0.0295127790454    0.991756028743      -0.0295127790454    0.00819094459403    0.0202185772435     
3000000000.0        0.00823987845498    0.0209145872582     0.991703753442      -0.0305295119264    0.991703753442      -0.0305295119264    0.00823987845498    0.0209145872582     
3100000000.0        0.00829010659761    0.0216104949511     0.991650080483      -0.0315461621538    0.991650080483      -0.0315461621538    0.00829010659761    0.0216104949511     
3200000000.0        0.00834163749013    0.0223062975803     0.991595001374      -0.0325627272894    0.991595001374      -0.0325627272894    0.00834163749013    0.0223062975803     
3300000000.0        0.0083944788783     0.0230019923884     0.991538508344      -0.0335792048708    0.991538508344      -0.0335792048708    0.0083944788783     0.0230019923884     
3400000000.0        0.00844863786233    0.0236975766038     0.991480594268      -0.0345955924137    0.991480594268      -0.0345955924137    0.00844863786233    0.0236975766038     
3500000000.0        0.00850412096373    0.0243930474428     0.991421252601      -0.0356118874138    0.991421252601      -0.0356118874138    0.00850412096373    0.0243930474428     
3600000000.0        0.00856093418343    0.0250884021105     0.991360477316      -0.0366280873481    0.991360477316      -0.0366280873481    0.00856093418343    0.0250884021105     
3700000000.0        0.00861908305262    0.0257836378027     0.991298262856      -0.0376441896768    0.991298262856      -0.0376441896768    0.00861908305262    0.0257836378027     
3800000000.0        0.00867857267741    0.0264787517064     0.991234604089      -0.0386601918445    0.991234604089      -0.0386601918445    0.00867857267741    0.0264787517064     
3900000000.0        0.00873940777816    0.0271737410012     0.991169496269      -0.0396760912815    0.991169496269      -0.0396760912815    0.00873940777816    0.0271737410012     
4000000000.0        0.00880159272417    0.0278686028603     0.991102935         -0.0406918854049    0.991102935         -0.0406918854049    0.00880159272417    0.0278686028603     
4100000000.0        0.00886513156457    0.028563334451      0.991034916206      -0.0417075716195    0.991034916206      -0.0417075716195    0.00886513156457    0.028563334451      
4200000000.0        0.00893002805572    0.0292579329358     0.990965436104      -0.042723147319     0.990965436104      -0.042723147319     0.00893002805572    0.0292579329358     
4300000000.0        0.00899628568562    0.0299523954732     0.990894491179      -0.0437386098867    0.990894491179      -0.0437386098867    0.00899628568562    0.0299523954732     
4400000000.0        0.00906390769583    0.0306467192176     0.990822078162      -0.0447539566964    0.990822078162      -0.0447539566964    0.00906390769583    0.0306467192176     
4500000000.0        0.00913289710105    0.031340901321      0.990748194011      -0.045769185113     0.990748194011      -0.045769185113     0.00913289710105    0.031340901321      
4600000000.0        0.00920325670679    0.0320349389325     0.990672835891      -0.0467842924932    0.990672835891      -0.0467842924932    0.00920325670679    0.0320349389325     
4700000000.0        0.00927498912526    0.0327288291996     0.990596001164      -0.0477992761863    0.990596001164      -0.0477992761863    0.00927498912526    0.0327288291996     
4800000000.0        0.00934809678972    0.033422569268      0.990517687367      -0.0488141335347    0.990517687367      -0.0488141335347    0.00934809678972    0.033422569268      
4900000000.0        0.00942258196747    0.0341161562824     0.990437892206      -0.0498288618742    0.990437892206      -0.0498288618742    0.00942258196747    0.0341161562824     
5000000000.0        0.00949844677168    0.034809587387      0.990356613537      -0.0508434585349    0.990356613537      -0.0508434585349    0.00949844677168    0.034809587387      
5100000000.0        0.00957569317207    0.0355028597254     0.990273849363      -0.0518579208413    0.990273849363      -0.0518579208413    0.00957569317207    0.0355028597254     
5200000000.0        0.00965432300469    0.0361959704412     0.990189597818      -0.052872246113     0.990189597818      -0.052872246113     0.00965432300469    0.0361959704412     
5300000000.0        0.00973433798083    0.0368889166785     0.990103857162      -0.053886431665     0.990103857162      -0.053886431665     0.00973433798083    0.0368889166785     
5400000000.0        0.00981573969518    0.0375816955816     0.990016625771      -0.054900474808     0.990016625771      -0.054900474808     0.00981573969518    0.0375816955816     
5500000000.0        0.00989852963324    0.0382743042959     0.98992790213       -0.055914372849     0.98992790213       -0.055914372849     0.00989852963324    0.0382743042959     
5600000000.0        0.00998270917822    0.0389667399677     0.989837684826      -0.0569281230911    0.989837684826      -0.0569281230911    0.00998270917822    0.0389667399677     
5700000000.0        0.0100682796173     0.0396589997447     0.989745972543      -0.0579417228346    0.989745972543      -0.0579417228346    0.0100682796173     0.0396589997447     
5800000000.0        0.0101552421472     0.0403510807761     0.989652764052      -0.0589551693766    0.989652764052      -0.0589551693766    0.0101552421472     0.0403510807761     
5900000000.0        0.0102435978801     0.0410429802124     0.989558058213      -0.0599684600117    0.989558058213      -0.0599684600117    0.0102435978801     0.0410429802124     
6000000000.0        0.0103333478478     0.0417346952065     0.989461853963      -0.0609815920319    0.989461853963      -0.0609815920319    0.0103333478478     0.0417346952065     
6100000000.0        0.0104244930068     0.042426222913      0.989364150315      -0.0619945627271    0.989364150315      -0.0619945627271    0.0104244930068     0.042426222913      
6200000000.0        0.0105170342422     0.0431175604887     0.989264946354      -0.0630073693853    0.989264946354      -0.0630073693853    0.0105170342422     0.0431175604887     
6300000000.0        0.0106109723718     0.0438087050927     0.989164241231      -0.0640200092928    0.989164241231      -0.0640200092928    0.0106109723718     0.0438087050927     
6400000000.0        0.0107063081496     0.0444996538867     0.989062034162      -0.0650324797343    0.989062034162      -0.0650324797343    0.0107063081496     0.0444996538867     
6500000000.0        0.010803042269      0.0451904040349     0.988958324422      -0.0660447779933    0.988958324422      -0.0660447779933    0.010803042269      0.0451904040349     
6600000000.0        0.0109011753663     0.045880952704      0.988853111344      -0.0670569013518    0.988853111344      -0.0670569013518    0.0109011753663     0.045880952704      
6700000000.0        0.0110007080234     0.0465712970639     0.988746394315      -0.0680688470913    0.988746394315      -0.0680688470913    0.0110007080234     0.0465712970639     
6800000000.0        0.0111016407702     0.047261434287      0.988638172774      -0.0690806124922    0.988638172774      -0.0690806124922    0.0111016407702     0.047261434287      
6900000000.0        0.0112039740876     0.047951361549      0.98852844621       -0.0700921948342    0.98852844621       -0.0700921948342    0.0112039740876     0.047951361549      
7000000000.0        0.0113077084097     0.0486410760286     0.988417214155      -0.0711035913966    0.988417214155      -0.0711035913966    0.0113077084097     0.0486410760286     
7100000000.0        0.0114128441258     0.0493305749077     0.988304476191      -0.0721147994582    0.988304476191      -0.0721147994582    0.0114128441258     0.0493305749077     
7200000000.0        0.0115193815828     0.0500198553713     0.988190231938      -0.0731258162976    0.988190231938      -0.0731258162976    0.0115193815828     0.0500198553713     
7300000000.0        0.0116273210867     0.0507089146079     0.988074481058      -0.0741366391935    0.988074481058      -0.0741366391935    0.0116273210867     0.0507089146079     
7400000000.0        0.0117366629049     0.0513977498094     0.987957223254      -0.0751472654241    0.987957223254      -0.0751472654241    0.0117366629049     0.0513977498094     
7500000000.0        0.0118474072674     0.0520863581711     0.987838458263      -0.0761576922681    0.987838458263      -0.0761576922681    0.0118474072674     0.0520863581711     
7600000000.0        0.0119595543688     0.0527747368918     0.987718185858      -0.0771679170043    0.987718185858      -0.0771679170043    0.0119595543688     0.0527747368918     
7700000000.0        0.0120731043696     0.0534628831739     0.987596405849      -0.0781779369118    0.987596405849      -0.0781779369118    0.0120731043696     0.0534628831739     
7800000000.0        0.0121880573976     0.0541507942235     0.987473118074      -0.07918774927      0.987473118074      -0.07918774927      0.0121880573976     0.0541507942235     
7900000000.0        0.0123044135492     0.0548384672503     0.987348322405      -0.080197351359     0.987348322405      -0.080197351359     0.0123044135492     0.0548384672503     
8000000000.0        0.0124221728909     0.0555258994678     0.987222018745      -0.0812067404592    0.987222018745      -0.0812067404592    0.0124221728909     0.0555258994678     
8100000000.0        0.01254133546       0.0562130880932     0.987094207024      -0.0822159138521    0.987094207024      -0.0822159138521    0.01254133546       0.0562130880932     
8200000000.0        0.0126619012663     0.0569000303475     0.986964887199      -0.0832248688195    0.986964887199      -0.0832248688195    0.0126619012663     0.0569000303475     
8300000000.0        0.0127838702927     0.0575867234557     0.986834059257      -0.0842336026442    0.986834059257      -0.0842336026442    0.0127838702927     0.0575867234557     
8400000000.0        0.0129072424962     0.0582731646465     0.986701723207      -0.0852421126101    0.986701723207      -0.0852421126101    0.0129072424962     0.0582731646465     
8500000000.0        0.0130320178093     0.0589593511526     0.986567879086      -0.0862503960018    0.986567879086      -0.0862503960018    0.0130320178093     0.0589593511526     
8600000000.0        0.0131581961403     0.0596452802107     0.986432526952      -0.087258450105     0.986432526952      -0.087258450105     0.0131581961403     0.0596452802107     
8700000000.0        0.0132857773745     0.0603309490614     0.986295666889      -0.0882662722066    0.986295666889      -0.0882662722066    0.0132857773745     0.0603309490614     
8800000000.0        0.0134147613748     0.0610163549493     0.986157299002      -0.0892738595945    0.986157299002      -0.0892738595945    0.0134147613748     0.0610163549493     
8900000000.0        0.0135451479826     0.0617014951232     0.986017423416      -0.090281209558     0.986017423416      -0.090281209558     0.0135451479826     0.0617014951232     
9000000000.0        0.0136769370187     0.0623863668356     0.985876040279      -0.0912883193875    0.985876040279      -0.0912883193875    0.0136769370187     0.0623863668356     
9100000000.0        0.0138101282833     0.0630709673436     0.985733149758      -0.0922951863748    0.985733149758      -0.0922951863748    0.0138101282833     0.0630709673436     
9200000000.0        0.0139447215575     0.0637552939079     0.98558875204       -0.0933018078131    0.98558875204       -0.0933018078131    0.0139447215575     0.0637552939079     
9300000000.0        0.0140807166032     0.0644393437936     0.985442847331      -0.0943081809971    0.985442847331      -0.0943081809971    0.0140807166032     0.0644393437936     
9400000000.0        0.0142181131643     0.0651231142699     0.985295435855      -0.0953143032228    0.985295435855      -0.0953143032228    0.0142181131643     0.0651231142699     
9500000000.0        0.0143569109666     0.06580660261       0.985146517854      -0.0963201717878    0.985146517854      -0.0963201717878    0.0143569109666     0.06580660261       
9600000000.0        0.0144971097189     0.0664898060915     0.984996093587      -0.0973257839914    0.984996093587      -0.0973257839914    0.0144971097189     0.0664898060915     
9700000000.0        0.0146387091133     0.0671727219961     0.984844163329      -0.0983311371344    0.984844163329      -0.0983311371344    0.0146387091133     0.0671727219961     
9800000000.0        0.0147817088255     0.0678553476096     0.984690727373      -0.0993362285191    0.984690727373      -0.0993362285191    0.0147817088255     0.0678553476096     
9900000000.0        0.0149261085156     0.0685376802222     0.984535786027      -0.10034105545      0.984535786027      -0.10034105545      0.0149261085156     0.0685376802222     
10000000000.0       0.0150719078283     0.0692197171281     0.984379339614      -0.101345615232     0.984379339614      -0.101345615232     0.0150719078283     0.0692197171281     
