# Hz S RI R 50.00 
100000000.0         0.00227792436323    0.000347032636558   0.997720938878      -0.000484327513281  0.997720938878      -0.000484327513281  0.00227792436323    0.000347032636558   
200000000.0         0.00229342118121    0.000694041211946   0.997705286434      -0.000968632435962  0.997705286434      -0.000968632435962  0.00229342118121    0.000694041211946   
300000000.0         0.00230520434198    0.00104103620252    0.997693328779      -0.001452926019     0.997693328779      -0.001452926019     0.00230520434198    0.00104103620252    
400000000.0         0.00231525506501    0.00138802133192    0.997683084691      -0.0019372125838    0.997683084691      -0.0019372125838    0.00231525506501    0.00138802133192    
500000000.0         0.00232433761494    0.00173499872204    0.997673789903      -0.00242149476065   0.997673789903      -0.00242149476065   0.00232433761494    0.00173499872204    
600000000.0         0.00233284238421    0.00208196977589    0.99766505402       -0.00290577440222   0.99766505402       -0.00290577440222   0.00233284238421    0.00208196977589    
700000000.0         0.00234100035344    0.00242893549809    0.99765664606       -0.00339005291988   0.99765664606       -0.00339005291988   0.00234100035344    0.00242893549809    
800000000.0         0.00234896140972    0.0027758966451     0.997648416131      -0.00387433144323   0.997648416131      -0.00387433144323   0.00234896140972    0.0027758966451     
900000000.0         0.00235682923799    0.00312285380641    0.997640260548      -0.00435861090794   0.997640260548      -0.00435861090794   0.00235682923799    0.00312285380641    
1000000000.0        0.00236467901681    0.00346980745351    0.997632104127      -0.00484289210834   0.997632104127      -0.00484289210834   0.00236467901681    0.00346980745351    
1100000000.0        0.00237256726078    0.00381675797081    0.997623890353      -0.00532717573213   0.997623890353      -0.00532717573213   0.00237256726078    0.00381675797081    
1200000000.0        0.00238053768863    0.00416370567666    0.997615575501      -0.00581146238367   0.997615575501      -0.00581146238367   0.00238053768863    0.00416370567666    
1300000000.0        0.00238862491711    0.00451065083826    0.997607124953      -0.00629575260071   0.997607124953      -0.00629575260071   0.00238862491711    0.00451065083826    
1400000000.0        0.0023968568904     0.00485759368223    0.997598510761      -0.00678004686677   0.997598510761      -0.00678004686677   0.0023968568904     0.00485759368223    
1500000000.0        0.00240525653642    0.00520453440272    0.997589709994      -0.0072643456204    0.997589709994      -0.0072643456204    0.00240525653642    0.00520453440272    
1600000000.0        0.00241384293076    0.00555147316759    0.997580703572      -0.00774864926231   0.997580703572      -0.00774864926231   0.00241384293076    0.00555147316759    
1700000000.0        0.00242263213591    0.00589841012297    0.997571475429      -0.00823295816124   0.997571475429      -0.00823295816124   0.00242263213591    0.00589841012298    
1800000000.0        0.00243163781994    0.00624534539737    0.997562011894      -0.00871727265826   0.997562011894      -0.00871727265826   0.00243163781994    0.00624534539737    
1900000000.0        0.00244087172155    0.00659227910445    0.997552301223      -0.00920159307069   0.997552301223      -0.00920159307069   0.00244087172155    0.00659227910445    
2000000000.0        0.00245034400549    0.00693921134557    0.997542333249      -0.00968591969507   0.997542333249      -0.00968591969507   0.00245034400549    0.00693921134557    
2100000000.0        0.0024600635385     0.00728614221188    0.9975320991        -0.0101702528097    0.9975320991        -0.0101702528097    0.0024600635385     0.00728614221188    
2200000000.0        0.00247003810619    0.00763307178598    0.997521590986      -0.0106545926768    0.997521590986      -0.0106545926768    0.00247003810619    0.00763307178598    
2300000000.0        0.00248027458588    0.00798000014323    0.997510802027      -0.0111389395445    0.997510802027      -0.0111389395445    0.00248027458588    0.00798000014323    
2400000000.0        0.00249077908555    0.00832692735315    0.99749972611       -0.0116232936478    0.99749972611       -0.0116232936478    0.00249077908555    0.00832692735315    
2500000000.0        0.00250155705691    0.00867385348023    0.997488357778      -0.012107655211     0.997488357778      -0.012107655211     0.00250155705691    0.00867385348023    
2600000000.0        0.00251261338801    0.00902077858494    0.997476692141      -0.0125920244476    0.997476692141      -0.0125920244476    0.00251261338801    0.00902077858494    
2700000000.0        0.0025239524799     0.00936770272443    0.997464724791      -0.0130764015624    0.997464724791      -0.0130764015624    0.0025239524799     0.00936770272443    
2800000000.0        0.00253557831053    0.00971462595316    0.997452451748      -0.0135607867517    0.997452451748      -0.0135607867517    0.00253557831053    0.00971462595316    
2900000000.0        0.00254749448829    0.0100615483234     0.997439869397      -0.0140451802044    0.997439869397      -0.0140451802044    0.00254749448828    0.0100615483234     
3000000000.0        0.00255970429728    0.010408469886      0.99742697445       -0.0145295821025    0.99742697445       -0.0145295821025    0.00255970429728    0.010408469886      
3100000000.0        0.00257221073578    0.0107553906905     0.997413763905      -0.0150139926222    0.997413763905      -0.0150139926222    0.00257221073578    0.0107553906905     
3200000000.0        0.0025850165491     0.0111023107854     0.997400235011      -0.0154984119338    0.997400235011      -0.0154984119338    0.0025850165491     0.0111023107854     
3300000000.0        0.00259812425777    0.0114492302191     0.997386385244      -0.0159828402025    0.997386385244      -0.0159828402025    0.00259812425777    0.0114492302191     
3400000000.0        0.00261153618192    0.0117961490396     0.997372212278      -0.0164672775891    0.997372212278      -0.0164672775891    0.00261153618192    0.0117961490396     
3500000000.0        0.00262525446237    0.0121430672949     0.997357713967      -0.01695172425      0.997357713967      -0.01695172425      0.00262525446237    0.0121430672949     
3600000000.0        0.00263928107905    0.0124899850334     0.997342888327      -0.0174361803377    0.997342888327      -0.0174361803377    0.00263928107905    0.0124899850334     
3700000000.0        0.00265361786704    0.012836902304      0.997327733519      -0.0179206460012    0.997327733519      -0.0179206460012    0.00265361786704    0.012836902304      
3800000000.0        0.00266826653068    0.0131838191563     0.997312247832      -0.0184051213865    0.997312247832      -0.0184051213865    0.00266826653068    0.0131838191563     
3900000000.0        0.00268322865601    0.0135307356407     0.997296429677      -0.0188896066361    0.997296429677      -0.0188896066361    0.00268322865601    0.0135307356407     
4000000000.0        0.00269850572171    0.0138776518086     0.997280277569      -0.0193741018905    0.997280277569      -0.0193741018905    0.00269850572171    0.0138776518086     
4100000000.0        0.00271409910889    0.0142245677124     0.997263790122      -0.0198586072871    0.997263790122      -0.0198586072871    0.00271409910889    0.0142245677124     
4200000000.0        0.0027300101097     0.0145714834059     0.997246966039      -0.0203431229613    0.997246966039      -0.0203431229613    0.0027300101097     0.0145714834059     
4300000000.0        0.00274623993504    0.0149183989442     0.997229804104      -0.0208276490466    0.997229804104      -0.0208276490466    0.00274623993504    0.0149183989442     
4400000000.0        0.00276278972152    0.0152653143838     0.997212303176      -0.0213121856744    0.997212303176      -0.0213121856744    0.00276278972152    0.0152653143838     
4500000000.0        0.00277966053758    0.0156122297828     0.997194462182      -0.0217967329743    0.997194462182      -0.0217967329743    0.00277966053758    0.0156122297828     
4600000000.0        0.00279685338911    0.0159591452006     0.997176280109      -0.0222812910745    0.997176280109      -0.0222812910745    0.00279685338911    0.0159591452006     
4700000000.0        0.00281436922443    0.0163060606987     0.997157756005      -0.0227658601018    0.997157756005      -0.0227658601018    0.00281436922443    0.0163060606987     
4800000000.0        0.00283220893883    0.0166529763399     0.99713888897       -0.0232504401815    0.99713888897       -0.0232504401815    0.00283220893883    0.0166529763399     
4900000000.0        0.00285037337867    0.0169998921891     0.997119678152      -0.023735031438     0.997119678152      -0.023735031438     0.00285037337867    0.0169998921891     
5000000000.0        0.00286886334508    0.0173468083127     0.997100122744      -0.0242196339943    0.997100122744      -0.0242196339943    0.00286886334508    0.0173468083127     
5100000000.0        0.00288767959737    0.0176937247791     0.997080221983      -0.0247042479727    0.997080221983      -0.0247042479727    0.00288767959737    0.0176937247791     
5200000000.0        0.00290682285606    0.0180406416588     0.997059975142      -0.0251888734945    0.997059975142      -0.0251888734945    0.00290682285606    0.0180406416588     
5300000000.0        0.00292629380572    0.0183875590238     0.997039381533      -0.0256735106803    0.997039381533      -0.0256735106803    0.00292629380572    0.0183875590238     
5400000000.0        0.00294609309754    0.0187344769484     0.997018440498      -0.0261581596499    0.997018440498      -0.0261581596499    0.00294609309754    0.0187344769484     
5500000000.0        0.00296622135164    0.0190813955088     0.996997151412      -0.0266428205225    0.996997151412      -0.0266428205225    0.00296622135164    0.0190813955088     
5600000000.0        0.00298667915924    0.019428314783      0.996975513679      -0.027127493417     0.996975513679      -0.027127493417     0.00298667915924    0.019428314783      
5700000000.0        0.00300746708466    0.0197752348512     0.99695352673       -0.0276121784514    0.99695352673       -0.0276121784514    0.00300746708466    0.0197752348512     
5800000000.0        0.00302858566709    0.0201221557957     0.99693119002       -0.0280968757436    0.99693119002       -0.0280968757436    0.00302858566709    0.0201221557957     
5900000000.0        0.00305003542231    0.0204690777006     0.996908503029      -0.028581585411     0.996908503029      -0.028581585411     0.00305003542231    0.0204690777006     
6000000000.0        0.0030718168442     0.0208160006524     0.996885465256      -0.0290663075708    0.996885465256      -0.0290663075708    0.0030718168442     0.0208160006524     
6100000000.0        0.00309393040618    0.0211629247393     0.996862076224      -0.0295510423399    0.996862076224      -0.0295510423399    0.00309393040618    0.0211629247393     
6200000000.0        0.00311637656254    0.0215098500519     0.996838335474      -0.0300357898349    0.996838335474      -0.0300357898349    0.00311637656254    0.0215098500519     
6300000000.0        0.00313915574963    0.0218567766827     0.996814242563      -0.0305205501723    0.996814242563      -0.0305205501723    0.00313915574963    0.0218567766827     
6400000000.0        0.00316226838703    0.0222037047262     0.996789797067      -0.0310053234687    0.996789797067      -0.0310053234687    0.00316226838703    0.0222037047262     
6500000000.0        0.00318571487858    0.0225506342793     0.996764998577      -0.0314901098402    0.996764998577      -0.0314901098402    0.00318571487858    0.0225506342793     
6600000000.0        0.00320949561335    0.0228975654407     0.996739846699      -0.0319749094031    0.996739846699      -0.0319749094031    0.00320949561335    0.0228975654407     
6700000000.0        0.00323361096657    0.0232444983112     0.996714341053      -0.0324597222738    0.996714341053      -0.0324597222738    0.00323361096657    0.0232444983112     
6800000000.0        0.00325806130048    0.0235914329939     0.996688481271      -0.0329445485685    0.996688481271      -0.0329445485685    0.00325806130048    0.0235914329939     
6900000000.0        0.00328284696507    0.0239383695939     0.996662266998      -0.0334293884036    0.996662266998      -0.0334293884036    0.00328284696507    0.0239383695939     
7000000000.0        0.0033079682989     0.0242853082182     0.996635697891      -0.0339142418954    0.996635697891      -0.0339142418954    0.0033079682989     0.0242853082182     
7100000000.0        0.0033334256297     0.0246322489761     0.996608773616      -0.0343991091605    0.996608773616      -0.0343991091605    0.0033334256297     0.0246322489761     
7200000000.0        0.00335921927508    0.0249791919789     0.996581493851      -0.0348839903156    0.996581493851      -0.0348839903156    0.00335921927508    0.0249791919789     
7300000000.0        0.00338534954311    0.02532613734       0.996553858284      -0.0353688854775    0.996553858284      -0.0353688854775    0.00338534954311    0.02532613734       
7400000000.0        0.00341181673288    0.0256730851747     0.996525866609      -0.0358537947631    0.996525866609      -0.0358537947631    0.00341181673288    0.0256730851747     
7500000000.0        0.00343862113504    0.0260200356006     0.996497518532      -0.0363387182896    0.996497518532      -0.0363387182896    0.00343862113504    0.0260200356006     
7600000000.0        0.00346576303227    0.0263669887371     0.996468813765      -0.0368236561743    0.996468813765      -0.0368236561743    0.00346576303227    0.0263669887371     
7700000000.0        0.0034932426998     0.0267139447059     0.996439752027      -0.0373086085349    0.996439752027      -0.0373086085349    0.0034932426998     0.0267139447059     
7800000000.0        0.0035210604058     0.0270609036305     0.996410333045      -0.0377935754892    0.996410333045      -0.0377935754892    0.0035210604058     0.0270609036305     
7900000000.0        0.00354921641183    0.0274078656365     0.996380556553      -0.0382785571553    0.996380556553      -0.0382785571553    0.00354921641183    0.0274078656365     
8000000000.0        0.00357771097318    0.0277548308516     0.996350422291      -0.0387635536516    0.996350422291      -0.0387635536516    0.00357771097318    0.0277548308516     
8100000000.0        0.00360654433929    0.0281017994053     0.996319930005      -0.0392485650967    0.996319930005      -0.0392485650967    0.00360654433929    0.0281017994053     
8200000000.0        0.00363571675408    0.0284487714293     0.996289079445      -0.0397335916095    0.996289079445      -0.0397335916095    0.00363571675408    0.0284487714293     
8300000000.0        0.00366522845627    0.0287957470571     0.996257870369      -0.0402186333093    0.996257870369      -0.0402186333093    0.00366522845627    0.0287957470571     
8400000000.0        0.00369507967966    0.0291427264244     0.996226302537      -0.0407036903156    0.996226302537      -0.0407036903156    0.00369507967966    0.0291427264244     
8500000000.0        0.00372527065349    0.0294897096686     0.996194375716      -0.0411887627484    0.996194375716      -0.0411887627484    0.00372527065349    0.0294897096686     
8600000000.0        0.00375580160266    0.0298366969291     0.996162089676      -0.0416738507278    0.996162089676      -0.0416738507278    0.00375580160266    0.0298366969291     
8700000000.0        0.003786672748      0.0301836883475     0.996129444192      -0.0421589543743    0.996129444192      -0.0421589543743    0.003786672748      0.0301836883475     
8800000000.0        0.00381788430655    0.0305306840669     0.996096439042      -0.0426440738089    0.996096439042      -0.0426440738089    0.00381788430655    0.0305306840669     
8900000000.0        0.00384943649174    0.0308776842327     0.996063074007      -0.0431292091528    0.996063074007      -0.0431292091528    0.00384943649174    0.0308776842327     
9000000000.0        0.00388132951366    0.0312246889919     0.996029348873      -0.0436143605275    0.996029348873      -0.0436143605275    0.00388132951366    0.0312246889919     
9100000000.0        0.00391356357925    0.0315716984936     0.99599526343       -0.0440995280551    0.99599526343       -0.0440995280551    0.00391356357925    0.0315716984936     
9200000000.0        0.0039461388925     0.0319187128885     0.995960817467      -0.0445847118579    0.995960817467      -0.0445847118579    0.0039461388925     0.0319187128885     
9300000000.0        0.00397905565465    0.0322657323296     0.99592601078       -0.0450699120584    0.99592601078       -0.0450699120584    0.00397905565465    0.0322657323296     
9400000000.0        0.00401231406434    0.0326127569714     0.995890843165      -0.0455551287799    0.995890843165      -0.0455551287799    0.00401231406434    0.0326127569714     
9500000000.0        0.00404591431785    0.0329597869702     0.995855314422      -0.0460403621457    0.995855314422      -0.0460403621457    0.00404591431785    0.0329597869702     
9600000000.0        0.00407985660918    0.0333068224844     0.995819424352      -0.0465256122796    0.995819424352      -0.0465256122796    0.00407985660918    0.0333068224844     
9700000000.0        0.00411414113025    0.033653863674      0.995783172759      -0.0470108793059    0.995783172759      -0.0470108793059    0.00411414113025    0.033653863674      
9800000000.0        0.00414876807107    0.0340009107009     0.995746559448      -0.0474961633491    0.995746559448      -0.0474961633491    0.00414876807107    0.0340009107009     
9900000000.0        0.00418373761982    0.0343479637287     0.995709584228      -0.0479814645342    0.995709584228      -0.0479814645342    0.00418373761982    0.0343479637287     
10000000000.0       0.00421904996304    0.0346950229228     0.995672246908      -0.0484667829865    0.995672246908      -0.0484667829865    0.00421904996304    0.0346950229228     
