# Hz S RI R 50.00 
100000000.0         0.00333367832296    0.00073139522833    0.99666505249       -0.000989355041271  0.99666505249       -0.000989355041271  0.00333367832296    0.00073139522833    
200000000.0         0.00335778439674    0.00146271394273    0.996640610605      -0.00197863655836   0.996640610605      -0.00197863655836   0.00335778439674    0.00146271394273    
300000000.0         0.00337743407261    0.00219398481232    0.996620558488      -0.00296787482841   0.996620558488      -0.00296787482841   0.00337743407261    0.00219398481232    
400000000.0         0.00339552077839    0.00292521618804    0.996602002703      -0.00395707944433   0.996602002703      -0.00395707944433   0.00339552077839    0.00292521618804    
500000000.0         0.0034131601651     0.00365641163324    0.996583827592      -0.00494625502593   0.996583827592      -0.00494625502593   0.0034131601651     0.00365641163324    
600000000.0         0.00343092185678    0.00438757257332    0.996565463522      -0.00593540393291   0.996565463522      -0.00593540393291   0.00343092185678    0.00438757257332    
700000000.0         0.00344914271818    0.00511869925451    0.996546573619      -0.00692452725587   0.996546573619      -0.00692452725587   0.00344914271818    0.00511869925451    
800000000.0         0.00346804123561    0.00584979119147    0.996526939388      -0.00791362528354   0.996526939388      -0.00791362528354   0.00346804123561    0.00584979119147    
900000000.0         0.00348776846515    0.00658084740919    0.996506409761      -0.0089026977575    0.996506409761      -0.0089026977575    0.00348776846515    0.00658084740919    
1000000000.0        0.00350843386754    0.00731186658711    0.996484875268      -0.00989174402525   0.996484875268      -0.00989174402525   0.00350843386754    0.00731186658711    
1100000000.0        0.00353011967479    0.008042847151      0.996462253664      -0.0108807631389    0.996462253664      -0.0108807631389    0.00353011967479    0.008042847151      
1200000000.0        0.00355288945413    0.00877378733489    0.996438481371      -0.0118697539222    0.996438481371      -0.0118697539222    0.00355288945413    0.00877378733489    
1300000000.0        0.00357679349804    0.00950468522435    0.996413508083      -0.0128587150179    0.996413508083      -0.0128587150179    0.00357679349804    0.00950468522435    
1400000000.0        0.00360187236836    0.0102355387881     0.996387293226      -0.0138476449225    0.996387293226      -0.0138476449225    0.00360187236836    0.0102355387881     
1500000000.0        0.00362815931224    0.0109663459012     0.99635980354       -0.0148365420123    0.99635980354       -0.0148365420123    0.00362815931224    0.0109663459012     
1600000000.0        0.00365568195956    0.0116971043632     0.996331011381      -0.0158254045635    0.996331011381      -0.0158254045635    0.00365568195956    0.0116971043632     
1700000000.0        0.00368446354658    0.0124278119115     0.996300893499      -0.0168142307681    0.996300893499      -0.0168142307681    0.00368446354658    0.0124278119115     
1800000000.0        0.00371452381787    0.0131584662331     0.996269430134      -0.0178030187463    0.996269430134      -0.0178030187463    0.00371452381787    0.0131584662331     
1900000000.0        0.00374587970412    0.0138890649726     0.996236604342      -0.0187917665569    0.996236604342      -0.0187917665569    0.00374587970412    0.0138890649726     
2000000000.0        0.00377854584009    0.0146196057396     0.996202401473      -0.0197804722055    0.996202401473      -0.0197804722055    0.00377854584009    0.0146196057396     
2100000000.0        0.00381253496661    0.0153500861147     0.99616680877       -0.0207691336514    0.99616680877       -0.0207691336514    0.00381253496661    0.0153500861147     
2200000000.0        0.00384785824663    0.0160805036543     0.996129815054      -0.0217577488137    0.996129815054      -0.0217577488137    0.00384785824663    0.0160805036543     
2300000000.0        0.00388452551685    0.0168108558943     0.996091410475      -0.0227463155759    0.996091410475      -0.0227463155759    0.00388452551685    0.0168108558943     
2400000000.0        0.00392254549015    0.0175411403543     0.996051586301      -0.0237348317901    0.996051586301      -0.0237348317901    0.00392254549015    0.0175411403543     
2500000000.0        0.00396192592011    0.0182713545393     0.996010334763      -0.024723295281     0.996010334763      -0.024723295281     0.00396192592011    0.0182713545393     
2600000000.0        0.00400267373597    0.0190014959435     0.995967648916      -0.0257117038486    0.995967648916      -0.0257117038486    0.00400267373597    0.0190014959435     
2700000000.0        0.00404479515411    0.0197315620514     0.995923522525      -0.0267000552709    0.995923522525      -0.0267000552709    0.00404479515411    0.0197315620514     
2800000000.0        0.00408829577107    0.0204615503401     0.995877949978      -0.0276883473065    0.995877949978      -0.0276883473065    0.00408829577107    0.0204615503401     
2900000000.0        0.00413318064146    0.0211914582809     0.995830926202      -0.0286765776968    0.995830926202      -0.0286765776968    0.00413318064146    0.0211914582809     
3000000000.0        0.00417945434386    0.0219212833403     0.995782446602      -0.0296647441671    0.995782446602      -0.0296647441671    0.00417945434386    0.0219212833403     
3100000000.0        0.00422712103672    0.0226510229819     0.995732507         -0.0306528444293    0.995732507         -0.0306528444293    0.00422712103672    0.0226510229819     
3200000000.0        0.00427618450617    0.0233806746667     0.995681103593      -0.0316408761825    0.995681103593      -0.0316408761825    0.00427618450617    0.0233806746667     
3300000000.0        0.00432664820704    0.0241102358545     0.995628232909      -0.0326288371145    0.995628232909      -0.0326288371145    0.00432664820704    0.0241102358545     
3400000000.0        0.0043785152983     0.0248397040046     0.99557389177       -0.0336167249032    0.99557389177       -0.0336167249032    0.0043785152983     0.0248397040046     
3500000000.0        0.00443178867375    0.0255690765765     0.995518077263      -0.0346045372174    0.995518077263      -0.0346045372174    0.00443178867375    0.0255690765765     
3600000000.0        0.00448647098875    0.0262983510307     0.995460786716      -0.0355922717179    0.995460786716      -0.0355922717179    0.00448647098875    0.0262983510307     
3700000000.0        0.0045425646836     0.0270275248288     0.995402017668      -0.0365799260583    0.995402017668      -0.0365799260583    0.0045425646836     0.0270275248288     
3800000000.0        0.00460007200406    0.0277565954348     0.995341767856      -0.0375674978854    0.995341767856      -0.0375674978854    0.00460007200406    0.0277565954348     
3900000000.0        0.00465899501936    0.0284855603146     0.995280035192      -0.0385549848407    0.995280035192      -0.0385549848407    0.00465899501936    0.0284855603146     
4000000000.0        0.00471933563824    0.0292144169373     0.995216817747      -0.0395423845602    0.995216817747      -0.0395423845602    0.00471933563824    0.0292144169373     
4100000000.0        0.00478109562303    0.029943162775      0.995152113741      -0.0405296946755    0.995152113741      -0.0405296946755    0.00478109562303    0.029943162775      
4200000000.0        0.00484427660229    0.0306717953032     0.995085921525      -0.0415169128143    0.995085921525      -0.0415169128143    0.00484427660229    0.0306717953032     
4300000000.0        0.004908880082      0.0314003120012     0.995018239575      -0.0425040366005    0.995018239575      -0.0425040366005    0.004908880082      0.0314003120012     
4400000000.0        0.0049749074556     0.0321287103525     0.994949066477      -0.043491063655     0.994949066477      -0.043491063655     0.0049749074556     0.0321287103525     
4500000000.0        0.00504236001305    0.0328569878445     0.994878400923      -0.044477991596     0.994878400923      -0.044477991596     0.00504236001305    0.0328569878445     
4600000000.0        0.00511123894883    0.0335851419694     0.994806241699      -0.0454648180396    0.994806241699      -0.0454648180396    0.00511123894883    0.0335851419694     
4700000000.0        0.00518154536931    0.0343131702237     0.994732587677      -0.0464515405995    0.994732587677      -0.0464515405995    0.00518154536931    0.0343131702237     
4800000000.0        0.00525328029932    0.0350410701089     0.994657437815      -0.047438156888     0.994657437815      -0.047438156888     0.00525328029932    0.0350410701089     
4900000000.0        0.0053264446881     0.0357688391315     0.994580791143      -0.0484246645161    0.994580791143      -0.0484246645161    0.0053264446881     0.0357688391315     
5000000000.0        0.00540103941473    0.0364964748028     0.994502646763      -0.0494110610934    0.994502646763      -0.0494110610934    0.00540103941473    0.0364964748028     
5100000000.0        0.00547706529304    0.0372239746394     0.994423003841      -0.050397344229     0.994423003841      -0.050397344229     0.00547706529304    0.0372239746394     
5200000000.0        0.00555452307608    0.0379513361632     0.994341861605      -0.0513835115311    0.994341861605      -0.0513835115311    0.00555452307608    0.0379513361632     
5300000000.0        0.00563341346024    0.0386785569015     0.994259219337      -0.0523695606076    0.994259219337      -0.0523695606076    0.00563341346024    0.0386785569015     
5400000000.0        0.00571373708897    0.039405634387      0.994175076376      -0.0533554890661    0.994175076376      -0.0533554890661    0.00571373708897    0.039405634387      
5500000000.0        0.00579549455618    0.0401325661577     0.994089432107      -0.0543412945144    0.994089432107      -0.0543412945144    0.00579549455618    0.0401325661577     
5600000000.0        0.00587868640945    0.0408593497575     0.994002285963      -0.0553269745601    0.994002285963      -0.0553269745601    0.00587868640945    0.0408593497575     
5700000000.0        0.00596331315282    0.0415859827357     0.99391363742       -0.0563125268113    0.99391363742       -0.0563125268113    0.00596331315282    0.0415859827357     
5800000000.0        0.00604937524952    0.0423124626472     0.993823485996      -0.0572979488764    0.993823485996      -0.0572979488764    0.00604937524952    0.0423124626472     
5900000000.0        0.0061368731244     0.0430387870528     0.993731831246      -0.0582832383644    0.993731831246      -0.0582832383644    0.0061368731244     0.0430387870528     
6000000000.0        0.00622580716616    0.0437649535188     0.993638672761      -0.0592683928851    0.993638672761      -0.0592683928851    0.00622580716616    0.0437649535188     
6100000000.0        0.00631617772947    0.0444909596173     0.993544010167      -0.0602534100489    0.993544010167      -0.0602534100489    0.00631617772947    0.0444909596173     
6200000000.0        0.00640798513689    0.0452168029262     0.993447843121      -0.0612382874672    0.993447843121      -0.0612382874672    0.00640798513689    0.0452168029262     
6300000000.0        0.00650122968067    0.0459424810291     0.993350171313      -0.0622230227524    0.993350171313      -0.0622230227524    0.00650122968067    0.0459424810291     
6400000000.0        0.00659591162438    0.0466679915154     0.993250994459      -0.0632076135179    0.993250994459      -0.0632076135179    0.00659591162438    0.0466679915154     
6500000000.0        0.00669203120449    0.0473933319802     0.993150312302      -0.0641920573784    0.993150312302      -0.0641920573784    0.00669203120449    0.0473933319802     
6600000000.0        0.0067895886318     0.0481185000246     0.993048124612      -0.0651763519498    0.993048124612      -0.0651763519498    0.0067895886318     0.0481185000246     
6700000000.0        0.00688858409275    0.0488434932552     0.992944431185      -0.0661604948492    0.992944431185      -0.0661604948492    0.00688858409275    0.0488434932552     
6800000000.0        0.00698901775071    0.0495683092845     0.992839231836      -0.0671444836952    0.992839231836      -0.0671444836952    0.00698901775071    0.0495683092845     
6900000000.0        0.0070908897471     0.0502929457307     0.992732526405      -0.0681283161078    0.992732526405      -0.0681283161078    0.0070908897471     0.0502929457307     
7000000000.0        0.00719420020251    0.0510174002177     0.992624314752      -0.0691119897084    0.992624314752      -0.0691119897084    0.00719420020251    0.0510174002177     
7100000000.0        0.00729894921771    0.0517416703753     0.992514596757      -0.0700955021202    0.992514596757      -0.0700955021202    0.00729894921771    0.0517416703753     
7200000000.0        0.00740513687457    0.0524657538387     0.99240337232       -0.0710788509677    0.99240337232       -0.0710788509677    0.00740513687457    0.0524657538387     
7300000000.0        0.00751276323702    0.0531896482491     0.992290641356      -0.0720620338771    0.992290641356      -0.0720620338771    0.00751276323702    0.0531896482491     
7400000000.0        0.00762182835182    0.0539133512531     0.992176403801      -0.0730450484763    0.992176403801      -0.0730450484763    0.00762182835182    0.0539133512531     
7500000000.0        0.00773233224937    0.0546368605032     0.992060659606      -0.074027892395     0.992060659606      -0.074027892395     0.00773233224937    0.0546368605032     
7600000000.0        0.00784427494447    0.0553601736572     0.991943408735      -0.0750105632645    0.991943408735      -0.0750105632645    0.00784427494447    0.0553601736572     
7700000000.0        0.007957656437      0.0560832883788     0.991824651172      -0.0759930587177    0.991824651172      -0.0759930587177    0.007957656437      0.0560832883788     
7800000000.0        0.00807247671254    0.056806202337      0.991704386911      -0.0769753763897    0.991704386911      -0.0769753763897    0.00807247671254    0.056806202337      
7900000000.0        0.00818873574307    0.0575289132064     0.991582615963      -0.077957513917     0.991582615963      -0.077957513917     0.00818873574307    0.0575289132064     
8000000000.0        0.00830643348745    0.0582514186672     0.991459338349      -0.0789394689381    0.991459338349      -0.0789394689381    0.00830643348745    0.0582514186672     
8100000000.0        0.00842556989206    0.0589737164049     0.991334554106      -0.0799212390933    0.991334554106      -0.0799212390933    0.00842556989206    0.0589737164049     
8200000000.0        0.00854614489124    0.0596958041106     0.991208263281      -0.0809028220247    0.991208263281      -0.0809028220247    0.00854614489124    0.0596958041106     
8300000000.0        0.00866815840785    0.0604176794806     0.991080465932      -0.0818842153765    0.991080465932      -0.0818842153765    0.00866815840785    0.0604176794806     
8400000000.0        0.00879161035369    0.0611393402167     0.99095116213       -0.0828654167944    0.99095116213       -0.0828654167944    0.00879161035369    0.0611393402167     
8500000000.0        0.00891650062995    0.061860784026      0.990820351956      -0.0838464239262    0.990820351956      -0.0838464239262    0.00891650062995    0.061860784026      
8600000000.0        0.00904282912763    0.0625820086207     0.990688035501      -0.0848272344216    0.990688035501      -0.0848272344216    0.00904282912763    0.0625820086207     
8700000000.0        0.00917059572792    0.0633030117186     0.990554212867      -0.0858078459321    0.990554212867      -0.0858078459321    0.00917059572792    0.0633030117186     
8800000000.0        0.0092998003026     0.0640237910424     0.990418884163      -0.0867882561111    0.990418884163      -0.0867882561111    0.0092998003026     0.0640237910424     
8900000000.0        0.00943044271437    0.0647443443201     0.990282049511      -0.087768462614     0.990282049511      -0.087768462614     0.00943044271437    0.0647443443201     
9000000000.0        0.00956252281721    0.0654646692847     0.990143709039      -0.0887484630978    0.990143709039      -0.0887484630978    0.00956252281721    0.0654646692847     
9100000000.0        0.00969604045667    0.0661847636746     0.990003862884      -0.0897282552218    0.990003862884      -0.0897282552218    0.00969604045667    0.0661847636746     
9200000000.0        0.00983099547021    0.0669046252328     0.989862511192      -0.0907078366468    0.989862511192      -0.0907078366468    0.00983099547021    0.0669046252328     
9300000000.0        0.00996738768745    0.0676242517078     0.989719654116      -0.0916872050358    0.989719654116      -0.0916872050358    0.00996738768745    0.0676242517078     
9400000000.0        0.0101052169305     0.0683436408526     0.989575291818      -0.0926663580533    0.989575291818      -0.0926663580533    0.0101052169305     0.0683436408526     
9500000000.0        0.0102444830142     0.0690627904255     0.989429424467      -0.0936452933661    0.989429424467      -0.0936452933661    0.0102444830142     0.0690627904255     
9600000000.0        0.0103851857462     0.0697816981894     0.989282052239      -0.0946240086425    0.989282052239      -0.0946240086425    0.0103851857462     0.0697816981894     
9700000000.0        0.0105273249277     0.0705003619122     0.989133175315      -0.0956025015529    0.989133175315      -0.0956025015529    0.0105273249277     0.0705003619122     
9800000000.0        0.010670900353      0.0712187793666     0.988982793887      -0.0965807697693    0.988982793887      -0.0965807697693    0.010670900353      0.0712187793666     
9900000000.0        0.0108159118103     0.0719369483301     0.98883090815       -0.0975588109657    0.98883090815       -0.0975588109657    0.0108159118103     0.0719369483301     
10000000000.0       0.0109623590815     0.0726548665847     0.988677518305      -0.0985366228179    0.988677518305      -0.0985366228179    0.0109623590815     0.0726548665847     
