# Hz S RI R 50.00 
100000000.0         -0.000109274356338  -0.0105356833711    0.999863148642      -0.0106346457619    0.999863148642      -0.0106346457619    -0.000109274356338  -0.0105356833711    
200000000.0         -0.00045567251944   -0.021063370966     0.999516547766      -0.0212613125719    0.999516547766      -0.0212613125719    -0.00045567251944   -0.021063370966     
300000000.0         -0.00102551296407   -0.0315757512289    0.998946542331      -0.0318726975045    0.998946542331      -0.0318726975045    -0.00102551296408   -0.0315757512289    
400000000.0         -0.00181795836472   -0.0420656034869    0.998153945938      -0.0424615864642    0.998153945938      -0.0424615864642    -0.00181795836472   -0.0420656034869    
500000000.0         -0.00283187230497   -0.0525257882195    0.997139885903      -0.0530208454441    0.997139885903      -0.0530208454441    -0.00283187230497   -0.0525257882195    
600000000.0         -0.0040658199082    -0.0629492539055    0.995905792476      -0.0635434277198    0.995905792476      -0.0635434277198    -0.0040658199082    -0.0629492539055    
700000000.0         -0.00551807276338   -0.0733290479197    0.994453391343      -0.0740223849231    0.994453391343      -0.0740223849231    -0.00551807276338   -0.0733290479197    
800000000.0         -0.00718661535061   -0.0836583288208    0.992784696259      -0.0844508794379    0.992784696259      -0.0844508794379    -0.00718661535061   -0.0836583288208    
900000000.0         -0.00906915246601   -0.0939303790487    0.990902001209      -0.0948221971675    0.990902001209      -0.0948221971675    -0.00906915246601   -0.0939303790487    
1000000000.0        -0.0111631174926    -0.104138617569     0.988807871929      -0.10512976023      0.988807871929      -0.10512976023      -0.0111631174926    -0.104138617569     
1100000000.0        -0.013465681443     -0.114276612216     0.986505136739      -0.115367139341     0.986505136739      -0.115367139341     -0.013465681443     -0.114276612216     
1200000000.0        -0.0159737627154    -0.124338091572     0.983996876725      -0.12552806572      0.983996876725      -0.12552806572      -0.0159737627154    -0.124338091572     
1300000000.0        -0.0186840375058    -0.134316956262     0.981286415282      -0.135606442409     0.981286415282      -0.135606442409     -0.0186840375058    -0.134316956262     
1400000000.0        -0.0215929508224    -0.144207289587     0.978377307065      -0.14559635493      0.978377307065      -0.14559635493      -0.0215929508224    -0.144207289587     
1500000000.0        -0.0246967280404    -0.154003367447     0.975273326424      -0.155492081216     0.975273326424      -0.155492081216     -0.0246967280404    -0.154003367447     
1600000000.0        -0.0279913869356    -0.163699667478     0.971978455349      -0.165288100771     0.971978455349      -0.165288100771     -0.0279913869356    -0.163699667478     
1700000000.0        -0.0314727501353    -0.173290877394     0.968496871014      -0.17497910302      0.968496871014      -0.17497910302      -0.0314727501353    -0.173290877394     
1800000000.0        -0.035136457919     -0.182771902494     0.964832932968      -0.184559994825     0.964832932968      -0.184559994825     -0.035136457919     -0.182771902494     
1900000000.0        -0.038977981306     -0.192137872311     0.96099117004       -0.19402590715      0.96099117004       -0.19402590715      -0.038977981306     -0.192137872311     
2000000000.0        -0.0429926353633    -0.201384146407     0.956976267032      -0.203372200857     0.956976267032      -0.203372200857     -0.0429926353633    -0.201384146407     
2100000000.0        -0.047175592669     -0.210506319293     0.952793051246      -0.212594471642     0.952793051246      -0.212594471642     -0.047175592669     -0.210506319293     
2200000000.0        -0.0515218968678    -0.219500224484     0.94844647893       -0.22168855409      0.94844647893       -0.22168855409      -0.0515218968678    -0.219500224484     
2300000000.0        -0.0560264762573    -0.228361937695     0.943941621691      -0.230650524883     0.943941621691      -0.230650524883     -0.0560264762573    -0.228361937695     
2400000000.0        -0.0606841573424    -0.237087779191     0.939283652934      -0.239476705154     0.939283652934      -0.239476705154     -0.0606841573424    -0.237087779191     
2500000000.0        -0.0654896783037    -0.245674315305     0.934477834399      -0.248163662009     0.934477834399      -0.248163662009     -0.0654896783037    -0.245674315305     
2600000000.0        -0.0704377023198    -0.254118359146     0.92952950283       -0.256708209243     0.92952950283       -0.256708209243     -0.0704377023198    -0.254118359146     
2700000000.0        -0.0755228306975    -0.262416970524     0.924444056852      -0.265107407273     0.924444056852      -0.265107407273     -0.0755228306975    -0.262416970524     
2800000000.0        -0.0807396157546    -0.270567455127     0.919226944081      -0.273358562311     0.919226944081      -0.273358562311     -0.0807396157546    -0.270567455127     
2900000000.0        -0.0860825734158    -0.278567362969     0.913883648532      -0.281459224824     0.913883648532      -0.281459224824     -0.0860825734158    -0.278567362969     
3000000000.0        -0.0915461954755    -0.286414486151     0.908419678351      -0.289407187298     0.908419678351      -0.289407187298     -0.0915461954755    -0.286414486151     
3100000000.0        -0.0971249614918    -0.294106855981     0.902840553927      -0.297200481358     0.902840553927      -0.297200481358     -0.0971249614918    -0.294106855981     
3200000000.0        -0.102813350278     -0.301642739472     0.897151796394      -0.304837374274     0.897151796394      -0.304837374274     -0.102813350278     -0.301642739472     
3300000000.0        -0.108605850957     -0.309020635281     0.891358916577      -0.312316364901     0.891358916577      -0.312316364901     -0.108605850957     -0.309020635281     
3400000000.0        -0.114496973564     -0.316239269112     0.885467404398      -0.319636179089     0.885467404398      -0.319636179089     -0.114496973564     -0.316239269112     
3500000000.0        -0.120481259155     -0.323297588643     0.879482718754      -0.326795764606     0.879482718754      -0.326795764606     -0.120481259155     -0.323297588643     
3600000000.0        -0.126553289422     -0.330194758        0.873410277908      -0.333794285624     0.873410277908      -0.333794285624     -0.126553289422     -0.330194758        
3700000000.0        -0.132707695793     -0.336930151845     0.867255450391      -0.340631116804     0.867255450391      -0.340631116804     -0.132707695793     -0.336930151845     
3800000000.0        -0.138939167997     -0.343503349096     0.861023546434      -0.347305837019     0.861023546434      -0.347305837019     -0.138939167997     -0.343503349096     
3900000000.0        -0.145242462102     -0.349914126346     0.85471980993       -0.353818222778     0.85471980993       -0.353818222778     -0.145242462102     -0.349914126346     
4000000000.0        -0.151612408004     -0.356162451001     0.848349410945      -0.360168241366     0.848349410945      -0.360168241366     -0.151612408004     -0.356162451001     
4100000000.0        -0.158043916383     -0.362248474192     0.841917438762      -0.366356043756     0.841917438762      -0.366356043756     -0.158043916383     -0.362248474192     
4200000000.0        -0.164531985108     -0.368172523497     0.835428895477      -0.372381957336     0.835428895477      -0.372381957336     -0.164531985108     -0.368172523497     
4300000000.0        -0.171071705118     -0.373935095509     0.828888690116      -0.378246478478     0.828888690116      -0.378246478478     -0.171071705118     -0.373935095509     
4400000000.0        -0.177658265758     -0.379536848284     0.822301633302      -0.383950264988     0.822301633302      -0.383950264988     -0.177658265758     -0.379536848284     
4500000000.0        -0.184286959604     -0.384978593718     0.815672432425      -0.389494128485     0.815672432425      -0.389494128485     -0.184286959604     -0.384978593718     
4600000000.0        -0.190953186774     -0.390261289864     0.809005687335      -0.394879026719     0.809005687335      -0.394879026719     -0.190953186774     -0.390261289864     
4700000000.0        -0.197652458743     -0.395386033242     0.802305886527      -0.400106055886     0.802305886527      -0.400106055886     -0.197652458743     -0.395386033242     
4800000000.0        -0.204380401666     -0.400354051158     0.795577403815      -0.405176442944     0.795577403815      -0.405176442944     -0.204380401666     -0.400354051158     
4900000000.0        -0.211132759244     -0.405166694063     0.788824495469      -0.410091537977     0.788824495469      -0.410091537977     -0.211132759244     -0.405166694063     
5000000000.0        -0.217905395131     -0.409825427979     0.782051297804      -0.414852806622     0.782051297804      -0.414852806622     -0.217905395131     -0.409825427979     
5100000000.0        -0.224694294913     -0.414331827014     0.775261825209      -0.419461822583     0.775261825209      -0.419461822583     -0.224694294913     -0.414331827014     
5200000000.0        -0.231495567667     -0.418687565989     0.768459968576      -0.423920260262     0.768459968576      -0.423920260262     -0.231495567667     -0.418687565989     
5300000000.0        -0.238305447133     -0.422894413188     0.761649494141      -0.428229887512     0.761649494141      -0.428229887512     -0.238305447133     -0.422894413188     
5400000000.0        -0.2451202925       -0.42695422327      0.754834042687      -0.432392558543     0.754834042687      -0.432392558543     -0.2451202925       -0.42695422327      
5500000000.0        -0.25193658885      -0.430868930326     0.748017129104      -0.43641020699      0.748017129104      -0.43641020699      -0.25193658885      -0.430868930326     
5600000000.0        -0.258750947262     -0.434640541128     0.741202142291      -0.440284839155     0.741202142291      -0.440284839155     -0.258750947262     -0.434640541128     
5700000000.0        -0.265560104597     -0.43827112856      0.73439234536       -0.444018527443     0.73439234536       -0.444018527443     -0.265560104597     -0.43827112856      
5800000000.0        -0.272360923003     -0.441762825245     0.727590876138      -0.447613403989     0.727590876138      -0.447613403989     -0.272360923003     -0.441762825245     
5900000000.0        -0.279150389137     -0.44511781739      0.720800747944      -0.451071654503     0.720800747944      -0.451071654503     -0.279150389137     -0.44511781739      
6000000000.0        -0.28592561314      -0.448338338832     0.714024850615      -0.454395512321     0.714024850615      -0.454395512321     -0.28592561314      -0.448338338832     
6100000000.0        -0.292683827376     -0.451426665318     0.707265951762      -0.457587252681     0.707265951762      -0.457587252681     -0.292683827376     -0.451426665318     
6200000000.0        -0.299422384958     -0.454385109001     0.700526698249      -0.460649187219     0.700526698249      -0.460649187219     -0.299422384958     -0.454385109001     
6300000000.0        -0.306138758086     -0.457216013163     0.693809617854      -0.463583658701     0.693809617854      -0.463583658701     -0.306138758086     -0.457216013163     
6400000000.0        -0.312830536197     -0.459921747176     0.687117121119      -0.466393035976     0.687117121119      -0.466393035976     -0.312830536197     -0.459921747176     
6500000000.0        -0.319495423965     -0.462504701682     0.680451503346      -0.46907970916      0.680451503346      -0.46907970916      -0.319495423965     -0.462504701682     
6600000000.0        -0.326131239154     -0.464967284014     0.673814946751      -0.471646085057     0.673814946751      -0.471646085057     -0.326131239154     -0.464967284014     
6700000000.0        -0.33273591035      -0.467311913835     0.667209522725      -0.4740945828       0.667209522725      -0.4740945828       -0.33273591035      -0.467311913835     
6800000000.0        -0.339307474578     -0.46954101901      0.660637194225      -0.476427629722     0.660637194225      -0.476427629722     -0.339307474578     -0.46954101901      
6900000000.0        -0.345844074823     -0.471657031699     0.654099818244      -0.478647657453     0.654099818244      -0.478647657453     -0.345844074823     -0.471657031699     
7000000000.0        -0.352343957473     -0.473662384675     0.647599148374      -0.480757098231     0.647599148374      -0.480757098231     -0.352343957473     -0.473662384675     
7100000000.0        -0.358805469691     -0.475559507847     0.641136837432      -0.482758381436     0.641136837432      -0.482758381436     -0.358805469691     -0.475559507847     
7200000000.0        -0.365227056731     -0.477350825011     0.634714440144      -0.484653930328     0.634714440144      -0.484653930328     -0.365227056731     -0.477350825011     
7300000000.0        -0.371607259211     -0.479038750787     0.628333415874      -0.486446159        0.628333415874      -0.486446159        -0.371607259211     -0.479038750787     
7400000000.0        -0.377944710348     -0.480625687776     0.621995131386      -0.488137469523     0.621995131386      -0.488137469523     -0.377944710348     -0.480625687776     
7500000000.0        -0.384238133173     -0.4821140239       0.615700863628      -0.489730249293     0.615700863628      -0.489730249293     -0.384238133173     -0.4821140239       
7600000000.0        -0.390486337738     -0.483506129936     0.609451802532      -0.491226868561     0.609451802532      -0.491226868561     -0.390486337738     -0.483506129936     
7700000000.0        -0.396688218304     -0.484804357229     0.603249053818      -0.492629678151     0.603249053818      -0.492629678151     -0.396688218304     -0.484804357229     
7800000000.0        -0.402842750542     -0.486011035586     0.597093641796      -0.493941007351     0.597093641796      -0.493941007351     -0.402842750542     -0.486011035586     
7900000000.0        -0.408948988745     -0.487128471336     0.590986512155      -0.495163161972     0.590986512155      -0.495163161972     -0.408948988745     -0.487128471336     
8000000000.0        -0.415006063052     -0.488158945552     0.58492853474       -0.496298422578     0.58492853474       -0.496298422578     -0.415006063052     -0.488158945552     
8100000000.0        -0.421013176699     -0.489104712434     0.578920506297      -0.497349042857     0.578920506297      -0.497349042857     -0.421013176699     -0.489104712434     
8200000000.0        -0.426969603297     -0.489967997837     0.572963153198      -0.498317248161     0.572963153198      -0.498317248161     -0.426969603297     -0.489967997837     
8300000000.0        -0.432874684146     -0.490750997941     0.567057134126      -0.499205234169     0.567057134126      -0.499205234169     -0.432874684146     -0.490750997941     
8400000000.0        -0.438727825587     -0.491455878064     0.561203042724      -0.500015165702     0.561203042724      -0.500015165702     -0.438727825587     -0.491455878064     
8500000000.0        -0.444528496394     -0.492084771594     0.555401410199      -0.500749175657     0.555401410199      -0.500749175657     -0.444528496394     -0.492084771594     
8600000000.0        -0.450276225222     -0.492639779053     0.549652707882      -0.501409364069     0.549652707882      -0.501409364069     -0.450276225222     -0.492639779053     
8700000000.0        -0.455970598089     -0.493122967273     0.543957349739      -0.501997797287     0.543957349739      -0.501997797287     -0.455970598089     -0.493122967273     
8800000000.0        -0.461611255923     -0.493536368682     0.538315694824      -0.502516507262     0.538315694824      -0.502516507262     -0.461611255923     -0.493536368682     
8900000000.0        -0.467197892161     -0.493881980697     0.532728049686      -0.502967490941     0.532728049686      -0.502967490941     -0.467197892161     -0.493881980697     
9000000000.0        -0.472730250397     -0.494161765214     0.527194670714      -0.503352709751     0.527194670714      -0.503352709751     -0.472730250397     -0.494161765214     
9100000000.0        -0.4782081221       -0.494377648188     0.521715766425      -0.503674089186     0.521715766425      -0.503674089186     -0.4782081221       -0.494377648188     
9200000000.0        -0.483631344379     -0.494531519303     0.516291499693      -0.503933518474     0.516291499693      -0.503933518474     -0.483631344379     -0.494531519303     
9300000000.0        -0.48899979782      -0.494625231722     0.510921989918      -0.504132850329     0.510921989918      -0.504132850329     -0.48899979782      -0.494625231722     
9400000000.0        -0.494313404374     -0.494660601914     0.505607315134      -0.504273900774     0.505607315134      -0.504273900774     -0.494313404374     -0.494660601914     
9500000000.0        -0.499572125312     -0.494639409551     0.500347514053      -0.504358449042     0.500347514053      -0.504358449042     -0.499572125312     -0.494639409551     
9600000000.0        -0.504775959246     -0.494563397471     0.495142588052      -0.504388237539     0.495142588052      -0.504388237539     -0.504775959246     -0.494563397471     
9700000000.0        -0.509924940198     -0.494434271704     0.489992503091      -0.504364971868     0.489992503091      -0.504364971868     -0.509924940198     -0.494434271704     
9800000000.0        -0.515019135749     -0.494253701557     0.484897191577      -0.504290320912     0.484897191577      -0.504290320912     -0.515019135749     -0.494253701557     
9900000000.0        -0.520058645232     -0.494023319744     0.479856554161      -0.504165916971     0.479856554161      -0.504165916971     -0.520058645232     -0.494023319744     
10000000000.0       -0.525043598        -0.493744722575     0.474870461475      -0.503993355946     0.474870461475      -0.503993355946     -0.525043598        -0.493744722575     
