# Hz S RI R 50.00 
100000000.0         0.0338893298734     0.00239080766155    0.966108899312      -0.00301949746123   0.966108899312      -0.00301949746123   0.0338893298734     0.00239080766155    
200000000.0         0.0341272120016     0.00477907919497    0.965869846424      -0.00603646263047   0.965869846424      -0.00603646263047   0.0341272120016     0.00477907919497    
300000000.0         0.0343213579316     0.00716568222209    0.965674129718      -0.00905176585037   0.965674129718      -0.00905176585037   0.0343213579316     0.00716568222209    
400000000.0         0.0345003715886     0.00955084174433    0.965493145207      -0.0120656344002    0.965493145207      -0.0120656344002    0.0345003715886     0.00955084174433    
500000000.0         0.0346752901766     0.0119346332401     0.965315855631      -0.0150781458136    0.965315855631      -0.0150781458136    0.0346752901766     0.0119346332401     
600000000.0         0.0348517507045     0.0143170659897     0.965136623921      -0.0180893112813    0.965136623921      -0.0180893112813    0.0348517507045     0.0143170659897     
700000000.0         0.0350330859949     0.0166981130144     0.964952117196      -0.0210991056292    0.964952117196      -0.0210991056292    0.0350330859949     0.0166981130144     
800000000.0         0.0352214556696     0.0190777249683     0.964760175772      -0.0241074812338    0.964760175772      -0.0241074812338    0.0352214556696     0.0190777249683     
900000000.0         0.0354183501606     0.0214558376053     0.964559309154      -0.0271143755048    0.964559309154      -0.0271143755048    0.0354183501606     0.0214558376053     
1000000000.0        0.0356248463991     0.0238323762039     0.964348440343      -0.0301197153209    0.964348440343      -0.0301197153209    0.0356248463991     0.0238323762039     
1100000000.0        0.0358417500668     0.0262072583821     0.964126763588      -0.0331234198524    0.964126763588      -0.0331234198524    0.0358417500668     0.0262072583821     
1200000000.0        0.0360696804276     0.0285803959858     0.963893659551      -0.036125402456     0.963893659551      -0.036125402456     0.0360696804276     0.0285803959858     
1300000000.0        0.0363091237429     0.0309516964116     0.963648641895      -0.039125572002     0.963648641895      -0.039125572002     0.0363091237429     0.0309516964116     
1400000000.0        0.0365604684086     0.033321063565      0.963391322146      -0.0421238338371    0.963391322146      -0.0421238338371    0.0365604684086     0.033321063565      
1500000000.0        0.0368240289182     0.0356883985759     0.963121385726      -0.0451200905024    0.963121385726      -0.0451200905024    0.0368240289182     0.0356883985759     
1600000000.0        0.0371000627057     0.0380536003452     0.962838575116      -0.0481142422827    0.962838575116      -0.0481142422827    0.0371000627057     0.0380536003452     
1700000000.0        0.037388782294      0.0404165659721     0.962542677703      -0.0511061876363    0.962542677703      -0.0511061876363    0.037388782294      0.0404165659721     
1800000000.0        0.0376903642538     0.0427771910933     0.962233516825      -0.0540958235363    0.962233516825      -0.0540958235363    0.0376903642538     0.0427771910933     
1900000000.0        0.0380049559385     0.0451353701587     0.961910945033      -0.0570830457471    0.961910945033      -0.0570830457471    0.0380049559385     0.0451353701587     
2000000000.0        0.0383326806359     0.0474909966563     0.961574838939      -0.0600677490516    0.961574838939      -0.0600677490516    0.0383326806359     0.0474909966563     
2100000000.0        0.0386736415672     0.0498439633001     0.96122509522       -0.0630498274399    0.96122509522       -0.0630498274399    0.0386736415672     0.0498439633001     
2200000000.0        0.039027925035      0.0521941621887     0.960861627469      -0.0660291742691    0.960861627469      -0.0660291742691    0.039027925035      0.0521941621887     
2300000000.0        0.0393956029306     0.0545414849391     0.960484363684      -0.0690056823983    0.960484363684      -0.0690056823983    0.0393956029306     0.0545414849391     
2400000000.0        0.0397767347533     0.0568858228036     0.960093244255      -0.0719792443059    0.960093244255      -0.0719792443059    0.0397767347533     0.0568858228036     
2500000000.0        0.040171369254      0.0592270667696     0.959688220316      -0.0749497521909    0.959688220316      -0.0749497521909    0.040171369254      0.0592270667696     
2600000000.0        0.0405795457838     0.0615651076487     0.959269252396      -0.0779170980619    0.959269252396      -0.0779170980619    0.0405795457838     0.0615651076487     
2700000000.0        0.0410012954116     0.063899836154      0.958836309306      -0.0808811738159    0.958836309306      -0.0808811738159    0.0410012954116     0.063899836154      
2800000000.0        0.041436641856      0.0662311429702     0.958389367202      -0.0838418713083    0.958389367202      -0.0838418713083    0.041436641856      0.0662311429702     
2900000000.0        0.0418856022693     0.0685589188155     0.957928408804      -0.0867990824157    0.957928408804      -0.0867990824157    0.0418856022693     0.0685589188155     
3000000000.0        0.042348187901      0.0708830544982     0.957453422731      -0.089752699093     0.957453422731      -0.089752699093     0.042348187901      0.0708830544982     
3100000000.0        0.0428244046621     0.0732034409679     0.956964402939      -0.0927026134249    0.956964402939      -0.0927026134249    0.0428244046621     0.0732034409679     
3200000000.0        0.04331425361       0.0755199693619     0.956461348232      -0.0956487176731    0.956461348232      -0.0956487176731    0.04331425361       0.0755199693619     
3300000000.0        0.0438177313652     0.0778325310487     0.955944261849      -0.0985909043196    0.955944261849      -0.0985909043196    0.0438177313652     0.0778325310487     
3400000000.0        0.0443348304727     0.0801410176673     0.955413151102      -0.101529066107     0.955413151102      -0.101529066107     0.0443348304727     0.0801410176673     
3500000000.0        0.0448655397169     0.0824453211642     0.954868027061      -0.104463096075     0.954868027061      -0.104463096075     0.0448655397169     0.0824453211642     
3600000000.0        0.0454098443969     0.0847453338278     0.954308904276      -0.107392887597     0.954308904276      -0.107392887597     0.0454098443969     0.0847453338278     
3700000000.0        0.045967726568      0.0870409483204     0.95373580054       -0.11031833441      0.95373580054       -0.11031833441      0.045967726568      0.0870409483204     
3800000000.0        0.0465391652565     0.0893320577083     0.953148736671      -0.113239330646     0.953148736671      -0.113239330646     0.0465391652565     0.0893320577083     
3900000000.0        0.0471241366484     0.0916185554903     0.952547736324      -0.116155770862     0.952547736324      -0.116155770862     0.0471241366484     0.0916185554903     
4000000000.0        0.0477226142583     0.0939003356248     0.951932825822      -0.119067550064     0.951932825822      -0.119067550064     0.0477226142583     0.0939003356248     
4100000000.0        0.0483345690811     0.0961772925545     0.951304034008      -0.121974563736     0.951304034008      -0.121974563736     0.0483345690811     0.0961772925545     
4200000000.0        0.0489599697266     0.0984493212315     0.950661392103      -0.124876707864     0.950661392103      -0.124876707864     0.0489599697266     0.0984493212315     
4300000000.0        0.0495987825423     0.10071631714       0.950004933589      -0.127773878956     0.950004933589      -0.127773878956     0.0495987825423     0.10071631714       
4400000000.0        0.0502509717239     0.102978176316      0.949334694097      -0.130665974068     0.949334694097      -0.130665974068     0.0502509717239     0.102978176316      
4500000000.0        0.0509164994155     0.105234795375      0.948650711307      -0.133552890823     0.948650711307      -0.133552890823     0.0509164994155     0.105234795375      
4600000000.0        0.051595325801      0.107486071523      0.947953024856      -0.136434527432     0.947953024856      -0.136434527432     0.051595325801      0.107486071523      
4700000000.0        0.052287409188      0.109731902582      0.947241676255      -0.139310782713     0.947241676255      -0.139310782713     0.052287409188      0.109731902582      
4800000000.0        0.0529927060847     0.111972187007      0.946516708809      -0.142181556111     0.946516708809      -0.142181556111     0.0529927060847     0.111972187007      
4900000000.0        0.0537111712703     0.114206823905      0.945778167553      -0.145046747715     0.945778167553      -0.145046747715     0.0537111712703     0.114206823905      
5000000000.0        0.0544427578607     0.116435713047      0.945026099179      -0.147906258274     0.945026099179      -0.147906258274     0.0544427578607     0.116435713047      
5100000000.0        0.0551874173689     0.118658754893      0.944260551981      -0.150759989216     0.944260551981      -0.150759989216     0.0551874173689     0.118658754893      
5200000000.0        0.0559450997614     0.1208758506        0.943481575797      -0.153607842664     0.943481575797      -0.153607842664     0.0559450997614     0.1208758506        
5300000000.0        0.0567157535112     0.123086902042      0.942689221954      -0.156449721449     0.942689221954      -0.156449721449     0.0567157535112     0.123086902042      
5400000000.0        0.0574993256463     0.125291811824      0.941883543222      -0.159285529128     0.941883543222      -0.159285529128     0.0574993256463     0.125291811824      
5500000000.0        0.0582957617969     0.127490483295      0.941064593767      -0.162115169996     0.941064593767      -0.162115169996     0.0582957617969     0.127490483295      
5600000000.0        0.0591050062383     0.129682820563      0.940232429105      -0.164938549102     0.940232429105      -0.164938549102     0.0591050062383     0.129682820563      
5700000000.0        0.0599270019323     0.131868728508      0.939387106065      -0.167755572262     0.939387106065      -0.167755572262     0.0599270019323     0.131868728508      
5800000000.0        0.060761690566      0.134048112797      0.938528682747      -0.170566146071     0.938528682747      -0.170566146071     0.060761690566      0.134048112797      
5900000000.0        0.0616090125891     0.136220879893      0.937657218484      -0.173370177916     0.937657218484      -0.173370177916     0.0616090125891     0.136220879893      
6000000000.0        0.062468907249      0.138386937068      0.936772773812      -0.17616757599      0.936772773812      -0.17616757599      0.062468907249      0.138386937068      
6100000000.0        0.0633413126245     0.140546192419      0.93587541043       -0.178958249302     0.93587541043       -0.178958249302     0.0633413126245     0.140546192419      
6200000000.0        0.0642261656579     0.142698554873      0.934965191172      -0.181742107689     0.934965191172      -0.181742107689     0.0642261656579     0.142698554873      
6300000000.0        0.0651234021861     0.144843934202      0.934042179974      -0.184519061827     0.934042179974      -0.184519061827     0.0651234021861     0.144843934202      
6400000000.0        0.0660329569701     0.146982241034      0.933106441847      -0.187289023241     0.933106441847      -0.187289023241     0.0660329569702     0.146982241034      
6500000000.0        0.0669547637239     0.149113386859      0.932158042843      -0.190051904318     0.932158042843      -0.190051904318     0.0669547637239     0.149113386859      
6600000000.0        0.0678887551419     0.151237284045      0.931197050034      -0.192807618314     0.931197050034      -0.192807618314     0.0678887551419     0.151237284045      
6700000000.0        0.0688348629256     0.153353845841      0.930223531482      -0.195556079364     0.930223531482      -0.195556079364     0.0688348629256     0.153353845841      
6800000000.0        0.0697930178101     0.155462986393      0.92923755621       -0.198297202494     0.92923755621       -0.198297202494     0.0697930178101     0.155462986393      
6900000000.0        0.0707631495884     0.157564620748      0.928239194183      -0.201030903626     0.928239194183      -0.201030903626     0.0707631495884     0.157564620748      
7000000000.0        0.0717451871366     0.159658664863      0.92722851628       -0.203757099591     0.92722851628       -0.203757099591     0.0717451871366     0.159658664863      
7100000000.0        0.0727390584374     0.161745035617      0.92620559427       -0.206475708134     0.92620559427       -0.206475708134     0.0727390584374     0.161745035617      
7200000000.0        0.0737446906034     0.163823650814      0.92517050079       -0.209186647922     0.92517050079       -0.209186647922     0.0737446906034     0.163823650814      
7300000000.0        0.0747620099001     0.165894429194      0.924123309321      -0.211889838554     0.924123309321      -0.211889838554     0.0747620099001     0.165894429194      
7400000000.0        0.0757909417677     0.16795729044       0.923064094167      -0.214585200569     0.923064094167      -0.214585200569     0.0757909417677     0.16795729044       
7500000000.0        0.0768314108431     0.170012155183      0.921992930433      -0.217272655447     0.921992930433      -0.217272655447     0.0768314108431     0.170012155183      
7600000000.0        0.0778833409814     0.172058945011      0.920909894002      -0.219952125626     0.920909894002      -0.219952125626     0.0778833409814     0.172058945011      
7700000000.0        0.0789466552766     0.174097582475      0.919815061516      -0.222623534498     0.919815061516      -0.222623534498     0.0789466552766     0.174097582475      
7800000000.0        0.0800212760823     0.176127991095      0.918708510357      -0.225286806422     0.918708510357      -0.225286806422     0.0800212760823     0.176127991095      
7900000000.0        0.0811071250319     0.178150095365      0.917590318621      -0.227941866728     0.917590318621      -0.227941866728     0.0811071250319     0.178150095365      
8000000000.0        0.0822041230586     0.180163820759      0.916460565104      -0.230588641722     0.916460565104      -0.230588641722     0.0822041230586     0.180163820759      
8100000000.0        0.0833121904149     0.182169093738      0.91531932928       -0.233227058694     0.91531932928       -0.233227058694     0.0833121904149     0.182169093738      
8200000000.0        0.0844312466922     0.184165841754      0.91416669128       -0.235857045918     0.91416669128       -0.235857045918     0.0844312466922     0.184165841754      
8300000000.0        0.0855612108394     0.186153993254      0.913002731877      -0.238478532663     0.913002731877      -0.238478532663     0.0855612108394     0.186153993254      
8400000000.0        0.0867020011822     0.188133477684      0.911827532463      -0.241091449194     0.911827532463      -0.241091449194     0.0867020011822     0.188133477684      
8500000000.0        0.0878535354414     0.190104225495      0.910641175033      -0.243695726775     0.910641175033      -0.243695726775     0.0878535354414     0.190104225495      
8600000000.0        0.0890157307514     0.192066168149      0.909443742167      -0.246291297677     0.909443742167      -0.246291297677     0.0890157307514     0.192066168149      
8700000000.0        0.0901885036781     0.194019238118      0.908235317008      -0.248878095181     0.908235317008      -0.248878095181     0.0901885036781     0.194019238118      
8800000000.0        0.0913717702373     0.195963368888      0.907015983249      -0.251456053576     0.907015983249      -0.251456053576     0.0913717702373     0.195963368888      
8900000000.0        0.0925654459119     0.197898494967      0.905785825114      -0.254025108172     0.905785825114      -0.254025108172     0.0925654459119     0.197898494967      
9000000000.0        0.0937694456698     0.199824551884      0.904544927337      -0.256585195295     0.904544927337      -0.256585195295     0.0937694456698     0.199824551884      
9100000000.0        0.0949836839811     0.201741476192      0.903293375148      -0.259136252291     0.903293375148      -0.259136252291     0.0949836839811     0.201741476192      
9200000000.0        0.0962080748355     0.203649205471      0.902031254257      -0.261678217532     0.902031254257      -0.261678217532     0.0962080748355     0.203649205471      
9300000000.0        0.0974425317589     0.205547678332      0.900758650833      -0.264211030418     0.900758650833      -0.264211030418     0.0974425317589     0.205547678332      
9400000000.0        0.0986869678308     0.207436834416      0.899475651489      -0.266734631373     0.899475651489      -0.266734631373     0.0986869678308     0.207436834416      
9500000000.0        0.0999412957006     0.209316614398      0.898182343268      -0.269248961855     0.898182343268      -0.269248961855     0.0999412957006     0.209316614398      
9600000000.0        0.101205427604      0.211186959985      0.89687881362       -0.271753964351     0.89687881362       -0.271753964351     0.101205427604      0.211186959985      
9700000000.0        0.102479275381      0.213047813925      0.895565150394      -0.274249582384     0.895565150394      -0.274249582384     0.102479275381      0.213047813925      
9800000000.0        0.103762750488      0.214899119998      0.894241441813      -0.276735760508     0.894241441813      -0.276735760508     0.103762750488      0.214899119998      
9900000000.0        0.105055764019      0.216740823026      0.892907776466      -0.279212444315     0.892907776466      -0.279212444315     0.105055764019      0.216740823026      
10000000000.0       0.106358226719      0.218572868866      0.891564243285      -0.28167958043      0.891564243285      -0.28167958043      0.106358226719      0.218572868866      
