# Hz S RI R 50.00 
100000000.0         0.000344470674685   -0.00140355803646   0.999640552067      -0.0030135237073    0.999640552067      -0.0030135237073    0.000344470674686   -0.00140355803646   
200000000.0         0.000332040509275   -0.0028071079708    0.999619491054      -0.00602705514218   0.999619491054      -0.00602705514218   0.000332040509275   -0.0028071079708    
300000000.0         0.00031053710558    -0.00421062037932   0.999587987866      -0.00904058659754   0.999587987866      -0.00904058659754   0.00031053710558    -0.00421062037932   
400000000.0         0.000280263363338   -0.00561406051842   0.999545737977      -0.0120540974856    0.999545737977      -0.0120540974856    0.000280263363338   -0.00561406051842   
500000000.0         0.000241335313095   -0.00701739034042   0.999492623783      -0.015067561204     0.999492623783      -0.015067561204     0.000241335313095   -0.00701739034042   
600000000.0         0.000193811824305   -0.00842056948744   0.999428585016      -0.0180809472785    0.999428585016      -0.0180809472785    0.000193811824305   -0.00842056948744   
700000000.0         0.000137727563448   -0.00982355584288   0.999353585865      -0.021094222422     0.999353585865      -0.021094222422     0.000137727563448   -0.00982355584288   
800000000.0         7.3105024879e-05    -0.0112263058771    0.999267603012      -0.0241073511589    0.999267603012      -0.0241073511589    7.3105024879e-05    -0.0112263058771    
900000000.0         -4.01072977052e-08  -0.0126287748834    0.999170620323      -0.0271202962335    0.999170620323      -0.0271202962335    -4.01072977052e-08  -0.0126287748834    
1000000000.0        -8.16962361886e-05  -0.0140309171489    0.99906262617       -0.030133018897     0.99906262617       -0.030133018897     -8.16962361884e-05  -0.0140309171489    
1100000000.0        -0.000171854333746  -0.0154326860838    0.998943611948      -0.0331454791189    0.998943611948      -0.0331454791189    -0.000171854333746  -0.0154326860838    
1200000000.0        -0.000270507032007  -0.0168340343225    0.998813571201      -0.0361576357497    0.998813571201      -0.0361576357497    -0.000270507032007  -0.0168340343225    
1300000000.0        -0.000377648047888  -0.0182349138054    0.99867249908       -0.0391694466494    0.99867249908       -0.0391694466494    -0.000377648047888  -0.0182349138054    
1400000000.0        -0.000493271802177  -0.019635275846     0.99852039198       -0.0421808687915    0.99852039198       -0.0421808687915    -0.000493271802177  -0.019635275846     
1500000000.0        -0.000617373157352  -0.0210350711877    0.998357247311      -0.0451918583497    0.998357247311      -0.0451918583497    -0.000617373157352  -0.0210350711877    
1600000000.0        -0.000749947231271  -0.0224342500522    0.998183063328      -0.0482023707701    0.998183063328      -0.0482023707701    -0.000749947231271  -0.0224342500522    
1700000000.0        -0.000890989260997  -0.0238327621814    0.997997839016      -0.0512123608344    0.997997839016      -0.0512123608344    -0.000890989260996  -0.0238327621814    
1800000000.0        -0.00104049450081   -0.0252305568746    0.997801574008      -0.0542217827132    0.997801574008      -0.0542217827132    -0.00104049450081   -0.0252305568746    
1900000000.0        -0.00119845814414   -0.0266275830213    0.997594268523      -0.0572305900137    0.997594268523      -0.0572305900137    -0.00119845814414   -0.0266275830213    
2000000000.0        -0.00136487526266   -0.0280237891306    0.99737592332       -0.0602387358219    0.99737592332       -0.0602387358219    -0.00136487526266   -0.0280237891306    
2100000000.0        -0.00153974075791   -0.0294191233581    0.997146539667      -0.0632461727397    0.997146539667      -0.0632461727397    -0.00153974075791   -0.0294191233581    
2200000000.0        -0.00172304932223   -0.0308135335302    0.996906119313      -0.0662528529194    0.996906119313      -0.0662528529194    -0.00172304932223   -0.0308135335302    
2300000000.0        -0.00191479540691   -0.0322069671665    0.99665466447       -0.0692587280943    0.99665466447       -0.0692587280943    -0.00191479540691   -0.0322069671665    
2400000000.0        -0.00211497319565   -0.0335993715009    0.9963921778        -0.0722637496069    0.9963921778        -0.0722637496069    -0.00211497319565   -0.0335993715009    
2500000000.0        -0.0023235765824    -0.0349906935005    0.996118662402      -0.0752678684348    0.996118662402      -0.0752678684348    -0.0023235765824    -0.0349906935005    
2600000000.0        -0.00254059915259   -0.0363808798839    0.995834121805      -0.0782710352149    0.995834121805      -0.0782710352149    -0.00254059915259   -0.0363808798839    
2700000000.0        -0.00276603416697   -0.0377698771385    0.995538559962      -0.0812732002658    0.995538559962      -0.0812732002658    -0.00276603416697   -0.0377698771385    
2800000000.0        -0.00299987454778   -0.0391576315361    0.995231981243      -0.0842743136086    0.995231981243      -0.0842743136086    -0.00299987454778   -0.0391576315361    
2900000000.0        -0.00324211286668   -0.0405440891484    0.994914390435      -0.0872743249863    0.994914390435      -0.0872743249863    -0.00324211286668   -0.0405440891484    
3000000000.0        -0.00349274133416   -0.0419291958615    0.994585792737      -0.0902731838828    0.994585792737      -0.0902731838828    -0.00349274133416   -0.0419291958615    
3100000000.0        -0.00375175179027   -0.0433128973897    0.994246193762      -0.0932708395402    0.994246193762      -0.0932708395402    -0.00375175179027   -0.0433128973897    
3200000000.0        -0.00401913569636   -0.0446951392888    0.99389559953       -0.0962672409751    0.99389559953       -0.0962672409751    -0.00401913569636   -0.0446951392888    
3300000000.0        -0.00429488412777   -0.0460758669688    0.993534016472      -0.0992623369949    0.993534016472      -0.0992623369949    -0.00429488412777   -0.0460758669688    
3400000000.0        -0.00457898776731   -0.0474550257059    0.993161451429      -0.102256076212     0.993161451429      -0.102256076212     -0.00457898776731   -0.0474550257059    
3500000000.0        -0.00487143689939   -0.0488325606549    0.992777911651      -0.10524840706      0.992777911651      -0.10524840706      -0.00487143689939   -0.0488325606549    
3600000000.0        -0.00517222140478   -0.05020841686      0.992383404797      -0.108239277806     0.992383404797      -0.108239277806     -0.00517222140478   -0.05020841686      
3700000000.0        -0.00548133075589   -0.0515825392664    0.991977938936      -0.111228636563     0.991977938936      -0.111228636563     -0.00548133075589   -0.0515825392664    
3800000000.0        -0.00579875401255   -0.0529548727304    0.991561522548      -0.114216431306     0.991561522548      -0.114216431306     -0.00579875401255   -0.0529548727304    
3900000000.0        -0.00612447981814   -0.0543253620304    0.991134164523      -0.11720260988      0.991134164523      -0.11720260988      -0.00612447981814   -0.0543253620304    
4000000000.0        -0.00645849639618   -0.0556939518767    0.990695874161      -0.120187120017     0.990695874161      -0.120187120017     -0.00645849639618   -0.0556939518767    
4100000000.0        -0.00680079154725   -0.0570605869216    0.990246661175      -0.123169909344     0.990246661175      -0.123169909344     -0.00680079154725   -0.0570605869216    
4200000000.0        -0.00715135264618   -0.0584252117687    0.98978653569       -0.126150925393     0.98978653569       -0.126150925393     -0.00715135264618   -0.0584252117687    
4300000000.0        -0.00751016663958   -0.0597877709828    0.989315508243      -0.129130115616     0.989315508243      -0.129130115616     -0.00751016663958   -0.0597877709828    
4400000000.0        -0.00787722004362   -0.0611482090986    0.988833589784      -0.132107427394     0.988833589784      -0.132107427394     -0.00787722004362   -0.0611482090986    
4500000000.0        -0.00825249894206   -0.06250647063      0.988340791677      -0.135082808046     0.988340791677      -0.135082808046     -0.00825249894206   -0.06250647063      
4600000000.0        -0.00863598898451   -0.0638625000788    0.987837125697      -0.13805620484      0.987837125697      -0.13805620484      -0.00863598898451   -0.0638625000788    
4700000000.0        -0.00902767538492   -0.0652162419434    0.987322604036      -0.141027565002     0.987322604036      -0.141027565002     -0.00902767538492   -0.0652162419434    
4800000000.0        -0.00942754292026   -0.0665676407272    0.986797239298      -0.143996835728     0.986797239298      -0.143996835728     -0.00942754292026   -0.0665676407272    
4900000000.0        -0.0098355759294    -0.0679166409468    0.986261044502      -0.146963964189     0.986261044502      -0.146963964189     -0.0098355759294    -0.0679166409468    
5000000000.0        -0.0102517583121    -0.0692631871406    0.98571403308       -0.149928897546     0.98571403308       -0.149928897546     -0.0102517583121    -0.0692631871406    
5100000000.0        -0.0106760735285    -0.0706072238763    0.985156218879      -0.152891582953     0.985156218879      -0.152891582953     -0.0106760735285    -0.0706072238763    
5200000000.0        -0.0111085045981    -0.071948695759     0.98458761616       -0.155851967569     0.98458761616       -0.155851967569     -0.0111085045981    -0.071948695759     
5300000000.0        -0.0115490340996    -0.0732875474388    0.984008239596      -0.158809998567     0.984008239596      -0.158809998567     -0.0115490340996    -0.0732875474388    
5400000000.0        -0.0119976441707    -0.0746237236189    0.983418104274      -0.161765623139     0.983418104274      -0.161765623139     -0.0119976441707    -0.0746237236189    
5500000000.0        -0.0124543165075    -0.0759571690623    0.982817225695      -0.16471878851      0.982817225695      -0.16471878851      -0.0124543165075    -0.0759571690623    
5600000000.0        -0.0129190323652    -0.0772878286001    0.98220561977       -0.16766944194      0.98220561977       -0.16766944194      -0.0129190323652    -0.0772878286001    
5700000000.0        -0.0133917725573    -0.0786156471379    0.981583302825      -0.170617530734     0.981583302825      -0.170617530734     -0.0133917725573    -0.0786156471379    
5800000000.0        -0.0138725174568    -0.0799405696636    0.980950291594      -0.173563002253     0.980950291594      -0.173563002253     -0.0138725174568    -0.0799405696636    
5900000000.0        -0.0143612469958    -0.081262541254     0.980306603222      -0.176505803917     0.980306603222      -0.176505803917     -0.0143612469958    -0.081262541254     
6000000000.0        -0.0148579406666    -0.0825815070821    0.979652255265      -0.179445883215     0.979652255265      -0.179445883215     -0.0148579406666    -0.0825815070821    
6100000000.0        -0.0153625775217    -0.0838974124238    0.978987265686      -0.182383187711     0.978987265686      -0.182383187711     -0.0153625775217    -0.0838974124238    
6200000000.0        -0.0158751361753    -0.0852102026646    0.978311652856      -0.185317665054     0.978311652856      -0.185317665054     -0.0158751361753    -0.0852102026646    
6300000000.0        -0.0163955948032    -0.0865198233062    0.977625435551      -0.188249262982     0.977625435551      -0.188249262982     -0.0163955948032    -0.0865198233062    
6400000000.0        -0.0169239311446    -0.0878262199735    0.976928632956      -0.19117792933      0.976928632956      -0.19117792933      -0.0169239311446    -0.0878262199735    
6500000000.0        -0.0174601225025    -0.0891293384203    0.976221264655      -0.194103612036     0.976221264655      -0.194103612036     -0.0174601225025    -0.0891293384203    
6600000000.0        -0.0180041457453    -0.0904291245365    0.975503350637      -0.197026259153     0.975503350637      -0.197026259153     -0.0180041457453    -0.0904291245365    
6700000000.0        -0.0185559773078    -0.0917255243538    0.974774911294      -0.199945818847     0.974774911294      -0.199945818847     -0.0185559773078    -0.0917255243538    
6800000000.0        -0.0191155931924    -0.0930184840521    0.974035967413      -0.20286223941      0.974035967413      -0.20286223941      -0.0191155931924    -0.0930184840521    
6900000000.0        -0.0196829689711    -0.0943079499659    0.973286540183      -0.205775469266     0.973286540183      -0.205775469266     -0.0196829689711    -0.0943079499659    
7000000000.0        -0.0202580797862    -0.0955938685898    0.972526651187      -0.208685456973     0.972526651187      -0.208685456973     -0.0202580797861    -0.0955938685898    
7100000000.0        -0.0208409003525    -0.0968761865847    0.971756322403      -0.211592151235     0.971756322403      -0.211592151235     -0.0208409003525    -0.0968761865847    
7200000000.0        -0.0214314049591    -0.098154850784     0.970975576203      -0.214495500904     0.970975576203      -0.214495500904     -0.0214314049591    -0.098154850784     
7300000000.0        -0.0220295674704    -0.099429808199     0.970184435347      -0.217395454988     0.970184435347      -0.217395454988     -0.0220295674704    -0.099429808199     
7400000000.0        -0.0226353613288    -0.100701006024     0.969382922988      -0.220291962656     0.969382922988      -0.220291962656     -0.0226353613288    -0.100701006024     
7500000000.0        -0.0232487595563    -0.101968391645     0.96857106266       -0.223184973244     0.96857106266       -0.223184973244     -0.0232487595563    -0.101968391645     
7600000000.0        -0.0238697347564    -0.103231912639     0.967748878288      -0.226074436263     0.967748878288      -0.226074436263     -0.0238697347564    -0.103231912639     
7700000000.0        -0.0244982591163    -0.104491516787     0.966916394173      -0.2289603014       0.966916394173      -0.2289603014       -0.0244982591163    -0.104491516787     
7800000000.0        -0.0251343044091    -0.105747152074     0.966073635002      -0.231842518528     0.966073635002      -0.231842518528     -0.0251343044091    -0.105747152074     
7900000000.0        -0.0257778419962    -0.106998766697     0.965220625836      -0.234721037711     0.965220625836      -0.234721037711     -0.0257778419962    -0.106998766697     
8000000000.0        -0.0264288428292    -0.108246309068     0.964357392111      -0.237595809206     0.964357392111      -0.237595809206     -0.0264288428292    -0.108246309068     
8100000000.0        -0.0270872774525    -0.109489727822     0.96348395964       -0.240466783473     0.96348395964       -0.240466783473     -0.0270872774525    -0.109489727822     
8200000000.0        -0.027753116006     -0.11072897182      0.962600354602      -0.243333911176     0.962600354602      -0.243333911176     -0.027753116006     -0.11072897182      
8300000000.0        -0.0284263282273    -0.111963990155     0.961706603545      -0.246197143191     0.961706603545      -0.246197143191     -0.0284263282273    -0.111963990155     
8400000000.0        -0.0291068834541    -0.113194732156     0.960802733385      -0.249056430612     0.960802733385      -0.249056430612     -0.0291068834541    -0.113194732156     
8500000000.0        -0.0297947506275    -0.114421147395     0.959888771396      -0.251911724751     0.959888771396      -0.251911724751     -0.0297947506275    -0.114421147395     
8600000000.0        -0.0304898982941    -0.115643185687     0.958964745214      -0.254762977149     0.958964745214      -0.254762977149     -0.0304898982941    -0.115643185687     
8700000000.0        -0.031192294609     -0.116860797103     0.958030682832      -0.257610139576     0.958030682832      -0.257610139576     -0.031192294609     -0.116860797103     
8800000000.0        -0.0319019073387    -0.118073931965     0.957086612596      -0.260453164039     0.957086612596      -0.260453164039     -0.0319019073387    -0.118073931965     
8900000000.0        -0.0326187038638    -0.119282540859     0.956132563204      -0.263292002786     0.956132563204      -0.263292002786     -0.0326187038638    -0.119282540859     
9000000000.0        -0.033342651182     -0.120486574634     0.9551685637        -0.266126608308     0.9551685637        -0.266126608308     -0.033342651182     -0.120486574634     
9100000000.0        -0.0340737159113    -0.121685984407     0.954194643475      -0.268956933349     0.954194643475      -0.268956933349     -0.0340737159113    -0.121685984407     
9200000000.0        -0.0348118642928    -0.122880721573     0.953210832261      -0.271782930903     0.953210832261      -0.271782930903     -0.0348118642928    -0.122880721573     
9300000000.0        -0.0355570621938    -0.1240707378       0.952217160128      -0.274604554226     0.952217160128      -0.274604554226     -0.0355570621938    -0.1240707378       
9400000000.0        -0.0363092751112    -0.125255985041     0.951213657483      -0.277421756834     0.951213657483      -0.277421756834     -0.0363092751112    -0.125255985041     
9500000000.0        -0.0370684681744    -0.126436415536     0.950200355063      -0.280234492513     0.950200355063      -0.280234492513     -0.0370684681744    -0.126436415536     
9600000000.0        -0.0378346061489    -0.127611981814     0.949177283936      -0.283042715318     0.949177283936      -0.283042715318     -0.0378346061489    -0.127611981814     
9700000000.0        -0.0386076534391    -0.128782636699     0.948144475494      -0.285846379579     0.948144475494      -0.285846379579     -0.0386076534391    -0.128782636699     
9800000000.0        -0.0393875740922    -0.129948333313     0.947101961451      -0.288645439906     0.947101961451      -0.288645439906     -0.0393875740922    -0.129948333313     
9900000000.0        -0.0401743318012    -0.131109025082     0.946049773842      -0.291439851192     0.946049773842      -0.291439851192     -0.0401743318012    -0.131109025082     
10000000000.0       -0.0409678899084    -0.132264665737     0.944987945013      -0.294229568618     0.944987945013      -0.294229568618     -0.0409678899084    -0.132264665737     
