# Hz S RI R 50.00 
100000000.0         0.0614123934571     0.00449091877129    0.938583940507      -0.00604361170485   0.938583940507      -0.00604361170485   0.0614123934571     0.00449091877129    
200000000.0         0.0618787010531     0.00897234381715    0.938112502658      -0.0120777469606    0.938112502658      -0.0120777469606    0.0618787010531     0.00897234381715    
300000000.0         0.0622996510419     0.0134468176846     0.937683957358      -0.0181049636944    0.937683957358      -0.0181049636944    0.0622996510419     0.0134468176846     
400000000.0         0.0627255100452     0.0179146133024     0.937248037237      -0.02412554866      0.937248037237      -0.02412554866      0.0627255100452     0.0179146133024     
500000000.0         0.0631756002046     0.0223754779966     0.936785419397      -0.030139262226     0.936785419397      -0.030139262226     0.0631756002046     0.0223754779966     
600000000.0         0.0636597241808     0.0268289282592     0.936286300378      -0.0361456334159    0.936286300378      -0.0361456334159    0.0636597241808     0.0268289282592     
700000000.0         0.0641836154483     0.0312743558386     0.935744945851      -0.0421440661365    0.935744945851      -0.0421440661365    0.0641836154483     0.0312743558386     
800000000.0         0.0647509286413     0.0357110771548     0.935157700261      -0.0481338886764    0.935157700261      -0.0481338886764    0.0647509286413     0.0357110771548     
900000000.0         0.0653641262308     0.0401383600323     0.934522100147      -0.0541143804932    0.934522100147      -0.0541143804932    0.0653641262308     0.0401383600323     
1000000000.0        0.0660249282059     0.0445554397036     0.933836424457      -0.0600847882556    0.933836424457      -0.0600847882556    0.0660249282059     0.0445554397036     
1100000000.0        0.0667345621957     0.0489615291324     0.933099444425      -0.0660443361946    0.933099444425      -0.0660443361946    0.0667345621957     0.0489615291324     
1200000000.0        0.067493912623      0.0533558260716     0.932310274412      -0.0719922331835    0.932310274412      -0.0719922331835    0.067493912623      0.0533558260716     
1300000000.0        0.0683036146368     0.0577375181243     0.931468277976      -0.0779276778161    0.931468277976      -0.0779276778161    0.0683036146368     0.0577375181243     
1400000000.0        0.0691641159394     0.0621057865194     0.930573006043      -0.0838498621954    0.930573006043      -0.0838498621954    0.0691641159394     0.0621057865194     
1500000000.0        0.0700757189955     0.0664598090258     0.929624154696      -0.0897579748599    0.929624154696      -0.0897579748599    0.0700757189955     0.0664598090258     
1600000000.0        0.0710386107563     0.0707987622681     0.928621535455      -0.0956512031081    0.928621535455      -0.0956512031081    0.0710386107563     0.0707987622681     
1700000000.0        0.0720528841558     0.0751218236157     0.927565053773      -0.101528734896     0.927565053773      -0.101528734896     0.0720528841558     0.0751218236157     
1800000000.0        0.0731185540253     0.0794281727565     0.926454693128      -0.107389760417     0.926454693128      -0.107389760417     0.0731185540253     0.0794281727565     
1900000000.0        0.0742355691229     0.0837169930364     0.925290502989      -0.113233473448     0.925290502989      -0.113233473448     0.0742355691229     0.0837169930364     
2000000000.0        0.0754038213999     0.0879874726158     0.924072589552      -0.119059072512     0.924072589552      -0.119059072512     0.0754038213999     0.0879874726158     
2100000000.0        0.0766231532618     0.0922388054851     0.922801108478      -0.124865761896     0.922801108478      -0.124865761896     0.0766231532618     0.0922388054851     
2200000000.0        0.0778933633498     0.0964701923664     0.921476259112      -0.130652752556     0.921476259112      -0.130652752556     0.0778933633498     0.0964701923664     
2300000000.0        0.0792142112142     0.100680841523      0.920098279807      -0.136419262935     0.920098279807      -0.136419262935     0.0792142112142     0.100680841523      
2400000000.0        0.0805854211459     0.104869969491      0.918667444096      -0.142164519694     0.918667444096      -0.142164519694     0.0805854211459     0.104869969491      
2500000000.0        0.0820066853601     0.10903680175       0.917184057507      -0.147887758387     0.917184057507      -0.147887758387     0.0820066853601     0.10903680175       
2600000000.0        0.0834776666767     0.113180573339      0.915648454881      -0.153588224073     0.915648454881      -0.153588224073     0.0834776666767     0.113180573339      
2700000000.0        0.0849980008059     0.117300529415      0.914060998088      -0.159265171892     0.914060998088      -0.159265171892     0.0849980008059     0.117300529415      
2800000000.0        0.0865672983198     0.121395925786      0.912422074054      -0.164917867587     0.912422074054      -0.164917867587     0.0865672983198     0.121395925786      
2900000000.0        0.0881851463741     0.125466029394      0.910732093044      -0.170545587992     0.910732093044      -0.170545587992     0.0881851463741     0.125466029394      
3000000000.0        0.0898511102275     0.129510118769      0.908991487134      -0.176147621491     0.908991487134      -0.176147621491     0.0898511102275     0.129510118769      
3100000000.0        0.091564734598      0.133527484453      0.907200708862      -0.18172326844      0.907200708862      -0.18172326844      0.091564734598      0.133527484453      
3200000000.0        0.0933255448846     0.137517429391      0.905360230004      -0.187271841565     0.905360230004      -0.187271841565     0.0933255448846     0.137517429391      
3300000000.0        0.0951330482797     0.141479269303      0.903470540461      -0.192792666328     0.903470540461      -0.192792666328     0.0951330482797     0.141479269303      
3400000000.0        0.0969867347901     0.145412333022      0.901532147237      -0.198285081276     0.901532147237      -0.198285081276     0.0969867347901     0.145412333022      
3500000000.0        0.0988860781821     0.149315962821      0.899545573498      -0.203748438358     0.899545573498      -0.203748438358     0.0988860781821     0.149315962821      
3600000000.0        0.100830536863      0.153189514701      0.897511357684      -0.209182103223     0.897511357684      -0.209182103223     0.100830536863      0.153189514701      
3700000000.0        0.102819554711      0.157032358674      0.895430052686      -0.214585455501     0.895430052686      -0.214585455501     0.102819554711      0.157032358674      
3800000000.0        0.104852561855      0.160843879014      0.893302225062      -0.219957889057     0.893302225062      -0.219957889057     0.104852561855      0.160843879014      
3900000000.0        0.106928975419      0.164623474496      0.891128454289      -0.225298812225     0.891128454289      -0.225298812225     0.106928975419      0.164623474496      
4000000000.0        0.109048200236      0.168370558606      0.888909332061      -0.230607648029     0.888909332061      -0.230607648029     0.109048200236      0.168370558606      
4100000000.0        0.111209629527      0.172084559747      0.886645461596      -0.235883834378     0.886645461596      -0.235883834378     0.111209629527      0.172084559747      
4200000000.0        0.113412645557      0.175764921408      0.88433745699       -0.241126824251     0.88433745699       -0.241126824251     0.113412645557      0.175764921408      
4300000000.0        0.115656620271      0.179411102336      0.881985942575      -0.246336085852     0.881985942575      -0.246336085852     0.115656620271      0.179411102336      
4400000000.0        0.117940915908      0.183022576673      0.879591552307      -0.251511102762     0.879591552307      -0.251511102762     0.117940915908      0.183022576673      
4500000000.0        0.120264885598      0.186598834086      0.87715492917       -0.256651374064     0.87715492917       -0.256651374064     0.120264885598      0.186598834086      
4600000000.0        0.122627873945      0.190139379877      0.874676724592      -0.261756414456     0.874676724592      -0.261756414456     0.122627873945      0.190139379877      
4700000000.0        0.125029217592      0.193643735082      0.872157597879      -0.266825754345     0.872157597879      -0.266825754345     0.125029217592      0.193643735082      
4800000000.0        0.127468245774      0.197111436544      0.869598215662      -0.271858939928     0.869598215662      -0.271858939928     0.127468245774      0.197111436544      
4900000000.0        0.129944280859      0.200542036982      0.866999251356      -0.276855533259     0.866999251356      -0.276855533259     0.129944280859      0.200542036982      
5000000000.0        0.132456638882      0.203935105037      0.864361384631      -0.281815112292     0.864361384631      -0.281815112292     0.132456638882      0.203935105037      
5100000000.0        0.135004630055      0.207290225307      0.86168530089       -0.286737270924     0.86168530089       -0.286737270924     0.135004630055      0.207290225307      
5200000000.0        0.137587559281      0.210606998369      0.858971690767      -0.291621619009     0.858971690767      -0.291621619009     0.137587559281      0.210606998369      
5300000000.0        0.14020472665       0.21388504078       0.856221249624      -0.296467782369     0.856221249624      -0.296467782369     0.14020472665       0.21388504078       
5400000000.0        0.142855427926      0.217123985076      0.853434677066      -0.301275402782     0.853434677066      -0.301275402782     0.142855427926      0.217123985076      
5500000000.0        0.145538955024      0.220323479746      0.850612676464      -0.306044137967     0.850612676464      -0.306044137967     0.145538955024      0.220323479746      
5600000000.0        0.148254596481      0.2234831892        0.847755954484      -0.310773661549     0.847755954484      -0.310773661549     0.148254596481      0.2234831892        
5700000000.0        0.151001637912      0.226602793723      0.844865220627      -0.31546366301      0.844865220627      -0.31546366301      0.151001637912      0.226602793723      
5800000000.0        0.153779362463      0.229681989415      0.841941186784      -0.320113847636     0.841941186784      -0.320113847636     0.153779362463      0.229681989415      
5900000000.0        0.156587051248      0.232720488125      0.838984566788      -0.324723936444     0.838984566788      -0.324723936444     0.156587051248      0.232720488125      
6000000000.0        0.159423983783      0.235718017362      0.835996075989      -0.329293666101     0.835996075989      -0.329293666101     0.159423983783      0.235718017362      
6100000000.0        0.162289438407      0.23867432021       0.83297643083       -0.333822788833     0.83297643083       -0.333822788833     0.162289438407      0.23867432021       
6200000000.0        0.165182692695      0.24158915522       0.829926348432      -0.338311072319     0.829926348432      -0.338311072319     0.165182692695      0.24158915522       
6300000000.0        0.168103023861      0.244462296296      0.826846546191      -0.342758299583     0.826846546191      -0.342758299583     0.168103023861      0.244462296296      
6400000000.0        0.171049709154      0.247293532574      0.823737741385      -0.347164268866     0.823737741385      -0.347164268866     0.171049709154      0.247293532574      
6500000000.0        0.174022026239      0.250082668287      0.820600650787      -0.351528793493     0.820600650787      -0.351528793493     0.174022026239      0.250082668287      
6600000000.0        0.177019253576      0.252829522623      0.817435990292      -0.355851701734     0.817435990292      -0.355851701734     0.177019253576      0.252829522623      
6700000000.0        0.180040670788      0.255533929571      0.814244474548      -0.360132836651     0.814244474548      -0.360132836651     0.180040670788      0.255533929571      
6800000000.0        0.183085559009      0.258195737768      0.811026816599      -0.36437205594      0.811026816599      -0.36437205594      0.183085559009      0.258195737768      
6900000000.0        0.186153201241      0.260814810324      0.807783727541      -0.368569231762     0.807783727541      -0.368569231762     0.186153201241      0.260814810324      
7000000000.0        0.189242882686      0.263391024652      0.80451591618       -0.372724250567     0.80451591618       -0.372724250567     0.189242882686      0.263391024652      
7100000000.0        0.192353891074      0.26592427228       0.801224088707      -0.376837012918     0.801224088707      -0.376837012918     0.192353891074      0.26592427228       
7200000000.0        0.195485516983      0.268414458669      0.797908948379      -0.380907433292     0.797908948379      -0.380907433292     0.195485516983      0.268414458669      
7300000000.0        0.198637054147      0.27086150301       0.794571195208      -0.384935439895     0.794571195208      -0.384935439895     0.198637054147      0.27086150301       
7400000000.0        0.201807799754      0.273265338025      0.791211525663      -0.388920974449     0.791211525663      -0.388920974449     0.201807799754      0.273265338025      
7500000000.0        0.204997054737      0.275625909758      0.787830632384      -0.392863991995     0.787830632384      -0.392863991995     0.204997054737      0.275625909758      
7600000000.0        0.208204124052      0.277943177364      0.784429203895      -0.396764460673     0.784429203895      -0.396764460673     0.208204124052      0.277943177364      
7700000000.0        0.211428316948      0.280217112888      0.78100792434       -0.400622361504     0.78100792434       -0.400622361504     0.211428316948      0.280217112888      
7800000000.0        0.214668947229      0.282447701044      0.777567473218      -0.404437688173     0.777567473218      -0.404437688173     0.214668947229      0.282447701044      
7900000000.0        0.217925333503      0.284634938984      0.774108525134      -0.408210446796     0.774108525134      -0.408210446796     0.217925333503      0.284634938984      
8000000000.0        0.221196799424      0.286778836071      0.77063174956       -0.41194065569      0.77063174956       -0.41194065569      0.221196799424      0.286778836071      
8100000000.0        0.224482673923      0.288879413643      0.767137810598      -0.41562834514      0.767137810598      -0.41562834514      0.224482673923      0.288879413643      
8200000000.0        0.227782291431      0.290936704772      0.763627366761      -0.419273557162     0.763627366761      -0.419273557162     0.227782291431      0.290936704772      
8300000000.0        0.231094992089      0.292950754027      0.760101070757      -0.422876345257     0.760101070757      -0.422876345257     0.231094992089      0.292950754027      
8400000000.0        0.234420121956      0.294921617226      0.756559569291      -0.426436774173     0.756559569291      -0.426436774173     0.234420121956      0.294921617226      
8500000000.0        0.237757033198      0.296849361192      0.753003502864      -0.429954919655     0.753003502864      -0.429954919655     0.237757033198      0.296849361192      
8600000000.0        0.241105084278      0.298734063505      0.749433505592      -0.433430868199     0.749433505592      -0.433430868199     0.241105084278      0.298734063505      
8700000000.0        0.244463640126      0.300575812252      0.745850205027      -0.436864716802     0.745850205027      -0.436864716802     0.244463640126      0.300575812252      
8800000000.0        0.24783207231       0.302374705773      0.742254221995      -0.440256572709     0.742254221995      -0.440256572709     0.24783207231       0.302374705773      
8900000000.0        0.251209759193      0.304130852413      0.738646170429      -0.443606553165     0.738646170429      -0.443606553165     0.251209759193      0.304130852413      
9000000000.0        0.254596086082      0.305844370265      0.735026657229      -0.446914785156     0.735026657229      -0.446914785156     0.254596086082      0.305844370265      
9100000000.0        0.257990445366      0.307515386917      0.731396282115      -0.450181405162     0.731396282115      -0.450181405162     0.257990445366      0.307515386917      
9200000000.0        0.261392236651      0.3091440392        0.727755637498      -0.453406558895     0.727755637498      -0.453406558895     0.261392236651      0.3091440392        
9300000000.0        0.264800866884      0.31073047293       0.724105308351      -0.456590401054     0.724105308351      -0.456590401054     0.264800866884      0.31073047293       
9400000000.0        0.268215750464      0.312274842657      0.720445872102      -0.459733095061     0.720445872102      -0.459733095061     0.268215750464      0.312274842657      
9500000000.0        0.271636309352      0.313777311409      0.716777898518      -0.462834812817     0.716777898518      -0.462834812817     0.271636309352      0.313777311409      
9600000000.0        0.275061973172      0.315238050441      0.71310194961       -0.465895734443     0.71310194961       -0.465895734443     0.275061973172      0.315238050441      
9700000000.0        0.278492179297      0.316657238982      0.709418579541      -0.46891604803      0.709418579541      -0.46891604803      0.278492179297      0.316657238982      
9800000000.0        0.281926372938      0.318035063982      0.70572833454       -0.471895949388     0.70572833454       -0.471895949388     0.281926372938      0.318035063982      
9900000000.0        0.285364007216      0.319371719865      0.702031752828      -0.474835641795     0.702031752828      -0.474835641795     0.285364007216      0.319371719865      
10000000000.0       0.288804543234      0.320667408281      0.698329364546      -0.477735335753     0.698329364546      -0.477735335753     0.288804543234      0.320667408281      
