# Hz S RI R 50.00 
100000000.0         0.000556124840857   -0.0115840153137    0.999116315246      -0.0130079548737    0.999116315246      -0.0130079548737    0.000556124840857   -0.0115840153137    
200000000.0         9.7022275424e-05    -0.0231565824531    0.9986444091        -0.0260044656938    0.9986444091        -0.0260044656938    9.70222754237e-05   -0.0231565824531    
300000000.0         -0.00066371910338   -0.0347068196384    0.997871317119      -0.0389786878882    0.997871317119      -0.0389786878882    -0.00066371910338   -0.0347068196384    
400000000.0         -0.00172414672115   -0.0462239036799    0.996797750611      -0.0519198270623    0.996797750611      -0.0519198270623    -0.00172414672115   -0.0462239036799    
500000000.0         -0.00308217561076   -0.0576971028782    0.995425317643      -0.0648171780316    0.995425317643      -0.0648171780316    -0.00308217561076   -0.0576971028782    
600000000.0         -0.00473533087969   -0.0691158086132    0.993756250227      -0.0776601575599    0.993756250227      -0.0776601575599    -0.00473533087969   -0.0691158086132    
700000000.0         -0.00668069026729   -0.0804695656878    0.991793327154      -0.0904383351491    0.991793327154      -0.0904383351491    -0.00668069026729   -0.0804695656878    
800000000.0         -0.00891487158547   -0.0917481015123    0.989539837498      -0.103141462446     0.989539837498      -0.103141462446     -0.00891487158547   -0.0917481015123    
900000000.0         -0.0114340357755    -0.102941354076     0.986999555748      -0.11575950134      0.986999555748      -0.11575950134      -0.0114340357755    -0.102941354076     
1000000000.0        -0.0142338972251    -0.114039498607     0.984176720454      -0.128282650707     0.984176720454      -0.128282650707     -0.0142338972251    -0.114039498607     
1100000000.0        -0.0173097382875    -0.125032972804     0.981076013583      -0.140701371691     0.981076013583      -0.140701371691     -0.0173097382875    -0.125032972804     
1200000000.0        -0.0206564266495    -0.135912500532     0.977702539499      -0.153006411446     0.977702539499      -0.153006411446     -0.0206564266495    -0.135912500532     
1300000000.0        -0.0242684348377    -0.146669113887     0.974061803169      -0.165188825223     0.974061803169      -0.165188825223     -0.0242684348377    -0.146669113887     
1400000000.0        -0.0281398614259    -0.157294173519     0.970159687458      -0.17723999672      0.970159687458      -0.17723999672      -0.028139861426     -0.157294173519     
1500000000.0        -0.0322644536288    -0.167779387163     0.966002429502      -0.189151656625     0.966002429502      -0.189151656625     -0.0322644536288    -0.167779387163     
1600000000.0        -0.0366356310298    -0.178116826287     0.961596596271      -0.200915899287     0.961596596271      -0.200915899287     -0.0366356310298    -0.178116826287     
1700000000.0        -0.0412465102248    -0.188298940841     0.956949059407      -0.212525197471     0.956949059407      -0.212525197471     -0.0412465102248    -0.188298940841     
1800000000.0        -0.0460899301791    -0.198318572049     0.952066969486      -0.223972415159     0.952066969486      -0.223972415159     -0.0460899301791    -0.198318572049     
1900000000.0        -0.0511584781108    -0.208168963248     0.946957729848      -0.235250818402     0.946957729848      -0.235250818402     -0.0511584781108    -0.208168963248     
2000000000.0        -0.056444515721     -0.217843768767     0.941628970157      -0.246354084203     0.941628970157      -0.246354084203     -0.056444515721     -0.217843768767     
2100000000.0        -0.0619402055994    -0.227337060856     0.936088519817      -0.257276307453     0.936088519817      -0.257276307453     -0.0619402055994    -0.227337060856     
2200000000.0        -0.0676375376439    -0.236643334704     0.930344381428      -0.268012005958     0.930344381428      -0.268012005958     -0.0676375376439    -0.236643334704     
2300000000.0        -0.0735283553386    -0.245757511586     0.924404704397      -0.278556123588     0.924404704397      -0.278556123588     -0.0735283553386    -0.245757511586     
2400000000.0        -0.0796043817448    -0.254674940187     0.918277758868      -0.288904031604     0.918277758868      -0.288904031604     -0.0796043817448    -0.254674940187     
2500000000.0        -0.0858572450699    -0.263391396173     0.91197191008       -0.299051528238     0.91197191008       -0.299051528238     -0.0858572450699    -0.263391396173     
2600000000.0        -0.0922785036866    -0.27190308009      0.905495593295      -0.308994836591     0.905495593295      -0.308994836591     -0.0922785036866    -0.27190308009      
2700000000.0        -0.0988596704887    -0.28020661366      0.898857289391      -0.318730600938     0.898857289391      -0.318730600938     -0.0988596704887    -0.28020661366      
2800000000.0        -0.105592236477     -0.288299034582     0.892065501244      -0.328255881529     0.892065501244      -0.328255881529     -0.105592236477     -0.288299034582     
2900000000.0        -0.112467693484     -0.296177789927     0.885128730965      -0.337568147987     0.885128730965      -0.337568147987     -0.112467693484     -0.296177789927     
3000000000.0        -0.119477555953     -0.303840728231     0.878055458097      -0.346665271402     0.878055458097      -0.346665271402     -0.119477555953     -0.303840728231     
3100000000.0        -0.126613381703     -0.311286090386     0.870854118823      -0.355545515234     0.870854118823      -0.355545515234     -0.126613381703     -0.311286090386     
3200000000.0        -0.133866791618     -0.318512499456     0.863533086262      -0.364207525119     0.863533086262      -0.364207525119     -0.133866791618     -0.318512499456     
3300000000.0        -0.141229488214     -0.325518949502     0.856100651879      -0.372650317706     0.856100651879      -0.372650317706     -0.141229488214     -0.325518949502     
3400000000.0        -0.148693273048     -0.332304793548     0.848565008064      -0.38087326862      0.848565008064      -0.38087326862      -0.148693273048     -0.332304793548     
3500000000.0        -0.156250062934     -0.338869730785     0.840934231906      -0.388876099672     0.840934231906      -0.388876099672     -0.156250062934     -0.338869730785     
3600000000.0        -0.163891904957     -0.345213793128     0.833216270159      -0.396658865419     0.833216270159      -0.396658865419     -0.163891904957     -0.345213793128     
3700000000.0        -0.171610990276     -0.351337331225     0.825418925439      -0.404221939168     0.825418925439      -0.404221939168     -0.171610990276     -0.351337331225     
3800000000.0        -0.179399666707     -0.357241000024     0.817549843625      -0.411565998553     0.817549843625      -0.411565998553     -0.179399666707     -0.357241000024     
3900000000.0        -0.18725045011      -0.362925743996     0.809616502467      -0.418692010755     0.809616502467      -0.418692010755     -0.18725045011      -0.362925743996     
4000000000.0        -0.195156034583     -0.368392782102     0.801626201382      -0.425601217478     0.801626201382      -0.425601217478     -0.195156034583     -0.368392782102     
4100000000.0        -0.203109301494     -0.373643592608     0.793586052421      -0.432295119755     0.793586052421      -0.432295119755     -0.203109301494     -0.373643592608     
4200000000.0        -0.211103327371     -0.378679897812     0.78550297237       -0.438775462686     0.78550297237       -0.438775462686     -0.211103327371     -0.378679897812     
4300000000.0        -0.219131390694     -0.383503648776     0.77738367595       -0.44504422017      0.77738367595       -0.44504422017      -0.219131390694     -0.383503648776     
4400000000.0        -0.227186977623     -0.388117010132     0.769234670089      -0.451103579707     0.769234670089      -0.451103579707     -0.227186977623     -0.388117010132     
4500000000.0        -0.235263786698     -0.392522345019     0.761062249216      -0.456955927347     0.761062249216      -0.456955927347     -0.235263786698     -0.392522345019     
4600000000.0        -0.24335573257      -0.396722200235     0.752872491525      -0.462603832834     0.752872491525      -0.462603832834     -0.24335573257      -0.396722200235     
4700000000.0        -0.251456948797     -0.400719291631     0.744671256176      -0.468050035007     0.744671256176      -0.468050035007     -0.251456948797     -0.400719291631     
4800000000.0        -0.259561789765     -0.404516489817     0.73646418137       -0.473297427509     0.73646418137       -0.473297427509     -0.259561789765     -0.404516489817     
4900000000.0        -0.267664831782     -0.408116806217     0.728256683253      -0.478349044838     0.728256683253      -0.478349044838     -0.267664831782     -0.408116806217     
5000000000.0        -0.275760873395     -0.411523379509     0.720053955594      -0.483208048793     0.720053955594      -0.483208048793     -0.275760873395     -0.411523379509     
5100000000.0        -0.283844934989     -0.414739462484     0.711860970187      -0.487877715335     0.711860970187      -0.487877715335     -0.283844934989     -0.414739462484     
5200000000.0        -0.291912257712     -0.417768409357     0.703682477915      -0.492361421897     0.703682477915      -0.492361421897     -0.291912257712     -0.417768409357     
5300000000.0        -0.299958301788     -0.420613663544     0.695523010447      -0.496662635162     0.695523010447      -0.496662635162     -0.299958301788     -0.420613663544     
5400000000.0        -0.307978744261     -0.42327874593      0.687386882479      -0.500784899339     0.687386882479      -0.500784899339     -0.307978744261     -0.42327874593      
5500000000.0        -0.315969476228     -0.425767243643     0.679278194504      -0.504731824929     0.679278194504      -0.504731824929     -0.315969476228     -0.425767243643     
5600000000.0        -0.323926599607     -0.428082799335     0.671200836045      -0.508507078017     0.671200836045      -0.508507078017     -0.323926599607     -0.428082799335     
5700000000.0        -0.331846423481     -0.43022910099      0.663158489303      -0.512114370075     0.663158489303      -0.512114370075     -0.331846423481     -0.43022910099      
5800000000.0        -0.339725460083     -0.43220987225      0.655154633174      -0.515557448292     0.655154633174      -0.515557448292     -0.339725460083     -0.43220987225      
5900000000.0        -0.347560420439     -0.434028863269     0.647192547601      -0.518840086429     0.647192547601      -0.518840086429     -0.347560420439     -0.434028863269     
6000000000.0        -0.355348209736     -0.43568984208      0.639275318203      -0.521966076187     0.639275318203      -0.521966076187     -0.355348209736     -0.43568984208      
6100000000.0        -0.363085922444     -0.437196586482     0.631405841157      -0.5249392191       0.631405841157      -0.5249392191       -0.363085922444     -0.437196586482     
6200000000.0        -0.370770837225     -0.438552876436     0.623586828283      -0.527763318925     0.623586828283      -0.527763318925     -0.370770837225     -0.438552876436     
6300000000.0        -0.378400411672     -0.439762486954     0.615820812298      -0.530442174538     0.615820812298      -0.530442174538     -0.378400411672     -0.439762486954     
6400000000.0        -0.385972276915     -0.440829181478     0.608110152217      -0.532979573314     0.608110152217      -0.532979573314     -0.385972276915     -0.440829181478     
6500000000.0        -0.393484232113     -0.441756705733     0.600457038857      -0.535379284979     0.600457038857      -0.535379284979     -0.393484232113     -0.441756705733     
6600000000.0        -0.400934238868     -0.442548782039     0.592863500414      -0.537645055924     0.592863500414      -0.537645055924     -0.400934238868     -0.442548782039     
6700000000.0        -0.408320415591     -0.443209104066     0.585331408106      -0.539780603965     0.585331408106      -0.539780603965     -0.408320415591     -0.443209104066     
6800000000.0        -0.415641031838     -0.443741332025     0.577862481825      -0.541789613533     0.577862481825      -0.541789613533     -0.415641031838     -0.443741332025     
6900000000.0        -0.42289450264      -0.444149088267     0.570458295812      -0.543675731273     0.570458295812      -0.543675731273     -0.42289450264      -0.444149088267     
7000000000.0        -0.430079382855     -0.444435953278     0.563120284299      -0.545442562042     0.563120284299      -0.545442562042     -0.430079382855     -0.444435953278     
7100000000.0        -0.437194361547     -0.444605462054     0.555849747132      -0.547093665287     0.555849747132      -0.547093665287     -0.437194361547     -0.444605462054     
7200000000.0        -0.44423825642      -0.444661100839     0.548647855331      -0.548632551782     0.548647855331      -0.548632551782     -0.44423825642      -0.444661100839     
7300000000.0        -0.451210008318     -0.444606304204     0.54151565659       -0.550062680711     0.54151565659       -0.550062680711     -0.451210008318     -0.444606304204     
7400000000.0        -0.458108675806     -0.444444452453     0.534454080695      -0.551387457071     0.534454080695      -0.551387457071     -0.458108675806     -0.444444452453     
7500000000.0        -0.464933429843     -0.44417886934      0.527463944848      -0.552610229397     0.527463944848      -0.552610229397     -0.464933429843     -0.44417886934      
7600000000.0        -0.471683548548     -0.443812820075     0.520545958896      -0.553734287765     0.520545958896      -0.553734287765     -0.471683548548     -0.443812820075     
7700000000.0        -0.478358412093     -0.443349509604     0.513700730444      -0.554762862074     0.513700730444      -0.554762862074     -0.478358412093     -0.443349509604     
7800000000.0        -0.484957497701     -0.442792081154     0.506928769847      -0.555699120593     0.506928769847      -0.555699120593     -0.484957497701     -0.442792081154     
7900000000.0        -0.491480374772     -0.44214361501      0.500230495085      -0.556546168743     0.500230495085      -0.556546168743     -0.491480374772     -0.44214361501      
8000000000.0        -0.497926700144     -0.44140712753      0.493606236502      -0.557307048104     0.493606236502      -0.557307048104     -0.497926700144     -0.44140712753      
8100000000.0        -0.504296213484     -0.440585570359     0.487056241408      -0.557984735643     0.487056241408      -0.557984735643     -0.504296213484     -0.440585570359     
8200000000.0        -0.510588732818     -0.439681829851     0.480580678553      -0.558582143128     0.480580678553      -0.558582143128     -0.510588732818     -0.439681829851     
8300000000.0        -0.516804150202     -0.438698726667     0.474179642448      -0.55910211673      0.474179642448      -0.55910211673      -0.516804150202     -0.438698726667     
8400000000.0        -0.522942427534     -0.437639015542     0.467853157556      -0.559547436796     0.467853157556      -0.559547436796     -0.522942427534     -0.437639015542     
8500000000.0        -0.529003592511     -0.436505385213     0.461601182329      -0.559920817771     0.461601182329      -0.559920817771     -0.529003592511     -0.436505385213     
8600000000.0        -0.534987734726     -0.435300458485     0.455423613111      -0.560224908272     0.455423613111      -0.560224908272     -0.534987734726     -0.435300458485     
8700000000.0        -0.540895001913     -0.434026792432     0.449320287889      -0.560462291288     0.449320287889      -0.560462291288     -0.540895001913     -0.434026792432     
8800000000.0        -0.546725596328     -0.432686878721     0.443290989912      -0.560635484502     0.443290989912      -0.560635484502     -0.546725596328     -0.432686878721     
8900000000.0        -0.552479771279     -0.431283144037     0.437335451158      -0.560746940726     0.437335451158      -0.560746940726     -0.552479771279     -0.431283144037     
9000000000.0        -0.558157827787     -0.429817950619     0.431453355667      -0.56079904843      0.431453355667      -0.56079904843      -0.558157827787     -0.429817950619     
9100000000.0        -0.563760111392     -0.428293596879     0.42564434274       -0.560794132368     0.42564434274       -0.560794132368     -0.563760111392     -0.428293596879     
9200000000.0        -0.569287009087     -0.426712318104     0.419908009995      -0.56073445428      0.419908009995      -0.56073445428      -0.569287009087     -0.426712318104     
9300000000.0        -0.57473894639      -0.425076287234     0.414243916298      -0.560622213669     0.414243916298      -0.560622213669     -0.57473894639      -0.425076287234     
9400000000.0        -0.580116384545     -0.423387615699     0.408651584557      -0.560459548646     0.408651584557      -0.560459548646     -0.580116384545     -0.423387615699     
9500000000.0        -0.585419817844     -0.421648354321     0.403130504399      -0.560248536826     0.403130504399      -0.560248536826     -0.585419817844     -0.421648354321     
9600000000.0        -0.590649771081     -0.419860494258     0.397680134711      -0.559991196278     0.397680134711      -0.559991196278     -0.590649771081     -0.419860494258     
9700000000.0        -0.595806797117     -0.418025967999     0.392299906075      -0.559689486523     0.392299906075      -0.559689486523     -0.595806797117     -0.418025967999     
9800000000.0        -0.600891474569     -0.416146650395     0.386989223074      -0.559345309561     0.386989223074      -0.559345309561     -0.600891474569     -0.416146650395     
9900000000.0        -0.605904405608     -0.414224359722     0.381747466493      -0.55896051094      0.381747466493      -0.55896051094      -0.605904405608     -0.414224359722     
10000000000.0       -0.61084621387      -0.412260858766     0.376573995408      -0.558536880843     0.376573995408      -0.558536880843     -0.61084621387      -0.412260858766     
