# Hz S RI R 50.00 
100000000.0         0.011909795244      0.0008142627025     0.988089022752      -0.000995848969539  0.988089022752      -0.000995848969539  0.011909795244      0.0008142627025     
200000000.0         0.0119896644678     0.00162824034557    0.988008938412      -0.00199141467638   0.988008938412      -0.00199141467638   0.0119896644678     0.00162824034557    
300000000.0         0.0120500700004     0.00244204634369    0.987948284649      -0.00298681149961   0.987948284649      -0.00298681149961   0.0120500700004     0.00244204634369    
400000000.0         0.0121012967895     0.0032557183535     0.98789677651       -0.00398207784458   0.98789677651       -0.00398207784458   0.0121012967895     0.0032557183535     
500000000.0         0.0121473170595     0.00406927631736    0.987850441767      -0.00497723429336   0.987850441767      -0.00497723429336   0.0121473170595     0.00406927631736    
600000000.0         0.0121901621948     0.00488273230195    0.987807249031      -0.00597229348086   0.987807249031      -0.00597229348086   0.0121901621948     0.00488273230195    
700000000.0         0.0122310354548     0.00569609404102    0.987765995038      -0.00696726365667   0.987765995038      -0.00696726365667   0.0122310354548     0.00569609404102    
800000000.0         0.0122707185313     0.00650936658229    0.987725898093      -0.00796215034347   0.987725898093      -0.00796215034347   0.0122707185313     0.00650936658229    
900000000.0         0.0123097527623     0.00732255317385    0.987686416851      -0.00895695723092   0.987686416851      -0.00895695723092   0.0123097527623     0.00732255317385    
1000000000.0        0.0123485310835     0.00813565578989    0.987647158372      -0.00995168670672   0.987647158372      -0.00995168670672   0.0123485310835     0.00813565578989    
1100000000.0        0.0123873491956     0.00894867546514    0.987607826949      -0.010946340195     0.987607826949      -0.010946340195     0.0123873491956     0.00894867546514    
1200000000.0        0.0124264360864     0.00976161251919    0.987568193591      -0.0119409183834    0.987568193591      -0.0119409183834    0.0124264360864     0.00976161251919    
1300000000.0        0.0124659732524     0.0105744667133     0.987528076794      -0.0129354213827    0.987528076794      -0.0129354213827    0.0124659732524     0.0105744667133     
1400000000.0        0.012506107347      0.0113872373636     0.987487329899      -0.0139298488416    0.987487329899      -0.0139298488416    0.012506107347      0.0113872373636     
1500000000.0        0.0125469588081     0.0121999234259     0.987445832463      -0.0149242000328    0.987445832463      -0.0149242000328    0.0125469588081     0.0121999234259     
1600000000.0        0.0125886279235     0.0130125235589     0.987403484191      -0.0159184739182    0.987403484191      -0.0159184739182    0.0125886279235     0.0130125235589     
1700000000.0        0.0126311992063     0.0138250361748     0.987360200564      -0.0169126691999    0.987360200564      -0.0169126691999    0.0126311992063     0.0138250361748     
1800000000.0        0.012674744623      0.0146374594779     0.987315909609      -0.0179067843604    0.987315909609      -0.0179067843604    0.012674744623      0.0146374594779     
1900000000.0        0.0127193260195     0.0154497914965     0.987270549473      -0.0189008176948    0.987270549473      -0.0189008176948    0.0127193260195     0.0154497914965     
2000000000.0        0.0127649969778     0.0162620301081     0.987224066568      -0.0198947673367    0.987224066568      -0.0198947673367    0.0127649969778     0.0162620301081     
2100000000.0        0.0128118042569     0.0170741730603     0.987176414128      -0.0208886312803    0.987176414128      -0.0208886312803    0.0128118042569     0.0170741730603     
2200000000.0        0.0128597889267     0.0178862179886     0.987127551075      -0.021882407398     0.987127551075      -0.021882407398     0.0128597889267     0.0178862179886     
2300000000.0        0.0129089872719     0.0186981624304     0.987077441118      -0.0228760934555    0.987077441118      -0.0228760934555    0.0129089872719     0.0186981624304     
2400000000.0        0.0129594315189     0.0195100038375     0.987026052023      -0.0238696871244    0.987026052023      -0.0238696871244    0.0129594315189     0.0195100038375     
2500000000.0        0.0130111504273     0.0203217395868     0.986973355024      -0.0248631859932    0.986973355024      -0.0248631859932    0.0130111504273     0.0203217395868     
2600000000.0        0.0130641697754     0.0211333669887     0.986919324334      -0.0258565875765    0.986919324334      -0.0258565875765    0.0130641697754     0.0211333669887     
2700000000.0        0.0131185127619     0.0219448832951     0.986863936747      -0.0268498893229    0.986863936747      -0.0268498893229    0.0131185127619     0.0219448832951     
2800000000.0        0.0131742003404     0.0227562857061     0.986807171302      -0.0278430886224    0.986807171302      -0.0278430886224    0.0131742003404     0.0227562857061     
2900000000.0        0.0132312515009     0.0235675713757     0.986749009001      -0.0288361828119    0.986749009001      -0.0288361828119    0.0132312515009     0.0235675713757     
3000000000.0        0.0132896835068     0.024378737417      0.986689432573      -0.029829169181     0.986689432573      -0.029829169181     0.0132896835068     0.024378737417      
3100000000.0        0.0133495120973     0.0251897809065     0.98662842627       -0.0308220449763    0.98662842627       -0.0308220449763    0.0133495120973     0.0251897809065     
3200000000.0        0.0134107516596     0.0260006988882     0.986565975698      -0.0318148074061    0.986565975698      -0.0318148074061    0.0134107516596     0.0260006988882     
3300000000.0        0.0134734153775     0.0268114883769     0.986502067663      -0.0328074536435    0.986502067663      -0.0328074536435    0.0134734153775     0.0268114883769     
3400000000.0        0.0135375153593     0.0276221463615     0.986436690051      -0.0337999808302    0.986436690051      -0.0337999808302    0.0135375153593     0.0276221463615     
3500000000.0        0.0136030627491     0.0284326698079     0.986369831708      -0.0347923860789    0.986369831708      -0.0347923860789    0.0136030627491     0.0284326698079     
3600000000.0        0.0136700678233     0.0292430556611     0.98630148235       -0.0357846664768    0.98630148235       -0.0357846664768    0.0136700678233     0.0292430556611     
3700000000.0        0.0137385400754     0.0300533008476     0.986231632474      -0.036776819087     0.986231632474      -0.036776819087     0.0137385400754     0.0300533008476     
3800000000.0        0.0138084882907     0.0308634022776     0.986160273287      -0.0377688409513    0.986160273287      -0.0377688409513    0.0138084882907     0.0308634022776     
3900000000.0        0.0138799206111     0.0316733568466     0.986087396639      -0.038760729092     0.986087396639      -0.038760729092     0.0138799206111     0.0316733568466     
4000000000.0        0.0139528445936     0.032483161437      0.986012994963      -0.0397524805136    0.986012994963      -0.0397524805136    0.0139528445936     0.032483161437      
4100000000.0        0.0140272672615     0.0332928129198     0.985937061229      -0.0407440922044    0.985937061229      -0.0407440922044    0.0140272672615     0.0332928129198     
4200000000.0        0.01410319515       0.0341023081558     0.985859588891      -0.041735561138     0.985859588891      -0.041735561138     0.01410319515       0.0341023081558     
4300000000.0        0.0141806343472     0.0349116439967     0.985780571853      -0.0427268842747    0.985780571853      -0.0427268842747    0.0141806343472     0.0349116439967     
4400000000.0        0.0142595905306     0.0357208172866     0.985700004429      -0.0437180585627    0.985700004429      -0.0437180585627    0.0142595905306     0.0357208172866     
4500000000.0        0.0143400689998     0.0365298248627     0.985617881311      -0.0447090809391    0.985617881311      -0.0447090809391    0.0143400689998     0.0365298248627     
4600000000.0        0.0144220747056     0.0373386635564     0.985534197538      -0.0456999483311    0.985534197538      -0.0456999483311    0.0144220747056     0.0373386635564     
4700000000.0        0.0145056122775     0.038147330194      0.985448948473      -0.0466906576568    0.985448948473      -0.0466906576568    0.0145056122775     0.038147330194      
4800000000.0        0.0145906860465     0.0389558215977     0.985362129774      -0.0476812058263    0.985362129774      -0.0476812058263    0.0145906860465     0.0389558215977     
4900000000.0        0.014677300068      0.0397641345861     0.985273737379      -0.0486715897422    0.985273737379      -0.0486715897422    0.014677300068      0.0397641345861     
5000000000.0        0.0147654581406     0.0405722659751     0.985183767479      -0.0496618063005    0.985183767479      -0.0496618063005    0.0147654581406     0.0405722659751     
5100000000.0        0.0148551638247     0.0413802125783     0.985092216505      -0.0506518523915    0.985092216505      -0.0506518523915    0.0148551638247     0.0413802125783     
5200000000.0        0.0149464204584     0.0421879712078     0.98499908111       -0.0516417248999    0.98499908111       -0.0516417248999    0.0149464204584     0.0421879712078     
5300000000.0        0.0150392311725     0.0429955386744     0.984904358153      -0.052631420706     0.984904358153      -0.052631420706     0.0150392311725     0.0429955386744     
5400000000.0        0.0151335989046     0.0438029117884     0.984808044689      -0.0536209366858    0.984808044689      -0.0536209366858    0.0151335989046     0.0438029117884     
5500000000.0        0.015229526411      0.0446100873599     0.984710137951      -0.0546102697119    0.984710137951      -0.0546102697119    0.015229526411      0.0446100873599     
5600000000.0        0.0153270162783     0.0454170621993     0.984610635344      -0.0555994166536    0.984610635344      -0.0555994166536    0.0153270162783     0.0454170621993     
5700000000.0        0.0154260709343     0.0462238331174     0.984509534432      -0.0565883743774    0.984509534432      -0.0565883743774    0.0154260709343     0.0462238331174     
5800000000.0        0.0155266926573     0.0470303969263     0.984406832926      -0.0575771397477    0.984406832926      -0.0575771397477    0.0155266926573     0.0470303969263     
5900000000.0        0.0156288835852     0.0478367504392     0.98430252868       -0.0585657096271    0.98430252868       -0.0585657096271    0.0156288835852     0.0478367504392     
6000000000.0        0.0157326457237     0.0486428904709     0.984196619679      -0.0595540808763    0.984196619679      -0.0595540808763    0.0157326457237     0.0486428904709     
6100000000.0        0.015837980954      0.0494488138382     0.984089104032      -0.0605422503551    0.984089104032      -0.0605422503551    0.015837980954      0.0494488138382     
6200000000.0        0.01594489104       0.05025451736       0.983979979966      -0.0615302149225    0.983979979966      -0.0615302149225    0.01594489104       0.05025451736       
6300000000.0        0.0160533776343     0.0510599978577     0.983869245821      -0.0625179714365    0.983869245821      -0.0625179714365    0.0160533776343     0.0510599978577     
6400000000.0        0.0161634422849     0.0518652521553     0.983756900038      -0.0635055167551    0.983756900038      -0.0635055167551    0.0161634422849     0.0518652521553     
6500000000.0        0.0162750864405     0.0526702770797     0.983642941159      -0.0644928477363    0.983642941159      -0.0644928477363    0.0162750864405     0.0526702770797     
6600000000.0        0.0163883114558     0.0534750694607     0.983527367822      -0.065479961238     0.983527367822      -0.065479961238     0.0163883114558     0.0534750694607     
6700000000.0        0.0165031185965     0.0542796261315     0.98341017875       -0.0664668541188    0.98341017875       -0.0664668541188    0.0165031185965     0.0542796261315     
6800000000.0        0.0166195090436     0.0550839439287     0.983291372755      -0.0674535232378    0.983291372755      -0.0674535232378    0.0166195090436     0.0550839439287     
6900000000.0        0.0167374838979     0.0558880196925     0.983170948725      -0.0684399654548    0.983170948725      -0.0684399654548    0.0167374838979     0.0558880196925     
7000000000.0        0.016857044184      0.0566918502667     0.983048905629      -0.0694261776309    0.983048905629      -0.0694261776309    0.016857044184      0.0566918502667     
7100000000.0        0.0169781908536     0.0574954324991     0.982925242504      -0.0704121566282    0.982925242504      -0.0704121566282    0.0169781908536     0.0574954324991     
7200000000.0        0.0171009247895     0.0582987632415     0.982799958459      -0.0713978993102    0.982799958459      -0.0713978993102    0.0171009247895     0.0582987632415     
7300000000.0        0.0172252468085     0.0591018393496     0.982673052668      -0.0723834025419    0.982673052668      -0.0723834025419    0.0172252468085     0.0591018393496     
7400000000.0        0.0173511576646     0.0599046576838     0.982544524368      -0.07336866319      0.982544524368      -0.07336866319      0.0173511576646     0.0599046576838     
7500000000.0        0.0174786580519     0.0607072151083     0.982414372857      -0.074353678123     0.982414372857      -0.074353678123     0.0174786580519     0.0607072151083     
7600000000.0        0.0176077486072     0.0615095084921     0.982282597488      -0.0753384442113    0.982282597488      -0.0753384442113    0.0176077486072     0.0615095084921     
7700000000.0        0.0177384299124     0.0623115347085     0.982149197671      -0.0763229583273    0.982149197671      -0.0763229583273    0.0177384299124     0.0623115347085     
7800000000.0        0.0178707024973     0.0631132906357     0.982014172866      -0.0773072173458    0.982014172866      -0.0773072173458    0.0178707024973     0.0631132906357     
7900000000.0        0.0180045668414     0.0639147731564     0.981877522587      -0.0782912181435    0.981877522587      -0.0782912181435    0.0180045668414     0.0639147731564     
8000000000.0        0.0181400233762     0.064715979158      0.981739246392      -0.0792749575998    0.981739246392      -0.0792749575998    0.0181400233762     0.064715979158      
8100000000.0        0.0182770724872     0.0655169055328     0.981599343887      -0.0802584325965    0.981599343887      -0.0802584325965    0.0182770724872     0.0655169055328     
8200000000.0        0.0184157145159     0.0663175491782     0.981457814722      -0.0812416400179    0.981457814722      -0.0812416400179    0.0184157145159     0.0663175491782     
8300000000.0        0.0185559497613     0.0671179069962     0.98131465859       -0.082224576751     0.98131465859       -0.082224576751     0.0185559497613     0.0671179069962     
8400000000.0        0.0186977784819     0.0679179758941     0.981169875223      -0.0832072396854    0.981169875223      -0.0832072396854    0.0186977784819     0.0679179758941     
8500000000.0        0.0188412008968     0.0687177527841     0.981023464394      -0.0841896257138    0.981023464394      -0.0841896257138    0.0188412008968     0.0687177527841     
8600000000.0        0.0189862171879     0.0695172345835     0.980875425912      -0.0851717317315    0.980875425912      -0.0851717317315    0.0189862171879     0.0695172345835     
8700000000.0        0.0191328275008     0.070316418215      0.980725759623      -0.0861535546368    0.980725759623      -0.0861535546368    0.0191328275008     0.070316418215      
8800000000.0        0.0192810319462     0.0711153006062     0.980574465408      -0.0871350913312    0.980574465408      -0.0871350913312    0.0192810319462     0.0711153006062     
8900000000.0        0.0194308306014     0.07191387869       0.980421543182      -0.088116338719     0.980421543182      -0.088116338719     0.0194308306014     0.07191387869       
9000000000.0        0.0195822235114     0.0727121494047     0.98026699289       -0.0890972937078    0.98026699289       -0.0890972937078    0.0195822235114     0.0727121494047     
9100000000.0        0.0197352106902     0.0735101096937     0.980110814512      -0.0900779532084    0.980110814512      -0.0900779532084    0.0197352106902     0.0735101096937     
9200000000.0        0.0198897921215     0.0743077565058     0.979953008054      -0.0910583141346    0.979953008054      -0.0910583141346    0.0198897921215     0.0743077565058     
9300000000.0        0.0200459677601     0.0751050867952     0.979793573555      -0.0920383734036    0.979793573555      -0.0920383734036    0.0200459677601     0.0751050867952     
9400000000.0        0.0202037375329     0.0759020975215     0.979632511078      -0.0930181279361    0.979632511078      -0.0930181279361    0.0202037375329     0.0759020975215     
9500000000.0        0.0203631013396     0.0766987856495     0.979469820717      -0.093997574656     0.979469820717      -0.093997574656     0.0203631013396     0.0766987856495     
9600000000.0        0.0205240590539     0.0774951481495     0.979305502589      -0.0949767104904    0.979305502589      -0.0949767104904    0.0205240590539     0.0774951481495     
9700000000.0        0.0206866105242     0.0782911819974     0.979139556839      -0.0959555323702    0.979139556839      -0.0959555323702    0.0206866105242     0.0782911819974     
9800000000.0        0.0208507555742     0.0790868841743     0.978971983634      -0.0969340372295    0.978971983634      -0.0969340372295    0.0208507555742     0.0790868841743     
9900000000.0        0.0210164940042     0.0798822516668     0.978802783167      -0.097912222006     0.978802783167      -0.097912222006     0.0210164940042     0.0798822516668     
10000000000.0       0.0211838255914     0.0806772814671     0.978631955653      -0.098890083641     0.978631955653      -0.098890083641     0.0211838255914     0.0806772814671     
