# Hz S RI R 50.00 
100000000.0         -0.00154343941595   -0.0387809755262    0.998448433034      -0.038831450665     0.998448433034      -0.038831450665     -0.00154343941595   -0.0387809755262    
200000000.0         -0.00607749140107   -0.0771964303091    0.993914321656      -0.0772974144643    0.993914321656      -0.0772974144643    -0.00607749140107   -0.0771964303091    
300000000.0         -0.0135139834665    -0.114903466595     0.986477781599      -0.115055010023     0.986477781599      -0.115055010023     -0.0135139834665    -0.114903466595     
400000000.0         -0.023718106751     -0.151582008907     0.976273614733      -0.151784173365     0.976273614733      -0.151784173365     -0.023718106751     -0.151582008907     
500000000.0         -0.036511119184     -0.186942749052     0.963480560442      -0.187195604979     0.963480560442      -0.187195604979     -0.036511119184     -0.186942749052     
600000000.0         -0.0516780273534    -0.220733644007     0.948313610771      -0.221037268469     0.948313610771      -0.221037268469     -0.0516780273534    -0.220733644007     
700000000.0         -0.0689762069808    -0.252744435398     0.931015389188      -0.253098910462     0.931015389188      -0.253098910462     -0.0689762069808    -0.252744435398     
800000000.0         -0.0881443868877    -0.282809064561     0.911847166345      -0.283214475965     0.911847166345      -0.283214475965     -0.0881443868877    -0.282809064561     
900000000.0         -0.108911453199     -0.310806063454     0.891080055749      -0.311262499491     0.891080055749      -0.311262499491     -0.108911453199     -0.310806063454     
1000000000.0        -0.131004613755     -0.336657149056     0.868986849292      -0.337164699634     0.868986849292      -0.337164699634     -0.131004613755     -0.336657149056     
1100000000.0        -0.15415657657      -0.360324346454     0.845834838757      -0.360883102305     0.845834838757      -0.360883102305     -0.15415657657      -0.360324346454     
1200000000.0        -0.178111521454     -0.381806015285     0.821879844175      -0.38241606729      0.821879844175      -0.38241606729      -0.178111521454     -0.381806015285     
1300000000.0        -0.202629764541     -0.401132161078     0.797361549285      -0.401793599709     0.797361549285      -0.401793599709     -0.202629764541     -0.401132161078     
1400000000.0        -0.227491119637     -0.418359386339     0.772500140174      -0.419072301189     0.772500140174      -0.419072301189     -0.227491119637     -0.418359386339     
1500000000.0        -0.252497041353     -0.433565786468     0.747494162146      -0.434330265862     0.747494162146      -0.434330265862     -0.252497041353     -0.433565786468     
1600000000.0        -0.277471690617     -0.446846033595     0.722519454199      -0.447662164275     0.722519454199      -0.447662164275     -0.277471690617     -0.446846033595     
1700000000.0        -0.302262094754     -0.458306826028     0.697728988945      -0.459174692902     0.697728988945      -0.459174692902     -0.302262094754     -0.458306826028     
1800000000.0        -0.326737585505     -0.468062819241     0.673253434588      -0.468982505178     0.673253434588      -0.468982505178     -0.326737585505     -0.468062819241     
1900000000.0        -0.350788693756     -0.476233100437     0.649202260196      -0.477204686116     0.649202260196      -0.477204686116     -0.350788693756     -0.476233100437     
2000000000.0        -0.37432566441      -0.482938225108     0.625665220823      -0.483961788906     0.625665220823      -0.483961788906     -0.37432566441      -0.482938225108     
2100000000.0        -0.397276733082     -0.488297801092     0.602714080817      -0.489373419006     0.602714080817      -0.489373419006     -0.397276733082     -0.488297801092     
2200000000.0        -0.419586281776     -0.49242858278      0.580404458144      -0.493556328377     0.580404458144      -0.493556328377     -0.419586281776     -0.49242858278      
2300000000.0        -0.441212966087     -0.495443023989     0.558777697176      -0.496622968385     0.558777697176      -0.496622968385     -0.441212966087     -0.495443023989     
2400000000.0        -0.462127883625     -0.497448230889     0.537862700279      -0.498680442743     0.537862700279      -0.498680442743     -0.462127883625     -0.497448230889     
2500000000.0        -0.482312833178     -0.49854525455      0.517677668641      -0.499829800085     0.517677668641      -0.499829800085     -0.482312833178     -0.49854525455      
2600000000.0        -0.501758697271     -0.498828664635     0.498231719715      -0.500165607661     0.498231719715      -0.500165607661     -0.501758697271     -0.498828664635     
2700000000.0        -0.520463967149     -0.49838635009      0.479526362237      -0.499775752052     0.479526362237      -0.499775752052     -0.520463967149     -0.49838635009      
2800000000.0        -0.538433418671     -0.497299498474     0.461556820331      -0.4987414185       0.461556820331      -0.4987414185       -0.538433418671     -0.497299498474     
2900000000.0        -0.555676939743     -0.495642711892     0.444313206074      -0.497137206853     0.444313206074      -0.497137206853     -0.555676939743     -0.495642711892     
3000000000.0        -0.572208504409     -0.493484223892     0.427781545408      -0.495031348469     0.427781545408      -0.495031348469     -0.572208504409     -0.493484223892     
3100000000.0        -0.588045284974     -0.49088618777      0.411944666015      -0.492485994519     0.411944666015      -0.492485994519     -0.588045284974     -0.49088618777      
3200000000.0        -0.603206891317     -0.487905012227     0.396782958002      -0.489557551657     0.396782958002      -0.489557551657     -0.603206891317     -0.487905012227     
3300000000.0        -0.617714725401     -0.484591725251     0.382275019396      -0.486297045895     0.382275019396      -0.486297045895     -0.617714725401     -0.484591725251     
3400000000.0        -0.631591438639     -0.480992351264     0.368398198774      -0.482750499757     0.368398198774      -0.482750499757     -0.631591438639     -0.480992351264     
3500000000.0        -0.644860480019     -0.477148290134     0.355129047137      -0.478959311288     0.355129047137      -0.478959311288     -0.644860480019     -0.477148290134     
3600000000.0        -0.657545723469     -0.473096689584     0.342443690549      -0.474960626464     0.342443690549      -0.474960626464     -0.657545723469     -0.473096689584     
3700000000.0        -0.669671163799     -0.468870804907     0.330318134191      -0.47078769891      0.330318134191      -0.47078769891      -0.669671163799     -0.468870804907     
3800000000.0        -0.681260671487     -0.464500341816     0.318728507579      -0.46647023274      0.318728507579      -0.46647023274      -0.681260671487     -0.464500341816     
3900000000.0        -0.692337797594     -0.460011779727     0.307651259643      -0.462034705849     0.307651259643      -0.462034705849     -0.692337797594     -0.460011779727     
4000000000.0        -0.702925621079     -0.455428673981     0.297063311417      -0.457504672124     0.297063311417      -0.457504672124     -0.702925621079     -0.455428673981     
4100000000.0        -0.71304663173      -0.450771936339     0.286942173109      -0.452901041945     0.286942173109      -0.452901041945     -0.71304663173      -0.450771936339     
4200000000.0        -0.722722642814     -0.446060093796     0.277266031446      -0.448242340991     0.277266031446      -0.448242340991     -0.722722642814     -0.446060093796     
4300000000.0        -0.731974728364     -0.44130952618      0.268013812388      -0.443544947841     0.268013812388      -0.443544947841     -0.731974728364     -0.44130952618      
4400000000.0        -0.740823180738     -0.436534683373     0.259165223573      -0.438823311189     0.259165223573      -0.438823311189     -0.740823180738     -0.436534683373     
4500000000.0        -0.749287484725     -0.43174828319      0.250700780206      -0.434090147721     0.250700780206      -0.434090147721     -0.749287484725     -0.43174828319      
4600000000.0        -0.757386305066     -0.426961491093     0.242601817543      -0.429356621833     0.242601817543      -0.429356621833     -0.757386305066     -0.426961491093     
4700000000.0        -0.765137484715     -0.422184082986     0.234850492626      -0.424632508414     0.234850492626      -0.424632508414     -0.765137484715     -0.422184082986     
4800000000.0        -0.772558051627     -0.417424592356     0.227429777494      -0.419926339993     0.227429777494      -0.419926339993     -0.772558051627     -0.417424592356     
4900000000.0        -0.779664232216     -0.412690443012     0.220323445732      -0.415245539469     0.220323445732      -0.415245539469     -0.779664232216     -0.412690443012     
5000000000.0        -0.786471469917     -0.407988068633     0.213516053899      -0.410596539663     0.213516053899      -0.410596539663     -0.786471469917     -0.407988068633     
5100000000.0        -0.792994447609     -0.40332302029      0.206992919114      -0.405984890833     0.206992919114      -0.405984890833     -0.792994447609     -0.40332302029      
5200000000.0        -0.799247112819     -0.398700063028     0.200740093845      -0.401415357256     0.200740093845      -0.401415357256     -0.799247112819     -0.398700063028     
5300000000.0        -0.805242704874     -0.394123262534     0.194744338764      -0.396892003893     0.194744338764      -0.396892003893     -0.805242704874     -0.394123262534     
5400000000.0        -0.810993783283     -0.389596062832     0.188993094358      -0.392418274083     0.188993094358      -0.392418274083     -0.810993783283     -0.389596062832     
5500000000.0        -0.81651225681      -0.385121355886     0.183474451861      -0.387997059146     0.183474451861      -0.387997059146     -0.81651225681      -0.385121355886     
5600000000.0        -0.821809412765     -0.380701543906     0.178177123957      -0.38363076068      0.178177123957      -0.38363076068      -0.821809412765     -0.380701543906     
5700000000.0        -0.826895946187     -0.376338595084     0.173090415609      -0.379321346303     0.173090415609      -0.379321346303     -0.826895946187     -0.376338595084     
5800000000.0        -0.831781988608     -0.372034093435     0.16820419528       -0.375070399491     0.16820419528       -0.375070399491     -0.831781988608     -0.372034093435     
5900000000.0        -0.836477136214     -0.367789283338     0.16350886678       -0.370879164111     0.16350886678       -0.370879164111     -0.836477136214     -0.367789283338     
6000000000.0        -0.840990477231     -0.363605109323     0.158995341884      -0.366748584215     0.158995341884      -0.366748584215     -0.840990477231     -0.363605109323     
6100000000.0        -0.845330618407     -0.359482251599     0.154655013839      -0.362679339561     0.154655013839      -0.362679339561     -0.845330618407     -0.359482251599     
6200000000.0        -0.849505710531     -0.355421157765     0.150479731854      -0.358671877324     0.150479731854      -0.358671877324     -0.849505710531     -0.355421157765     
6300000000.0        -0.853523472917     -0.351422071104     0.146461776614      -0.35472644039      0.146461776614      -0.35472644039      -0.853523472917     -0.351422071104     
6400000000.0        -0.857391216827     -0.34748505582      0.142593836854      -0.35084309259      0.142593836854      -0.35084309259      -0.857391216827     -0.34748505582      
6500000000.0        -0.861115867819     -0.343610019536     0.138868987013      -0.347021741196     0.138868987013      -0.347021741196     -0.861115867819     -0.343610019536     
6600000000.0        -0.864703987032     -0.339796733347     0.135280665951      -0.343262156977     0.135280665951      -0.343262156977     -0.864703987032     -0.339796733347     
6700000000.0        -0.868161791395     -0.336044849682     0.131822656737      -0.339563992054     0.131822656737      -0.339563992054     -0.868161791395     -0.336044849682     
6800000000.0        -0.871495172816     -0.332353918211     0.128489067461      -0.335926795812     0.128489067461      -0.335926795812     -0.871495172816     -0.332353918211     
6900000000.0        -0.874709716346     -0.328723400004     0.125274313067      -0.332350029051     0.125274313067      -0.332350029051     -0.874709716346     -0.328723400004     
7000000000.0        -0.877810717378     -0.325152680123     0.122173098164      -0.328833076585     0.122173098164      -0.328833076585     -0.877810717378     -0.325152680123     
7100000000.0        -0.880803197891     -0.321641078818     0.119180400769      -0.325375258431     0.119180400769      -0.325375258431     -0.880803197891     -0.321641078818     
7200000000.0        -0.883691921804     -0.318187861478     0.116291456962      -0.321975839761     0.116291456962      -0.321975839761     -0.883691921804     -0.318187861478     
7300000000.0        -0.886481409454     -0.31479224746      0.113501746403      -0.318634039732     0.113501746403      -0.318634039732     -0.886481409454     -0.31479224746      
7400000000.0        -0.889175951263     -0.311453417927     0.110806978667      -0.315349039321     0.110806978667      -0.315349039321     -0.889175951263     -0.311453417927     
7500000000.0        -0.891779620612     -0.308170522791     0.108203080373      -0.312119988267     0.108203080373      -0.312119988267     -0.891779620612     -0.308170522791     
7600000000.0        -0.894296285976     -0.304942686861     0.105686183043      -0.30894601122      0.105686183043      -0.30894601122      -0.894296285976     -0.304942686861     
7700000000.0        -0.896729622353     -0.301769015284     0.103252611678      -0.30582621318      0.103252611678      -0.30582621318      -0.896729622353     -0.301769015284     
7800000000.0        -0.899083122029     -0.298648598342     0.100898873988      -0.302759684297     0.100898873988      -0.302759684297     -0.899083122029     -0.298648598342     
7900000000.0        -0.90136010471      -0.295580515695     0.098621650267      -0.299745504105     0.098621650267      -0.299745504105     -0.90136010471      -0.295580515695     
8000000000.0        -0.903563727063     -0.292563840104     0.0964177838444     -0.296782745255     0.0964177838444     -0.296782745255     -0.903563727063     -0.292563840104     
8100000000.0        -0.905696991696     -0.289597640712     0.0942842721112     -0.293870476786     0.0942842721112     -0.293870476786     -0.905696991696     -0.289597640712     
8200000000.0        -0.907762755608     -0.286680985916     0.0922182580659     -0.291007767004     0.0922182580659     -0.291007767004     -0.907762755608     -0.286680985916     
8300000000.0        -0.909763738146     -0.283812945879     0.0902170223605     -0.288193685988     0.0902170223605     -0.288193685988     -0.909763738146     -0.283812945879     
8400000000.0        -0.911702528488     -0.280992594723     0.0882779758127     -0.285427307786     0.0882779758127     -0.285427307786     -0.911702528488     -0.280992594723     
8500000000.0        -0.913581592698     -0.278219012433     0.0863986523583     -0.282707712319     0.0863986523583     -0.282707712319     -0.913581592698     -0.278219012433     
8600000000.0        -0.915403280354     -0.275491286507     0.0845767024167     -0.280033987026     0.0845767024167     -0.280033987026     -0.915403280354     -0.275491286507     
8700000000.0        -0.917169830797     -0.272808513378     0.0828098866448     -0.277405228289     0.0828098866448     -0.277405228289     -0.917169830797     -0.272808513378     
8800000000.0        -0.918883379012     -0.270169799629     0.0810960700555     -0.27482054265      0.0810960700555     -0.27482054265      -0.918883379012     -0.270169799629     
8900000000.0        -0.920545961167     -0.267574263037     0.0794332164793     -0.272279047849     0.0794332164793     -0.272279047849     -0.920545961167     -0.267574263037     
9000000000.0        -0.922159519827     -0.265021033441     0.0778193833474     -0.269779873696     0.0778193833474     -0.269779873696     -0.922159519827     -0.265021033441     
9100000000.0        -0.923725908874     -0.262509253485     0.076252716777      -0.267322162812     0.076252716777      -0.267322162812     -0.923725908874     -0.262509253485     
9200000000.0        -0.925246898133     -0.260038079218     0.0747314469404     -0.264905071229     0.0747314469404     -0.264905071229     -0.925246898133     -0.260038079218     
9300000000.0        -0.926724177738     -0.257606680595     0.0732538837008     -0.262527768891     0.0732538837008     -0.262527768891     -0.926724177738     -0.257606680595     
9400000000.0        -0.928159362249     -0.255214241864     0.0718184124978     -0.260189440039     0.0718184124978     -0.260189440039     -0.928159362249     -0.255214241864     
9500000000.0        -0.929553994526     -0.252859961878     0.0704234904679     -0.257889283525     0.0704234904679     -0.257889283525     -0.929553994526     -0.252859961878     
9600000000.0        -0.930909549392     -0.250543054319     0.0690676427859     -0.255626513036     0.0690676427859     -0.255626513036     -0.930909549392     -0.250543054319     
9700000000.0        -0.932227437083     -0.248262747859     0.0677494592132     -0.253400357253     0.0677494592132     -0.253400357253     -0.932227437083     -0.248262747859     
9800000000.0        -0.933509006507     -0.246018286256     0.0664675908402     -0.251210059949     0.0664675908402     -0.251210059949     -0.933509006507     -0.246018286256     
9900000000.0        -0.934755548315     -0.243808928403     0.0652207470128     -0.24905488003      0.0652207470128     -0.24905488003      -0.934755548315     -0.243808928403     
10000000000.0       -0.935968297808     -0.241633948317     0.0640076924287     -0.24693409154      0.0640076924287     -0.24693409154      -0.935968297808     -0.241633948317     
