# Hz S RI R 50.00 
100000000.0         0.00260262883993    0.00087291008195    0.997382138604      -0.00534152768044   0.997382138604      -0.00534152768044   0.00260262883993    0.00087291008195    
200000000.0         0.00263195669702    0.0017455001741     0.997318590792      -0.010682755502     0.997318590792      -0.010682755502     0.00263195669702    0.0017455001741     
300000000.0         0.00266610228914    0.00261774386581    0.997230235324      -0.0160236512069    0.997230235324      -0.0160236512069    0.00266610228914    0.00261774386581    
400000000.0         0.00270731170344    0.00348956150469    0.997114822853      -0.0213641135612    0.997114822853      -0.0213641135612    0.00270731170344    0.00348956150469    
500000000.0         0.00275644599521    0.00436086208791    0.996971488469      -0.0267040219076    0.996971488469      -0.0267040219076    0.00275644599521    0.00436086208791    
600000000.0         0.00281394063062    0.00523155006583    0.996799792346      -0.0320432456738    0.996799792346      -0.0320432456738    0.00281394063062    0.00523155006583    
700000000.0         0.00288004926994    0.00610152770549    0.996599476027      -0.0373816481205    0.996599476027      -0.0373816481205    0.00288004926994    0.00610152770549    
800000000.0         0.00295493270074    0.00697069615015    0.996370373544      -0.0427190882346    0.996370373544      -0.0427190882346    0.00295493270074    0.00697069615015    
900000000.0         0.00303869841901    0.00783895596918    0.996112371884      -0.0480554218294    0.996112371884      -0.0480554218294    0.00303869841901    0.00783895596918    
1000000000.0        0.00313142068473    0.00870620747252    0.995825390967      -0.0533905022491    0.995825390967      -0.0533905022491    0.00313142068473    0.00870620747252    
1100000000.0        0.00323315166738    0.00957235090365    0.995509372538      -0.0587241808491    0.995509372538      -0.0587241808491    0.00323315166738    0.00957235090365    
1200000000.0        0.00334392808602    0.0104372865648     0.995164273549      -0.0640563073433    0.995164273549      -0.0640563073433    0.00334392808602    0.0104372865648     
1300000000.0        0.00346377538682    0.0113009149015     0.994790062012      -0.0693867300628    0.994790062012      -0.0693867300628    0.00346377538682    0.0113009149015     
1400000000.0        0.00359271048938    0.0121631365629     0.994386714274      -0.0747152961569    0.994386714274      -0.0747152961569    0.00359271048938    0.0121631365629     
1500000000.0        0.00373074365891    0.0130238524443     0.993954213167      -0.0800418517533    0.993954213167      -0.0800418517533    0.00373074365891    0.0130238524443     
1600000000.0        0.00387787982202    0.0138829637207     0.993492546708      -0.0853662420876    0.993492546708      -0.0853662420876    0.00387787982202    0.0138829637207     
1700000000.0        0.00403411951597    0.0147403718715     0.993001707171      -0.0906883116111    0.993001707171      -0.0906883116111    0.00403411951597    0.0147403718715     
1800000000.0        0.00419945958918    0.0155959787008     0.9924816904        -0.096007904082     0.9924816904        -0.096007904082     0.00419945958918    0.0155959787008     
1900000000.0        0.00437389372846    0.0164496863536     0.991932495301      -0.101324862643     0.991932495301      -0.101324862643     0.00437389372846    0.0164496863536     
2000000000.0        0.00455741286293    0.0173013973295     0.991354123448      -0.10663902989      0.991354123448      -0.10663902989      0.00455741286293    0.0173013973295     
2100000000.0        0.00475000547836    0.0181510144947     0.990746578784      -0.111950247928     0.990746578784      -0.111950247928     0.00475000547836    0.0181510144947     
2200000000.0        0.00495165786535    0.0189984410921     0.990109867387      -0.117258358429     0.990109867387      -0.117258358429     0.00495165786535    0.0189984410921     
2300000000.0        0.00516235431773    0.0198435807506     0.989443997282      -0.122563202674     0.989443997282      -0.122563202674     0.00516235431773    0.0198435807506     
2400000000.0        0.00538207729321    0.0206863374936     0.98874897829       -0.127864621598     0.98874897829       -0.127864621598     0.00538207729321    0.0206863374936     
2500000000.0        0.0056108075448     0.0215266157468     0.988024821912      -0.133162455828     0.988024821912      -0.133162455828     0.0056108075448     0.0215266157468     
2600000000.0        0.00584852422951    0.0223643203455     0.987271541226      -0.138456545719     0.987271541226      -0.138456545719     0.00584852422951    0.0223643203455     
2700000000.0        0.00609520499908    0.023199356542      0.986489150809      -0.143746731384     0.986489150809      -0.143746731384     0.00609520499908    0.023199356542      
2800000000.0        0.0063508260764     0.0240316300119     0.985677666667      -0.149032852729     0.985677666667      -0.149032852729     0.0063508260764     0.0240316300119     
2900000000.0        0.00661536232055    0.0248610468608     0.984837106184      -0.154314749475     0.984837106184      -0.154314749475     0.00661536232055    0.0248610468608     
3000000000.0        0.00688878728247    0.025687513631      0.983967488068      -0.159592261189     0.983967488068      -0.159592261189     0.00688878728247    0.025687513631      
3100000000.0        0.00717107325311    0.0265109373076     0.983068832319      -0.164865227306     0.983068832319      -0.164865227306     0.00717107325311    0.0265109373076     
3200000000.0        0.00746219130528    0.0273312253247     0.982141160187      -0.170133487155     0.982141160187      -0.170133487155     0.00746219130528    0.0273312253247     
3300000000.0        0.00776211133047    0.0281482855716     0.981184494148      -0.175396879978     0.981184494148      -0.175396879978     0.00776211133047    0.0281482855716     
3400000000.0        0.00807080207131    0.0289620263988     0.980198857879      -0.18065524495      0.980198857879      -0.18065524495      0.00807080207131    0.0289620263988     
3500000000.0        0.00838823115045    0.0297723566244     0.979184276233      -0.185908421206     0.979184276233      -0.185908421206     0.00838823115045    0.0297723566244     
3600000000.0        0.00871436509651    0.0305791855399     0.978140775222      -0.19115624785      0.978140775222      -0.19115624785      0.00871436509651    0.0305791855399     
3700000000.0        0.00904916936736    0.0313824229162     0.977068382         -0.19639856398      0.977068382         -0.19639856398      0.00904916936736    0.0313824229162     
3800000000.0        0.0093926083714     0.0321819790098     0.975967124849      -0.201635208706     0.975967124849      -0.201635208706     0.0093926083714     0.0321819790098     
3900000000.0        0.00974464548686    0.0329777645688     0.974837033164      -0.206866021162     0.974837033164      -0.206866021162     0.00974464548686    0.0329777645688     
4000000000.0        0.0101052430796     0.0337696908386     0.973678137442      -0.212090840524     0.973678137442      -0.212090840524     0.0101052430796     0.0337696908386     
4100000000.0        0.0104743625197     0.0345576695683     0.972490469271      -0.21730950603      0.972490469271      -0.21730950603      0.0104743625197     0.0345576695683     
4200000000.0        0.0108519641964     0.0353416130167     0.971274061322      -0.222521856987     0.971274061322      -0.222521856987     0.0108519641964     0.0353416130167     
4300000000.0        0.0112380075327     0.0361214339579     0.970028947339      -0.227727732795     0.970028947339      -0.227727732795     0.0112380075327     0.0361214339579     
4400000000.0        0.0116324509988     0.0368970456876     0.96875516213       -0.232926972952     0.96875516213       -0.232926972952     0.0116324509988     0.0368970456876     
4500000000.0        0.0120352521245     0.0376683620293     0.96745274156       -0.238119417075     0.96745274156       -0.238119417075     0.0120352521245     0.0376683620293     
4600000000.0        0.0124463675113     0.0384352973397     0.966121722546      -0.24330490491      0.966121722546      -0.24330490491      0.0124463675113     0.0384352973397     
4700000000.0        0.0128657528441     0.0391977665152     0.964762143047      -0.248483276345     0.964762143047      -0.248483276345     0.0128657528441     0.0391977665152     
4800000000.0        0.0132933629016     0.0399556849976     0.96337404206       -0.253654371425     0.96337404206       -0.253654371425     0.0132933629016     0.0399556849976     
4900000000.0        0.0137291515674     0.0407089687801     0.961957459616      -0.258818030361     0.961957459616      -0.258818030361     0.0137291515674     0.0407089687801     
5000000000.0        0.0141730718395     0.0414575344135     0.960512436769      -0.263974093546     0.960512436769      -0.263974093546     0.0141730718395     0.0414575344135     
5100000000.0        0.0146250758407     0.0422012990118     0.959039015596      -0.269122401564     0.959039015596      -0.269122401564     0.0146250758407     0.0422012990118     
5200000000.0        0.0150851148277     0.0429401802583     0.957537239189      -0.274262795202     0.957537239189      -0.274262795202     0.0150851148277     0.0429401802583     
5300000000.0        0.0155531392002     0.0436740964114     0.95600715165       -0.279395115462     0.95600715165       -0.279395115462     0.0155531392002     0.0436740964114     
5400000000.0        0.0160290985103     0.0444029663108     0.954448798088      -0.284519203573     0.954448798088      -0.284519203573     0.0160290985103     0.0444029663108     
5500000000.0        0.0165129414711     0.045126709383      0.952862224611      -0.289634901        0.952862224611      -0.289634901        0.0165129414711     0.045126709383      
5600000000.0        0.0170046159652     0.0458452456473     0.951247478326      -0.294742049455     0.951247478326      -0.294742049455     0.0170046159652     0.0458452456473     
5700000000.0        0.0175040690532     0.0465584957218     0.94960460733       -0.299840490908     0.94960460733       -0.299840490908     0.0175040690532     0.0465584957218     
5800000000.0        0.0180112469823     0.0472663808291     0.947933660707      -0.304930067599     0.947933660707      -0.304930067599     0.0180112469823     0.0472663808291     
5900000000.0        0.0185260951942     0.0479688228018     0.946234688524      -0.310010622044     0.946234688524      -0.310010622044     0.0185260951942     0.0479688228018     
6000000000.0        0.0190485583332     0.0486657440888     0.944507741827      -0.315081997049     0.944507741827      -0.315081997049     0.0190485583332     0.0486657440888     
6100000000.0        0.0195785802545     0.0493570677606     0.942752872634      -0.320144035714     0.942752872634      -0.320144035714     0.0195785802545     0.0493570677606     
6200000000.0        0.0201161040318     0.0500427175155     0.940970133932      -0.325196581452     0.940970133932      -0.325196581452     0.0201161040318     0.0500427175155     
6300000000.0        0.0206610719653     0.0507226176845     0.939159579676      -0.330239477988     0.939159579676      -0.330239477988     0.0206610719653     0.0507226176845     
6400000000.0        0.0212134255898     0.0513966932377     0.937321264778      -0.335272569374     0.937321264778      -0.335272569374     0.0212134255898     0.0513966932377     
6500000000.0        0.0217731056818     0.0520648697895     0.935455245107      -0.3402957          0.935455245107      -0.3402957          0.0217731056818     0.0520648697895     
6600000000.0        0.0223400522677     0.0527270736044     0.933561577483      -0.345308714594     0.933561577483      -0.345308714594     0.0223400522677     0.0527270736044     
6700000000.0        0.0229142046314     0.0533832316023     0.931640319673      -0.350311458243     0.931640319673      -0.350311458243     0.0229142046314     0.0533832316023     
6800000000.0        0.0234955013219     0.0540332713644     0.929691530388      -0.355303776389     0.929691530388      -0.355303776389     0.0234955013219     0.0540332713644     
6900000000.0        0.0240838801608     0.054677121138      0.927715269275      -0.360285514849     0.927715269275      -0.360285514849     0.0240838801608     0.054677121138      
7000000000.0        0.0246792782501     0.0553147098426     0.925711596915      -0.365256519814     0.925711596915      -0.365256519814     0.0246792782501     0.0553147098426     
7100000000.0        0.0252816319795     0.0559459670752     0.923680574818      -0.370216637864     0.923680574818      -0.370216637864     0.0252816319795     0.0559459670752     
7200000000.0        0.0258908770343     0.056570823115      0.921622265417      -0.37516571597      0.921622265417      -0.37516571597      0.0258908770343     0.056570823115      
7300000000.0        0.0265069484028     0.0571892089297     0.919536732065      -0.380103601509     0.919536732065      -0.380103601509     0.0265069484028     0.0571892089297     
7400000000.0        0.0271297803837     0.0578010561798     0.917424039031      -0.385030142264     0.917424039031      -0.385030142264     0.0271297803837     0.0578010561798     
7500000000.0        0.0277593065939     0.0584062972246     0.915284251493      -0.389945186439     0.915284251493      -0.389945186439     0.0277593065939     0.0584062972246     
7600000000.0        0.0283954599757     0.0590048651269     0.913117435535      -0.394848582661     0.913117435535      -0.394848582661     0.0283954599757     0.0590048651269     
7700000000.0        0.0290381728049     0.0595966936581     0.91092365814       -0.399740179991     0.91092365814       -0.399740179991     0.0290381728049     0.0595966936581     
7800000000.0        0.0296873766976     0.0601817173036     0.908702987188      -0.404619827929     0.908702987188      -0.404619827929     0.0296873766976     0.0601817173036     
7900000000.0        0.0303430026186     0.0607598712678     0.90645549145       -0.409487376423     0.90645549145       -0.409487376423     0.0303430026186     0.0607598712678     
8000000000.0        0.0310049808883     0.0613310914786     0.904181240583      -0.414342675875     0.904181240583      -0.414342675875     0.0310049808883     0.0613310914786     
8100000000.0        0.0316732411903     0.0618953145931     0.901880305124      -0.419185577148     0.901880305124      -0.419185577148     0.0316732411903     0.0618953145931     
8200000000.0        0.0323477125795     0.0624524780016     0.899552756487      -0.424015931573     0.899552756487      -0.424015931573     0.0323477125795     0.0624524780016     
8300000000.0        0.0330283234892     0.0630025198332     0.897198666956      -0.428833590957     0.897198666956      -0.428833590957     0.0330283234892     0.0630025198332     
8400000000.0        0.0337150017389     0.0635453789603     0.894818109683      -0.433638407588     0.894818109683      -0.433638407588     0.0337150017389     0.0635453789603     
8500000000.0        0.0344076745417     0.0640809950032     0.892411158678      -0.438430234243     0.892411158678      -0.438430234243     0.0344076745417     0.0640809950032     
8600000000.0        0.0351062685122     0.0646093083347     0.889977888809      -0.443208924192     0.889977888809      -0.443208924192     0.0351062685122     0.0646093083347     
8700000000.0        0.035810709674      0.0651302600853     0.887518375795      -0.447974331208     0.887518375795      -0.447974331208     0.035810709674      0.0651302600853     
8800000000.0        0.0365209234675     0.065643792147      0.885032696198      -0.452726309571     0.885032696198      -0.452726309571     0.0365209234675     0.065643792147      
8900000000.0        0.0372368347572     0.0661498471783     0.882520927422      -0.457464714072     0.882520927422      -0.457464714072     0.0372368347572     0.0661498471783     
9000000000.0        0.0379583678398     0.0666483686086     0.879983147705      -0.462189400026     0.879983147705      -0.462189400026     0.0379583678398     0.0666483686086     
9100000000.0        0.0386854464517     0.0671393006425     0.877419436116      -0.46690022327      0.877419436116      -0.46690022327      0.0386854464517     0.0671393006425     
9200000000.0        0.0394179937764     0.0676225882641     0.874829872546      -0.471597040174     0.874829872546      -0.471597040174     0.0394179937764     0.0676225882641     
9300000000.0        0.0401559324532     0.0680981772414     0.872214537708      -0.476279707644     0.872214537708      -0.476279707644     0.0401559324532     0.0680981772414     
9400000000.0        0.0408991845836     0.0685660141305     0.869573513124      -0.480948083131     0.869573513124      -0.480948083131     0.0408991845836     0.0685660141305     
9500000000.0        0.0416476717403     0.0690260462799     0.866906881129      -0.485602024632     0.866906881129      -0.485602024632     0.0416476717403     0.0690260462799     
9600000000.0        0.0424013149741     0.0694782218343     0.864214724858      -0.490241390699     0.864214724858      -0.490241390699     0.0424013149741     0.0694782218343     
9700000000.0        0.0431600348223     0.0699224897389     0.861497128243      -0.494866040445     0.861497128243      -0.494866040445     0.0431600348223     0.0699224897389     
9800000000.0        0.0439237513159     0.0703587997433     0.858754176008      -0.499475833544     0.858754176008      -0.499475833544     0.0439237513159     0.0703587997433     
9900000000.0        0.0446923839882     0.0707871024056     0.855985953664      -0.504070630244     0.855985953664      -0.504070630244     0.0446923839882     0.0707871024056     
10000000000.0       0.0454658518818     0.0712073490961     0.8531925475        -0.508650291365     0.8531925475        -0.508650291365     0.0454658518818     0.0712073490961     
