# Hz S RI R 50.00 
100000000.0         0.000625851677833   -0.00117865404607   0.999358958984      -0.00327298388855   0.999358958984      -0.00327298388855   0.000625851677833   -0.00117865404607   
200000000.0         0.000616392574723   -0.00235730511437   0.999334406514      -0.00654596076948   0.999334406514      -0.00654596076948   0.000616392574722   -0.00235730511437   
300000000.0         0.000598111814231   -0.0035359188299    0.99929885207       -0.00981892460535   0.99929885207       -0.00981892460535   0.000598111814231   -0.0035359188299    
400000000.0         0.000571555777473   -0.00471445906431   0.999251747746      -0.0130918543459    0.999251747746      -0.0130918543459    0.000571555777473   -0.00471445906431   
500000000.0         0.000536934251419   -0.00589288748163   0.999192882279      -0.0163647225991    0.999192882279      -0.0163647225991    0.000536934251419   -0.00589288748163   
600000000.0         0.000494353944564   -0.00707116403306   0.999122147634      -0.0196374980335    0.999122147634      -0.0196374980335    0.000494353944564   -0.00707116403306   
700000000.0         0.000443877815169   -0.00824924730385   0.999039479755      -0.0229101465152    0.999039479755      -0.0229101465152    0.000443877815168   -0.00824924730385   
800000000.0         0.000385546718912   -0.00942709475281   0.998944836974      -0.0261826317612    0.998944836974      -0.0261826317612    0.000385546718912   -0.00942709475281   
900000000.0         0.000319389048809   -0.0106046628842    0.998838190424      -0.0294549157591    0.998838190424      -0.0294549157591    0.000319389048809   -0.0106046628842    
1000000000.0        0.000245425624475   -0.0117819073765    0.998719519184      -0.0327269590574    0.998719519184      -0.0327269590574    0.000245425624475   -0.0117819073765    
1100000000.0        0.000163672413169   -0.0129587831818    0.998588807594      -0.0359987209771    0.998588807594      -0.0359987209771    0.000163672413169   -0.0129587831818    
1200000000.0        7.41421541919e-05   -0.0141352446055    0.998446043664      -0.0392701597732    0.998446043664      -0.0392701597732    7.41421541919e-05   -0.0141352446055    
1300000000.0        -2.31546164507e-05  -0.0153112453708    0.998291218071      -0.0425412327601    0.998291218071      -0.0425412327601    -2.31546164507e-05  -0.0153112453708    
1400000000.0        -0.000128208890167  -0.0164867386725    0.998124323514      -0.045811896414     0.998124323514      -0.045811896414     -0.000128208890167  -0.0164867386725    
1500000000.0        -0.000241012723133  -0.0176616772228    0.997945354264      -0.0490821064557    0.997945354264      -0.0490821064557    -0.000241012723133  -0.0176616772228    
1600000000.0        -0.000361558909535  -0.0188360132905    0.997754305866      -0.0523518179207    0.997754305866      -0.0523518179207    -0.000361558909535  -0.0188360132905    
1700000000.0        -0.000489840744485  -0.0200096987356    0.997551174915      -0.0556209852188    0.997551174915      -0.0556209852188    -0.000489840744485  -0.0200096987356    
1800000000.0        -0.000625851847908  -0.0211826850389    0.997335958896      -0.0588895621853    0.997335958896      -0.0588895621853    -0.000625851847908  -0.0211826850389    
1900000000.0        -0.000769586031001  -0.0223549233297    0.997108656071      -0.0621575021255    0.997108656071      -0.0621575021255    -0.000769586031     -0.0223549233297    
2000000000.0        -0.000921037193079  -0.0235263644096    0.996869265386      -0.0654247578542    0.996869265386      -0.0654247578542    -0.000921037193079  -0.0235263644096    
2100000000.0        -0.00108019924058   -0.024696958775     0.996617786405      -0.0686912817307    0.996617786405      -0.0686912817307    -0.00108019924058   -0.024696958775     
2200000000.0        -0.0012470660225    -0.0258666566367    0.996354219259      -0.0719570256902    0.996354219259      -0.0719570256902    -0.0012470660225    -0.0258666566367    
2300000000.0        -0.00142163127825   -0.0270354079392    0.996078564602      -0.0752219412726    0.996078564602      -0.0752219412726    -0.00142163127825   -0.0270354079392    
2400000000.0        -0.00160388859495   -0.0282031623774    0.995790823586      -0.0784859796479    0.995790823586      -0.0784859796479    -0.00160388859495   -0.0282031623774    
2500000000.0        -0.00179383137219   -0.0293698694129    0.995490997828      -0.08174909164      0.995490997828      -0.08174909164      -0.00179383137219   -0.0293698694129    
2600000000.0        -0.00199145279251   -0.0305354782894    0.9951790894        -0.0850112277491    0.9951790894        -0.0850112277491    -0.00199145279251   -0.0305354782894    
2700000000.0        -0.00219674579651   -0.0316999380462    0.994855100802      -0.0882723381711    0.994855100802      -0.0882723381711    -0.00219674579651   -0.0316999380462    
2800000000.0        -0.00240970306164   -0.0328631975323    0.994519034961      -0.0915323728172    0.994519034961      -0.0915323728172    -0.00240970306164   -0.0328631975323    
2900000000.0        -0.00263031698407   -0.0340252054188    0.994170895211      -0.0947912813313    0.994170895211      -0.0947912813313    -0.00263031698407   -0.0340252054188    
3000000000.0        -0.00285857966297   -0.0351859102113    0.993810685294      -0.0980490131063    0.993810685294      -0.0980490131063    -0.00285857966297   -0.0351859102113    
3100000000.0        -0.00309448288682   -0.0363452602611    0.993438409345      -0.1013055173       0.993438409345      -0.1013055173       -0.00309448288682   -0.0363452602611    
3200000000.0        -0.00333801812144   -0.0375032037768    0.993054071896      -0.104560742851     0.993054071896      -0.104560742851     -0.00333801812144   -0.0375032037768    
3300000000.0        -0.00358917649952   -0.038659688835     0.992657677862      -0.107814638489     0.992657677862      -0.107814638489     -0.00358917649952   -0.038659688835     
3400000000.0        -0.00384794881126   -0.0398146633902    0.992249232547      -0.111067152752     0.992249232547      -0.111067152752     -0.00384794881126   -0.0398146633902    
3500000000.0        -0.00411432549611   -0.0409680752852    0.991828741635      -0.114318234        0.991828741635      -0.114318234        -0.00411432549611   -0.0409680752852    
3600000000.0        -0.0043882966354    -0.0421198722607    0.991396211192      -0.117567830421     0.991396211192      -0.117567830421     -0.0043882966354    -0.0421198722607    
3700000000.0        -0.00466985194574   -0.0432700019645    0.990951647662      -0.120815890049     0.990951647662      -0.120815890049     -0.00466985194574   -0.0432700019645    
3800000000.0        -0.00495898077311   -0.0444184119608    0.990495057867      -0.124062360773     0.990495057867      -0.124062360773     -0.00495898077311   -0.0444184119608    
3900000000.0        -0.00525567208753   -0.0455650497389    0.990026449005      -0.127307190346     0.990026449005      -0.127307190346     -0.00525567208753   -0.0455650497389    
4000000000.0        -0.00555991447826   -0.046709862722     0.989545828651      -0.130550326398     0.989545828651      -0.130550326398     -0.00555991447826   -0.046709862722     
4100000000.0        -0.00587169614949   -0.0478527982756    0.989053204755      -0.133791716447     0.989053204755      -0.133791716447     -0.00587169614949   -0.0478527982756    
4200000000.0        -0.00619100491642   -0.0489938037156    0.988548585643      -0.137031307905     0.988548585643      -0.137031307905     -0.00619100491642   -0.0489938037156    
4300000000.0        -0.00651782820171   -0.0501328263167    0.988031980015      -0.14026904809      0.988031980015      -0.14026904809      -0.00651782820171   -0.0501328263167    
4400000000.0        -0.00685215303235   -0.05126981332      0.987503396946      -0.143504884235     0.987503396946      -0.143504884235     -0.00685215303235   -0.05126981332      
4500000000.0        -0.00719396603674   -0.0524047119407    0.986962845886      -0.146738763497     0.986962845886      -0.146738763497     -0.00719396603674   -0.0524047119407    
4600000000.0        -0.00754325344211   -0.053537469376     0.986410336659      -0.149970632965     0.986410336659      -0.149970632965     -0.00754325344211   -0.053537469376     
4700000000.0        -0.00790000107221   -0.0546680328124    0.985845879464      -0.15320043967      0.985845879464      -0.15320043967      -0.00790000107221   -0.0546680328124    
4800000000.0        -0.00826419434517   -0.0557963494331    0.985269484874      -0.156428130591     0.985269484874      -0.156428130591     -0.00826419434517   -0.0557963494331    
4900000000.0        -0.00863581827171   -0.056922366425     0.984681163837      -0.159653652666     0.984681163837      -0.159653652666     -0.00863581827171   -0.056922366425     
5000000000.0        -0.00901485745345   -0.0580460309861    0.984080927675      -0.162876952796     0.984080927675      -0.162876952796     -0.00901485745345   -0.0580460309861    
5100000000.0        -0.00940129608141   -0.0591672903324    0.983468788084      -0.166097977859     0.983468788084      -0.166097977859     -0.00940129608141   -0.0591672903324    
5200000000.0        -0.00979511793481   -0.0602860917046    0.982844757134      -0.16931667471      0.982844757134      -0.16931667471      -0.00979511793481   -0.0602860917046    
5300000000.0        -0.0101963063799    -0.0614023823751    0.982208847269      -0.172532990195     0.982208847269      -0.172532990195     -0.0101963063799    -0.0614023823751    
5400000000.0        -0.0106048443691    -0.0625161096546    0.981561071307      -0.175746871153     0.981561071307      -0.175746871153     -0.0106048443691    -0.0625161096546    
5500000000.0        -0.0110207144401    -0.0636272208987    0.980901442438      -0.178958264429     0.980901442438      -0.178958264429     -0.0110207144401    -0.0636272208987    
5600000000.0        -0.0114438987152    -0.0647356635144    0.980229974226      -0.182167116874     0.980229974226      -0.182167116874     -0.0114438987152    -0.0647356635144    
5700000000.0        -0.011874378901     -0.0658413849667    0.979546680609      -0.185373375359     0.979546680609      -0.185373375359     -0.011874378901     -0.0658413849667    
5800000000.0        -0.0123121362879    -0.0669443327845    0.978851575894      -0.188576986778     0.978851575894      -0.188576986778     -0.0123121362879    -0.0669443327845    
5900000000.0        -0.0127571517499    -0.0680444545675    0.978144674764      -0.191777898052     0.978144674764      -0.191777898052     -0.0127571517499    -0.0680444545675    
6000000000.0        -0.0132094057442    -0.0691416979917    0.977425992269      -0.194976056142     0.977425992269      -0.194976056142     -0.0132094057442    -0.0691416979917    
6100000000.0        -0.0136688783117    -0.0702360108161    0.976695543833      -0.198171408052     0.976695543833      -0.198171408052     -0.0136688783117    -0.0702360108161    
6200000000.0        -0.0141355490768    -0.0713273408884    0.975953345247      -0.201363900834     0.975953345247      -0.201363900834     -0.0141355490768    -0.0713273408884    
6300000000.0        -0.0146093972475    -0.072415636151     0.975199412674      -0.204553481596     0.975199412674      -0.204553481596     -0.0146093972475    -0.072415636151     
6400000000.0        -0.0150904016162    -0.0735008446469    0.974433762644      -0.20774009751      0.974433762644      -0.20774009751      -0.0150904016162    -0.0735008446469    
6500000000.0        -0.0155785405594    -0.0745829145258    0.973656412055      -0.210923695813     0.973656412055      -0.210923695813     -0.0155785405594    -0.0745829145258    
6600000000.0        -0.016073792039     -0.0756617940495    0.972867378171      -0.214104223819     0.972867378171      -0.214104223819     -0.016073792039     -0.0756617940495    
6700000000.0        -0.0165761336024    -0.0767374315977    0.972066678622      -0.21728162892      0.972066678622      -0.21728162892      -0.0165761336024    -0.0767374315977    
6800000000.0        -0.0170855423834    -0.0778097756736    0.971254331403      -0.220455858593     0.971254331403      -0.220455858593     -0.0170855423834    -0.0778097756736    
6900000000.0        -0.0176019951028    -0.0788787749098    0.970430354873      -0.223626860409     0.970430354873      -0.223626860409     -0.0176019951028    -0.0788787749098    
7000000000.0        -0.0181254680698    -0.0799443780734    0.969594767753      -0.226794582034     0.969594767753      -0.226794582034     -0.0181254680698    -0.0799443780734    
7100000000.0        -0.0186559371824    -0.0810065340715    0.968747589123      -0.229958971237     0.968747589123      -0.229958971237     -0.0186559371824    -0.0810065340715    
7200000000.0        -0.0191933779286    -0.0820651919567    0.967888838426      -0.233119975896     0.967888838426      -0.233119975896     -0.0191933779286    -0.0820651919567    
7300000000.0        -0.0197377653879    -0.0831203009327    0.967018535462      -0.236277544        0.967018535462      -0.236277544        -0.0197377653879    -0.0831203009327    
7400000000.0        -0.0202890742321    -0.0841718103589    0.966136700388      -0.239431623661     0.966136700388      -0.239431623661     -0.0202890742321    -0.0841718103589    
7500000000.0        -0.0208472787267    -0.0852196697561    0.965243353716      -0.242582163111     0.965243353716      -0.242582163111     -0.0208472787267    -0.0852196697561    
7600000000.0        -0.0214123527324    -0.0862638288115    0.964338516314      -0.245729110714     0.964338516314      -0.245729110714     -0.0214123527324    -0.0862638288115    
7700000000.0        -0.0219842697065    -0.0873042373841    0.963422209401      -0.248872414965     0.963422209401      -0.248872414965     -0.0219842697065    -0.0873042373841    
7800000000.0        -0.0225630027042    -0.0883408455089    0.962494454546      -0.252012024503     0.962494454546      -0.252012024503     -0.0225630027042    -0.0883408455089    
7900000000.0        -0.0231485243806    -0.089373603403     0.961555273668      -0.255147888107     0.961555273668      -0.255147888107     -0.0231485243806    -0.089373603403     
8000000000.0        -0.023740806992     -0.0904024614696    0.960604689033      -0.258279954708     0.960604689033      -0.258279954708     -0.023740806992     -0.0904024614696    
8100000000.0        -0.0243398223977    -0.0914273703033    0.959642723253      -0.26140817339      0.959642723253      -0.26140817339      -0.0243398223977    -0.0914273703033    
8200000000.0        -0.0249455420619    -0.0924482806949    0.958669399283      -0.264532493396     0.958669399283      -0.264532493396     -0.0249455420619    -0.0924482806949    
8300000000.0        -0.0255579370556    -0.093465143636     0.957684740418      -0.267652864132     0.957684740418      -0.267652864132     -0.0255579370556    -0.093465143636     
8400000000.0        -0.0261769780582    -0.0944779103237    0.956688770295      -0.270769235172     0.956688770295      -0.270769235172     -0.0261769780582    -0.0944779103237    
8500000000.0        -0.0268026353598    -0.0954865321654    0.955681512888      -0.273881556264     0.955681512888      -0.273881556264     -0.0268026353598    -0.0954865321654    
8600000000.0        -0.0274348788632    -0.0964909607834    0.954662992503      -0.276989777332     0.954662992503      -0.276989777332     -0.0274348788632    -0.0964909607834    
8700000000.0        -0.0280736780857    -0.0974911480192    0.953633233785      -0.280093848482     0.953633233785      -0.280093848482     -0.0280736780857    -0.0974911480192    
8800000000.0        -0.0287190021617    -0.0984870459382    0.952592261704      -0.283193720005     0.952592261704      -0.283193720005     -0.0287190021617    -0.0984870459382    
8900000000.0        -0.0293708198447    -0.0994786068338    0.951540101563      -0.286289342383     0.951540101563      -0.286289342383     -0.0293708198447    -0.0994786068338    
9000000000.0        -0.0300290995095    -0.100465783232     0.950476778989      -0.289380666293     0.950476778989      -0.289380666293     -0.0300290995095    -0.100465783232     
9100000000.0        -0.0306938091545    -0.101448527897     0.949402319934      -0.292467642611     0.949402319934      -0.292467642611     -0.0306938091545    -0.101448527897     
9200000000.0        -0.0313649164044    -0.102426793831     0.94831675067       -0.295550222413     0.94831675067       -0.295550222413     -0.0313649164044    -0.102426793831     
9300000000.0        -0.0320423885122    -0.103400534285     0.94722009779       -0.298628356984     0.94722009779       -0.298628356984     -0.0320423885122    -0.103400534285     
9400000000.0        -0.032726192362     -0.104369702758     0.946112388203      -0.30170199782      0.946112388203      -0.30170199782      -0.032726192362     -0.104369702758     
9500000000.0        -0.0334162944714    -0.105334253002     0.944993649131      -0.30477109663      0.944993649131      -0.30477109663      -0.0334162944714    -0.105334253002     
9600000000.0        -0.034112660994     -0.106294139029     0.943863908107      -0.307835605343     0.943863908107      -0.307835605343     -0.034112660994     -0.106294139029     
9700000000.0        -0.0348152577222    -0.107249315108     0.942723192976      -0.31089547611      0.942723192976      -0.31089547611      -0.0348152577222    -0.107249315108     
9800000000.0        -0.0355240500899    -0.10819973578      0.941571531884      -0.313950661308     0.941571531884      -0.313950661308     -0.0355240500899    -0.10819973578      
9900000000.0        -0.0362390031749    -0.109145355849     0.940408953284      -0.317001113544     0.940408953284      -0.317001113544     -0.0362390031749    -0.109145355849     
10000000000.0       -0.0369600817022    -0.110086130397     0.939235485928      -0.320046785656     0.939235485928      -0.320046785656     -0.0369600817022    -0.110086130397     
