# Hz S RI R 50.00 
100000000.0         -0.00491970747136   -0.0696184852949    0.994992540978      -0.0699372188734    0.994992540978      -0.0699372188734    -0.00491970747136   -0.0696184852949    
200000000.0         -0.0193807705572    -0.137195183153     0.98053072509       -0.137832737587     0.98053072509       -0.137832737587     -0.0193807705572    -0.137195183153     
300000000.0         -0.0425234987638    -0.200903402508     0.957387292052      -0.20185991306      0.957387292052      -0.20185991306      -0.0425234987638    -0.200903402508     
400000000.0         -0.0731163694054    -0.259263297747     0.926793688943      -0.260538937573     0.926793688943      -0.260538937573     -0.0731163694054    -0.259263297747     
500000000.0         -0.10966691965      -0.311232823899     0.89024234947       -0.312827798759     0.89024234947       -0.312827798759     -0.10966691965      -0.311232823899     
600000000.0         -0.150584831991     -0.356230219684     0.849323576211      -0.358144764336     0.849323576211      -0.358144764336     -0.150584831991     -0.356230219684     
700000000.0         -0.194325426643     -0.394097552562     0.805582040038      -0.396331928019     0.805582040038      -0.396331928019     -0.194325426643     -0.394097552562     
800000000.0         -0.239495686092     -0.425024983784     0.760410752583      -0.427579475091     0.760410752583      -0.427579475091     -0.239495686092     -0.425024983784     
900000000.0         -0.284917356996     -0.449457597083     0.714987963024      -0.45233251145      0.714987963024      -0.45233251145      -0.284917356996     -0.449457597083     
1000000000.0        -0.329651318806     -0.46800291773      0.670252788787      -0.471198582919     0.670252788787      -0.471198582919     -0.329651318806     -0.46800291773      
1100000000.0        -0.372992635859     -0.481350855911     0.626910163088      -0.484867618815     0.626910163088      -0.484867618815     -0.372992635859     -0.481350855911     
1200000000.0        -0.414446952106     -0.490211476205     0.585454439983      -0.494049701579     0.585454439983      -0.494049701579     -0.414446952106     -0.490211476205     
1300000000.0        -0.453697560791     -0.495271225928     0.546202324556      -0.49943129525      0.546202324556      -0.49943129525      -0.453697560791     -0.495271225928     
1400000000.0        -0.490570043461     -0.497165416876     0.509328233816      -0.501647727308     0.509328233816      -0.501647727308     -0.490570043461     -0.497165416876     
1500000000.0        -0.524998854593     -0.496463540436     0.474897712008      -0.501268503879     0.474897712008      -0.501268503879     -0.524998854593     -0.496463540436     
1600000000.0        -0.556998160761     -0.493663864501     0.442896591407      -0.498791906731     0.442896591407      -0.498791906731     -0.556998160761     -0.493663864501     
1700000000.0        -0.586637784146     -0.489194207747     0.413255048776      -0.494645767613     0.413255048776      -0.494645767613     -0.586637784146     -0.489194207747     
1800000000.0        -0.614024197895     -0.483416451014     0.385866609985      -0.48919197971      0.385866609985      -0.48919197971      -0.614024197895     -0.483416451014     
1900000000.0        -0.639286042646     -0.476633013345     0.360602633472      -0.482732973727     0.360602633472      -0.482732973727     -0.639286042646     -0.476633013345     
2000000000.0        -0.662563439733     -0.469094090279     0.337322997022      -0.475518956243     0.337322997022      -0.475518956243     -0.662563439733     -0.469094090279     
2100000000.0        -0.684000352984     -0.461004893489     0.315883735958      -0.467755149396     0.315883735958      -0.467755149396     -0.684000352984     -0.461004893489     
2200000000.0        -0.703739316459     -0.452532449558     0.296142315405      -0.459608589696     0.296142315405      -0.459608589696     -0.703739316459     -0.452532449558     
2300000000.0        -0.721917948173     -0.443811732873     0.277961116551      -0.451214260967     0.277961116551      -0.451214260967     -0.721917948173     -0.443811732873     
2400000000.0        -0.738666779825     -0.434951047815     0.261209606917      -0.442680476574     0.261209606917      -0.442680476574     -0.738666779825     -0.434951047815     
2500000000.0        -0.7541080343       -0.42603666046      0.245765562854      -0.434093511155     0.245765562854      -0.434093511155     -0.7541080343       -0.42603666046      
2600000000.0        -0.768355069818     -0.417136727681     0.231515625386      -0.42552152976      0.231515625386      -0.42552152976      -0.768355069818     -0.417136727681     
2700000000.0        -0.781512280567     -0.408304594747     0.21835539958       -0.417017885483     0.21835539958       -0.417017885483     -0.781512280567     -0.408304594747     
2800000000.0        -0.793675299487     -0.399581540687     0.206189251754      -0.408623864849     0.206189251754      -0.408623864849     -0.793675299487     -0.399581540687     
2900000000.0        -0.804931391828     -0.390999049851     0.194929915922      -0.40037095941      0.194929915922      -0.40037095941      -0.804931391828     -0.390999049851     
3000000000.0        -0.815359960377     -0.382580682603     0.184497988567      -0.392282736456     0.184497988567      -0.392282736456     -0.815359960377     -0.382580682603     
3100000000.0        -0.825033107249     -0.374343610247     0.174821366841      -0.384376373971     0.174821366841      -0.384376373971     -0.825033107249     -0.374343610247     
3200000000.0        -0.834016214664     -0.366299870855     0.165834667794      -0.376663916485     0.165834667794      -0.376663916485     -0.834016214664     -0.366299870855     
3300000000.0        -0.842368519787     -0.358457394394     0.15747865353       -0.369153300216     0.15747865353       -0.369153300216     -0.842368519787     -0.358457394394     
3400000000.0        -0.850143667765     -0.350820837959     0.149699678173      -0.36184918833      0.149699678173      -0.36184918833      -0.850143667765     -0.350820837959     
3500000000.0        -0.857390233439     -0.343392265194     0.142449166147      -0.354753650374     0.142449166147      -0.354753650374     -0.857390233439     -0.343392265194     
3600000000.0        -0.864152206647     -0.336171698151     0.135683126882      -0.347866714163     0.135683126882      -0.347866714163     -0.864152206647     -0.336171698151     
3700000000.0        -0.870469439019     -0.329157564912     0.129361708009      -0.34118681341      0.129361708009      -0.34118681341      -0.870469439019     -0.329157564912     
3800000000.0        -0.876378052175     -0.322347062108     0.123448787167      -0.334711150265     0.123448787167      -0.334711150265     -0.876378052175     -0.322347062108     
3900000000.0        -0.881910808516     -0.315736448052     0.117911601211      -0.328435988466     0.117911601211      -0.328435988466     -0.881910808516     -0.315736448052     
4000000000.0        -0.887097446577     -0.30932127931      0.112720410857      -0.322356889914     0.112720410857      -0.322356889914     -0.887097446577     -0.30932127931      
4100000000.0        -0.891964983347     -0.303096601196     0.107848198363      -0.316468905197     0.107848198363      -0.316468905197     -0.891964983347     -0.303096601196     
4200000000.0        -0.896537986151     -0.297057100759     0.103270395647      -0.310766726573     0.103270395647      -0.310766726573     -0.896537986151     -0.297057100759     
4300000000.0        -0.900838816736     -0.291197229218     0.098964640197      -0.30524481043      0.098964640197      -0.30524481043      -0.900838816736     -0.291197229218     
4400000000.0        -0.904887850149     -0.285511299558     0.0949105561975     -0.299897474887     0.0949105561975     -0.299897474887     -0.904887850149     -0.285511299558     
4500000000.0        -0.908703670835     -0.27999356391      0.0910895584278     -0.294718977185     0.0910895584278     -0.294718977185     -0.908703670835     -0.27999356391      
4600000000.0        -0.91230324827      -0.274638274508     0.0874846766307     -0.289703574652     0.0874846766307     -0.289703574652     -0.91230324827      -0.274638274508     
4700000000.0        -0.915702094226     -0.269439731297     0.0840803982475     -0.284845572328     0.0840803982475     -0.284845572328     -0.915702094226     -0.269439731297     
4800000000.0        -0.918914403597     -0.264392318726     0.0808625275858     -0.280139359758     0.0808625275858     -0.280139359758     -0.918914403597     -0.264392318726     
4900000000.0        -0.921953180557     -0.259490533763     0.0778180596719     -0.275579439019     0.0778180596719     -0.275579439019     -0.921953180557     -0.259490533763     
5000000000.0        -0.924830351589     -0.254729006817     0.0749350672115     -0.271160445652     0.0749350672115     -0.271160445652     -0.924830351589     -0.254729006817     
5100000000.0        -0.927556866838     -0.250102516943     0.0722025992416     -0.266877163867     0.0722025992416     -0.266877163867     -0.927556866838     -0.250102516943     
5200000000.0        -0.930142791031     -0.245606002423     0.0696105902087     -0.262724537138     0.0696105902087     -0.262724537138     -0.930142791031     -0.245606002423     
5300000000.0        -0.932597385106     -0.241234567668     0.0671497783397     -0.25869767511      0.0671497783397     -0.25869767511      -0.932597385106     -0.241234567668     
5400000000.0        -0.934929179554     -0.236983487158     0.0648116323        -0.254791857542     0.0648116323        -0.254791857542     -0.934929179554     -0.236983487158     
5500000000.0        -0.937146040371     -0.232848207043     0.0625882852415     -0.251002535916     0.0625882852415     -0.251002535916     -0.937146040371     -0.232848207043     
5600000000.0        -0.939255228415     -0.228824344896     0.0604724754424     -0.247325333193     0.0604724754424     -0.247325333193     -0.939255228415     -0.228824344896     
5700000000.0        -0.941263452886     -0.224907688021     0.0584574928321     -0.24375604213      0.0584574928321     -0.24375604213      -0.941263452886     -0.224907688021     
5800000000.0        -0.94317691954      -0.221094190646     0.056537130771      -0.240290622474     0.056537130771      -0.240290622474     -0.94317691954      -0.221094190646     
5900000000.0        -0.945001374217     -0.21737997027      0.0547056425266     -0.236925197314     0.0547056425266     -0.236925197314     -0.945001374217     -0.21737997027      
6000000000.0        -0.946742142164     -0.213761303374     0.0529577019501     -0.233656048797     0.0529577019501     -0.233656048797     -0.946742142164     -0.213761303374     
6100000000.0        -0.948404163594     -0.210234620682     0.0512883679129     -0.230479613391     0.0512883679129     -0.230479613391     -0.948404163594     -0.210234620682     
6200000000.0        -0.949992025888     -0.206796502102     0.0496930521099     -0.227392476833     0.0496930521099     -0.227392476833     -0.949992025888     -0.206796502102     
6300000000.0        -0.951509992766     -0.203443671469     0.0481674898833     -0.22439136887      0.0481674898833     -0.22439136887      -0.951509992766     -0.203443671469     
6400000000.0        -0.952962030757     -0.200172991177     0.0467077137552     -0.221473157901     0.0467077137552     -0.221473157901     -0.952962030757     -0.200172991177     
6500000000.0        -0.954351833232     -0.196981456775     0.0453100293941     -0.218634845571     0.0453100293941     -0.218634845571     -0.954351833232     -0.196981456775     
6600000000.0        -0.955682842248     -0.193866191583     0.0439709937697     -0.215873561386     0.0439709937697     -0.215873561386     -0.955682842248     -0.193866191583     
6700000000.0        -0.956958268423     -0.190824441363     0.0426873952766     -0.2131865574       0.0426873952766     -0.2131865574       -0.956958268423     -0.190824441363     
6800000000.0        -0.958181109043     -0.187853569105     0.0414562356313     -0.210571202987     0.0414562356313     -0.210571202987     -0.958181109043     -0.187853569105     
6900000000.0        -0.959354164559     -0.18495104992      0.0402747133686     -0.20802497975      0.0402747133686     -0.20802497975      -0.959354164559     -0.18495104992      
7000000000.0        -0.960480053652     -0.182114466089     0.0391402087814     -0.205545476563     0.0391402087814     -0.205545476563     -0.960480053652     -0.182114466089     
7100000000.0        -0.961561226988     -0.179341502262     0.0380502701635     -0.203130384775     0.0380502701635     -0.203130384775     -0.961561226988     -0.179341502262     
7200000000.0        -0.962599979795     -0.176629940827     0.0370026012322     -0.200777493585     0.0370026012322     -0.200777493585     -0.962599979795     -0.176629940827     
7300000000.0        -0.963598463374     -0.173977657453     0.0359950496175     -0.198484685578     0.0359950496175     -0.198484685578     -0.963598463374     -0.173977657453     
7400000000.0        -0.964558695641     -0.171382616804     0.0350255963177     -0.196249932449     0.0350255963177     -0.196249932449     -0.964558695641     -0.171382616804     
7500000000.0        -0.965482570797     -0.168842868436     0.0340923460322     -0.194071290897     0.0340923460322     -0.194071290897     -0.965482570797     -0.168842868436     
7600000000.0        -0.966371868198     -0.16635654286      0.0331935182899     -0.191946898692     0.0331935182899     -0.191946898692     -0.966371868198     -0.16635654286      
7700000000.0        -0.967228260504     -0.163921847788     0.0323274393005     -0.18987497092      0.0323274393005     -0.18987497092      -0.967228260504     -0.163921847788     
7800000000.0        -0.968053321166     -0.16153706454      0.031492534463      -0.187853796394     0.031492534463      -0.187853796394     -0.968053321166     -0.16153706454      
7900000000.0        -0.968848531326     -0.159200544623     0.0306873214731     -0.185881734231     0.0306873214731     -0.185881734231     -0.968848531326     -0.159200544623     
8000000000.0        -0.969615286158     -0.156910706461     0.0299104039757     -0.183957210589     0.0299104039757     -0.183957210589     -0.969615286158     -0.156910706461     
8100000000.0        -0.970354900718     -0.154666032291     0.0291604657143     -0.182078715554     0.0291604657143     -0.182078715554     -0.970354900718     -0.154666032291     
8200000000.0        -0.971068615346     -0.152465065195     0.0284362651345     -0.180244800188     0.0284362651345     -0.180244800188     -0.971068615346     -0.152465065195     
8300000000.0        -0.971757600642     -0.150306406286     0.0277366304016     -0.178454073702     0.0277366304016     -0.178454073702     -0.971757600642     -0.150306406286     
8400000000.0        -0.972422962071     -0.148188712027     0.0270604547977     -0.176705200783     0.0270604547977     -0.176705200783     -0.972422962071     -0.148188712027     
8500000000.0        -0.973065744219     -0.146110691677     0.0264066924655     -0.174996899042     0.0264066924655     -0.174996899042     -0.973065744219     -0.146110691677     
8600000000.0        -0.973686934733     -0.144071104871     0.0257743544688     -0.173327936593     0.0257743544688     -0.173327936593     -0.973686934733     -0.144071104871     
8700000000.0        -0.974287467963     -0.142068759315     0.0251625051455     -0.171697129744     0.0251625051455     -0.171697129744     -0.974287467963     -0.142068759315     
8800000000.0        -0.974868228351     -0.140102508589     0.0245702587267     -0.170103340815     0.0245702587267     -0.170103340815     -0.974868228351     -0.140102508589     
8900000000.0        -0.975430053557     -0.138171250073     0.0239967762015     -0.16854547605      0.0239967762015     -0.16854547605      -0.975430053557     -0.138171250073     
9000000000.0        -0.975973737374     -0.136273922962     0.0234412624062     -0.16702248364      0.0234412624062     -0.16702248364      -0.975973737374     -0.136273922962     
9100000000.0        -0.976500032431     -0.134409506389     0.0229029633221     -0.165533351848     0.0229029633221     -0.165533351848     -0.976500032431     -0.134409506389     
9200000000.0        -0.977009652701     -0.132577017633     0.0223811635625     -0.164077107216     0.0223811635625     -0.164077107216     -0.977009652701     -0.132577017633     
9300000000.0        -0.977503275842     -0.130775510425     0.0218751840362     -0.162652812869     0.0218751840362     -0.162652812869     -0.977503275842     -0.130775510425     
9400000000.0        -0.977981545367     -0.129004073326     0.0213843797725     -0.161259566904     0.0213843797725     -0.161259566904     -0.977981545367     -0.129004073326     
9500000000.0        -0.978445072676     -0.1272618282       0.0209081378951     -0.15989650085      0.0209081378951     -0.15989650085      -0.978445072676     -0.1272618282       
9600000000.0        -0.978894438934     -0.125547928746     0.0204458757348     -0.158562778214     0.0204458757348     -0.158562778214     -0.978894438934     -0.125547928746     
9700000000.0        -0.979330196843     -0.123861559115     0.0199970390679     -0.157257593089     0.0199970390679     -0.157257593089     -0.979330196843     -0.123861559115     
9800000000.0        -0.979752872272     -0.122201932587     0.0195611004738     -0.155980168839     0.0195611004738     -0.155980168839     -0.979752872272     -0.122201932587     
9900000000.0        -0.980162965802     -0.120568290316     0.0191375578003     -0.154729756842     0.0191375578003     -0.154729756842     -0.980162965802     -0.120568290316     
10000000000.0       -0.980560954153     -0.118959900135     0.0187259327301     -0.153505635298     0.0187259327301     -0.153505635298     -0.980560954153     -0.118959900135     
