# Hz S RI R 50.00 
100000000.0         0.00553866955115    0.00041006247009    0.994460138495      -0.000599259609359  0.994460138495      -0.000599259609359  0.00553866955115    0.00041006247009    
200000000.0         0.00557569452575    0.000820050696985   0.994422885703      -0.00119844533374   0.994422885703      -0.00119844533374   0.00557569452575    0.000820050696985   
300000000.0         0.00560336494681    0.00122999410895    0.994394951599      -0.00179758682473   0.994394951599      -0.00179758682473   0.00560336494681    0.00122999410895    
400000000.0         0.00562648865583    0.00163990257265    0.994371528341      -0.00239669412434   0.994371528341      -0.00239669412434   0.00562648865583    0.00163990257265    
500000000.0         0.00564692151471    0.00204978139781    0.994350760065      -0.00299577269381   0.994350760065      -0.00299577269381   0.00564692151471    0.00204978139781    
600000000.0         0.00566561210999    0.00245963387345    0.994331698185      -0.00359482595816   0.994331698185      -0.00359482595816   0.00566561210999    0.00245963387345    
700000000.0         0.00568312203297    0.00286946217912    0.994313781107      -0.00419385622182   0.994313781107      -0.00419385622182   0.00568312203297    0.00286946217912    
800000000.0         0.00569981593217    0.00327926780772    0.994296644181      -0.00479286509392   0.994296644181      -0.00479286509392   0.00569981593217    0.00327926780772    
900000000.0         0.00571594620641    0.00368905179254    0.994280035008      -0.00539185371711   0.994280035008      -0.00539185371711   0.00571594620641    0.00368905179255    
1000000000.0        0.00573169596974    0.00409881484185    0.994263770472      -0.00599082290309   0.994263770472      -0.00599082290309   0.00573169596974    0.00409881484186    
1100000000.0        0.00574720295517    0.00450855742409    0.994247712838      -0.00658977321904   0.994247712838      -0.00658977321904   0.00574720295517    0.00450855742409    
1200000000.0        0.0057625737697     0.00491827982521    0.994231755498      -0.00718870504521   0.994231755498      -0.00718870504521   0.0057625737697     0.00491827982521    
1300000000.0        0.00577789287047    0.00532798218846    0.994215813993      -0.00778761861554   0.994215813993      -0.00778761861554   0.00577789287047    0.00532798218846    
1400000000.0        0.00579322846942    0.0057376645432     0.99419982011       -0.00838651404677   0.99419982011       -0.00838651404677   0.00579322846942    0.0057376645432     
1500000000.0        0.00580863656026    0.00614732682634    0.994183717853      -0.00898539136012   0.994183717853      -0.00898539136012   0.00580863656026    0.00614732682634    
1600000000.0        0.00582416374897    0.00655696889851    0.994167460615      -0.0095842504979    0.994167460615      -0.0095842504979    0.00582416374896    0.00655696889851    
1700000000.0        0.00583984929527    0.00696659055666    0.994151009134      -0.0101830913362    0.994151009134      -0.0101830913362    0.00583984929527    0.00696659055666    
1800000000.0        0.00585572661815    0.00737619154394    0.99413432999       -0.0107819136952    0.99413432999       -0.0107819136952    0.00585572661815    0.00737619154394    
1900000000.0        0.00587182442746    0.00778577155772    0.99411739447       -0.011380717347     0.99411739447       -0.011380717347     0.00587182442746    0.00778577155772    
2000000000.0        0.00588816758945    0.00819533025592    0.994100177707      -0.0119795020226    0.994100177707      -0.0119795020226    0.00588816758945    0.00819533025592    
2100000000.0        0.0059047777985     0.00860486726232    0.994082658004      -0.0125782674166    0.994082658004      -0.0125782674166    0.0059047777985     0.00860486726232    
2200000000.0        0.00592167410565    0.00901438217097    0.994064816308      -0.0131770131927    0.994064816308      -0.0131770131927    0.00592167410565    0.00901438217097    
2300000000.0        0.00593887333955    0.00942387454978    0.994046635789      -0.0137757389865    0.994046635789      -0.0137757389865    0.00593887333955    0.00942387454978    
2400000000.0        0.00595639044523    0.00983334394362    0.994028101499      -0.0143744444092    0.994028101499      -0.0143744444092    0.00595639044523    0.00983334394362    
2500000000.0        0.00597423875957    0.010242789877      0.9940092001        -0.0149731290502    0.9940092001        -0.0149731290502    0.00597423875957    0.010242789877      
2600000000.0        0.00599243023736    0.0106522118562     0.993989919634      -0.0155717924793    0.993989919634      -0.0155717924793    0.00599243023736    0.0106522118562     
2700000000.0        0.00601097563814    0.0110616093712     0.99397024934       -0.0161704342489    0.99397024934       -0.0161704342489    0.00601097563814    0.0110616093712     
2800000000.0        0.00602988468212    0.0114709818976     0.993950179496      -0.0167690538955    0.993950179496      -0.0167690538955    0.00602988468212    0.0114709818976     
2900000000.0        0.00604916618091    0.0118803288977     0.993929701286      -0.0173676509415    0.993929701286      -0.0173676509415    0.00604916618091    0.0118803288977     
3000000000.0        0.00606882814796    0.0122896498222     0.993908806697      -0.0179662248962    0.993908806697      -0.0179662248962    0.00606882814796    0.0122896498222     
3100000000.0        0.00608887789254    0.0126989441107     0.993887488415      -0.0185647752572    0.993887488415      -0.0185647752572    0.00608887789254    0.0126989441107     
3200000000.0        0.00610932209991    0.0131082111935     0.993865739754      -0.0191633015114    0.993865739754      -0.0191633015114    0.00610932209991    0.0131082111935     
3300000000.0        0.0061301669003     0.0135174504917     0.99384355458       -0.0197618031357    0.99384355458       -0.0197618031357    0.0061301669003     0.0135174504917     
3400000000.0        0.00615141792839    0.0139266614186     0.993820927257      -0.0203602795981    0.993820927257      -0.0203602795981    0.00615141792839    0.0139266614186     
3500000000.0        0.00617308037494    0.0143358433799     0.993797852591      -0.0209587303585    0.993797852591      -0.0209587303585    0.00617308037494    0.0143358433799     
3600000000.0        0.00619515903174    0.0147449957748     0.993774325788      -0.021557154869     0.993774325788      -0.021557154869     0.00619515903174    0.0147449957748     
3700000000.0        0.0062176583309     0.0151541179962     0.993750342413      -0.0221555525748    0.993750342413      -0.0221555525748    0.0062176583309     0.0151541179962     
3800000000.0        0.00624058237936    0.0155632094312     0.993725898356      -0.0227539229143    0.993725898356      -0.0227539229143    0.00624058237936    0.0155632094312     
3900000000.0        0.00626393498928    0.015972269462      0.993700989804      -0.0233522653204    0.993700989804      -0.0233522653204    0.00626393498928    0.015972269462      
4000000000.0        0.00628771970492    0.0163812974656     0.993675613208      -0.0239505792201    0.993675613208      -0.0239505792201    0.00628771970492    0.0163812974656     
4100000000.0        0.00631193982646    0.016790292815      0.993649765266      -0.0245488640353    0.993649765266      -0.0245488640353    0.00631193982646    0.016790292815      
4200000000.0        0.00633659843117    0.0171992548787     0.993623442898      -0.0251471191831    0.993623442898      -0.0251471191831    0.00633659843117    0.0171992548787     
4300000000.0        0.00636169839234    0.0176081830219     0.993596643228      -0.0257453440763    0.993596643228      -0.0257453440763    0.00636169839234    0.0176081830219     
4400000000.0        0.00638724239617    0.0180170766058     0.993569363566      -0.0263435381234    0.993569363566      -0.0263435381234    0.00638724239616    0.0180170766058     
4500000000.0        0.00641323295695    0.0184259349888     0.993541601396      -0.026941700729     0.993541601396      -0.026941700729     0.00641323295695    0.0184259349888     
4600000000.0        0.00643967243068    0.0188347575262     0.993513354359      -0.0275398312942    0.993513354359      -0.0275398312942    0.00643967243068    0.0188347575262     
4700000000.0        0.00646656302738    0.0192435435705     0.993484620241      -0.0281379292167    0.993484620241      -0.0281379292167    0.00646656302738    0.0192435435705     
4800000000.0        0.00649390682216    0.0196522924716     0.993455396965      -0.028735993891     0.993455396965      -0.028735993891     0.00649390682216    0.0196522924716     
4900000000.0        0.00652170576527    0.0200610035772     0.993425682577      -0.0293340247086    0.993425682577      -0.0293340247086    0.00652170576527    0.0200610035772     
5000000000.0        0.00654996169124    0.0204696762327     0.993395475239      -0.0299320210585    0.993395475239      -0.0299320210585    0.00654996169125    0.0204696762327     
5100000000.0        0.00657867632715    0.0208783097816     0.993364773223      -0.0305299823268    0.993364773223      -0.0305299823268    0.00657867632715    0.0208783097816     
5200000000.0        0.00660785130015    0.0212869035654     0.993333574897      -0.0311279078974    0.993333574897      -0.0311279078974    0.00660785130015    0.0212869035654     
5300000000.0        0.00663748814437    0.0216954569238     0.993301878724      -0.0317257971518    0.993301878724      -0.0317257971518    0.00663748814437    0.0216954569238     
5400000000.0        0.00666758830722    0.0221039691951     0.993269683253      -0.0323236494695    0.993269683253      -0.0323236494695    0.00666758830722    0.0221039691951     
5500000000.0        0.00669815315511    0.022512439716      0.993236987116      -0.0329214642278    0.993236987116      -0.0329214642278    0.00669815315511    0.022512439716      
5600000000.0        0.00672918397876    0.0229208678219     0.993203789017      -0.0335192408024    0.993203789017      -0.0335192408024    0.00672918397876    0.0229208678219     
5700000000.0        0.00676068199805    0.0233292528468     0.993170087734      -0.034116978567     0.993170087734      -0.034116978567     0.00676068199805    0.0233292528468     
5800000000.0        0.00679264836645    0.0237375941236     0.993135882111      -0.0347146768938    0.993135882111      -0.0347146768938    0.00679264836645    0.0237375941236     
5900000000.0        0.00682508417517    0.0241458909841     0.993101171052      -0.0353123351534    0.993101171052      -0.0353123351534    0.00682508417517    0.0241458909841     
6000000000.0        0.00685799045693    0.0245541427593     0.993065953522      -0.0359099527149    0.993065953522      -0.0359099527149    0.00685799045693    0.0245541427593     
6100000000.0        0.00689136818946    0.024962348779      0.993030228539      -0.0365075289461    0.993030228539      -0.0365075289461    0.00689136818946    0.024962348779      
6200000000.0        0.00692521829872    0.0253705083722     0.992993995174      -0.0371050632136    0.992993995174      -0.0371050632136    0.00692521829872    0.0253705083722     
6300000000.0        0.00695954166195    0.0257786208674     0.992957252547      -0.0377025548826    0.992957252547      -0.0377025548826    0.00695954166195    0.0257786208674     
6400000000.0        0.00699433911039    0.0261866855922     0.992919999822      -0.0383000033173    0.992919999822      -0.0383000033173    0.00699433911039    0.0261866855922     
6500000000.0        0.00702961143192    0.0265947018734     0.992882236209      -0.0388974078809    0.992882236209      -0.0388974078809    0.00702961143192    0.0265947018734     
6600000000.0        0.0070653593734     0.0270026690376     0.992843960957      -0.0394947679354    0.992843960957      -0.0394947679354    0.0070653593734     0.0270026690376     
6700000000.0        0.00710158364294    0.0274105864105     0.992805173355      -0.0400920828422    0.992805173355      -0.0400920828422    0.00710158364294    0.0274105864105     
6800000000.0        0.00713828491198    0.0278184533176     0.992765872727      -0.0406893519614    0.992765872727      -0.0406893519614    0.00713828491198    0.0278184533176     
6900000000.0        0.0071754638172     0.028226269084      0.992726058433      -0.0412865746527    0.992726058433      -0.0412865746527    0.0071754638172     0.028226269084      
7000000000.0        0.00721312096235    0.0286340330341     0.992685729866      -0.0418837502748    0.992685729866      -0.0418837502748    0.00721312096235    0.0286340330341     
7100000000.0        0.00725125691994    0.0290417444922     0.99264488645       -0.0424808781858    0.99264488645       -0.0424808781858    0.00725125691994    0.0290417444922     
7200000000.0        0.00728987223281    0.0294494027825     0.992603527638      -0.043077957743     0.992603527638      -0.043077957743     0.00728987223281    0.0294494027825     
7300000000.0        0.00732896741561    0.0298570072285     0.992561652913      -0.0436749883034    0.992561652913      -0.0436749883034    0.00732896741561    0.0298570072285     
7400000000.0        0.00736854295619    0.0302645571537     0.992519261781      -0.0442719692229    0.992519261781      -0.0442719692229    0.00736854295619    0.0302645571537     
7500000000.0        0.00740859931691    0.0306720518817     0.992476353778      -0.0448688998575    0.992476353778      -0.0448688998575    0.00740859931691    0.0306720518817     
7600000000.0        0.00744913693583    0.0310794907355     0.992432928461      -0.0454657795621    0.992432928461      -0.0454657795621    0.00744913693583    0.0310794907355     
7700000000.0        0.00749015622787    0.0314868730382     0.992388985413      -0.0460626076917    0.992388985413      -0.0460626076917    0.00749015622787    0.0314868730382     
7800000000.0        0.00753165758592    0.0318941981129     0.992344524235      -0.0466593836004    0.992344524235      -0.0466593836004    0.00753165758592    0.0318941981129     
7900000000.0        0.00757364138177    0.0323014652824     0.992299544553      -0.0472561066422    0.992299544553      -0.0472561066422    0.00757364138177    0.0323014652824     
8000000000.0        0.00761610796715    0.0327086738698     0.992254046011      -0.0478527761707    0.992254046011      -0.0478527761707    0.00761610796715    0.0327086738698     
8100000000.0        0.00765905767458    0.0331158231979     0.992208028272      -0.0484493915392    0.992208028272      -0.0484493915392    0.00765905767458    0.0331158231979     
8200000000.0        0.00770249081822    0.0335229125897     0.99216149102       -0.0490459521005    0.99216149102       -0.0490459521005    0.00770249081822    0.0335229125897     
8300000000.0        0.00774640769469    0.0339299413682     0.992114433952      -0.0496424572075    0.992114433952      -0.0496424572075    0.00774640769469    0.0339299413682     
8400000000.0        0.00779080858378    0.0343369088565     0.992066856785      -0.0502389062124    0.992066856785      -0.0502389062124    0.00779080858378    0.0343369088565     
8500000000.0        0.00783569374924    0.0347438143777     0.992018759253      -0.0508352984677    0.992018759253      -0.0508352984677    0.00783569374924    0.0347438143777     
8600000000.0        0.00788106343935    0.0351506572551     0.991970141101      -0.0514316333253    0.991970141101      -0.0514316333253    0.00788106343935    0.0351506572551     
8700000000.0        0.00792691788765    0.0355574368121     0.991921002094      -0.0520279101371    0.991921002094      -0.0520279101371    0.00792691788765    0.0355574368121     
8800000000.0        0.00797325731348    0.0359641523722     0.991871342007      -0.0526241282549    0.991871342007      -0.0526241282549    0.00797325731348    0.0359641523722     
8900000000.0        0.0080200819226     0.0363708032593     0.991821160631      -0.0532202870303    0.991821160631      -0.0532202870303    0.0080200819226     0.0363708032593     
9000000000.0        0.00806739190768    0.0367773887972     0.991770457769      -0.0538163858148    0.991770457769      -0.0538163858148    0.00806739190768    0.0367773887972     
9100000000.0        0.00811518744885    0.03718390831       0.991719233236      -0.0544124239599    0.991719233236      -0.0544124239599    0.00811518744885    0.03718390831       
9200000000.0        0.00816346871418    0.0375903611221     0.991667486862      -0.0550084008169    0.991667486862      -0.0550084008169    0.00816346871418    0.0375903611221     
9300000000.0        0.00821223586012    0.037996746558      0.991615218484      -0.0556043157371    0.991615218484      -0.0556043157371    0.00821223586012    0.037996746558      
9400000000.0        0.00826148903199    0.0384030639425     0.991562427954      -0.056200168072     0.991562427954      -0.056200168072     0.00826148903199    0.0384030639425     
9500000000.0        0.00831122836432    0.0388093126007     0.991509115133      -0.0567959571728    0.991509115133      -0.0567959571728    0.00831122836432    0.0388093126007     
9600000000.0        0.00836145398133    0.039215491858      0.991455279893      -0.0573916823907    0.991455279893      -0.0573916823907    0.00836145398133    0.039215491858      
9700000000.0        0.00841216599723    0.03962160104       0.991400922115      -0.0579873430773    0.991400922115      -0.0579873430773    0.00841216599723    0.03962160104       
9800000000.0        0.00846336451665    0.0400276394726     0.99134604169       -0.0585829385837    0.99134604169       -0.0585829385837    0.00846336451665    0.0400276394726     
9900000000.0        0.00851504963491    0.0404336064821     0.991290638519      -0.0591784682615    0.991290638519      -0.0591784682615    0.00851504963491    0.0404336064821     
10000000000.0       0.00856722143842    0.040839501395      0.991234712512      -0.0597739314622    0.991234712512      -0.0597739314622    0.00856722143842    0.040839501395      
