# Hz S RI R 50.00 
100000000.0         0.000453547174879   -5.52065610877e-06  0.999543730218      -0.00112900481442   0.999543730218      -0.00112900481442   0.000453547174879   -5.52065610886e-06  
200000000.0         0.000456035751411   -1.10538412153e-05  0.999538231597      -0.00225802050722   0.999538231597      -0.00225802050722   0.000456035751411   -1.10538412152e-05  
300000000.0         0.000457713294767   -1.66003038383e-05  0.999532256421      -0.00338705879028   0.999532256421      -0.00338705879028   0.000457713294767   -1.66003038384e-05  
400000000.0         0.000458973620225   -2.21616905544e-05  0.999525410681      -0.00451612720476   0.999525410681      -0.00451612720476   0.000458973620225   -2.21616905543e-05  
500000000.0         0.000459968185021   -2.77395988635e-05  0.999517542692      -0.00564523167572   0.999517542692      -0.00564523167572   0.000459968185021   -2.77395988636e-05  
600000000.0         0.000460774108416   -3.33354959379e-05  0.999508575074      -0.00677437716015   0.999508575074      -0.00677437716015   0.000460774108416   -3.33354959379e-05  
700000000.0         0.00046143686045    -3.89507131836e-05  0.999498462072      -0.00790356794284   0.999498462072      -0.00790356794284   0.00046143686045    -3.89507131837e-05  
800000000.0         0.000461985833933   -4.45864546157e-05  0.999487173984      -0.00903280780232   0.999487173984      -0.00903280780232   0.000461985833933   -4.45864546158e-05  
900000000.0         0.000462441274522   -5.02438075382e-05  0.999474690233      -0.0101621001155    0.999474690233      -0.0101621001155    0.000462441274522   -5.02438075382e-05  
1000000000.0        0.000462817791793   -5.59237529278e-05  0.999460995857      -0.0112914479296    0.999460995857      -0.0112914479296    0.000462817791794   -5.59237529279e-05  
1100000000.0        0.000463126310116   -6.16271741841e-05  0.999446079564      -0.0124208540128    0.999446079564      -0.0124208540128    0.000463126310116   -6.16271741841e-05  
1200000000.0        0.000463375230677   -6.7354864969e-05   0.999429932567      -0.0135503208936    0.999429932567      -0.0135503208936    0.000463375230676   -6.7354864969e-05   
1300000000.0        0.000463571162276   -7.31075361071e-05  0.999412547854      -0.0146798508905    0.999412547854      -0.0146798508905    0.000463571162276   -7.31075361071e-05  
1400000000.0        0.000463719401532   -7.88858212727e-05  0.999393919714      -0.0158094461356    0.999393919714      -0.0158094461356    0.000463719401533   -7.88858212727e-05  
1500000000.0        0.000463824259997   -8.4690282267e-05   0.999374043406      -0.0169391085945    0.999374043406      -0.0169391085945    0.000463824259998   -8.46902822671e-05  
1600000000.0        0.000463889293861   -9.0521413338e-05   0.999352914933      -0.0180688400818    0.999352914933      -0.0180688400818    0.000463889293861   -9.0521413338e-05   
1700000000.0        0.000463917469455   -9.63796454038e-05  0.999330530875      -0.0191986422746    0.999330530875      -0.0191986422746    0.000463917469455   -9.63796454038e-05  
1800000000.0        0.000463911285188   -0.000102265349514  0.999306888272      -0.0203285167244    0.999306888272      -0.0203285167244    0.000463911285188   -0.000102265349514  
1900000000.0        0.000463872863144   -0.000108178839946  0.999281984526      -0.0214584648664    0.999281984526      -0.0214584648664    0.000463872863144   -0.000108178839946  
2000000000.0        0.000463804019064   -0.000114120377305  0.999255817341      -0.0225884880282    0.999255817341      -0.0225884880282    0.000463804019064   -0.000114120377305  
2100000000.0        0.000463706316651   -0.000120090171046  0.999228384661      -0.0237185874374    0.999228384661      -0.0237185874374    0.000463706316651   -0.000120090171046  
2200000000.0        0.000463581110258   -0.00012608838181   0.999199684633      -0.0248487642283    0.999199684633      -0.0248487642283    0.000463581110258   -0.00012608838181   
2300000000.0        0.000463429578879   -0.000132115123738  0.999169715572      -0.0259790194473    0.999169715572      -0.0259790194473    0.000463429578879   -0.000132115123738  
2400000000.0        0.000463252753498   -0.000138170466429  0.999138475934      -0.0271093540586    0.999138475934      -0.0271093540586    0.000463252753498   -0.000138170466429  
2500000000.0        0.000463051539326   -0.000144254436789  0.999105964294      -0.0282397689489    0.999105964294      -0.0282397689489    0.000463051539326   -0.000144254436789  
2600000000.0        0.000462826734038   -0.000150367020857  0.999072179328      -0.0293702649314    0.999072179328      -0.0293702649314    0.000462826734038   -0.000150367020857  
2700000000.0        0.000462579042873   -0.000156508165267  0.999037119802      -0.03050084275      0.999037119802      -0.03050084275      0.000462579042873   -0.000156508165267  
2800000000.0        0.000462309091205   -0.000162677778932  0.999000784555      -0.0316315030825    0.999000784555      -0.0316315030825    0.000462309091205   -0.000162677778932  
2900000000.0        0.00046201743512    -0.000168875734285  0.99896317249       -0.0327622465441    0.99896317249       -0.0327622465441    0.00046201743512    -0.000168875734285  
3000000000.0        0.000461704570338   -0.000175101868725  0.998924282567      -0.0338930736905    0.998924282567      -0.0338930736905    0.000461704570338   -0.000175101868725  
3100000000.0        0.000461370939818   -0.00018135598579   0.998884113797      -0.0350239850201    0.998884113797      -0.0350239850201    0.000461370939818   -0.00018135598579   
3200000000.0        0.000461016940253   -0.000187637856352  0.998842665232      -0.0361549809771    0.998842665232      -0.0361549809771    0.000461016940253   -0.000187637856352  
3300000000.0        0.000460642927661   -0.000193947219739  0.998799935961      -0.0372860619537    0.998799935961      -0.0372860619537    0.000460642927661   -0.000193947219739  
3400000000.0        0.000460249222221   -0.000200283784753  0.998755925107      -0.0384172282921    0.998755925107      -0.0384172282921    0.000460249222221   -0.000200283784753  
3500000000.0        0.000459836112467   -0.0002066472307    0.998710631825      -0.0395484802868    0.998710631825      -0.0395484802868    0.000459836112467   -0.0002066472307    
3600000000.0        0.000459403858954   -0.000213037208299  0.998664055291      -0.0406798181863    0.998664055291      -0.0406798181863    0.000459403858954   -0.000213037208298  
3700000000.0        0.000458952697471   -0.000219453340607  0.998616194708      -0.0418112421952    0.998616194708      -0.0418112421952    0.000458952697471   -0.000219453340607  
3800000000.0        0.000458482841857   -0.000225895223866  0.998567049298      -0.0429427524754    0.998567049298      -0.0429427524754    0.000458482841857   -0.000225895223866  
3900000000.0        0.000457994486503   -0.000232362428319  0.998516618302      -0.044074349148     0.998516618302      -0.044074349148     0.000457994486503   -0.000232362428319  
4000000000.0        0.00045748780856    -0.000238854498997  0.998464900977      -0.0452060322949    0.998464900977      -0.0452060322949    0.00045748780856    -0.000238854498997  
4100000000.0        0.000456962969907   -0.000245370956461  0.998411896594      -0.04633780196      0.998411896594      -0.04633780196      0.000456962969907   -0.000245370956461  
4200000000.0        0.000456420118904   -0.000251911297513  0.998357604438      -0.0474696581504    0.998357604438      -0.0474696581504    0.000456420118904   -0.000251911297513  
4300000000.0        0.000455859391964   -0.000258474995906  0.998302023806      -0.0486016008379    0.998302023806      -0.0486016008379    0.000455859391963   -0.000258474995906  
4400000000.0        0.000455280914963   -0.000265061502958  0.998245154006      -0.0497336299601    0.998245154006      -0.0497336299601    0.000455280914963   -0.000265061502958  
4500000000.0        0.000454684804514   -0.000271670248241  0.998186994354      -0.0508657454217    0.998186994354      -0.0508657454217    0.000454684804514   -0.000271670248241  
4600000000.0        0.000454071169105   -0.000278300640143  0.998127544176      -0.0519979470951    0.998127544176      -0.0519979470951    0.000454071169105   -0.000278300640143  
4700000000.0        0.000453440110148   -0.000284952066481  0.998066802805      -0.0531302348219    0.998066802805      -0.0531302348219    0.000453440110148   -0.000284952066481  
4800000000.0        0.00045279172291    -0.000291623895044  0.998004769583      -0.0542626084138    0.998004769583      -0.0542626084138    0.000452791722911   -0.000291623895044  
4900000000.0        0.000452126097381   -0.000298315474156  0.997941443856      -0.0553950676531    0.997941443856      -0.0553950676531    0.000452126097381   -0.000298315474156  
5000000000.0        0.000451443319047   -0.000305026133191  0.997876824978      -0.0565276122942    0.997876824978      -0.0565276122942    0.000451443319047   -0.000305026133191  
5100000000.0        0.000450743469609   -0.000311755183078  0.997810912306      -0.0576602420641    0.997810912306      -0.0576602420641    0.000450743469609   -0.000311755183078  
5200000000.0        0.000450026627635   -0.000318501916805  0.997743705204      -0.0587929566632    0.997743705204      -0.0587929566632    0.000450026627635   -0.000318501916805  
5300000000.0        0.000449292869163   -0.000325265609858  0.99767520304       -0.059925755766     0.99767520304       -0.059925755766     0.000449292869163   -0.000325265609858  
5400000000.0        0.000448542268249   -0.000332045520715  0.997605405185      -0.0610586390222    0.997605405185      -0.0610586390222    0.000448542268249   -0.000332045520715  
5500000000.0        0.00044777489748    -0.000338840891275  0.997534311015      -0.062191606057     0.997534311015      -0.062191606057     0.00044777489748    -0.000338840891275  
5600000000.0        0.000446990828443   -0.000345650947292  0.997461919909      -0.0633246564721    0.997461919909      -0.0633246564721    0.000446990828443   -0.000345650947292  
5700000000.0        0.000446190132155   -0.000352474898761  0.997388231247      -0.064457789846     0.997388231247      -0.064457789846     0.000446190132155   -0.000352474898761  
5800000000.0        0.000445372879468   -0.00035931194036   0.997313244416      -0.0655910057351    0.997313244416      -0.0655910057351    0.000445372879468   -0.00035931194036   
5900000000.0        0.000444539141447   -0.000366161251823  0.997236958802      -0.0667243036738    0.997236958802      -0.0667243036738    0.000444539141447   -0.000366161251823  
6000000000.0        0.000443688989709   -0.000373021998318  0.997159373795      -0.0678576831754    0.997159373795      -0.0678576831754    0.000443688989709   -0.000373021998318  
6100000000.0        0.000442822496747   -0.000379893330814  0.997080488787      -0.0689911437325    0.997080488787      -0.0689911437325    0.000442822496747   -0.000379893330814  
6200000000.0        0.00044193973624    -0.000386774386448  0.997000303173      -0.0701246848179    0.997000303173      -0.0701246848179    0.00044193973624    -0.000386774386448  
6300000000.0        0.00044104078332    -0.000393664288855  0.996918816347      -0.0712583058845    0.996918816347      -0.0712583058845    0.00044104078332    -0.000393664288856  
6400000000.0        0.000440125714847   -0.000400562148518  0.996836027708      -0.0723920063661    0.996836027708      -0.0723920063661    0.000440125714847   -0.000400562148518  
6500000000.0        0.000439194609647   -0.000407467063094  0.996751936655      -0.0735257856782    0.996751936655      -0.0735257856782    0.000439194609646   -0.000407467063094  
6600000000.0        0.000438247548747   -0.000414378117719  0.996666542589      -0.0746596432179    0.996666542589      -0.0746596432179    0.000438247548747   -0.000414378117719  
6700000000.0        0.000437284615588   -0.00042129438536   0.996579844912      -0.0757935783648    0.996579844912      -0.0757935783648    0.000437284615588   -0.00042129438536   
6800000000.0        0.000436305896231   -0.000428214927049  0.996491843027      -0.076927590481     0.996491843027      -0.076927590481     0.000436305896231   -0.000428214927049  
6900000000.0        0.000435311479546   -0.000435138792245  0.99640253634       -0.0780616789121    0.99640253634       -0.0780616789121    0.000435311479546   -0.000435138792245  
7000000000.0        0.000434301457394   -0.000442065019079  0.996311924256      -0.079195842987     0.996311924256      -0.079195842987     0.000434301457394   -0.000442065019079  
7100000000.0        0.000433275924796   -0.000448992634632  0.996220006182      -0.0803300820187    0.996220006182      -0.0803300820187    0.000433275924796   -0.000448992634632  
7200000000.0        0.000432234980093   -0.000455920655249  0.996126781526      -0.0814643953044    0.996126781526      -0.0814643953044    0.000432234980094   -0.000455920655249  
7300000000.0        0.000431178725098   -0.000462848086744  0.996032249697      -0.0825987821261    0.996032249697      -0.0825987821261    0.000431178725098   -0.000462848086744  
7400000000.0        0.000430107265236   -0.000469773924712  0.995936410106      -0.0837332417509    0.995936410106      -0.0837332417509    0.000430107265237   -0.000469773924712  
7500000000.0        0.000429020709689   -0.000476697154741  0.995839262162      -0.0848677734313    0.995839262162      -0.0848677734313    0.000429020709689   -0.000476697154741  
7600000000.0        0.00042791917151    -0.000483616752683  0.995740805278      -0.0860023764052    0.995740805278      -0.0860023764052    0.00042791917151    -0.000483616752683  
7700000000.0        0.000426802767759   -0.000490531684884  0.995641038866      -0.0871370498971    0.995641038866      -0.0871370498971    0.000426802767759   -0.000490531684884  
7800000000.0        0.00042567161961    -0.000497440908423  0.995539962339      -0.0882717931174    0.995539962339      -0.0882717931174    0.00042567161961    -0.000497440908423  
7900000000.0        0.000424525852464   -0.000504343371336  0.995437575111      -0.0894066052633    0.995437575111      -0.0894066052633    0.000424525852464   -0.000504343371336  
8000000000.0        0.000423365596052   -0.000511238012839  0.995333876596      -0.0905414855191    0.995333876596      -0.0905414855191    0.000423365596052   -0.000511238012839  
8100000000.0        0.000422190984537   -0.000518123763554  0.995228866211      -0.0916764330562    0.995228866211      -0.0916764330562    0.000422190984537   -0.000518123763554  
8200000000.0        0.000421002156604   -0.000524999545712  0.995122543369      -0.0928114470335    0.995122543369      -0.0928114470335    0.000421002156604   -0.000524999545712  
8300000000.0        0.000419799255557   -0.000531864273378  0.995014907489      -0.0939465265977    0.995014907489      -0.0939465265977    0.000419799255557   -0.000531864273378  
8400000000.0        0.000418582429398   -0.000538716852627  0.994905957988      -0.0950816708835    0.994905957988      -0.0950816708835    0.000418582429398   -0.000538716852627  
8500000000.0        0.000417351830912   -0.000545556181772  0.994795694283      -0.0962168790141    0.994795694283      -0.0962168790141    0.000417351830912   -0.000545556181772  
8600000000.0        0.000416107617749   -0.000552381151548  0.994684115792      -0.0973521501009    0.994684115792      -0.0973521501009    0.000416107617749   -0.000552381151548  
8700000000.0        0.000414849952493   -0.000559190645297  0.994571221935      -0.0984874832444    0.994571221935      -0.0984874832444    0.000414849952493   -0.000559190645297  
8800000000.0        0.000413579002736   -0.000565983539161  0.994457012131      -0.0996228775338    0.994457012131      -0.0996228775338    0.000413579002736   -0.000565983539161  
8900000000.0        0.000412294941147   -0.000572758702264  0.9943414858        -0.100758332048     0.9943414858        -0.100758332048     0.000412294941147   -0.000572758702264  
9000000000.0        0.000410997945537   -0.000579514996895  0.994224642364      -0.101893845854     0.994224642364      -0.101893845854     0.000410997945536   -0.000579514996895  
9100000000.0        0.00040968819892    -0.00058625127867   0.994106481242      -0.103029418011     0.994106481242      -0.103029418011     0.00040968819892    -0.00058625127867   
9200000000.0        0.000408365889577   -0.000592966396719  0.993987001858      -0.104165047566     0.993987001858      -0.104165047566     0.000408365889577   -0.000592966396719  
9300000000.0        0.000407031211112   -0.00059965919385   0.993866203633      -0.105300733555     0.993866203633      -0.105300733555     0.000407031211112   -0.00059965919385   
9400000000.0        0.000405684362504   -0.0006063285067    0.993744085991      -0.106436475008     0.993744085991      -0.106436475008     0.000405684362504   -0.0006063285067    
9500000000.0        0.000404325548163   -0.000612973165911  0.993620648354      -0.107572270943     0.993620648354      -0.107572270943     0.000404325548164   -0.000612973165911  
9600000000.0        0.00040295497798    -0.000619591996302  0.993495890147      -0.108708120368     0.993495890147      -0.108708120368     0.00040295497798    -0.000619591996302  
9700000000.0        0.000401572867381   -0.000626183816982  0.993369810795      -0.109844022283     0.993369810795      -0.109844022283     0.000401572867381   -0.000626183816982  
9800000000.0        0.000400179437358   -0.000632747441539  0.993242409722      -0.110979975679     0.993242409722      -0.110979975679     0.000400179437359   -0.000632747441539  
9900000000.0        0.00039877491454    -0.000639281678172  0.993113686354      -0.112115979537     0.993113686354      -0.112115979537     0.000398774914539   -0.000639281678172  
10000000000.0       0.000397359531209   -0.000645785329851  0.992983640118      -0.113252032831     0.992983640118      -0.113252032831     0.000397359531209   -0.000645785329851  
