# Hz S RI R 50.00 
100000000.0         1.67225989043e-05   -0.00140862505418   0.999975078305      -0.0015301886988    0.999975078305      -0.0015301886988    1.67225989043e-05   -0.00140862505418   
200000000.0         8.9568629571e-06    -0.0028172633032    0.999967007784      -0.00306039641013   0.999967007784      -0.00306039641013   8.9568629571e-06    -0.0028172633032    
300000000.0         -3.15653380401e-06  -0.00422591644317   0.999954646993      -0.00459062788571   0.999954646993      -0.00459062788571   -3.15653380401e-06  -0.00422591644317   
400000000.0         -1.96001134839e-05  -0.00563458126269   0.999937977516      -0.0061208822614    0.999937977516      -0.0061208822614    -1.9600113484e-05   -0.00563458126269   
500000000.0         -4.03675032912e-05  -0.00704325201238   0.999916991954      -0.00765115578251   0.999916991954      -0.00765115578251   -4.03675032915e-05  -0.00704325201238   
600000000.0         -6.54557383618e-05  -0.0084519212504    0.999891686273      -0.00918144277171   0.999891686273      -0.00918144277171   -6.54557383618e-05  -0.0084519212504    
700000000.0         -9.48632980615e-05  -0.00986058027272   0.999862057873      -0.0107117361214    0.999862057873      -0.0107117361214    -9.48632980615e-05  -0.00986058027272   
800000000.0         -0.000128589384133  -0.0112692193722    0.99982810489       -0.0122420275896    0.99982810489       -0.0122420275896    -0.000128589384133  -0.0112692193722    
900000000.0         -0.000166633594566  -0.0126778280121    0.999789825891      -0.0137723079984    0.999789825891      -0.0137723079984    -0.000166633594566  -0.0126778280121    
1000000000.0        -0.000208995755312  -0.0140863949484    0.999747219726      -0.0153025673723    0.999747219726      -0.0153025673723    -0.000208995755311  -0.0140863949484    
1100000000.0        -0.00025567582389   -0.0154949083217    0.999700285445      -0.0168327950439    0.999700285445      -0.0168327950439    -0.00025567582389   -0.0154949083217    
1200000000.0        -0.000306673830016  -0.0169033557274    0.999649022252      -0.018362979733     0.999649022252      -0.018362979733     -0.000306673830016  -0.0169033557274    
1300000000.0        -0.000361989836329  -0.0183117242716    0.999593429482      -0.0198931096104    0.999593429482      -0.0198931096104    -0.000361989836329  -0.0183117242716    
1400000000.0        -0.000421623911209  -0.0197200006175    0.999533506577      -0.0214231723501    0.999533506577      -0.0214231723501    -0.000421623911209  -0.0197200006175    
1500000000.0        -0.000485576108995  -0.0211281710238    0.999469253084      -0.0229531551732    0.999469253084      -0.0229531551732    -0.000485576108995  -0.0211281710238    
1600000000.0        -0.000553846454978  -0.0225362213765    0.999400668645      -0.0244830448837    0.999400668645      -0.0244830448837    -0.000553846454978  -0.0225362213765    
1700000000.0        -0.000626434933716  -0.0239441372176    0.999327752996      -0.0260128279004    0.999327752996      -0.0260128279004    -0.000626434933716  -0.0239441372176    
1800000000.0        -0.000703341479573  -0.0253519037684    0.999250505964      -0.0275424902841    0.999250505964      -0.0275424902841    -0.000703341479573  -0.0253519037684    
1900000000.0        -0.000784565968935  -0.0267595059519    0.999168927466      -0.0290720177616    0.999168927466      -0.0290720177616    -0.000784565968935  -0.0267595059519    
2000000000.0        -0.000870108213602  -0.0281669284106    0.999083017513      -0.0306013957469    0.999083017513      -0.0306013957469    -0.000870108213602  -0.0281669284106    
2100000000.0        -0.000959967955193  -0.0295741555253    0.998992776205      -0.0321306093611    0.998992776205      -0.0321306093611    -0.000959967955193  -0.0295741555253    
2200000000.0        -0.00105414486015   -0.030981171429     0.998898203739      -0.033659643449     0.998898203739      -0.033659643449     -0.00105414486015   -0.030981171429     
2300000000.0        -0.00115263851537   -0.0323879600216    0.998799300403      -0.0351884825949    0.998799300403      -0.0351884825949    -0.00115263851537   -0.0323879600216    
2400000000.0        -0.00125544842437   -0.0337945049831    0.998696066585      -0.0367171111371    0.998696066585      -0.0367171111371    -0.00125544842437   -0.0337945049831    
2500000000.0        -0.00136257400366   -0.035200789785     0.998588502769      -0.0382455131813    0.998588502769      -0.0382455131813    -0.00136257400366   -0.035200789785     
2600000000.0        -0.00147401457964   -0.0366067977016    0.998476609538      -0.0397736726129    0.998476609538      -0.0397736726129    -0.00147401457964   -0.0366067977016    
2700000000.0        -0.00158976938559   -0.03801251182      0.998360387577      -0.0413015731076    0.998360387577      -0.0413015731076    -0.00158976938559   -0.03801251182      
2800000000.0        -0.00170983755906   -0.0394179150509    0.998239837673      -0.0428291981438    0.998239837673      -0.0428291981438    -0.00170983755906   -0.0394179150509    
2900000000.0        -0.00183421813929   -0.0408229901354    0.998114960717      -0.0443565310104    0.998114960717      -0.0443565310104    -0.00183421813929   -0.0408229901354    
3000000000.0        -0.00196291006499   -0.042227719656     0.997985757708      -0.0458835548183    0.997985757708      -0.0458835548183    -0.00196291006499   -0.042227719656     
3100000000.0        -0.00209591217211   -0.0436320860426    0.997852229749      -0.0474102525074    0.997852229749      -0.0474102525074    -0.00209591217211   -0.0436320860426    
3200000000.0        -0.00223322319194   -0.0450360715818    0.997714378054      -0.0489366068566    0.997714378054      -0.0489366068566    -0.00223322319194   -0.0450360715818    
3300000000.0        -0.00237484174914   -0.0464396584225    0.997572203946      -0.0504626004904    0.997572203946      -0.0504626004904    -0.00237484174914   -0.0464396584225    
3400000000.0        -0.00252076636009   -0.0478428285844    0.997425708861      -0.0519882158877    0.997425708861      -0.0519882158877    -0.00252076636009   -0.0478428285844    
3500000000.0        -0.0026709954312    -0.0492455639633    0.997274894344      -0.053513435388     0.997274894344      -0.053513435388     -0.0026709954312    -0.0492455639633    
3600000000.0        -0.00282552725741   -0.0506478463385    0.997119762059      -0.0550382411991    0.997119762059      -0.0550382411991    -0.00282552725741   -0.0506478463385    
3700000000.0        -0.00298436002077   -0.052049657378     0.996960313781      -0.0565626154032    0.996960313781      -0.0565626154032    -0.00298436002077   -0.052049657378     
3800000000.0        -0.00314749178907   -0.0534509786447    0.996796551404      -0.0580865399635    0.996796551404      -0.0580865399635    -0.00314749178907   -0.0534509786447    
3900000000.0        -0.00331492051461   -0.054851791602     0.996628476937      -0.0596099967303    0.996628476937      -0.0596099967303    -0.00331492051461   -0.054851791602     
4000000000.0        -0.00348664403302   -0.056252077619     0.996456092509      -0.0611329674467    0.996456092509      -0.0611329674467    -0.00348664403302   -0.056252077619     
4100000000.0        -0.00366266006218   -0.0576518179762    0.996279400367      -0.0626554337543    0.996279400367      -0.0626554337543    -0.00366266006218   -0.0576518179762    
4200000000.0        -0.00384296620119   -0.0590509938697    0.996098402878      -0.064177377199     0.996098402878      -0.064177377199     -0.00384296620119   -0.0590509938697    
4300000000.0        -0.00402755992938   -0.0604495864168    0.995913102532      -0.0656987792357    0.995913102532      -0.0656987792357    -0.00402755992938   -0.0604495864168    
4400000000.0        -0.00421643860548   -0.0618475766604    0.995723501938      -0.0672196212338    0.995723501938      -0.0672196212338    -0.00421643860548   -0.0618475766604    
4500000000.0        -0.00440959946675   -0.0632449455734    0.995529603829      -0.0687398844821    0.995529603829      -0.0687398844821    -0.00440959946675   -0.0632449455734    
4600000000.0        -0.00460703962822   -0.0646416740634    0.99533141106       -0.0702595501933    0.99533141106       -0.0702595501933    -0.00460703962822   -0.0646416740634    
4700000000.0        -0.00480875608203   -0.0660377429772    0.995128926612      -0.071778599509     0.995128926612      -0.071778599509     -0.00480875608203   -0.0660377429772    
4800000000.0        -0.00501474569669   -0.067433133104     0.994922153586      -0.073297013504     0.994922153586      -0.073297013504     -0.00501474569669   -0.067433133104     
4900000000.0        -0.00522500521656   -0.0688278251806    0.994711095213      -0.0748147731906    0.994711095213      -0.0748147731906    -0.00522500521656   -0.0688278251806    
5000000000.0        -0.00543953126125   -0.0702217998947    0.994495754846      -0.0763318595231    0.994495754846      -0.0763318595231    -0.00543953126125   -0.0702217998947    
5100000000.0        -0.00565832032514   -0.0716150378887    0.994276135965      -0.0778482534017    0.994276135965      -0.0778482534017    -0.00565832032514   -0.0716150378887    
5200000000.0        -0.00588136877697   -0.073007519764     0.994052242175      -0.0793639356765    0.994052242175      -0.0793639356765    -0.00588136877697   -0.073007519764     
5300000000.0        -0.00610867285932   -0.0743992260838    0.993824077209      -0.0808788871517    0.993824077209      -0.0808788871517    -0.00610867285932   -0.0743992260838    
5400000000.0        -0.0063402286884    -0.0757901373775    0.993591644927      -0.0823930885891    0.993591644927      -0.0823930885891    -0.0063402286884    -0.0757901373775    
5500000000.0        -0.0065760322536    -0.0771802341434    0.993354949314      -0.0839065207118    0.993354949314      -0.0839065207118    -0.0065760322536    -0.0771802341434    
5600000000.0        -0.00681607941728   -0.0785694968527    0.993113994484      -0.0854191642082    0.993113994484      -0.0854191642082    -0.00681607941728   -0.0785694968527    
5700000000.0        -0.00706036591454   -0.0799579059524    0.99286878468       -0.0869309997352    0.99286878468       -0.0869309997352    -0.00706036591454   -0.0799579059524    
5800000000.0        -0.007308887353     -0.0813454418687    0.99261932427       -0.0884420079215    0.99261932427       -0.0884420079215    -0.007308887353     -0.0813454418687    
5900000000.0        -0.00756163921263   -0.08273208501      0.992365617752      -0.0899521693715    0.992365617752      -0.0899521693715    -0.00756163921263   -0.08273208501      
6000000000.0        -0.00781861684566   -0.0841178157703    0.99210766975       -0.0914614646681    0.99210766975       -0.0914614646681    -0.00781861684566   -0.0841178157703    
6100000000.0        -0.00807981547649   -0.0855026145316    0.991845485019      -0.0929698743762    0.991845485019      -0.0929698743762    -0.00807981547649   -0.0855026145316    
6200000000.0        -0.00834523020158   -0.0868864616676    0.991579068439      -0.0944773790456    0.991579068439      -0.0944773790456    -0.00834523020158   -0.0868864616676    
6300000000.0        -0.00861485598952   -0.088269337546     0.99130842502       -0.0959839592142    0.99130842502       -0.0959839592142    -0.00861485598952   -0.088269337546     
6400000000.0        -0.00888868768096   -0.0896512225313    0.9910335599        -0.0974895954109    0.9910335599        -0.0974895954109    -0.00888868768096   -0.0896512225313    
6500000000.0        -0.00916671998875   -0.0910320969881    0.990754478345      -0.0989942681588    0.990754478345      -0.0989942681588    -0.00916671998875   -0.0910320969881    
6600000000.0        -0.00944894749789   -0.0924119412832    0.990471185747      -0.100497957978     0.990471185747      -0.100497957978     -0.00944894749789   -0.0924119412832    
6700000000.0        -0.00973536466577   -0.0937907357885    0.99018368763       -0.102000645387     0.99018368763       -0.102000645387     -0.00973536466577   -0.0937907357885    
6800000000.0        -0.0100259658222    -0.0951684608835    0.989891989641      -0.103502310909     0.989891989641      -0.103502310909     -0.0100259658222    -0.0951684608835    
6900000000.0        -0.0103207451696    -0.0965450969581    0.989596097558      -0.105002935071     0.989596097558      -0.105002935071     -0.0103207451696    -0.0965450969581    
7000000000.0        -0.0106196967832    -0.0979206244144    0.989296017284      -0.106502498406     0.989296017284      -0.106502498406     -0.0106196967832    -0.0979206244144    
7100000000.0        -0.0109228146114    -0.09929502367      0.988991754852      -0.108000981461     0.988991754852      -0.108000981461     -0.0109228146114    -0.09929502367      
7200000000.0        -0.0112300924757    -0.10066827516      0.988683316418      -0.109498364793     0.988683316418      -0.109498364793     -0.0112300924757    -0.10066827516      
7300000000.0        -0.0115415240711    -0.102040359338     0.988370708267      -0.110994628975     0.988370708267      -0.110994628975     -0.0115415240711    -0.102040359338     
7400000000.0        -0.0118571029666    -0.103411256681     0.98805393681       -0.112489754598     0.98805393681       -0.112489754598     -0.0118571029666    -0.103411256681     
7500000000.0        -0.0121768226052    -0.104780947691     0.987733008585      -0.113983722272     0.987733008585      -0.113983722272     -0.0121768226052    -0.104780947691     
7600000000.0        -0.0125006763046    -0.106149412894     0.987407930252      -0.115476512631     0.987407930252      -0.115476512631     -0.0125006763046    -0.106149412894     
7700000000.0        -0.012828657257     -0.107516632846     0.9870787086        -0.116968106333     0.9870787086        -0.116968106333     -0.012828657257     -0.107516632846     
7800000000.0        -0.0131607585302    -0.108882588135     0.986745350542      -0.118458484061     0.986745350542      -0.118458484061     -0.0131607585302    -0.108882588135     
7900000000.0        -0.0134969730673    -0.110247259378     0.986407863114      -0.119947626531     0.986407863114      -0.119947626531     -0.0134969730673    -0.110247259378     
8000000000.0        -0.0138372936877    -0.111610627231     0.986066253477      -0.121435514485     0.986066253477      -0.121435514485     -0.0138372936877    -0.111610627231     
8100000000.0        -0.0141817130871    -0.112972672384     0.985720528915      -0.122922128703     0.985720528915      -0.122922128703     -0.0141817130871    -0.112972672384     
8200000000.0        -0.0145302238383    -0.114333375566     0.985370696837      -0.124407449998     0.985370696837      -0.124407449998     -0.0145302238383    -0.114333375566     
8300000000.0        -0.0148828183916    -0.115692717549     0.985016764772      -0.125891459219     0.985016764772      -0.125891459219     -0.0148828183916    -0.115692717549     
8400000000.0        -0.0152394890751    -0.117050679143     0.984658740373      -0.127374137257     0.984658740373      -0.127374137257     -0.0152394890751    -0.117050679143     
8500000000.0        -0.0156002280954    -0.118407241207     0.984296631413      -0.128855465043     0.984296631413      -0.128855465043     -0.0156002280954    -0.118407241207     
8600000000.0        -0.0159650275381    -0.119762384643     0.983930445788      -0.13033542355      0.983930445788      -0.13033542355      -0.0159650275381    -0.119762384643     
8700000000.0        -0.0163338793685    -0.121116090401     0.983560191513      -0.131813993798     0.983560191513      -0.131813993798     -0.0163338793685    -0.121116090401     
8800000000.0        -0.0167067754319    -0.122468339482     0.983185876723      -0.133291156852     0.983185876723      -0.133291156852     -0.0167067754319    -0.122468339482     
8900000000.0        -0.0170837074542    -0.123819112937     0.982807509673      -0.134766893826     0.982807509673      -0.134766893826     -0.0170837074542    -0.123819112937     
9000000000.0        -0.0174646670429    -0.125168391872     0.982425098736      -0.136241185884     0.982425098736      -0.136241185884     -0.0174646670429    -0.125168391872     
9100000000.0        -0.0178496456871    -0.126516157443     0.982038652404      -0.137714014243     0.982038652404      -0.137714014243     -0.0178496456871    -0.126516157443     
9200000000.0        -0.0182386347588    -0.127862390867     0.981648179285      -0.139185360173     0.981648179285      -0.139185360173     -0.0182386347588    -0.127862390867     
9300000000.0        -0.0186316255131    -0.129207073417     0.981253688106      -0.140655204998     0.981253688106      -0.140655204998     -0.0186316255131    -0.129207073417     
9400000000.0        -0.0190286090887    -0.130550186423     0.980855187709      -0.1421235301       0.980855187709      -0.1421235301       -0.0190286090887    -0.130550186423     
9500000000.0        -0.0194295765092    -0.131891711279     0.98045268705       -0.143590316921     0.98045268705       -0.143590316921     -0.0194295765092    -0.131891711279     
9600000000.0        -0.0198345186833    -0.133231629438     0.980046195202      -0.145055546959     0.980046195202      -0.145055546959     -0.0198345186833    -0.133231629438     
9700000000.0        -0.0202434264056    -0.134569922421     0.979635721352      -0.146519201778     0.979635721352      -0.146519201778     -0.0202434264056    -0.134569922421     
9800000000.0        -0.0206562903574    -0.135906571809     0.979221274799      -0.147981263001     0.979221274799      -0.147981263001     -0.0206562903574    -0.135906571809     
9900000000.0        -0.0210731011072    -0.137241559252     0.978802864955      -0.149441712319     0.978802864955      -0.149441712319     -0.0210731011072    -0.137241559252     
10000000000.0       -0.0214938491119    -0.138574866469     0.978380501345      -0.150900531485     0.978380501345      -0.150900531485     -0.0214938491119    -0.138574866469     
