# Hz S RI R 50.00 
100000000.0         0.00029385272717    -0.000408708955586  0.999702344908      -0.00119146610173   0.999702344908      -0.00119146610173   0.00029385272717    -0.000408708955586  
200000000.0         0.000293619982024   -0.00081742498087   0.999697214379      -0.00238293939843   0.999697214379      -0.00238293939843   0.000293619982025   -0.00081742498087   
300000000.0         0.00029189606714    -0.0012261489217    0.999691013951      -0.00357442634458   0.999691013951      -0.00357442634458   0.00029189606714    -0.0012261489217    
400000000.0         0.000288936592189   -0.00163488136953   0.999683487811      -0.00476593078283   0.999683487811      -0.00476593078283   0.000288936592189   -0.00163488136953   
500000000.0         0.000284839733099   -0.0020436225636    0.999674537547      -0.00595745546051   0.999674537547      -0.00595745546051   0.000284839733099   -0.0020436225636    
600000000.0         0.00027965539901    -0.00245237247035   0.999664112984      -0.00714900244928   0.999664112984      -0.00714900244928   0.00027965539901    -0.00245237247035   
700000000.0         0.000273412957974   -0.00286113083974   0.999652184464      -0.00834057334323   0.999652184464      -0.00834057334323   0.000273412957974   -0.00286113083974   
800000000.0         0.000266131347378   -0.00326989724465   0.999638732741      -0.0095321693728    0.999638732741      -0.0095321693728    0.000266131347378   -0.00326989724465   
900000000.0         0.000257823572031   -0.00367867110842   0.99962374448       -0.010723791477     0.99962374448       -0.010723791477     0.000257823572031   -0.00367867110842   
1000000000.0        0.000248498982543   -0.00408745172559   0.999607209989      -0.0119154403535    0.999607209989      -0.0119154403535    0.000248498982543   -0.00408745172559   
1100000000.0        0.000238164540999   -0.00449623827806   0.999589121947      -0.0131071164952    0.999589121947      -0.0131071164952    0.000238164540999   -0.00449623827806   
1200000000.0        0.000226825574669   -0.00490502984754   0.999569474658      -0.0142988202175    0.999569474658      -0.0142988202175    0.000226825574669   -0.00490502984754   
1300000000.0        0.00021448625       -0.00531382542564   0.999548263576      -0.0154905516797    0.999548263576      -0.0154905516797    0.000214486249999   -0.00531382542564   
1400000000.0        0.000201149884016   -0.00572262392218   0.999525484995      -0.0166823109019    0.999525484995      -0.0166823109019    0.000201149884016   -0.00572262392218   
1500000000.0        0.000186819156469   -0.00613142417229   0.999501135839      -0.0178740977793    0.999501135839      -0.0178740977793    0.000186819156468   -0.00613142417229   
1600000000.0        0.000171496258809   -0.00654022494206   0.999475213512      -0.0190659120934    0.999475213512      -0.0190659120934    0.00017149625881    -0.00654022494206   
1700000000.0        0.00015518300154    -0.00694902493372   0.999447715795      -0.0202577535215    0.999447715795      -0.0202577535215    0.00015518300154    -0.00694902493372   
1800000000.0        0.000137880893315   -0.00735782279003   0.999418640766      -0.0214496216457    0.999418640766      -0.0214496216457    0.000137880893315   -0.00735782279003   
1900000000.0        0.0001195912004     -0.00776661709799   0.999387986739      -0.0226415159592    0.999387986739      -0.0226415159592    0.0001195912004     -0.00776661709799   
2000000000.0        0.000100314992107   -0.0081754063923    0.999355752225      -0.023833435873     0.999355752225      -0.023833435873     0.000100314992107   -0.0081754063923    
2100000000.0        8.00531760625e-05   -0.00858418915824   0.999321935893      -0.025025380721     0.999321935893      -0.025025380721     8.00531760625e-05   -0.00858418915824   
2200000000.0        5.88065259681e-05   -0.0089929638345    0.999286536544      -0.0262173497653    0.999286536544      -0.0262173497653    5.88065259683e-05   -0.0089929638345    
2300000000.0        3.65757037077e-05   -0.00940172881543   0.99924955309       -0.0274093421997    0.99924955309       -0.0274093421997    3.65757037077e-05   -0.00940172881543   
2400000000.0        1.33612771571e-05   -0.00981048245329   0.999210984538      -0.0286013571542    0.999210984538      -0.0286013571542    1.33612771573e-05   -0.00981048245329   
2500000000.0        -1.08362653178e-05  -0.0102192230602    0.999170829974      -0.0297933936982    0.999170829974      -0.0297933936982    -1.08362653179e-05  -0.0102192230602    
2600000000.0        -3.60165029591e-05  -0.0106279489101    0.999129088552      -0.0309854508434    0.999129088552      -0.0309854508434    -3.60165029591e-05  -0.0106279489101    
2700000000.0        -6.21790727502e-05  -0.01103665824      0.999085759487      -0.0321775275472    0.999085759487      -0.0321775275472    -6.21790727502e-05  -0.01103665824      
2800000000.0        -8.93236611818e-05  -0.011445349252     0.999040842042      -0.0333696227146    0.999040842042      -0.0333696227146    -8.93236611815e-05  -0.011445349252     
2900000000.0        -0.000117449997318  -0.0118540201145    0.99899433553       -0.034561735201     0.99899433553       -0.034561735201     -0.000117449997318  -0.0118540201145    
3000000000.0        -0.000146557846933  -0.0122626689634    0.998946239299      -0.0357538638143    0.998946239299      -0.0357538638143    -0.000146557846933  -0.0122626689634    
3100000000.0        -0.000176647007506  -0.0126712939034    0.998896552737      -0.0369460073169    0.998896552737      -0.0369460073169    -0.000176647007506  -0.0126712939034    
3200000000.0        -0.000207717303928  -0.0130798930092    0.998845275259      -0.0381381644275    0.998845275259      -0.0381381644275    -0.000207717303928  -0.0130798930092    
3300000000.0        -0.000239768584805  -0.0134884643266    0.99879240631       -0.0393303338231    0.99879240631       -0.0393303338231    -0.000239768584805  -0.0134884643266    
3400000000.0        -0.000272800719253  -0.0138970058731    0.998737945361      -0.04052251414      0.998737945361      -0.04052251414      -0.000272800719253  -0.0138970058731    
3500000000.0        -0.000306813594098  -0.0143055156397    0.998681891904      -0.0417147039762    0.998681891904      -0.0417147039762    -0.000306813594098  -0.0143055156397    
3600000000.0        -0.000341807111432  -0.0147139915906    0.998624245455      -0.042906901892     0.998624245455      -0.042906901892     -0.000341807111433  -0.0147139915906    
3700000000.0        -0.000377781186465  -0.0151224316652    0.998565005545      -0.0440991064117    0.998565005545      -0.0440991064117    -0.000377781186465  -0.0151224316652    
3800000000.0        -0.000414735745617  -0.0155308337782    0.998504171725      -0.045291316025     0.998504171725      -0.045291316025     -0.000414735745617  -0.0155308337782    
3900000000.0        -0.000452670724842  -0.0159391958203    0.998441743563      -0.0464835291877    0.998441743563      -0.0464835291877    -0.000452670724842  -0.0159391958203    
4000000000.0        -0.000491586068122  -0.0163475156595    0.998377720639      -0.0476757443234    0.998377720639      -0.0476757443234    -0.000491586068122  -0.0163475156595    
4100000000.0        -0.000531481726132  -0.0167557911413    0.99831210255       -0.048867959824     0.99831210255       -0.048867959824     -0.000531481726132  -0.0167557911413    
4200000000.0        -0.000572357655035  -0.0171640200892    0.998244888905      -0.050060174051     0.998244888905      -0.050060174051     -0.000572357655035  -0.0171640200892    
4300000000.0        -0.000614213815404  -0.017572200306     0.998176079324      -0.0512523853365    0.998176079324      -0.0512523853365    -0.000614213815404  -0.017572200306     
4400000000.0        -0.000657050171243  -0.0179803295737    0.998105673441      -0.0524445919836    0.998105673441      -0.0524445919836    -0.000657050171244  -0.0179803295737    
4500000000.0        -0.000700866689112  -0.0183884056544    0.998033670899      -0.0536367922682    0.998033670899      -0.0536367922682    -0.000700866689112  -0.0183884056544    
4600000000.0        -0.000745663337316  -0.0187964262907    0.997960071353      -0.0548289844387    0.997960071353      -0.0548289844387    -0.000745663337316  -0.0187964262907    
4700000000.0        -0.000791440085177  -0.0192043892066    0.997884874467      -0.0560211667177    0.997884874467      -0.0560211667177    -0.000791440085177  -0.0192043892066    
4800000000.0        -0.000838196902375  -0.0196122921073    0.997808079916      -0.0572133373021    0.997808079916      -0.0572133373021    -0.000838196902376  -0.0196122921073    
4900000000.0        -0.000885933758327  -0.0200201326804    0.997729687382      -0.0584054943643    0.997729687382      -0.0584054943643    -0.000885933758327  -0.0200201326804    
5000000000.0        -0.000934650621635  -0.0204279085958    0.997649696559      -0.0595976360524    0.997649696559      -0.0595976360524    -0.000934650621635  -0.0204279085958    
5100000000.0        -0.000984347459561  -0.0208356175066    0.997568107147      -0.0607897604913    0.997568107147      -0.0607897604913    -0.000984347459561  -0.0208356175066    
5200000000.0        -0.00103502423757   -0.0212432570492    0.997484918856      -0.0619818657831    0.997484918856      -0.0619818657831    -0.00103502423757   -0.0212432570492    
5300000000.0        -0.00108668091886   -0.0216508248439    0.997400131404      -0.0631739500076    0.997400131404      -0.0631739500076    -0.00108668091886   -0.0216508248439    
5400000000.0        -0.001139317464     -0.0220583184951    0.997313744516      -0.0643660112232    0.997313744516      -0.0643660112232    -0.001139317464     -0.0220583184951    
5500000000.0        -0.0011929338305    -0.0224657355921    0.997225757926      -0.0655580474671    0.997225757926      -0.0655580474671    -0.0011929338305    -0.0224657355921    
5600000000.0        -0.00124752997249   -0.0228730737089    0.997136171377      -0.0667500567561    0.997136171377      -0.0667500567561    -0.00124752997249   -0.0228730737089    
5700000000.0        -0.00130310584041   -0.0232803304051    0.997044984616      -0.067942037087     0.997044984616      -0.067942037087     -0.00130310584041   -0.0232803304051    
5800000000.0        -0.00135966138066   -0.0236875032258    0.996952197401      -0.0691339864371    0.996952197401      -0.0691339864371    -0.00135966138066   -0.0236875032258    
5900000000.0        -0.00141719653534   -0.0240945897024    0.996857809495      -0.0703259027648    0.996857809495      -0.0703259027648    -0.00141719653534   -0.0240945897024    
6000000000.0        -0.00147571124199   -0.0245015873526    0.99676182067       -0.0715177840099    0.99676182067       -0.0715177840099    -0.00147571124199   -0.0245015873526    
6100000000.0        -0.00153520543332   -0.0249084936807    0.996664230705      -0.0727096280939    0.996664230705      -0.0727096280939    -0.00153520543332   -0.0249084936807    
6200000000.0        -0.00159567903698   -0.0253153061783    0.996565039385      -0.0739014329212    0.996565039385      -0.0739014329212    -0.00159567903698   -0.0253153061783    
6300000000.0        -0.00165713197533   -0.0257220223241    0.996464246504      -0.0750931963784    0.996464246504      -0.0750931963784    -0.00165713197533   -0.0257220223241    
6400000000.0        -0.00171956416527   -0.0261286395845    0.99636185186       -0.0762849163357    0.99636185186       -0.0762849163357    -0.00171956416527   -0.0261286395845    
6500000000.0        -0.00178297551799   -0.0265351554139    0.996257855263      -0.0774765906467    0.996257855263      -0.0774765906467    -0.00178297551799   -0.0265351554139    
6600000000.0        -0.0018473659388    -0.0269415672549    0.996152256524      -0.078668217149     0.996152256524      -0.078668217149     -0.0018473659388    -0.0269415672549    
6700000000.0        -0.00191273532697   -0.0273478725386    0.996045055467      -0.0798597936646    0.996045055467      -0.0798597936646    -0.00191273532697   -0.0273478725386    
6800000000.0        -0.00197908357554   -0.0277540686847    0.995936251919      -0.0810513180003    0.995936251919      -0.0810513180003    -0.00197908357554   -0.0277540686847    
6900000000.0        -0.0020464105712    -0.0281601531021    0.995825845715      -0.0822427879477    0.995825845715      -0.0822427879477    -0.0020464105712    -0.0281601531021    
7000000000.0        -0.00211471619408   -0.0285661231889    0.995713836698      -0.0834342012841    0.995713836698      -0.0834342012841    -0.00211471619408   -0.0285661231889    
7100000000.0        -0.00218400031764   -0.0289719763327    0.995600224716      -0.0846255557724    0.995600224716      -0.0846255557724    -0.00218400031764   -0.0289719763327    
7200000000.0        -0.00225426280854   -0.0293777099109    0.995485009625      -0.0858168491616    0.995485009625      -0.0858168491616    -0.00225426280854   -0.0293777099109    
7300000000.0        -0.00232550352652   -0.029783321291     0.99536819129       -0.0870080791871    0.99536819129       -0.0870080791871    -0.00232550352652   -0.029783321291     
7400000000.0        -0.00239772232421   -0.0301888078307    0.995249769579      -0.0881992435711    0.995249769579      -0.0881992435711    -0.00239772232421   -0.0301888078307    
7500000000.0        -0.0024709190471    -0.0305941668779    0.99512974437       -0.0893903400226    0.99512974437       -0.0893903400226    -0.0024709190471    -0.0305941668779    
7600000000.0        -0.00254509353337   -0.0309993957716    0.995008115547      -0.0905813662382    0.995008115547      -0.0905813662382    -0.00254509353337   -0.0309993957716    
7700000000.0        -0.00262024561379   -0.0314044918415    0.994884883001      -0.0917723199018    0.994884883001      -0.0917723199018    -0.00262024561379   -0.0314044918415    
7800000000.0        -0.00269637511165   -0.0318094524084    0.99476004663       -0.0929631986853    0.99476004663       -0.0929631986853    -0.00269637511165   -0.0318094524084    
7900000000.0        -0.00277348184261   -0.0322142747845    0.994633606339      -0.0941540002488    0.994633606339      -0.0941540002488    -0.00277348184261   -0.0322142747845    
8000000000.0        -0.00285156561463   -0.0326189562736    0.99450556204       -0.0953447222408    0.99450556204       -0.0953447222408    -0.00285156561463   -0.0326189562736    
8100000000.0        -0.00293062622791   -0.0330234941712    0.994375913653      -0.0965353622982    0.994375913653      -0.0965353622982    -0.00293062622791   -0.0330234941712    
8200000000.0        -0.00301066347475   -0.0334278857646    0.994244661104      -0.0977259180473    0.994244661104      -0.0977259180473    -0.00301066347475   -0.0334278857646    
8300000000.0        -0.00309167713949   -0.0338321283335    0.994111804326      -0.0989163871032    0.994111804326      -0.0989163871032    -0.00309167713949   -0.0338321283335    
8400000000.0        -0.00317366699844   -0.0342362191497    0.99397734326       -0.100106767071     0.99397734326       -0.100106767071     -0.00317366699844   -0.0342362191497    
8500000000.0        -0.00325663281979   -0.0346401554776    0.993841277853      -0.101297055544     0.993841277853      -0.101297055544     -0.00325663281979   -0.0346401554776    
8600000000.0        -0.00334057436353   -0.0350439345744    0.99370360806       -0.102487250107     0.99370360806       -0.102487250107     -0.00334057436353   -0.0350439345744    
8700000000.0        -0.00342549138141   -0.03544755369      0.993564333844      -0.103677348335     0.993564333844      -0.103677348335     -0.00342549138141   -0.03544755369      
8800000000.0        -0.00351138361683   -0.0358510100674    0.993423455173      -0.104867347791     0.993423455173      -0.104867347791     -0.00351138361683   -0.0358510100674    
8900000000.0        -0.00359825080481   -0.036254300943     0.993280972024      -0.106057246032     0.993280972024      -0.106057246032     -0.00359825080481   -0.036254300943     
9000000000.0        -0.00368609267191   -0.0366574235464    0.99313688438       -0.107247040604     0.99313688438       -0.107247040604     -0.00368609267191   -0.0366574235464    
9100000000.0        -0.00377490893615   -0.0370603751008    0.992991192233      -0.108436729043     0.992991192233      -0.108436729043     -0.00377490893615   -0.0370603751008    
9200000000.0        -0.00386469930699   -0.0374631528232    0.992843895581      -0.109626308878     0.992843895581      -0.109626308878     -0.00386469930699   -0.0374631528232    
9300000000.0        -0.00395546348527   -0.0378657539245    0.992694994428      -0.110815777628     0.992694994428      -0.110815777628     -0.00395546348527   -0.0378657539245    
9400000000.0        -0.00404720116312   -0.0382681756095    0.992544488789      -0.112005132805     0.992544488789      -0.112005132805     -0.00404720116312   -0.0382681756095    
9500000000.0        -0.00413991202394   -0.0386704150775    0.992392378683      -0.113194371911     0.992392378683      -0.113194371911     -0.00413991202394   -0.0386704150775    
9600000000.0        -0.00423359574234   -0.0390724695219    0.992238664138      -0.114383492443     0.992238664138      -0.114383492443     -0.00423359574234   -0.0390724695219    
9700000000.0        -0.00432825198408   -0.0394743361308    0.992083345189      -0.115572491886     0.992083345189      -0.115572491886     -0.00432825198408   -0.0394743361308    
9800000000.0        -0.00442388040604   -0.0398760120869    0.991926421877      -0.116761367722     0.991926421877      -0.116761367722     -0.00442388040604   -0.0398760120869    
9900000000.0        -0.00452048065618   -0.0402774945676    0.991767894254      -0.117950117421     0.991767894254      -0.117950117421     -0.00452048065618   -0.0402774945676    
10000000000.0       -0.00461805237349   -0.0406787807455    0.991607762375      -0.119138738449     0.991607762375      -0.119138738449     -0.00461805237349   -0.0406787807455    
