# Hz S RI R 50.00 
100000000.0         0.206573780938      0.0032146409233     0.793422449097      -0.00478362368084   0.793422449097      -0.00478362368084   0.206573780938      0.0032146409233     
200000000.0         0.207703868045      0.00640681083979    0.792286913833      -0.00954478280421   0.792286913833      -0.00954478280421   0.207703868045      0.00640681083979    
300000000.0         0.208576145175      0.00958504653537    0.791406507734      -0.014292024259     0.791406507734      -0.014292024259     0.208576145175      0.00958504653537    
400000000.0         0.209334854915      0.0127519695304     0.790636986324      -0.0190279793696    0.790636986324      -0.0190279793696    0.209334854915      0.0127519695304     
500000000.0         0.210035654182      0.0159088257697     0.789922691078      -0.0237539037339    0.789922691078      -0.0237539037339    0.210035654182      0.0159088257697     
600000000.0         0.210706956916      0.0190562527648     0.789235206596      -0.028470444418     0.789235206596      -0.028470444418     0.210706956916      0.0190562527648     
700000000.0         0.211365548382      0.0221945552206     0.788557746223      -0.03317791561      0.788557746223      -0.03317791561      0.211365548382      0.0221945552206     
800000000.0         0.212022290375      0.0253238329404     0.787879446805      -0.0378764265405    0.787879446805      -0.0378764265405    0.212022290375      0.0253238329404     
900000000.0         0.212684664142      0.0284440495819     0.787192825739      -0.0425659502499    0.787192825739      -0.0425659502499    0.212684664142      0.0284440495819     
1000000000.0        0.213358060597      0.031555073424      0.786492490741      -0.0472463643627    0.786492490741      -0.0472463643627    0.213358060597      0.031555073424      
1100000000.0        0.214046498217      0.0346567033114     0.785774421935      -0.0519174770376    0.785774421935      -0.0519174770376    0.214046498217      0.0346567033114     
1200000000.0        0.214753051206      0.0377486860839     0.785035543678      -0.0565790444009    0.785035543678      -0.0565790444009    0.214753051206      0.0377486860839     
1300000000.0        0.215480119124      0.0408307287964     0.78427345493       -0.0612307827703    0.78427345493       -0.0612307827703    0.215480119124      0.0408307287964     
1400000000.0        0.216229604271      0.0439025075928     0.783486251854      -0.0658723775312    0.783486251854      -0.0658723775312    0.216229604271      0.0439025075928     
1500000000.0        0.217003032683      0.0469636743408     0.782672406822      -0.070503489774     0.782672406822      -0.070503489774     0.217003032683      0.0469636743408     
1600000000.0        0.217801639199      0.0500138617188     0.781830683345      -0.0751237613823    0.781830683345      -0.0751237613823    0.217801639199      0.0500138617188     
1700000000.0        0.218626428831      0.0530526872001     0.780960074691      -0.0797328190196    0.780960074691      -0.0797328190196    0.218626428831      0.0530526872001     
1800000000.0        0.219478222048      0.0560797562347     0.780059758609      -0.0843302773114    0.780059758609      -0.0843302773114    0.219478222048      0.0560797562347     
1900000000.0        0.220357688834      0.0590946648317     0.77912906326       -0.0889157414299    0.77912906326       -0.0889157414299    0.220357688834      0.0590946648317     
2000000000.0        0.221265374766      0.0620970016893     0.778167441142      -0.0934888092239    0.778167441142      -0.0934888092239    0.221265374766      0.0620970016893     
2100000000.0        0.222201721276      0.065086349973      0.777174448824      -0.0980490729988    0.777174448824      -0.0980490729988    0.222201721276      0.065086349973      
2200000000.0        0.223167081624      0.0680622888207     0.776149730972      -0.102596121022     0.776149730972      -0.102596121022     0.223167081624      0.0680622888207     
2300000000.0        0.224161733638      0.071024394629      0.775093007609      -0.10712953881      0.775093007609      -0.10712953881      0.224161733638      0.071024394629      
2400000000.0        0.225185890007      0.0739722421649     0.774004063817      -0.11164891024      0.774004063817      -0.11164891024      0.225185890007      0.0739722421649     
2500000000.0        0.226239706668      0.0769054055351     0.772882741352      -0.116153818522     0.772882741352      -0.116153818522     0.226239706668      0.0769054055351     
2600000000.0        0.227323289723      0.0798234590376     0.771728931724      -0.120643847049     0.771728931724      -0.120643847049     0.227323289723      0.0798234590376     
2700000000.0        0.228436701186      0.0827259779162     0.770542570453      -0.125118580152     0.770542570453      -0.125118580152     0.228436701186      0.0827259779162     
2800000000.0        0.229579963796      0.0856125390334     0.769323632249      -0.129577603772     0.769323632249      -0.129577603772     0.229579963796      0.0856125390334     
2900000000.0        0.230753065099      0.0884827214739     0.768072126935      -0.13402050607      0.768072126935      -0.13402050607      0.230753065099      0.0884827214739     
3000000000.0        0.231955960908      0.0913361070888     0.766788095983      -0.138446877963     0.766788095983      -0.138446877963     0.231955960908      0.0913361070888     
3100000000.0        0.233188578283      0.0941722809894     0.765471609532      -0.142856313624     0.765471609532      -0.142856313624     0.233188578283      0.0941722809894     
3200000000.0        0.234450818105      0.096990831996      0.764122763819      -0.147248410929     0.764122763819      -0.147248410929     0.234450818105      0.096990831996      
3300000000.0        0.235742557307      0.0997913530488     0.762741678942      -0.151622771869     0.762741678942      -0.151622771869     0.235742557307      0.0997913530488     
3400000000.0        0.237063650838      0.102573441583      0.761328496897      -0.155979002925     0.761328496897      -0.155979002925     0.237063650838      0.102573441583      
3500000000.0        0.238413933384      0.105336699877      0.759883379856      -0.160316715415     0.759883379856      -0.160316715415     0.238413933384      0.105336699877      
3600000000.0        0.239793220901      0.108080735367      0.758406508638      -0.164635525812     0.758406508638      -0.164635525812     0.239793220901      0.108080735367      
3700000000.0        0.241201311975      0.110805160944      0.75689808134       -0.168935056038     0.75689808134       -0.168935056038     0.241201311975      0.110805160944      
3800000000.0        0.24263798905       0.113509595225      0.755358312118      -0.173214933738     0.755358312118      -0.173214933738     0.24263798905       0.113509595225      
3900000000.0        0.244103019525      0.116193662803      0.75378743008       -0.177474792526     0.75378743008       -0.177474792526     0.244103019525      0.116193662803      
4000000000.0        0.245596156756      0.11885699448       0.752185678291      -0.181714272226     0.752185678291      -0.181714272226     0.245596156756      0.11885699448       
4100000000.0        0.247117140971      0.121499227482      0.750553312856      -0.185933019078     0.750553312856      -0.185933019078     0.247117140971      0.121499227482      
4200000000.0        0.248665700097      0.124120005661      0.748890602088      -0.190130685945     0.748890602088      -0.190130685945     0.248665700097      0.124120005661      
4300000000.0        0.250241550535      0.126718979673      0.747197825742      -0.194306932494     0.747197825742      -0.194306932494     0.250241550535      0.126718979673      
4400000000.0        0.251844397863      0.129295807155      0.745475274299      -0.198461425364     0.745475274299      -0.198461425364     0.251844397863      0.129295807155      
4500000000.0        0.253473937502      0.131850152878      0.74372324831       -0.202593838329     0.74372324831       -0.202593838329     0.253473937502      0.131850152878      
4600000000.0        0.255129855326      0.134381688891      0.741942057783      -0.206703852436     0.741942057783      -0.206703852436     0.255129855326      0.134381688891      
4700000000.0        0.256811828238      0.136890094655      0.740132021603      -0.210791156144     0.740132021603      -0.210791156144     0.256811828238      0.136890094655      
4800000000.0        0.258519524714      0.139375057167      0.738293466993      -0.214855445438     0.738293466993      -0.214855445438     0.258519524714      0.139375057167      
4900000000.0        0.260252605307      0.141836271063      0.736426729003      -0.218896423948     0.736426729003      -0.218896423948     0.260252605307      0.141836271063      
5000000000.0        0.262010723133      0.144273438727      0.734532150031      -0.222913803042     0.734532150031      -0.222913803042     0.262010723133      0.144273438727      
5100000000.0        0.263793524329      0.146686270375      0.73261007936       -0.226907301922     0.73261007936       -0.226907301922     0.263793524329      0.146686270375      
5200000000.0        0.265600648488      0.14907448414       0.730660872725      -0.230876647702     0.730660872725      -0.230876647702     0.265600648488      0.14907448414       
5300000000.0        0.267431729071      0.151437806141      0.728684891895      -0.234821575478     0.728684891895      -0.234821575478     0.267431729071      0.151437806141      
5400000000.0        0.269286393809      0.153775970548      0.726682504281      -0.238741828399     0.726682504281      -0.238741828399     0.269286393809      0.153775970548      
5500000000.0        0.271164265082      0.156088719635      0.724654082547      -0.242637157711     0.724654082547      -0.242637157711     0.271164265082      0.156088719635      
5600000000.0        0.273064960283      0.158375803829      0.722600004248      -0.246507322815     0.722600004248      -0.246507322815     0.273064960283      0.158375803829      
5700000000.0        0.274988092174      0.160636981747      0.720520651481      -0.250352091294     0.720520651481      -0.250352091294     0.274988092174      0.160636981747      
5800000000.0        0.27693326922       0.162872020227      0.718416410538      -0.254171238953     0.718416410538      -0.254171238953     0.27693326922       0.162872020227      
5900000000.0        0.27890009592       0.165080694351      0.716287671584      -0.25796454984      0.716287671584      -0.25796454984      0.27890009592       0.165080694351      
6000000000.0        0.280888173123      0.167262787463      0.714134828339      -0.26173181626      0.714134828339      -0.26173181626      0.280888173123      0.167262787463      
6100000000.0        0.28289709833       0.169418091177      0.711958277772      -0.265472838787     0.711958277772      -0.265472838787     0.28289709833       0.169418091177      
6200000000.0        0.284926465997      0.171546405383      0.709758419803      -0.269187426269     0.709758419803      -0.269187426269     0.284926465997      0.171546405383      
6300000000.0        0.286975867814      0.173647538239      0.707535657017      -0.272875395818     0.707535657017      -0.272875395818     0.286975867814      0.173647538239      
6400000000.0        0.289044892993      0.175721306164      0.705290394383      -0.276536572808     0.705290394383      -0.276536572808     0.289044892993      0.175721306164      
6500000000.0        0.291133128528      0.177767533823      0.703023038987      -0.280170790853     0.703023038987      -0.280170790853     0.291133128528      0.177767533823      
6600000000.0        0.293240159466      0.179786054102      0.700733999765      -0.283777891788     0.700733999765      -0.283777891788     0.293240159466      0.179786054102      
6700000000.0        0.295365569159      0.181776708083      0.69842368725       -0.287357725642     0.69842368725       -0.287357725642     0.295365569159      0.181776708083      
6800000000.0        0.297508939508      0.183739345011      0.696092513324      -0.290910150603     0.696092513324      -0.290910150603     0.297508939508      0.183739345011      
6900000000.0        0.299669851212      0.185673822255      0.693740890976      -0.294435032984     0.693740890976      -0.294435032984     0.299669851212      0.185673822255      
7000000000.0        0.301847883994      0.187580005267      0.691369234065      -0.297932247175     0.691369234065      -0.297932247175     0.301847883994      0.187580005267      
7100000000.0        0.304042616834      0.18945776753       0.688977957097      -0.301401675597     0.688977957097      -0.301401675597     0.304042616834      0.18945776753       
7200000000.0        0.306253628188      0.191306990508      0.686567475         -0.30484320865      0.686567475         -0.30484320865      0.306253628188      0.191306990508      
7300000000.0        0.308480496204      0.193127563589      0.684138202908      -0.308256744654     0.684138202908      -0.308256744654     0.308480496204      0.193127563589      
7400000000.0        0.31072279893       0.194919384021      0.681690555953      -0.311642189788     0.681690555953      -0.311642189788     0.31072279893       0.194919384021      
7500000000.0        0.312980114521      0.196682356849      0.679224949061      -0.314999458025     0.679224949061      -0.314999458025     0.312980114521      0.196682356849      
7600000000.0        0.31525202143       0.198416394841      0.676741796754      -0.31832847106      0.676741796754      -0.31832847106      0.31525202143       0.198416394841      
7700000000.0        0.317538098605      0.200121418418      0.674241512956      -0.321629158237     0.674241512956      -0.321629158237     0.317538098605      0.200121418418      
7800000000.0        0.319837925674      0.201797355575      0.671724510809      -0.324901456473     0.671724510809      -0.324901456473     0.319837925674      0.201797355575      
7900000000.0        0.322151083126      0.2034441418        0.669191202492      -0.328145310173     0.669191202492      -0.328145310173     0.322151083126      0.2034441418        
8000000000.0        0.324477152484      0.20506171999       0.66664199904       -0.331360671152     0.66664199904       -0.331360671152     0.324477152484      0.20506171999       
8100000000.0        0.326815716479      0.206650040363      0.664077310181      -0.334547498541     0.664077310181      -0.334547498541     0.326815716479      0.206650040363      
8200000000.0        0.329166359212      0.208209060367      0.661497544164      -0.3377057587       0.661497544164      -0.3377057587       0.329166359212      0.208209060367      
8300000000.0        0.331528666314      0.209738744589      0.658903107605      -0.340835425123     0.658903107605      -0.340835425123     0.331528666314      0.209738744589      
8400000000.0        0.3339022251        0.211239064655      0.656294405326      -0.343936478342     0.656294405326      -0.343936478342     0.3339022251        0.211239064655      
8500000000.0        0.336286624723      0.212709999136      0.653671840209      -0.347008905832     0.653671840209      -0.347008905832     0.336286624723      0.212709999136      
8600000000.0        0.338681456311      0.214151533443      0.65103581305       -0.350052701904     0.65103581305       -0.350052701904     0.338681456311      0.214151533443      
8700000000.0        0.341086313112      0.215563659725      0.64838672242       -0.353067867603     0.64838672242       -0.353067867603     0.341086313112      0.215563659725      
8800000000.0        0.343500790628      0.216946376765      0.645724964527      -0.356054410607     0.645724964527      -0.356054410607     0.343500790628      0.216946376765      
8900000000.0        0.345924486741      0.218299689871      0.643050933087      -0.359012345115     0.643050933087      -0.359012345115     0.345924486741      0.218299689871      
9000000000.0        0.348357001844      0.219623610767      0.640365019202      -0.36194169174      0.640365019202      -0.36194169174      0.348357001844      0.219623610767      
9100000000.0        0.350797938957      0.220918157482      0.637667611232      -0.364842477396     0.637667611232      -0.364842477396     0.350797938957      0.220918157482      
9200000000.0        0.353246903844      0.222183354241      0.634959094684      -0.367714735188     0.634959094684      -0.367714735188     0.353246903844      0.222183354241      
9300000000.0        0.355703505126      0.223419231345      0.632239852101      -0.370558504298     0.632239852101      -0.370558504298     0.355703505126      0.223419231345      
9400000000.0        0.358167354383      0.224625825063      0.629510262949      -0.373373829866     0.629510262949      -0.373373829866     0.358167354383      0.224625825063      
9500000000.0        0.360638066263      0.22580317751       0.626770703522      -0.37616076288      0.626770703522      -0.37616076288      0.360638066263      0.22580317751       
9600000000.0        0.363115258572      0.226951336532      0.624021546835      -0.378919360055     0.624021546835      -0.378919360055     0.363115258572      0.226951336532      
9700000000.0        0.365598552372      0.22807035559       0.62126316254       -0.381649683714     0.62126316254       -0.381649683714     0.365598552372      0.22807035559       
9800000000.0        0.368087572073      0.22916029364       0.618495916828      -0.384351801673     0.618495916828      -0.384351801673     0.368087572073      0.22916029364       
9900000000.0        0.370581945509      0.230221215011      0.615720172346      -0.387025787118     0.615720172346      -0.387025787118     0.370581945509      0.230221215011      
10000000000.0       0.373081304027      0.231253189288      0.612936288119      -0.389671718485     0.612936288119      -0.389671718485     0.373081304027      0.231253189288      
