# Hz S RI R 50.00 
100000000.0         -0.0156221109785    -0.12353056511      0.984340807665      -0.123630610722     0.984340807665      -0.123630610722     -0.0156221109785    -0.12353056511      
200000000.0         -0.0595063645989    -0.236004693314     0.940456285028      -0.236204805507     0.940456285028      -0.236204805507     -0.0595063645989    -0.236004693314     
300000000.0         -0.124469926505     -0.329487927283     0.875492507481      -0.329788138288     0.875492507481      -0.329788138288     -0.124469926505     -0.329487927283     
400000000.0         -0.201614669404     -0.400519252131     0.798347570454      -0.400919602945     0.798347570454      -0.400919602945     -0.201614669404     -0.400519252131     
500000000.0         -0.282812181171     -0.449623899696     0.717149873854      -0.450124438753     0.717149873854      -0.450124438753     -0.282812181171     -0.449623899696     
600000000.0         -0.362065853502     -0.479801543997     0.637896019781      -0.480402326241     0.637896019781      -0.480402326241     -0.362065853502     -0.479801543997     
700000000.0         -0.435722159354     -0.495001442683     0.56423953162       -0.495702528859     0.56423953162       -0.495702528859     -0.435722159354     -0.495001442683     
800000000.0         -0.502031283223     -0.499093029603     0.497930222512      -0.499894485671     0.497930222512      -0.499894485671     -0.502031283223     -0.499093029603     
900000000.0         -0.560531927813     -0.495366612746     0.439429388118      -0.496268509384     0.439429388118      -0.496268509384     -0.560531927813     -0.495366612746     
1000000000.0        -0.61151618652      -0.486397015375     0.388444933858      -0.487399427544     0.388444933858      -0.487399427544     -0.61151618652      -0.486397015375     
1100000000.0        -0.655650617306     -0.474094473563     0.344310300878      -0.475197480121     0.344310300878      -0.475197480121     -0.655650617306     -0.474094473563     
1200000000.0        -0.693740532689     -0.459825046131     0.30622017597       -0.461028729489     0.30622017597       -0.461028729489     -0.693740532689     -0.459825046131     
1300000000.0        -0.726598096626     -0.444539021413     0.273362394623      -0.445843467222     0.273362394623      -0.445843467222     -0.726598096626     -0.444539021413     
1400000000.0        -0.754976740658     -0.428882022237     0.244983524849      -0.430287319104     0.244983524849      -0.430287319104     -0.754976740658     -0.428882022237     
1500000000.0        -0.77954442285      -0.413282303599     0.220415608212      -0.414788542827     0.220415608212      -0.414788542827     -0.77954442285      -0.413282303599     
1600000000.0        -0.800877964227     -0.398015817302     0.199081823373      -0.399623092651     0.199081823373      -0.399623092651     -0.800877964227     -0.398015817302     
1700000000.0        -0.819467835161     -0.383253218305     0.180491699691      -0.384961625773     0.180491699691      -0.384961625773     -0.819467835161     -0.383253218305     
1800000000.0        -0.835727398759     -0.369093181992     0.164231873829      -0.37090281962      0.164231873829      -0.37090281962      -0.835727398759     -0.369093181992     
1900000000.0        -0.850003419025     -0.355585735916     0.14995558158       -0.357496703596     0.14995558158       -0.357496703596     -0.850003419025     -0.355585735916     
2000000000.0        -0.862586251952     -0.342748469654     0.13737246677       -0.344760868969     0.13737246677       -0.344760868969     -0.862586251952     -0.342748469654     
2100000000.0        -0.873719025685     -0.330577732618     0.126239401095      -0.332691666679     0.126239401095      -0.332691666679     -0.873719025685     -0.330577732618     
2200000000.0        -0.88360558417      -0.319056332142     0.116352540462      -0.321271905453     0.116352540462      -0.321271905453     -0.88360558417      -0.319056332142     
2300000000.0        -0.892417201263     -0.308158798918     0.107540610887      -0.310476117242     0.107540610887      -0.310476117242     -0.892417201263     -0.308158798918     
2400000000.0        -0.900298176342     -0.29785496579      0.0996593128679     -0.30027413603      0.0996593128679     -0.30027413603      -0.900298176342     -0.29785496579      
2500000000.0        -0.907370459243     -0.288112379011     0.0925866964601     -0.290633509107     0.0925866964601     -0.290633509107     -0.907370459243     -0.288112379011     
2600000000.0        -0.913737455403     -0.278897902376     0.0862193561237     -0.281521101203     0.0862193561237     -0.281521101203     -0.913737455403     -0.278897902376     
2700000000.0        -0.919487149967     -0.270178764275     0.0804693066157     -0.272904141554     0.0804693066157     -0.272904141554     -0.919487149967     -0.270178764275     
2800000000.0        -0.924694671718     -0.261923221248     0.0752614190639     -0.264750887469     0.0752614190639     -0.264750887469     -0.924694671718     -0.261923221248     
2900000000.0        -0.929424398899     -0.254100958593     0.0705313151417     -0.25703102494      0.0705313151417     -0.25703102494      -0.929424398899     -0.254100958593     
3000000000.0        -0.933731691556     -0.246683311795     0.0662236347206     -0.249715890083     0.0662236347206     -0.249715890083     -0.933731691556     -0.246683311795     
3100000000.0        -0.937664319762     -0.23964336704      0.0622906076514     -0.242778569658     0.0622906076514     -0.242778569658     -0.937664319762     -0.23964336704      
3200000000.0        -0.941263644143     -0.23295598129      0.0586908732362     -0.236193921147     0.0586908732362     -0.236193921147     -0.941263644143     -0.23295598129      
3300000000.0        -0.944565594459     -0.226597749997     0.0553885016448     -0.229938540482     0.0553885016448     -0.229938540482     -0.944565594459     -0.226597749997     
3400000000.0        -0.947601483259     -0.220546941918     0.0523521802604     -0.223990696857     0.0523521802604     -0.223990696857     -0.947601483259     -0.220546941918     
3500000000.0        -0.950398684534     -0.214783414397     0.0495545350266     -0.218330248022     0.0495545350266     -0.218330248022     -0.950398684534     -0.214783414397     
3600000000.0        -0.952981201592     -0.209288518275     0.0469715625731     -0.212938545194     0.0469715625731     -0.212938545194     -0.952981201592     -0.209288518275     
3700000000.0        -0.95537014377      -0.204044998611     0.0445821535011     -0.207798333782     0.0445821535011     -0.207798333782     -0.95537014377      -0.204044998611     
3800000000.0        -0.957584127921     -0.19903689531      0.0423676908991     -0.202893654026     0.0423676908991     -0.202893654026     -0.957584127921     -0.19903689531      
3900000000.0        -0.959639617621     -0.19424944634      0.0403117111338     -0.198209744208     0.0403117111338     -0.198209744208     -0.959639617621     -0.19424944634      
4000000000.0        -0.961551210667     -0.189668995165     0.0383996163498     -0.193732948098     0.0383996163498     -0.193732948098     -0.961551210667     -0.189668995165     
4100000000.0        -0.963331883515     -0.185282903369     0.0366184300369     -0.189450627573     0.0366184300369     -0.189450627573     -0.963331883515     -0.185282903369     
4200000000.0        -0.964993199725     -0.181079468934     0.0349565885803     -0.185351080906     0.0349565885803     -0.185351080906     -0.964993199725     -0.181079468934     
4300000000.0        -0.966545488256     -0.177047850349     0.0334037629668     -0.181423466872     0.0334037629668     -0.181423466872     -0.966545488256     -0.177047850349     
4400000000.0        -0.967997996414     -0.173177996469     0.0319507058394     -0.177657734611     0.0319507058394     -0.177657734611     -0.967997996414     -0.173177996469     
4500000000.0        -0.969359021417     -0.169460581955     0.030589119926      -0.174044559075     0.030589119926      -0.174044559075     -0.969359021417     -0.169460581955     
4600000000.0        -0.970636023901     -0.165886948002     0.0293115445402     -0.17057528175      0.0293115445402     -0.17057528175      -0.970636023901     -0.165886948002     
4700000000.0        -0.971835726087     -0.162449048039     0.0281112574103     -0.167241856366     0.0281112574103     -0.167241856366     -0.971835726087     -0.162449048039     
4800000000.0        -0.972964196916     -0.159139398055     0.0269821895439     -0.164036799219     0.0269821895439     -0.164036799219     -0.972964196916     -0.159139398055     
4900000000.0        -0.974026926071     -0.1559510312       0.0259188512095     -0.160953143777     0.0259188512095     -0.160953143777     -0.974026926071     -0.1559510312       
5000000000.0        -0.975028888483     -0.152877456325     0.0249162674242     -0.157984399219     0.0249162674242     -0.157984399219     -0.975028888483     -0.152877456325     
5100000000.0        -0.975974600698     -0.149912620121     0.0239699215928     -0.15512451258      0.0239699215928     -0.15512451258      -0.975974600698     -0.149912620121     
5200000000.0        -0.97686817023      -0.147050872559     0.0230757061529     -0.152367834189     0.0230757061529     -0.152367834189     -0.97686817023      -0.147050872559     
5300000000.0        -0.977713338876     -0.144286935337     0.0222298792576     -0.149709086113     0.0222298792576     -0.149709086113     -0.977713338876     -0.144286935337     
5400000000.0        -0.97851352082      -0.141615873061     0.021429026674      -0.147143333347     0.021429026674      -0.147143333347     -0.97851352082      -0.141615873061     
5500000000.0        -0.979271836217     -0.139033066917     0.020670028197      -0.144665957483     0.020670028197      -0.144665957483     -0.979271836217     -0.139033066917     
5600000000.0        -0.979991140861     -0.136534190609     0.0199500279838     -0.14227263265      0.0199500279838     -0.14227263265      -0.979991140861     -0.136534190609     
5700000000.0        -0.980674052441     -0.134115188355     0.0192664082971     -0.139959303507     0.0192664082971     -0.139959303507     -0.980674052441     -0.134115188355     
5800000000.0        -0.981322973824     -0.131772254747     0.0186167662201     -0.137722165109     0.0186167662201     -0.137722165109     -0.981322973824     -0.131772254747     
5900000000.0        -0.981940113744     -0.129501816317     0.0179988929689     -0.135557644469     0.0179988929689     -0.135557644469     -0.981940113744     -0.129501816317     
6000000000.0        -0.982527505218     -0.127300514635     0.0174107554773     -0.133462383659     0.0174107554773     -0.133462383659     -0.982527505218     -0.127300514635     
6100000000.0        -0.983087021966     -0.125165190818     0.0168504799758     -0.131433224321     0.0168504799758     -0.131433224321     -0.983087021966     -0.125165190818     
6200000000.0        -0.983620393079     -0.123092871313     0.0163163373228     -0.129467193445     0.0163163373228     -0.129467193445     -0.983620393079     -0.123092871313     
6300000000.0        -0.984129216146     -0.121080754834     0.0158067298794     -0.127561490311     0.0158067298794     -0.127561490311     -0.984129216146     -0.121080754834     
6400000000.0        -0.984614969016     -0.119126200359     0.0153201797455     -0.125713474487     0.0153201797455     -0.125713474487     -0.984614969016     -0.119126200359     
6500000000.0        -0.98507902036      -0.117226716088     0.0148553181995     -0.12392065478      0.0148553181995     -0.12392065478      -0.98507902036      -0.117226716088     
6600000000.0        -0.985522639166     -0.115379949274     0.014410876203      -0.122180679077     0.014410876203      -0.122180679077     -0.985522639166     -0.115379949274     
6700000000.0        -0.985947003286     -0.113583676855     0.0139856758508     -0.120491324969     0.0139856758508     -0.120491324969     -0.985947003286     -0.113583676855     
6800000000.0        -0.986353207152     -0.111835796816     0.0135786226609     -0.118850491118     0.0135786226609     -0.118850491118     -0.986353207152     -0.111835796816     
6900000000.0        -0.986742268733     -0.110134320209     0.0131886986107     -0.117256189275     0.0131886986107     -0.117256189275     -0.986742268733     -0.110134320209     
7000000000.0        -0.987115135837     -0.108477363793     0.0128149558398     -0.115706536919     0.0128149558398     -0.115706536919     -0.987115135837     -0.108477363793     
7100000000.0        -0.987472691812     -0.10686314322      0.0124565109467     -0.114199750446     0.0124565109467     -0.114199750446     -0.987472691812     -0.10686314322      
7200000000.0        -0.987815760719     -0.105289966733     0.0121125398175     -0.112734138865     0.0121125398175     -0.112734138865     -0.987815760719     -0.105289966733     
7300000000.0        -0.988145112025     -0.103756229333     0.0117822729303     -0.111308097966     0.0117822729303     -0.111308097966     -0.988145112025     -0.103756229333     
7400000000.0        -0.988461464875     -0.102260407372     0.0114649910853     -0.109920104911     0.0114649910853     -0.109920104911     -0.988461464875     -0.102260407372     
7500000000.0        -0.988765491977     -0.100801053536     0.0111600215196     -0.108568713217     0.0111600215196     -0.108568713217     -0.988765491977     -0.100801053536     
7600000000.0        -0.989057823144     -0.0993767921885    0.010866734365      -0.107252548104     0.010866734365      -0.107252548104     -0.989057823144     -0.0993767921885    
7700000000.0        -0.989339048523     -0.0979863150505    0.0105845394168     -0.105970302167     0.0105845394168     -0.105970302167     -0.989339048523     -0.0979863150505    
7800000000.0        -0.98960972155      -0.0966283771762    0.010312883182      -0.10472073136      0.010312883182      -0.10472073136      -0.98960972155      -0.0966283771762    
7900000000.0        -0.98987036165      -0.0953017932151    0.0100512461792     -0.103502651252     0.0100512461792     -0.103502651252     -0.98987036165      -0.0953017932151    
8000000000.0        -0.990121456705     -0.0940054339296    0.00979914046781    -0.102314933547     0.00979914046781    -0.102314933547     -0.990121456705     -0.0940054339296    
8100000000.0        -0.990363465322     -0.0927382229505    0.0095561073824     -0.101156502836     0.0095561073824     -0.101156502836     -0.990363465322     -0.0927382229505    
8200000000.0        -0.990596818908     -0.0914991337526    0.00932171545509    -0.10002633358      0.00932171545509    -0.10002633358      -0.990596818908     -0.0914991337526    
8300000000.0        -0.990821923584     -0.0902871868323    0.00909555850682    -0.0989234472793    0.00909555850682    -0.0989234472793    -0.990821923584     -0.0902871868323    
8400000000.0        -0.991039161932     -0.0891014470724    0.00887725389302    -0.0978469098418    0.00887725389302    -0.0978469098418    -0.991039161932     -0.0891014470724    
8500000000.0        -0.991248894615     -0.0879410212799    0.00866644088913    -0.0967958291208    0.00866644088913    -0.0967958291208    -0.991248894615     -0.0879410212799    
8600000000.0        -0.991451461863     -0.0868050558842    0.00846277920363    -0.0957693526126    0.00846277920363    -0.0957693526126    -0.991451461863     -0.0868050558842    
8700000000.0        -0.991647184843     -0.0856927347832    0.00826594760714    -0.0947666653019    0.00826594760714    -0.0947666653019    -0.991647184843     -0.0856927347832    
8800000000.0        -0.991836366922     -0.0846032773269    0.00807564266734    -0.093786987646     0.00807564266734    -0.093786987646     -0.991836366922     -0.0846032773269    
8900000000.0        -0.992019294841     -0.0835359364287    0.00789157758063    -0.0928295736853    0.00789157758063    -0.0928295736853    -0.992019294841     -0.0835359364287    
9000000000.0        -0.992196239787     -0.082489996794     0.00771348109204    -0.0918937092724    0.00771348109204    -0.0918937092724    -0.992196239787     -0.082489996794     
9100000000.0        -0.992367458403     -0.0814647732599    0.00754109649601    -0.0909787104108    0.00754109649601    -0.0909787104108    -0.992367458403     -0.0814647732599    
9200000000.0        -0.9925331937       -0.0804596092357    0.00737418071106    -0.0900839216961    0.00737418071106    -0.0900839216961    -0.9925331937       -0.0804596092357    
9300000000.0        -0.992693675928     -0.0794738752389    0.00721250342232    -0.0892087148512    0.00721250342232    -0.0892087148512    -0.992693675928     -0.0794738752389    
9400000000.0        -0.992849123361     -0.0785069675195    0.00705584628626    -0.0883524873507    0.00705584628626    -0.0883524873507    -0.992849123361     -0.0785069675195    
9500000000.0        -0.99299974304      -0.0775583067659    0.00690400219245    -0.0875146611268    0.00690400219245    -0.0875146611268    -0.99299974304      -0.0775583067659    
9600000000.0        -0.993145731458     -0.0766273368883    0.00675677457785    -0.086694681352     0.00675677457785    -0.086694681352     -0.993145731458     -0.0766273368883    
9700000000.0        -0.993287275197     -0.0757135238725    0.00661397678938    -0.0858920152934    0.00661397678938    -0.0858920152934    -0.993287275197     -0.0757135238725    
9800000000.0        -0.993424551521     -0.0748163547007    0.00647543149083    -0.0851061512331    0.00647543149083    -0.0851061512331    -0.993424551521     -0.0748163547007    
9900000000.0        -0.993557728929     -0.073935336335     0.00634097011078    -0.0843365974515    0.00634097011078    -0.0843365974515    -0.993557728929     -0.073935336335     
10000000000.0       -0.993686967668     -0.0730699947579    0.00621043232823    -0.0835828812675    0.00621043232823    -0.0835828812675    -0.993686967668     -0.0730699947579    
