# Hz S RI R 50.00 
100000000.0         0.00211574683253    0.000226270673085   0.997882969012      -0.000493699089159  0.997882969012      -0.000493699089159  0.00211574683253    0.000226270673085   
200000000.0         0.00212997239822    0.000452521004145   0.997868387719      -0.000987378168602  0.997868387719      -0.000987378168602  0.00212997239822    0.000452521004145   
300000000.0         0.00214066691866    0.000678758911848   0.997857265901      -0.00148104539628   0.997857265901      -0.00148104539628   0.00214066691866    0.000678758911848   
400000000.0         0.00214966938272    0.000904986999191   0.997847764567      -0.00197470356057   0.997847764567      -0.00197470356057   0.00214966938272    0.000904986999191   
500000000.0         0.00215768887478    0.0011312066343     0.99783917463       -0.00246835418836   0.99783917463       -0.00246835418836   0.00215768887478    0.0011312066343     
600000000.0         0.00216508744106    0.00135741863918    0.997831134043      -0.00296199824288   0.997831134043      -0.00296199824288   0.00216508744106    0.00135741863918    
700000000.0         0.00217207919365    0.0015836235366     0.997823428692      -0.00345563637574   0.997823428692      -0.00345563637574   0.00217207919365    0.0015836235366     
800000000.0         0.00217880300795    0.00180982166472    0.9978159197        -0.00394926904406   0.9978159197        -0.00394926904406   0.00217880300795    0.00180982166472    
900000000.0         0.00218535490402    0.00203601323818    0.997808511045      -0.00444289657419   0.997808511045      -0.00444289657419   0.00218535490402    0.00203601323818    
1000000000.0        0.00219180446654    0.00226219838493    0.997801133141      -0.00493651919869   0.997801133141      -0.00493651919869   0.00219180446654    0.00226219838493    
1100000000.0        0.00219820397616    0.00248837716866    0.997793733704      -0.00543013708097   0.997793733704      -0.00543013708097   0.00219820397616    0.00248837716866    
1200000000.0        0.00220459385257    0.00271454960463    0.997786272314      -0.00592375033101   0.997786272314      -0.00592375033101   0.00220459385257    0.00271454960463    
1300000000.0        0.00221100608032    0.00294071567024    0.997778716982      -0.00641735901674   0.997778716982      -0.00641735901674   0.00221100608032    0.00294071567024    
1400000000.0        0.00221746646158    0.00316687531272    0.997771041906      -0.0069109631724    0.997771041906      -0.0069109631724    0.00221746646158    0.00316687531272    
1500000000.0        0.00222399615155    0.00339302845498    0.997763225927      -0.00740456280442   0.997763225927      -0.00740456280442   0.00222399615155    0.00339302845498    
1600000000.0        0.00223061273752    0.0036191749998     0.997755251455      -0.00789815789628   0.997755251455      -0.00789815789628   0.00223061273752    0.0036191749998     
1700000000.0        0.00223733101657    0.00384531483333    0.997747103691      -0.00839174841201   0.997747103691      -0.00839174841201   0.00223733101657    0.00384531483333    
1800000000.0        0.00224416356887    0.00407144782771    0.997738770052      -0.00888533429908   0.997738770052      -0.00888533429908   0.00224416356887    0.00407144782771    
1900000000.0        0.00225112118851    0.00429757384309    0.997730239741      -0.00937891549079   0.997730239741      -0.00937891549079   0.00225112118851    0.00429757384309    
2000000000.0        0.00225821321273    0.00452369272948    0.997721503419      -0.00987249190801   0.997721503419      -0.00987249190801   0.00225821321273    0.00452369272948    
2100000000.0        0.00226544777742    0.00474980432799    0.997712552945      -0.0103660634609    0.997712552945      -0.0103660634609    0.00226544777742    0.00474980432799    
2200000000.0        0.00227283201804    0.0049759084722     0.997703381183      -0.01085963005      0.997703381183      -0.01085963005      0.00227283201804    0.0049759084722     
2300000000.0        0.00228037222953    0.00520200498888    0.997693981834      -0.0113531915676    0.997693981834      -0.0113531915676    0.00228037222953    0.00520200498888    
2400000000.0        0.00228807399498    0.005428093699      0.997684349312      -0.0118467478981    0.997684349312      -0.0118467478981    0.00228807399498    0.005428093699      
2500000000.0        0.00229594229022    0.00565417441833    0.997674478638      -0.0123402989196    0.997674478638      -0.0123402989196    0.00229594229022    0.00565417441833    
2600000000.0        0.00230398156956    0.00588024695806    0.997664365354      -0.012833844504     0.997664365354      -0.012833844504     0.00230398156956    0.00588024695806    
2700000000.0        0.00231219583665    0.00610631112527    0.997654005454      -0.0133273845174    0.997654005454      -0.0133273845174    0.00231219583665    0.00610631112527    
2800000000.0        0.00232058870362    0.00633236672343    0.997643395321      -0.0138209188215    0.997643395321      -0.0138209188215    0.00232058870362    0.00633236672343    
2900000000.0        0.00232916344055    0.00655841355271    0.997632531683      -0.014314447273     0.997632531683      -0.014314447273     0.00232916344055    0.00655841355271    
3000000000.0        0.00233792301735    0.00678445141036    0.997621411566      -0.0148079697247    0.997621411566      -0.0148079697247    0.00233792301735    0.00678445141036    
3100000000.0        0.00234687013929    0.00701048009103    0.997610032262      -0.0153014860256    0.997610032262      -0.0153014860256    0.00234687013929    0.00701048009103    
3200000000.0        0.00235600727739    0.00723649938689    0.997598391295      -0.015794996021     0.997598391295      -0.015794996021     0.00235600727739    0.00723649938689    
3300000000.0        0.0023653366944     0.00746250908809    0.997586486399      -0.0162884995533    0.997586486399      -0.0162884995533    0.0023653366944     0.00746250908809    
3400000000.0        0.00237486046739    0.00768850898272    0.997574315494      -0.0167819964617    0.997574315494      -0.0167819964617    0.00237486046739    0.00768850898272    
3500000000.0        0.00238458050721    0.00791449885713    0.997561876664      -0.0172754865828    0.997561876664      -0.0172754865828    0.00238458050721    0.00791449885713    
3600000000.0        0.00239449857543    0.00814047849609    0.997549168145      -0.0177689697505    0.997549168145      -0.0177689697505    0.00239449857543    0.00814047849609    
3700000000.0        0.0024046162992     0.00836644768286    0.997536188305      -0.0182624457965    0.997536188305      -0.0182624457965    0.0024046162992     0.00836644768286    
3800000000.0        0.00241493518429    0.00859240619939    0.997522935634      -0.0187559145501    0.997522935634      -0.0187559145501    0.00241493518429    0.00859240619939    
3900000000.0        0.00242545662651    0.00881835382641    0.997509408734      -0.0192493758387    0.997509408734      -0.0192493758387    0.00242545662651    0.00881835382641    
4000000000.0        0.00243618192182    0.00904429034352    0.997495606303      -0.0197428294876    0.997495606303      -0.0197428294876    0.00243618192182    0.00904429034352    
4100000000.0        0.00244711227536    0.00927021552931    0.997481527132      -0.0202362753205    0.997481527132      -0.0202362753205    0.00244711227536    0.00927021552931    
4200000000.0        0.00245824880937    0.00949612916147    0.997467170095      -0.0207297131592    0.997467170095      -0.0207297131592    0.00245824880937    0.00949612916147    
4300000000.0        0.00246959257035    0.00972203101677    0.997452534142      -0.021223142824     0.997452534142      -0.021223142824     0.00246959257035    0.00972203101677    
4400000000.0        0.00248114453536    0.00994792087128    0.99743761829       -0.0217165641337    0.99743761829       -0.0217165641337    0.00248114453536    0.00994792087128    
4500000000.0        0.00249290561777    0.0101737985003     0.997422421623      -0.0222099769057    0.997422421623      -0.0222099769057    0.00249290561777    0.0101737985003     
4600000000.0        0.00250487667235    0.0103996636785     0.99740694328       -0.022703380956     0.99740694328       -0.022703380956     0.00250487667235    0.0103996636785     
4700000000.0        0.0025170584999     0.01062551618       0.997391182457      -0.0231967760994    0.997391182457      -0.0231967760994    0.0025170584999     0.01062551618       
4800000000.0        0.00252945185141    0.0108513557783     0.997375138398      -0.0236901621495    0.997375138398      -0.0236901621495    0.00252945185141    0.0108513557783     
4900000000.0        0.00254205743182    0.0110771822464     0.997358810395      -0.0241835389186    0.997358810395      -0.0241835389186    0.00254205743182    0.0110771822464     
5000000000.0        0.00255487590343    0.0113029953568     0.997342197778      -0.0246769062183    0.997342197778      -0.0246769062183    0.00255487590342    0.0113029953568     
5100000000.0        0.00256790788902    0.0115287948818     0.997325299923      -0.0251702638588    0.997325299923      -0.0251702638588    0.00256790788902    0.0115287948818     
5200000000.0        0.00258115397467    0.0117545805931     0.997308116237      -0.0256636116496    0.997308116237      -0.0256636116496    0.00258115397467    0.0117545805931     
5300000000.0        0.00259461471233    0.0119803522622     0.997290646164      -0.0261569493992    0.997290646164      -0.0261569493992    0.00259461471233    0.0119803522622     
5400000000.0        0.00260829062215    0.0122061096601     0.997272889178      -0.0266502769151    0.997272889178      -0.0266502769151    0.00260829062215    0.0122061096601     
5500000000.0        0.00262218219468    0.0124318525577     0.997254844786      -0.0271435940041    0.997254844786      -0.0271435940041    0.00262218219468    0.0124318525577     
5600000000.0        0.00263628989281    0.0126575807255     0.997236512518      -0.0276369004723    0.997236512518      -0.0276369004723    0.00263628989281    0.0126575807255     
5700000000.0        0.00265061415356    0.0128832939339     0.997217891933      -0.0281301961249    0.997217891933      -0.0281301961249    0.00265061415356    0.0128832939339     
5800000000.0        0.0026651553898     0.0131089919531     0.997198982613      -0.0286234807664    0.997198982613      -0.0286234807664    0.0026651553898     0.0131089919531     
5900000000.0        0.00267991399174    0.0133346745529     0.997179784163      -0.0291167542007    0.997179784163      -0.0291167542007    0.00267991399174    0.0133346745529     
6000000000.0        0.00269489032833    0.0135603415031     0.997160296209      -0.0296100162308    0.997160296209      -0.0296100162308    0.00269489032833    0.0135603415031     
6100000000.0        0.00271008474861    0.0137859925734     0.997140518396      -0.0301032666595    0.997140518396      -0.0301032666595    0.00271008474861    0.0137859925734     
6200000000.0        0.00272549758289    0.0140116275333     0.99712045039       -0.0305965052886    0.99712045039       -0.0305965052886    0.00272549758289    0.0140116275333     
6300000000.0        0.00274112914385    0.0142372461521     0.997100091871      -0.0310897319195    0.997100091871      -0.0310897319195    0.00274112914385    0.0142372461521     
6400000000.0        0.00275697972759    0.0144628481991     0.99707944254       -0.0315829463531    0.99707944254       -0.0315829463531    0.00275697972759    0.0144628481991     
6500000000.0        0.00277304961459    0.0146884334435     0.99705850211       -0.0320761483897    0.99705850211       -0.0320761483897    0.00277304961459    0.0146884334435     
6600000000.0        0.00278933907059    0.0149140016544     0.99703727031       -0.032569337829     0.99703727031       -0.032569337829     0.00278933907059    0.0149140016544     
6700000000.0        0.00280584834744    0.0151395526009     0.997015746883      -0.0330625144704    0.997015746883      -0.0330625144704    0.00280584834744    0.0151395526009     
6800000000.0        0.00282257768382    0.015365086052      0.996993931585      -0.0335556781127    0.996993931585      -0.0335556781127    0.00282257768382    0.015365086052      
6900000000.0        0.00283952730602    0.0155906017767     0.996971824184      -0.0340488285544    0.996971824184      -0.0340488285544    0.00283952730602    0.0155906017767     
7000000000.0        0.00285669742857    0.015816099544      0.99694942446       -0.0345419655934    0.99694942446       -0.0345419655934    0.00285669742857    0.015816099544      
7100000000.0        0.00287408825488    0.0160415791227     0.996926732204      -0.0350350890274    0.996926732204      -0.0350350890274    0.00287408825488    0.0160415791227     
7200000000.0        0.0028916999778     0.0162670402819     0.996903747218      -0.0355281986533    0.996903747218      -0.0355281986533    0.0028916999778     0.0162670402819     
7300000000.0        0.0029095327802     0.0164924827904     0.996880469313      -0.0360212942682    0.996880469313      -0.0360212942682    0.0029095327802     0.0164924827904     
7400000000.0        0.00292758683546    0.0167179064172     0.996856898311      -0.0365143756683    0.996856898311      -0.0365143756683    0.00292758683546    0.0167179064172     
7500000000.0        0.00294586230797    0.0169433109313     0.996833034041      -0.0370074426498    0.996833034041      -0.0370074426498    0.00294586230797    0.0169433109313     
7600000000.0        0.00296435935355    0.0171686961017     0.996808876341      -0.0375004950084    0.996808876341      -0.0375004950084    0.00296435935355    0.0171686961017     
7700000000.0        0.00298307811987    0.0173940616974     0.996784425059      -0.0379935325395    0.996784425059      -0.0379935325395    0.00298307811987    0.0173940616974     
7800000000.0        0.00300201874689    0.0176194074874     0.996759680048      -0.0384865550382    0.996759680048      -0.0384865550382    0.00300201874689    0.0176194074874     
7900000000.0        0.00302118136718    0.0178447332408     0.996734641171      -0.0389795622994    0.996734641171      -0.0389795622994    0.00302118136718    0.0178447332408     
8000000000.0        0.00304056610631    0.0180700387269     0.996709308295      -0.0394725541174    0.996709308295      -0.0394725541174    0.00304056610631    0.0180700387269     
8100000000.0        0.00306017308316    0.0182953237148     0.996683681296      -0.0399655302865    0.996683681296      -0.0399655302865    0.00306017308316    0.0182953237148     
8200000000.0        0.00308000241021    0.0185205879739     0.996657760056      -0.0404584906008    0.996657760056      -0.0404584906008    0.00308000241021    0.0185205879739     
8300000000.0        0.00310005419388    0.0187458312733     0.996631544461      -0.0409514348538    0.996631544461      -0.0409514348538    0.00310005419388    0.0187458312733     
8400000000.0        0.00312032853478    0.0189710533827     0.996605034407      -0.041444362839     0.996605034407      -0.041444362839     0.00312032853478    0.0189710533827     
8500000000.0        0.00314082552796    0.0191962540713     0.996578229791      -0.0419372743496    0.996578229791      -0.0419372743496    0.00314082552796    0.0191962540713     
8600000000.0        0.00316154526317    0.0194214331089     0.996551130517      -0.0424301691786    0.996551130517      -0.0424301691786    0.00316154526317    0.0194214331089     
8700000000.0        0.0031824878251     0.019646590265      0.996523736495      -0.0429230471187    0.996523736495      -0.0429230471187    0.0031824878251     0.019646590265      
8800000000.0        0.00320365329358    0.0198717253094     0.99649604764       -0.0434159079624    0.99649604764       -0.0434159079624    0.00320365329358    0.0198717253094     
8900000000.0        0.00322504174381    0.0200968380119     0.996468063868      -0.043908751502     0.996468063868      -0.043908751502     0.00322504174381    0.0200968380119     
9000000000.0        0.00324665324652    0.0203219281424     0.996439785105      -0.0444015775296    0.996439785105      -0.0444015775296    0.00324665324652    0.0203219281424     
9100000000.0        0.00326848786822    0.0205469954709     0.996411211276      -0.0448943858372    0.996411211276      -0.0448943858372    0.00326848786821    0.0205469954709     
9200000000.0        0.00329054567129    0.0207720397675     0.996382342313      -0.0453871762163    0.996382342313      -0.0453871762163    0.00329054567129    0.0207720397675     
9300000000.0        0.00331282671425    0.0209970608025     0.996353178152      -0.0458799484587    0.996353178152      -0.0458799484587    0.00331282671425    0.0209970608025     
9400000000.0        0.00333533105184    0.0212220583461     0.996323718732      -0.0463727023555    0.996323718732      -0.0463727023555    0.00333533105184    0.0212220583461     
9500000000.0        0.00335805873518    0.0214470321687     0.996293963994      -0.0468654376981    0.996293963994      -0.0468654376981    0.00335805873518    0.0214470321687     
9600000000.0        0.00338100981196    0.021671982041      0.996263913885      -0.0473581542774    0.996263913885      -0.0473581542774    0.00338100981196    0.021671982041      
9700000000.0        0.00340418432653    0.0218969077334     0.996233568353      -0.0478508518842    0.996233568353      -0.0478508518842    0.00340418432653    0.0218969077334     
9800000000.0        0.00342758232005    0.0221218090168     0.996202927353      -0.0483435303093    0.996202927353      -0.0483435303093    0.00342758232005    0.0221218090168     
9900000000.0        0.00345120383062    0.022346685662      0.996171990838      -0.0488361893432    0.996171990838      -0.0488361893432    0.00345120383062    0.022346685662      
10000000000.0       0.00347504889337    0.0225715374401     0.996140758767      -0.0493288287764    0.996140758767      -0.0493288287764    0.00347504889337    0.0225715374401     
