# Hz S RI R 50.00 
100000000.0         0.00105460096895    0.000656674259495   0.99894104516       -0.00247371043569   0.99894104516       -0.00247371043569   0.00105460096895    0.000656674259495   
200000000.0         0.00106568804898    0.00131328560592    0.998923301122      -0.00494740772251   0.998923301122      -0.00494740772251   0.00106568804898    0.00131328560592    
300000000.0         0.00107817689035    0.00196983260167    0.998900851704      -0.00742111678624   0.998900851704      -0.00742111678624   0.00107817689035    0.00196983260167    
400000000.0         0.00109298057548    0.00262630325111    0.998872783133      -0.0098948446623    0.998872783133      -0.0098948446623    0.00109298057548    0.00262630325111    
500000000.0         0.0011104502786     0.00328268345649    0.998838743412      -0.0123685925077    0.998838743412      -0.0123685925077    0.0011104502786     0.00328268345649    
600000000.0         0.00113076478316    0.00393895836499    0.998798552825      -0.0148423582092    0.998798552825      -0.0148423582092    0.00113076478316    0.00393895836499    
700000000.0         0.00115402945014    0.00459511282511    0.998752104978      -0.0173161374892    0.998752104978      -0.0173161374892    0.00115402945014    0.00459511282511    
800000000.0         0.00118031232056    0.00525113158423    0.998699330709      -0.0197899244958    0.998699330709      -0.0197899244958    0.00118031232056    0.00525113158423    
900000000.0         0.00120966018246    0.00590699938616    0.998640182028      -0.0222637121618    0.998640182028      -0.0222637121618    0.00120966018246    0.00590699938616    
1000000000.0        0.00124210671114    0.00656270102317    0.998574623988      -0.024737492443     0.998574623988      -0.024737492443     0.00124210671114    0.00656270102317    
1100000000.0        0.00127767699219    0.00721822136496    0.998502630162      -0.0272112564851    0.998502630162      -0.0272112564851    0.00127767699219    0.00721822136496    
1200000000.0        0.00131639021559    0.0078735453751     0.998424179961      -0.0296849947474    0.998424179961      -0.0296849947474    0.00131639021559    0.0078735453751     
1300000000.0        0.00135826136997    0.00852865812001    0.998339256939      -0.0321586970973    0.998339256939      -0.0321586970973    0.00135826136997    0.00852865812001    
1400000000.0        0.00140330235604    0.00918354477374    0.998247847688      -0.0346323528837    0.998247847688      -0.0346323528837    0.00140330235604    0.00918354477374    
1500000000.0        0.00145152274496    0.00983819061984    0.998149941081      -0.037105950997     0.998149941081      -0.037105950997     0.00145152274496    0.00983819061984    
1600000000.0        0.00150293031099    0.0104925810516     0.998045527745      -0.0395794799175    0.998045527745      -0.0395794799175    0.00150293031099    0.0104925810516     
1700000000.0        0.00155753141526    0.0111467015713     0.997934599679      -0.0420529277562    0.997934599679      -0.0420529277562    0.00155753141526    0.0111467015713     
1800000000.0        0.00161533128855    0.0118005377884     0.997817149975      -0.0445262822885    0.997817149975      -0.0445262822885    0.00161533128855    0.0118005377884     
1900000000.0        0.00167633424377    0.0124540754176     0.997693172607      -0.046999530984     0.997693172607      -0.046999530984     0.00167633424377    0.0124540754176     
2000000000.0        0.00174054383832    0.0131073002765     0.997562662275      -0.0494726610315    0.997562662275      -0.0494726610315    0.00174054383832    0.0131073002765     
2100000000.0        0.00180796300008    0.0137601982831     0.997425614276      -0.0519456593607    0.997425614276      -0.0519456593607    0.00180796300008    0.0137601982831     
2200000000.0        0.00187859412655    0.0144127554531     0.997282024412      -0.0544185126619    0.997282024412      -0.0544185126619    0.00187859412655    0.0144127554531     
2300000000.0        0.00195243916377    0.0150649578975     0.99713188891       -0.056891207403     0.99713188891       -0.056891207403     0.00195243916377    0.0150649578975     
2400000000.0        0.00202949966986    0.0157167918196     0.996975204363      -0.0593637298443    0.996975204363      -0.0593637298443    0.00202949966986    0.0157167918196     
2500000000.0        0.0021097768667     0.0163682435127     0.996811967678      -0.0618360660525    0.996811967678      -0.0618360660525    0.0021097768667     0.0163682435127     
2600000000.0        0.00219327168241    0.0170192993576     0.996642176037      -0.0643082019129    0.996642176037      -0.0643082019129    0.00219327168241    0.0170192993576     
2700000000.0        0.00227998478644    0.0176699458196     0.996465826862      -0.0667801231402    0.996465826862      -0.0667801231402    0.00227998478644    0.0176699458196     
2800000000.0        0.00236991661888    0.0183201694467     0.996282917789      -0.0692518152889    0.996282917789      -0.0692518152889    0.00236991661888    0.0183201694467     
2900000000.0        0.00246306741514    0.0189699568668     0.996093446644      -0.0717232637622    0.996093446644      -0.0717232637622    0.00246306741514    0.0189699568668     
3000000000.0        0.00255943722676    0.0196192947853     0.995897411423      -0.0741944538204    0.995897411423      -0.0741944538204    0.00255943722676    0.0196192947853     
3100000000.0        0.00265902593921    0.0202681699835     0.995694810277      -0.0766653705887    0.995694810277      -0.0766653705887    0.00265902593921    0.0202681699835     
3200000000.0        0.00276183328705    0.0209165693156     0.995485641497      -0.0791359990644    0.995485641497      -0.0791359990644    0.00276183328705    0.0209165693156     
3300000000.0        0.00286785886704    0.0215644797073     0.995269903502      -0.0816063241232    0.995269903502      -0.0816063241232    0.00286785886704    0.0215644797073     
3400000000.0        0.00297710214954    0.0222118881534     0.99504759483       -0.0840763305252    0.99504759483       -0.0840763305252    0.00297710214954    0.0222118881534     
3500000000.0        0.00308956248827    0.022858781716      0.994818714129      -0.0865460029209    0.994818714129      -0.0865460029209    0.00308956248827    0.022858781716      
3600000000.0        0.00320523912904    0.0235051475224     0.994583260148      -0.0890153258561    0.994583260148      -0.0890153258561    0.00320523912904    0.0235051475224     
3700000000.0        0.00332413121723    0.0241509727636     0.994341231732      -0.0914842837769    0.994341231732      -0.0914842837769    0.00332413121723    0.0241509727636     
3800000000.0        0.00344623780455    0.0247962446924     0.994092627816      -0.0939528610343    0.994092627816      -0.0939528610343    0.00344623780455    0.0247962446924     
3900000000.0        0.00357155785485    0.0254409506215     0.993837447419      -0.0964210418883    0.993837447419      -0.0964210418883    0.00357155785485    0.0254409506215     
4000000000.0        0.00370009024945    0.0260850779223     0.993575689641      -0.098888810512     0.993575689641      -0.098888810512     0.00370009024945    0.0260850779223     
4100000000.0        0.00383183379174    0.0267286140226     0.99330735366       -0.101356150995     0.99330735366       -0.101356150995     0.00383183379174    0.0267286140226     
4200000000.0        0.00396678721144    0.027371546406      0.993032438725      -0.103823047349     0.993032438725      -0.103823047349     0.00396678721144    0.027371546406      
4300000000.0        0.00410494916824    0.0280138626095     0.992750944156      -0.106289483506     0.992750944156      -0.106289483506     0.00410494916824    0.0280138626095     
4400000000.0        0.0042463182553     0.0286555502228     0.992462869343      -0.108755443328     0.992462869343      -0.108755443328     0.0042463182553     0.0286555502228     
4500000000.0        0.00439089300218    0.0292965968863     0.992168213738      -0.111220910604     0.992168213738      -0.111220910604     0.00439089300218    0.0292965968863     
4600000000.0        0.00453867187767    0.0299369902902     0.991866976859      -0.113685869059     0.991866976859      -0.113685869059     0.00453867187767    0.0299369902902     
4700000000.0        0.00468965329227    0.030576718173      0.991559158283      -0.116150302349     0.991559158283      -0.116150302349     0.00468965329227    0.030576718173      
4800000000.0        0.00484383560043    0.0312157683203     0.991244757651      -0.118614194071     0.991244757651      -0.118614194071     0.00484383560043    0.0312157683203     
4900000000.0        0.00500121710267    0.0318541285634     0.990923774657      -0.12107752776      0.990923774657      -0.12107752776      0.00500121710267    0.0318541285634     
5000000000.0        0.00516179604744    0.0324917867784     0.990596209058      -0.123540286894     0.990596209058      -0.123540286894     0.00516179604744    0.0324917867784     
5100000000.0        0.00532557063288    0.0331287308849     0.990262060661      -0.126002454895     0.990262060661      -0.126002454895     0.00532557063288    0.0331287308849     
5200000000.0        0.00549253900839    0.0337649488447     0.989921329334      -0.128464015131     0.989921329334      -0.128464015131     0.00549253900839    0.0337649488447     
5300000000.0        0.00566269927608    0.0344004286612     0.989574014994      -0.130924950919     0.989574014994      -0.130924950919     0.00566269927608    0.0344004286612     
5400000000.0        0.00583604949215    0.0350351583778     0.989220117614      -0.133385245526     0.989220117614      -0.133385245526     0.00583604949215    0.0350351583778     
5500000000.0        0.00601258766813    0.0356691260773     0.988859637219      -0.135844882169     0.988859637219      -0.135844882169     0.00601258766813    0.0356691260773     
5600000000.0        0.00619231177198    0.0363023198807     0.988492573885      -0.138303844021     0.988492573885      -0.138303844021     0.00619231177198    0.0363023198807     
5700000000.0        0.00637521972921    0.0369347279463     0.98811892774       -0.140762114208     0.98811892774       -0.140762114208     0.00637521972921    0.0369347279463     
5800000000.0        0.00656130942384    0.0375663384687     0.987738698962      -0.143219675814     0.987738698962      -0.143219675814     0.00656130942384    0.0375663384687     
5900000000.0        0.0067505786993     0.0381971396781     0.98735188778       -0.145676511879     0.98735188778       -0.145676511879     0.0067505786993     0.0381971396781     
6000000000.0        0.00694302535929    0.0388271198389     0.986958494471      -0.148132605404     0.986958494471      -0.148132605404     0.00694302535929    0.0388271198389     
6100000000.0        0.00713864716859    0.0394562672497     0.986558519364      -0.15058793935      0.986558519364      -0.15058793935      0.00713864716859    0.0394562672497     
6200000000.0        0.00733744185376    0.0400845702416     0.986151962834      -0.15304249664      0.986151962834      -0.15304249664      0.00733744185376    0.0400845702416     
6300000000.0        0.00753940710384    0.0407120171778     0.985738825308      -0.155496260159     0.985738825308      -0.155496260159     0.00753940710384    0.0407120171778     
6400000000.0        0.00774454057099    0.041338596453      0.985319107257      -0.157949212756     0.985319107257      -0.157949212756     0.00774454057099    0.041338596453      
6500000000.0        0.00795283987109    0.041964296492      0.984892809204      -0.160401337246     0.984892809204      -0.160401337246     0.00795283987109    0.041964296492      
6600000000.0        0.00816430258428    0.0425891057497     0.984459931719      -0.162852616411     0.984459931719      -0.162852616411     0.00816430258428    0.0425891057497     
6700000000.0        0.00837892625549    0.0432130127098     0.984020475418      -0.165303032998     0.984020475418      -0.165303032998     0.00837892625549    0.0432130127098     
6800000000.0        0.00859670839495    0.0438360058843     0.983574440966      -0.167752569724     0.983574440966      -0.167752569724     0.00859670839495    0.0438360058843     
6900000000.0        0.00881764647859    0.0444580738127     0.983121829075      -0.170201209274     0.983121829075      -0.170201209274     0.00881764647859    0.0444580738127     
7000000000.0        0.00904173794851    0.0450792050617     0.982662640506      -0.172648934302     0.982662640506      -0.172648934302     0.00904173794851    0.0450792050617     
7100000000.0        0.00926898021338    0.0456993882239     0.982196876063      -0.175095727435     0.982196876063      -0.175095727435     0.00926898021338    0.0456993882239     
7200000000.0        0.00949937064876    0.0463186119177     0.981724536601      -0.177541571269     0.981724536601      -0.177541571269     0.00949937064876    0.0463186119177     
7300000000.0        0.00973290659753    0.0469368647863     0.98124562302       -0.179986448375     0.98124562302       -0.179986448375     0.00973290659753    0.0469368647863     
7400000000.0        0.00996958537013    0.0475541354974     0.980760136268      -0.182430341294     0.980760136268      -0.182430341294     0.00996958537013    0.0475541354974     
7500000000.0        0.0102094042449     0.0481704127421     0.980268077338      -0.184873232543     0.980268077338      -0.184873232543     0.0102094042449     0.0481704127421     
7600000000.0        0.0104523604685     0.0487856852351     0.979769447273      -0.187315104612     0.979769447273      -0.187315104612     0.0104523604685     0.0487856852351     
7700000000.0        0.0106984512557     0.0493999417133     0.979264247159      -0.189755939966     0.979264247159      -0.189755939966     0.0106984512557     0.0493999417133     
7800000000.0        0.0109476737904     0.0500131709357     0.978752478131      -0.192195721046     0.978752478131      -0.192195721046     0.0109476737904     0.0500131709357     
7900000000.0        0.0112000252252     0.0506253616827     0.97823414137       -0.194634430269     0.97823414137       -0.194634430269     0.0112000252252     0.0506253616827     
8000000000.0        0.0114555026817     0.0512365027556     0.977709238106      -0.197072050029     0.977709238106      -0.197072050029     0.0114555026817     0.0512365027556     
8100000000.0        0.0117141032512     0.051846582976      0.977177769611      -0.199508562696     0.977177769611      -0.199508562696     0.0117141032512     0.051846582976      
8200000000.0        0.0119758239942     0.0524555911853     0.976639737209      -0.20194395062      0.976639737209      -0.20194395062      0.0119758239942     0.0524555911853     
8300000000.0        0.0122406619411     0.0530635162444     0.976095142266      -0.204378196127     0.976095142266      -0.204378196127     0.0122406619411     0.0530635162444     
8400000000.0        0.0125086140919     0.0536703470329     0.9755439862        -0.206811281524     0.9755439862        -0.206811281524     0.0125086140919     0.0536703470329     
8500000000.0        0.012779677417      0.0542760724485     0.974986270471      -0.209243189094     0.974986270471      -0.209243189094     0.012779677417      0.0542760724485     
8600000000.0        0.0130538488564     0.0548806814072     0.974421996589      -0.211673901103     0.974421996589      -0.211673901103     0.0130538488564     0.0548806814072     
8700000000.0        0.0133311253208     0.0554841628419     0.973851166109      -0.214103399796     0.973851166109      -0.214103399796     0.0133311253208     0.0554841628419     
8800000000.0        0.0136115036909     0.0560865057027     0.973273780635      -0.216531667396     0.973273780635      -0.216531667396     0.0136115036909     0.0560865057027     
8900000000.0        0.0138949808181     0.056687698956      0.972689841817      -0.21895868611      0.972689841817      -0.21895868611      0.0138949808181     0.056687698956      
9000000000.0        0.0141815535242     0.0572877315843     0.972099351353      -0.221384438126     0.972099351353      -0.221384438126     0.0141815535242     0.0572877315843     
9100000000.0        0.0144712186016     0.0578865925855     0.971502310987      -0.223808905612     0.971502310987      -0.223808905612     0.0144712186016     0.0578865925855     
9200000000.0        0.0147639728133     0.0584842709728     0.97089872251       -0.226232070718     0.97089872251       -0.226232070718     0.0147639728133     0.0584842709728     
9300000000.0        0.0150598128933     0.0590807557741     0.970288587764      -0.228653915577     0.970288587764      -0.228653915577     0.0150598128933     0.0590807557741     
9400000000.0        0.0153587355461     0.0596760360314     0.969671908633      -0.231074422306     0.969671908633      -0.231074422306     0.0153587355461     0.0596760360314     
9500000000.0        0.015660737447      0.0602701008007     0.969048687054      -0.233493573001     0.969048687054      -0.233493573001     0.015660737447      0.0602701008007     
9600000000.0        0.0159658152423     0.0608629391515     0.968418925008      -0.235911349745     0.968418925008      -0.235911349745     0.0159658152423     0.0608629391515     
9700000000.0        0.0162739655491     0.0614545401663     0.967782624526      -0.238327734603     0.967782624526      -0.238327734603     0.0162739655491     0.0614545401663     
9800000000.0        0.0165851849553     0.0620448929403     0.967139787686      -0.240742709624     0.967139787686      -0.240742709624     0.0165851849553     0.0620448929403     
9900000000.0        0.0168994700198     0.0626339865812     0.966490416614      -0.243156256839     0.966490416614      -0.243156256839     0.0168994700198     0.0626339865812     
10000000000.0       0.0172168172722     0.0632218102083     0.965834513485      -0.245568358267     0.965834513485      -0.245568358267     0.0172168172722     0.0632218102083     
