# Hz S RI R 50.00 
100000000.0         0.00515578720921    0.00116289869359    0.994842546877      -0.00171849129819   0.994842546877      -0.00171849129819   0.00515578720921    0.00116289869359    
200000000.0         0.00519561364351    0.00232558686088    0.994801745292      -0.00343677670319   0.994801745292      -0.00343677670319   0.00519561364351    0.00232558686088    
300000000.0         0.00523034716288    0.0034881285412     0.994765727364      -0.0051549230168    0.994765727364      -0.0051549230168    0.00523034716288    0.0034881285412     
400000000.0         0.00526445174579    0.00465053565863    0.994730029087      -0.00687294433477   0.994730029087      -0.00687294433477   0.00526445174579    0.00465053565863    
500000000.0         0.00529964800444    0.00581280796781    0.99469292982       -0.00859084228533   0.99469292982       -0.00859084228533   0.00529964800444    0.00581280796781    
600000000.0         0.00533681401757    0.00697493982156    0.994653551454      -0.0103086128994    0.994653551454      -0.0103086128994    0.00533681401757    0.00697493982156    
700000000.0         0.00537646871878    0.00813692260688    0.99461137502       -0.0120262490994    0.99461137502       -0.0120262490994    0.00537646871878    0.00813692260688    
800000000.0         0.00541894837514    0.00929874587727    0.994566064213      -0.0137437418623    0.994566064213      -0.0137437418623    0.00541894837514    0.00929874587727    
900000000.0         0.00546448518851    0.0104603979619     0.99451738679       -0.0154610808503    0.99451738679       -0.0154610808503    0.00546448518851    0.0104603979619     
1000000000.0        0.00551324714859    0.0116218663269     0.99446517472       -0.0171782547864    0.99446517472       -0.0171782547864    0.00551324714859    0.0116218663269     
1100000000.0        0.00556536019297    0.0127831378056     0.99440930202       -0.018895251695     0.99440930202       -0.018895251695     0.00556536019297    0.0127831378056     
1200000000.0        0.00562092141537    0.0139441987522     0.994349671547      -0.0206120590646    0.994349671547      -0.0206120590646    0.00562092141537    0.0139441987522     
1300000000.0        0.00568000737775    0.0151050351503     0.99428620669       -0.0223286639622    0.99428620669       -0.0223286639622    0.00568000737775    0.0151050351503     
1400000000.0        0.00574267957534    0.0162656326905     0.994218845902      -0.0240450531164    0.994218845902      -0.0240450531164    0.00574267957534    0.0162656326905     
1500000000.0        0.00580898816154    0.0174259768287     0.994147538974      -0.0257612129798    0.994147538974      -0.0257612129798    0.00580898816154    0.0174259768287     
1600000000.0        0.00587897456471    0.0185860528302     0.994072244422      -0.0274771297772    0.994072244422      -0.0274771297772    0.00587897456471    0.0185860528302     
1700000000.0        0.00595267337444    0.0197458458046     0.993992927598      -0.0291927895427    0.993992927598      -0.0291927895427    0.00595267337444    0.0197458458046     
1800000000.0        0.00603011373167    0.0209053407322     0.993909559299      -0.0309081781495    0.993909559299      -0.0309081781495    0.00603011373167    0.0209053407322     
1900000000.0        0.00611132037324    0.0220645224867     0.993822114728      -0.0326232813342    0.993822114728      -0.0326232813342    0.00611132037324    0.0220645224867     
2000000000.0        0.00619631443009    0.0232233758523     0.993730572688      -0.0343380847166    0.993730572688      -0.0343380847166    0.00619631443009    0.0232233758523     
2100000000.0        0.00628511404663    0.0243818855392     0.99363491497       -0.0360525738159    0.99363491497       -0.0360525738159    0.00628511404663    0.0243818855392     
2200000000.0        0.00637773486768    0.0255400361949     0.99353512586       -0.0377667340648    0.99353512586       -0.0377667340648    0.00637773486768    0.0255400361949     
2300000000.0        0.00647419042605    0.0266978124153     0.993431191756      -0.0394805508208    0.993431191756      -0.0394805508208    0.00647419042605    0.0266978124153     
2400000000.0        0.00657449245441    0.0278551987529     0.993323100855      -0.0411940093765    0.993323100855      -0.0411940093765    0.00657449245441    0.0278551987529     
2500000000.0        0.00667865113869    0.0290121797247     0.993210842897      -0.0429070949679    0.993210842897      -0.0429070949679    0.00667865113869    0.0290121797247     
2600000000.0        0.00678667532586    0.0301687398184     0.993094408962      -0.0446197927823    0.993094408962      -0.0446197927823    0.00678667532586    0.0301687398184     
2700000000.0        0.00689857269574    0.0313248634984     0.992973791293      -0.0463320879644    0.992973791293      -0.0463320879644    0.00689857269573    0.0313248634984     
2800000000.0        0.00701434990411    0.0324805352101     0.992848983158      -0.0480439656224    0.992848983158      -0.0480439656224    0.00701434990411    0.0324805352101     
2900000000.0        0.00713401270284    0.0336357393848     0.992719978726      -0.0497554108331    0.992719978726      -0.0497554108331    0.00713401270284    0.0336357393848     
3000000000.0        0.00725756604125    0.0347904604435     0.992586772966      -0.051466408646     0.992586772966      -0.051466408646     0.00725756604125    0.0347904604435     
3100000000.0        0.00738501415225    0.0359446828        0.992449361565      -0.0531769440882    0.992449361565      -0.0531769440882    0.00738501415225    0.0359446828        
3200000000.0        0.00751636062601    0.0370983908642     0.992307740849      -0.0548870021672    0.992307740849      -0.0548870021672    0.00751636062601    0.0370983908642     
3300000000.0        0.00765160847311    0.038251569045      0.992161907724      -0.0565965678749    0.992161907724      -0.0565965678749    0.00765160847311    0.038251569045      
3400000000.0        0.00779076017913    0.0394042017526     0.992011859616      -0.0583056261904    0.992011859616      -0.0583056261904    0.00779076017913    0.0394042017526     
3500000000.0        0.00793381775197    0.0405562734006     0.991857594433      -0.0600141620827    0.991857594433      -0.0600141620827    0.00793381775197    0.0405562734006     
3600000000.0        0.00808078276305    0.0417077684088     0.991699110514      -0.0617221605133    0.991699110514      -0.0617221605133    0.00808078276305    0.0417077684088     
3700000000.0        0.00823165638334    0.042858671204      0.991536406598      -0.0634296064385    0.991536406598      -0.0634296064385    0.00823165638334    0.042858671204      
3800000000.0        0.00838643941498    0.044008966223      0.991369481793      -0.0651364848118    0.991369481793      -0.0651364848118    0.00838643941498    0.044008966223      
3900000000.0        0.00854513231921    0.0451586379132     0.991198335545      -0.0668427805854    0.991198335545      -0.0668427805854    0.00854513231921    0.0451586379132     
4000000000.0        0.00870773524094    0.0463076707346     0.991022967617      -0.0685484787126    0.991022967617      -0.0685484787126    0.00870773524094    0.0463076707346     
4100000000.0        0.00887424803069    0.0474560491611     0.990843378064      -0.0702535641493    0.990843378064      -0.0702535641493    0.00887424803069    0.0474560491611     
4200000000.0        0.00904467026399    0.0486037576819     0.990659567214      -0.0719580218556    0.990659567214      -0.0719580218556    0.00904467026399    0.0486037576819     
4300000000.0        0.00921900125878    0.0497507808026     0.990471535654      -0.0736618367973    0.990471535654      -0.0736618367973    0.00921900125878    0.0497507808026     
4400000000.0        0.00939724009099    0.0508971030462     0.99027928421       -0.0753649939476    0.99027928421       -0.0753649939476    0.00939724009099    0.0508971030462     
4500000000.0        0.00957938560844    0.0520427089547     0.990082813935      -0.077067478288     0.990082813935      -0.077067478288     0.00957938560844    0.0520427089547     
4600000000.0        0.00976543644346    0.0531875830896     0.989882126098      -0.0787692748102    0.989882126098      -0.0787692748102    0.00976543644346    0.0531875830896     
4700000000.0        0.00995539102423    0.054331710033      0.98967722217       -0.0804703685167    0.98967722217       -0.0804703685167    0.00995539102423    0.054331710033      
4800000000.0        0.010149247585      0.0554750743888     0.989468103816      -0.0821707444223    0.989468103816      -0.0821707444223    0.010149247585      0.0554750743888     
4900000000.0        0.0103470041755     0.0566176607831     0.989254772882      -0.0838703875553    0.989254772882      -0.0838703875553    0.0103470041755     0.0566176607831     
5000000000.0        0.0105486586692     0.0577594538656     0.989037231392      -0.0855692829583    0.989037231392      -0.0855692829583    0.0105486586692     0.0577594538656     
5100000000.0        0.0107542087714     0.0589004383098     0.988815481536      -0.0872674156892    0.988815481536      -0.0872674156892    0.0107542087714     0.0589004383098     
5200000000.0        0.0109636520256     0.0600405988144     0.988589525666      -0.0889647708225    0.988589525666      -0.0889647708225    0.0109636520256     0.0600405988144     
5300000000.0        0.0111769858208     0.0611799201033     0.988359366286      -0.0906613334498    0.988359366286      -0.0906613334498    0.0111769858208     0.0611799201033     
5400000000.0        0.0113942073967     0.0623183869271     0.988125006048      -0.092357088681     0.988125006048      -0.092357088681     0.0113942073967     0.0623183869271     
5500000000.0        0.0116153138494     0.0634559840632     0.98788644775       -0.0940520216451    0.98788644775       -0.0940520216451    0.0116153138494     0.0634559840632     
5600000000.0        0.0118403021364     0.0645926963167     0.987643694325      -0.0957461174909    0.987643694325      -0.0957461174909    0.0118403021364     0.0645926963167     
5700000000.0        0.0120691690813     0.0657285085211     0.98739674884       -0.0974393613879    0.98739674884       -0.0974393613879    0.0120691690813     0.0657285085211     
5800000000.0        0.0123019113778     0.0668634055385     0.987145614489      -0.0991317385271    0.987145614489      -0.0991317385271    0.0123019113778     0.0668634055385     
5900000000.0        0.0125385255937     0.0679973722608     0.986890294595      -0.100823234122     0.986890294595      -0.100823234122     0.0125385255937     0.0679973722608     
6000000000.0        0.0127790081748     0.06913039361       0.986630792599      -0.102513833408     0.986630792599      -0.102513833408     0.0127790081748     0.06913039361       
6100000000.0        0.013023355448      0.0702624545387     0.986367112062      -0.104203521645     0.986367112062      -0.104203521645     0.013023355448      0.0702624545387     
6200000000.0        0.0132715636247     0.0713935400305     0.986099256658      -0.105892284118     0.986099256658      -0.105892284118     0.0132715636247     0.0713935400305     
6300000000.0        0.0135236288033     0.072523635101      0.985827230176      -0.107580106135     0.985827230176      -0.107580106135     0.0135236288033     0.072523635101      
6400000000.0        0.0137795469726     0.0736527247981     0.985551036509      -0.109266973032     0.985551036509      -0.109266973032     0.0137795469726     0.0736527247981     
6500000000.0        0.0140393140139     0.0747807942022     0.985270679663      -0.110952870169     0.985270679663      -0.110952870169     0.0140393140139     0.0747807942022     
6600000000.0        0.0143029257035     0.0759078284273     0.984986163744      -0.112637782933     0.984986163744      -0.112637782933     0.0143029257035     0.0759078284273     
6700000000.0        0.0145703777151     0.0770338126208     0.98469749296       -0.114321696742     0.98469749296       -0.114321696742     0.0145703777151     0.0770338126208     
6800000000.0        0.0148416656217     0.0781587319647     0.984404671622      -0.116004597037     0.984404671622      -0.116004597037     0.0148416656217     0.0781587319647     
6900000000.0        0.0151167848979     0.0792825716754     0.984107704135      -0.117686469291     0.984107704135      -0.117686469291     0.0151167848979     0.0792825716754     
7000000000.0        0.0153957309214     0.0804053170047     0.983806595004      -0.119367299006     0.983806595004      -0.119367299006     0.0153957309214     0.0804053170047     
7100000000.0        0.0156784989751     0.0815269532399     0.983501348824      -0.121047071713     0.983501348824      -0.121047071713     0.0156784989751     0.0815269532399     
7200000000.0        0.0159650842487     0.0826474657044     0.983191970287      -0.122725772972     0.983191970287      -0.122725772972     0.0159650842487     0.0826474657044     
7300000000.0        0.0162554818402     0.083766839758      0.982878464172      -0.124403388376     0.982878464172      -0.124403388376     0.0162554818402     0.083766839758      
7400000000.0        0.0165496867576     0.0848850607974     0.982560835351      -0.126079903549     0.982560835351      -0.126079903549     0.0165496867576     0.0848850607974     
7500000000.0        0.0168476939201     0.0860021142568     0.982239088781      -0.127755304147     0.982239088781      -0.127755304147     0.0168476939201     0.0860021142568     
7600000000.0        0.0171494981596     0.0871179856079     0.981913229508      -0.129429575856     0.981913229508      -0.129429575856     0.0171494981596     0.0871179856079     
7700000000.0        0.017455094222      0.0882326603609     0.981583262662      -0.131102704398     0.981583262662      -0.131102704398     0.017455094222      0.0882326603609     
7800000000.0        0.0177644767686     0.0893461240641     0.981249193458      -0.132774675526     0.981249193458      -0.132774675526     0.0177644767686     0.0893461240641     
7900000000.0        0.0180776403769     0.090458362305      0.980911027194      -0.134445475029     0.980911027194      -0.134445475029     0.0180776403769     0.090458362305      
8000000000.0        0.0183945795421     0.0915693607104     0.98056876925       -0.136115088728     0.98056876925       -0.136115088728     0.0183945795421     0.0915693607104     
8100000000.0        0.018715288678      0.0926791049469     0.980222425085      -0.13778350248      0.980222425085      -0.13778350248      0.018715288678      0.0926791049469     
8200000000.0        0.0190397621183     0.0937875807208     0.979872000241      -0.139450702177     0.979872000241      -0.139450702177     0.0190397621183     0.0937875807208     
8300000000.0        0.019367994117      0.0948947737793     0.979517500336      -0.141116673747     0.979517500336      -0.141116673747     0.019367994117      0.0948947737793     
8400000000.0        0.0196999788502     0.0960006699101     0.979158931066      -0.142781403152     0.979158931066      -0.142781403152     0.0196999788502     0.0960006699101     
8500000000.0        0.0200357104164     0.0971052549423     0.978796298207      -0.144444876393     0.978796298207      -0.144444876393     0.0200357104164     0.0971052549423     
8600000000.0        0.0203751828377     0.0982085147463     0.978429607607      -0.146107079507     0.978429607607      -0.146107079507     0.0203751828377     0.0982085147463     
8700000000.0        0.0207183900604     0.0993104352345     0.978058865191      -0.147767998569     0.978058865191      -0.147767998569     0.0207183900604     0.0993104352345     
8800000000.0        0.0210653259564     0.100411002362      0.977684076959      -0.149427619689     0.977684076959      -0.149427619689     0.0210653259564     0.100411002362      
8900000000.0        0.0214159843232     0.101510202125      0.977305248983      -0.151085929017     0.977305248983      -0.151085929017     0.0214159843232     0.101510202125      
9000000000.0        0.0217703588854     0.102608020564      0.976922387408      -0.152742912744     0.976922387408      -0.152742912744     0.0217703588854     0.102608020564      
9100000000.0        0.0221284432952     0.103704443762      0.976535498452      -0.154398557095     0.976535498452      -0.154398557095     0.0221284432952     0.103704443762      
9200000000.0        0.022490231133      0.104799457847      0.976144588403      -0.156052848338     0.976144588403      -0.156052848338     0.022490231133      0.104799457847      
9300000000.0        0.0228557159083     0.105893048989      0.975749663621      -0.157705772778     0.975749663621      -0.157705772778     0.0228557159083     0.105893048989      
9400000000.0        0.0232248910604     0.106985203403      0.975350730534      -0.159357316763     0.975350730534      -0.159357316763     0.0232248910604     0.106985203403      
9500000000.0        0.023597749959      0.108075907348      0.974947795641      -0.161007466679     0.974947795641      -0.161007466679     0.023597749959      0.108075907348      
9600000000.0        0.0239742859051     0.109165147129      0.974540865507      -0.162656208954     0.974540865507      -0.162656208954     0.0239742859051     0.109165147129      
9700000000.0        0.0243544921313     0.110252909095      0.974129946768      -0.164303530057     0.974129946768      -0.164303530057     0.0243544921313     0.110252909095      
9800000000.0        0.0247383618026     0.111339179642      0.973715046124      -0.165949416497     0.973715046124      -0.165949416497     0.0247383618026     0.111339179642      
9900000000.0        0.0251258880172     0.112423945209      0.973296170345      -0.167593854827     0.973296170345      -0.167593854827     0.0251258880172     0.112423945209      
10000000000.0       0.0255170638068     0.113507192284      0.972873326263      -0.169236831641     0.972873326263      -0.169236831641     0.0255170638068     0.113507192284      
