# Hz S RI R 50.00 
100000000.0         0.144010988398      0.00253098779524    0.855986299044      -0.00366038764785   0.855986299044      -0.00366038764785   0.144010988398      0.00253098779524    
200000000.0         0.144849503559      0.00504998466466    0.855144723294      -0.00730878693189   0.855144723294      -0.00730878693189   0.144849503559      0.00504998466466    
300000000.0         0.145486678211      0.00756165006258    0.854503139153      -0.0109498613502    0.854503139153      -0.0109498613502    0.145486678211      0.00756165006258    
400000000.0         0.146030877512      0.0100674733831     0.853953180844      -0.0145851041018    0.853953180844      -0.0145851041018    0.146030877512      0.0100674733831     
500000000.0         0.146523960641      0.0125682056128     0.853452988667      -0.0182152698596    0.853452988667      -0.0182152698596    0.146523960641      0.0125682056128     
600000000.0         0.146987330564      0.0150642704609     0.852981159199      -0.0218407859416    0.852981159199      -0.0218407859416    0.146987330564      0.0150642704609     
700000000.0         0.147433657955      0.0175559121184     0.852525021334      -0.0254619000916    0.852525021334      -0.0254619000916    0.147433657955      0.0175559121184     
800000000.0         0.147871165869      0.0200432638298     0.852076351603      -0.0290787490644    0.852076351603      -0.0290787490644    0.147871165869      0.0200432638298     
900000000.0         0.148305539946      0.0225263847461     0.851629463963      -0.0326913954863    0.851629463963      -0.0326913954863    0.148305539946      0.0225263847461     
1000000000.0        0.14874089785       0.0250052817603     0.851180240348      -0.0362998496968    0.851180240348      -0.0362998496968    0.14874089785       0.0250052817603     
1100000000.0        0.14918032882       0.0274799233871     0.850725591117      -0.039904083633     0.850725591117      -0.039904083633     0.14918032882       0.0274799233871     
1200000000.0        0.149626215546      0.0299502490705     0.850263133168      -0.0435040401399    0.850263133168      -0.0435040401399    0.149626215546      0.0299502490705     
1300000000.0        0.15008043692       0.0324161756928     0.849790987194      -0.0470996394826    0.849790987194      -0.0470996394826    0.15008043692       0.0324161756928     
1400000000.0        0.150544501449      0.0348776022855     0.849307644262      -0.0506907840586    0.849307644262      -0.0506907840586    0.150544501449      0.0348776022855     
1500000000.0        0.151019638272      0.0373344135367     0.848811874796      -0.0542773619078    0.848811874796      -0.0542773619078    0.151019638272      0.0373344135367     
1600000000.0        0.151506861154      0.0397864824665     0.84830266458       -0.0578592493885    0.84830266458       -0.0578592493885    0.151506861154      0.0397864824665     
1700000000.0        0.152007014662      0.0422336725101     0.847779168584      -0.0614363132618    0.847779168584      -0.0614363132618    0.152007014662      0.0422336725101     
1800000000.0        0.152520808219      0.0446758391685     0.847240676905      -0.0650084123441    0.847240676905      -0.0650084123441    0.152520808219      0.0446758391685     
1900000000.0        0.153048841725      0.0471128313395     0.846686589151      -0.0685753988378    0.846686589151      -0.0685753988378    0.153048841725      0.0471128313395     
2000000000.0        0.153591625146      0.0495444924041     0.846116394845      -0.0721371194194    0.846116394845      -0.0721371194194    0.153591625146      0.0495444924041     
2100000000.0        0.154149593738      0.0519706611256     0.845529658206      -0.075693416139     0.845529658206      -0.075693416139     0.154149593738      0.0519706611256     
2200000000.0        0.154723120022      0.0543911724027     0.844926006167      -0.0792441271736    0.844926006167      -0.0792441271736    0.154723120022      0.0543911724027     
2300000000.0        0.155312523335      0.056805857906      0.844305118833      -0.0827890874648    0.844305118833      -0.0827890874648    0.155312523335      0.056805857906      
2400000000.0        0.155918077517      0.0592145466219     0.843666721783      -0.0863281292626    0.843666721783      -0.0863281292626    0.155918077517      0.0592145466219     
2500000000.0        0.15654001717       0.0616170653212     0.843010579817      -0.0898610825945    0.843010579817      -0.0898610825945    0.15654001717       0.0616170653212     
2600000000.0        0.1571785428        0.064013238966      0.842336491816      -0.0933877756733    0.842336491816      -0.0933877756733    0.1571785428        0.064013238966      
2700000000.0        0.157833825069      0.0664028910665     0.84164428648       -0.0969080352535    0.84164428648       -0.0969080352535    0.157833825069      0.0664028910665     
2800000000.0        0.158506008354      0.0687858439947     0.84093381878       -0.100421686946     0.84093381878       -0.100421686946     0.158506008354      0.0687858439947     
2900000000.0        0.159195213732      0.0711619192634     0.840204966966      -0.103928555497     0.840204966966      -0.103928555497     0.159195213732      0.0711619192634     
3000000000.0        0.159901541506      0.0735309377751     0.839457630041      -0.107428465036     0.839457630041      -0.107428465036     0.159901541506      0.0735309377751     
3100000000.0        0.160625073364      0.0758927200453     0.838691725606      -0.110921239303     0.838691725606      -0.110921239303     0.160625073364      0.0758927200453     
3200000000.0        0.16136587422       0.0782470864044     0.837907188013      -0.114406701845     0.837907188013      -0.114406701845     0.16136587422       0.0782470864044     
3300000000.0        0.162123993811      0.0805938571804     0.837103966776      -0.117884676206     0.837103966776      -0.117884676206     0.162123993811      0.0805938571804     
3400000000.0        0.162899468068      0.0829328528658     0.836282025189      -0.121354986087     0.836282025189      -0.121354986087     0.162899468068      0.0829328528658     
3500000000.0        0.16369232032       0.0852638942704     0.83544133913       -0.124817455503     0.83544133913       -0.124817455503     0.16369232032       0.0852638942704     
3600000000.0        0.164502562345      0.0875868026611     0.834581896008      -0.128271908923     0.834581896008      -0.128271908923     0.164502562345      0.0875868026611     
3700000000.0        0.165330195291      0.0899013998912     0.833703693844      -0.131718171397     0.833703693844      -0.131718171397     0.165330195291      0.0899013998912     
3800000000.0        0.166175210487      0.0922075085204     0.832806740451      -0.135156068679     0.832806740451      -0.135156068679     0.166175210487      0.0922075085204     
3900000000.0        0.167037590175      0.0945049519253     0.831891052714      -0.138585427335     0.831891052714      -0.138585427335     0.167037590175      0.0945049519253     
4000000000.0        0.167917308144      0.0967935544033     0.830956655948      -0.142006074851     0.830956655948      -0.142006074851     0.167917308144      0.0967935544033     
4100000000.0        0.16881433031       0.0990731412683     0.83000358332       -0.145417839723     0.83000358332       -0.145417839723     0.16881433031       0.0990731412683     
4200000000.0        0.169728615228      0.101343538942      0.829031875336      -0.148820551553     0.829031875336      -0.148820551553     0.169728615228      0.101343538942      
4300000000.0        0.170660114564      0.103604575036      0.828041579372      -0.152214041131     0.828041579372      -0.152214041131     0.170660114564      0.103604575036      
4400000000.0        0.171608773506      0.105856078435      0.82703274926       -0.155598140515     0.82703274926       -0.155598140515     0.171608773506      0.105856078435      
4500000000.0        0.172574531152      0.108097879369      0.8260054449        -0.158972683106     0.8260054449        -0.158972683106     0.172574531152      0.108097879369      
4600000000.0        0.173557320856      0.110329809484      0.824959731916      -0.162337503718     0.824959731916      -0.162337503718     0.173557320856      0.110329809484      
4700000000.0        0.174557070541      0.112551701907      0.82389568134       -0.165692438646     0.82389568134       -0.165692438646     0.174557070541      0.112551701907      
4800000000.0        0.175573702996      0.114763391313      0.822813369318      -0.169037325725     0.822813369318      -0.169037325725     0.175573702996      0.114763391313      
4900000000.0        0.176607136138      0.11696471398       0.821712876845      -0.172372004396     0.821712876845      -0.172372004396     0.176607136138      0.11696471398       
5000000000.0        0.177657283264      0.119155507848      0.820594289518      -0.175696315756     0.820594289518      -0.175696315756     0.177657283264      0.119155507848      
5100000000.0        0.178724053273      0.121335612568      0.819457697304      -0.179010102612     0.819457697304      -0.179010102612     0.178724053273      0.121335612568      
5200000000.0        0.179807350883      0.12350486956       0.818303194335      -0.182313209536     0.818303194335      -0.182313209536     0.179807350883      0.12350486956       
5300000000.0        0.180907076828      0.125663122053      0.817130878703      -0.185605482909     0.817130878703      -0.185605482909     0.180907076828      0.125663122053      
5400000000.0        0.182023128041      0.127810215134      0.815940852281      -0.188886770965     0.815940852281      -0.188886770965     0.182023128041      0.127810215134      
5500000000.0        0.183155397825      0.129945995789      0.814733220546      -0.192156923839     0.814733220546      -0.192156923839     0.183155397825      0.129945995789      
5600000000.0        0.184303776019      0.132070312948      0.81350809242       -0.195415793602     0.81350809242       -0.195415793602     0.184303776019      0.132070312948      
5700000000.0        0.18546814915       0.134183017518      0.812265580116      -0.198663234304     0.812265580116      -0.198663234304     0.18546814915       0.134183017518      
5800000000.0        0.186648400573      0.136283962421      0.811005798994      -0.20189910201      0.811005798994      -0.20189910201      0.186648400573      0.136283962421      
5900000000.0        0.187844410614      0.138373002633      0.809728867425      -0.20512325483      0.809728867425      -0.20512325483      0.187844410614      0.138373002633      
6000000000.0        0.189056056693      0.140449995209      0.808434906658      -0.208335552957     0.808434906658      -0.208335552957     0.189056056693      0.140449995209      
6100000000.0        0.190283213454      0.142514799321      0.807124040704      -0.211535858697     0.807124040704      -0.211535858697     0.190283213454      0.142514799321      
6200000000.0        0.191525752874      0.144567276282      0.805796396209      -0.214724036495     0.805796396209      -0.214724036495     0.191525752874      0.144567276282      
6300000000.0        0.192783544384      0.146607289576      0.804452102351      -0.217899952966     0.804452102351      -0.217899952966     0.192783544384      0.146607289576      
6400000000.0        0.19405645497       0.148634704885      0.803091290728      -0.221063476919     0.803091290728      -0.221063476919     0.19405645497       0.148634704885      
6500000000.0        0.195344349276      0.150649390108      0.801714095254      -0.224214479382     0.801714095254      -0.224214479382     0.195344349276      0.150649390108      
6600000000.0        0.196647089709      0.152651215391      0.800320652064      -0.227352833625     0.800320652064      -0.227352833625     0.196647089709      0.152651215391      
6700000000.0        0.197964536526      0.154640053142      0.798911099415      -0.23047841518      0.798911099415      -0.23047841518      0.197964536526      0.154640053142      
6800000000.0        0.199296547932      0.156615778054      0.797485577597      -0.233591101862     0.797485577597      -0.233591101862     0.199296547932      0.156615778054      
6900000000.0        0.200642980165      0.158578267124      0.796044228842      -0.236690773786     0.796044228842      -0.236690773786     0.200642980165      0.158578267124      
7000000000.0        0.202003687582      0.160527399667      0.794587197243      -0.239777313388     0.794587197243      -0.239777313388     0.202003687582      0.160527399667      
7100000000.0        0.203378522744      0.162463057334      0.793114628663      -0.242850605435     0.793114628663      -0.242850605435     0.203378522744      0.162463057334      
7200000000.0        0.204767336495      0.164385124128      0.791626670663      -0.245910537045     0.791626670663      -0.245910537045     0.204767336495      0.164385124128      
7300000000.0        0.206169978039      0.166293486413      0.790123472418      -0.248956997696     0.790123472418      -0.248956997696     0.206169978039      0.166293486413      
7400000000.0        0.207586295017      0.168188032929      0.788605184645      -0.251989879241     0.788605184645      -0.251989879241     0.207586295017      0.168188032929      
7500000000.0        0.209016133582      0.170068654802      0.787071959527      -0.255009075917     0.787071959527      -0.255009075917     0.209016133582      0.170068654802      
7600000000.0        0.210459338468      0.171935245554      0.785523950641      -0.258014484354     0.785523950641      -0.258014484354     0.210459338468      0.171935245554      
7700000000.0        0.211915753062      0.17378770111       0.783961312889      -0.261006003588     0.783961312889      -0.261006003588     0.211915753062      0.17378770111       
7800000000.0        0.213385219472      0.175625919809      0.782384202428      -0.26398353506      0.782384202428      -0.26398353506      0.213385219472      0.175625919809      
7900000000.0        0.214867578593      0.177449802404      0.780792776607      -0.266946982632     0.780792776607      -0.266946982632     0.214867578593      0.177449802404      
8000000000.0        0.216362670173      0.179259252074      0.779187193897      -0.269896252585     0.779187193897      -0.269896252585     0.216362670173      0.179259252074      
8100000000.0        0.217870332877      0.181054174422      0.77756761383       -0.272831253625     0.77756761383       -0.272831253625     0.217870332877      0.181054174422      
8200000000.0        0.219390404348      0.182834477483      0.775934196936      -0.275751896889     0.775934196936      -0.275751896889     0.219390404348      0.182834477483      
8300000000.0        0.220922721269      0.184600071723      0.774287104683      -0.278658095942     0.774287104683      -0.278658095942     0.220922721269      0.184600071723      
8400000000.0        0.222467119421      0.186350870042      0.772626499415      -0.281549766782     0.772626499415      -0.281549766782     0.222467119421      0.186350870042      
8500000000.0        0.224023433745      0.188086787773      0.770952544297      -0.284426827839     0.770952544297      -0.284426827839     0.224023433745      0.188086787773      
8600000000.0        0.225591498394      0.189807742679      0.769265403254      -0.287289199974     0.769265403254      -0.287289199974     0.225591498394      0.189807742679      
8700000000.0        0.227171146795      0.191513654958      0.767565240915      -0.290136806477     0.767565240915      -0.290136806477     0.227171146795      0.191513654958      
8800000000.0        0.228762211701      0.193204447233      0.765852222563      -0.292969573065     0.765852222563      -0.292969573065     0.228762211701      0.193204447233      
8900000000.0        0.230364525242      0.194880044551      0.764126514073      -0.295787427879     0.764126514073      -0.295787427879     0.230364525242      0.194880044551      
9000000000.0        0.231977918986      0.196540374381      0.762388281867      -0.298590301477     0.762388281867      -0.298590301477     0.231977918986      0.196540374381      
9100000000.0        0.233602223982      0.198185366605      0.760637692856      -0.301378126832     0.760637692856      -0.301378126832     0.233602223982      0.198185366605      
9200000000.0        0.235237270818      0.199814953515      0.758874914392      -0.304150839323     0.758874914392      -0.304150839323     0.235237270818      0.199814953515      
9300000000.0        0.236882889664      0.201429069805      0.757100114216      -0.306908376733     0.757100114216      -0.306908376733     0.236882889664      0.201429069805      
9400000000.0        0.238538910331      0.203027652561      0.755313460411      -0.309650679233     0.755313460411      -0.309650679233     0.238538910331      0.203027652561      
9500000000.0        0.240205162308      0.204610641258      0.753515121353      -0.312377689384     0.753515121353      -0.312377689384     0.240205162308      0.204610641258      
9600000000.0        0.241881474817      0.206177977746      0.751705265663      -0.315089352118     0.751705265663      -0.315089352118     0.241881474817      0.206177977746      
9700000000.0        0.243567676857      0.207729606241      0.749884062162      -0.317785614734     0.749884062162      -0.317785614734     0.243567676857      0.207729606241      
9800000000.0        0.245263597248      0.209265473315      0.748051679822      -0.320466426888     0.748051679822      -0.320466426888     0.245263597248      0.209265473315      
9900000000.0        0.246969064679      0.210785527888      0.746208287728      -0.323131740577     0.746208287728      -0.323131740577     0.246969064679      0.210785527888      
10000000000.0       0.248683907748      0.212289721209      0.744354055025      -0.325781510131     0.744354055025      -0.325781510131     0.248683907748      0.212289721209      
