# Hz S RI R 50.00 
100000000.0         0.241505925053      0.00244061184527    0.758491558222      -0.00347158935384   0.758491558222      -0.00347158935384   0.241505925053      0.00244061184527    
200000000.0         0.242733648294      0.00486209998607    0.757261141041      -0.00692405783733   0.757261141041      -0.00692405783733   0.242733648294      0.00486209998607    
300000000.0         0.243650694626      0.00727212586367    0.756340222219      -0.0103650711188    0.756340222219      -0.0103650711188    0.243650694626      0.00727212586367    
400000000.0         0.244418728795      0.00967322081103    0.755567136087      -0.0137971645839    0.755567136087      -0.0137971645839    0.244418728795      0.00967322081103    
500000000.0         0.245100213182      0.0120667210011     0.754879419518      -0.0172216783708    0.754879419518      -0.0172216783708    0.245100213182      0.0120667210011     
600000000.0         0.245727093975      0.0144534327777     0.754245125679      -0.0206394227315    0.754245125679      -0.0206394227315    0.245727093975      0.0144534327777     
700000000.0         0.246318289912      0.0168338717694     0.753645335256      -0.0240509171621    0.753645335256      -0.0240509171621    0.246318289912      0.0168338717694     
800000000.0         0.246886084314      0.0192083738512     0.753067764389      -0.0274565013733    0.753067764389      -0.0274565013733    0.246886084314      0.0192083738512     
900000000.0         0.247438975029      0.0215771547701     0.752503914722      -0.0308563949219    0.752503914722      -0.0308563949219    0.247438975029      0.0215771547701     
1000000000.0        0.247983120898      0.0239403454662     0.751947626922      -0.0342507325374    0.751947626922      -0.0342507325374    0.247983120898      0.0239403454662     
1100000000.0        0.248523146844      0.0262980145194     0.751394275585      -0.0376395865709    0.751394275585      -0.0376395865709    0.248523146844      0.0262980145194     
1200000000.0        0.2490626242        0.0286501831945     0.750840288906      -0.0410229820427    0.750840288906      -0.0410229820427    0.2490626242        0.0286501831945     
1300000000.0        0.249604373267      0.0309968359575     0.750282846108      -0.0444009071616    0.750282846108      -0.0444009071616    0.249604373267      0.0309968359575     
1400000000.0        0.250150662425      0.0333379280825     0.749719678338      -0.047773320932     0.749719678338      -0.047773320932     0.250150662425      0.0333379280825     
1500000000.0        0.25070334397       0.0356733913105     0.749148932818      -0.0511401588148    0.749148932818      -0.0511401588148    0.25070334397       0.0356733913105     
1600000000.0        0.25126394963       0.0380031381611     0.748569077336      -0.0545013370401    0.748569077336      -0.0545013370401    0.25126394963       0.0380031381611     
1700000000.0        0.251833759474      0.0403270652863     0.747978831327      -0.0578567559617    0.747978831327      -0.0578567559617    0.251833759474      0.0403270652863     
1800000000.0        0.252413852753      0.0426450561258     0.747377115037      -0.0612063027133    0.747377115037      -0.0612063027133    0.252413852753      0.0426450561258     
1900000000.0        0.253005146125      0.0449569830423     0.746763011291      -0.0645498533447    0.746763011291      -0.0645498533447    0.253005146125      0.0449569830423     
2000000000.0        0.253608422908      0.0472627090637     0.746135736242      -0.0678872745638    0.746135736242      -0.0678872745638    0.253608422908      0.0472627090637     
2100000000.0        0.254224355795      0.049562089321      0.745494616658      -0.0712184251761    0.745494616658      -0.0712184251761    0.254224355795      0.049562089321      
2200000000.0        0.254853524727      0.0518549722502     0.744839072041      -0.0745431572864    0.744839072041      -0.0745431572864    0.254853524727      0.0518549722502     
2300000000.0        0.255496431147      0.0541412006058     0.744168600378      -0.0778613173126    0.744168600378      -0.0778613173126    0.255496431147      0.0541412006058     
2400000000.0        0.256153509473      0.0564206123249     0.743482766665      -0.0811727468507    0.743482766665      -0.0811727468507    0.256153509473      0.0564206123249     
2500000000.0        0.256825136438      0.0586930412685     0.742781193568      -0.084477283416     0.742781193568      -0.084477283416     0.256825136438      0.0586930412685     
2600000000.0        0.257511638759      0.060958317865      0.742063553753      -0.0877747610872    0.742063553753      -0.0877747610872    0.257511638759      0.060958317865      
2700000000.0        0.258213299484      0.0632162696705     0.741329563532      -0.0910650110664    0.741329563532      -0.0910650110664    0.258213299484      0.0632162696705     
2800000000.0        0.258930363299      0.0654667218612     0.740578977571      -0.0943478621727    0.740578977571      -0.0943478621727    0.258930363299      0.0654667218612     
2900000000.0        0.259663040976      0.0677094976691     0.739811584425      -0.0976231412774    0.739811584425      -0.0976231412774    0.259663040976      0.0677094976691     
3000000000.0        0.260411513146      0.0699444187695     0.739027202774      -0.100890673692     0.739027202774      -0.100890673692     0.260411513146      0.0699444187695     
3100000000.0        0.261175933513      0.0721713056265     0.738225678207      -0.104150283513     0.738225678207      -0.104150283513     0.261175933513      0.0721713056265     
3200000000.0        0.261956431599      0.0743899778049     0.737406880476      -0.107401793936     0.737406880476      -0.107401793936     0.261956431599      0.0743899778049     
3300000000.0        0.262753115117      0.0766002542509     0.736570701122      -0.110645027535     0.736570701122      -0.110645027535     0.262753115117      0.0766002542509     
3400000000.0        0.263566072023      0.0788019535473     0.735717051425      -0.113879806518     0.735717051425      -0.113879806518     0.263566072023      0.0788019535473     
3500000000.0        0.264395372301      0.0809948941451     0.734845860617      -0.117105952959     0.734845860617      -0.117105952959     0.264395372301      0.0809948941451     
3600000000.0        0.265241069524      0.0831788945767     0.73395707432       -0.120323289011     0.73395707432       -0.120323289011     0.265241069524      0.0831788945767     
3700000000.0        0.266103202227      0.0853537736499     0.733050653177      -0.123531637099     0.733050653177      -0.123531637099     0.266103202227      0.0853537736499     
3800000000.0        0.266981795118      0.0875193506276     0.732126571634      -0.126730820105     0.732126571634      -0.126730820105     0.266981795118      0.0875193506276     
3900000000.0        0.267876860149      0.0896754453932     0.731184816876      -0.129920661526     0.731184816876      -0.129920661526     0.267876860149      0.0896754453932     
4000000000.0        0.26878839747       0.0918218786044     0.730225387868      -0.133100985632     0.730225387868      -0.133100985632     0.26878839747       0.0918218786044     
4100000000.0        0.269716396283      0.0939584718347     0.729248294502      -0.13627161761      0.729248294502      -0.13627161761      0.269716396283      0.0939584718347     
4200000000.0        0.270660835604      0.0960850477066     0.728253556837      -0.139432383692     0.728253556837      -0.139432383692     0.270660835604      0.0960850477066     
4300000000.0        0.271621684951      0.0982014300145     0.727241204407      -0.14258311128      0.727241204407      -0.14258311128      0.271621684951      0.0982014300145     
4400000000.0        0.272598904965      0.10030744384       0.726211275603      -0.145723629065     0.726211275603      -0.145723629065     0.272598904965      0.10030744384       
4500000000.0        0.273592447971      0.102402915661      0.72516381711       -0.148853767129     0.72516381711       -0.148853767129     0.273592447971      0.102402915661      
4600000000.0        0.274602258493      0.104487673451      0.724098883395      -0.151973357051     0.724098883395      -0.151973357051     0.274602258493      0.104487673451      
4700000000.0        0.275628273714      0.106561546775      0.723016536242      -0.155082232001     0.723016536242      -0.155082232001     0.275628273714      0.106561546775      
4800000000.0        0.27667042391       0.108624366878      0.721916844321      -0.158180226825     0.721916844321      -0.158180226825     0.27667042391       0.108624366878      
4900000000.0        0.277728632838      0.110675966769      0.7207998828        -0.161267178137     0.7207998828        -0.161267178137     0.277728632838      0.110675966769      
5000000000.0        0.278802818098      0.1127161813        0.719665732983      -0.164342924388     0.719665732983      -0.164342924388     0.278802818098      0.1127161813        
5100000000.0        0.279892891465      0.114744847242      0.718514481975      -0.167407305949     0.718514481975      -0.167407305949     0.279892891465      0.114744847242      
5200000000.0        0.280998759202      0.116761803349      0.717346222373      -0.170460165176     0.717346222373      -0.170460165176     0.280998759202      0.116761803349      
5300000000.0        0.282120322341      0.118766890431      0.716161051982      -0.173501346475     0.716161051982      -0.173501346475     0.282120322341      0.118766890431      
5400000000.0        0.283257476957      0.120759951411      0.714959073543      -0.17653069637      0.714959073543      -0.17653069637      0.283257476957      0.120759951411      
5500000000.0        0.284410114413      0.122740831385      0.713740394486      -0.179548063554     0.713740394486      -0.179548063554     0.284410114413      0.122740831385      
5600000000.0        0.285578121596      0.124709377676      0.712505126694      -0.182553298947     0.712505126694      -0.182553298947     0.285578121596      0.124709377676      
5700000000.0        0.286761381137      0.126665439889      0.711253386285      -0.185546255752     0.711253386285      -0.185546255752     0.286761381137      0.126665439889      
5800000000.0        0.287959771616      0.128608869954      0.709985293404      -0.188526789494     0.709985293404      -0.188526789494     0.287959771616      0.128608869954      
5900000000.0        0.289173167762      0.130539522177      0.708700972026      -0.191494758076     0.708700972026      -0.191494758076     0.289173167762      0.130539522177      
6000000000.0        0.290401440633      0.132457253277      0.707400549775      -0.194450021815     0.707400549775      -0.194450021815     0.290401440633      0.132457253277      
6100000000.0        0.291644457793      0.134361922435      0.706084157744      -0.197392443484     0.706084157744      -0.197392443484     0.291644457793      0.134361922435      
6200000000.0        0.292902083477      0.136253391321      0.704751930333      -0.200321888352     0.704751930333      -0.200321888352     0.292902083477      0.136253391321      
6300000000.0        0.294174178755      0.138131524136      0.703404005086      -0.203238224213     0.703404005086      -0.203238224213     0.294174178755      0.138131524136      
6400000000.0        0.295460601675      0.139996187643      0.702040522543      -0.206141321427     0.702040522543      -0.206141321427     0.295460601675      0.139996187643      
6500000000.0        0.296761207414      0.141847251198      0.700661626095      -0.209031052944     0.700661626095      -0.209031052944     0.296761207414      0.141847251198      
6600000000.0        0.298075848414      0.143684586774      0.699267461843      -0.211907294333     0.699267461843      -0.211907294333     0.298075848414      0.143684586774      
6700000000.0        0.299404374515      0.145508068993      0.697858178469      -0.214769923812     0.697858178469      -0.214769923812     0.299404374515      0.145508068993      
6800000000.0        0.30074663308       0.147317575146      0.696433927104      -0.217618822266     0.696433927104      -0.217618822266     0.30074663308       0.147317575146      
6900000000.0        0.302102469124      0.149112985216      0.694994861211      -0.220453873274     0.694994861211      -0.220453873274     0.302102469124      0.149112985216      
7000000000.0        0.303471725425      0.150894181898      0.69354113646       -0.223274963126     0.69354113646       -0.223274963126     0.303471725425      0.150894181898      
7100000000.0        0.304854242643      0.152661050616      0.692072910619      -0.226081980842     0.692072910619      -0.226081980842     0.304854242643      0.152661050616      
7200000000.0        0.306249859428      0.154413479541      0.690590343442      -0.228874818189     0.690590343442      -0.228874818189     0.306249859428      0.154413479541      
7300000000.0        0.307658412528      0.156151359602      0.689093596563      -0.231653369694     0.689093596563      -0.231653369694     0.307658412528      0.156151359602      
7400000000.0        0.309079736889      0.157874584503      0.687582833389      -0.234417532655     0.687582833389      -0.234417532655     0.309079736889      0.157874584503      
7500000000.0        0.310513665761      0.159583050731      0.686058219006      -0.237167207156     0.686058219006      -0.237167207156     0.310513665761      0.159583050731      
7600000000.0        0.311960030789      0.161276657566      0.684519920078      -0.239902296076     0.684519920078      -0.239902296076     0.311960030789      0.161276657566      
7700000000.0        0.31341866211       0.162955307089      0.682968104753      -0.242622705091     0.682968104753      -0.242622705091     0.31341866211       0.162955307089      
7800000000.0        0.314889388444      0.164618904186      0.681402942571      -0.245328342688     0.681402942571      -0.245328342688     0.314889388444      0.164618904186      
7900000000.0        0.316372037184      0.166267356557      0.679824604378      -0.248019120163     0.679824604378      -0.248019120163     0.316372037184      0.166267356557      
8000000000.0        0.317866434482      0.167900574715      0.678233262236      -0.250694951627     0.678233262236      -0.250694951627     0.317866434482      0.167900574715      
8100000000.0        0.319372405334      0.169518471989      0.676629089337      -0.25335575401      0.676629089337      -0.25335575401      0.319372405334      0.169518471989      
8200000000.0        0.320889773661      0.171120964524      0.675012259927      -0.256001447056     0.675012259927      -0.256001447056     0.320889773661      0.171120964524      
8300000000.0        0.322418362389      0.17270797128       0.673382949219      -0.258631953326     0.673382949219      -0.258631953326     0.322418362389      0.17270797128       
8400000000.0        0.323957993529      0.174279414031      0.671741333319      -0.261247198195     0.671741333319      -0.261247198195     0.323957993529      0.174279414031      
8500000000.0        0.325508488255      0.175835217359      0.670087589148      -0.263847109845     0.670087589148      -0.263847109845     0.325508488255      0.175835217359      
8600000000.0        0.32706966697       0.17737530865       0.668421894366      -0.266431619266     0.668421894366      -0.266431619266     0.32706966697       0.17737530865       
8700000000.0        0.328641349391      0.178899618088      0.666744427304      -0.269000660243     0.666744427304      -0.269000660243     0.328641349391      0.178899618088      
8800000000.0        0.330223354608      0.180408078647      0.665055366886      -0.271554169354     0.665055366886      -0.271554169354     0.330223354608      0.180408078647      
8900000000.0        0.331815501164      0.181900626082      0.663354892568      -0.274092085958     0.663354892568      -0.274092085958     0.331815501164      0.181900626082      
9000000000.0        0.333417607113      0.183377198921      0.661643184261      -0.276614352188     0.661643184261      -0.276614352188     0.333417607113      0.183377198921      
9100000000.0        0.335029490093      0.184837738452      0.659920422272      -0.279120912938     0.659920422272      -0.279120912938     0.335029490093      0.184837738452      
9200000000.0        0.33665096739       0.186282188713      0.658186787236      -0.281611715852     0.658186787236      -0.281611715852     0.33665096739       0.186282188713      
9300000000.0        0.338281855997      0.187710496478      0.656442460054      -0.28408671131      0.656442460054      -0.28408671131      0.338281855997      0.187710496478      
9400000000.0        0.339921972679      0.189122611243      0.65468762183       -0.286545852417     0.65468762183       -0.286545852417     0.339921972679      0.189122611243      
9500000000.0        0.341571134033      0.190518485211      0.65292245381       -0.288989094984     0.65292245381       -0.288989094984     0.341571134033      0.190518485211      
9600000000.0        0.343229156548      0.191898073277      0.651147137325      -0.291416397517     0.651147137325      -0.291416397517     0.343229156548      0.191898073277      
9700000000.0        0.344895856659      0.193261333012      0.649361853734      -0.293827721196     0.649361853734      -0.293827721196     0.344895856659      0.193261333012      
9800000000.0        0.346571050807      0.194608224642      0.647566784364      -0.296223029858     0.647566784364      -0.296223029858     0.346571050807      0.194608224642      
9900000000.0        0.348254555492      0.195938711033      0.645762110458      -0.298602289981     0.645762110458      -0.298602289981     0.348254555492      0.195938711033      
10000000000.0       0.349946187327      0.197252757669      0.64394801312       -0.300965470664     0.64394801312       -0.300965470664     0.349946187327      0.197252757669      
