# Hz S RI R 50.00 
100000000.0         0.0384053934843     0.00437463281056    0.961590545962      -0.00607949763269   0.961590545962      -0.00607949763269   0.0384053934843     0.00437463281056    
200000000.0         0.0387318453571     0.00874308893094    0.961258087621      -0.0121528450074    0.961258087621      -0.0121528450074    0.0387318453571     0.00874308893094    
300000000.0         0.0390477497646     0.0131066521158     0.960933230039      -0.0182213465319    0.960933230039      -0.0182213465319    0.0390477497646     0.0131066521158     
400000000.0         0.0393852378337     0.0174652010132     0.960583841296      -0.0242848987743    0.960583841296      -0.0242848987743    0.0393852378337     0.0174652010132     
500000000.0         0.0397566432446     0.0218182891518     0.960197586843      -0.0303430718002    0.960197586843      -0.0303430718002    0.0397566432446     0.0218182891518     
600000000.0         0.0401682075989     0.0261653276049     0.959768224123      -0.0363952923117    0.959768224123      -0.0363952923117    0.0401682075989     0.0261653276049     
700000000.0         0.0406235662131     0.0305056508189     0.959292116762      -0.042440909718     0.959292116762      -0.042440909718     0.0406235662131     0.0305056508189     
800000000.0         0.041125020837      0.0348385473422     0.958766961854      -0.0484792270096    0.958766961854      -0.0484792270096    0.041125020837      0.0348385473422     
900000000.0         0.0416741065462     0.0391632765061     0.958191223057      -0.0545095175353    0.958191223057      -0.0545095175353    0.0416741065462     0.0391632765061     
1000000000.0        0.0422718792061     0.0434790784586     0.95756384314       -0.060531035103     0.95756384314       -0.060531035103     0.0422718792061     0.0434790784586     
1100000000.0        0.0429190753506     0.0477851806782     0.956884084092      -0.0665430205442    0.956884084092      -0.0665430205442    0.0429190753506     0.0477851806782     
1200000000.0        0.0436162075192     0.0520808024654     0.956151431793      -0.0725447062433    0.956151431793      -0.0725447062433    0.0436162075192     0.0520808024654     
1300000000.0        0.0443636243009     0.0563651581946     0.95536553597       -0.0785353194193    0.95536553597       -0.0785353194193    0.0443636243009     0.0563651581946     
1400000000.0        0.0451615498618     0.0606374597687     0.954526170664      -0.0845140846058    0.954526170664      -0.0845140846058    0.0451615498618     0.0606374597687     
1500000000.0        0.0460101109414     0.0648969185394     0.953633207239      -0.09048022559      0.953633207239      -0.09048022559      0.0460101109414     0.0648969185394     
1600000000.0        0.0469093558725     0.0691427468547     0.952686595361      -0.0964329669778    0.952686595361      -0.0964329669778    0.0469093558725     0.0691427468547     
1700000000.0        0.047859268349      0.0733741593402     0.951686349231      -0.102371535489     0.951686349231      -0.102371535489     0.047859268349      0.0733741593402     
1800000000.0        0.0488597776306     0.077590373985      0.950632537381      -0.108295161055     0.950632537381      -0.108295161055     0.0488597776306     0.077590373985      
1900000000.0        0.0499107662684     0.081790613079      0.949525274946      -0.114203077768     0.949525274946      -0.114203077768     0.0499107662684     0.081790613079      
2000000000.0        0.0510120760692     0.0859741040363     0.948364717707      -0.120094524711     0.948364717707      -0.120094524711     0.0510120760692     0.0859741040363     
2100000000.0        0.0521635127815     0.0901400801293     0.947151057395      -0.125968746703     0.947151057395      -0.125968746703     0.0521635127815     0.0901400801293     
2200000000.0        0.053364849839      0.0942877811501     0.945884517959      -0.131824994966     0.945884517959      -0.131824994966     0.053364849839      0.0942877811501     
2300000000.0        0.0546158314003     0.0984164540127     0.944565352517      -0.137662527732     0.944565352517      -0.137662527732     0.0546158314003     0.0984164540127     
2400000000.0        0.0559161748521     0.102525353307      0.943193840862      -0.143480610808     0.943193840862      -0.143480610808     0.0559161748521     0.102525353307      
2500000000.0        0.0572655729022     0.106613741809      0.94177028736       -0.149278518085     0.94177028736       -0.149278518085     0.0572655729022     0.106613741809      
2600000000.0        0.0586636953537     0.110680890956      0.940295019186      -0.155055532024     0.940295019186      -0.155055532024     0.0586636953537     0.110680890956      
2700000000.0        0.0601101906285     0.114726081293      0.938768384793      -0.1608109441       0.938768384793      -0.1608109441       0.0601101906285     0.114726081293      
2800000000.0        0.0616046870938     0.118748602882      0.937190752588      -0.166544055225     0.937190752588      -0.166544055225     0.0616046870938     0.118748602882      
2900000000.0        0.0631467942299     0.1227477557        0.935562509767      -0.172254176136     0.935562509767      -0.172254176136     0.0631467942299     0.1227477557        
3000000000.0        0.064736103672      0.126722849997      0.933884061271      -0.177940627771     0.933884061271      -0.177940627771     0.064736103672      0.126722849997      
3100000000.0        0.0663721901497     0.130673206648      0.932155828847      -0.183602741613     0.932155828847      -0.183602741613     0.0663721901497     0.130673206648      
3200000000.0        0.0680546123416     0.134598157475      0.930378250194      -0.189239860023     0.930378250194      -0.189239860023     0.0680546123416     0.134598157475      
3300000000.0        0.0697829136633     0.138497045551      0.928551778175      -0.19485133654      0.928551778175      -0.19485133654      0.0697829136633     0.138497045551      
3400000000.0        0.0715566229976     0.142369225495      0.926676880087      -0.200436536182     0.926676880087      -0.200436536182     0.0715566229977     0.142369225495      
3500000000.0        0.073375255379      0.146214063735      0.924754036977      -0.205994835711     0.924754036977      -0.205994835711     0.073375255379      0.146214063735      
3600000000.0        0.0752383126381     0.150030938767      0.922783742997      -0.211525623896     0.922783742997      -0.211525623896     0.0752383126381     0.150030938767      
3700000000.0        0.0771452840144     0.153819241393      0.920766504793      -0.217028301749     0.920766504793      -0.217028301749     0.0771452840144     0.153819241393      
3800000000.0        0.0790956467409     0.157578374944      0.918702840919      -0.222502282752     0.918702840919      -0.222502282752     0.0790956467409     0.157578374944      
3900000000.0        0.0810888666053     0.161307755487      0.916593281275      -0.227946993066     0.916593281275      -0.227946993066     0.0810888666053     0.161307755487      
4000000000.0        0.0831243984916     0.165006812019      0.914438366568      -0.233361871729     0.914438366568      -0.233361871729     0.0831243984916     0.165006812019      
4100000000.0        0.0852016869037     0.168674986644      0.912238647786      -0.238746370832     0.912238647786      -0.238746370832     0.0852016869037     0.168674986644      
4200000000.0        0.0873201664746     0.172311734743      0.909994685693      -0.244099955688     0.909994685693      -0.244099955688     0.0873201664746     0.172311734743      
4300000000.0        0.0894792624621     0.175916525119      0.907707050327      -0.249422104983     0.907707050327      -0.249422104983     0.0894792624621     0.175916525119      
4400000000.0        0.0916783912331     0.179488840137      0.905376320522      -0.254712310919     0.905376320522      -0.254712310919     0.0916783912331     0.179488840137      
4500000000.0        0.0939169607373     0.183028175848      0.903003083428      -0.259970079333     0.903003083428      -0.259970079333     0.0939169607373     0.183028175848      
4600000000.0        0.0961943709716     0.186534042102      0.900587934054      -0.265194929815     0.900587934054      -0.265194929815     0.0961943709716     0.186534042102      
4700000000.0        0.0985100144356     0.190005962643      0.898131474807      -0.270386395803     0.898131474807      -0.270386395803     0.0985100144356     0.190005962643      
4800000000.0        0.10086327658       0.193443475194      0.895634315045      -0.275544024674     0.895634315045      -0.275544024674     0.10086327658       0.193443475194      
4900000000.0        0.103253536244      0.196846131534      0.893097070639      -0.280667377815     0.893097070639      -0.280667377815     0.103253536244      0.196846131534      
5000000000.0        0.105680166095      0.200213497557      0.890520363536      -0.285756030686     0.890520363536      -0.285756030686     0.105680166095      0.200213497557      
5100000000.0        0.108142533048      0.203545153319      0.887904821336      -0.29080957287      0.887904821336      -0.29080957287      0.108142533048      0.203545153319      
5200000000.0        0.110639998689      0.20684069308       0.885251076872      -0.295827608113     0.885251076872      -0.295827608113     0.110639998689      0.20684069308       
5300000000.0        0.113171919687      0.210099725325      0.882559767794      -0.300809754346     0.882559767794      -0.300809754346     0.113171919687      0.210099725325      
5400000000.0        0.115737648204      0.213321872779      0.879831536161      -0.305755643708     0.879831536161      -0.305755643708     0.115737648204      0.213321872779      
5500000000.0        0.118336532294      0.216506772414      0.877067028045      -0.310664922541     0.877067028045      -0.310664922541     0.118336532294      0.216506772414      
5600000000.0        0.120967916296      0.219654075438      0.874266893129      -0.315537251391     0.874266893129      -0.315537251391     0.120967916296      0.219654075438      
5700000000.0        0.123631141229      0.222763447279      0.871431784325      -0.320372304987     0.871431784325      -0.320372304987     0.123631141229      0.222763447279      
5800000000.0        0.126325545168      0.225834567556      0.868562357386      -0.325169772217     0.868562357386      -0.325169772217     0.126325545168      0.225834567556      
5900000000.0        0.129050463622      0.228867130042      0.865659270531      -0.329929356084     0.865659270531      -0.329929356084     0.129050463622      0.228867130042      
6000000000.0        0.131805229908      0.231860842612      0.862723184077      -0.334650773666     0.862723184077      -0.334650773666     0.131805229908      0.231860842612      
6100000000.0        0.134589175509      0.234815427191      0.859754760072      -0.339333756057     0.859754760072      -0.339333756057     0.134589175509      0.234815427191      
6200000000.0        0.137401630435      0.237730619684      0.85675466194       -0.343978048296     0.85675466194       -0.343978048296     0.137401630435      0.237730619684      
6300000000.0        0.140241923573      0.2406061699        0.853723554128      -0.3485834093       0.853723554128      -0.3485834093       0.140241923573      0.2406061699        
6400000000.0        0.143109383031      0.243441841469      0.850662101763      -0.353149611773     0.850662101763      -0.353149611773     0.143109383031      0.243441841469      
6500000000.0        0.146003336473      0.246237411748      0.847570970317      -0.357676442119     0.847570970317      -0.357676442119     0.146003336473      0.246237411748      
6600000000.0        0.148923111454      0.248992671721      0.844450825269      -0.362163700337     0.844450825269      -0.362163700337     0.148923111454      0.248992671721      
6700000000.0        0.15186803574       0.251707425889      0.84130233179       -0.366611199918     0.84130233179       -0.366611199918     0.15186803574       0.251707425889      
6800000000.0        0.154837437626      0.254381492154      0.838126154418      -0.371018767722     0.838126154418      -0.371018767722     0.154837437626      0.254381492154      
6900000000.0        0.157830646247      0.257014701696      0.834922956755      -0.375386243864     0.834922956755      -0.375386243864     0.157830646247      0.257014701696      
7000000000.0        0.160846991877      0.259606898841      0.831693401159      -0.379713481574     0.831693401159      -0.379713481574     0.160846991877      0.259606898841      
7100000000.0        0.163885806227      0.262157940925      0.828438148453      -0.384000347068     0.828438148453      -0.384000347068     0.163885806227      0.262157940925      
7200000000.0        0.166946422733      0.264667698149      0.825157857631      -0.388246719402     0.825157857631      -0.388246719402     0.166946422733      0.264667698149      
7300000000.0        0.170028176835      0.267136053431      0.821853185585      -0.392452490319     0.821853185585      -0.392452490319     0.170028176835      0.267136053431      
7400000000.0        0.173130406249      0.269562902247      0.818524786825      -0.3966175641       0.818524786825      -0.3966175641       0.173130406249      0.269562902247      
7500000000.0        0.176252451239      0.271948152471      0.815173313214      -0.400741857399     0.815173313214      -0.400741857399     0.176252451239      0.271948152471      
7600000000.0        0.179393654867      0.274291724213      0.811799413715      -0.404825299077     0.811799413715      -0.404825299077     0.179393654867      0.274291724213      
7700000000.0        0.182553363247      0.27659354964       0.808403734131      -0.408867830034     0.808403734131      -0.408867830034     0.182553363247      0.27659354964       
7800000000.0        0.185730925791      0.278853572804      0.804986916871      -0.41286940303      0.804986916871      -0.41286940303      0.185730925791      0.278853572804      
7900000000.0        0.188925695439      0.281071749463      0.801549600707      -0.416829982505     0.801549600707      -0.416829982505     0.188925695439      0.281071749463      
8000000000.0        0.192137028892      0.283248046891      0.798092420551      -0.420749544397     0.798092420551      -0.420749544397     0.192137028892      0.283248046891      
8100000000.0        0.195364286829      0.285382443696      0.79461600723       -0.424628075953     0.79461600723       -0.424628075953     0.195364286829      0.285382443696      
8200000000.0        0.198606834118      0.287474929623      0.791120987276      -0.428465575535     0.791120987276      -0.428465575535     0.198606834118      0.287474929623      
8300000000.0        0.201864040026      0.28952550536       0.78760798272       -0.432262052429     0.78760798272       -0.432262052429     0.201864040026      0.28952550536       
8400000000.0        0.205135278413      0.29153418234       0.784077610894      -0.436017526643     0.784077610894      -0.436017526643     0.205135278413      0.29153418234       
8500000000.0        0.208419927923      0.293500982542      0.780530484241      -0.439732028709     0.780530484241      -0.439732028709     0.208419927923      0.293500982542      
8600000000.0        0.211717372166      0.295425938281      0.776967210132      -0.443405599477     0.776967210132      -0.443405599477     0.211717372166      0.295425938281      
8700000000.0        0.215026999891      0.29730909201       0.773388390689      -0.447038289913     0.773388390689      -0.447038289913     0.215026999891      0.29730909201       
8800000000.0        0.218348205158      0.299150496106      0.769794622622      -0.450630160888     0.769794622622      -0.450630160888     0.218348205158      0.299150496106      
8900000000.0        0.221680387494      0.300950212663      0.766186497064      -0.454181282969     0.766186497064      -0.454181282969     0.221680387494      0.300950212663      
9000000000.0        0.225022952046      0.30270831328       0.762564599418      -0.457691736211     0.762564599418      -0.457691736211     0.225022952046      0.30270831328       
9100000000.0        0.22837530973       0.304424878849      0.758929509214      -0.461161609939     0.758929509214      -0.461161609939     0.22837530973       0.304424878849      
9200000000.0        0.231736877365      0.306099999341      0.755281799968      -0.464591002542     0.755281799968      -0.464591002542     0.231736877365      0.306099999341      
9300000000.0        0.235107077807      0.30773377359       0.751622039051      -0.467980021252     0.751622039051      -0.467980021252     0.235107077807      0.30773377359       
9400000000.0        0.238485340071      0.309326309083      0.747950787565      -0.471328781932     0.747950787565      -0.471328781932     0.238485340071      0.309326309083      
9500000000.0        0.24187109945       0.310877721736      0.744268600224      -0.474637408863     0.744268600224      -0.474637408863     0.24187109945       0.310877721736      
9600000000.0        0.245263797625      0.312388135688      0.740576025243      -0.477906034523     0.740576025243      -0.477906034523     0.245263797625      0.312388135688      
9700000000.0        0.248662882769      0.313857683076      0.736873604237      -0.481134799376     0.736873604237      -0.481134799376     0.248662882769      0.313857683076      
9800000000.0        0.252067809642      0.315286503827      0.733161872119      -0.484323851656     0.733161872119      -0.484323851656     0.252067809642      0.315286503827      
9900000000.0        0.255478039683      0.316674745436      0.729441357012      -0.487473347147     0.729441357012      -0.487473347147     0.255478039683      0.316674745436      
10000000000.0       0.258893041096      0.318022562757      0.725712580164      -0.490583448977     0.725712580164      -0.490583448977     0.258893041096      0.318022562757      
