# Hz S RI R 50.00 
100000000.0         6.68262351331e-05   -0.00344941670248   0.999897655039      -0.00393653833355   0.999897655039      -0.00393653833355   6.68262351327e-05   -0.00344941670248   
200000000.0         2.30397002254e-05   -0.0068986745161    0.999852367033      -0.00787294099097   0.999852367033      -0.00787294099097   2.30397002257e-05   -0.0068986745161    
300000000.0         -4.80523724167e-05  -0.0103475735228    0.999779829571      -0.0118090213352    0.999779829571      -0.0118090213352    -4.80523724165e-05  -0.0103475735228    
400000000.0         -0.000146374617365  -0.0137958907564    0.999679972111      -0.0157445666351    0.999679972111      -0.0157445666351    -0.000146374617365  -0.0137958907564    
500000000.0         -0.000271894138667  -0.0172433913543    0.999552771495      -0.0196793508116    0.999552771495      -0.0196793508116    -0.000271894138666  -0.0172433913543    
600000000.0         -0.000424589064998  -0.0206898325442    0.999398221043      -0.0236131389438    0.999398221043      -0.0236131389438    -0.000424589064998  -0.0206898325442    
700000000.0         -0.000604440443263  -0.0241349657194    0.999216322849      -0.0275456896028    0.999216322849      -0.0275456896028    -0.000604440443263  -0.0241349657194    
800000000.0         -0.0008114292051    -0.0275785377122    0.99900708504       -0.0314767562776    0.99900708504       -0.0314767562776    -0.0008114292051    -0.0275785377122    
900000000.0         -0.00104553476352   -0.0310202916591    0.998770520624      -0.0354060883409    0.998770520624      -0.0354060883409    -0.00104553476352   -0.0310202916591    
1000000000.0        -0.00130673426293   -0.0344599676344    0.998506646942      -0.0393334317516    0.998506646942      -0.0393334317516    -0.00130673426293   -0.0344599676344    
1100000000.0        -0.00159500213311   -0.0378973031372    0.998215485389      -0.0432585295934    0.998215485389      -0.0432585295934    -0.00159500213311   -0.0378973031372    
1200000000.0        -0.00191030980101   -0.0413320334826    0.997897061284      -0.0471811225048    0.997897061284      -0.0471811225048    -0.00191030980101   -0.0413320334826    
1300000000.0        -0.00225262549205   -0.0447638921276    0.99755140379       -0.0511009490362    0.99755140379       -0.0511009490362    -0.00225262549205   -0.0447638921276    
1400000000.0        -0.00262191408585   -0.0481926109492    0.99717854589       -0.0550177459514    0.99717854589       -0.0550177459514    -0.00262191408585   -0.0481926109492    
1500000000.0        -0.00301813700732   -0.0516179204866    0.996778524372      -0.0589312484914    0.996778524372      -0.0589312484914    -0.00301813700732   -0.0516179204866    
1600000000.0        -0.00344125214191   -0.0550395501579    0.996351379829      -0.0628411906066    0.996351379829      -0.0628411906066    -0.00344125214191   -0.0550395501579    
1700000000.0        -0.00389121376831   -0.0584572284562    0.995897156669      -0.0667473051675    0.995897156669      -0.0667473051675    -0.00389121376831   -0.0584572284562    
1800000000.0        -0.00436797250408   -0.061870683128     0.995415903123      -0.0706493241562    0.995415903123      -0.0706493241562    -0.00436797250408   -0.061870683128     
1900000000.0        -0.0048714752616    -0.0652796413407    0.994907671258      -0.0745469788425    0.994907671258      -0.0745469788425    -0.0048714752616    -0.0652796413407    
2000000000.0        -0.00540166521231   -0.0686838298376    0.994372516983      -0.07843999995      0.994372516983      -0.07843999995      -0.00540166521231   -0.0686838298376    
2100000000.0        -0.00595848175769   -0.0720829750853    0.993810500064      -0.0823281178101    0.993810500064      -0.0823281178101    -0.00595848175769   -0.0720829750853    
2200000000.0        -0.00654186050633   -0.075476803413     0.993221684128      -0.0862110625096    0.993221684128      -0.0862110625096    -0.00654186050633   -0.075476803413     
2300000000.0        -0.00715173325607   -0.0788650411459    0.992606136669      -0.0900885640296    0.992606136669      -0.0900885640296    -0.00715173325607   -0.0788650411459    
2400000000.0        -0.00778802798078   -0.082247414733     0.991963929053      -0.0939603523798    0.991963929053      -0.0939603523798    -0.00778802798078   -0.082247414733     
2500000000.0        -0.00845066882138   -0.0856236508702    0.991295136519      -0.0978261577264    0.991295136519      -0.0978261577264    -0.00845066882138   -0.0856236508702    
2600000000.0        -0.00913957608073   -0.0889934766196    0.990599838176      -0.101685710516     0.990599838176      -0.101685710516     -0.00913957608073   -0.0889934766196    
2700000000.0        -0.00985466622199   -0.0923566195245    0.989878117         -0.105538741596     0.989878117         -0.105538741596     -0.00985466622199   -0.0923566195245    
2800000000.0        -0.0105958518706    -0.0957128077218    0.98913005983       -0.109384982328     0.98913005983       -0.109384982328     -0.0105958518706    -0.0957128077218    
2900000000.0        -0.0113630418191    -0.0990617700506    0.988355757355      -0.113224164706     0.988355757355      -0.113224164706     -0.0113630418191    -0.0990617700506    
3000000000.0        -0.0121561410353    -0.102403236159     0.987555304108      -0.117056021458     0.987555304108      -0.117056021458     -0.0121561410353    -0.102403236159     
3100000000.0        -0.0129750506733    -0.105736936606     0.986728798449      -0.12088028616      0.986728798449      -0.12088028616      -0.0129750506733    -0.105736936606     
3200000000.0        -0.013819668087     -0.109062602966     0.985876342549      -0.124696693336     0.985876342549      -0.124696693336     -0.013819668087     -0.109062602966     
3300000000.0        -0.0146898868464    -0.112379967924     0.984998042373      -0.128504978563     0.984998042373      -0.128504978563     -0.0146898868464    -0.112379967924     
3400000000.0        -0.0155855967567    -0.115688765376     0.984094007662      -0.132304878565     0.984094007662      -0.132304878565     -0.0155855967567    -0.115688765376     
3500000000.0        -0.0165066838799    -0.11898873052      0.983164351904      -0.136096131316     0.983164351904      -0.136096131316     -0.0165066838799    -0.11898873052      
3600000000.0        -0.0174530305581    -0.122279599953     0.982209192315      -0.139878476131     0.982209192315      -0.139878476131     -0.0174530305581    -0.122279599953     
3700000000.0        -0.0184245154399    -0.125561111755     0.981228649807      -0.143651653759     0.981228649807      -0.143651653759     -0.0184245154399    -0.125561111755     
3800000000.0        -0.0194210135088    -0.128833005586     0.980222848965      -0.147415406477     0.980222848965      -0.147415406477     -0.0194210135088    -0.128833005586     
3900000000.0        -0.0204423961138    -0.132095022767     0.979191918008      -0.151169478175     0.979191918008      -0.151169478175     -0.0204423961138    -0.132095022767     
4000000000.0        -0.0214885310017    -0.135346906368     0.978135988762      -0.154913614445     0.978135988762      -0.154913614445     -0.0214885310017    -0.135346906368     
4100000000.0        -0.0225592823522    -0.138588401288     0.977055196621      -0.158647562665     0.977055196621      -0.158647562665     -0.0225592823522    -0.138588401288     
4200000000.0        -0.0236545108142    -0.141819254342     0.975949680511      -0.162371072082     0.975949680511      -0.162371072082     -0.0236545108142    -0.141819254342     
4300000000.0        -0.0247740735449    -0.145039214334     0.974819582853      -0.166083893895     0.974819582853      -0.166083893895     -0.0247740735449    -0.145039214334     
4400000000.0        -0.0259178242497    -0.148248032139     0.973665049518      -0.16978578133      0.973665049518      -0.16978578133      -0.0259178242497    -0.148248032139     
4500000000.0        -0.0270856132248    -0.151445460781     0.972486229788      -0.173476489724     0.972486229788      -0.173476489724     -0.0270856132248    -0.151445460781     
4600000000.0        -0.0282772874011    -0.154631255499     0.971283276309      -0.177155776594     0.971283276309      -0.177155776594     -0.0282772874011    -0.154631255499     
4700000000.0        -0.0294926903898    -0.157805173829     0.970056345046      -0.180823401713     0.970056345046      -0.180823401713     -0.0294926903898    -0.157805173829     
4800000000.0        -0.03073166253      -0.160966975668     0.968805595239      -0.184479127184     0.968805595239      -0.184479127184     -0.03073166253      -0.160966975668     
4900000000.0        -0.0319940409372    -0.164116423348     0.967531189346      -0.188122717509     0.967531189346      -0.188122717509     -0.0319940409372    -0.164116423348     
5000000000.0        -0.0332796595538    -0.167253281696     0.966233293         -0.191753939653     0.966233293         -0.191753939653     -0.0332796595538    -0.167253281696     
5100000000.0        -0.0345883492013    -0.170377318109     0.964912074955      -0.195372563118     0.964912074955      -0.195372563118     -0.0345883492013    -0.170377318109     
5200000000.0        -0.0359199376329    -0.173488302607     0.963567707028      -0.19897836         0.963567707028      -0.19897836         -0.0359199376329    -0.173488302607     
5300000000.0        -0.0372742495887    -0.176586007902     0.962200364051      -0.202571105056     0.962200364051      -0.202571105056     -0.0372742495887    -0.176586007902     
5400000000.0        -0.0386511068512    -0.179670209455     0.96081022381       -0.206150575764     0.96081022381       -0.206150575764     -0.0386511068512    -0.179670209455     
5500000000.0        -0.0400503283025    -0.182740685534     0.959397466992      -0.209716552381     0.959397466992      -0.209716552381     -0.0400503283025    -0.182740685534     
5600000000.0        -0.0414717299826    -0.185797217271     0.957962277121      -0.213268817999     0.957962277121      -0.213268817999     -0.0414717299826    -0.185797217271     
5700000000.0        -0.0429151251489    -0.188839588715     0.956504840506      -0.216807158604     0.956504840506      -0.216807158604     -0.0429151251489    -0.188839588715     
5800000000.0        -0.0443803243365    -0.191867586883     0.955025346172      -0.220331363123     0.955025346172      -0.220331363123     -0.0443803243365    -0.191867586883     
5900000000.0        -0.0458671354196    -0.194881001816     0.953523985806      -0.223841223483     0.953523985806      -0.223841223483     -0.0458671354196    -0.194881001816     
6000000000.0        -0.0473753636743    -0.197879626622     0.952000953689      -0.227336534653     0.952000953689      -0.227336534653     -0.0473753636743    -0.197879626622     
6100000000.0        -0.0489048118414    -0.200863257525     0.950456446637      -0.230817094695     0.950456446637      -0.230817094695     -0.0489048118414    -0.200863257525     
6200000000.0        -0.0504552801912    -0.203831693908     0.948890663932      -0.23428270481      0.948890663932      -0.23428270481      -0.0504552801912    -0.203831693908     
6300000000.0        -0.0520265665879    -0.206784738362     0.947303807263      -0.237733169383     0.947303807263      -0.237733169383     -0.0520265665879    -0.206784738362     
6400000000.0        -0.0536184665556    -0.209722196719     0.945696080653      -0.241168296019     0.945696080653      -0.241168296019     -0.0536184665556    -0.209722196719     
6500000000.0        -0.0552307733445    -0.212643878096     0.944067690399      -0.244587895589     0.944067690399      -0.244587895589     -0.0552307733445    -0.212643878096     
6600000000.0        -0.0568632779981    -0.215549594934     0.942418845002      -0.247991782267     0.942418845002      -0.247991782267     -0.0568632779981    -0.215549594934     
6700000000.0        -0.0585157694209    -0.218439163028     0.940749755099      -0.251379773562     0.940749755099      -0.251379773562     -0.0585157694209    -0.218439163028     
6800000000.0        -0.0601880344461    -0.221312401565     0.939060633398      -0.254751690358     0.939060633398      -0.254751690358     -0.0601880344461    -0.221312401565     
6900000000.0        -0.0618798579044    -0.224169133156     0.937351694603      -0.258107356943     0.937351694603      -0.258107356943     -0.0618798579044    -0.224169133156     
7000000000.0        -0.0635910226932    -0.227009183864     0.935623155352      -0.261446601038     0.935623155352      -0.261446601038     -0.0635910226932    -0.227009183864     
7100000000.0        -0.0653213098459    -0.22983238323      0.933875234143      -0.264769253831     0.933875234143      -0.264769253831     -0.0653213098459    -0.22983238323      
7200000000.0        -0.0670704986012    -0.232638564308     0.932108151268      -0.268075149998     0.932108151268      -0.268075149998     -0.0670704986012    -0.232638564308     
7300000000.0        -0.0688383664737    -0.235427563677     0.930322128738      -0.271364127733     0.930322128738      -0.271364127733     -0.0688383664737    -0.235427563677     
7400000000.0        -0.0706246893238    -0.238199221475     0.928517390217      -0.274636028767     0.928517390217      -0.274636028767     -0.0706246893238    -0.238199221475     
7500000000.0        -0.0724292414279    -0.240953381412     0.926694160951      -0.277890698393     0.926694160951      -0.277890698393     -0.0724292414279    -0.240953381412     
7600000000.0        -0.0742517955494    -0.243689890796     0.924852667696      -0.281127985479     0.924852667696      -0.281127985479     -0.0742517955494    -0.243689890796     
7700000000.0        -0.0760921230085    -0.246408600541     0.922993138647      -0.284347742497     0.922993138647      -0.284347742497     -0.0760921230085    -0.246408600541     
7800000000.0        -0.0779499937538    -0.249109365192     0.921115803369      -0.287549825525     0.921115803369      -0.287549825525     -0.0779499937538    -0.249109365192     
7900000000.0        -0.079825176432     -0.251792042933     0.919220892728      -0.290734094275     0.919220892728      -0.290734094275     -0.079825176432     -0.251792042933     
8000000000.0        -0.081717438459     -0.2544564956       0.917308638816      -0.293900412092     0.917308638816      -0.293900412092     -0.081717438459     -0.2544564956       
8100000000.0        -0.0836265460901    -0.257102588694     0.915379274883      -0.297048645977     0.915379274883      -0.297048645977     -0.0836265460901    -0.257102588694     
8200000000.0        -0.0855522644904    -0.259730191385     0.913433035267      -0.300178666588     0.913433035267      -0.300178666588     -0.0855522644904    -0.259730191385     
8300000000.0        -0.0874943578048    -0.262339176523     0.911470155325      -0.303290348248     0.911470155325      -0.303290348248     -0.0874943578048    -0.262339176523     
8400000000.0        -0.0894525892279    -0.264929420639     0.909490871359      -0.306383568954     0.909490871359      -0.306383568954     -0.0894525892279    -0.264929420639     
8500000000.0        -0.0914267210738    -0.267500803955     0.90749542055       -0.309458210379     0.90749542055       -0.309458210379     -0.0914267210738    -0.267500803955     
8600000000.0        -0.0934165148452    -0.270053210378     0.905484040888      -0.312514157874     0.905484040888      -0.312514157874     -0.0934165148452    -0.270053210378     
8700000000.0        -0.0954217313023    -0.272586527508     0.903456971102      -0.315551300468     0.903456971102      -0.315551300468     -0.0954217313023    -0.272586527508     
8800000000.0        -0.0974421305317    -0.27510064663      0.901414450593      -0.31856953087      0.901414450593      -0.31856953087      -0.0974421305317    -0.27510064663      
8900000000.0        -0.0994774720142    -0.277595462717     0.899356719365      -0.321568745463     0.899356719365      -0.321568745463     -0.0994774720142    -0.277595462717     
9000000000.0        -0.101527514692     -0.280070874422     0.897284017955      -0.324548844303     0.897284017955      -0.324548844303     -0.101527514692     -0.280070874422     
9100000000.0        -0.103592017039     -0.282526784073     0.895196587372      -0.32750973111      0.895196587372      -0.32750973111      -0.103592017039     -0.282526784073     
9200000000.0        -0.105670737121     -0.284963097666     0.893094669021      -0.330451313266     0.893094669021      -0.330451313266     -0.105670737121     -0.284963097666     
9300000000.0        -0.107763432669     -0.287379724859     0.890978504648      -0.333373501802     0.890978504648      -0.333373501802     -0.107763432669     -0.287379724859     
9400000000.0        -0.10986986114      -0.289776578955     0.888848336264      -0.336276211391     0.888848336264      -0.336276211391     -0.10986986114      -0.289776578955     
9500000000.0        -0.111989779784     -0.292153576898     0.886704406089      -0.339159360332     0.886704406089      -0.339159360332     -0.111989779784     -0.292153576898     
9600000000.0        -0.114122945709     -0.294510639255     0.884546956479      -0.342022870547     0.884546956479      -0.342022870547     -0.114122945709     -0.294510639255     
9700000000.0        -0.11626911594      -0.296847690204     0.88237622987       -0.344866667556     0.88237622987       -0.344866667556     -0.11626911594      -0.296847690204     
9800000000.0        -0.118428047488     -0.299164657519     0.880192468711      -0.347690680467     0.880192468711      -0.347690680467     -0.118428047488     -0.299164657519     
9900000000.0        -0.120599497409     -0.301461472551     0.877995915405      -0.350494841963     0.877995915405      -0.350494841963     -0.120599497409     -0.301461472551     
10000000000.0       -0.122783222864     -0.303738070211     0.875786812241      -0.353279088275     0.875786812241      -0.353279088275     -0.122783222864     -0.303738070211     
