# Hz S RI R 50.00 
100000000.0         -0.00335342249519   -0.0584650020274    0.996323980901      -0.058895428301     0.996323980901      -0.058895428301     -0.00335342249519   -0.0584650020274    
200000000.0         -0.0136337616487    -0.115713032589     0.98604115811       -0.116573913609     0.98604115811       -0.116573913609     -0.0136337616487    -0.115713032589     
300000000.0         -0.0302677828774    -0.170623015825     0.969405018646      -0.171914401695     0.969405018646      -0.171914401695     -0.0302677828774    -0.170623015825     
400000000.0         -0.052613441577     -0.222225263432     0.947057329529      -0.223947223125     0.947057329529      -0.223947223125     -0.052613441577     -0.222225263432     
500000000.0         -0.0798599144251    -0.269751045158     0.919808807582      -0.271903665265     0.919808807582      -0.271903665265     -0.0798599144251    -0.269751045158     
600000000.0         -0.111095698773     -0.312658113115     0.888570901289      -0.315241497053     0.888570901289      -0.315241497053     -0.111095698773     -0.312658113115     
700000000.0         -0.145375965686     -0.350632498539     0.854288407636      -0.353646765993     0.854288407636      -0.353646765993     -0.145375965686     -0.350632498539     
800000000.0         -0.181781264238     -0.383570615096     0.817880756847      -0.387015901584     0.817880756847      -0.387015901584     -0.181781264238     -0.383570615096     
900000000.0         -0.219462718317     -0.411547808112     0.780196810705      -0.415424264642     0.780196810705      -0.415424264642     -0.219462718317     -0.411547808112     
1000000000.0        -0.257672005596     -0.434779920483     0.741984881115      -0.43908771327      0.741984881115      -0.43908771327      -0.257672005596     -0.434779920483     
1100000000.0        -0.295776954064     -0.453583600695     0.703877132206      -0.458322910919     0.703877132206      -0.458322910919     -0.295776954064     -0.453583600695     
1200000000.0        -0.333265202868     -0.468339545832     0.666385918677      -0.473510569433     0.666385918677      -0.473510569433     -0.333265202868     -0.468339545832     
1300000000.0        -0.369739062092     -0.479461193941     0.629908925506      -0.485064141442     0.629908925506      -0.485064141442     -0.369739062092     -0.479461193941     
1400000000.0        -0.404904686219     -0.487369921199     0.594739994153      -0.493405017545     0.594739994153      -0.493405017545     -0.404904686219     -0.487369921199     
1500000000.0        -0.438558227559     -0.492476729598     0.561082968905      -0.49894421402      0.561082968905      -0.49894421402      -0.438558227559     -0.492476729598     
1600000000.0        -0.470571005994     -0.495169749659     0.529066526973      -0.502069875549     0.529066526973      -0.502069875549     -0.470571005994     -0.495169749659     
1700000000.0        -0.500875093421     -0.495806563028     0.49875859393       -0.503139597827     0.49875859393       -0.503139597827     -0.500875093421     -0.495806563028     
1800000000.0        -0.529450162238     -0.494710273741     0.470179495147      -0.502476498842     0.470179495147      -0.502476498842     -0.529450162238     -0.494710273741     
1900000000.0        -0.556312024697     -0.492168329939     0.443313416372      -0.500368040594     0.443313416372      -0.500368040594     -0.556312024697     -0.492168329939     
2000000000.0        -0.581502994053     -0.488433245475     0.418118042532      -0.497066750717     0.418118042532      -0.497066750717     -0.581502994053     -0.488433245475     
2100000000.0        -0.605084010025     -0.483724542214     0.394532432241      -0.492792164783     0.394532432241      -0.492792164783     -0.605084010025     -0.483724542214     
2200000000.0        -0.627128364804     -0.478231398574     0.372483291755      -0.487733474851     0.372483291755      -0.487733474851     -0.627128364804     -0.478231398574     
2300000000.0        -0.647716817255     -0.472115632733     0.351889860752      -0.482052512682     0.351889860752      -0.482052512682     -0.647716817255     -0.472115632733     
2400000000.0        -0.666933871726     -0.465514764766     0.332667633505      -0.47588681188      0.332667633505      -0.47588681188      -0.666933871726     -0.465514764766     
2500000000.0        -0.684865008785     -0.458544991141     0.314731128122      -0.469352582395     0.314731128122      -0.469352582395     -0.684865008785     -0.458544991141     
2600000000.0        -0.701594677597     -0.451303970839     0.297995894168      -0.462547496647     0.297995894168      -0.462547496647     -0.701594677597     -0.451303970839     
2700000000.0        -0.717204886559     -0.44387336914      0.282379922013      -0.455553233319     0.282379922013      -0.455553233319     -0.717204886559     -0.44387336914      
2800000000.0        -0.7317742561       -0.436321137045     0.267804590021      -0.448437756781     0.267804590021      -0.448437756781     -0.7317742561       -0.436321137045     
2900000000.0        -0.745377422831     -0.4287035252       0.254195260401      -0.44125733102      0.254195260401      -0.44125733102      -0.745377422831     -0.4287035252       
3000000000.0        -0.758084706454     -0.42106684408      0.241481612284      -0.434058279827     0.241481612284      -0.434058279827     -0.758084706454     -0.42106684408      
3100000000.0        -0.7699619697       -0.413448989471     0.229597781785      -0.426878512284     0.229597781785      -0.426878512284     -0.7699619697       -0.413448989471     
3200000000.0        -0.781070617134     -0.405880755818     0.218482363193      -0.419748836115     0.218482363193      -0.419748836115     -0.781070617134     -0.405880755818     
3300000000.0        -0.791467691231     -0.398386960994     0.208078312888      -0.412694082462     0.208078312888      -0.412694082462     -0.791467691231     -0.398386960994     
3400000000.0        -0.801206034222     -0.390987405562     0.198332787494      -0.40573406514      0.198332787494      -0.40573406514      -0.801206034222     -0.390987405562     
3500000000.0        -0.810334492049     -0.38369768811      0.189196939923      -0.39888439599      0.189196939923      -0.39888439599      -0.810334492049     -0.38369768811      
3600000000.0        -0.818898142952     -0.376529896407     0.180625690781      -0.392157176026     0.180625690781      -0.392157176026     -0.818898142952     -0.376529896407     
3700000000.0        -0.826938537941     -0.369493191988     0.172577487899      -0.385561580032     0.172577487899      -0.385561580032     -0.826938537941     -0.369493191988     
3800000000.0        -0.834493944007     -0.362594303711     0.165014063115      -0.379104350115     0.165014063115      -0.379104350115     -0.834493944007     -0.362594303711     
3900000000.0        -0.841599583692     -0.355837943837     0.157900192706      -0.372790211792     0.157900192706      -0.372790211792     -0.841599583692     -0.355837943837     
4000000000.0        -0.848287866673     -0.349227158331     0.151203465802      -0.366622224291     0.151203465802      -0.366622224291     -0.848287866673     -0.349227158331     
4100000000.0        -0.854588610554     -0.342763621455     0.14489406359       -0.360602075154     0.14489406359       -0.360602075154     -0.854588610554     -0.342763621455     
4200000000.0        -0.860529249193     -0.336447883259     0.138944550988      -0.35473032772      0.138944550988      -0.35473032772      -0.860529249193     -0.336447883259     
4300000000.0        -0.86613502769      -0.330279577274     0.133329681656      -0.349006628827     0.133329681656      -0.349006628827     -0.86613502769      -0.330279577274     
4400000000.0        -0.871429183757     -0.324257594644     0.128026216623      -0.34342988295      0.128026216623      -0.34342988295      -0.871429183757     -0.324257594644     
4500000000.0        -0.876433115604     -0.318380229959     0.123012756402      -0.337998398028     0.123012756402      -0.337998398028     -0.876433115604     -0.318380229959     
4600000000.0        -0.881166536739     -0.312645303242     0.118269586188      -0.332710007459     0.118269586188      -0.332710007459     -0.881166536739     -0.312645303242     
4700000000.0        -0.885647618283     -0.30705026185      0.113778533545      -0.327562172005     0.113778533545      -0.327562172005     -0.885647618283     -0.30705026185      
4800000000.0        -0.889893119474     -0.301592265472     0.109522837896      -0.322552064789     0.109522837896      -0.322552064789     -0.889893119474     -0.301592265472     
4900000000.0        -0.893918507143     -0.296268256892     0.105487031047      -0.317676642059     0.105487031047      -0.317676642059     -0.893918507143     -0.296268256892     
5000000000.0        -0.897738064929     -0.291075020776     0.10165682798       -0.312932701986     0.10165682798       -0.312932701986     -0.897738064929     -0.291075020776     
5100000000.0        -0.901364992994     -0.286009232391     0.098019027124      -0.308316933373     0.098019027124      -0.308316933373     -0.901364992994     -0.286009232391     
5200000000.0        -0.90481149902      -0.281067497841     0.094561419369      -0.303825955906     0.094561419369      -0.303825955906     -0.90481149902      -0.281067497841     
5300000000.0        -0.908088881179     -0.276246387189     0.0912727050861     -0.299456353269     0.0912727050861     -0.299456353269     -0.908088881179     -0.276246387189     
5400000000.0        -0.911207603784     -0.271542461589     0.0881424184849     -0.295204700284     0.0881424184849     -0.295204700284     -0.911207603784     -0.271542461589     
5500000000.0        -0.914177366228     -0.266952295392     0.0851608586647     -0.291067585014     0.0851608586647     -0.291067585014     -0.914177366228     -0.266952295392     
5600000000.0        -0.917007165834     -0.26247249403      0.0823190267715     -0.287041626658     0.0823190267715     -0.287041626658     -0.917007165834     -0.26247249403      
5700000000.0        -0.919705355138     -0.258099708365     0.0796085687111     -0.283123489893     0.0796085687111     -0.283123489893     -0.919705355138     -0.258099708365     
5800000000.0        -0.922279694117     -0.253830646069     0.0770217229195     -0.279309896261     0.0770217229195     -0.279309896261     -0.922279694117     -0.253830646069     
5900000000.0        -0.924737397827     -0.249662080525     0.0745512727276     -0.275597633075     0.0745512727276     -0.275597633075     -0.924737397827     -0.249662080525     
6000000000.0        -0.927085179861     -0.245590857659     0.0721905029014     -0.271983560245     0.0721905029014     -0.271983560245     -0.927085179861     -0.245590857659     
6100000000.0        -0.929329292013     -0.241613901037     0.0699331599737     -0.268464615387     0.0699331599737     -0.268464615387     -0.929329292013     -0.241613901037     
6200000000.0        -0.931475560509     -0.237728215533     0.0677734160203     -0.265037817487     0.0677734160203     -0.265037817487     -0.931475560509     -0.237728215533     
6300000000.0        -0.933529419095     -0.233930889795     0.0657058355629     -0.261700269373     0.0657058355629     -0.261700269373     -0.933529419095     -0.233930889795     
6400000000.0        -0.935495939302     -0.230219097738     0.0637253453117     -0.258449159207     0.0637253453117     -0.258449159207     -0.935495939302     -0.230219097738     
6500000000.0        -0.937379858115     -0.226590099212     0.0618272064892     -0.255281761159     0.0618272064892     -0.255281761159     -0.937379858115     -0.226590099212     
6600000000.0        -0.93918560331      -0.223041240014     0.0600069894967     -0.252195435415     0.0600069894967     -0.252195435415     -0.93918560331      -0.223041240014     
6700000000.0        -0.940917316654     -0.219569951354     0.0582605507125     -0.249187627657     0.0582605507125     -0.249187627657     -0.940917316654     -0.219569951354     
6800000000.0        -0.942578875171     -0.21617374889      0.0565840112267     -0.246255868087     0.0565840112267     -0.246255868087     -0.942578875171     -0.21617374889      
6900000000.0        -0.944173910639     -0.212850231402     0.0549737373389     -0.243397770112     0.0549737373389     -0.243397770112     -0.944173910639     -0.212850231402     
7000000000.0        -0.945705827496     -0.209597079202     0.0534263226601     -0.240611028756     0.0534263226601     -0.240611028756     -0.945705827496     -0.209597079202     
7100000000.0        -0.947177819269     -0.206412052323     0.0519385716743     -0.237893418845     0.0519385716743     -0.237893418845     -0.947177819269     -0.206412052323     
7200000000.0        -0.948592883685     -0.203292988541     0.0505074846323     -0.23524279304      0.0505074846323     -0.23524279304      -0.948592883685     -0.203292988541     
7300000000.0        -0.949953836566     -0.200237801285     0.0491302436576     -0.232657079743     0.0491302436576     -0.232657079743     -0.949953836566     -0.200237801285     
7400000000.0        -0.951263324608     -0.197244477457     0.0478041999597     -0.230134280923     0.0478041999597     -0.230134280923     -0.951263324608     -0.197244477457     
7500000000.0        -0.952523837164     -0.194311075198     0.0465268620579     -0.227672469882     0.0465268620579     -0.227672469882     -0.952523837164     -0.194311075198     
7600000000.0        -0.953737717094     -0.191435721625     0.0452958849269     -0.225269788999     0.0452958849269     -0.225269788999     -0.953737717094     -0.191435721625     
7700000000.0        -0.954907170775     -0.188616610558     0.0441090599867     -0.222924447451     0.0441090599867     -0.222924447451     -0.954907170775     -0.188616610558     
7800000000.0        -0.956034277343     -0.185852000252     0.042964305863      -0.220634718958     0.042964305863      -0.220634718958     -0.956034277343     -0.185852000252     
7900000000.0        -0.95712099722      -0.183140211153     0.0418596598541     -0.218398939531     0.0418596598541     -0.218398939531     -0.95712099722      -0.183140211153     
8000000000.0        -0.958169180004     -0.180479623679     0.0407932700441     -0.216215505266     0.0407932700441     -0.216215505266     -0.958169180004     -0.180479623679     
8100000000.0        -0.959180571764     -0.177868676046     0.0397633880076     -0.214082870165     0.0397633880076     -0.214082870165     -0.959180571764     -0.177868676046     
8200000000.0        -0.960156821788     -0.175305862139     0.0387683620592     -0.211999544012     0.0387683620592     -0.211999544012     -0.960156821788     -0.175305862139     
8300000000.0        -0.961099488836     -0.172789729434     0.0378066309999     -0.209964090299     0.0378066309999     -0.209964090299     -0.961099488836     -0.172789729434     
8400000000.0        -0.962010046938     -0.170318876978     0.0368767183225     -0.207975124204     0.0368767183225     -0.207975124204     -0.962010046938     -0.170318876978     
8500000000.0        -0.96288989076      -0.16789195342      0.0359772268369     -0.206031310632     0.0359772268369     -0.206031310632     -0.96288989076      -0.16789195342      
8600000000.0        -0.9637403406       -0.165507655115     0.0351068336825     -0.204131362315     0.0351068336825     -0.204131362315     -0.9637403406       -0.165507655115     
8700000000.0        -0.964562647011     -0.163164724278     0.0342642856963     -0.202274037973     0.0342642856963     -0.202274037973     -0.964562647011     -0.163164724278     
8800000000.0        -0.965357995112     -0.160861947206     0.0334483951089     -0.200458140536     0.0334483951089     -0.200458140536     -0.965357995112     -0.160861947206     
8900000000.0        -0.966127508584     -0.15859815256      0.0326580355425     -0.198682515431     0.0326580355425     -0.198682515431     -0.966127508584     -0.15859815256      
9000000000.0        -0.966872253394     -0.156372209712     0.0318921382869     -0.196946048929     0.0318921382869     -0.196946048929     -0.966872253394     -0.156372209712     
9100000000.0        -0.967593241262     -0.15418302715      0.0311496888326     -0.195247666555     0.0311496888326     -0.195247666555     -0.967593241262     -0.15418302715      
9200000000.0        -0.968291432891     -0.152029550939     0.0304297236415     -0.193586331555     0.0304297236415     -0.193586331555     -0.968291432891     -0.152029550939     
9300000000.0        -0.968967740976     -0.149910763255     0.0297313271353     -0.191961043423     0.0297313271353     -0.191961043423     -0.968967740976     -0.149910763255     
9400000000.0        -0.96962303301      -0.147825680958     0.029053628888      -0.190370836488     0.029053628888      -0.190370836488     -0.96962303301      -0.147825680958     
9500000000.0        -0.970258133907     -0.145773354233     0.0283958010045     -0.188814778553     0.0283958010045     -0.188814778553     -0.970258133907     -0.145773354233     
9600000000.0        -0.970873828445     -0.143752865286     0.0277570556733     -0.187291969591     0.0277570556733     -0.187291969591     -0.970873828445     -0.143752865286     
9700000000.0        -0.971470863558     -0.141763327084     0.0271366428791     -0.185801540494     0.0271366428791     -0.185801540494     -0.971470863558     -0.141763327084     
9800000000.0        -0.972049950467     -0.139803882151     0.0265338482651     -0.184342651869     0.0265338482651     -0.184342651869     -0.972049950467     -0.139803882151     
9900000000.0        -0.972611766684     -0.137873701418     0.025947991132      -0.18291449289      0.025947991132      -0.18291449289      -0.972611766684     -0.137873701418     
10000000000.0       -0.97315695788      -0.135971983109     0.0253784225665     -0.18151628019      0.0253784225665     -0.18151628019      -0.97315695788      -0.135971983109     
