# Hz S RI R 50.00 
100000000.0         0.00252894152337    0.00111728954651    0.997456320652      -0.00549733493588   0.997456320652      -0.00549733493588   0.00252894152337    0.00111728954651    
200000000.0         0.00256227146332    0.00223421645792    0.997390050317      -0.0109943445593    0.997390050317      -0.0109943445593    0.00256227146332    0.00223421645792    
300000000.0         0.00260351621351    0.00335072155841    0.997296659849      -0.0164909761283    0.997296659849      -0.0164909761283    0.00260351621351    0.00335072155841    
400000000.0         0.00265485559502    0.00446669035819    0.99717396582       -0.0219871049964    0.99717396582       -0.0219871049964    0.00265485559502    0.00446669035819    
500000000.0         0.00271712405795    0.0055819965257     0.997021129465      -0.0274825861418    0.997021129465      -0.0274825861418    0.00271712405795    0.0055819965257     
600000000.0         0.00279074235571    0.00669650898156    0.996837725106      -0.0329772641076    0.996837725106      -0.0329772641076    0.00279074235571    0.00669650898156    
700000000.0         0.00287595426108    0.0078100943738     0.996623503505      -0.0384709769381    0.996623503505      -0.0384709769381    0.00287595426108    0.0078100943738     
800000000.0         0.00297291291677    0.00892261819366    0.996378305574      -0.0439635581738    0.996378305574      -0.0439635581738    0.00297291291677    0.00892261819366    
900000000.0         0.00308171926512    0.0100339453585     0.996102023986      -0.0494548380165    0.996102023986      -0.0494548380165    0.00308171926512    0.0100339453585     
1000000000.0        0.00320244151936    0.0111439405482     0.995794583748      -0.0549446440785    0.995794583748      -0.0549446440785    0.00320244151936    0.0111439405482     
1100000000.0        0.00333512598401    0.0122524684141     0.995455931413      -0.0604328018962    0.995455931413      -0.0604328018962    0.00333512598401    0.0122524684141     
1200000000.0        0.00347980350116    0.0133593937165     0.995086028662      -0.0659191353026    0.995086028662      -0.0659191353026    0.00347980350116    0.0133593937165     
1300000000.0        0.0036364935062     0.0144645814193     0.994684848276      -0.071403466708     0.994684848276      -0.071403466708     0.0036364935062     0.0144645814193     
1400000000.0        0.0038052066942     0.0155678967588     0.994252371494      -0.0768856173182    0.994252371494      -0.0768856173182    0.0038052066942     0.0155678967588     
1500000000.0        0.0039859468379     0.0166692052947     0.993788586218      -0.0823654073099    0.993788586218      -0.0823654073099    0.0039859468379     0.0166692052947     
1600000000.0        0.00417871206571    0.0177683729498     0.99329348575       -0.0878426559738    0.99329348575       -0.0878426559738    0.00417871206571    0.0177683729498     
1700000000.0        0.0043834957841     0.0188652660419     0.992767067894      -0.0933171818347    0.992767067894      -0.0933171818347    0.0043834957841     0.0188652660419     
1800000000.0        0.00460028735852    0.0199597513101     0.992209334288      -0.0987888027534    0.992209334288      -0.0987888027534    0.00460028735852    0.0199597513101     
1900000000.0        0.00482907262642    0.0210516959371     0.991620289908      -0.104257336015     0.991620289908      -0.104257336015     0.00482907262642    0.0210516959371     
2000000000.0        0.00506983429059    0.0221409675685     0.990999942691      -0.109722598404     0.990999942691      -0.109722598404     0.00506983429059    0.0221409675685     
2100000000.0        0.00532255222569    0.0232274343307     0.99034830324       -0.115184406277     0.99034830324       -0.115184406277     0.00532255222569    0.0232274343307     
2200000000.0        0.00558720372066    0.0243109648463     0.989665384596      -0.120642575618     0.989665384596      -0.120642575618     0.00558720372066    0.0243109648463     
2300000000.0        0.00586376367296    0.0253914282487     0.988951202055      -0.126096922097     0.988951202055      -0.126096922097     0.00586376367296    0.0253914282487     
2400000000.0        0.00615220474621    0.0264686941963     0.988205773025      -0.13154726112      0.988205773025      -0.13154726112      0.00615220474621    0.0264686941963     
2500000000.0        0.0064524974996     0.0275426328852     0.987429116901      -0.136993407873     0.987429116901      -0.136993407873     0.0064524974996     0.0275426328852     
2600000000.0        0.00676461049532    0.0286131150621     0.986621254978      -0.142435177366     0.986621254978      -0.142435177366     0.00676461049532    0.0286131150621     
2700000000.0        0.0070885103886     0.0296800120361     0.985782210361      -0.14787238447      0.985782210361      -0.14787238447      0.0070885103886     0.0296800120361     
2800000000.0        0.00742416200409    0.030743195691      0.984912007904      -0.153304843957     0.984912007904      -0.153304843957     0.00742416200409    0.030743195691      
2900000000.0        0.00777152840108    0.0318025384966     0.984010674152      -0.158732370534     0.984010674152      -0.158732370534     0.00777152840108    0.0318025384966     
3000000000.0        0.00813057092987    0.0328579135204     0.983078237295      -0.164154778872     0.983078237295      -0.164154778872     0.00813057092987    0.0328579135204     
3100000000.0        0.00850124928082    0.0339091944388     0.982114727124      -0.16957188364      0.982114727124      -0.16957188364      0.00850124928082    0.0339091944388     
3200000000.0        0.00888352152747    0.0349562555482     0.981120175         -0.174983499533     0.981120175         -0.174983499533     0.00888352152747    0.0349562555482     
3300000000.0        0.00927734416475    0.0359989717761     0.980094613819      -0.180389441301     0.980094613819      -0.180389441301     0.00927734416474    0.0359989717761     
3400000000.0        0.00968267214305    0.0370372186921     0.97903807799       -0.185789523774     0.97903807799       -0.185789523774     0.00968267214305    0.0370372186921     
3500000000.0        0.010099458899      0.038070872519      0.977950603405      -0.191183561886     0.977950603405      -0.191183561886     0.010099458899      0.038070872519      
3600000000.0        0.0105276563834     0.0390998101434     0.976832227427      -0.196571370704     0.976832227427      -0.196571370704     0.0105276563834     0.0390998101434     
3700000000.0        0.0109672150865     0.0401239091265     0.975682988861      -0.201952765447     0.975682988861      -0.201952765447     0.0109672150865     0.0401239091265     
3800000000.0        0.0114180840617     0.0411430477152     0.974502927945      -0.207327561513     0.974502927945      -0.207327561513     0.0114180840617     0.0411430477152     
3900000000.0        0.011880210947      0.0421571048523     0.973292086331      -0.212695574494     0.973292086331      -0.212695574494     0.011880210947      0.0421571048523     
4000000000.0        0.0123535419859     0.0431659601876     0.972050507069      -0.218056620205     0.972050507069      -0.218056620205     0.0123535419859     0.0431659601876     
4100000000.0        0.0128380220457     0.0441694940884     0.970778234596      -0.2234105147       0.970778234596      -0.2234105147       0.0128380220457     0.0441694940884     
4200000000.0        0.0133335946358     0.0451675876499     0.969475314725      -0.228757074293     0.969475314725      -0.228757074293     0.0133335946358     0.0451675876499     
4300000000.0        0.0138402019253     0.0461601227061     0.96814179463       -0.234096115576     0.96814179463       -0.234096115576     0.0138402019253     0.0461601227061     
4400000000.0        0.0143577847583     0.0471469818398     0.966777722834      -0.239427455441     0.966777722834      -0.239427455441     0.0143577847583     0.0471469818398     
4500000000.0        0.0148862826704     0.0481280483934     0.965383149206      -0.244750911094     0.965383149206      -0.244750911094     0.0148862826704     0.0481280483934     
4600000000.0        0.0154256339034     0.0491032064794     0.96395812494       -0.250066300076     0.96395812494       -0.250066300076     0.0154256339034     0.0491032064794     
4700000000.0        0.0159757754199     0.0500723409901     0.962502702554      -0.255373440281     0.962502702554      -0.255373440281     0.0159757754199     0.0500723409901     
4800000000.0        0.0165366429177     0.0510353376088     0.961016935878      -0.260672149968     0.961016935878      -0.260672149968     0.0165366429177     0.0510353376088     
4900000000.0        0.0171081708431     0.0519920828192     0.95950088004       -0.265962247785     0.95950088004       -0.265962247785     0.0171081708431     0.0519920828192     
5000000000.0        0.0176902924047     0.0529424639161     0.957954591465      -0.271243552778     0.957954591465      -0.271243552778     0.0176902924047     0.0529424639161     
5100000000.0        0.0182829395866     0.0538863690153     0.956378127861      -0.276515884411     0.956378127861      -0.276515884411     0.0182829395866     0.0538863690153     
5200000000.0        0.0188860431615     0.0548236870636     0.95477154821       -0.28177906258      0.95477154821       -0.28177906258      0.0188860431615     0.0548236870636     
5300000000.0        0.019499532703      0.0557543078489     0.953134912762      -0.28703290763      0.953134912762      -0.28703290763      0.019499532703      0.0557543078489     
5400000000.0        0.0201233365986     0.0566781220102     0.951468283024      -0.292277240365     0.951468283024      -0.292277240365     0.0201233365986     0.0566781220102     
5500000000.0        0.0207573820622     0.0575950210471     0.949771721753      -0.297511882071     0.949771721753      -0.297511882071     0.0207573820622     0.0575950210471     
5600000000.0        0.0214015951461     0.0585048973299     0.948045292947      -0.302736654519     0.948045292947      -0.302736654519     0.0214015951461     0.0585048973299     
5700000000.0        0.0220559007537     0.0594076441091     0.946289061836      -0.30795137999      0.946289061836      -0.30795137999      0.0220559007537     0.0594076441091     
5800000000.0        0.0227202226512     0.0603031555251     0.944503094875      -0.313155881281     0.944503094875      -0.313155881281     0.0227202226512     0.0603031555251     
5900000000.0        0.02339448348       0.0611913266177     0.942687459732      -0.318349981721     0.942687459732      -0.318349981721     0.02339448348       0.0611913266177     
6000000000.0        0.0240786047688     0.0620720533355     0.940842225286      -0.323533505185     0.940842225286      -0.323533505185     0.0240786047688     0.0620720533355     
6100000000.0        0.0247725069452     0.0629452325454     0.938967461609      -0.328706276104     0.938967461609      -0.328706276104     0.0247725069452     0.0629452325454     
6200000000.0        0.025476109348      0.0638107620417     0.937063239968      -0.333868119481     0.937063239968      -0.333868119481     0.025476109348      0.0638107620417     
6300000000.0        0.0261893302392     0.0646685405555     0.935129632807      -0.339018860902     0.935129632807      -0.339018860902     0.0261893302392     0.0646685405555     
6400000000.0        0.0269120868157     0.0655184677634     0.933166713744      -0.344158326546     0.933166713744      -0.344158326546     0.0269120868157     0.0655184677634     
6500000000.0        0.0276442952213     0.066360444297      0.931174557562      -0.349286343201     0.931174557562      -0.349286343201     0.0276442952213     0.066360444297      
6600000000.0        0.0283858705585     0.0671943717515     0.929153240198      -0.35440273827      0.929153240198      -0.35440273827      0.0283858705585     0.0671943717515     
6700000000.0        0.0291367269009     0.0680201526944     0.927102838733      -0.35950733979      0.927102838733      -0.35950733979      0.0291367269009     0.0680201526944     
6800000000.0        0.0298967773043     0.0688376906745     0.92502343139       -0.364599976436     0.92502343139       -0.364599976436     0.0298967773043     0.0688376906745     
6900000000.0        0.0306659338194     0.0696468902305     0.922915097515      -0.369680477534     0.922915097515      -0.369680477534     0.0306659338194     0.0696468902305     
7000000000.0        0.0314441075033     0.070447656899      0.920777917577      -0.374748673075     0.920777917577      -0.374748673075     0.0314441075033     0.070447656899      
7100000000.0        0.0322312084319     0.0712398972236     0.918611973155      -0.379804393723     0.918611973155      -0.379804393723     0.0322312084319     0.0712398972236     
7200000000.0        0.0330271457114     0.0720235187628     0.916417346928      -0.384847470823     0.916417346928      -0.384847470823     0.0330271457114     0.0720235187628     
7300000000.0        0.0338318274904     0.072798430098      0.914194122667      -0.389877736415     0.914194122667      -0.389877736415     0.0338318274904     0.072798430098      
7400000000.0        0.0346451609723     0.0735645408422     0.911942385227      -0.394895023242     0.911942385227      -0.394895023242     0.0346451609723     0.0735645408422     
7500000000.0        0.035467052427      0.0743217616472     0.909662220536      -0.399899164762     0.909662220536      -0.399899164762     0.035467052427      0.0743217616472     
7600000000.0        0.0362974072033     0.0750700042121     0.907353715586      -0.404889995152     0.907353715586      -0.404889995152     0.0362974072033     0.0750700042121     
7700000000.0        0.0371361297406     0.0758091812907     0.905016958423      -0.409867349324     0.905016958423      -0.409867349324     0.0371361297406     0.0758091812907     
7800000000.0        0.0379831235814     0.0765392066992     0.902652038141      -0.41483106293      0.902652038141      -0.41483106293      0.0379831235814     0.0765392066992     
7900000000.0        0.0388382913835     0.0772599953237     0.900259044866      -0.419780972372     0.900259044866      -0.419780972372     0.0388382913835     0.0772599953237     
8000000000.0        0.0397015349318     0.0779714631277     0.897838069753      -0.424716914809     0.897838069753      -0.424716914809     0.0397015349318     0.0779714631277     
8100000000.0        0.0405727551511     0.0786735271592     0.895389204972      -0.429638728171     0.895389204972      -0.429638728171     0.0405727551511     0.0786735271592     
8200000000.0        0.0414518521178     0.079366105558      0.892912543703      -0.434546251159     0.892912543703      -0.434546251159     0.0414518521178     0.079366105558      
8300000000.0        0.0423387250729     0.0800491175627     0.890408180118      -0.439439323261     0.890408180118      -0.439439323261     0.0423387250729     0.0800491175627     
8400000000.0        0.0432332724334     0.0807224835177     0.887876209381      -0.444317784756     0.887876209381      -0.444317784756     0.0432332724334     0.0807224835177     
8500000000.0        0.0441353918057     0.0813861248799     0.885316727631      -0.449181476721     0.885316727631      -0.449181476721     0.0441353918057     0.0813861248799     
8600000000.0        0.0450449799971     0.0820399642254     0.882729831977      -0.454030241042     0.882729831977      -0.454030241042     0.0450449799971     0.0820399642254     
8700000000.0        0.0459619330287     0.0826839252563     0.880115620482      -0.458863920419     0.880115620482      -0.458863920419     0.0459619330287     0.0826839252563     
8800000000.0        0.0468861461478     0.0833179328066     0.87747419216       -0.463682358373     0.87747419216       -0.463682358373     0.0468861461478     0.0833179328066     
8900000000.0        0.0478175138404     0.0839419128491     0.874805646963      -0.468485399253     0.874805646963      -0.468485399253     0.0478175138404     0.0839419128491     
9000000000.0        0.0487559298432     0.0845557925013     0.872110085768      -0.473272888247     0.872110085768      -0.473272888247     0.0487559298432     0.0845557925013     
9100000000.0        0.0497012871571     0.0851595000315     0.869387610373      -0.478044671383     0.869387610373      -0.478044671383     0.0497012871571     0.0851595000315     
9200000000.0        0.0506534780589     0.0857529648648     0.86663832348       -0.482800595539     0.86663832348       -0.482800595539     0.0506534780589     0.0857529648648     
9300000000.0        0.0516123941141     0.086336117589      0.863862328691      -0.487540508446     0.863862328691      -0.487540508446     0.0516123941141     0.086336117589      
9400000000.0        0.0525779261898     0.0869088899601     0.861059730494      -0.492264258701     0.861059730494      -0.492264258701     0.0525779261898     0.0869088899601     
9500000000.0        0.053549964467      0.0874712149079     0.858230634255      -0.496971695766     0.858230634255      -0.496971695766     0.053549964467      0.0874712149079     
9600000000.0        0.0545283984533     0.0880230265418     0.855375146206      -0.501662669975     0.855375146206      -0.501662669975     0.0545283984533     0.0880230265418     
9700000000.0        0.0555131169957     0.0885642601557     0.852493373435      -0.506337032545     0.852493373435      -0.506337032545     0.0555131169957     0.0885642601557     
9800000000.0        0.0565040082933     0.0890948522333     0.849585423877      -0.510994635576     0.849585423877      -0.510994635576     0.0565040082933     0.0890948522333     
9900000000.0        0.0575009599097     0.0896147404532     0.846651406303      -0.515635332056     0.846651406303      -0.515635332056     0.0575009599097     0.0896147404532     
10000000000.0       0.058503858786      0.0901238636942     0.843691430309      -0.520258975873     0.843691430309      -0.520258975873     0.058503858786      0.0901238636942     
