# Hz S RI R 50.00 
100000000.0         3.50273887737e-05   -0.00189159372947   0.999951310011      -0.00226048990772   0.999951310011      -0.00226048990772   3.50273887739e-05   -0.00189159372947   
200000000.0         2.04604195519e-05   -0.0037832685973    0.999935971747      -0.0045210866225    0.999935971747      -0.0045210866225    2.04604195515e-05   -0.0037832685973    
300000000.0         -2.73473374224e-06  -0.00567504725428   0.999912014304      -0.00678182639612   0.999912014304      -0.00678182639612   -2.73473374202e-06  -0.00567504725428   
400000000.0         -3.45249079085e-05  -0.00756693346703   0.999879398648      -0.00904272342213   0.999879398648      -0.00904272342213   -3.45249079086e-05  -0.00756693346703   
500000000.0         -7.4899523262e-05   -0.00945892106415   0.999838107607      -0.0113037803814    0.999838107607      -0.0113037803814    -7.48995232621e-05  -0.00945892106415   
600000000.0         -0.000123855031142  -0.0113509971341    0.999788130583      -0.0135649921872    0.999788130583      -0.0135649921872    -0.000123855031142  -0.0113509971341    
700000000.0         -0.000181390905235  -0.013243143677     0.999729459732      -0.0158263479144    0.999729459732      -0.0158263479144    -0.000181390905234  -0.013243143677     
800000000.0         -0.000247508140741  -0.0151353386153    0.999662088614      -0.0180878319753    0.999662088614      -0.0180878319753    -0.000247508140741  -0.0151353386153    
900000000.0         -0.00032220855887   -0.0170275564687    0.999586011624      -0.0203494249049    0.999586011624      -0.0203494249049    -0.000322208558869  -0.0170275564687    
1000000000.0        -0.000405494433703  -0.0189197688415    0.999501223721      -0.0226111039238    0.999501223721      -0.0226111039238    -0.000405494433703  -0.0189197688415    
1100000000.0        -0.000497368268734  -0.0208119447887    0.999407720297      -0.0248728433619    0.999407720297      -0.0248728433619    -0.000497368268735  -0.0208119447887    
1200000000.0        -0.000597832650919  -0.0227040511034    0.999305497113      -0.0271346149889    0.999305497113      -0.0271346149889    -0.000597832650919  -0.0227040511034    
1300000000.0        -0.0007068901484    -0.0245960525485    0.999194550264      -0.0293963882809    0.999194550264      -0.0293963882809    -0.0007068901484    -0.0245960525485    
1400000000.0        -0.000824543234673  -0.0264879120488    0.999074876173      -0.0316581306397    0.999074876173      -0.0316581306397    -0.000824543234673  -0.0264879120488    
1500000000.0        -0.000950794229669  -0.0283795908522    0.998946471588      -0.0339198075775    0.998946471588      -0.0339198075775    -0.000950794229669  -0.0283795908522    
1600000000.0        -0.00108564525233   -0.0302710486692    0.99880933359       -0.0361813828752    0.99880933359       -0.0361813828752    -0.00108564525233   -0.0302710486692    
1700000000.0        -0.00122909818121   -0.0321622437937    0.9986634596        -0.0384428187197    0.9986634596        -0.0384428187197    -0.00122909818121   -0.0321622437937    
1800000000.0        -0.00138115462103   -0.0340531332097    0.998508847392      -0.0407040758248    0.998508847392      -0.0407040758248    -0.00138115462103   -0.0340531332097    
1900000000.0        -0.00154181587371   -0.0359436726864    0.998345495107      -0.0429651135383    0.998345495107      -0.0429651135383    -0.00154181587371   -0.0359436726864    
2000000000.0        -0.00171108291297   -0.0378338168637    0.998173401263      -0.0452258899385    0.998173401263      -0.0452258899385    -0.00171108291297   -0.0378338168637    
2100000000.0        -0.00188895636177   -0.0397235193297    0.99799256477       -0.0474863619214    0.99799256477       -0.0474863619214    -0.00188895636177   -0.0397235193297    
2200000000.0        -0.00207543647208   -0.0416127326921    0.997802984944      -0.0497464852799    0.997802984944      -0.0497464852799    -0.00207543647208   -0.0416127326921    
2300000000.0        -0.00227052310664   -0.0435014086426    0.997604661516      -0.0520062147766    0.997604661516      -0.0520062147766    -0.00227052310664   -0.0435014086426    
2400000000.0        -0.00247421572245   -0.0453894980178    0.997397594645      -0.0542655042113    0.997397594645      -0.0542655042113    -0.00247421572245   -0.0453894980178    
2500000000.0        -0.00268651335566   -0.0472769508546    0.997181784933      -0.0565243064826    0.997181784933      -0.0565243064826    -0.00268651335566   -0.0472769508546    
2600000000.0        -0.00290741460786   -0.0491637164427    0.996957233427      -0.0587825736462    0.996957233427      -0.0587825736462    -0.00290741460786   -0.0491637164427    
2700000000.0        -0.00313691763351   -0.0510497433733    0.99672394164       -0.0610402569689    0.99672394164       -0.0610402569689    -0.00313691763351   -0.0510497433733    
2800000000.0        -0.00337502012837   -0.0529349795853    0.99648191155       -0.0632973069794    0.99648191155       -0.0632973069794    -0.00337502012837   -0.0529349795853    
2900000000.0        -0.00362171931894   -0.0548193724079    0.996231145617      -0.0655536735157    0.996231145617      -0.0655536735157    -0.00362171931894   -0.0548193724079    
3000000000.0        -0.00387701195279   -0.0567028686024    0.995971646787      -0.0678093057709    0.995971646787      -0.0678093057709    -0.00387701195279   -0.0567028686024    
3100000000.0        -0.00414089428963   -0.0585854144004    0.995703418499      -0.0700641523349    0.995703418499      -0.0700641523349    -0.00414089428963   -0.0585854144004    
3200000000.0        -0.00441336209326   -0.0604669555408    0.995426464695      -0.0723181612355    0.995426464695      -0.0723181612355    -0.00441336209326   -0.0604669555408    
3300000000.0        -0.00469441062403   -0.062347437305     0.995140789825      -0.0745712799765    0.995140789825      -0.0745712799765    -0.00469441062403   -0.062347437305     
3400000000.0        -0.00498403463213   -0.0642268045498    0.994846398853      -0.0768234555742    0.994846398853      -0.0768234555742    -0.00498403463213   -0.0642268045498    
3500000000.0        -0.00528222835139   -0.0661050017402    0.994543297262      -0.0790746345924    0.994543297262      -0.0790746345924    -0.00528222835139   -0.0661050017402    
3600000000.0        -0.0055889854937    -0.0679819729791    0.994231491061      -0.0813247631757    0.994231491061      -0.0813247631757    -0.0055889854937    -0.0679819729791    
3700000000.0        -0.00590429924395   -0.0698576620371    0.993910986788      -0.0835737870811    0.993910986788      -0.0835737870811    -0.00590429924395   -0.0698576620371    
3800000000.0        -0.00622816225548   -0.0717320123805    0.993581791514      -0.0858216517089    0.993581791514      -0.0858216517089    -0.00622816225548   -0.0717320123805    
3900000000.0        -0.00656056664603   -0.0736049671978    0.993243912846      -0.0880683021318    0.993243912846      -0.0880683021318    -0.00656056664603   -0.0736049671978    
4000000000.0        -0.00690150399417   -0.0754764694263    0.992897358933      -0.0903136831225    0.992897358933      -0.0903136831225    -0.00690150399417   -0.0754764694263    
4100000000.0        -0.00725096533612   -0.0773464617765    0.992542138468      -0.0925577391817    0.992542138468      -0.0925577391817    -0.00725096533612   -0.0773464617765    
4200000000.0        -0.00760894116301   -0.0792148867562    0.992178260688      -0.0948004145629    0.992178260688      -0.0948004145629    -0.00760894116301   -0.0792148867562    
4300000000.0        -0.00797542141857   -0.081081686694     0.991805735378      -0.0970416532984    0.991805735378      -0.0970416532984    -0.00797542141857   -0.081081686694     
4400000000.0        -0.00835039549709   -0.0829468037612    0.991424572874      -0.0992813992228    0.991424572874      -0.0992813992228    -0.00835039549709   -0.0829468037612    
4500000000.0        -0.00873385224195   -0.0848101799933    0.991034784061      -0.101519595996     0.991034784061      -0.101519595996     -0.00873385224195   -0.0848101799933    
4600000000.0        -0.00912577994419   -0.0866717573114    0.99063638038       -0.103756187127     0.99063638038       -0.103756187127     -0.00912577994419   -0.0866717573114    
4700000000.0        -0.00952616634174   -0.0885314775416    0.990229373821      -0.105991115993     0.990229373821      -0.105991115993     -0.00952616634174   -0.0885314775416    
4800000000.0        -0.00993499861871   -0.0903892824348    0.989813776929      -0.108224325863     0.989813776929      -0.108224325863     -0.00993499861871   -0.0903892824348    
4900000000.0        -0.0103522634051    -0.0922451136855    0.989389602804      -0.110455759916     0.989389602804      -0.110455759916     -0.0103522634051    -0.0922451136855    
5000000000.0        -0.0107779467768    -0.0940989129501    0.988956865098      -0.112685361262     0.988956865098      -0.112685361262     -0.0107779467768    -0.0940989129501    
5100000000.0        -0.0112120342558    -0.0959506218642    0.988515578018      -0.114913072959     0.988515578018      -0.114913072959     -0.0112120342558    -0.0959506218642    
5200000000.0        -0.0116545108108    -0.09780018206      0.988065756322      -0.117138838033     0.988065756322      -0.117138838033     -0.0116545108108    -0.09780018206      
5300000000.0        -0.0121053608578    -0.0996475351826    0.987607415321      -0.119362599495     0.987607415321      -0.119362599495     -0.0121053608578    -0.0996475351826    
5400000000.0        -0.0125645682613    -0.101492622906     0.987140570877      -0.121584300358     0.987140570877      -0.121584300358     -0.0125645682613    -0.101492622906     
5500000000.0        -0.0130321163356    -0.10333538695      0.986665239401      -0.123803883656     0.986665239401      -0.123803883656     -0.0130321163356    -0.10333538695      
5600000000.0        -0.013507987846     -0.105175769093     0.986181437853      -0.126021292454     0.986181437853      -0.126021292454     -0.013507987846     -0.105175769093     
5700000000.0        -0.0139921650106    -0.107013711187     0.985689183737      -0.12823646987      0.985689183737      -0.12823646987      -0.0139921650106    -0.107013711187     
5800000000.0        -0.0144846295025    -0.108849155175     0.985188495105      -0.130449359087     0.985188495105      -0.130449359087     -0.0144846295025    -0.108849155175     
5900000000.0        -0.0149853624515    -0.110682043099     0.984679390548      -0.132659903368     0.984679390548      -0.132659903368     -0.0149853624515    -0.110682043099     
6000000000.0        -0.0154943444465    -0.11251231712      0.984161889199      -0.134868046072     0.984161889199      -0.134868046072     -0.0154943444465    -0.11251231712      
6100000000.0        -0.0160115555381    -0.114339919527     0.983636010727      -0.137073730664     0.983636010727      -0.137073730664     -0.0160115555381    -0.114339919527     
6200000000.0        -0.0165369752411    -0.116164792748     0.983101775337      -0.139276900732     0.983101775337      -0.139276900732     -0.0165369752411    -0.116164792748     
6300000000.0        -0.0170705825375    -0.117986879366     0.982559203765      -0.141477499997     0.982559203765      -0.141477499997     -0.0170705825375    -0.117986879366     
6400000000.0        -0.0176123558791    -0.119806122132     0.982008317277      -0.14367547233      0.982008317277      -0.14367547233      -0.0176123558791    -0.119806122132     
6500000000.0        -0.0181622731912    -0.12162246397      0.981449137664      -0.14587076176      0.981449137664      -0.14587076176      -0.0181622731912    -0.12162246397      
6600000000.0        -0.0187203118755    -0.123435847995     0.980881687238      -0.148063312485     0.980881687238      -0.148063312485     -0.0187203118755    -0.123435847995     
6700000000.0        -0.0192864488134    -0.12524621752      0.980305988834      -0.150253068891     0.980305988834      -0.150253068891     -0.0192864488134    -0.12524621752      
6800000000.0        -0.01986066037      -0.127053516069     0.979722065799      -0.152439975554     0.979722065799      -0.152439975554     -0.01986066037      -0.127053516069     
6900000000.0        -0.0204429223977    -0.128857687385     0.979129941993      -0.154623977255     0.979129941993      -0.154623977255     -0.0204429223977    -0.128857687385     
7000000000.0        -0.0210332102396    -0.130658675441     0.978529641783      -0.156805018994     0.978529641783      -0.156805018994     -0.0210332102396    -0.130658675441     
7100000000.0        -0.021631498734     -0.132456424452     0.977921190042      -0.158983045993     0.977921190042      -0.158983045993     -0.021631498734     -0.132456424452     
7200000000.0        -0.0222377622181    -0.134250878879     0.97730461214       -0.161158003712     0.97730461214       -0.161158003712     -0.0222377622181    -0.134250878879     
7300000000.0        -0.0228519745326    -0.136041983446     0.976679933945      -0.163329837856     0.976679933945      -0.163329837856     -0.0228519745326    -0.136041983446     
7400000000.0        -0.0234741090254    -0.137829683141     0.976047181815      -0.165498494383     0.976047181815      -0.165498494383     -0.0234741090254    -0.137829683141     
7500000000.0        -0.0241041385565    -0.139613923228     0.975406382596      -0.167663919518     0.975406382596      -0.167663919518     -0.0241041385565    -0.139613923228     
7600000000.0        -0.0247420355024    -0.14139464926      0.974757563615      -0.169826059756     0.974757563615      -0.169826059756     -0.0247420355024    -0.14139464926      
7700000000.0        -0.0253877717603    -0.143171807077     0.974100752679      -0.171984861876     0.974100752679      -0.171984861876     -0.0253877717603    -0.143171807077     
7800000000.0        -0.0260413187536    -0.144945342824     0.973435978066      -0.174140272945     0.973435978066      -0.174140272945     -0.0260413187536    -0.144945342824     
7900000000.0        -0.0267026474356    -0.146715202953     0.972763268524      -0.176292240329     0.972763268524      -0.176292240329     -0.0267026474356    -0.146715202953     
8000000000.0        -0.0273717282954    -0.148481334233     0.972082653263      -0.178440711697     0.972082653263      -0.178440711697     -0.0273717282954    -0.148481334233     
8100000000.0        -0.0280485313621    -0.150243683755     0.971394161952      -0.180585635036     0.971394161952      -0.180585635036     -0.0280485313621    -0.150243683755     
8200000000.0        -0.0287330262103    -0.152002198942     0.970697824715      -0.182726958651     0.970697824715      -0.182726958651     -0.0287330262103    -0.152002198942     
8300000000.0        -0.0294251819647    -0.153756827553     0.969993672123      -0.184864631174     0.969993672123      -0.184864631174     -0.0294251819647    -0.153756827553     
8400000000.0        -0.0301249673059    -0.155507517692     0.969281735191      -0.186998601574     0.969281735191      -0.186998601574     -0.0301249673059    -0.155507517692     
8500000000.0        -0.0308323504748    -0.157254217813     0.96856204537       -0.189128819161     0.96856204537       -0.189128819161     -0.0308323504748    -0.157254217813     
8600000000.0        -0.0315472992789    -0.158996876728     0.967834634548      -0.191255233594     0.967834634548      -0.191255233594     -0.0315472992789    -0.158996876728     
8700000000.0        -0.0322697810966    -0.160735443609     0.967099535037      -0.193377794885     0.967099535037      -0.193377794885     -0.0322697810966    -0.160735443609     
8800000000.0        -0.0329997628834    -0.162469868        0.966356779571      -0.195496453409     0.966356779571      -0.195496453409     -0.0329997628834    -0.162469868        
8900000000.0        -0.033737211177     -0.164200099818     0.965606401302      -0.197611159906     0.965606401302      -0.197611159906     -0.033737211177     -0.164200099818     
9000000000.0        -0.034482092103     -0.165926089361     0.964848433793      -0.19972186549      0.964848433793      -0.19972186549      -0.034482092103     -0.165926089361     
9100000000.0        -0.0352343713802    -0.167647787312     0.964082911012      -0.201828521652     0.964082911012      -0.201828521652     -0.0352343713802    -0.167647787312     
9200000000.0        -0.0359940143266    -0.169365144744     0.963309867327      -0.203931080267     0.963309867327      -0.203931080267     -0.0359940143266    -0.169365144744     
9300000000.0        -0.0367609858645    -0.171078113127     0.962529337499      -0.2060294936       0.962529337499      -0.2060294936       -0.0367609858645    -0.171078113127     
9400000000.0        -0.0375352505269    -0.172786644331     0.961741356679      -0.208123714309     0.961741356679      -0.208123714309     -0.0375352505269    -0.172786644331     
9500000000.0        -0.0383167724628    -0.174490690632     0.9609459604        -0.210213695451     0.9609459604        -0.210213695451     -0.0383167724628    -0.174490690632     
9600000000.0        -0.0391055154429    -0.176190204715     0.960143184573      -0.212299390486     0.960143184573      -0.212299390486     -0.0391055154429    -0.176190204715     
9700000000.0        -0.0399014428658    -0.17788513968      0.959333065478      -0.214380753283     0.959333065478      -0.214380753283     -0.0399014428658    -0.17788513968      
9800000000.0        -0.0407045177633    -0.179575449045     0.958515639762      -0.216457738124     0.958515639762      -0.216457738124     -0.0407045177633    -0.179575449045     
9900000000.0        -0.0415147028071    -0.181261086753     0.957690944432      -0.218530299706     0.957690944432      -0.218530299706     -0.0415147028071    -0.181261086753     
10000000000.0       -0.0423319603137    -0.18294200717      0.956859016847      -0.22059839315      0.956859016847      -0.22059839315      -0.0423319603137    -0.18294200717      
