# Hz S RI R 50.00 
100000000.0         -0.000405030906014  -0.0200186062122    0.999558833205      -0.0201051594437    0.999558833205      -0.0201051594437    -0.000405030906014  -0.0200186062122    
200000000.0         -0.00163071197253   -0.0399865537572    0.998332894178      -0.0401596689097    0.998332894178      -0.0401596689097    -0.00163071197253   -0.0399865537572    
300000000.0         -0.00365356740956   -0.0598555371203    0.996309835462      -0.0601152274394    0.996309835462      -0.0601152274394    -0.00365356740956   -0.0598555371203    
400000000.0         -0.00646369364397   -0.0795781370742    0.993499529562      -0.079924419325     0.993499529562      -0.079924419325     -0.00646369364397   -0.0795781370742    
500000000.0         -0.0100475003614    -0.0991081526129    0.989915554888      -0.0995410465512    0.989915554888      -0.0995410465512    -0.0100475003614    -0.0991081526129    
600000000.0         -0.0143878704742    -0.118400938469     0.985575022486      -0.118920466489     0.985575022486      -0.118920466489     -0.0143878704742    -0.118400938469     
700000000.0         -0.0194643623887    -0.137413723877     0.980498370394      -0.138019910749     0.980498370394      -0.138019910749     -0.0194643623887    -0.137413723877     
800000000.0         -0.0252534469313    -0.156105903946     0.974709125493      -0.156798776607     0.974709125493      -0.156798776607     -0.0252534469313    -0.156105903946     
900000000.0         -0.031728773519     -0.174439298404     0.968233636788      -0.175218885785     0.968233636788      -0.175218885785     -0.031728773519     -0.174439298404     
1000000000.0        -0.0388614601074    -0.192378374106     0.961100785183      -0.193244706984     0.961100785183      -0.193244706984     -0.0388614601074    -0.192378374106     
1100000000.0        -0.0466204012469    -0.209890428938     0.953341675276      -0.210843539806     0.953341675276      -0.210843539806     -0.0466204012469    -0.209890428938     
1200000000.0        -0.05497258849      -0.226945735813     0.944989314857      -0.227985658767     0.944989314857      -0.227985658767     -0.05497258849      -0.226945735813     
1300000000.0        -0.0638834374444    -0.243517646439     0.9360782878        -0.244644417068     0.9360782878        -0.244644417068     -0.0638834374444    -0.243517646439     
1400000000.0        -0.0733171159803    -0.259582655425     0.926644425816      -0.260796310723     0.926644425816      -0.260796310723     -0.0733171159803    -0.259582655425     
1500000000.0        -0.083236868428     -0.275120426108     0.916724484233      -0.276421004384     0.916724484233      -0.276421004384     -0.083236868428     -0.275120426108     
1600000000.0        -0.0936053310618    -0.290113780179     0.906355826492      -0.291501320977     0.906355826492      -0.291501320977     -0.0936053310618    -0.290113780179     
1700000000.0        -0.104384834688     -0.304548653744     0.895576121545      -0.306023197767     0.895576121545      -0.306023197767     -0.104384834688     -0.304548653744     
1800000000.0        -0.115537690764     -0.318414022957     0.884423057732      -0.319975612001     0.884423057732      -0.319975612001     -0.115537690764     -0.318414022957     
1900000000.0        -0.127026458087     -0.331701802662     0.872934076079      -0.333350479546     0.872934076079      -0.333350479546     -0.127026458087     -0.331701802662     
2000000000.0        -0.13881418776      -0.344406721707     0.861146125329      -0.346142530214     0.861146125329      -0.346142530214     -0.13881418776      -0.344406721707     
2100000000.0        -0.150864644746     -0.356526178716     0.849095440385      -0.358349163534     0.849095440385      -0.358349163534     -0.150864644746     -0.356526178716     
2200000000.0        -0.163142504954     -0.368060082065     0.836817345219      -0.369970288733     0.836817345219      -0.369970288733     -0.163142504954     -0.368060082065     
2300000000.0        -0.175613527349     -0.37901067776      0.824346080763      -0.381008152613     0.824346080763      -0.381008152613     -0.175613527349     -0.37901067776      
2400000000.0        -0.188244701085     -0.389382368714     0.811714657765      -0.391467158839     0.811714657765      -0.391467158839     -0.188244701085     -0.389382368714     
2500000000.0        -0.201004368138     -0.399181528721     0.798954734164      -0.401353681904     0.798954734164      -0.401353681904     -0.201004368138     -0.399181528721     
2600000000.0        -0.213862322253     -0.40841631411      0.78609651614       -0.410675878797     0.78609651614       -0.410675878797     -0.213862322253     -0.40841631411      
2700000000.0        -0.226789885376     -0.417096475814     0.773168681674      -0.419443501062     0.773168681674      -0.419443501062     -0.226789885376     -0.417096475814     
2800000000.0        -0.239759962969     -0.425233174187     0.760198325241      -0.427667709631     0.760198325241      -0.427667709631     -0.239759962969     -0.425233174187     
2900000000.0        -0.252747079797     -0.432838798652     0.747210922016      -0.435360894458     0.747210922016      -0.435360894458     -0.252747079797     -0.432838798652     
3000000000.0        -0.2657273979       -0.439926793838     0.734230309903      -0.442536500675     0.734230309903      -0.442536500675     -0.2657273979       -0.439926793838     
3100000000.0        -0.278678718549     -0.446511493641     0.721278687582      -0.44920886264      0.721278687582      -0.44920886264      -0.278678718549     -0.446511493641     
3200000000.0        -0.291580469975     -0.452607964248     0.708376626773      -0.455393046968     0.708376626773      -0.455393046968     -0.291580469975     -0.452607964248     
3300000000.0        -0.304413682697     -0.458231856947     0.695543096911      -0.461104705347     0.695543096911      -0.461104705347     -0.304413682697     -0.458231856947     
3400000000.0        -0.317160954187     -0.463399271259     0.682795500485      -0.466359937664     0.682795500485      -0.466359937664     -0.317160954187     -0.463399271259     
3500000000.0        -0.329806404536     -0.468126628704     0.670149717363      -0.471175165777     0.670149717363      -0.471175165777     -0.329806404536     -0.468126628704     
3600000000.0        -0.34233562473      -0.472430557316     0.65762015652       -0.47556701803      0.65762015652       -0.47556701803      -0.34233562473      -0.472430557316     
3700000000.0        -0.354735618982     -0.476327786848     0.645219813711      -0.479552224459     0.645219813711      -0.479552224459     -0.354735618982     -0.476327786848     
3800000000.0        -0.366994742476     -0.479835054467     0.632960333716      -0.48314752249      0.632960333716      -0.48314752249      -0.366994742476     -0.479835054467     
3900000000.0        -0.379102635755     -0.482969020615     0.620852075961      -0.486369572798     0.620852075961      -0.486369572798     -0.379102635755     -0.482969020615     
4000000000.0        -0.391050156841     -0.485746194629     0.608904182392      -0.489234884929     0.608904182392      -0.489234884929     -0.391050156841     -0.485746194629     
4100000000.0        -0.402829312064     -0.48818286962      0.59712464665       -0.491759752183     0.59712464665       -0.491759752183     -0.402829312064     -0.48818286962      
4200000000.0        -0.414433186441     -0.490295066087     0.585520383692      -0.493960195226     0.585520383692      -0.493960195226     -0.414433186441     -0.490295066087     
4300000000.0        -0.425855874341     -0.492098483688     0.574097299119      -0.495851913864     0.574097299119      -0.495851913864     -0.425855874341     -0.492098483688     
4400000000.0        -0.437092411059     -0.493608460576     0.562860357612      -0.497450246374     0.562860357612      -0.497450246374     -0.437092411059     -0.493608460576     
4500000000.0        -0.448138705812     -0.494839939687     0.551813649928      -0.498770135807     0.551813649928      -0.498770135807     -0.448138705812     -0.494839939687     
4600000000.0        -0.45899147659      -0.495807441416     0.540960458052      -0.499826102644     0.540960458052      -0.499826102644     -0.45899147659      -0.495807441416     
4700000000.0        -0.469648187196     -0.496525042052     0.530303318157      -0.500632223253     0.530303318157      -0.500632223253     -0.469648187196     -0.496525042052     
4800000000.0        -0.480106986745     -0.497006357444     0.519844081106      -0.501202113541     0.519844081106      -0.501202113541     -0.480106986745     -0.497006357444     
4900000000.0        -0.490366651821     -0.497264531338     0.509583970294      -0.5015489173       0.509583970294      -0.5015489173       -0.490366651821     -0.497264531338     
5000000000.0        -0.500426531422     -0.49731222787      0.499523636699      -0.501685298695     0.499523636699      -0.501685298695     -0.500426531422     -0.49731222787      
5100000000.0        -0.510286494792     -0.497161627739     0.489663211056      -0.501623438441     0.489663211056      -0.501623438441     -0.510286494792     -0.497161627739     
5200000000.0        -0.519946882179     -0.496824427599     0.480002353099      -0.501375033198     0.480002353099      -0.501375033198     -0.519946882179     -0.496824427599     
5300000000.0        -0.529408458516     -0.496311842268     0.470540297873      -0.500951297775     0.470540297873      -0.500951297775     -0.529408458516     -0.496311842268     
5400000000.0        -0.538672370019     -0.495634609346     0.461275899141      -0.50036296975      0.461275899141      -0.50036296975      -0.538672370019     -0.495634609346     
5500000000.0        -0.547740103632     -0.494802995906     0.452207669942      -0.499620316169     0.452207669942      -0.499620316169     -0.547740103632     -0.494802995906     
5600000000.0        -0.556613449259     -0.493826806937     0.443333820352      -0.498733141976     0.443333820352      -0.498733141976     -0.556613449259     -0.493826806937     
5700000000.0        -0.56529446469      -0.492715395232     0.434652292565      -0.497710799917     0.434652292565      -0.497710799917     -0.56529446469      -0.492715395232     
5800000000.0        -0.573785443119     -0.491477672487     0.426160793365      -0.496562201626     0.426160793365      -0.496562201626     -0.573785443119     -0.491477672487     
5900000000.0        -0.582088883154     -0.490122121345     0.41785682413       -0.495295829677     0.41785682413       -0.495295829677     -0.582088883154     -0.490122121345     
6000000000.0        -0.59020746118      -0.488656808205     0.409737708455      -0.493919750394     0.409737708455      -0.493919750394     -0.59020746118      -0.488656808205     
6100000000.0        -0.598144005983     -0.487089396598     0.401800617537      -0.492441627223     0.401800617537      -0.492441627223     -0.598144005983     -0.487089396598     
6200000000.0        -0.60590147549      -0.485427160965     0.394042593434      -0.490868734511     0.394042593434      -0.490868734511     -0.60590147549      -0.485427160965     
6300000000.0        -0.613482935502     -0.483677000702     0.386460570327      -0.489207971559     0.386460570327      -0.489207971559     -0.613482935502     -0.483677000702     
6400000000.0        -0.620891540319     -0.481845454348     0.3790513939        -0.487465876801     0.3790513939        -0.487465876801     -0.620891540319     -0.481845454348     
6500000000.0        -0.628130515111     -0.479938713806     0.371811838967      -0.485648642029     0.371811838967      -0.485648642029     -0.628130515111     -0.479938713806     
6600000000.0        -0.63520313993      -0.477962638507     0.36473862546       -0.483762126558     0.36473862546       -0.483762126558     -0.63520313993      -0.477962638507     
6700000000.0        -0.642112735256     -0.475922769436     0.357828432884      -0.481811871252     0.357828432884      -0.481811871252     -0.642112735256     -0.475922769436     
6800000000.0        -0.648862648951     -0.473824342962     0.351077913362      -0.479803112355     0.351077913362      -0.479803112355     -0.648862648951     -0.473824342962     
6900000000.0        -0.655456244533     -0.47167230441      0.344483703358      -0.477740795062     0.344483703358      -0.477740795062     -0.655456244533     -0.47167230441      
7000000000.0        -0.661896890667     -0.469471321336     0.338042434196      -0.475629586796     0.338042434196      -0.475629586796     -0.661896890667     -0.469471321336     
7100000000.0        -0.668187951764     -0.467225796463     0.331750741446      -0.47347389014      0.331750741446      -0.47347389014      -0.668187951764     -0.467225796463     
7200000000.0        -0.674332779629     -0.464939880251     0.325605273292      -0.471277855417     0.325605273292      -0.471277855417     -0.674332779629     -0.464939880251     
7300000000.0        -0.680334706041     -0.462617483088     0.319602697939      -0.469045392867     0.319602697939      -0.469045392867     -0.680334706041     -0.462617483088     
7400000000.0        -0.686197036208     -0.460262287065     0.313739710163      -0.466780184439     0.313739710163      -0.466780184439     -0.686197036208     -0.460262287065     
7500000000.0        -0.691923043026     -0.457877757354     0.308013037057      -0.464485695152     0.308013037057      -0.464485695152     -0.691923043026     -0.457877757354     
7600000000.0        -0.697515962047     -0.45546715315      0.302419443053      -0.462165184052     0.302419443053      -0.462165184052     -0.697515962047     -0.45546715315      
7700000000.0        -0.702978987127     -0.453033538195     0.296955734281      -0.459821714727     0.296955734281      -0.459821714727     -0.702978987127     -0.453033538195     
7800000000.0        -0.708315266668     -0.450579790884     0.291618762326      -0.457458165419     0.291618762326      -0.457458165419     -0.708315266668     -0.450579790884     
7900000000.0        -0.713527900413     -0.448108613941     0.286405427431      -0.455077238694     0.286405427431      -0.455077238694     -0.713527900413     -0.448108613941     
8000000000.0        -0.718619936735     -0.445622543683     0.28131268121       -0.452681470713     0.28131268121       -0.452681470713     -0.718619936735     -0.445622543683     
8100000000.0        -0.723594370376     -0.44312395888      0.276337528907      -0.450273240087     0.276337528907      -0.450273240087     -0.723594370376     -0.44312395888      
8200000000.0        -0.728454140599     -0.440615089207     0.271477031245      -0.447854776332     0.271477031245      -0.447854776332     -0.728454140599     -0.440615089207     
8300000000.0        -0.733202129702     -0.438098023309     0.266728305914      -0.445428167934     0.266728305914      -0.445428167934     -0.733202129702     -0.438098023309     
8400000000.0        -0.737841161859     -0.43557471649      0.262088528727      -0.442995370036     0.262088528727      -0.442995370036     -0.737841161859     -0.43557471649      
8500000000.0        -0.742374002261     -0.433046998027     0.257554934478      -0.440558211756     0.257554934478      -0.440558211756     -0.742374002261     -0.433046998027     
8600000000.0        -0.746803356528     -0.430516578132     0.253124817537      -0.438118403144     0.253124817537      -0.438118403144     -0.746803356528     -0.430516578132     
8700000000.0        -0.751131870344     -0.427985054569     0.248795532206      -0.435677541806     0.248795532206      -0.435677541806     -0.751131870344     -0.427985054569     
8800000000.0        -0.755362129313     -0.425453918944     0.244564492867      -0.433237119186     0.244564492867      -0.433237119186     -0.755362129313     -0.425453918944     
8900000000.0        -0.759496659003     -0.422924562665     0.240429173941      -0.430798526535     0.240429173941      -0.430798526535     -0.759496659003     -0.422924562665     
9000000000.0        -0.763537925148     -0.420398282612     0.236387109681      -0.428363060572     0.236387109681      -0.428363060572     -0.763537925148     -0.420398282612     
9100000000.0        -0.767488334003     -0.417876286502     0.232435893819      -0.425931928858     0.232435893819      -0.425931928858     -0.767488334003     -0.417876286502     
9200000000.0        -0.771350232823     -0.415359697981     0.228573179088      -0.42350625488      0.228573179088      -0.42350625488      -0.771350232823     -0.415359697981     
9300000000.0        -0.775125910458     -0.412849561445     0.224796676627      -0.421087082877     0.224796676627      -0.421087082877     -0.775125910458     -0.412849561445     
9400000000.0        -0.778817598038     -0.410346846603     0.221104155291      -0.418675382405     0.221104155291      -0.418675382405     -0.778817598038     -0.410346846603     
9500000000.0        -0.782427469752     -0.407852452803     0.21749344088       -0.416272052658     0.21749344088       -0.416272052658     -0.782427469752     -0.407852452803     
9600000000.0        -0.785957643688     -0.40536721312      0.213962415294      -0.413877926557     0.213962415294      -0.413877926557     -0.785957643688     -0.40536721312      
9700000000.0        -0.789410182745     -0.402891898225     0.210509015623      -0.411493774623     0.210509015623      -0.411493774623     -0.789410182745     -0.402891898225     
9800000000.0        -0.792787095583     -0.400427220043     0.207131233193      -0.409120308629     0.207131233193      -0.409120308629     -0.792787095583     -0.400427220043     
9900000000.0        -0.79609033763      -0.39797383521      0.203827112565      -0.406758185065     0.203827112565      -0.406758185065     -0.79609033763      -0.39797383521      
10000000000.0       -0.799321812111     -0.395532348343     0.200594750502      -0.404408008402     0.200594750502      -0.404408008402     -0.799321812111     -0.395532348343     
