# Hz S RI R 50.00 
100000000.0         0.0598737519919     0.001418013981      0.940124809387      -0.00181271363347   0.940124809387      -0.00181271363347   0.0598737519919     0.001418013981      
200000000.0         0.0602502427872     0.00283346378137    0.939747720829      -0.003622863991     0.939747720829      -0.003622863991     0.0602502427872     0.00283346378137    
300000000.0         0.0605305325765     0.00424737394447    0.939466674095      -0.00543147632483   0.939466674095      -0.00543147632483   0.0605305325765     0.00424737394447    
400000000.0         0.0607640013825     0.0056600878154     0.939232289133      -0.00723889457313   0.939232289133      -0.00723889457313   0.0607640013825     0.0056600878154     
500000000.0         0.0609697392244     0.00707178982212    0.939025475898      -0.00904530369931   0.939025475898      -0.00904530369931   0.0609697392244     0.00707178982212    
600000000.0         0.0611575175612     0.00848259383836    0.938836462909      -0.0108508180752    0.938836462909      -0.0108508180752    0.0611575175612     0.00848259383836    
700000000.0         0.0613331293769     0.0098925749565     0.938659457163      -0.0126555132643    0.938659457163      -0.0126555132643    0.0613331293769     0.0098925749565     
800000000.0         0.0615003411505     0.0113017842382     0.938490692162      -0.0144594407786    0.938490692162      -0.0144594407786    0.0615003411505     0.0113017842382     
900000000.0         0.0616617632704     0.0127102566437     0.938327557498      -0.0162626360119    0.938327557498      -0.0162626360119    0.0616617632704     0.0127102566437     
1000000000.0        0.0618192918738     0.0141180157292     0.938168157016      -0.0180651229401    0.938168157016      -0.0180651229401    0.0618192918738     0.0141180157292     
1100000000.0        0.0619743548157     0.015525076633      0.938011062844      -0.0198669171091    0.938011062844      -0.0198669171091    0.0619743548157     0.015525076633      
1200000000.0        0.0621280584452     0.0169314480752     0.937855168616      -0.0216680276367    0.937855168616      -0.0216680276367    0.0621280584452     0.0169314480752     
1300000000.0        0.0622812800815     0.0183371337555     0.937699596993      -0.0234684586111    0.937699596993      -0.0234684586111    0.0622812800815     0.0183371337555     
1400000000.0        0.0624347288843     0.0197421333634     0.9375436388        -0.0252682101022    0.9375436388        -0.0252682101022    0.0624347288843     0.0197421333634     
1500000000.0        0.0625889873912     0.0211464433276     0.93738671148       -0.0270672789119    0.93738671148       -0.0270672789119    0.0625889873912     0.0211464433276     
1600000000.0        0.062744540732      0.022550057387      0.937228329885      -0.0288656591461    0.937228329885      -0.0288656591461    0.062744540732      0.022550057387      
1700000000.0        0.0629017977115     0.0239529670335     0.937068085194      -0.0306633426573    0.937068085194      -0.0306633426573    0.0629017977115     0.0239529670335     
1800000000.0        0.0630611063653     0.0253551618611     0.93690562935       -0.0324603193947    0.93690562935       -0.0324603193947    0.0630611063653     0.0253551618611     
1900000000.0        0.0632227656616     0.0267566298459     0.936740663368      -0.0342565776849    0.936740663368      -0.0342565776849    0.0632227656616     0.0267566298459     
2000000000.0        0.0633870344542     0.0281573575741     0.936572928375      -0.0360521044594    0.936572928375      -0.0360521044594    0.0633870344542     0.0281573575741     
2100000000.0        0.0635541384368     0.0295573304281     0.936402198656      -0.0378468854419    0.936402198656      -0.0378468854419    0.0635541384368     0.0295573304281     
2200000000.0        0.0637242756177     0.0309565327421     0.936228276185      -0.0396409053037    0.936228276185      -0.0396409053037    0.0637242756177     0.0309565327421     
2300000000.0        0.0638976206817     0.0323549479323     0.936050986255      -0.0414341477941    0.936050986255      -0.0414341477941    0.0638976206817     0.0323549479323     
2400000000.0        0.0640743285042     0.0337525586067     0.93587017397       -0.0432265958507    0.93587017397       -0.0432265958507    0.0640743285042     0.0337525586067     
2500000000.0        0.0642545370089     0.0351493466593     0.935685701387      -0.0450182316936    0.935685701387      -0.0450182316936    0.0642545370089     0.0351493466593     
2600000000.0        0.0644383695153     0.0365452933501     0.935497445162      -0.0468090369057    0.935497445162      -0.0468090369057    0.0644383695153     0.0365452933501     
2700000000.0        0.0646259366802     0.0379403793752     0.935305294619      -0.0485989925029    0.935305294619      -0.0485989925029    0.0646259366802     0.0379403793752     
2800000000.0        0.0648173381177     0.0393345849271     0.93510915012       -0.0503880789946    0.93510915012       -0.0503880789946    0.0648173381177     0.0393345849271     
2900000000.0        0.06501266376       0.0407278897479     0.934908921709      -0.0521762764369    0.934908921709      -0.0521762764369    0.06501266376       0.0407278897479     
3000000000.0        0.065211995007      0.0421202731756     0.934704527965      -0.0539635644792    0.934704527965      -0.0539635644792    0.065211995007      0.0421202731756     
3100000000.0        0.0654154057042     0.0435117141855     0.934495895017      -0.0557499224055    0.934495895017      -0.0557499224055    0.0654154057042     0.0435117141855     
3200000000.0        0.0656229629798     0.0449021914265     0.934282955712      -0.0575353291711    0.934282955712      -0.0575353291711    0.0656229629798     0.0449021914265     
3300000000.0        0.065834727963      0.0462916832539     0.934065648898      -0.0593197634353    0.934065648898      -0.0593197634353    0.065834727963      0.0462916832539     
3400000000.0        0.0660507564053     0.0476801677587     0.933843918797      -0.0611032035906    0.933843918797      -0.0611032035906    0.0660507564053     0.0476801677587     
3500000000.0        0.0662710992201     0.0490676227932     0.93361771447       -0.062885627789     0.93361771447       -0.062885627789     0.0662710992201     0.0490676227932     
3600000000.0        0.0664958029519     0.0504540259955     0.933386989347      -0.0646670139658    0.933386989347      -0.0646670139658    0.0664958029519     0.0504540259955     
3700000000.0        0.0667249101878     0.0518393548103     0.933151700813      -0.0664473398611    0.933151700813      -0.0664473398611    0.0667249101878     0.0518393548103     
3800000000.0        0.0669584599189     0.0532235865088     0.93291180985       -0.0682265830394    0.93291180985       -0.0682265830394    0.0669584599189     0.0532235865088     
3900000000.0        0.0671964878584     0.054606698206      0.932667280718      -0.0700047209072    0.932667280718      -0.0700047209072    0.0671964878584     0.054606698206      
4000000000.0        0.0674390267237     0.0559886668774     0.932418080671      -0.0717817307296    0.932418080671      -0.0717817307296    0.0674390267237     0.0559886668774     
4100000000.0        0.0676861064864     0.0573694693735     0.932164179709      -0.0735575896447    0.932164179709      -0.0735575896447    0.0676861064864     0.0573694693735     
4200000000.0        0.0679377545949     0.0587490824336     0.931905550354      -0.0753322746781    0.931905550354      -0.0753322746781    0.0679377545949     0.0587490824336     
4300000000.0        0.0681939961733     0.0601274826984     0.931642167452      -0.0771057627547    0.931642167452      -0.0771057627547    0.0681939961733     0.0601274826984     
4400000000.0        0.0684548541992     0.0615046467216     0.931374007997      -0.0788780307111    0.931374007997      -0.0788780307111    0.0684548541992     0.0615046467216     
4500000000.0        0.0687203496641     0.0628805509808     0.931101050966      -0.0806490553058    0.931101050966      -0.0806490553058    0.0687203496641     0.0628805509808     
4600000000.0        0.0689905017164     0.0642551718875     0.930823277179      -0.0824188132299    0.930823277179      -0.0824188132299    0.0689905017164     0.0642551718875     
4700000000.0        0.0692653277921     0.0656284857961     0.93054066917       -0.0841872811159    0.93054066917       -0.0841872811159    0.0692653277921     0.0656284857961     
4800000000.0        0.0695448437317     0.0670004690131     0.930253211064      -0.0859544355469    0.930253211064      -0.0859544355469    0.0695448437317     0.0670004690131     
4900000000.0        0.0698290638868     0.0683710978049     0.92996088848       -0.0877202530642    0.92996088848       -0.0877202530642    0.0698290638868     0.0683710978049     
5000000000.0        0.0701180012165     0.0697403484053     0.929663688424      -0.0894847101758    0.929663688424      -0.0894847101758    0.0701180012165     0.0697403484053     
5100000000.0        0.0704116673759     0.0711081970232     0.929361599207      -0.0912477833624    0.929361599207      -0.0912477833624    0.0704116673759     0.0711081970232     
5200000000.0        0.0707100727958     0.0724746198486     0.929054610366      -0.0930094490854    0.929054610366      -0.0930094490854    0.0707100727958     0.0724746198486     
5300000000.0        0.0710132267566     0.0738395930593     0.928742712585      -0.0947696837921    0.928742712585      -0.0947696837921    0.0710132267566     0.0738395930593     
5400000000.0        0.0713211374551     0.0752030928271     0.928425897633      -0.0965284639228    0.928425897633      -0.0965284639228    0.0713211374551     0.0752030928271     
5500000000.0        0.071633812066      0.0765650953228     0.928104158299      -0.0982857659154    0.928104158299      -0.0982857659154    0.071633812066      0.0765650953228     
5600000000.0        0.071951256799      0.0779255767221     0.927777488337      -0.100041566212     0.927777488337      -0.100041566212     0.071951256799      0.0779255767221     
5700000000.0        0.0722734769504     0.0792845132103     0.927445882417      -0.101795841261     0.927445882417      -0.101795841261     0.0722734769504     0.0792845132103     
5800000000.0        0.0726004769512     0.0806418809875     0.927109336068      -0.103548567529     0.927109336068      -0.103548567529     0.0726004769512     0.0806418809875     
5900000000.0        0.0729322604116     0.0819976562727     0.926767845645      -0.105299721494     0.926767845645      -0.105299721494     0.0729322604116     0.0819976562727     
6000000000.0        0.0732688301619     0.0833518153084     0.926421408278      -0.107049279663     0.926421408278      -0.107049279663     0.0732688301619     0.0833518153084     
6100000000.0        0.0736101882905     0.0847043343648     0.926070021841      -0.108797218564     0.926070021841      -0.108797218564     0.0736101882905     0.0847043343648     
6200000000.0        0.0739563361789     0.0860551897437     0.925713684914      -0.110543514759     0.925713684914      -0.110543514759     0.0739563361789     0.0860551897437     
6300000000.0        0.0743072745349     0.087404357782      0.92535239675       -0.112288144842     0.92535239675       -0.112288144842     0.0743072745349     0.087404357782      
6400000000.0        0.0746630034223     0.088751814856      0.924986157244      -0.114031085448     0.924986157244      -0.114031085448     0.0746630034223     0.088751814856      
6500000000.0        0.0750235222899     0.090097537384      0.92461496691       -0.115772313249     0.92461496691       -0.115772313249     0.0750235222899     0.090097537384      
6600000000.0        0.0753888299975     0.0914415018303     0.924238826844      -0.117511804966     0.924238826844      -0.117511804966     0.0753888299975     0.0914415018303     
6700000000.0        0.0757589248406     0.0927836847082     0.923857738712      -0.119249537366     0.923857738712      -0.119249537366     0.0757589248406     0.0927836847082     
6800000000.0        0.0761338045738     0.0941240625831     0.923471704717      -0.120985487266     0.923471704717      -0.120985487266     0.0761338045738     0.0941240625831     
6900000000.0        0.0765134664318     0.095462612075      0.923080727582      -0.12271963154      0.923080727582      -0.12271963154      0.0765134664318     0.095462612075      
7000000000.0        0.0768979071503     0.0967993098623     0.922684810528      -0.124451947116     0.922684810528      -0.124451947116     0.0768979071503     0.0967993098623     
7100000000.0        0.0772871229843     0.0981341326835     0.922283957258      -0.126182410983     0.922283957258      -0.126182410983     0.0772871229843     0.0981341326835     
7200000000.0        0.0776811097265     0.0994670573406     0.921878171935      -0.127911000193     0.921878171935      -0.127911000193     0.0776811097265     0.0994670573406     
7300000000.0        0.0780798627238     0.100798060701      0.921467459169      -0.129637691861     0.921467459169      -0.129637691861     0.0780798627238     0.100798060701      
7400000000.0        0.0784833768931     0.102127119701      0.921051823998      -0.131362463171     0.921051823998      -0.131362463171     0.0784833768931     0.102127119701      
7500000000.0        0.0788916467363     0.103454211348      0.920631271875      -0.133085291375     0.920631271875      -0.133085291375     0.0788916467363     0.103454211348      
7600000000.0        0.0793046663542     0.104779312719      0.920205808655      -0.1348061538       0.920205808655      -0.1348061538       0.0793046663542     0.104779312719      
7700000000.0        0.0797224294599     0.106102400971      0.919775440577      -0.136525027844     0.919775440577      -0.136525027844     0.0797224294599     0.106102400971      
7800000000.0        0.0801449293913     0.107423453336      0.919340174258      -0.138241890984     0.919340174258      -0.138241890984     0.0801449293913     0.107423453336      
7900000000.0        0.080572159123      0.108742447123      0.918900016677      -0.139956720774     0.918900016677      -0.139956720774     0.080572159123      0.108742447123      
8000000000.0        0.0810041112775     0.110059359728      0.918454975163      -0.14166949485      0.918454975163      -0.14166949485      0.0810041112775     0.110059359728      
8100000000.0        0.0814407781361     0.111374168625      0.918005057388      -0.14338019093      0.918005057388      -0.14338019093      0.0814407781361     0.111374168625      
8200000000.0        0.0818821516486     0.112686851377      0.917550271353      -0.145088786816     0.917550271353      -0.145088786816     0.0818821516486     0.112686851377      
8300000000.0        0.0823282234437     0.113997385633      0.917090625381      -0.146795260397     0.917090625381      -0.146795260397     0.0823282234437     0.113997385633      
8400000000.0        0.0827789848372     0.11530574913       0.916626128107      -0.14849958965      0.916626128107      -0.14849958965      0.0827789848372     0.11530574913       
8500000000.0        0.0832344268417     0.116611919697      0.91615678847       -0.150201752643     0.91615678847       -0.150201752643     0.0832344268417     0.116611919697      
8600000000.0        0.0836945401744     0.117915875256      0.915682615701      -0.151901727535     0.915682615701      -0.151901727535     0.0836945401744     0.117915875256      
8700000000.0        0.084159315265      0.119217593822      0.91520361932       -0.153599492578     0.91520361932       -0.153599492578     0.084159315265      0.119217593822      
8800000000.0        0.0846287422638     0.120517053506      0.914719809127      -0.15529502612      0.914719809127      -0.15529502612      0.0846287422638     0.120517053506      
8900000000.0        0.0851028110482     0.121814232516      0.914231195191      -0.156988306606     0.914231195191      -0.156988306606     0.0851028110482     0.121814232516      
9000000000.0        0.0855815112306     0.123109109161      0.91373778785       -0.158679312576     0.91373778785       -0.158679312576     0.0855815112306     0.123109109161      
9100000000.0        0.0860648321643     0.124401661848      0.913239597697      -0.160368022675     0.913239597697      -0.160368022675     0.0860648321643     0.124401661848      
9200000000.0        0.0865527629501     0.125691869087      0.912736635578      -0.162054415644     0.912736635578      -0.162054415644     0.0865527629501     0.125691869087      
9300000000.0        0.0870452924428     0.126979709491      0.912228912587      -0.16373847033      0.912228912587      -0.16373847033      0.0870452924428     0.126979709491      
9400000000.0        0.0875424092566     0.128265161777      0.911716440053      -0.165420165683     0.911716440053      -0.165420165683     0.0875424092566     0.128265161777      
9500000000.0        0.088044101771      0.12954820477       0.911199229545      -0.167099480759     0.911199229545      -0.167099480759     0.088044101771      0.12954820477       
9600000000.0        0.0885503581361     0.1308288174        0.910677292857      -0.168776394718     0.910677292857      -0.168776394718     0.0885503581361     0.1308288174        
9700000000.0        0.0890611662783     0.132106978707      0.910150642007      -0.170450886831     0.910150642007      -0.170450886831     0.0890611662783     0.132106978707      
9800000000.0        0.0895765139048     0.133382667841      0.909619289233      -0.172122936477     0.909619289233      -0.172122936477     0.0895765139048     0.133382667841      
9900000000.0        0.0900963885086     0.134655864062      0.909083246986      -0.173792523146     0.909083246986      -0.173792523146     0.0900963885086     0.134655864062      
10000000000.0       0.0906207773738     0.135926546744      0.908542527926      -0.175459626439     0.908542527926      -0.175459626439     0.0906207773738     0.135926546744      
