# Hz S RI R 50.00 
100000000.0         0.00715938522246    0.00106334315134    0.99283054474       -0.00447685674746   0.99283054474       -0.00447685674746   0.00715938522246    0.00106334315134    
200000000.0         0.00721961126454    0.00212607612852    0.992749568041      -0.00895307369387   0.992749568041      -0.00895307369387   0.00721961126454    0.00212607612852    
300000000.0         0.00727691396459    0.00318831890224    0.992659833462      -0.0134287537412    0.992659833462      -0.0134287537412    0.00727691396459    0.00318831890224    
400000000.0         0.00733746557379    0.0042500536617     0.992555168107      -0.0179038597133    0.992555168107      -0.0179038597133    0.00733746557379    0.0042500536617     
500000000.0         0.00740364053016    0.00531123081214    0.992433196815      -0.0223783214962    0.992433196815      -0.0223783214962    0.00740364053016    0.00531123081214    
600000000.0         0.00747664704621    0.00637178680153    0.992292710567      -0.0268520542644    0.992292710567      -0.0268520542644    0.00747664704621    0.00637178680153    
700000000.0         0.00755719605647    0.0074316505037     0.992132997532      -0.0313249650672    0.992132997532      -0.0313249650672    0.00755719605647    0.0074316505037     
800000000.0         0.00764574534508    0.0084907461719     0.991953598943      -0.0357969559027    0.991953598943      -0.0357969559027    0.00764574534508    0.0084907461719     
900000000.0         0.00774260823422    0.00954899502279    0.99175420041       -0.040267925381     0.99175420041       -0.040267925381     0.00774260823422    0.00954899502279    
1000000000.0        0.00784800867057    0.0106063161736     0.991534576835      -0.0447377697161    0.991534576835      -0.0447377697161    0.00784800867057    0.0106063161736     
1100000000.0        0.00796211184361    0.0116626272382     0.991294561794      -0.0492063833623    0.991294561794      -0.0492063833623    0.00796211184361    0.0116626272382     
1200000000.0        0.00808504242826    0.0127178447268     0.991034029298      -0.0536736594447    0.991034029298      -0.0536736594447    0.00808504242826    0.0127178447268     
1300000000.0        0.0082168960608     0.013771884327      0.990752882317      -0.0581394900632    0.990752882317      -0.0581394900632    0.0082168960608     0.013771884327      
1400000000.0        0.00835774688123    0.0148246611078     0.990451045239      -0.0626037665155    0.990451045239      -0.0626037665155    0.00835774688123    0.0148246611078     
1500000000.0        0.00850765267235    0.0158760896727     0.990128458737      -0.0670663794654    0.990128458737      -0.0670663794654    0.00850765267235    0.0158760896727     
1600000000.0        0.0086666584689     0.0169260842775     0.989785076153      -0.071527219073     0.989785076153      -0.071527219073     0.0086666584689     0.0169260842775     
1700000000.0        0.0088347991585     0.0179745589232     0.989420860905      -0.0759861750976    0.989420860905      -0.0759861750976    0.0088347991585     0.0179745589232     
1800000000.0        0.00901210139812    0.0190214274311     0.989035784571      -0.0804431369815    0.989035784571      -0.0804431369815    0.00901210139812    0.0190214274311     
1900000000.0        0.00919858505387    0.0200666035034     0.988629825448      -0.0848979939181    0.988629825448      -0.0848979939181    0.00919858505387    0.0200666035034     
2000000000.0        0.00939426430142    0.0211100007751     0.988202967452      -0.0893506349095    0.988202967452      -0.0893506349095    0.00939426430142    0.0211100007751     
2100000000.0        0.00959914847984    0.0221515328567     0.987755199272      -0.0938009488148    0.987755199272      -0.0938009488148    0.00959914847984    0.0221515328567     
2200000000.0        0.00981324276311    0.0231911133715     0.98728651369       -0.0982488243919    0.98728651369       -0.0982488243919    0.00981324276311    0.0231911133715     
2300000000.0        0.010036548695      0.0242286559881     0.986796907055      -0.102694150334     0.986796907055      -0.102694150334     0.010036548695      0.0242286559881     
2400000000.0        0.0102690646195     0.025264074449      0.986286378851      -0.107136815301     0.986286378851      -0.107136815301     0.0102690646195     0.025264074449      
2500000000.0        0.0105107860314     0.0262972825959     0.985754931344      -0.111576707949     0.985754931344      -0.111576707949     0.0105107860314     0.0262972825959     
2600000000.0        0.0107617058635     0.0273281943924     0.985202569303      -0.116013716953     0.985202569303      -0.116013716953     0.0107617058635     0.0273281943924     
2700000000.0        0.0110218147249     0.0283567239452     0.984629299754      -0.120447731034     0.984629299754      -0.120447731034     0.0110218147249     0.0283567239452     
2800000000.0        0.0112911011003     0.0293827855232     0.98403513179       -0.124878638976     0.98403513179       -0.124878638976     0.0112911011003     0.0293827855232     
2900000000.0        0.0115695515165     0.0304062935746     0.9834200764        -0.129306329649     0.9834200764        -0.129306329649     0.0115695515165     0.0304062935746     
3000000000.0        0.0118571506848     0.0314271627438     0.982784146328      -0.133730692024     0.982784146328      -0.133730692024     0.0118571506848     0.0314271627438     
3100000000.0        0.0121538816217     0.0324453078866     0.982127355955      -0.13815161519      0.982127355955      -0.13815161519      0.0121538816217     0.0324453078866     
3200000000.0        0.0124597257524     0.0334606440849     0.981449721196      -0.142568988371     0.981449721196      -0.142568988371     0.0124597257524     0.0334606440849     
3300000000.0        0.0127746630007     0.03447308666       0.980751259409      -0.14698270094      0.980751259409      -0.14698270094      0.0127746630007     0.03447308666       
3400000000.0        0.0130986718666     0.0354825511859     0.980031989321      -0.151392642431     0.980031989321      -0.151392642431     0.0130986718666     0.0354825511859     
3500000000.0        0.0134317294943     0.0364889535019     0.979291930957      -0.155798702555     0.979291930957      -0.155798702555     0.0134317294943     0.0364889535019     
3600000000.0        0.0137738117322     0.0374922097242     0.978531105587      -0.160200771211     0.978531105587      -0.160200771211     0.0137738117322     0.0374922097242     
3700000000.0        0.0141248931848     0.0384922362578     0.977749535668      -0.164598738499     0.977749535668      -0.164598738499     0.0141248931848     0.0384922362578     
3800000000.0        0.0144849472604     0.0394889498073     0.9769472448        -0.168992494729     0.9769472448        -0.168992494729     0.0144849472604     0.0394889498073     
3900000000.0        0.014853946212      0.0404822673878     0.976124257687      -0.173381930433     0.976124257687      -0.173381930433     0.014853946212      0.0404822673878     
4000000000.0        0.0152318611751     0.0414721063355     0.975280600099      -0.17776693638      0.975280600099      -0.17776693638      0.0152318611751     0.0414721063355     
4100000000.0        0.0156186622013     0.0424583843173     0.974416298839      -0.182147403578     0.974416298839      -0.182147403578     0.0156186622013     0.0424583843173     
4200000000.0        0.0160143182886     0.0434410193414     0.973531381712      -0.186523223291     0.973531381712      -0.186523223291     0.0160143182886     0.0434410193414     
4300000000.0        0.0164187974092     0.0444199297663     0.972625877501      -0.190894287046     0.972625877501      -0.190894287046     0.0164187974092     0.0444199297663     
4400000000.0        0.0168320665344     0.0453950343106     0.97169981594       -0.19526048664      0.97169981594       -0.19526048664      0.0168320665344     0.0453950343106     
4500000000.0        0.0172540916586     0.0463662520622     0.970753227693      -0.199621714155     0.970753227693      -0.199621714155     0.0172540916586     0.0463662520622     
4600000000.0        0.0176848378196     0.0473335024868     0.969786144333      -0.20397786196      0.969786144333      -0.20397786196      0.0176848378196     0.0473335024868     
4700000000.0        0.0181242691192     0.0482967054376     0.96879859832       -0.208328822725     0.96879859832       -0.208328822725     0.0181242691192     0.0482967054376     
4800000000.0        0.0185723487413     0.0492557811632     0.96779062299       -0.212674489427     0.96779062299       -0.212674489427     0.0185723487413     0.0492557811632     
4900000000.0        0.019029038969      0.0502106503165     0.966762252532      -0.217014755358     0.966762252532      -0.217014755358     0.019029038969      0.0502106503165     
5000000000.0        0.0194943012004     0.0511612339629     0.965713521976      -0.221349514133     0.965713521976      -0.221349514133     0.0194943012004     0.0511612339629     
5100000000.0        0.0199680959646     0.0521074535888     0.964644467177      -0.225678659701     0.964644467177      -0.225678659701     0.0199680959646     0.0521074535888     
5200000000.0        0.0204503829348     0.0530492311091     0.963555124803      -0.230002086348     0.963555124803      -0.230002086348     0.0204503829348     0.0530492311091     
5300000000.0        0.0209411209429     0.0539864888758     0.962445532321      -0.234319688708     0.962445532321      -0.234319688708     0.0209411209429     0.0539864888758     
5400000000.0        0.0214402679918     0.0549191496854     0.961315727984      -0.238631361768     0.961315727984      -0.238631361768     0.0214402679918     0.0549191496854     
5500000000.0        0.0219477812679     0.0558471367869     0.960165750823      -0.242937000877     0.960165750823      -0.242937000877     0.0219477812679     0.0558471367869     
5600000000.0        0.0224636171528     0.0567703738889     0.95899564063       -0.247236501753     0.95899564063       -0.247236501753     0.0224636171528     0.0567703738889     
5700000000.0        0.0229877312347     0.0576887851677     0.957805437953      -0.251529760489     0.957805437953      -0.251529760489     0.0229877312347     0.0576887851677     
5800000000.0        0.0235200783195     0.0586022952741     0.956595184084      -0.255816673559     0.956595184084      -0.255816673559     0.0235200783195     0.0586022952741     
5900000000.0        0.024060612441      0.059510829341      0.955364921045      -0.26009713783      0.955364921045      -0.26009713783      0.024060612441      0.059510829341      
6000000000.0        0.0246092868717     0.0604143129904     0.954114691586      -0.264371050561     0.954114691586      -0.264371050561     0.0246092868717     0.0604143129904     
6100000000.0        0.0251660541321     0.0613126723404     0.952844539168      -0.268638309413     0.952844539168      -0.268638309413     0.0251660541321     0.0613126723404     
6200000000.0        0.025730866001      0.0622058340123     0.951554507962      -0.272898812459     0.951554507962      -0.272898812459     0.025730866001      0.0622058340123     
6300000000.0        0.0263036735246     0.0630937251372     0.950244642831      -0.277152458182     0.950244642831      -0.277152458182     0.0263036735246     0.0630937251372     
6400000000.0        0.0268844270261     0.0639762733628     0.94891498933       -0.281399145491     0.94891498933       -0.281399145491     0.0268844270261     0.0639762733628     
6500000000.0        0.0274730761146     0.0648534068602     0.947565593692      -0.285638773716     0.947565593692      -0.285638773716     0.0274730761146     0.0648534068602     
6600000000.0        0.0280695696939     0.06572505433       0.946196502821      -0.289871242626     0.946196502821      -0.289871242626     0.0280695696939     0.06572505433       
6700000000.0        0.0286738559719     0.0665911450093     0.944807764286      -0.294096452422     0.944807764286      -0.294096452422     0.0286738559719     0.0665911450093     
6800000000.0        0.0292858824685     0.0674516086776     0.943399426311      -0.298314303755     0.943399426311      -0.298314303755     0.0292858824685     0.0674516086776     
6900000000.0        0.0299055960248     0.0683063756632     0.941971537767      -0.302524697723     0.941971537767      -0.302524697723     0.0299055960248     0.0683063756632     
7000000000.0        0.0305329428114     0.0691553768493     0.940524148165      -0.306727535878     0.940524148165      -0.306727535878     0.0305329428114     0.0691553768493     
7100000000.0        0.0311678683364     0.0699985436799     0.939057307648      -0.310922720235     0.939057307648      -0.310922720235     0.0311678683364     0.0699985436799     
7200000000.0        0.0318103174544     0.0708358081661     0.937571066984      -0.315110153273     0.937571066984      -0.315110153273     0.0318103174544     0.0708358081661     
7300000000.0        0.0324602343741     0.0716671028917     0.936065477558      -0.319289737943     0.936065477558      -0.319289737943     0.0324602343741     0.0716671028917     
7400000000.0        0.0331175626669     0.0724923610189     0.934540591364      -0.323461377673     0.934540591364      -0.323461377673     0.0331175626669     0.0724923610189     
7500000000.0        0.0337822452749     0.073311516294      0.932996460999      -0.327624976368     0.932996460999      -0.327624976368     0.0337822452749     0.073311516294      
7600000000.0        0.0344542245189     0.0741245030532     0.931433139652      -0.331780438424     0.931433139652      -0.331780438424     0.0344542245189     0.0741245030532     
7700000000.0        0.0351334421065     0.0749312562278     0.929850681104      -0.335927668723     0.929850681104      -0.335927668723     0.0351334421065     0.0749312562278     
7800000000.0        0.0358198391402     0.0757317113496     0.928249139711      -0.340066572645     0.928249139711      -0.340066572645     0.0358198391402     0.0757317113496     
7900000000.0        0.0365133561251     0.0765258045564     0.926628570407      -0.344197056068     0.926628570407      -0.344197056068     0.0365133561251     0.0765258045564     
8000000000.0        0.0372139329774     0.0773134725968     0.924989028687      -0.348319025375     0.924989028687      -0.348319025375     0.0372139329774     0.0773134725968     
8100000000.0        0.0379215090316     0.0780946528357     0.923330570608      -0.352432387458     0.923330570608      -0.352432387458     0.0379215090316     0.0780946528357     
8200000000.0        0.0386360230491     0.0788692832592     0.921653252777      -0.356537049721     0.921653252777      -0.356537049721     0.0386360230491     0.0788692832592     
8300000000.0        0.0393574132256     0.0796373024792     0.919957132344      -0.360632920083     0.919957132344      -0.360632920083     0.0393574132256     0.0796373024792     
8400000000.0        0.0400856171993     0.0803986497387     0.918242266997      -0.364719906987     0.918242266997      -0.364719906987     0.0400856171993     0.0803986497387     
8500000000.0        0.0408205720586     0.081153264916      0.916508714955      -0.3687979194       0.916508714955      -0.3687979194       0.0408205720586     0.081153264916      
8600000000.0        0.04156221435       0.0819010885299     0.914756534958      -0.372866866815     0.914756534958      -0.372866866815     0.04156221435       0.0819010885299     
8700000000.0        0.0423104800859     0.0826420617437     0.912985786262      -0.376926659261     0.912985786262      -0.376926659261     0.0423104800859     0.0826420617437     
8800000000.0        0.0430653047528     0.08337612637       0.911196528633      -0.380977207301     0.911196528633      -0.380977207301     0.0430653047528     0.08337612637       
8900000000.0        0.0438266233185     0.0841032248747     0.909388822337      -0.385018422038     0.909388822337      -0.385018422038     0.0438266233185     0.0841032248747     
9000000000.0        0.0445943702408     0.0848233003817     0.907562728136      -0.389050215118     0.907562728136      -0.389050215118     0.0445943702408     0.0848233003817     
9100000000.0        0.0453684794743     0.0855362966768     0.905718307276      -0.393072498733     0.905718307276      -0.393072498733     0.0453684794743     0.0855362966768     
9200000000.0        0.0461488844793     0.0862421582116     0.903855621488      -0.397085185625     0.903855621488      -0.397085185625     0.0461488844793     0.0862421582116     
9300000000.0        0.046935518229      0.0869408301078     0.901974732973      -0.401088189088     0.901974732973      -0.401088189088     0.046935518229      0.0869408301078     
9400000000.0        0.0477283132173     0.087632258161      0.9000757044        -0.405081422975     0.9000757044        -0.405081422975     0.0477283132173     0.087632258161      
9500000000.0        0.0485272014672     0.0883163888441     0.898158598897      -0.409064801693     0.898158598897      -0.409064801693     0.0485272014672     0.0883163888441     
9600000000.0        0.0493321145381     0.0889931693118     0.896223480042      -0.413038240214     0.896223480042      -0.413038240214     0.0493321145381     0.0889931693118     
9700000000.0        0.0501429835337     0.0896625474033     0.894270411861      -0.417001654073     0.894270411861      -0.417001654073     0.0501429835337     0.0896625474033     
9800000000.0        0.0509597391103     0.0903244716463     0.892299458817      -0.420954959373     0.892299458817      -0.420954959373     0.0509597391103     0.0903244716463     
9900000000.0        0.051782311484      0.0909788912605     0.890310685804      -0.424898072786     0.890310685804      -0.424898072786     0.051782311484      0.0909788912605     
10000000000.0       0.0526106304392     0.0916257561606     0.888304158141      -0.428830911557     0.888304158141      -0.428830911557     0.0526106304392     0.0916257561606     
