# Hz S RI R 50.00 
100000000.0         3.66886235681e-06   -0.000289729836021  0.999994551783      -0.000316055768779  0.999994551783      -0.000316055768779  3.66886235703e-06   -0.00028972983602   
200000000.0         3.12709319861e-06   -0.00057947346785   0.999993947153      -0.000632126827405  0.999993947153      -0.000632126827405  3.12709319839e-06   -0.00057947346785   
300000000.0         2.3941856222e-06    -0.000869237987985  0.999993166514      -0.000948221038728  0.999993166514      -0.000948221038728  2.3941856222e-06    -0.000869237987985  
400000000.0         1.47400919959e-06   -0.00115902874356   0.999992205871      -0.00126434434362   0.999992205871      -0.00126434434362   1.47400919959e-06   -0.00115902874356   
500000000.0         3.68001485951e-07   -0.00144885018124   0.999991063648      -0.00158050169377   0.999991063648      -0.00158050169377   3.68001485951e-07   -0.00144885018124   
600000000.0         -9.23150545895e-07  -0.00173870614804   0.999989738997      -0.00189669738312   0.999989738997      -0.00189669738312   -9.23150545895e-07  -0.00173870614804   
700000000.0         -2.39908333566e-06  -0.00202860004613   0.99998823138       -0.00221293521835   0.99998823138       -0.00221293521835   -2.39908333588e-06  -0.00202860004613   
800000000.0         -4.05959953798e-06  -0.00231853491609   0.999986540411      -0.00252921861146   0.999986540411      -0.00252921861146   -4.05959953786e-06  -0.00231853491609   
900000000.0         -5.90459872829e-06  -0.00260851350755   0.999984665791      -0.00284555065652   0.999984665791      -0.00284555065652   -5.90459872862e-06  -0.00260851350755   
1000000000.0        -7.93404196864e-06  -0.00289853832027   0.999982607269      -0.0031619341751    0.999982607269      -0.0031619341751    -7.93404196875e-06  -0.00289853832027   
1100000000.0        -1.01479313332e-05  -0.00318861163293   0.999980364627      -0.00347837174821   0.999980364627      -0.00347837174821   -1.01479313329e-05  -0.00318861163293   
1200000000.0        -1.25462983361e-05  -0.00347873553503   0.999977937667      -0.00379486575066   0.999977937667      -0.00379486575066   -1.25462983361e-05  -0.00347873553503   
1300000000.0        -1.51291962032e-05  -0.00376891193982   0.999975326204      -0.00411141836592   0.999975326204      -0.00411141836592   -1.51291962032e-05  -0.00376891193982   
1400000000.0        -1.78966946371e-05  -0.0040591426053    0.999972530064      -0.00442803160861   0.999972530064      -0.00442803160861   -1.78966946371e-05  -0.0040591426053    
1500000000.0        -2.08488762913e-05  -0.00434942914801   0.999969549078      -0.0047447073396    0.999969549078      -0.0047447073396    -2.08488762911e-05  -0.00434942914801   
1600000000.0        -2.39858341449e-05  -0.00463977304941   0.999966383082      -0.00506144727348   0.999966383082      -0.00506144727348   -2.39858341449e-05  -0.00463977304941   
1700000000.0        -2.73076696743e-05  -0.00493017567101   0.999963031914      -0.00537825299451   0.999963031914      -0.00537825299451   -2.73076696746e-05  -0.00493017567101   
1800000000.0        -3.08144912302e-05  -0.00522063826038   0.999959495417      -0.00569512596346   0.999959495417      -0.00569512596346   -3.08144912301e-05  -0.00522063826038   
1900000000.0        -3.4506412947e-05   -0.00551116196019   0.999955773432      -0.00601206752732   0.999955773432      -0.00601206752732   -3.45064129468e-05  -0.00551116196019   
2000000000.0        -3.83835538589e-05  -0.00580174781177   0.999951865803      -0.00632907892342   0.999951865803      -0.00632907892342   -3.83835538589e-05  -0.00580174781177   
2100000000.0        -4.24460370874e-05  -0.00609239676523   0.999947772376      -0.00664616129009   0.999947772376      -0.00664616129009   -4.24460370871e-05  -0.00609239676523   
2200000000.0        -4.66939892018e-05  -0.00638310968177   0.999943492994      -0.00696331566942   0.999943492994      -0.00696331566942   -4.66939892019e-05  -0.00638310968177   
2300000000.0        -5.11275397812e-05  -0.00667388734024   0.999939027504      -0.00728054301425   0.999939027504      -0.00728054301425   -5.11275397811e-05  -0.00667388734024   
2400000000.0        -5.57468208319e-05  -0.00696473043937   0.999934375752      -0.00759784419073   0.999934375752      -0.00759784419073   -5.57468208318e-05  -0.00696473043937   
2500000000.0        -6.05519664583e-05  -0.00725563960423   0.999929537584      -0.00791521998522   0.999929537584      -0.00791521998522   -6.05519664583e-05  -0.00725563960423   
2600000000.0        -6.55431125361e-05  -0.00754661538876   0.999924512846      -0.00823267110697   0.999924512846      -0.00823267110697   -6.55431125361e-05  -0.00754661538876   
2700000000.0        -7.07203963702e-05  -0.00783765827935   0.999919301387      -0.00855019819215   0.999919301387      -0.00855019819215   -7.07203963701e-05  -0.00783765827935   
2800000000.0        -7.60839564488e-05  -0.00812876869845   0.999913903052      -0.0088678018076    0.999913903052      -0.0088678018076    -7.60839564488e-05  -0.00812876869845   
2900000000.0        -8.16339321711e-05  -0.00841994700711   0.99990831769       -0.00918548245368   0.99990831769       -0.00918548245368   -8.1633932171e-05   -0.00841994700711   
3000000000.0        -8.73704636379e-05  -0.00871119350757   0.999902545149      -0.00950324056705   0.999902545149      -0.00950324056705   -8.7370463638e-05   -0.00871119350757   
3100000000.0        -9.32936914604e-05  -0.00900250844575   0.999896585278      -0.00982107652337   0.999896585278      -0.00982107652337   -9.32936914602e-05  -0.00900250844575   
3200000000.0        -9.94037565615e-05  -0.00929389201594   0.999890437927      -0.0101389906422    0.999890437927      -0.0101389906422    -9.94037565614e-05  -0.00929389201594   
3300000000.0        -0.000105700800007  -0.00958534435967   0.999884102945      -0.0104569831861    0.999884102945      -0.0104569831861    -0.000105700800007  -0.00958534435967   
3400000000.0        -0.000112184962862  -0.00987686557034   0.999877580183      -0.0107750543651    0.999877580183      -0.0107750543651    -0.000112184962862  -0.00987686557034   
3500000000.0        -0.000118856386026  -0.0101684556944    0.999870869493      -0.0110932043388    0.999870869493      -0.0110932043388    -0.000118856386026  -0.0101684556944    
3600000000.0        -0.000125715210111  -0.0104601147336    0.999863970727      -0.0114114332178    0.999863970727      -0.0114114332178    -0.000125715210111  -0.0104601147336    
3700000000.0        -0.000132761575302  -0.0107518426461    0.999856883739      -0.0117297410658    0.999856883739      -0.0117297410658    -0.000132761575302  -0.0107518426461    
3800000000.0        -0.000139995621264  -0.0110436393495    0.999849608383      -0.012048127902     0.999849608383      -0.012048127902     -0.000139995621264  -0.0110436393495    
3900000000.0        -0.00014741748702   -0.0113355047222    0.999842144514      -0.0123665937034    0.999842144514      -0.0123665937034    -0.00014741748702   -0.0113355047222    
4000000000.0        -0.00015502731083   -0.0116274386039    0.999834491989      -0.0126851384048    0.999834491989      -0.0126851384048    -0.000155027310829  -0.0116274386039    
4100000000.0        -0.000162825230125  -0.0119194407982    0.999826650665      -0.0130037619017    0.999826650665      -0.0130037619017    -0.000162825230124  -0.0119194407982    
4200000000.0        -0.000170811381401  -0.0122115110743    0.999818620402      -0.0133224640523    0.999818620402      -0.0133224640523    -0.000170811381401  -0.0122115110743    
4300000000.0        -0.000178985900136  -0.0125036491679    0.99981040106       -0.013641244678     0.99981040106       -0.013641244678     -0.000178985900136  -0.0125036491679    
4400000000.0        -0.000187348920698  -0.0127958547814    0.9998019925        -0.0139601035646    0.9998019925        -0.0139601035646    -0.000187348920698  -0.0127958547814    
4500000000.0        -0.000195900576312  -0.0130881275884    0.999793394586      -0.0142790404657    0.999793394586      -0.0142790404657    -0.000195900576312  -0.0130881275884    
4600000000.0        -0.000204640998938  -0.0133804672318    0.999784607181      -0.014598055102     0.999784607181      -0.014598055102     -0.000204640998938  -0.0133804672318    
4700000000.0        -0.00021357031923   -0.0136728733264    0.999775630152      -0.0149171471631    0.999775630152      -0.0149171471631    -0.00021357031923   -0.0136728733264    
4800000000.0        -0.000222688666461  -0.0139653454589    0.999766463366      -0.0152363163086    0.999766463366      -0.0152363163086    -0.000222688666461  -0.0139653454589    
4900000000.0        -0.000231996168499  -0.0142578831918    0.999757106692      -0.0155555621707    0.999757106692      -0.0155555621707    -0.000231996168499  -0.0142578831918    
5000000000.0        -0.000241492951698  -0.0145504860606    0.999747560002      -0.015874884353     0.999747560002      -0.015874884353     -0.000241492951698  -0.0145504860606    
5100000000.0        -0.000251179140901  -0.0148431535787    0.999737823167      -0.0161942824342    0.999737823167      -0.0161942824342    -0.000251179140901  -0.0148431535787    
5200000000.0        -0.000261054859332  -0.0151358852346    0.999727896061      -0.0165137559662    0.999727896061      -0.0165137559662    -0.000261054859332  -0.0151358852346    
5300000000.0        -0.000271120228605  -0.0154286804961    0.999717778561      -0.0168333044779    0.999717778561      -0.0168333044779    -0.000271120228605  -0.0154286804961    
5400000000.0        -0.00028137536866   -0.0157215388095    0.999707470544      -0.0171529274748    0.999707470544      -0.0171529274748    -0.00028137536866   -0.0157215388095    
5500000000.0        -0.000291820397682  -0.0160144596001    0.999696971889      -0.0174726244392    0.999696971889      -0.0174726244392    -0.000291820397682  -0.0160144596001    
5600000000.0        -0.000302455432156  -0.0163074422752    0.999686282478      -0.0177923948336    0.999686282478      -0.0177923948336    -0.000302455432156  -0.0163074422752    
5700000000.0        -0.000313280586728  -0.0166004862221    0.999675402194      -0.0181122380987    0.999675402194      -0.0181122380987    -0.000313280586728  -0.0166004862221    
5800000000.0        -0.00032429597424   -0.016893590811     0.999664330922      -0.018432153656     0.999664330922      -0.018432153656     -0.00032429597424   -0.016893590811     
5900000000.0        -0.000335501705671  -0.0171867553949    0.999653068549      -0.0187521409083    0.999653068549      -0.0187521409083    -0.000335501705671  -0.0171867553949    
6000000000.0        -0.000346897890126  -0.0174799793108    0.999641614964      -0.0190721992407    0.999641614964      -0.0190721992407    -0.000346897890126  -0.0174799793108    
6100000000.0        -0.000358484634782  -0.0177732618796    0.999629970058      -0.0193923280203    0.999629970058      -0.0193923280203    -0.000358484634783  -0.0177732618796    
6200000000.0        -0.000370262044878  -0.0180666024075    0.999618133725      -0.0197125265982    0.999618133725      -0.0197125265982    -0.000370262044878  -0.0180666024075    
6300000000.0        -0.000382230223703  -0.0183600001868    0.999606105858      -0.0200327943096    0.999606105858      -0.0200327943096    -0.000382230223703  -0.0183600001868    
6400000000.0        -0.000394389272547  -0.0186534544956    0.999593886355      -0.0203531304745    0.999593886355      -0.0203531304745    -0.000394389272547  -0.0186534544956    
6500000000.0        -0.000406739290695  -0.0189469645991    0.999581475115      -0.0206735343983    0.999581475115      -0.0206735343983    -0.000406739290695  -0.0189469645991    
6600000000.0        -0.000419280375426  -0.0192405297507    0.999568872039      -0.0209940053732    0.999568872039      -0.0209940053732    -0.000419280375426  -0.0192405297507    
6700000000.0        -0.000432012621966  -0.0195341491917    0.99955607703       -0.0213145426777    0.99955607703       -0.0213145426777    -0.000432012621966  -0.0195341491917    
6800000000.0        -0.000444936123495  -0.0198278221521    0.999543089995      -0.0216351455781    0.999543089995      -0.0216351455781    -0.000444936123495  -0.0198278221521    
6900000000.0        -0.000458050971094  -0.0201215478509    0.999529910839      -0.021955813328     0.999529910839      -0.021955813328     -0.000458050971094  -0.0201215478509    
7000000000.0        -0.000471357253778  -0.0204153254971    0.999516539473      -0.02227654517      0.999516539473      -0.02227654517      -0.000471357253778  -0.0204153254971    
7100000000.0        -0.000484855058491  -0.0207091542906    0.999502975808      -0.0225973403364    0.999502975808      -0.0225973403364    -0.000484855058491  -0.0207091542906    
7200000000.0        -0.000498544470035  -0.0210030334216    0.999489219758      -0.0229181980483    0.999489219758      -0.0229181980483    -0.000498544470035  -0.0210030334216    
7300000000.0        -0.000512425571112  -0.0212969620716    0.999475271239      -0.0232391175172    0.999475271239      -0.0232391175172    -0.000512425571112  -0.0212969620716    
7400000000.0        -0.000526498442285  -0.0215909394137    0.999461130169      -0.023560097945     0.999461130169      -0.023560097945     -0.000526498442286  -0.0215909394137    
7500000000.0        -0.000540763162007  -0.0218849646134    0.999446796469      -0.0238811385252    0.999446796469      -0.0238811385252    -0.000540763162007  -0.0218849646134    
7600000000.0        -0.000555219806598  -0.0221790368294    0.99943227006       -0.0242022384429    0.99943227006       -0.0242022384429    -0.000555219806597  -0.0221790368294    
7700000000.0        -0.000569868450212  -0.0224731552125    0.999417550868      -0.0245233968748    0.999417550868      -0.0245233968748    -0.000569868450212  -0.0224731552125    
7800000000.0        -0.000584709164866  -0.0227673189073    0.999402638819      -0.02484461299      0.999402638819      -0.02484461299      -0.000584709164866  -0.0227673189073    
7900000000.0        -0.000599742020432  -0.0230615270523    0.999387533842      -0.025165885951     0.999387533842      -0.025165885951     -0.000599742020432  -0.0230615270523    
8000000000.0        -0.000614967084618  -0.02335577878      0.999372235867      -0.0254872149129    0.999372235867      -0.0254872149129    -0.000614967084618  -0.02335577878      
8100000000.0        -0.000630384422997  -0.0236500732178    0.99935674483       -0.0258085990251    0.99935674483       -0.0258085990251    -0.000630384422997  -0.0236500732178    
8200000000.0        -0.00064599409896   -0.0239444094875    0.999341060664      -0.0261300374306    0.999341060664      -0.0261300374306    -0.00064599409896   -0.0239444094875    
8300000000.0        -0.00066179617377   -0.0242387867068    0.999325183307      -0.0264515292669    0.999325183307      -0.0264515292669    -0.00066179617377   -0.0242387867068    
8400000000.0        -0.000677790706506  -0.0245332039883    0.9993091127        -0.0267730736663    0.9993091127        -0.0267730736663    -0.000677790706506  -0.0245332039883    
8500000000.0        -0.000693977754135  -0.0248276604412    0.999292848783      -0.0270946697565    0.999292848783      -0.0270946697565    -0.000693977754135  -0.0248276604412    
8600000000.0        -0.000710357371415  -0.02512215517      0.999276391502      -0.0274163166596    0.999276391502      -0.0274163166596    -0.000710357371414  -0.02512215517      
8700000000.0        -0.000726929611002  -0.0254166872766    0.999259740802      -0.0277380134948    0.999259740802      -0.0277380134948    -0.000726929611002  -0.0254166872766    
8800000000.0        -0.000743694523379  -0.025711255859     0.999242896632      -0.0280597593762    0.999242896632      -0.0280597593762    -0.000743694523379  -0.025711255859     
8900000000.0        -0.000760652156902  -0.0260058600126    0.999225858943      -0.028381553415     0.999225858943      -0.028381553415     -0.000760652156903  -0.0260058600126    
9000000000.0        -0.000777802557766  -0.0263004988299    0.999208627687      -0.0287033947185    0.999208627687      -0.0287033947185    -0.000777802557766  -0.0263004988299    
9100000000.0        -0.000795145770068  -0.0265951714013    0.999191202819      -0.0290252823914    0.999191202819      -0.0290252823914    -0.000795145770068  -0.0265951714013    
9200000000.0        -0.000812681835744  -0.0268898768149    0.999173584296      -0.0293472155353    0.999173584296      -0.0293472155353    -0.000812681835744  -0.0268898768149    
9300000000.0        -0.00083041079461   -0.0271846141564    0.999155772077      -0.0296691932491    0.999155772077      -0.0296691932491    -0.00083041079461   -0.0271846141564    
9400000000.0        -0.000848332684382  -0.0274793825105    0.999137766124      -0.0299912146297    0.999137766124      -0.0299912146297    -0.000848332684382  -0.0274793825105    
9500000000.0        -0.000866447540636  -0.0277741809598    0.999119566399      -0.0303132787716    0.999119566399      -0.0303132787716    -0.000866447540636  -0.0277741809598    
9600000000.0        -0.000884755396876  -0.0280690085861    0.999101172869      -0.0306353847677    0.999101172869      -0.0306353847677    -0.000884755396877  -0.0280690085861    
9700000000.0        -0.000903256284489  -0.0283638644699    0.999082585501      -0.0309575317093    0.999082585501      -0.0309575317093    -0.000903256284489  -0.0283638644699    
9800000000.0        -0.000921950232785  -0.0286587476911    0.999063804265      -0.0312797186863    0.999063804265      -0.0312797186863    -0.000921950232785  -0.0286587476911    
9900000000.0        -0.000940837268976  -0.0289536573284    0.999044829132      -0.0316019447871    0.999044829132      -0.0316019447871    -0.000940837268976  -0.0289536573284    
10000000000.0       -0.000959917418218  -0.0292485924606    0.999025660077      -0.0319242090997    0.999025660077      -0.0319242090997    -0.000959917418218  -0.0292485924606    
