# Hz S RI R 50.00 
100000000.0         0.104801839855      0.00389382603235    0.89519335949       -0.00584459838502   0.89519335949       -0.00584459838502   0.104801839855      0.00389382603235    
200000000.0         0.105494467401      0.00777333268201    0.894492975213      -0.0116748899273    0.894492975213      -0.0116748899273    0.105494467401      0.00777333268201    
300000000.0         0.106069472688      0.0116432534177     0.893906255088      -0.0174956237465    0.893906255088      -0.0174956237465    0.106069472688      0.0116432534177     
400000000.0         0.106608959476      0.0155047151182     0.893351093712      -0.0233079413432    0.893351093712      -0.0233079413432    0.106608959476      0.0155047151182     
500000000.0         0.107144551849      0.0193580076877     0.892795865455      -0.0291121467272    0.892795865455      -0.0291121467272    0.107144551849      0.0193580076877     
600000000.0         0.10769234994       0.0232030519949     0.89222446864       -0.0349081745367    0.89222446864       -0.0349081745367    0.10769234994       0.0232030519949     
700000000.0         0.108261824706      0.0270395680731     0.891627430712      -0.0406957583307    0.891627430712      -0.0406957583307    0.108261824706      0.0270395680731     
800000000.0         0.108859066929      0.0308671532685     0.890998659217      -0.0464745087917    0.890998659217      -0.0464745087917    0.108859066929      0.0308671532685     
900000000.0         0.109488234926      0.0346853243433     0.890333994068      -0.0522439558651    0.890333994068      -0.0522439558651    0.109488234926      0.0346853243433     
1000000000.0        0.110152288887      0.0384935425262     0.889630473201      -0.0580035738348    0.889630473201      -0.0580035738348    0.110152288887      0.0384935425262     
1100000000.0        0.110853399373      0.0422912295348     0.888885924066      -0.0637527973646    0.888885924066      -0.0637527973646    0.110853399373      0.0422912295348     
1200000000.0        0.111593190912      0.0460777784122     0.888098720027      -0.0694910323485    0.888098720027      -0.0694910323485    0.111593190912      0.0460777784122     
1300000000.0        0.112372895377      0.0498525611908     0.887267626973      -0.0752176635861    0.887267626973      -0.0752176635861    0.112372895377      0.0498525611908     
1400000000.0        0.113193452909      0.0536149345172     0.886391702398      -0.0809320604163    0.886391702398      -0.0809320604163    0.113193452909      0.0536149345172     
1500000000.0        0.114055580763      0.057364243913      0.885470226551      -0.0866335809849    0.885470226551      -0.0866335809849    0.114055580763      0.057364243913      
1600000000.0        0.114959821738      0.0610998270894     0.884502654001      -0.092321575566     0.884502654001      -0.092321575566     0.114959821738      0.0610998270894     
1700000000.0        0.115906579141      0.0648210165896     0.88348857867       -0.0979953892089    0.88348857867       -0.0979953892089    0.115906579141      0.0648210165896     
1800000000.0        0.116896142617      0.0685271419378     0.882427708005      -0.103654363892     0.882427708005      -0.103654363892     0.116896142617      0.0685271419378     
1900000000.0        0.117928707613      0.0722175314217     0.881319843512      -0.109297840307     0.881319843512      -0.109297840307     0.117928707613      0.0722175314217     
2000000000.0        0.119004390302      0.075891513593      0.880164865829      -0.114925159368     0.880164865829      -0.114925159368     0.119004390302      0.075891513593      
2100000000.0        0.120123239228      0.0795484185522     0.878962723081      -0.12053566349      0.878962723081      -0.12053566349      0.120123239228      0.0795484185522     
2200000000.0        0.12128524451       0.0831875790605     0.877713421673      -0.126128697714     0.877713421673      -0.126128697714     0.12128524451       0.0831875790605     
2300000000.0        0.122490345224      0.0868083315146     0.876417018911      -0.131703610675     0.876417018911      -0.131703610675     0.122490345224      0.0868083315146     
2400000000.0        0.123738435399      0.09041001681       0.875073617003      -0.137259755471     0.875073617003      -0.137259755471     0.123738435399      0.09041001681       
2500000000.0        0.125029368939      0.0939919811114     0.873683358134      -0.142796490438     0.873683358134      -0.142796490438     0.125029368939      0.0939919811114     
2600000000.0        0.126362963718      0.0975535765471     0.872246420376      -0.148313179839     0.872246420376      -0.148313179839     0.126362963718      0.0975535765471     
2700000000.0        0.127739005012      0.101094161837      0.870763014249      -0.153809194501     0.870763014249      -0.153809194501     0.127739005012      0.101094161837      
2800000000.0        0.129157248416      0.104613102867      0.86923337981       -0.159283912383     0.86923337981       -0.159283912383     0.129157248416      0.104613102867      
2900000000.0        0.130617422336      0.108109773213      0.867657784154      -0.164736719106     0.867657784154      -0.164736719106     0.130617422336      0.108109773213      
3000000000.0        0.13211923015       0.11158355462       0.866036519257      -0.170167008438     0.866036519257      -0.170167008438     0.13211923015       0.11158355462       
3100000000.0        0.133662352093      0.115033837455      0.864369900089      -0.175574182733     0.864369900089      -0.175574182733     0.133662352093      0.115033837455      
3200000000.0        0.135246446911      0.118460021109      0.86265826296       -0.180957653349     0.86265826296       -0.180957653349     0.135246446911      0.118460021109      
3300000000.0        0.136871153335      0.121861514385      0.860901964045      -0.186316841028     0.860901964045      -0.186316841028     0.136871153335      0.121861514385      
3400000000.0        0.1385360914        0.125237735847      0.859101378063      -0.191651176252     0.859101378063      -0.191651176252     0.1385360914        0.125237735847      
3500000000.0        0.140240863631      0.128588114152      0.857256897095      -0.196960099566     0.857256897095      -0.196960099566     0.140240863631      0.128588114152      
3600000000.0        0.141985056127      0.13191208835       0.855368929496      -0.202243061889     0.855368929496      -0.202243061889     0.141985056127      0.13191208835       
3700000000.0        0.143768239547      0.13520910817       0.853437898908      -0.207499524797     0.853437898908      -0.207499524797     0.143768239547      0.13520910817       
3800000000.0        0.145589970023      0.138478634282      0.851464243349      -0.212728960781     0.851464243349      -0.212728960781     0.145589970023      0.138478634282      
3900000000.0        0.147449790009      0.141720138535      0.849448414363      -0.217930853492     0.849448414363      -0.217930853492     0.147449790009      0.141720138535      
4000000000.0        0.149347229065      0.144933104187      0.847390876235      -0.223104697968     0.847390876235      -0.223104697968     0.149347229065      0.144933104187      
4100000000.0        0.151281804599      0.148117026109      0.845292105247      -0.228250000838     0.845292105247      -0.228250000838     0.151281804599      0.148117026109      
4200000000.0        0.153253022569      0.151271410974      0.843152588981      -0.233366280513     0.843152588981      -0.233366280513     0.153253022569      0.151271410974      
4300000000.0        0.155260378136      0.15439577743       0.840972825658      -0.238453067359     0.840972825658      -0.238453067359     0.155260378136      0.15439577743       
4400000000.0        0.157303356302      0.15748965626       0.838753323507      -0.243509903857     0.838753323507      -0.243509903857     0.157303356302      0.15748965626       
4500000000.0        0.159381432502      0.160552590525      0.836494600165      -0.248536344744     0.836494600165      -0.248536344744     0.159381432502      0.160552590525      
4600000000.0        0.161494073187      0.163584135688      0.834197182101      -0.253531957144     0.834197182101      -0.253531957144     0.161494073187      0.163584135688      
4700000000.0        0.163640736368      0.166583859735      0.831861604065      -0.25849632068      0.831861604065      -0.25849632068      0.163640736368      0.166583859735      
4800000000.0        0.165820872159      0.169551343271      0.829488408551      -0.263429027577     0.829488408551      -0.263429027577     0.165820872159      0.169551343271      
4900000000.0        0.168033923281      0.172486179609      0.827078145287      -0.268329682749     0.827078145287      -0.268329682749     0.168033923281      0.172486179609      
5000000000.0        0.170279325567      0.175387974844      0.824631370732      -0.273197903874     0.824631370732      -0.273197903874     0.170279325567      0.175387974844      
5100000000.0        0.172556508442      0.178256347917      0.822148647595      -0.278033321454     0.822148647595      -0.278033321454     0.172556508442      0.178256347917      
5200000000.0        0.174864895391      0.181090930662      0.819630544367      -0.28283557887      0.819630544367      -0.28283557887      0.174864895391      0.181090930662      
5300000000.0        0.177203904416      0.183891367845      0.817077634864      -0.287604332415     0.817077634864      -0.287604332415     0.177203904416      0.183891367845      
5400000000.0        0.17957294848       0.186657317193      0.814490497781      -0.292339251322     0.814490497781      -0.292339251322     0.17957294848       0.186657317193      
5500000000.0        0.181971435935      0.189388449407      0.811869716262      -0.297040017782     0.811869716262      -0.297040017782     0.181971435935      0.189388449407      
5600000000.0        0.184398770949      0.192084448164      0.809215877478      -0.301706326946     0.809215877478      -0.301706326946     0.184398770949      0.192084448164      
5700000000.0        0.186854353914      0.194745010117      0.806529572214      -0.306337886918     0.806529572214      -0.306337886918     0.186854353914      0.194745010117      
5800000000.0        0.189337581847      0.197369844875      0.803811394469      -0.310934418742     0.803811394469      -0.310934418742     0.189337581847      0.197369844875      
5900000000.0        0.19184784878       0.199958674974      0.801061941063      -0.315495656374     0.801061941063      -0.315495656374     0.19184784878       0.199958674974      
6000000000.0        0.194384546146      0.202511235846      0.798281811254      -0.320021346643     0.798281811254      -0.320021346643     0.194384546146      0.202511235846      
6100000000.0        0.196947063149      0.205027275771      0.795471606365      -0.32451124921      0.795471606365      -0.32451124921      0.196947063149      0.205027275771      
6200000000.0        0.199534787132      0.207506555821      0.792631929419      -0.328965136511     0.792631929419      -0.328965136511     0.199534787132      0.207506555821      
6300000000.0        0.202147103928      0.2099488498        0.78976338478       -0.333382793693     0.78976338478       -0.333382793693     0.202147103928      0.2099488498        
6400000000.0        0.204783398211      0.212353944168      0.78686657781       -0.337764018544     0.78686657781       -0.337764018544     0.204783398211      0.212353944168      
6500000000.0        0.207443053835      0.214721637964      0.783942114525      -0.34210862141      0.783942114525      -0.34210862141      0.207443053835      0.214721637964      
6600000000.0        0.210125454162      0.217051742717      0.780990601264      -0.34641642511      0.780990601264      -0.34641642511      0.210125454162      0.217051742717      
6700000000.0        0.212829982388      0.219344082349      0.778012644367      -0.350687264838     0.778012644367      -0.350687264838     0.212829982388      0.219344082349      
6800000000.0        0.215556021855      0.221598493073      0.77500884986       -0.35492098806      0.77500884986       -0.35492098806      0.215556021855      0.221598493073      
6900000000.0        0.218302956361      0.223814823284      0.771979823148      -0.359117454404     0.771979823148      -0.359117454404     0.218302956361      0.223814823284      
7000000000.0        0.221070170452      0.225992933439      0.768926168714      -0.363276535544     0.768926168714      -0.363276535544     0.221070170452      0.225992933439      
7100000000.0        0.22385704972       0.228132695937      0.765848489829      -0.367398115075     0.765848489829      -0.367398115075     0.22385704972       0.228132695937      
7200000000.0        0.22666298108       0.230233994988      0.76274738827       -0.371482088385     0.76274738827       -0.371482088385     0.22666298108       0.230233994988      
7300000000.0        0.229487353047      0.232296726475      0.759623464043      -0.375528362516     0.759623464043      -0.375528362516     0.229487353047      0.232296726475      
7400000000.0        0.232329556003      0.234320797819      0.756477315114      -0.379536856027     0.756477315114      -0.379536856027     0.232329556003      0.234320797819      
7500000000.0        0.235188982454      0.236306127825      0.753309537155      -0.383507498845     0.753309537155      -0.383507498845     0.235188982454      0.236306127825      
7600000000.0        0.238065027283      0.238252646538      0.750120723286      -0.387440232114     0.750120723286      -0.387440232114     0.238065027283      0.238252646538      
7700000000.0        0.240957087994      0.240160295081      0.746911463833      -0.391335008038     0.746911463833      -0.391335008038     0.240957087994      0.240160295081      
7800000000.0        0.243864564944      0.242029025498      0.743682346095      -0.395191789722     0.743682346095      -0.395191789722     0.243864564944      0.242029025498      
7900000000.0        0.246786861575      0.243858800585      0.74043395411       -0.399010551003     0.74043395411       -0.399010551003     0.246786861575      0.243858800585      
8000000000.0        0.24972338463       0.245649593728      0.737166868437      -0.402791276287     0.737166868437      -0.402791276287     0.24972338463       0.245649593728      
8100000000.0        0.252673544369      0.247401388722      0.733881665942      -0.406533960368     0.733881665942      -0.406533960368     0.252673544369      0.247401388722      
8200000000.0        0.255636754773      0.249114179601      0.730578919596      -0.41023860826      0.730578919596      -0.41023860826      0.255636754773      0.249114179601      
8300000000.0        0.258612433739      0.250787970457      0.727259198268      -0.413905235013     0.727259198268      -0.413905235013     0.258612433739      0.250787970457      
8400000000.0        0.261600003275      0.252422775257      0.723923066545      -0.417533865529     0.723923066545      -0.417533865529     0.261600003275      0.252422775257      
8500000000.0        0.264598889674      0.25401861766       0.72057108454       -0.421124534384     0.72057108454       -0.421124534384     0.264598889674      0.25401861766       
8600000000.0        0.267608523699      0.255575530828      0.717203807721      -0.424677285633     0.717203807721      -0.424677285633     0.267608523699      0.255575530828      
8700000000.0        0.270628340742      0.257093557239      0.713821786743      -0.428192172623     0.713821786743      -0.428192172623     0.270628340742      0.257093557239      
8800000000.0        0.273657780989      0.258572748492      0.710425567283      -0.431669257804     0.710425567283      -0.431669257804     0.273657780989      0.258572748492      
8900000000.0        0.276696289573      0.260013165119      0.707015689888      -0.435108612534     0.707015689888      -0.435108612534     0.276696289573      0.260013165119      
9000000000.0        0.279743316718      0.261414876385      0.70359268983       -0.438510316881     0.70359268983       -0.438510316881     0.279743316718      0.261414876385      
9100000000.0        0.28279831788       0.262777960096      0.700157096961      -0.441874459431     0.700157096961      -0.441874459431     0.28279831788       0.262777960096      
9200000000.0        0.285860753878      0.264102502403      0.696709435584      -0.445201137091     0.696709435584      -0.445201137091     0.285860753878      0.264102502403      
9300000000.0        0.28893009102       0.265388597601      0.693250224329      -0.448490454889     0.693250224329      -0.448490454889     0.28893009102       0.265388597601      
9400000000.0        0.29200580122       0.266636347931      0.689779976025      -0.451742525773     0.689779976025      -0.451742525773     0.29200580122       0.266636347931      
9500000000.0        0.295087362112      0.267845863384      0.686299197595      -0.45495747042      0.686299197595      -0.45495747042      0.295087362112      0.267845863384      
9600000000.0        0.298174257154      0.269017261501      0.682808389949      -0.458135417028     0.682808389949      -0.458135417028     0.298174257154      0.269017261501      
9700000000.0        0.301265975727      0.270150667173      0.67930804788       -0.461276501121     0.67930804788       -0.461276501121     0.301265975727      0.270150667173      
9800000000.0        0.304362013225      0.271246212443      0.675798659973      -0.464380865348     0.675798659973      -0.464380865348     0.304362013225      0.271246212443      
9900000000.0        0.307461871148      0.272304036304      0.672280708518      -0.467448659287     0.672280708518      -0.467448659287     0.307461871148      0.272304036304      
10000000000.0       0.310565057174      0.273324284507      0.668754669431      -0.470480039241     0.668754669431      -0.470480039241     0.310565057174      0.273324284507      
