# Hz S RI R 50.00 
100000000.0         0.0491687367969     0.00219371060388    0.950828900951      -0.00315623255485   0.950828900951      -0.00315623255485   0.0491687367969     0.00219371060388    
200000000.0         0.0494977726851     0.00438383257878    0.950497560169      -0.00630887862165   0.950497560169      -0.00630887862165   0.0494977726851     0.00438383257878    
300000000.0         0.0497574438417     0.00657166849491    0.950234641266      -0.00945924343498   0.950234641266      -0.00945924343498   0.0497574438417     0.00657166849491    
400000000.0         0.0499886453394     0.00875759677094    0.949999249005      -0.0126077077862    0.949999249005      -0.0126077077862    0.0499886453394     0.00875759677094    
500000000.0         0.0502071633934     0.0109417807949     0.949775597023      -0.0157544372908    0.949775597023      -0.0157544372908    0.0502071633934     0.0109417807949     
600000000.0         0.0504210644563     0.0131242887332     0.949555618727      -0.0188995022483    0.949555618727      -0.0188995022483    0.0504210644563     0.0131242887332     
700000000.0         0.0506351208164     0.0153051365689     0.949334541689      -0.022042920707     0.949334541689      -0.022042920707     0.0506351208164     0.0153051365689     
800000000.0         0.0508524274942     0.017484308067      0.949109270746      -0.0251846784444    0.949109270746      -0.0251846784444    0.0508524274942     0.017484308067      
900000000.0         0.0510751228837     0.0196617655002     0.948877667358      -0.0283247397037    0.948877667358      -0.0283247397037    0.0510751228837     0.0196617655002     
1000000000.0        0.0513047543847     0.0218374560026     0.948638183976      -0.0314630535541    0.948638183976      -0.0314630535541    0.0513047543847     0.0218374560026     
1100000000.0        0.0515424818434     0.0240113156075     0.948389660597      -0.034599557934     0.948389660597      -0.034599557934     0.0515424818434     0.0240113156075     
1200000000.0        0.051789198891      0.026183271954      0.948131203427      -0.037734182362     0.948131203427      -0.037734182362     0.051789198891      0.026183271954      
1300000000.0        0.0520456093527     0.0283532461804     0.947862108472      -0.0408668498329    0.947862108472      -0.0408668498329    0.0520456093527     0.0283532461804     
1400000000.0        0.0523122775171     0.0305211542941     0.947581811267      -0.0439974781903    0.947581811267      -0.0439974781903    0.0523122775171     0.0305211542941     
1500000000.0        0.0525896624219     0.0326869081916     0.947289852589      -0.0471259811488    0.947289852589      -0.0471259811488    0.0525896624219     0.0326869081916     
1600000000.0        0.0528781419559     0.0348504164368     0.946985854357      -0.0502522690741    0.946985854357      -0.0502522690741    0.0528781419559     0.0348504164368     
1700000000.0        0.0531780302435     0.0370115848673     0.946669502248      -0.0533762495901    0.946669502248      -0.0533762495901    0.0531780302435     0.0370115848673     
1800000000.0        0.0534895904664     0.0391703170746     0.946340532873      -0.0564978280611    0.946340532873      -0.0564978280611    0.0534895904664     0.0391703170746     
1900000000.0        0.0538130445032     0.0413265147921     0.945998724134      -0.0596169079805    0.945998724134      -0.0596169079805    0.0538130445032     0.0413265147921     
2000000000.0        0.0541485803028     0.0434800782117     0.94564388786       -0.0627333912882    0.94564388786       -0.0627333912882    0.0541485803028     0.0434800782117     
2100000000.0        0.0544963576088     0.0456309062461     0.945275864074      -0.0658471786339    0.945275864074      -0.0658471786339    0.0544963576088     0.0456309062461     
2200000000.0        0.0548565124643     0.0477788967486     0.94489451649       -0.0689581695977    0.94489451649       -0.0689581695977    0.0548565124643     0.0477788967486     
2300000000.0        0.055229160801      0.0499239466996     0.944499728928      -0.0720662628768    0.944499728928      -0.0720662628768    0.055229160801      0.0499239466996     
2400000000.0        0.0556144013287     0.0520659523658     0.944091402418      -0.0751713564458    0.944091402418      -0.0751713564458    0.0556144013287     0.0520659523658     
2500000000.0        0.0560123178871     0.0542048094377     0.943669452853      -0.0782733476941    0.943669452853      -0.0782733476941    0.0560123178871     0.0542048094377     
2600000000.0        0.0564229813753     0.0563404131492     0.943233809057      -0.0813721335469    0.943233809057      -0.0813721335469    0.0564229813753     0.0563404131492     
2700000000.0        0.0568464513493     0.0584726583832     0.942784411191      -0.0844676105698    0.942784411191      -0.0844676105698    0.0568464513493     0.0584726583832     
2800000000.0        0.0572827773553     0.0606014397638     0.942321209414      -0.0875596750628    0.942321209414      -0.0875596750628    0.0572827773553     0.0606014397638     
2900000000.0        0.0577320000496     0.0627266517393     0.941844162766      -0.0906482231428    0.941844162766      -0.0906482231428    0.0577320000496     0.0627266517393     
3000000000.0        0.0581941521456     0.0648481886564     0.941353238224      -0.0937331508183    0.941353238224      -0.0937331508183    0.0581941521456     0.0648481886564     
3100000000.0        0.0586692592203     0.0669659448269     0.94084840989       -0.0968143540564    0.94084840989       -0.0968143540564    0.0586692592203     0.0669659448269     
3200000000.0        0.0591573404052     0.0690798145877     0.940329658303      -0.0998917288433    0.940329658303      -0.0998917288433    0.0591573404052     0.0690798145877     
3300000000.0        0.0596584089797     0.0711896923567     0.939796969846      -0.10296517124      0.939796969846      -0.10296517124      0.0596584089797     0.0711896923567     
3400000000.0        0.0601724728863     0.0732954726826     0.93925033623       -0.106034577433     0.93925033623       -0.106034577433     0.0601724728863     0.0732954726826     
3500000000.0        0.0606995351775     0.0753970502919     0.938689754046      -0.109099843779     0.938689754046      -0.109099843779     0.0606995351775     0.0753970502919     
3600000000.0        0.0612395944067     0.0774943201314     0.938115224376      -0.112160866854     0.938115224376      -0.112160866854     0.0612395944067     0.0774943201314     
3700000000.0        0.0617926449711     0.0795871774082     0.937526752449      -0.115217543484     0.937526752449      -0.115217543484     0.0617926449711     0.0795871774082     
3800000000.0        0.0623586774143     0.0816755176266     0.93692434734       -0.118269770792     0.93692434734       -0.118269770792     0.0623586774143     0.0816755176266     
3900000000.0        0.0629376786935     0.0837592366229     0.936308021699      -0.121317446224     0.936308021699      -0.121317446224     0.0629376786935     0.0837592366229     
4000000000.0        0.0635296324175     0.0858382305981     0.935677791518      -0.124360467588     0.935677791518      -0.124360467588     0.0635296324175     0.0858382305981     
4100000000.0        0.0641345190589     0.0879123961479     0.935033675914      -0.127398733083     0.935033675914      -0.127398733083     0.0641345190589     0.0879123961479     
4200000000.0        0.0647523161436     0.0899816302919     0.934375696943      -0.130432141327     0.934375696943      -0.130432141327     0.0647523161436     0.0899816302919     
4300000000.0        0.0653829984215     0.0920458305009     0.933703879427      -0.133460591383     0.933703879427      -0.133460591383     0.0653829984215     0.0920458305009     
4400000000.0        0.0660265380206     0.0941048947224     0.933018250804      -0.13648398279      0.933018250804      -0.13648398279      0.0660265380206     0.0941048947224     
4500000000.0        0.0666829045856     0.0961587214055     0.932318840982      -0.13950221558      0.932318840982      -0.13950221558      0.0666829045856     0.0961587214055     
4600000000.0        0.0673520654046     0.0982072095238     0.931605682219      -0.14251519031      0.931605682219      -0.14251519031      0.0673520654046     0.0982072095238     
4700000000.0        0.0680339855243     0.100250258598      0.930878809007      -0.145522808079     0.930878809007      -0.145522808079     0.0680339855243     0.100250258598      
4800000000.0        0.0687286278543     0.102287768718      0.930138257962      -0.148524970549     0.930138257962      -0.148524970549     0.0687286278543     0.102287768718      
4900000000.0        0.0694359532643     0.10431964056       0.929384067733      -0.151521579968     0.929384067733      -0.151521579968     0.0694359532643     0.10431964056       
5000000000.0        0.0701559206722     0.106345775411      0.928616278915      -0.154512539189     0.928616278915      -0.154512539189     0.0701559206722     0.106345775411      
5100000000.0        0.0708884871257     0.108366075183      0.927834933958      -0.157497751688     0.927834933958      -0.157497751688     0.0708884871257     0.108366075183      
5200000000.0        0.0716336078777     0.110380442433      0.927040077103      -0.160477121582     0.927040077103      -0.160477121582     0.0716336078777     0.110380442433      
5300000000.0        0.072391236457      0.112388780381      0.926231754303      -0.163450553647     0.926231754303      -0.163450553647     0.072391236457      0.112388780381      
5400000000.0        0.0731613247324     0.114390992925      0.925410013164      -0.166417953335     0.925410013164      -0.166417953335     0.0731613247324     0.114390992925      
5500000000.0        0.0739438229743     0.116386984657      0.924574902881      -0.169379226787     0.924574902881      -0.169379226787     0.0739438229743     0.116386984657      
5600000000.0        0.0747386799112     0.11837666088       0.92372647418       -0.172334280854     0.92372647418       -0.172334280854     0.0747386799112     0.11837666088       
5700000000.0        0.075545842783      0.12035992762       0.92286477927       -0.175283023106     0.92286477927       -0.175283023106     0.075545842783      0.12035992762       
5800000000.0        0.076365257391      0.122336691643      0.921989871786      -0.178225361851     0.921989871786      -0.178225361851     0.076365257391      0.122336691643      
5900000000.0        0.0771968681456     0.124306860469      0.921101806747      -0.181161206145     0.921101806747      -0.181161206145     0.0771968681456     0.124306860469      
6000000000.0        0.0780406181104     0.126270342382      0.92020064051       -0.184090465809     0.92020064051       -0.184090465809     0.0780406181104     0.126270342382      
6100000000.0        0.0788964490451     0.128227046447      0.919286430727      -0.187013051439     0.919286430727      -0.187013051439     0.0788964490451     0.128227046447      
6200000000.0        0.0797643014451     0.130176882518      0.918359236303      -0.189928874419     0.918359236303      -0.189928874419     0.0797643014451     0.130176882518      
6300000000.0        0.0806441145803     0.132119761255      0.917419117362      -0.192837846936     0.917419117362      -0.192837846936     0.0806441145803     0.132119761255      
6400000000.0        0.0815358265314     0.13405559413       0.916466135207      -0.195739881987     0.916466135207      -0.195739881987     0.0815358265314     0.13405559413       
6500000000.0        0.0824393742249     0.135984293443      0.915500352286      -0.198634893393     0.915500352286      -0.198634893393     0.0824393742249     0.135984293443      
6600000000.0        0.0833546934665     0.13790577233       0.914521832161      -0.201522795809     0.914521832161      -0.201522795809     0.0833546934665     0.13790577233       
6700000000.0        0.0842817189731     0.139819944775      0.91353063947       -0.204403504734     0.91353063947       -0.204403504734     0.0842817189731     0.139819944775      
6800000000.0        0.0852203844042     0.141726725616      0.912526839902      -0.207276936523     0.912526839902      -0.207276936523     0.0852203844042     0.141726725616      
6900000000.0        0.0861706223912     0.143626030561      0.911510500166      -0.210143008393     0.911510500166      -0.210143008393     0.0861706223912     0.143626030561      
7000000000.0        0.0871323645666     0.145517776194      0.910481687957      -0.213001638437     0.910481687957      -0.213001638437     0.0871323645666     0.145517776194      
7100000000.0        0.0881055415916     0.14740187998       0.909440471936      -0.215852745629     0.909440471936      -0.215852745629     0.0881055415916     0.14740187998       
7200000000.0        0.089090083183      0.149278260282      0.908386921698      -0.218696249835     0.908386921698      -0.218696249835     0.089090083183      0.149278260282      
7300000000.0        0.0900859181398     0.151146836362      0.907321107747      -0.221532071818     0.907321107747      -0.221532071818     0.0900859181398     0.151146836362      
7400000000.0        0.0910929743684     0.153007528393      0.906243101468      -0.224360133251     0.906243101468      -0.224360133251     0.0910929743684     0.153007528393      
7500000000.0        0.0921111789072     0.154860257464      0.90515297511       -0.227180356722     0.90515297511       -0.227180356722     0.0921111789072     0.154860257464      
7600000000.0        0.0931404579512     0.15670494559       0.904050801753      -0.229992665739     0.904050801753      -0.229992665739     0.0931404579512     0.15670494559       
7700000000.0        0.094180736875      0.158541515717      0.902936655287      -0.232796984743     0.902936655287      -0.232796984743     0.094180736875      0.158541515717      
7800000000.0        0.0952319402565     0.160369891729      0.901810610393      -0.235593239107     0.901810610393      -0.235593239107     0.0952319402565     0.160369891729      
7900000000.0        0.0962939918987     0.162189998454      0.900672742517      -0.238381355151     0.900672742517      -0.238381355151     0.0962939918987     0.162189998454      
8000000000.0        0.0973668148524     0.164001761673      0.899523127846      -0.241161260139     0.899523127846      -0.241161260139     0.0973668148524     0.164001761673      
8100000000.0        0.0984503314372     0.165805108122      0.898361843291      -0.243932882292     0.898361843291      -0.243932882292     0.0984503314372     0.165805108122      
8200000000.0        0.0995444632633     0.167599965499      0.897188966464      -0.246696150793     0.897188966464      -0.246696150793     0.0995444632633     0.167599965499      
8300000000.0        0.100649131252      0.16938626247       0.896004575654      -0.249450995786     0.896004575654      -0.249450995786     0.100649131252      0.16938626247       
8400000000.0        0.101764255655      0.171163928673      0.894808749812      -0.252197348389     0.894808749812      -0.252197348389     0.101764255655      0.171163928673      
8500000000.0        0.102889756078      0.172932894724      0.893601568528      -0.254935140692     0.893601568528      -0.254935140692     0.102889756078      0.172932894724      
8600000000.0        0.104025551496      0.174693092219      0.892383112011      -0.257664305769     0.892383112011      -0.257664305769     0.104025551496      0.174693092219      
8700000000.0        0.105171560275      0.17644445374       0.891153461069      -0.260384777672     0.891153461069      -0.260384777672     0.105171560275      0.17644445374       
8800000000.0        0.106327700193      0.17818691286       0.889912697091      -0.263096491445     0.889912697091      -0.263096491445     0.106327700193      0.17818691286       
8900000000.0        0.107493888455      0.179920404142      0.888660902031      -0.265799383121     0.888660902031      -0.265799383121     0.107493888455      0.179920404142      
9000000000.0        0.108670041714      0.18164486315       0.887398158381      -0.26849338973      0.887398158381      -0.26849338973      0.108670041714      0.18164486315       
9100000000.0        0.10985607609       0.183360226444      0.886124549163      -0.271178449296     0.886124549163      -0.271178449296     0.10985607609       0.183360226444      
9200000000.0        0.111051907185      0.185066431588      0.884840157902      -0.273854500847     0.884840157902      -0.273854500847     0.111051907185      0.185066431588      
9300000000.0        0.112257450106      0.18676341715       0.883545068613      -0.276521484414     0.883545068613      -0.276521484414     0.112257450106      0.18676341715       
9400000000.0        0.113472619478      0.188451122708      0.882239365783      -0.279179341031     0.882239365783      -0.279179341031     0.113472619478      0.188451122708      
9500000000.0        0.114697329463      0.190129488847      0.880923134351      -0.281828012744     0.880923134351      -0.281828012744     0.114697329463      0.190129488847      
9600000000.0        0.115931493779      0.191798457166      0.879596459692      -0.284467442606     0.879596459692      -0.284467442606     0.115931493779      0.191798457166      
9700000000.0        0.117175025715      0.193457970274      0.878259427602      -0.287097574682     0.878259427602      -0.287097574682     0.117175025715      0.193457970274      
9800000000.0        0.118427838147      0.195107971798      0.876912124278      -0.289718354049     0.876912124278      -0.289718354049     0.118427838147      0.195107971798      
9900000000.0        0.119689843558      0.196748406379      0.875554636303      -0.292329726801     0.875554636303      -0.292329726801     0.119689843558      0.196748406379      
10000000000.0       0.120960954054      0.198379219675      0.874187050628      -0.294931640044     0.874187050628      -0.294931640044     0.120960954054      0.198379219675      
