# Hz S RI R 50.00 
100000000.0         2.8594923658e-05    -0.000217540014091  0.999969659675      -0.00037570626653   0.999969659675      -0.00037570626653   2.85949236583e-05   -0.000217540014091  
200000000.0         2.82640089553e-05   -0.000435089962105  0.999968893185      -0.000751426362731  0.999968893185      -0.000751426362731  2.82640089555e-05   -0.000435089962105  
300000000.0         2.77182158626e-05   -0.000652654906032  0.999967989488      -0.00112716747324   0.999967989488      -0.00112716747324   2.77182158626e-05   -0.000652654906032  
400000000.0         2.69829452073e-05   -0.00087023865897   0.999966923087      -0.00150293503627   0.999966923087      -0.00150293503627   2.69829452073e-05   -0.00087023865897   
500000000.0         2.60679143573e-05   -0.00108784437952   0.999965684147      -0.00187873359672   0.999965684147      -0.00187873359672   2.60679143573e-05   -0.00108784437952   
600000000.0         2.49780315233e-05   -0.00130547479413   0.999964267633      -0.00225456711461   0.999964267633      -0.00225456711461   2.49780315231e-05   -0.00130547479413   
700000000.0         2.37161565426e-05   -0.00152313230381   0.999962670543      -0.00263043911493   0.999962670543      -0.00263043911493   2.37161565426e-05   -0.00152313230381   
800000000.0         2.22841077768e-05   -0.00174081905446   0.999960890907      -0.00300635278361   0.999960890907      -0.00300635278361   2.22841077766e-05   -0.00174081905446   
900000000.0         2.06831099903e-05   -0.00195853697941   0.999958927339      -0.00338231102671   0.999958927339      -0.00338231102671   2.068310999e-05     -0.00195853697941   
1000000000.0        1.89140212903e-05   -0.00217628783307   0.999956778811      -0.0037583165158    0.999956778811      -0.0037583165158    1.89140212903e-05   -0.00217628783307   
1100000000.0        1.69774593135e-05   -0.00239407321441   0.999954444525      -0.00413437171995   0.999954444525      -0.00413437171995   1.69774593137e-05   -0.00239407321441   
1200000000.0        1.48738763197e-05   -0.00261189458411   0.999951923843      -0.00451047892944   0.999951923843      -0.00451047892944   1.48738763199e-05   -0.00261189458411   
1300000000.0        1.26036065855e-05   -0.00282975328068   0.999949216238      -0.00488664027696   0.999949216238      -0.00488664027696   1.26036065857e-05   -0.00282975328068   
1400000000.0        1.01668975183e-05   -0.00304765053138   0.999946321264      -0.0052628577526    0.999946321264      -0.0052628577526    1.01668975183e-05   -0.00304765053138   
1500000000.0        7.5639309296e-06    -0.0032655874629    0.999943238534      -0.0056391332179    0.999943238534      -0.0056391332179    7.56393092938e-06   -0.0032655874629    
1600000000.0        4.79483798377e-06   -0.00348356510895   0.999939967706      -0.00601546841616   0.999939967706      -0.00601546841616   4.79483798399e-06   -0.00348356510895   
1700000000.0        1.85971002731e-06   -0.00370158441797   0.999936508474      -0.00639186498252   0.999936508474      -0.00639186498252   1.85971002753e-06   -0.00370158441797   
1800000000.0        -1.24139342672e-06  -0.00391964625958   0.999932860559      -0.00676832445238   0.999932860559      -0.00676832445238   -1.2413934265e-06   -0.00391964625958   
1900000000.0        -4.50843865241e-06  -0.00413775142881   0.999929023704      -0.00714484826734   0.999929023704      -0.00714484826734   -4.50843865274e-06  -0.00413775142881   
2000000000.0        -7.94141307758e-06  -0.00435590065226   0.999924997669      -0.00752143778283   0.999924997669      -0.00752143778283   -7.94141307747e-06  -0.00435590065226   
2100000000.0        -1.15403216711e-05  -0.00457409459144   0.999920782228      -0.00789809427276   0.999920782228      -0.00789809427276   -1.15403216709e-05  -0.00457409459144   
2200000000.0        -1.5305184074e-05   -0.00479233384727   0.999916377168      -0.0082748189352    0.999916377168      -0.0082748189352    -1.53051840741e-05  -0.00479233384727   
2300000000.0        -1.92360323049e-05  -0.00501061896294   0.999911782284      -0.00865161289621   0.999911782284      -0.00865161289621   -1.92360323049e-05  -0.00501061896294   
2400000000.0        -2.33329088934e-05  -0.00522895042745   0.999906997379      -0.00902847721429   0.999906997379      -0.00902847721429   -2.33329088932e-05  -0.00522895042745   
2500000000.0        -2.75958653496e-05  -0.00544732867824   0.999902022264      -0.00940541288388   0.999902022264      -0.00940541288388   -2.75958653495e-05  -0.00544732867824   
2600000000.0        -3.2024960895e-05   -0.00566575410402   0.999896856755      -0.00978242083886   0.999896856755      -0.00978242083886   -3.20249608953e-05  -0.00566575410402   
2700000000.0        -3.66202614123e-05  -0.00588422704707   0.999891500673      -0.0101595019556    0.999891500673      -0.0101595019556    -3.66202614119e-05  -0.00588422704707   
2800000000.0        -4.13818385271e-05  -0.0061027478053    0.999885953843      -0.0105366570554    0.999885953843      -0.0105366570554    -4.13818385272e-05  -0.0061027478053    
2900000000.0        -4.63097688734e-05  -0.00632131663461   0.999880216093      -0.010913886908     0.999880216093      -0.010913886908     -4.63097688733e-05  -0.00632131663461   
3000000000.0        -5.14041334204e-05  -0.00653993375086   0.999874287255      -0.0112911922331    0.999874287255      -0.0112911922331    -5.14041334204e-05  -0.00653993375086   
3100000000.0        -5.66650169214e-05  -0.0067585993312    0.999868167164      -0.0116685737031    0.999868167164      -0.0116685737031    -5.66650169213e-05  -0.0067585993312    
3200000000.0        -6.20925074164e-05  -0.00697731351614   0.999861855657      -0.012046031945     0.999861855657      -0.012046031945     -6.20925074164e-05  -0.00697731351614   
3300000000.0        -6.7686695814e-05   -0.00719607641122   0.999855352573      -0.0124235675429    0.999855352573      -0.0124235675429    -6.7686695814e-05   -0.00719607641122   
3400000000.0        -7.34476755064e-05  -0.00741488808804   0.999848657754      -0.0128011810389    0.999848657754      -0.0128011810389    -7.34476755065e-05  -0.00741488808804   
3500000000.0        -7.93755420451e-05  -0.00763374858611   0.999841771042      -0.0131788729359    0.999841771042      -0.0131788729359    -7.93755420451e-05  -0.00763374858611   
3600000000.0        -8.54703928402e-05  -0.00785265791388   0.999834692283      -0.0135566436982    0.999834692283      -0.0135566436982    -8.54703928402e-05  -0.00785265791388   
3700000000.0        -9.17323269006e-05  -0.00807161605003   0.999827421324      -0.0139344937538    0.999827421324      -0.0139344937538    -9.17323269006e-05  -0.00807161605003   
3800000000.0        -9.81614445996e-05  -0.00829062294481   0.999819958011      -0.0143124234958    0.999819958011      -0.0143124234958    -9.81614445995e-05  -0.00829062294481   
3900000000.0        -0.000104757847459  -0.00850967852095   0.999812302194      -0.0146904332834    0.999812302194      -0.0146904332834    -0.000104757847459  -0.00850967852095   
4000000000.0        -0.00011152163796   -0.00872878267476   0.999804453724      -0.0150685234433    0.999804453724      -0.0150685234433    -0.00011152163796   -0.00872878267476   
4100000000.0        -0.000118452919368  -0.00894793527728   0.999796412452      -0.0154466942712    0.999796412452      -0.0154466942712    -0.000118452919368  -0.00894793527728   
4200000000.0        -0.000125551795575  -0.00916713617505   0.999788178231      -0.0158249460329    0.999788178231      -0.0158249460329    -0.000125551795575  -0.00916713617505   
4300000000.0        -0.000132818370958  -0.00938638519119   0.999779750916      -0.016203278965     0.999779750916      -0.016203278965     -0.000132818370958  -0.00938638519119   
4400000000.0        -0.00014025275024   -0.00960568212608   0.999771130362      -0.0165816932768    0.999771130362      -0.0165816932768    -0.00014025275024   -0.00960568212608   
4500000000.0        -0.000147855038377  -0.00982502675843   0.999762316425      -0.0169601891503    0.999762316425      -0.0169601891503    -0.000147855038377  -0.00982502675843   
4600000000.0        -0.000155625340439  -0.0100444188459    0.999753308962      -0.0173387667422    0.999753308962      -0.0173387667422    -0.000155625340439  -0.0100444188459    
4700000000.0        -0.000163563761512  -0.0102638581258    0.999744107833      -0.017717426184     0.999744107833      -0.017717426184     -0.000163563761513  -0.0102638581258    
4800000000.0        -0.000171670406601  -0.0104833443161    0.999734712896      -0.0180961675833    0.999734712896      -0.0180961675833    -0.000171670406601  -0.0104833443161    
4900000000.0        -0.00017994538054   -0.010702877116     0.999725124013      -0.0184749910247    0.999725124013      -0.0184749910247    -0.00017994538054   -0.010702877116     
5000000000.0        -0.00018838878791   -0.0109224562062    0.999715341045      -0.0188538965702    0.999715341045      -0.0188538965702    -0.00018838878791   -0.0109224562062    
5100000000.0        -0.000197000732967  -0.0111420812503    0.999705363855      -0.0192328842605    0.999705363855      -0.0192328842605    -0.000197000732967  -0.0111420812503    
5200000000.0        -0.000205781319567  -0.0113617518949    0.999695192307      -0.0196119541156    0.999695192307      -0.0196119541156    -0.000205781319567  -0.0113617518949    
5300000000.0        -0.000214730651099  -0.0115814677702    0.999684826265      -0.019991106135     0.999684826265      -0.019991106135     -0.000214730651099  -0.0115814677702    
5400000000.0        -0.000223848830425  -0.0118012284907    0.999674265596      -0.0203703402993    0.999674265596      -0.0203703402993    -0.000223848830425  -0.0118012284907    
5500000000.0        -0.000233135959819  -0.0120210336559    0.999663510167      -0.0207496565701    0.999663510167      -0.0207496565701    -0.000233135959819  -0.0120210336559    
5600000000.0        -0.000242592140916  -0.0122408828505    0.999652559846      -0.0211290548911    0.999652559846      -0.0211290548911    -0.000242592140917  -0.0122408828505    
5700000000.0        -0.000252217474662  -0.0124607756452    0.999641414501      -0.0215085351883    0.999641414501      -0.0215085351883    -0.000252217474662  -0.0124607756452    
5800000000.0        -0.00026201206126   -0.0126807115969    0.999630074005      -0.021888097371     0.999630074005      -0.021888097371     -0.00026201206126   -0.0126807115969    
5900000000.0        -0.000271976000124  -0.0129006902493    0.999618538227      -0.0222677413322    0.999618538227      -0.0222677413322    -0.000271976000124  -0.0129006902493    
6000000000.0        -0.000282109389847  -0.0131207111337    0.99960680704       -0.022647466949     0.99960680704       -0.022647466949     -0.000282109389847  -0.0131207111337    
6100000000.0        -0.000292412328151  -0.0133407737687    0.999594880318      -0.0230272740834    0.999594880318      -0.0230272740834    -0.000292412328151  -0.0133407737687    
6200000000.0        -0.000302884911854  -0.0135608776613    0.999582757936      -0.0234071625827    0.999582757936      -0.0234071625827    -0.000302884911854  -0.0135608776613    
6300000000.0        -0.00031352723683   -0.0137810223071    0.99957043977       -0.0237871322797    0.99957043977       -0.0237871322797    -0.00031352723683   -0.0137810223071    
6400000000.0        -0.000324339397979  -0.0140012071905    0.999557925696      -0.0241671829939    0.999557925696      -0.0241671829939    -0.000324339397979  -0.0140012071905    
6500000000.0        -0.000335321489196  -0.0142214317853    0.999545215594      -0.024547314531     0.999545215594      -0.024547314531     -0.000335321489196  -0.0142214317853    
6600000000.0        -0.000346473603336  -0.0144416955549    0.999532309341      -0.0249275266842    0.999532309341      -0.0249275266842    -0.000346473603336  -0.0144416955549    
6700000000.0        -0.000357795832191  -0.0146619979528    0.99951920682       -0.025307819234     0.99951920682       -0.025307819234     -0.000357795832191  -0.0146619979528    
6800000000.0        -0.00036928826646   -0.0148823384231    0.999505907912      -0.0256881919491    0.999505907912      -0.0256881919491    -0.00036928826646   -0.0148823384231    
6900000000.0        -0.000380950995721  -0.0151027164003    0.999492412499      -0.0260686445865    0.999492412499      -0.0260686445865    -0.000380950995721  -0.0151027164003    
7000000000.0        -0.000392784108416  -0.0153231313102    0.999478720466      -0.0264491768918    0.999478720466      -0.0264491768918    -0.000392784108416  -0.0153231313102    
7100000000.0        -0.000404787691817  -0.0155435825697    0.999464831698      -0.0268297885999    0.999464831698      -0.0268297885999    -0.000404787691817  -0.0155435825697    
7200000000.0        -0.000416961832012  -0.0157640695876    0.999450746082      -0.0272104794352    0.999450746082      -0.0272104794352    -0.000416961832012  -0.0157640695876    
7300000000.0        -0.000429306613885  -0.0159845917647    0.999436463505      -0.0275912491118    0.999436463505      -0.0275912491118    -0.000429306613885  -0.0159845917647    
7400000000.0        -0.000441822121086  -0.0162051484936    0.999421983858      -0.0279720973341    0.999421983858      -0.0279720973341    -0.000441822121085  -0.0162051484936    
7500000000.0        -0.000454508436026  -0.0164257391599    0.999407307029      -0.0283530237968    0.999407307029      -0.0283530237968    -0.000454508436025  -0.0164257391599    
7600000000.0        -0.000467365639854  -0.0166463631417    0.999392432911      -0.0287340281857    0.999392432911      -0.0287340281857    -0.000467365639854  -0.0166463631417    
7700000000.0        -0.000480393812441  -0.0168670198103    0.999377361396      -0.0291151101773    0.999377361396      -0.0291151101773    -0.00048039381244   -0.0168670198103    
7800000000.0        -0.000493593032359  -0.0170877085299    0.999362092379      -0.02949626944      0.999362092379      -0.02949626944      -0.000493593032359  -0.0170877085299    
7900000000.0        -0.000506963376877  -0.0173084286586    0.999346625755      -0.0298775056335    0.999346625755      -0.0298775056335    -0.000506963376877  -0.0173084286586    
8000000000.0        -0.000520504921939  -0.017529179548     0.99933096142       -0.0302588184096    0.99933096142       -0.0302588184096    -0.000520504921939  -0.017529179548     
8100000000.0        -0.000534217742152  -0.0177499605439    0.999315099273      -0.0306402074125    0.999315099273      -0.0306402074125    -0.000534217742152  -0.0177499605439    
8200000000.0        -0.000548101910775  -0.0179707709861    0.999299039212      -0.0310216722785    0.999299039212      -0.0310216722785    -0.000548101910775  -0.0179707709861    
8300000000.0        -0.00056215749971   -0.0181916102087    0.999282781139      -0.031403212637     0.999282781139      -0.031403212637     -0.00056215749971   -0.0181916102087    
8400000000.0        -0.00057638457948   -0.0184124775406    0.999266324955      -0.0317848281102    0.999266324955      -0.0317848281102    -0.00057638457948   -0.0184124775406    
8500000000.0        -0.000590783219233  -0.0186333723053    0.999249670563      -0.0321665183137    0.999249670563      -0.0321665183137    -0.000590783219233  -0.0186333723053    
8600000000.0        -0.000605353486722  -0.0188542938216    0.999232817868      -0.0325482828563    0.999232817868      -0.0325482828563    -0.000605353486721  -0.0188542938216    
8700000000.0        -0.000620095448297  -0.0190752414031    0.999215766775      -0.0329301213407    0.999215766775      -0.0329301213407    -0.000620095448297  -0.0190752414031    
8800000000.0        -0.0006350091689    -0.0192962143589    0.999198517192      -0.0333120333634    0.999198517192      -0.0333120333634    -0.0006350091689    -0.0192962143589    
8900000000.0        -0.000650094712053  -0.0195172119937    0.999181069027      -0.0336940185149    0.999181069027      -0.0336940185149    -0.000650094712053  -0.0195172119937    
9000000000.0        -0.000665352139851  -0.0197382336078    0.99916342219       -0.0340760763802    0.99916342219       -0.0340760763802    -0.000665352139851  -0.0197382336078    
9100000000.0        -0.000680781512954  -0.0199592784974    0.999145576592      -0.0344582065386    0.999145576592      -0.0344582065386    -0.000680781512954  -0.0199592784974    
9200000000.0        -0.000696382890585  -0.0201803459546    0.999127532145      -0.0348404085642    0.999127532145      -0.0348404085642    -0.000696382890585  -0.0201803459546    
9300000000.0        -0.000712156330514  -0.0204014352679    0.999109288764      -0.0352226820258    0.999109288764      -0.0352226820258    -0.000712156330514  -0.0204014352679    
9400000000.0        -0.000728101889059  -0.020622545722     0.999090846363      -0.0356050264876    0.999090846363      -0.0356050264876    -0.000728101889059  -0.020622545722     
9500000000.0        -0.000744219621079  -0.0208436765979    0.999072204858      -0.0359874415085    0.999072204858      -0.0359874415085    -0.000744219621079  -0.0208436765979    
9600000000.0        -0.00076050957997   -0.0210648271736    0.999053364168      -0.0363699266433    0.999053364168      -0.0363699266433    -0.00076050957997   -0.0210648271736    
9700000000.0        -0.000776971817651  -0.0212859967234    0.999034324212      -0.036752481442     0.999034324212      -0.036752481442     -0.00077697181765   -0.0212859967234    
9800000000.0        -0.000793606384571  -0.0215071845188    0.999015084911      -0.0371351054504    0.999015084911      -0.0371351054504    -0.000793606384571  -0.0215071845188    
9900000000.0        -0.000810413329705  -0.0217283898282    0.998995646185      -0.0375177982102    0.998995646185      -0.0375177982102    -0.000810413329704  -0.0217283898282    
10000000000.0       -0.000827392700533  -0.021949611917     0.998976007959      -0.037900559259     0.998976007959      -0.037900559259     -0.000827392700533  -0.021949611917     
