# Hz S RI R 50.00 
100000000.0         0.0197383876046     0.00343382537217    0.980257937835      -0.00499123664105   0.980257937835      -0.00499123664105   0.0197383876046     0.00343382537217    
200000000.0         0.0199183760922     0.00686502498972    0.980072832635      -0.00997987196432   0.980072832635      -0.00997987196432   0.0199183760922     0.00686502498972    
300000000.0         0.0200989388245     0.0102940567706     0.979884710582      -0.0149663811154    0.979884710582      -0.0149663811154    0.0200989388245     0.0102940567706     
400000000.0         0.0202968956638     0.0137207970206     0.979676751315      -0.0199506547649    0.979676751315      -0.0199506547649    0.0202968956638     0.0137207970206     
500000000.0         0.0205187099381     0.0171449871471     0.979442490936      -0.0249324472322    0.979442490936      -0.0249324472322    0.0205187099381     0.0171449871471     
600000000.0         0.020767660066      0.0205663092421     0.979178650387      -0.0299114525651    0.979178650387      -0.0299114525651    0.020767660066      0.0205663092421     
700000000.0         0.0210456633323     0.0239844133103     0.978883311669      -0.0348873320214    0.978883311669      -0.0348873320214    0.0210456633323     0.0239844133103     
800000000.0         0.0213539417037     0.0273989299634     0.978555252026      -0.0398597269153    0.978555252026      -0.0398597269153    0.0213539417037     0.0273989299634     
900000000.0         0.0216933183619     0.0308094772938     0.978193647419      -0.0448282655917    0.978193647419      -0.0448282655917    0.0216933183619     0.0308094772938     
1000000000.0        0.0220643680486     0.0342156649943     0.977797922174      -0.0497925676166    0.977797922174      -0.0497925676166    0.0220643680486     0.0342156649943     
1100000000.0        0.0224675006651     0.0376170970176     0.977367665389      -0.0547522464897    0.977367665389      -0.0547522464897    0.0224675006651     0.0376170970176     
1200000000.0        0.0229030111056     0.0410133733986     0.976902581098      -0.0597069115056    0.976902581098      -0.0597069115056    0.0229030111056     0.0410133733986     
1300000000.0        0.0233711106256     0.0444040915619     0.976402456906      -0.0646561690941    0.976402456906      -0.0646561690941    0.0233711106256     0.0444040915619     
1400000000.0        0.0238719474756     0.0477888473001     0.975867143356      -0.0695996238235    0.975867143356      -0.0695996238235    0.0238719474756     0.0477888473001     
1500000000.0        0.0244056209759     0.0511672355303     0.975296539854      -0.0745368791789    0.975296539854      -0.0745368791789    0.0244056209759     0.0511672355303     
1600000000.0        0.0249721914161     0.0545388508984     0.974690584772      -0.0794675381827    0.974690584772      -0.0794675381827    0.0249721914161     0.0545388508984     
1700000000.0        0.0255716872039     0.0579032882723     0.974049248296      -0.0843912039041    0.974049248296      -0.0843912039041    0.0255716872039     0.0579032882723     
1800000000.0        0.0262041101468     0.0612601431567     0.973372527151      -0.0893074798861    0.973372527151      -0.0893074798861    0.0262041101468     0.0612601431567     
1900000000.0        0.0268694394347     0.064609012047      0.972660440615      -0.0942159705104    0.972660440615      -0.0942159705104    0.0268694394347     0.064609012047      
2000000000.0        0.0275676346964     0.0679494927375     0.971913027463      -0.0991162813157    0.971913027463      -0.0991162813157    0.0275676346964     0.0679494927375     
2100000000.0        0.0282986383865     0.0712811845945     0.971130343583      -0.104008019279     0.971130343583      -0.104008019279     0.0282986383865     0.0712811845945     
2200000000.0        0.0290623776752     0.0746036888003     0.970312460086      -0.108890793067     0.970312460086      -0.108890793067     0.0290623776752     0.0746036888003     
2300000000.0        0.0298587659677     0.0779166085756     0.969459461786      -0.113764213267     0.969459461786      -0.113764213267     0.0298587659677     0.0779166085756     
2400000000.0        0.0306877041407     0.0812195493822     0.968571445967      -0.118627892593     0.968571445967      -0.118627892593     0.0306877041407     0.0812195493822     
2500000000.0        0.0315490815611     0.0845121191112     0.967648521359      -0.123481446081     0.967648521359      -0.123481446081     0.0315490815611     0.0845121191112     
2600000000.0        0.032442776937      0.0877939282578     0.966690807295      -0.12832449127      0.966690807295      -0.12832449127      0.032442776937      0.0877939282578     
2700000000.0        0.033368659034      0.091064590085      0.965698432988      -0.133156648366     0.965698432988      -0.133156648366     0.033368659034      0.091064590085      
2800000000.0        0.0343265872876     0.0943237207781     0.964671536927      -0.137977540408     0.964671536927      -0.137977540408     0.0343265872876     0.0943237207781     
2900000000.0        0.0353164123306     0.0975709395906     0.96361026634       -0.14278679341      0.96361026634       -0.14278679341      0.0353164123306     0.0975709395906     
3000000000.0        0.0363379764524     0.100805868982      0.962514776746      -0.147584036507     0.962514776746      -0.147584036507     0.0363379764524     0.100805868982      
3100000000.0        0.0373911140036     0.104028134752      0.96138523154       -0.15236890209      0.96138523154       -0.15236890209      0.0373911140036     0.104028134752      
3200000000.0        0.0384756517557     0.107237366163      0.960221801643      -0.157141025935     0.960221801643      -0.157141025935     0.0384756517557     0.107237366163      
3300000000.0        0.039591409223      0.110433196062      0.959024665176      -0.161900047324     0.959024665176      -0.161900047324     0.039591409223      0.110433196062      
3400000000.0        0.0407381989552     0.113615260996      0.957794007166      -0.166645609167     0.957794007166      -0.166645609167     0.0407381989552     0.113615260996      
3500000000.0        0.0419158268035     0.116783201323      0.956530019284      -0.17137735811      0.956530019284      -0.17137735811      0.0419158268035     0.116783201323      
3600000000.0        0.0431240921665     0.119936661316      0.955232899598      -0.176094944646     0.955232899598      -0.176094944646     0.0431240921665     0.119936661316      
3700000000.0        0.0443627882179     0.123075289265      0.953902852346      -0.180798023219     0.953902852346      -0.180798023219     0.0443627882179     0.123075289265      
3800000000.0        0.04563170212       0.126198737576      0.95254008772       -0.185486252322     0.95254008772       -0.185486252322     0.04563170212       0.126198737576      
3900000000.0        0.0469306152238     0.129306662865      0.95114482167       -0.190159294594     0.95114482167       -0.190159294594     0.0469306152238     0.129306662865      
4000000000.0        0.048259303259      0.132398726043      0.949717275713      -0.194816816909     0.949717275713      -0.194816816909     0.048259303259      0.132398726043      
4100000000.0        0.0496175365155     0.135474592407      0.94825767675       -0.199458490469     0.94825767675       -0.199458490469     0.0496175365155     0.135474592407      
4200000000.0        0.0510050800163     0.138533931722      0.946766256895      -0.204083990883     0.946766256895      -0.204083990883     0.0510050800163     0.138533931722      
4300000000.0        0.0524216936847     0.141576418299      0.945243253309      -0.208692998249     0.945243253309      -0.208692998249     0.0524216936847     0.141576418299      
4400000000.0        0.0538671325051     0.144601731068      0.943688908036      -0.213285197234     0.943688908036      -0.213285197234     0.0538671325051     0.144601731068      
4500000000.0        0.0553411466798     0.147609553657      0.94210346785       -0.217860277144     0.94210346785       -0.217860277144     0.0553411466798     0.147609553657      
4600000000.0        0.0568434817811     0.150599574454      0.940487184102      -0.222417931994     0.940487184102      -0.222417931994     0.0568434817811     0.150599574454      
4700000000.0        0.0583738788998     0.153571486676      0.938840312571      -0.226957860581     0.938840312571      -0.226957860581     0.0583738788998     0.153571486676      
4800000000.0        0.0599320747907     0.156524988433      0.937163113316      -0.231479766539     0.937163113316      -0.231479766539     0.0599320747907     0.156524988433      
4900000000.0        0.0615178020155     0.159459782784      0.935455850542      -0.235983358407     0.935455850542      -0.235983358407     0.0615178020155     0.159459782784      
5000000000.0        0.0631307890825     0.162375577793      0.933718792448      -0.240468349681     0.933718792448      -0.240468349681     0.0631307890825     0.162375577793      
5100000000.0        0.0647707605856     0.165272086588      0.931952211101      -0.244934458874     0.931952211101      -0.244934458874     0.0647707605856     0.165272086588      
5200000000.0        0.0664374373395     0.168149027403      0.93015638229       -0.249381409559     0.93015638229       -0.249381409559     0.0664374373395     0.168149027403      
5300000000.0        0.0681305365149     0.171006123631      0.928331585398      -0.253808930424     0.928331585398      -0.253808930424     0.0681305365149     0.171006123631      
5400000000.0        0.0698497717709     0.173843103865      0.926478103267      -0.258216755314     0.926478103267      -0.258216755314     0.0698497717709     0.173843103865      
5500000000.0        0.0715948533864     0.17665970194       0.924596222067      -0.262604623274     0.924596222067      -0.262604623274     0.0715948533864     0.17665970194       
5600000000.0        0.0733654883907     0.179455656969      0.922686231166      -0.266972278586     0.922686231166      -0.266972278586     0.0733654883907     0.179455656969      
5700000000.0        0.0751613806915     0.182230713383      0.920748423         -0.271319470807     0.920748423         -0.271319470807     0.0751613806915     0.182230713383      
5800000000.0        0.0769822312034     0.184984620958      0.918783092949      -0.2756459548       0.918783092949      -0.2756459548       0.0769822312034     0.184984620958      
5900000000.0        0.0788277379738     0.187717134848      0.916790539206      -0.279951490768     0.916790539206      -0.279951490768     0.0788277379738     0.187717134848      
6000000000.0        0.0806975963085     0.190428015609      0.914771062656      -0.284235844276     0.914771062656      -0.284235844276     0.0806975963085     0.190428015609      
6100000000.0        0.0825914988963     0.193117029223      0.912724966747      -0.28849878628      0.912724966747      -0.28849878628      0.0825914988963     0.193117029223      
6200000000.0        0.0845091359321     0.195783947122      0.910652557372      -0.292740093145     0.910652557372      -0.292740093145     0.0845091359321     0.195783947122      
6300000000.0        0.0864501952392     0.198428546203      0.908554142742      -0.296959546667     0.908554142742      -0.296959546667     0.0864501952392     0.198428546203      
6400000000.0        0.088414362391      0.201050608844      0.906430033268      -0.301156934088     0.906430033268      -0.301156934088     0.088414362391      0.201050608844      
6500000000.0        0.0904013208306     0.203649922918      0.904280541438      -0.305332048108     0.904280541438      -0.305332048108     0.0904013208306     0.203649922918      
6600000000.0        0.0924107519909     0.206226281802      0.902105981702      -0.309484686898     0.902105981702      -0.309484686898     0.0924107519909     0.206226281802      
6700000000.0        0.0944423354121     0.208779484385      0.899906670348      -0.313614654108     0.899906670348      -0.313614654108     0.0944423354121     0.208779484385      
6800000000.0        0.0964957488594     0.211309335074      0.89768292539       -0.31772175887      0.89768292539       -0.31772175887      0.0964957488594     0.211309335074      
6900000000.0        0.0985706684386     0.213815643795      0.895435066449      -0.321805815805     0.895435066449      -0.321805815805     0.0985706684386     0.213815643795      
7000000000.0        0.100666768712      0.216298225995      0.89316341464       -0.325866645021     0.89316341464       -0.325866645021     0.100666768712      0.216298225995      
7100000000.0        0.102783722811      0.218756902636      0.890868292455      -0.329904072111     0.890868292455      -0.329904072111     0.102783722811      0.218756902636      
7200000000.0        0.10492120255       0.221191500194      0.888550023653      -0.333917928149     0.888550023653      -0.333917928149     0.10492120255       0.221191500194      
7300000000.0        0.107078878537      0.223601850651      0.886208933149      -0.337908049684     0.886208933149      -0.337908049684     0.107078878537      0.223601850651      
7400000000.0        0.109256420287      0.225987791483      0.883845346901      -0.341874278731     0.883845346901      -0.341874278731     0.109256420287      0.225987791483      
7500000000.0        0.111453496326      0.22834916565       0.8814595918        -0.34581646276      0.8814595918        -0.34581646276      0.111453496326      0.22834916565       
7600000000.0        0.113669774303      0.230685821584      0.879051995567      -0.349734454678     0.879051995567      -0.349734454678     0.113669774303      0.230685821584      
7700000000.0        0.115904921096      0.232997613169      0.876622886642      -0.353628112821     0.876622886642      -0.353628112821     0.115904921096      0.232997613169      
7800000000.0        0.118158602917      0.235284399723      0.87417259408       -0.357497300929     0.87417259408       -0.357497300929     0.118158602917      0.235284399723      
7900000000.0        0.120430485415      0.237546045981      0.871701447445      -0.36134188813      0.871701447445      -0.36134188813      0.120430485415      0.237546045981      
8000000000.0        0.122720233781      0.239782422071      0.869209776711      -0.365161748915     0.869209776711      -0.365161748915     0.122720233781      0.239782422071      
8100000000.0        0.125027512848      0.241993403485      0.866697912157      -0.368956763117     0.866697912157      -0.368956763117     0.125027512848      0.241993403485      
8200000000.0        0.127351987189      0.24417887106       0.86416618427       -0.372726815884     0.86416618427       -0.372726815884     0.127351987189      0.24417887106       
8300000000.0        0.129693321222      0.246338710945      0.861614923643      -0.376471797647     0.861614923643      -0.376471797647     0.129693321222      0.246338710945      
8400000000.0        0.132051179299      0.248472814569      0.859044460882      -0.380191604097     0.859044460882      -0.380191604097     0.132051179299      0.248472814569      
8500000000.0        0.134425225806      0.250581078616      0.856455126507      -0.383886136147     0.856455126507      -0.383886136147     0.134425225806      0.250581078616      
8600000000.0        0.136815125257      0.252663404983      0.853847250858      -0.387555299903     0.853847250858      -0.387555299903     0.136815125257      0.252663404983      
8700000000.0        0.139220542387      0.25471970075       0.851221164006      -0.391199006625     0.851221164006      -0.391199006625     0.139220542387      0.25471970075       
8800000000.0        0.141641142238      0.256749878141      0.848577195657      -0.394817172694     0.848577195657      -0.394817172694     0.141641142238      0.256749878141      
8900000000.0        0.144076590257      0.258753854485      0.845915675066      -0.39840971957      0.845915675066      -0.39840971957      0.144076590257      0.258753854485      
9000000000.0        0.146526552377      0.260731552175      0.843236930948      -0.401976573754     0.843236930948      -0.401976573754     0.146526552377      0.260731552175      
9100000000.0        0.148990695104      0.26268289863       0.840541291393      -0.405517666747     0.840541291393      -0.405517666747     0.148990695104      0.26268289863       
9200000000.0        0.151468685605      0.264607826245      0.837829083776      -0.409032935004     0.837829083776      -0.409032935004     0.151468685605      0.264607826245      
9300000000.0        0.153960191788      0.266506272353      0.835100634683      -0.412522319893     0.835100634683      -0.412522319893     0.153960191788      0.266506272353      
9400000000.0        0.156464882386      0.268378179175      0.83235626982       -0.415985767647     0.83235626982       -0.415985767647     0.156464882386      0.268378179175      
9500000000.0        0.158982427033      0.270223493773      0.829596313941      -0.419423229317     0.829596313941      -0.419423229317     0.158982427033      0.270223493773      
9600000000.0        0.161512496343      0.272042168005      0.826821090765      -0.422834660727     0.826821090765      -0.422834660727     0.161512496343      0.272042168005      
9700000000.0        0.164054761991      0.273834158468      0.824030922901      -0.426220022418     0.824030922901      -0.426220022418     0.164054761991      0.273834158468      
9800000000.0        0.166608896781      0.275599426456      0.821226131776      -0.429579279604     0.821226131776      -0.429579279604     0.166608896781      0.275599426456      
9900000000.0        0.169174574722      0.277337937901      0.818407037557      -0.432912402114     0.818407037557      -0.432912402114     0.169174574722      0.277337937901      
10000000000.0       0.1717514711        0.279049663322      0.815573959083      -0.436219364347     0.815573959083      -0.436219364347     0.1717514711        0.279049663322      
