# Hz S RI R 50.00 
100000000.0         0.0111759969184     0.00261252123152    0.988815598706      -0.00562712833693   0.988815598706      -0.00562712833693   0.0111759969184     0.00261252123152    
200000000.0         0.0112927875209     0.0052234534105     0.988682280863      -0.011252678524     0.988682280863      -0.011252678524     0.0112927875209     0.0052234534105     
300000000.0         0.0114198263201     0.00783291249736    0.988529590826      -0.0168767794285    0.988529590826      -0.0168767794285    0.0114198263201     0.00783291249736    
400000000.0         0.0115666953634     0.0104406937077     0.988347945183      -0.0224992354923    0.988347945183      -0.0224992354923    0.0115666953634     0.0104406937077     
500000000.0         0.0117370700327     0.0130465181688     0.988133666912      -0.0281197752088    0.988133666912      -0.0281197752088    0.0117370700327     0.0130465181688     
600000000.0         0.0119328090062     0.0156500745747     0.987884895409      -0.0337380934175    0.987884895409      -0.0337380934175    0.0119328090062     0.0156500745747     
700000000.0         0.0121549939974     0.0182510341791     0.987600546754      -0.0393538666216    0.987600546754      -0.0393538666216    0.0121549939974     0.0182510341791     
800000000.0         0.0124043092196     0.0208490577854     0.987279934247      -0.0449667601721    0.987279934247      -0.0449667601721    0.0124043092196     0.0208490577854     
900000000.0         0.0126812103365     0.0234437995353     0.986922599455      -0.0505764321843    0.986922599455      -0.0505764321843    0.0126812103365     0.0234437995353     
1000000000.0        0.0129860100968     0.0260349091847     0.986528226587      -0.0561825359024    0.986528226587      -0.0561825359024    0.0129860100968     0.0260349091847     
1100000000.0        0.0133189259387     0.0286220335786     0.98609659489       -0.0617847212405    0.98609659489       -0.0617847212405    0.0133189259387     0.0286220335786     
1200000000.0        0.013680108359      0.031204817667      0.985627550278      -0.0673826358473    0.985627550278      -0.0673826358473    0.013680108359      0.031204817667      
1300000000.0        0.014069658766      0.0337829052393     0.985120987489      -0.0729759258803    0.985120987489      -0.0729759258803    0.014069658766      0.0337829052393     
1400000000.0        0.0144876412205     0.0363559394784     0.984576838341      -0.07856423659      0.984576838341      -0.07856423659      0.0144876412205     0.0363559394784     
1500000000.0        0.0149340904434     0.0389235633939     0.983995063727      -0.084147212779     0.983995063727      -0.084147212779     0.0149340904434     0.0389235633939     
1600000000.0        0.0154090174468     0.0414854201721     0.983375647989      -0.0897244991721    0.983375647989      -0.0897244991721    0.0154090174468     0.0414854201721     
1700000000.0        0.0159124136003     0.0440411534658     0.98271859485       -0.0952957407239    0.98271859485       -0.0952957407239    0.0159124136003     0.0440411534658     
1800000000.0        0.0164442536355     0.0465904076412     0.982023924413      -0.10086058288      0.982023924413      -0.10086058288      0.0164442536355     0.0465904076412     
1900000000.0        0.0170044979114     0.0491328279913     0.981291670896      -0.106418671803     0.981291670896      -0.106418671803     0.0170044979114     0.0491328279913     
2000000000.0        0.0175930941541     0.0516680609253     0.980521880898      -0.111969654572     0.980521880898      -0.111969654572     0.0175930941541     0.0516680609253     
2100000000.0        0.0182099788152     0.0541957541382     0.979714612035      -0.117513179362     0.979714612035      -0.117513179362     0.0182099788152     0.0541957541382     
2200000000.0        0.0188550781488     0.0567155567653     0.97886993187       -0.123048895608     0.97886993187       -0.123048895608     0.0188550781488     0.0567155567653     
2300000000.0        0.0195283090778     0.0592271195239     0.977987917046      -0.128576454149     0.977987917046      -0.128576454149     0.0195283090778     0.0592271195239     
2400000000.0        0.0202295798993     0.0617300948457     0.977068652581      -0.134095507372     0.977068652581      -0.134095507372     0.0202295798993     0.0617300948457     
2500000000.0        0.0209587908676     0.0642241370001     0.976112231289      -0.139605709336     0.976112231289      -0.139605709336     0.0209587908676     0.0642241370001     
2600000000.0        0.0217158346813     0.0667089022108     0.975118753289      -0.145106715897     0.975118753289      -0.145106715897     0.0217158346813     0.0667089022108     
2700000000.0        0.0225005968946     0.0691840487665     0.974088325601      -0.150598184821     0.974088325601      -0.150598184821     0.0225005968946     0.0691840487665     
2800000000.0        0.02331295627       0.0716492371262     0.973021061789      -0.156079775892     0.973021061789      -0.156079775892     0.02331295627       0.0716492371262     
2900000000.0        0.0241527850823     0.0741041300198     0.97191708166       -0.161551151019     0.97191708166       -0.161551151019     0.0241527850823     0.0741041300198     
3000000000.0        0.0250199493858     0.076548392545      0.970776510999      -0.167011974331     0.970776510999      -0.167011974331     0.0250199493858     0.076548392545      
3100000000.0        0.0259143092485     0.0789816922601     0.969599481331      -0.172461912279     0.969599481331      -0.172461912279     0.0259143092485     0.0789816922601     
3200000000.0        0.0268357189635     0.0814036992741     0.968386129716      -0.177900633721     0.968386129716      -0.177900633721     0.0268357189635     0.0814036992741     
3300000000.0        0.0277840272375     0.0838140863327     0.967136598559      -0.183327810016     0.967136598559      -0.183327810016     0.0277840272375     0.0838140863327     
3400000000.0        0.0287590773634     0.0862125289027     0.965851035436      -0.188743115105     0.965851035436      -0.188743115105     0.0287590773634     0.0862125289027     
3500000000.0        0.0297607073792     0.0885987052527     0.96452959294       -0.194146225598     0.96452959294       -0.194146225598     0.0297607073792     0.0885987052527     
3600000000.0        0.0307887502141     0.0909722965316     0.963172428529      -0.199536820851     0.963172428529      -0.199536820851     0.0307887502141     0.0909722965316     
3700000000.0        0.0318430338261     0.093332986845      0.961779704397      -0.204914583043     0.961779704397      -0.204914583043     0.0318430338261     0.093332986845      
3800000000.0        0.0329233813303     0.0956804633288     0.960351587341      -0.210279197253     0.960351587341      -0.210279197253     0.0329233813303     0.0956804633288     
3900000000.0        0.0340296111217     0.0980144162208     0.95888824864       -0.215630351531     0.95888824864       -0.215630351531     0.0340296111217     0.0980144162208     
4000000000.0        0.0351615369913     0.10033453893       0.957389863938      -0.220967736967     0.957389863938      -0.220967736967     0.0351615369913     0.10033453893       
4100000000.0        0.0363189682377     0.102640528104      0.955856613136      -0.226291047761     0.955856613136      -0.226291047761     0.0363189682377     0.102640528104      
4200000000.0        0.0375017097753     0.104932083693      0.954288680282      -0.231599981286     0.954288680282      -0.231599981286     0.0375017097753     0.104932083693      
4300000000.0        0.0387095622378     0.107208909016      0.952686253468      -0.236894238155     0.952686253468      -0.236894238155     0.0387095622378     0.107208909016      
4400000000.0        0.0399423220804     0.109470710819      0.95104952473       -0.242173522279     0.95104952473       -0.242173522279     0.0399423220804     0.109470710819      
4500000000.0        0.0411997816783     0.111717199333      0.949378689946      -0.247437540928     0.949378689946      -0.247437540928     0.0411997816783     0.111717199333      
4600000000.0        0.0424817294238     0.113948088335      0.947673948743      -0.252686004785     0.947673948743      -0.252686004785     0.0424817294238     0.113948088335      
4700000000.0        0.0437879498214     0.116163095202      0.945935504401      -0.257918628007     0.945935504401      -0.257918628007     0.0437879498214     0.116163095202      
4800000000.0        0.0451182235817     0.118361940961      0.94416356376       -0.263135128274     0.94416356376       -0.263135128274     0.0451182235817     0.118361940961      
4900000000.0        0.0464723277139     0.120544350345      0.942358337125      -0.26833522684      0.942358337125      -0.26833522684      0.0464723277139     0.120544350345      
5000000000.0        0.047850035617      0.122710051839      0.940520038178      -0.273518648584     0.940520038178      -0.273518648584     0.047850035617      0.122710051839      
5100000000.0        0.0492511171704     0.124858777728      0.938648883889      -0.278685122055     0.938648883889      -0.278685122055     0.0492511171704     0.124858777728      
5200000000.0        0.0506753388237     0.126990264146      0.93674509442       -0.28383437952      0.93674509442       -0.28383437952      0.0506753388237     0.126990264146      
5300000000.0        0.0521224636857     0.129104251114      0.934808893043      -0.288966157006     0.934808893043      -0.288966157006     0.0521224636857     0.129104251114      
5400000000.0        0.0535922516127     0.131200482588      0.93284050605       -0.294080194338     0.93284050605       -0.294080194338     0.0535922516127     0.131200482588      
5500000000.0        0.0550844592968     0.133278706493      0.930840162662      -0.299176235187     0.930840162662      -0.299176235187     0.0550844592968     0.133278706493      
5600000000.0        0.0565988403528     0.135338674766      0.928808094946      -0.304254027096     0.928808094946      -0.304254027096     0.0565988403528     0.135338674766      
5700000000.0        0.0581351454059     0.13738014339       0.926744537724      -0.309313321527     0.926744537724      -0.309313321527     0.0581351454059     0.13738014339       
5800000000.0        0.059693122178      0.139402872428      0.92464972849       -0.314353873886     0.92464972849       -0.314353873886     0.059693122178      0.139402872428      
5900000000.0        0.0612725155741     0.141406626058      0.922523907323      -0.319375443561     0.922523907323      -0.319375443561     0.0612725155741     0.141406626058      
6000000000.0        0.0628730677685     0.143391172601      0.920367316799      -0.324377793946     0.920367316799      -0.324377793946     0.0628730677685     0.143391172601      
6100000000.0        0.0644945182901     0.145356284552      0.918180201906      -0.329360692476     0.918180201906      -0.329360692476     0.0644945182901     0.145356284552      
6200000000.0        0.0661366041084     0.147301738606      0.915962809962      -0.334323910648     0.915962809962      -0.334323910648     0.0661366041084     0.147301738606      
6300000000.0        0.067799059718      0.149227315685      0.913715390526      -0.339267224047     0.913715390526      -0.339267224047     0.067799059718      0.149227315685      
6400000000.0        0.0694816172238     0.151132800957      0.911438195314      -0.34419041237      0.911438195314      -0.34419041237      0.0694816172238     0.151132800957      
6500000000.0        0.0711840064254     0.153017983865      0.909131478116      -0.349093259445     0.909131478116      -0.349093259445     0.0711840064254     0.153017983865      
6600000000.0        0.072905954901      0.154882658143      0.906795494711      -0.35397555325      0.906795494711      -0.35397555325      0.072905954901      0.154882658143      
6700000000.0        0.0746471880915     0.156726621831      0.904430502782      -0.358837085933     0.904430502782      -0.358837085933     0.0746471880915     0.156726621831      
6800000000.0        0.0764074293839     0.1585496773        0.902036761837      -0.363677653824     0.902036761837      -0.363677653824     0.0764074293839     0.1585496773        
6900000000.0        0.0781864001946     0.160351631259      0.899614533118      -0.368497057451     0.899614533118      -0.368497057451     0.0781864001946     0.160351631259      
7000000000.0        0.0799838200516     0.162132294772      0.897164079526      -0.37329510155      0.897164079526      -0.37329510155      0.0799838200516     0.162132294772      
7100000000.0        0.0817994066776     0.163891483269      0.894685665536      -0.378071595077     0.894685665536      -0.378071595077     0.0817994066776     0.163891483269      
7200000000.0        0.0836328760713     0.165629016555      0.892179557112      -0.382826351218     0.892179557112      -0.382826351218     0.0836328760713     0.165629016555      
7300000000.0        0.0854839425891     0.16734471882       0.889646021629      -0.387559187391     0.889646021629      -0.387559187391     0.0854839425891     0.16734471882       
7400000000.0        0.0873523190263     0.169038418642      0.887085327792      -0.392269925256     0.887085327792      -0.392269925256     0.0873523190263     0.169038418642      
7500000000.0        0.0892377166975     0.170709948997      0.884497745552      -0.396958390717     0.884497745552      -0.396958390717     0.0892377166975     0.170709948997      
7600000000.0        0.0911398455165     0.172359147258      0.881883546031      -0.401624413924     0.881883546031      -0.401624413924     0.0911398455165     0.172359147258      
7700000000.0        0.093058414076      0.173985855197      0.879243001436      -0.40626782927      0.879243001436      -0.40626782927      0.093058414076      0.173985855197      
7800000000.0        0.0949931297265     0.175589918989      0.876576384988      -0.410888475398     0.876576384988      -0.410888475398     0.0949931297265     0.175589918989      
7900000000.0        0.0969436986547     0.177171189205      0.873883970834      -0.415486195189     0.873883970834      -0.415486195189     0.0969436986547     0.177171189205      
8000000000.0        0.0989098259614     0.178729520816      0.871166033979      -0.420060835763     0.871166033979      -0.420060835763     0.0989098259614     0.178729520816      
8100000000.0        0.100891215738      0.180264773181      0.8684228502        -0.424612248473     0.8684228502        -0.424612248473     0.100891215738      0.180264773181      
8200000000.0        0.102887571144      0.181776810048      0.865654695975      -0.429140288896     0.865654695975      -0.429140288896     0.102887571144      0.181776810048      
8300000000.0        0.104898594483      0.183265499542      0.862861848405      -0.433644816825     0.862861848405      -0.433644816825     0.104898594483      0.183265499542      
8400000000.0        0.106923987275      0.184730714159      0.860044585139      -0.438125696258     0.860044585139      -0.438125696258     0.106923987275      0.184730714159      
8500000000.0        0.108963450335      0.186172330755      0.8572031843        -0.442582795387     0.8572031843        -0.442582795387     0.108963450335      0.186172330755      
8600000000.0        0.111016683845      0.187590230534      0.85433792441       -0.447015986585     0.85433792441       -0.447015986585     0.111016683845      0.187590230534      
8700000000.0        0.113083387425      0.188984299036      0.851449084318      -0.451425146393     0.851449084318      -0.451425146393     0.113083387425      0.188984299036      
8800000000.0        0.115163260207      0.190354426123      0.848536943126      -0.455810155499     0.848536943126      -0.455810155499     0.115163260207      0.190354426123      
8900000000.0        0.117256000909      0.191700505964      0.845601780119      -0.460170898729     0.845601780119      -0.460170898729     0.117256000909      0.191700505964      
9000000000.0        0.119361307898      0.193022437017      0.842643874695      -0.464507265021     0.842643874695      -0.464507265021     0.119361307898      0.193022437017      
9100000000.0        0.121478879267      0.194320122013      0.839663506295      -0.46881914741      0.839663506295      -0.46881914741      0.121478879267      0.194320122013      
9200000000.0        0.123608412903      0.195593467933      0.836660954329      -0.473106443006     0.836660954329      -0.473106443006     0.123608412903      0.195593467933      
9300000000.0        0.12574960655       0.196842385994      0.833636498117      -0.477369052969     0.833636498117      -0.477369052969     0.12574960655       0.196842385994      
9400000000.0        0.127902157881      0.198066791622      0.830590416813      -0.481606882492     0.830590416813      -0.481606882492     0.127902157881      0.198066791622      
9500000000.0        0.13006576456       0.199266604433      0.827522989345      -0.485819840772     0.827522989345      -0.485819840772     0.13006576456       0.199266604433      
9600000000.0        0.132240124315      0.200441748207      0.824434494345      -0.490007840983     0.824434494345      -0.490007840983     0.132240124315      0.200441748207      
9700000000.0        0.13442493499       0.201592150864      0.821325210087      -0.494170800256     0.821325210087      -0.494170800256     0.13442493499       0.201592150864      
9800000000.0        0.136619894621      0.202717744439      0.818195414423      -0.498308639643     0.818195414423      -0.498308639643     0.136619894621      0.202717744439      
9900000000.0        0.138824701489      0.203818465057      0.815045384722      -0.502421284096     0.815045384722      -0.502421284096     0.138824701489      0.203818465057      
10000000000.0       0.141039054187      0.204894252899      0.811875397805      -0.506508662431     0.811875397805      -0.506508662431     0.141039054187      0.204894252899      
