# Hz S RI R 50.00 
100000000.0         0.0255062454529     0.00327992748377    0.974490982654      -0.00445429220255   0.974490982654      -0.00445429220255   0.0255062454529     0.00327992748377    
200000000.0         0.0257151631226     0.00655690284959    0.974278901725      -0.00890564160879   0.974278901725      -0.00890564160879   0.0257151631226     0.00655690284959    
300000000.0         0.0259097575222     0.00983163872462    0.974079752471      -0.0133547684777    0.974079752471      -0.0133547684777    0.0259097575222     0.00983163872462    
400000000.0         0.0261116724887     0.0131041580983     0.973871890834      -0.0178017024076    0.973871890834      -0.0178017024076    0.0261116724887     0.0131041580983     
500000000.0         0.0263292379886     0.0163743240012     0.973646986616      -0.022246312523     0.973646986616      -0.022246312523     0.0263292379886     0.0163743240012     
600000000.0         0.0265666910476     0.019641928985      0.973400802535      -0.026688397133     0.973400802535      -0.026688397133     0.0265666910476     0.019641928985      
700000000.0         0.0268265211004     0.0229067272952     0.973130848883      -0.031127715995     0.973130848883      -0.031127715995     0.0268265211004     0.0229067272952     
800000000.0         0.0271103263693     0.0261684498272     0.972835527137      -0.0355640053252    0.972835527137      -0.0355640053252    0.0271103263693     0.0261684498272     
900000000.0         0.0274191953305     0.0294268121936     0.972513748496      -0.0399969859017    0.972513748496      -0.0399969859017    0.0274191953305     0.0294268121936     
1000000000.0        0.0277539001503     0.0326815195314     0.972164740444      -0.0444263678966    0.972164740444      -0.0444263678966    0.0277539001503     0.0326815195314     
1100000000.0        0.0281150042574     0.0359322695834     0.97178793918       -0.0488518539768    0.97178793918       -0.0488518539768    0.0281150042574     0.0359322695834     
1200000000.0        0.028502926471      0.0391787547894     0.971382925481      -0.0532731414089    0.971382925481      -0.0532731414089    0.028502926471      0.0391787547894     
1300000000.0        0.028917981367      0.0424206637705     0.970949384349      -0.0576899235543    0.970949384349      -0.0576899235543    0.028917981367      0.0424206637705     
1400000000.0        0.0293604058258     0.0456576824241     0.970487078451      -0.0621018909741    0.970487078451      -0.0621018909741    0.0293604058258     0.0456576824241     
1500000000.0        0.0298303771376     0.0488894947586     0.96999583002       -0.0665087322704    0.96999583002       -0.0665087322704    0.0298303771376     0.0488894947586     
1600000000.0        0.0303280257293     0.0521157835467     0.969475508128      -0.0709101347465    0.969475508128      -0.0709101347465    0.0303280257293     0.0521157835467     
1700000000.0        0.0308534443484     0.0553362308521     0.968926019501      -0.0753057849378    0.968926019501      -0.0753057849378    0.0308534443484     0.0553362308521     
1800000000.0        0.0314066948407     0.0585505184603     0.96834730174       -0.0796953690483    0.96834730174       -0.0796953690483    0.0314066948407     0.0585505184603     
1900000000.0        0.0319878132522     0.0617583282411     0.967739318223      -0.0840785733158    0.967739318223      -0.0840785733158    0.0319878132522     0.0617583282411     
2000000000.0        0.0325968137377     0.0649593424574     0.967102054193      -0.0884550843248    0.967102054193      -0.0884550843248    0.0325968137377     0.0649593424574     
2100000000.0        0.0332336916033     0.068153244032      0.966435513716      -0.0928245892763    0.966435513716      -0.0928245892763    0.0332336916033     0.068153244032      
2200000000.0        0.033898425708      0.0713397167835     0.965739717282      -0.0971867762255    0.965739717282      -0.0971867762255    0.033898425708      0.0713397167835     
2300000000.0        0.0345909803851     0.0745184456353     0.965014699881      -0.101541334294     0.965014699881      -0.101541334294     0.0345909803851     0.0745184456353     
2400000000.0        0.0353113069982     0.0776891168035     0.964260509448      -0.10588795386      0.964260509448      -0.10588795386      0.0353113069982     0.0776891168035     
2500000000.0        0.0360593452147     0.0808514179688     0.963477205591      -0.11022632673      0.963477205591      -0.11022632673      0.0360593452147     0.0808514179688     
2600000000.0        0.0368350240605     0.0840050384329     0.962664858533      -0.114556146301     0.962664858533      -0.114556146301     0.0368350240605     0.0840050384329     
2700000000.0        0.0376382628016     0.0871496692638     0.961823548235      -0.118877107703     0.961823548235      -0.118877107703     0.0376382628016     0.0871496692638     
2800000000.0        0.0384689716878     0.0902850034303     0.960953363647      -0.123188907938     0.960953363647      -0.123188907938     0.0384689716878     0.0902850034303     
2900000000.0        0.0393270525872     0.093410735928      0.960054402079      -0.127491246004     0.960054402079      -0.127491246004     0.0393270525872     0.093410735928      
3000000000.0        0.0402123995308     0.0965265638982     0.959126768654      -0.13178382302      0.959126768654      -0.13178382302      0.0402123995308     0.0965265638982     
3100000000.0        0.041124899185      0.0996321867388     0.958170575833      -0.136066342333     0.958170575833      -0.136066342333     0.041124899185      0.0996321867388     
3200000000.0        0.0420644312651     0.102727306211      0.957185943006      -0.14033850963      0.957185943006      -0.14033850963      0.0420644312651     0.102727306211      
3300000000.0        0.0430308688994     0.105811626539      0.956172996127      -0.144600033036     0.956172996127      -0.144600033036     0.0430308688994     0.105811626539      
3400000000.0        0.0440240789533     0.108884854507      0.955131867387      -0.14885062321      0.955131867387      -0.14885062321      0.0440240789533     0.108884854507      
3500000000.0        0.0450439223187     0.111946699548      0.954062694929      -0.153089993442     0.954062694929      -0.153089993442     0.0450439223187     0.111946699548      
3600000000.0        0.0460902541764     0.114996873835      0.95296562258       -0.157317859736     0.95296562258       -0.157317859736     0.0460902541764     0.114996873835      
3700000000.0        0.0471629242337     0.118035092358      0.95184079962       -0.161533940895     0.95184079962       -0.161533940895     0.0471629242337     0.118035092358      
3800000000.0        0.0482617769422     0.121061073013      0.95068838056       -0.165737958604     0.95068838056       -0.165737958604     0.0482617769422     0.121061073013      
3900000000.0        0.0493866516989     0.124074536671      0.949508524943      -0.169929637507     0.949508524943      -0.169929637507     0.0493866516989     0.124074536671      
4000000000.0        0.0505373830321     0.127075207254      0.948301397154      -0.174108705278     0.948301397154      -0.174108705278     0.0505373830321     0.127075207254      
4100000000.0        0.0517138007758     0.130062811807      0.947067166252      -0.178274892696     0.947067166252      -0.178274892696     0.0517138007758     0.130062811807      
4200000000.0        0.0529157302327     0.133037080565      0.945806005804      -0.182427933712     0.945806005804      -0.182427933712     0.0529157302327     0.133037080565      
4300000000.0        0.0541429923285     0.135997747017      0.944518093728      -0.186567565512     0.944518093728      -0.186567565512     0.0541429923285     0.135997747017      
4400000000.0        0.055395403758      0.138944547969      0.943203612152      -0.190693528584     0.943203612152      -0.190693528584     0.055395403758      0.138944547969      
4500000000.0        0.0566727771251     0.141877223603      0.94186274727       -0.194805566776     0.94186274727       -0.194805566776     0.0566727771251     0.141877223603      
4600000000.0        0.0579749210758     0.144795517536      0.940495689212      -0.198903427353     0.940495689212      -0.198903427353     0.0579749210758     0.144795517536      
4700000000.0        0.0593016404268     0.147699176872      0.939102631913      -0.202986861053     0.939102631913      -0.202986861053     0.0593016404268     0.147699176872      
4800000000.0        0.0606527362898     0.150587952259      0.937683772989      -0.207055622141     0.937683772989      -0.207055622141     0.0606527362898     0.150587952259      
4900000000.0        0.0620280061911     0.153461597933      0.936239313621      -0.211109468457     0.936239313621      -0.211109468457     0.0620280061911     0.153461597933      
5000000000.0        0.0634272441882     0.15631987177       0.934769458434      -0.215148161466     0.934769458434      -0.215148161466     0.0634272441882     0.15631987177       
5100000000.0        0.0648502409832     0.159162535329      0.933274415384      -0.219171466303     0.933274415384      -0.219171466303     0.0648502409832     0.159162535329      
5200000000.0        0.066296784034      0.161989353899      0.93175439565       -0.223179151816     0.93175439565       -0.223179151816     0.066296784034      0.161989353899      
5300000000.0        0.0677666576621     0.164800096536      0.930209613524      -0.227170990609     0.930209613524      -0.227170990609     0.0677666576621     0.164800096536      
5400000000.0        0.069259643159      0.167594536101      0.928640286303      -0.231146759079     0.928640286303      -0.231146759079     0.069259643159      0.167594536101      
5500000000.0        0.0707755188906     0.170372449303      0.92704663419       -0.235106237456     0.92704663419       -0.235106237456     0.0707755188906     0.170372449303      
5600000000.0        0.0723140603995     0.173133616726      0.925428880185      -0.239049209834     0.925428880185      -0.239049209834     0.0723140603995     0.173133616726      
5700000000.0        0.0738750405062     0.175877822866      0.923787249989      -0.242975464208     0.923787249989      -0.242975464208     0.0738750405062     0.175877822866      
5800000000.0        0.0754582294082     0.178604856161      0.922121971903      -0.246884792499     0.922121971903      -0.246884792499     0.0754582294082     0.178604856161      
5900000000.0        0.0770633947782     0.181314509018      0.920433276728      -0.250776990588     0.920433276728      -0.250776990588     0.0770633947782     0.181314509018      
6000000000.0        0.0786903018614     0.18400657784       0.918721397671      -0.254651858341     0.918721397671      -0.254651858341     0.0786903018614     0.18400657784       
6100000000.0        0.0803387135706     0.186680863049      0.916986570248      -0.258509199633     0.916986570248      -0.258509199633     0.0803387135706     0.186680863049      
6200000000.0        0.0820083905814     0.189337169112      0.915229032189      -0.262348822369     0.915229032189      -0.262348822369     0.0820083905814     0.189337169112      
6300000000.0        0.0836990914256     0.191975304556      0.913449023347      -0.266170538507     0.913449023347      -0.266170538507     0.0836990914256     0.191975304556      
6400000000.0        0.0854105725835     0.194595081991      0.911646785599      -0.269974164077     0.911646785599      -0.269974164077     0.0854105725835     0.194595081991      
6500000000.0        0.0871425885764     0.197196318124      0.909822562762      -0.273759519193     0.909822562762      -0.273759519193     0.0871425885764     0.197196318124      
6600000000.0        0.0888948920565     0.199778833774      0.907976600498      -0.277526428075     0.907976600498      -0.277526428075     0.0888948920565     0.199778833774      
6700000000.0        0.0906672338973     0.202342453885      0.906109146223      -0.281274719056     0.906109146223      -0.281274719056     0.0906672338973     0.202342453885      
6800000000.0        0.0924593632825     0.204887007537      0.904220449022      -0.285004224595     0.904220449022      -0.285004224595     0.0924593632825     0.204887007537      
6900000000.0        0.0942710277942     0.207412327955      0.902310759558      -0.288714781289     0.902310759558      -0.288714781289     0.0942710277942     0.207412327955      
7000000000.0        0.0961019735002     0.209918252515      0.900380329986      -0.292406229873     0.900380329986      -0.292406229873     0.0961019735002     0.209918252515      
7100000000.0        0.0979519450402     0.212404622751      0.898429413863      -0.296078415235     0.898429413863      -0.296078415235     0.0979519450402     0.212404622751      
7200000000.0        0.099820685712      0.214871284359      0.896458266068      -0.299731186413     0.896458266068      -0.299731186413     0.099820685712      0.214871284359      
7300000000.0        0.101707937556      0.217318087197      0.894467142714      -0.303364396599     0.894467142714      -0.303364396599     0.101707937556      0.217318087197      
7400000000.0        0.103613441438      0.219744885285      0.892456301064      -0.30697790314      0.892456301064      -0.30697790314      0.103613441438      0.219744885285      
7500000000.0        0.105536937136      0.222151536808      0.890425999448      -0.310571567537     0.890425999448      -0.310571567537     0.105536937136      0.222151536808      
7600000000.0        0.107478163416      0.224537904106      0.888376497182      -0.314145255441     0.888376497182      -0.314145255441     0.107478163416      0.224537904106      
7700000000.0        0.109436858121      0.226903853676      0.886308054484      -0.31769883665      0.886308054484      -0.31769883665      0.109436858121      0.226903853676      
7800000000.0        0.111412758245      0.229249256162      0.884220932398      -0.321232185101     0.884220932398      -0.321232185101     0.111412758245      0.229249256162      
7900000000.0        0.113405600017      0.231573986347      0.882115392709      -0.324745178861     0.882115392709      -0.324745178861     0.113405600017      0.231573986347      
8000000000.0        0.115415118975      0.233877923144      0.879991697868      -0.328237700125     0.879991697868      -0.328237700125     0.115415118975      0.233877923144      
8100000000.0        0.117441050051      0.236160949588      0.877850110914      -0.331709635194     0.877850110914      -0.331709635194     0.117441050051      0.236160949588      
8200000000.0        0.11948312764       0.238422952819      0.875690895395      -0.335160874474     0.875690895395      -0.335160874474     0.11948312764       0.238422952819      
8300000000.0        0.121541085679      0.240663824071      0.873514315294      -0.338591312453     0.873514315294      -0.338591312453     0.121541085679      0.240663824071      
8400000000.0        0.123614657726      0.242883458656      0.871320634954      -0.342000847692     0.871320634954      -0.342000847692     0.123614657726      0.242883458656      
8500000000.0        0.125703577027      0.245081755947      0.869110119002      -0.345389382807     0.869110119002      -0.345389382807     0.125703577027      0.245081755947      
8600000000.0        0.127807576593      0.247258619361      0.86688303228       -0.348756824448     0.86688303228       -0.348756824448     0.127807576593      0.247258619361      
8700000000.0        0.129926389271      0.249413956338      0.864639639767      -0.352103083286     0.864639639767      -0.352103083286     0.129926389271      0.249413956338      
8800000000.0        0.132059747815      0.251547678324      0.862380206514      -0.355428073985     0.862380206514      -0.355428073985     0.132059747815      0.251547678324      
8900000000.0        0.134207384957      0.253659700742      0.860104997572      -0.358731715186     0.860104997572      -0.358731715186     0.134207384957      0.253659700742      
9000000000.0        0.136369033474      0.255749942978      0.857814277921      -0.362013929482     0.857814277921      -0.362013929482     0.136369033474      0.255749942978      
9100000000.0        0.138544426256      0.25781832835       0.855508312406      -0.365274643394     0.855508312406      -0.365274643394     0.138544426256      0.25781832835       
9200000000.0        0.140733296375      0.259864784085      0.853187365665      -0.368513787345     0.853187365665      -0.368513787345     0.140733296375      0.259864784085      
9300000000.0        0.142935377148      0.261889241292      0.850851702068      -0.371731295634     0.850851702068      -0.371731295634     0.142935377148      0.261889241292      
9400000000.0        0.145150402202      0.263891634934      0.848501585652      -0.374927106409     0.848501585652      -0.374927106409     0.145150402202      0.263891634934      
9500000000.0        0.147378105541      0.2658719038        0.846137280055      -0.378101161636     0.846137280055      -0.378101161636     0.147378105541      0.2658719038        
9600000000.0        0.149618221602      0.267829990476      0.843759048454      -0.381253407073     0.843759048454      -0.381253407073     0.149618221602      0.267829990476      
9700000000.0        0.151870485323      0.269765841311      0.841367153505      -0.384383792237     0.841367153505      -0.384383792237     0.151870485323      0.269765841311      
9800000000.0        0.154134632197      0.271679406388      0.838961857284      -0.387492270373     0.838961857284      -0.387492270373     0.154134632197      0.271679406388      
9900000000.0        0.156410398336      0.273570639492      0.836543421223      -0.390578798419     0.836543421223      -0.390578798419     0.156410398336      0.273570639492      
10000000000.0       0.158697520525      0.275439498073      0.834112106059      -0.393643336977     0.834112106059      -0.393643336977     0.158697520525      0.275439498073      
