# Hz S RI R 50.00 
100000000.0         7.80466565429e-05   -0.000253840427688  0.999919668506      -0.000656640459082  0.999919668506      -0.000656640459082  7.80466565427e-05   -0.000253840427688  
200000000.0         7.76450188027e-05   -0.000507696068974  0.999917956182      -0.00131330575291   0.999917956182      -0.00131330575291   7.76450188029e-05   -0.000507696068974  
300000000.0         7.67716341434e-05   -0.000761574346679  0.999915886285      -0.00197000903754   0.999915886285      -0.00197000903754   7.6771634143e-05    -0.000761574346679  
400000000.0         7.54948147503e-05   -0.00101548079535   0.999913390254      -0.00262676015067   0.999913390254      -0.00262676015067   7.54948147506e-05   -0.00101548079535   
500000000.0         7.38407186445e-05   -0.00126941993627   0.999910441642      -0.00328356726702   0.999910441642      -0.00328356726702   7.38407186442e-05   -0.00126941993627   
600000000.0         7.18225747818e-05   -0.00152339560368   0.999907026891      -0.00394043746675   0.999907026891      -0.00394043746675   7.18225747818e-05   -0.00152339560368   
700000000.0         6.94481053212e-05   -0.00177741111599   0.999903137921      -0.00459737702557   0.999903137921      -0.00459737702557   6.94481053214e-05   -0.00177741111599   
800000000.0         6.67222324227e-05   -0.00203146938088   0.999898769422      -0.00525439158931   0.999898769422      -0.00525439158931   6.67222324227e-05   -0.00203146938088   
900000000.0         6.36482828351e-05   -0.00228557296376   0.999893917656      -0.00591148628746   0.999893917656      -0.00591148628746   6.36482828349e-05   -0.00228557296376   
1000000000.0        6.02285982374e-05   -0.00253972413939   0.999888579844      -0.00656866581607   0.999888579844      -0.00656866581607   6.02285982376e-05   -0.00253972413939   
1100000000.0        5.64648745653e-05   -0.00279392492874   0.999882753836      -0.00722593449742   0.999882753836      -0.00722593449742   5.64648745651e-05   -0.00279392492874   
1200000000.0        5.23583642442e-05   -0.00304817712828   0.999876437904      -0.00788329632658   0.999876437904      -0.00788329632658   5.23583642442e-05   -0.00304817712828   
1300000000.0        4.79100035418e-05   -0.00330248233361   0.999869630622      -0.00854075500848   0.999869630622      -0.00854075500848   4.79100035418e-05   -0.00330248233361   
1400000000.0        4.31204963729e-05   -0.00355684195801   0.999862330778      -0.00919831398727   0.999862330778      -0.00919831398727   4.31204963729e-05   -0.00355684195801   
1500000000.0        3.79903715038e-05   -0.003811257249     0.999854537323      -0.00985597647158   0.999854537323      -0.00985597647158   3.79903715038e-05   -0.003811257249     
1600000000.0        3.25200228219e-05   -0.00406572930147   0.99984624933       -0.0105137454549    0.99984624933       -0.0105137454549    3.25200228222e-05   -0.00406572930147   
1700000000.0        2.67097384514e-05   -0.00432025906944   0.999837465967      -0.0111716237335    0.999837465967      -0.0111716237335    2.67097384514e-05   -0.00432025906944   
1800000000.0        2.05597222722e-05   -0.00457484737604   0.999828186475      -0.0118296139214    0.999828186475      -0.0118296139214    2.05597222724e-05   -0.00457484737604   
1900000000.0        1.40701101636e-05   -0.00482949492257   0.999818410153      -0.012487718464     0.999818410153      -0.012487718464     1.40701101636e-05   -0.00482949492257   
2000000000.0        7.24098247407e-06   -0.00508420229612   0.999808136347      -0.0131459396496    0.999808136347      -0.0131459396496    7.24098247407e-06   -0.00508420229612   
2100000000.0        7.23737614283e-08   -0.00533896997671   0.999797364444      -0.0138042796196    0.999797364444      -0.0138042796196    7.23737616504e-08   -0.00533896997671   
2200000000.0        -7.4357195049e-06   -0.00559379834359   0.999786093859      -0.0144627403781    0.999786093859      -0.0144627403781    -7.43571950512e-06  -0.00559379834359   
2300000000.0        -1.52833327729e-05  -0.00584868768095   0.999774324034      -0.0151213237999    0.999774324034      -0.0151213237999    -1.52833327729e-05  -0.00584868768095   
2400000000.0        -2.34705283859e-05  -0.00610363818307   0.999762054433      -0.0157800316384    0.999762054433      -0.0157800316384    -2.34705283859e-05  -0.00610363818307   
2500000000.0        -3.19973914754e-05  -0.00635864995907   0.999749284539      -0.016438865532     0.999749284539      -0.016438865532     -3.19973914752e-05  -0.00635864995907   
2600000000.0        -4.0864026552e-05   -0.00661372303733   0.999736013848      -0.0170978270105    0.999736013848      -0.0170978270105    -4.08640265521e-05  -0.00661372303733   
2700000000.0        -5.00705546651e-05  -0.00686885736939   0.999722241872      -0.0177569175009    0.999722241872      -0.0177569175009    -5.0070554665e-05   -0.00686885736939   
2800000000.0        -5.96171109923e-05  -0.00712405283383   0.999707968132      -0.0184161383326    0.999707968132      -0.0184161383326    -5.96171109923e-05  -0.00712405283383   
2900000000.0        -6.9503842804e-05   -0.00737930923957   0.999693192161      -0.0190754907423    0.999693192161      -0.0190754907423    -6.95038428039e-05  -0.00737930923957   
3000000000.0        -7.97309077116e-05  -0.00763462632913   0.999677913498      -0.0197349758784    0.999677913498      -0.0197349758784    -7.97309077114e-05  -0.00763462632913   
3100000000.0        -9.02984721668e-05  -0.00789000378173   0.999662131692      -0.020394594805     0.999662131692      -0.020394594805     -9.02984721669e-05  -0.00789000378173   
3200000000.0        -0.000101206710151  -0.0081454412159    0.999645846298      -0.0210543485064    0.999645846298      -0.0210543485064    -0.000101206710151  -0.0081454412159    
3300000000.0        -0.000112455802032  -0.0084009381923    0.999629056877      -0.02171423789      0.999629056877      -0.02171423789      -0.000112455802031  -0.0084009381923    
3400000000.0        -0.000124045933562  -0.00865649421614   0.999611762995      -0.0223742637902    0.999611762995      -0.0223742637902    -0.000124045933562  -0.00865649421614   
3500000000.0        -0.000135977295003  -0.00891210873946   0.999593964223      -0.0230344269715    0.999593964223      -0.0230344269715    -0.000135977295003  -0.00891210873946   
3600000000.0        -0.00014825008033   -0.00916778116339   0.999575660139      -0.0236947281313    0.999575660139      -0.0236947281313    -0.000148250080331  -0.00916778116339   
3700000000.0        -0.000160864486538  -0.00942351084024   0.999556850321      -0.024355167903     0.999556850321      -0.024355167903     -0.000160864486538  -0.00942351084024   
3800000000.0        -0.000173820713017  -0.00967929707544   0.999537534355      -0.0250157468583    0.999537534355      -0.0250157468583    -0.000173820713017  -0.00967929707544   
3900000000.0        -0.000187118960991  -0.00993513912946   0.999517711828      -0.0256764655102    0.999517711828      -0.0256764655102    -0.000187118960991  -0.00993513912946   
4000000000.0        -0.000200759433006  -0.0101910362195    0.999497382332      -0.026337324315     0.999497382332      -0.026337324315     -0.000200759433006  -0.0101910362195    
4100000000.0        -0.000214742332477  -0.0104469875212    0.999476545461      -0.0269983236746    0.999476545461      -0.0269983236746    -0.000214742332477  -0.0104469875212    
4200000000.0        -0.000229067863269  -0.0107029921704    0.999455200816      -0.027659463939     0.999455200816      -0.027659463939     -0.00022906786327   -0.0107029921704    
4300000000.0        -0.000243736229316  -0.0109590492644    0.999433347996      -0.0283207454077    0.999433347996      -0.0283207454077    -0.000243736229316  -0.0109590492644    
4400000000.0        -0.000258747634273  -0.0112151578637    0.999410986606      -0.0289821683322    0.999410986606      -0.0289821683322    -0.000258747634273  -0.0112151578637    
4500000000.0        -0.000274102281203  -0.0114713169931    0.999388116254      -0.0296437329178    0.999388116254      -0.0296437329178    -0.000274102281203  -0.0114713169931    
4600000000.0        -0.000289800372275  -0.0117275256434    0.999364736551      -0.0303054393247    0.999364736551      -0.0303054393247    -0.000289800372276  -0.0117275256434    
4700000000.0        -0.000305842108506  -0.0119837827724    0.99934084711       -0.0309672876706    0.99934084711       -0.0309672876706    -0.000305842108506  -0.0119837827724    
4800000000.0        -0.000322227689503  -0.0122400873059    0.999316447547      -0.0316292780317    0.999316447547      -0.0316292780317    -0.000322227689504  -0.0122400873059    
4900000000.0        -0.000338957313238  -0.0124964381396    0.999291537481      -0.0322914104444    0.999291537481      -0.0322914104444    -0.000338957313238  -0.0124964381396    
5000000000.0        -0.000356031175832  -0.0127528341394    0.999266116535      -0.0329536849067    0.999266116535      -0.0329536849067    -0.000356031175832  -0.0127528341394    
5100000000.0        -0.000373449471356  -0.013009274143     0.999240184334      -0.0336161013796    0.999240184334      -0.0336161013796    -0.000373449471356  -0.013009274143     
5200000000.0        -0.000391212391651  -0.0132657569609    0.999213740505      -0.0342786597886    0.999213740505      -0.0342786597886    -0.000391212391651  -0.0132657569609    
5300000000.0        -0.000409320126152  -0.0135222813769    0.999186784679      -0.0349413600248    0.999186784679      -0.0349413600248    -0.000409320126152  -0.0135222813769    
5400000000.0        -0.000427772861729  -0.0137788461497    0.999159316489      -0.0356042019462    0.999159316489      -0.0356042019462    -0.000427772861729  -0.0137788461497    
5500000000.0        -0.000446570782534  -0.0140354500134    0.999131335573      -0.0362671853787    0.999131335573      -0.0362671853787    -0.000446570782534  -0.0140354500134    
5600000000.0        -0.000465714069866  -0.0142920916784    0.999102841569      -0.0369303101176    0.999102841569      -0.0369303101176    -0.000465714069866  -0.0142920916784    
5700000000.0        -0.000485202902036  -0.0145487698325    0.999073834119      -0.0375935759283    0.999073834119      -0.0375935759283    -0.000485202902036  -0.0145487698325    
5800000000.0        -0.000505037454244  -0.0148054831414    0.99904431287       -0.0382569825477    0.99904431287       -0.0382569825477    -0.000505037454244  -0.0148054831414    
5900000000.0        -0.00052521789846   -0.0150622302497    0.999014277468      -0.0389205296848    0.999014277468      -0.0389205296848    -0.00052521789846   -0.0150622302497    
6000000000.0        -0.000545744403323  -0.0153190097815    0.998983727564      -0.039584217022     0.998983727564      -0.039584217022     -0.000545744403322  -0.0153190097815    
6100000000.0        -0.00056661713403   -0.0155758203412    0.998952662814      -0.0402480442159    0.998952662814      -0.0402480442159    -0.00056661713403   -0.0155758203412    
6200000000.0        -0.000587836252245  -0.0158326605143    0.998921082873      -0.0409120108981    0.998921082873      -0.0409120108981    -0.000587836252244  -0.0158326605143    
6300000000.0        -0.000609401916001  -0.0160895288678    0.998888987403      -0.0415761166763    0.998888987403      -0.0415761166763    -0.000609401916001  -0.0160895288678    
6400000000.0        -0.000631314279625  -0.0163464239511    0.998856376065      -0.0422403611349    0.998856376065      -0.0422403611349    -0.000631314279625  -0.0163464239511    
6500000000.0        -0.000653573493646  -0.0166033442964    0.998823248527      -0.0429047438357    0.998823248527      -0.0429047438357    -0.000653573493646  -0.0166033442964    
6600000000.0        -0.000676179704726  -0.0168602884197    0.998789604457      -0.0435692643192    0.998789604457      -0.0435692643192    -0.000676179704726  -0.0168602884197    
6700000000.0        -0.000699133055583  -0.0171172548208    0.998755443528      -0.0442339221046    0.998755443528      -0.0442339221046    -0.000699133055583  -0.0171172548208    
6800000000.0        -0.000722433684925  -0.0173742419845    0.998720765415      -0.0448987166912    0.998720765415      -0.0448987166912    -0.000722433684924  -0.0173742419845    
6900000000.0        -0.000746081727382  -0.0176312483805    0.998685569798      -0.0455636475585    0.998685569798      -0.0455636475585    -0.000746081727382  -0.0176312483805    
7000000000.0        -0.000770077313451  -0.0178882724644    0.998649856357      -0.0462287141674    0.998649856357      -0.0462287141674    -0.000770077313451  -0.0178882724644    
7100000000.0        -0.000794420569434  -0.018145312678     0.998613624778      -0.0468939159603    0.998613624778      -0.0468939159603    -0.000794420569434  -0.018145312678     
7200000000.0        -0.000819111617382  -0.01840236745      0.99857687475       -0.0475592523623    0.99857687475       -0.0475592523623    -0.000819111617382  -0.01840236745      
7300000000.0        -0.000844150575046  -0.0186594351961    0.998539605963      -0.0482247227812    0.998539605963      -0.0482247227812    -0.000844150575046  -0.0186594351961    
7400000000.0        -0.000869537555824  -0.0189165143197    0.998501818113      -0.0488903266085    0.998501818113      -0.0488903266085    -0.000869537555824  -0.0189165143197    
7500000000.0        -0.000895272668722  -0.0191736032125    0.998463510898      -0.0495560632198    0.998463510898      -0.0495560632198    -0.000895272668722  -0.0191736032125    
7600000000.0        -0.0009213560183    -0.0194307002544    0.998424684018      -0.0502219319753    0.998424684018      -0.0502219319753    -0.0009213560183    -0.0194307002544    
7700000000.0        -0.000947787704636  -0.0196878038146    0.998385337179      -0.0508879322206    0.998385337179      -0.0508879322206    -0.000947787704636  -0.0196878038146    
7800000000.0        -0.000974567823287  -0.0199449122513    0.998345470089      -0.0515540632867    0.998345470089      -0.0515540632867    -0.000974567823286  -0.0199449122513    
7900000000.0        -0.00100169646525   -0.0202020239127    0.998305082459      -0.0522203244908    0.998305082459      -0.0522203244908    -0.00100169646525   -0.0202020239127    
8000000000.0        -0.00102917371692   -0.020459137137     0.998264174003      -0.0528867151368    0.998264174003      -0.0528867151368    -0.00102917371692   -0.020459137137     
8100000000.0        -0.00105699966006   -0.0207162502529    0.99822274444       -0.0535532345157    0.99822274444       -0.0535532345157    -0.00105699966006   -0.0207162502529    
8200000000.0        -0.0010851743718    -0.0209733615798    0.998180793491      -0.054219881906     0.998180793491      -0.054219881906     -0.0010851743718    -0.0209733615798    
8300000000.0        -0.00111369792453   -0.0212304694284    0.998138320881      -0.0548866565739    0.998138320881      -0.0548866565739    -0.00111369792453   -0.0212304694284    
8400000000.0        -0.00114257038597   -0.0214875721008    0.998095326338      -0.0555535577744    0.998095326338      -0.0555535577744    -0.00114257038597   -0.0214875721008    
8500000000.0        -0.00117179181905   -0.0217446678909    0.998051809595      -0.0562205847507    0.998051809595      -0.0562205847507    -0.00117179181905   -0.0217446678909    
8600000000.0        -0.00120136228195   -0.0220017550849    0.998007770385      -0.0568877367356    0.998007770385      -0.0568877367356    -0.00120136228195   -0.0220017550849    
8700000000.0        -0.00123128182804   -0.022258831961     0.997963208449      -0.0575550129511    0.997963208449      -0.0575550129511    -0.00123128182804   -0.022258831961     
8800000000.0        -0.00126155050589   -0.0225158967906    0.997918123527      -0.0582224126091    0.997918123527      -0.0582224126091    -0.00126155050589   -0.0225158967906    
8900000000.0        -0.0012921683592    -0.0227729478375    0.997872515366      -0.0588899349118    0.997872515366      -0.0588899349118    -0.0012921683592    -0.0227729478375    
9000000000.0        -0.00132313542683   -0.0230299833594    0.997826383714      -0.0595575790518    0.997826383714      -0.0595575790518    -0.00132313542683   -0.0230299833594    
9100000000.0        -0.00135445174274   -0.0232870016069    0.997779728324      -0.0602253442126    0.997779728324      -0.0602253442126    -0.00135445174274   -0.0232870016069    
9200000000.0        -0.00138611733599   -0.0235440008249    0.997732548953      -0.0608932295689    0.997732548953      -0.0608932295689    -0.00138611733599   -0.0235440008249    
9300000000.0        -0.00141813223074   -0.0238009792518    0.997684845359      -0.0615612342868    0.997684845359      -0.0615612342868    -0.00141813223074   -0.0238009792518    
9400000000.0        -0.0014504964462    -0.0240579351206    0.997636617305      -0.0622293575241    0.997636617305      -0.0622293575241    -0.0014504964462    -0.0240579351206    
9500000000.0        -0.00148320999663   -0.0243148666588    0.997587864559      -0.0628975984309    0.997587864559      -0.0628975984309    -0.00148320999663   -0.0243148666588    
9600000000.0        -0.00151627289133   -0.0245717720883    0.997538586891      -0.0635659561494    0.997538586891      -0.0635659561494    -0.00151627289133   -0.0245717720883    
9700000000.0        -0.00154968513463   -0.0248286496264    0.997488784073      -0.0642344298144    0.997488784073      -0.0642344298144    -0.00154968513463   -0.0248286496264    
9800000000.0        -0.00158344672585   -0.0250854974851    0.997438455884      -0.0649030185537    0.997438455884      -0.0649030185537    -0.00158344672585   -0.0250854974851    
9900000000.0        -0.00161755765932   -0.0253423138719    0.997387602104      -0.065571721488     0.997387602104      -0.065571721488     -0.00161755765932   -0.0253423138719    
10000000000.0       -0.00165201792435   -0.02559909699      0.997336222517      -0.0662405377315    0.997336222517      -0.0662405377315    -0.00165201792435   -0.02559909699      
