# Hz S RI R 50.00 
100000000.0         0.000252261304645   -0.00492436568443   0.999681148656      -0.00558927811706   0.999681148656      -0.00558927811706   0.000252261304644   -0.00492436568443   
200000000.0         0.00016646272971    -0.00984783922063   0.999590823958      -0.011177668906     0.999590823958      -0.011177668906     0.00016646272971    -0.00984783922063   
300000000.0         2.51480494113e-05   -0.0147696007487    0.999445532749      -0.016764360555     0.999445532749      -0.016764360555     2.51480494113e-05   -0.0147696007487    
400000000.0         -0.000171394688811  -0.0196888239407    0.999245070317      -0.022348532542     0.999245070317      -0.022348532542     -0.000171394688811  -0.0196888239407    
500000000.0         -0.000423012677475  -0.024604679863     0.998989400253      -0.0279293609756    0.998989400253      -0.0279293609756    -0.000423012677475  -0.024604679863     
600000000.0         -0.000729582983368  -0.0295163386986    0.998678549251      -0.0335060206505    0.998678549251      -0.0335060206505    -0.000729582983369  -0.0295163386986    
700000000.0         -0.00109098579196   -0.0344229708413    0.99831258041       -0.039077686286     0.99831258041       -0.039077686286     -0.00109098579196   -0.0344229708413    
800000000.0         -0.00150709466995   -0.0393237477252    0.997891583501      -0.0446435334317    0.997891583501      -0.0446435334317    -0.00150709466995   -0.0393237477252    
900000000.0         -0.00197777226279   -0.0442178425136    0.997415670598      -0.050202739205     0.997415670598      -0.050202739205     -0.00197777226279   -0.0442178425136    
1000000000.0        -0.00250286815273   -0.0491044307088    0.996884973844      -0.0557544829319    0.996884973844      -0.0557544829319    -0.00250286815273   -0.0491044307088    
1100000000.0        -0.00308221771105   -0.0539826907086    0.996299644159      -0.0612979467258    0.996299644159      -0.0612979467258    -0.00308221771105   -0.0539826907086    
1200000000.0        -0.00371564146065   -0.0588518043275    0.995659850433      -0.0668323160255    0.995659850433      -0.0668323160255    -0.00371564146065   -0.0588518043275    
1300000000.0        -0.00440294472393   -0.0637109572921    0.994965778969      -0.0723567801026    0.994965778969      -0.0723567801026    -0.00440294472393   -0.0637109572921    
1400000000.0        -0.00514391744246   -0.0685593397149    0.994217633063      -0.0778705325457    0.994217633063      -0.0778705325457    -0.00514391744246   -0.0685593397149    
1500000000.0        -0.00593833410649   -0.073396146553     0.99341563267       -0.0833727717265    0.99341563267       -0.0833727717265    -0.00593833410649   -0.073396146553     
1600000000.0        -0.00678595375921   -0.0782205780511    0.992560014115      -0.08886270125      0.992560014115      -0.08886270125      -0.00678595375921   -0.0782205780511    
1700000000.0        -0.00768652005432   -0.0830318401732    0.991651029829      -0.0943395303906    0.991651029829      -0.0943395303906    -0.00768652005432   -0.0830318401732    
1800000000.0        -0.00863976135375   -0.087829145022     0.990688948104      -0.0998024745167    0.990688948104      -0.0998024745167    -0.00863976135375   -0.087829145022     
1900000000.0        -0.00964539085665   -0.0926117112475    0.989674052847      -0.105250755503     0.989674052847      -0.105250755503     -0.00964539085665   -0.0926117112475    
2000000000.0        -0.0107031067539    -0.0973787644457    0.988606643341      -0.110683602133     0.988606643341      -0.110683602133     -0.0107031067539    -0.0973787644457    
2100000000.0        -0.0118125924039    -0.102129537546     0.987487034001      -0.116100250488     0.987487034001      -0.116100250488     -0.0118125924039    -0.102129537546     
2200000000.0        -0.0129735165274    -0.106863271192     0.98631555413       -0.121499944331     0.98631555413       -0.121499944331     -0.0129735165274    -0.106863271192     
2300000000.0        -0.0141855334176    -0.111579214105     0.985092547663      -0.126881935474     0.985092547663      -0.126881935474     -0.0141855334176    -0.111579214105     
2400000000.0        -0.0154482831656    -0.116276623447     0.983818372912      -0.132245484142     0.983818372912      -0.132245484142     -0.0154482831656    -0.116276623447     
2500000000.0        -0.016761391899     -0.120954765168     0.982493402299      -0.137589859317     0.982493402299      -0.137589859317     -0.016761391899     -0.120954765168     
2600000000.0        -0.0181244720324    -0.125612914339     0.981118022079      -0.142914339086     0.981118022079      -0.142914339086     -0.0181244720324    -0.125612914339     
2700000000.0        -0.0195371225293    -0.130250355489     0.979692632069      -0.148218210962     0.979692632069      -0.148218210962     -0.0195371225293    -0.130250355489     
2800000000.0        -0.0209989291744    -0.134866382913     0.978217645352      -0.153500772207     0.978217645352      -0.153500772207     -0.0209989291744    -0.134866382913     
2900000000.0        -0.0225094648553    -0.139460300985     0.976693487986      -0.15876133014      0.976693487986      -0.15876133014      -0.0225094648553    -0.139460300985     
3000000000.0        -0.0240682898539    -0.144031424452     0.975120598702      -0.163999202434     0.975120598702      -0.163999202434     -0.0240682898539    -0.144031424452     
3100000000.0        -0.0256749521459    -0.148579078718     0.973499428595      -0.1692137174       0.973499428595      -0.1692137174       -0.0256749521459    -0.148579078718     
3200000000.0        -0.027328987708     -0.153102600121     0.97183044081       -0.174404214264     0.97183044081       -0.174404214264     -0.027328987708     -0.153102600121     
3300000000.0        -0.0290299208324    -0.157601336193     0.970114110219      -0.179570043432     0.970114110219      -0.179570043432     -0.0290299208324    -0.157601336193     
3400000000.0        -0.030777264449     -0.162074645916     0.968350923095      -0.18471056674      0.968350923095      -0.18471056674      -0.030777264449     -0.162074645916     
3500000000.0        -0.0325705204528    -0.166521899958     0.966541376776      -0.189825157699     0.966541376776      -0.189825157699     -0.0325705204528    -0.166521899958     
3600000000.0        -0.0344091800379    -0.170942480905     0.964685979334      -0.19491320172      0.964685979334      -0.19491320172      -0.0344091800379    -0.170942480905     
3700000000.0        -0.0362927240363    -0.175335783479     0.962785249223      -0.199974096338     0.962785249223      -0.199974096338     -0.0362927240363    -0.175335783479     
3800000000.0        -0.0382206232623    -0.179701214741     0.960839714941      -0.205007251413     0.960839714941      -0.205007251413     -0.0382206232623    -0.179701214741     
3900000000.0        -0.0401923388606    -0.184038194289     0.958849914671      -0.21001208933      0.958849914671      -0.21001208933      -0.0401923388606    -0.184038194289     
4000000000.0        -0.0422073226585    -0.188346154441     0.956816395931      -0.214988045179     0.956816395931      -0.214988045179     -0.0422073226585    -0.188346154441     
4100000000.0        -0.0442650175222    -0.1926245404       0.954739715214      -0.219934566926     0.954739715214      -0.219934566926     -0.0442650175222    -0.1926245404       
4200000000.0        -0.0463648577155    -0.196872810421     0.952620437626      -0.224851115577     0.952620437626      -0.224851115577     -0.0463648577155    -0.196872810421     
4300000000.0        -0.0485062692613    -0.201090435953     0.950459136525      -0.22973716532      0.950459136525      -0.22973716532      -0.0485062692613    -0.201090435953     
4400000000.0        -0.0506886703052    -0.20527690178      0.948256393157      -0.234592203669     0.948256393157      -0.234592203669     -0.0506886703052    -0.20527690178      
4500000000.0        -0.0529114714815    -0.209431706137     0.946012796283      -0.239415731579     0.946012796283      -0.239415731579     -0.0529114714815    -0.209431706137     
4600000000.0        -0.0551740762796    -0.213554360832     0.943728941818      -0.244207263566     0.943728941818      -0.244207263566     -0.0551740762796    -0.213554360832     
4700000000.0        -0.0574758814117    -0.21764439134      0.941405432456      -0.248966327807     0.941405432456      -0.248966327807     -0.0574758814117    -0.21764439134      
4800000000.0        -0.0598162771813    -0.221701336896     0.939042877306      -0.253692466227     0.939042877306      -0.253692466227     -0.0598162771813    -0.221701336896     
4900000000.0        -0.0621946478515    -0.225724750571     0.936641891519      -0.258385234581     0.936641891519      -0.258385234581     -0.0621946478515    -0.225724750571     
5000000000.0        -0.0646103720132    -0.229714199339     0.934203095921      -0.263044202518     0.934203095921      -0.263044202518     -0.0646103720132    -0.229714199339     
5100000000.0        -0.0670628229522    -0.233669264133     0.931727116645      -0.267668953636     0.931727116645      -0.267668953636     -0.0670628229522    -0.233669264133     
5200000000.0        -0.0695513690161    -0.23758953989      0.929214584761      -0.272259085532     0.929214584761      -0.272259085532     -0.0695513690161    -0.23758953989      
5300000000.0        -0.0720753739787    -0.241474635582     0.926666135914      -0.276814209828     0.926666135914      -0.276814209828     -0.0720753739787    -0.241474635582     
5400000000.0        -0.0746341974038    -0.24532417424      0.924082409959      -0.281333952201     0.924082409959      -0.281333952201     -0.0746341974038    -0.24532417424      
5500000000.0        -0.077227195006     -0.249137792967     0.921464050599      -0.285817952391     0.921464050599      -0.285817952391     -0.077227195006     -0.249137792967     
5600000000.0        -0.0798537190094    -0.252915142937     0.918811705024      -0.290265864201     0.918811705024      -0.290265864201     -0.0798537190094    -0.252915142937     
5700000000.0        -0.0825131185035    -0.256655889388     0.916126023559      -0.294677355495     0.916126023559      -0.294677355495     -0.0825131185035    -0.256655889388     
5800000000.0        -0.0852047397961    -0.260359711603     0.913407659308      -0.299052108172     0.913407659308      -0.299052108172     -0.0852047397961    -0.260359711603     
5900000000.0        -0.0879279267628    -0.264026302879     0.910657267804      -0.303389818144     0.910657267804      -0.303389818144     -0.0879279267628    -0.264026302879     
6000000000.0        -0.0906820211924    -0.267655370492     0.907875506664      -0.307690195291     0.907875506664      -0.307690195291     -0.0906820211924    -0.267655370492     
6100000000.0        -0.0934663631289    -0.271246635646     0.905063035245      -0.311952963418     0.905063035245      -0.311952963418     -0.0934663631289    -0.271246635646     
6200000000.0        -0.096280291209     -0.274799833416     0.90222051431       -0.316177860197     0.90222051431       -0.316177860197     -0.096280291209     -0.274799833416     
6300000000.0        -0.0991231429951    -0.278314712686     0.899348605692      -0.3203646371       0.899348605692      -0.3203646371       -0.0991231429951    -0.278314712686     
6400000000.0        -0.101994255303     -0.281791036068     0.896447971964      -0.324513059325     0.896447971964      -0.324513059325     -0.101994255303     -0.281791036068     
6500000000.0        -0.104892964527     -0.285228579822     0.893519276121      -0.328622905713     0.893519276121      -0.328622905713     -0.104892964527     -0.285228579822     
6600000000.0        -0.107818606955     -0.288627133764     0.890563181254      -0.332693968656     0.890563181254      -0.332693968656     -0.107818606955     -0.288627133764     
6700000000.0        -0.110770519084     -0.291986501165     0.887580350245      -0.336726053997     0.887580350245      -0.336726053997     -0.110770519084     -0.291986501165     
6800000000.0        -0.113748037925     -0.295306498646     0.884571445454      -0.340718980922     0.884571445454      -0.340718980922     -0.113748037925     -0.295306498646     
6900000000.0        -0.116750501305     -0.298586956061     0.88153712842       -0.344672581849     0.88153712842       -0.344672581849     -0.116750501305     -0.298586956061     
7000000000.0        -0.119777248164     -0.301827716374     0.878478059566      -0.348586702303     0.878478059566      -0.348586702303     -0.119777248164     -0.301827716374     
7100000000.0        -0.122827618841     -0.305028635534     0.87539489791       -0.352461200785     0.87539489791       -0.352461200785     -0.122827618841     -0.305028635534     
7200000000.0        -0.125900955358     -0.308189582335     0.87228830078       -0.356295948642     0.87228830078       -0.356295948642     -0.125900955358     -0.308189582335     
7300000000.0        -0.128996601697     -0.311310438275     0.869158923538      -0.360090829922     0.869158923538      -0.360090829922     -0.128996601697     -0.311310438275     
7400000000.0        -0.132113904069     -0.31439109741      0.866007419314      -0.363845741224     0.866007419314      -0.363845741224     -0.132113904069     -0.31439109741      
7500000000.0        -0.135252211177     -0.317431466199     0.862834438736      -0.367560591548     0.862834438736      -0.367560591548     -0.135252211177     -0.317431466199     
7600000000.0        -0.138410874474     -0.320431463343     0.85964062968       -0.371235302133     0.85964062968       -0.371235302133     -0.138410874474     -0.320431463343     
7700000000.0        -0.14158924841      -0.32339101962      0.856426637016      -0.374869806295     0.856426637016      -0.374869806295     -0.14158924841      -0.32339101962      
7800000000.0        -0.144786690676     -0.326310077719     0.853193102369      -0.378464049254     0.853193102369      -0.378464049254     -0.144786690676     -0.326310077719     
7900000000.0        -0.14800256244      -0.329188592062     0.84994066388       -0.382017987962     0.84994066388       -0.382017987962     -0.14800256244      -0.329188592062     
8000000000.0        -0.151236228571     -0.332026528625     0.846669955979      -0.385531590924     0.846669955979      -0.385531590924     -0.151236228571     -0.332026528625     
8100000000.0        -0.154487057868     -0.334823864759     0.843381609166      -0.389004838013     0.843381609166      -0.389004838013     -0.154487057868     -0.334823864759     
8200000000.0        -0.157754423267     -0.337580588998     0.840076249793      -0.392437720287     0.840076249793      -0.392437720287     -0.157754423267     -0.337580588998     
8300000000.0        -0.16103770205      -0.340296700871     0.836754499859      -0.395830239795     0.836754499859      -0.395830239795     -0.16103770205      -0.340296700871     
8400000000.0        -0.164336276049     -0.342972210707     0.83341697681       -0.399182409386     0.83341697681       -0.399182409386     -0.164336276049     -0.342972210707     
8500000000.0        -0.16764953183      -0.345607139442     0.830064293348      -0.402494252509     0.830064293348      -0.402494252509     -0.16764953183      -0.345607139442     
8600000000.0        -0.170976860886     -0.348201518413     0.826697057243      -0.405765803018     0.826697057243      -0.405765803018     -0.170976860886     -0.348201518413     
8700000000.0        -0.174317659808     -0.350755389159     0.823315871156      -0.408997104964     0.823315871156      -0.408997104964     -0.174317659808     -0.350755389159     
8800000000.0        -0.177671330464     -0.353268803218     0.81992133247       -0.412188212395     0.81992133247       -0.412188212395     -0.177671330464     -0.353268803218     
8900000000.0        -0.181037280155     -0.355741821917     0.816514033125      -0.415339189148     0.816514033125      -0.415339189148     -0.181037280155     -0.355741821917     
9000000000.0        -0.184414921775     -0.358174516163     0.813094559461      -0.418450108638     0.813094559461      -0.418450108638     -0.184414921775     -0.358174516163     
9100000000.0        -0.187803673959     -0.360566966239     0.809663492069      -0.421521053653     0.809663492069      -0.421521053653     -0.187803673959     -0.360566966239     
9200000000.0        -0.191202961227     -0.362919261584     0.80622140565       -0.424552116139     0.80622140565       -0.424552116139     -0.191202961227     -0.362919261584     
9300000000.0        -0.194612214118     -0.365231500586     0.802768868877      -0.427543396986     0.802768868877      -0.427543396986     -0.194612214118     -0.365231500586     
9400000000.0        -0.198030869317     -0.367503790367     0.799306444269      -0.43049500582      0.799306444269      -0.43049500582      -0.198030869317     -0.367503790367     
9500000000.0        -0.20145836978      -0.369736246567     0.79583468807       -0.433407060783     0.79583468807       -0.433407060783     -0.20145836978      -0.369736246567     
9600000000.0        -0.204894164844     -0.371928993133     0.792354150131      -0.436279688323     0.792354150131      -0.436279688323     -0.204894164844     -0.371928993133     
9700000000.0        -0.208337710342     -0.374082162101     0.788865373806      -0.439113022975     0.788865373806      -0.439113022975     -0.208337710342     -0.374082162101     
9800000000.0        -0.211788468694     -0.37619589338      0.785368895848      -0.441907207148     0.785368895848      -0.441907207148     -0.211788468694     -0.37619589338      
9900000000.0        -0.215245909011     -0.378270334541     0.781865246313      -0.444662390913     0.781865246313      -0.444662390913     -0.215245909011     -0.378270334541     
10000000000.0       -0.21870950718      -0.380305640599     0.778354948478      -0.44737873178      0.778354948478      -0.44737873178      -0.21870950718      -0.380305640599     
