# Hz S RI R 50.00 
100000000.0         0.00228259081492    0.000241643211889   0.997713418787      -0.00192431009101   0.997713418787      -0.00192431009101   0.00228259081492    0.000241643211889   
200000000.0         0.00229843420244    0.000483217933719   0.997691751419      -0.00384854928449   0.997691751419      -0.00384854928449   0.00229843420244    0.000483217933719   
300000000.0         0.00231119463663    0.000724746022377   0.997670333357      -0.00577273895581   0.997670333357      -0.00577273895581   0.00231119463663    0.000724746022377   
400000000.0         0.00232284966105    0.000966232311567   0.997647186987      -0.0076968826482    0.997647186987      -0.0076968826482    0.00232284966105    0.000966232311567   
500000000.0         0.00233416048645    0.00120767774393    0.997621551018      -0.00962097960969   0.997621551018      -0.00962097960969   0.00233416048645    0.00120767774393    
600000000.0         0.00234551509567    0.00144908156553    0.997593037382      -0.0115450271293    0.997593037382      -0.0115450271293    0.00234551509567    0.00144908156553    
700000000.0         0.00235714251396    0.00169044210745    0.997561416958      -0.0134690213903    0.997561416958      -0.0134690213903    0.00235714251396    0.00169044210745    
800000000.0         0.00236919099104    0.00193175714482    0.997526541397      -0.0153929578728    0.997526541397      -0.0153929578728    0.00236919099104    0.00193175714482    
900000000.0         0.0023817628028     0.00217302408813    0.997488308318      -0.0173168315727    0.997488308318      -0.0173168315727    0.0023817628028     0.00217302408813    
1000000000.0        0.0023949318869     0.00241424009545    0.99744664367       -0.0192406371344    0.99744664367       -0.0192406371344    0.00239493188689    0.00241424009545    
1100000000.0        0.0024087536437     0.00265540214298    0.997401491936      -0.0211643689356    0.997401491936      -0.0211643689356    0.0024087536437     0.00265540214298    
1200000000.0        0.00242327077474    0.00289650707188    0.997352810293      -0.0230880211449    0.997352810293      -0.0230880211449    0.00242327077474    0.00289650707188    
1300000000.0        0.00243851695503    0.0031375516206     0.997300564941      -0.0250115877636    0.997300564941      -0.0250115877636    0.00243851695503    0.0031375516206     
1400000000.0        0.00245451924615    0.00337853244803    0.997244728687      -0.0269350626551    0.997244728687      -0.0269350626551    0.00245451924615    0.00337853244803    
1500000000.0        0.00247129974012    0.00361944615047    0.997185279306      -0.028858439568     0.997185279306      -0.028858439568     0.00247129974012    0.00361944615047    
1600000000.0        0.00248887671367    0.00386028927441    0.997122198385      -0.0307817121536    0.997122198385      -0.0307817121536    0.00248887671367    0.00386028927441    
1700000000.0        0.00250726545973    0.00410105832638    0.99705547049       -0.0327048739796    0.99705547049       -0.0327048739796    0.00250726545973    0.00410105832638    
1800000000.0        0.00252647889993    0.0043417497805     0.996985082556      -0.0346279185408    0.996985082556      -0.0346279185408    0.00252647889993    0.0043417497805     
1900000000.0        0.00254652804462    0.0045823600846     0.996911023426      -0.036550839269     0.996911023426      -0.036550839269     0.00254652804462    0.0045823600846     
2000000000.0        0.00256742234412    0.00482288566509    0.996833283502      -0.0384736295395    0.996833283502      -0.0384736295395    0.00256742234412    0.00482288566509    
2100000000.0        0.00258916996118    0.0050633229308     0.99675185447       -0.0403962826776    0.99675185447       -0.0403962826776    0.00258916996118    0.0050633229308     
2200000000.0        0.00261177798504    0.00530366827635    0.996666729086      -0.0423187919638    0.996666729086      -0.0423187919638    0.00261177798504    0.00530366827635    
2300000000.0        0.00263525260177    0.00554391808467    0.99657790101       -0.0442411506384    0.99657790101       -0.0442411506384    0.00263525260177    0.00554391808467    
2400000000.0        0.00265959923112    0.00578406872936    0.996485364665      -0.046163351905     0.996485364665      -0.046163351905     0.00265959923112    0.00578406872936    
2500000000.0        0.0026848226378     0.00602411657646    0.996389115126      -0.0480853889337    0.996389115126      -0.0480853889337    0.0026848226378     0.00602411657646    
2600000000.0        0.00271092702256    0.00626405798613    0.996289148034      -0.0500072548644    0.996289148034      -0.0500072548644    0.00271092702256    0.00626405798613    
2700000000.0        0.00273791609753    0.00650388931393    0.996185459512      -0.0519289428088    0.996185459512      -0.0519289428088    0.00273791609753    0.00650388931393    
2800000000.0        0.00276579314886    0.00674360691201    0.996078046113      -0.0538504458531    0.996078046113      -0.0538504458531    0.00276579314886    0.00674360691201    
2900000000.0        0.00279456108931    0.00698320713011    0.995966904758      -0.0557717570594    0.995966904758      -0.0557717570594    0.00279456108931    0.00698320713011    
3000000000.0        0.0028242225026     0.00722268631642    0.995852032699      -0.0576928694678    0.995852032699      -0.0576928694678    0.00282422250259    0.00722268631642    
3100000000.0        0.00285477968104    0.00746204081835    0.995733427477      -0.0596137760979    0.995733427477      -0.0596137760979    0.00285477968104    0.00746204081835    
3200000000.0        0.00288623465771    0.00770126698315    0.995611086892      -0.0615344699502    0.995611086892      -0.0615344699502    0.00288623465771    0.00770126698315    
3300000000.0        0.00291858923399    0.00794036115852    0.995485008973      -0.0634549440072    0.995485008973      -0.0634549440072    0.00291858923399    0.00794036115852    
3400000000.0        0.00295184500339    0.00817931969315    0.99535519196       -0.0653751912349    0.99535519196       -0.0653751912349    0.00295184500339    0.00817931969315    
3500000000.0        0.00298600337214    0.00841813893709    0.995221634276      -0.0672952045833    0.995221634276      -0.0672952045833    0.00298600337214    0.00841813893709    
3600000000.0        0.0030210655771     0.00865681524224    0.995084334515      -0.069214976988     0.995084334515      -0.069214976988     0.0030210655771     0.00865681524224    
3700000000.0        0.00305703270146    0.00889534496265    0.994943291425      -0.0711345013705    0.994943291425      -0.0711345013705    0.00305703270146    0.00889534496265    
3800000000.0        0.00309390568843    0.00913372445487    0.994798503892      -0.0730537706393    0.994798503892      -0.0730537706393    0.00309390568843    0.00913372445487    
3900000000.0        0.00313168535336    0.00937195007822    0.994649970931      -0.0749727776906    0.994649970931      -0.0749727776906    0.00313168535336    0.00937195007822    
4000000000.0        0.0031703723944     0.00961001819507    0.994497691674      -0.076891515409     0.994497691674      -0.076891515409     0.0031703723944     0.00961001819507    
4100000000.0        0.00320996740193    0.00984792517105    0.994341665359      -0.078809976668     0.994341665359      -0.078809976668     0.00320996740193    0.00984792517105    
4200000000.0        0.00325047086701    0.0100856673753     0.994181891327      -0.0807281543307    0.994181891327      -0.0807281543307    0.00325047086701    0.0100856673753     
4300000000.0        0.00329188318883    0.0103232411806     0.994018369008      -0.0826460412503    0.994018369008      -0.0826460412503    0.00329188318883    0.0103232411806     
4400000000.0        0.00333420468142    0.0105606429637     0.993851097919      -0.0845636302707    0.993851097919      -0.0845636302707    0.00333420468142    0.0105606429637     
4500000000.0        0.00337743557962    0.0107978691051     0.993680077656      -0.086480914227     0.993680077656      -0.086480914227     0.00337743557962    0.0107978691051     
4600000000.0        0.00342157604453    0.0110349159898     0.993505307889      -0.0883978859456    0.993505307889      -0.0883978859456    0.00342157604453    0.0110349159898     
4700000000.0        0.00346662616827    0.0112717800069     0.993326788358      -0.090314538245     0.993326788358      -0.090314538245     0.00346662616827    0.0112717800069     
4800000000.0        0.00351258597845    0.01150845755       0.993144518869      -0.0922308639361    0.993144518869      -0.0922308639361    0.00351258597845    0.01150845755       
4900000000.0        0.00355945544207    0.0117449450172     0.992958499287      -0.0941468558227    0.992958499287      -0.0941468558227    0.00355945544207    0.0117449450172     
5000000000.0        0.00360723446913    0.0119812388113     0.992768729537      -0.0960625067013    0.992768729537      -0.0960625067013    0.00360723446913    0.0119812388113     
5100000000.0        0.00365592291589    0.0122173353398     0.992575209597      -0.0979778093622    0.992575209597      -0.0979778093622    0.00365592291589    0.0122173353398     
5200000000.0        0.00370552058784    0.0124532310151     0.992377939497      -0.0998927565893    0.992377939497      -0.0998927565893    0.00370552058784    0.0124532310151     
5300000000.0        0.00375602724241    0.0126889222544     0.992176919316      -0.101807341161     0.992176919316      -0.101807341161     0.00375602724241    0.0126889222544     
5400000000.0        0.00380744259145    0.0129244054802     0.991972149181      -0.103721555848     0.991972149181      -0.103721555848     0.00380744259145    0.0129244054802     
5500000000.0        0.00385976630347    0.0131596771198     0.991763629261      -0.105635393419     0.991763629261      -0.105635393419     0.00385976630347    0.0131596771198     
5600000000.0        0.00391299800573    0.0133947336058     0.991551359769      -0.107548846636     0.991551359769      -0.107548846636     0.00391299800573    0.0133947336058     
5700000000.0        0.00396713728615    0.013629571376      0.991335340959      -0.109461908254     0.991335340959      -0.109461908254     0.00396713728615    0.013629571376      
5800000000.0        0.00402218369504    0.0138641868736     0.991115573122      -0.111374571027     0.991115573122      -0.111374571027     0.00402218369504    0.0138641868736     
5900000000.0        0.00407813674676    0.014098576547      0.990892056587      -0.113286827701     0.990892056587      -0.113286827701     0.00407813674676    0.014098576547      
6000000000.0        0.00413499592113    0.0143327368501     0.990664791719      -0.115198671022     0.990664791719      -0.115198671022     0.00413499592113    0.0143327368501     
6100000000.0        0.0041927606649     0.0145666642422     0.990433778919      -0.117110093728     0.990433778919      -0.117110093728     0.0041927606649     0.0145666642422     
6200000000.0        0.00425143039295    0.0148003551883     0.990199018619      -0.119021088555     0.990199018619      -0.119021088555     0.00425143039295    0.0148003551883     
6300000000.0        0.00431100448949    0.0150338061589     0.989960511283      -0.120931648235     0.989960511283      -0.120931648235     0.00431100448949    0.0150338061589     
6400000000.0        0.00437148230916    0.0152670136301     0.98971825741       -0.122841765498     0.98971825741       -0.122841765498     0.00437148230916    0.0152670136301     
6500000000.0        0.00443286317804    0.0154999740836     0.989472257524      -0.124751433068     0.989472257524      -0.124751433068     0.00443286317804    0.0154999740836     
6600000000.0        0.0044951463946     0.015732684007      0.989222512181      -0.126660643669     0.989222512181      -0.126660643669     0.0044951463946     0.015732684007      
6700000000.0        0.00455833123057    0.0159651398936     0.988969021967      -0.128569390019     0.988969021967      -0.128569390019     0.00455833123057    0.0159651398936     
6800000000.0        0.00462241693175    0.0161973382424     0.988711787492      -0.130477664837     0.988711787492      -0.130477664837     0.00462241693175    0.0161973382424     
6900000000.0        0.00468740271881    0.0164292755585     0.988450809396      -0.132385460835     0.988450809396      -0.132385460835     0.00468740271881    0.0164292755585     
7000000000.0        0.00475328778795    0.0166609483526     0.988186088344      -0.134292770726     0.988186088344      -0.134292770726     0.00475328778795    0.0166609483526     
7100000000.0        0.00482007131163    0.0168923531416     0.987917625027      -0.13619958722      0.987917625027      -0.13619958722      0.00482007131163    0.0168923531416     
7200000000.0        0.00488775243915    0.0171234864482     0.98764542016       -0.138105903024     0.98764542016       -0.138105903024     0.00488775243915    0.0171234864482     
7300000000.0        0.00495633029723    0.0173543448011     0.987369474485      -0.140011710844     0.987369474485      -0.140011710844     0.00495633029723    0.0173543448011     
7400000000.0        0.00502580399062    0.0175849247352     0.987089788766      -0.141917003382     0.987089788766      -0.141917003382     0.00502580399062    0.0175849247352     
7500000000.0        0.00509617260256    0.0178152227914     0.986806363791      -0.143821773341     0.986806363791      -0.143821773341     0.00509617260256    0.0178152227914     
7600000000.0        0.00516743519527    0.0180452355166     0.986519200371      -0.145726013422     0.986519200371      -0.145726013422     0.00516743519527    0.0180452355166     
7700000000.0        0.00523959081045    0.0182749594642     0.986228299341      -0.147629716322     0.986228299341      -0.147629716322     0.00523959081045    0.0182749594642     
7800000000.0        0.00531263846965    0.0185043911933     0.985933661558      -0.14953287474      0.985933661558      -0.14953287474      0.00531263846965    0.0185043911933     
7900000000.0        0.00538657717474    0.0187335272697     0.985635287899      -0.151435481372     0.985635287899      -0.151435481372     0.00538657717474    0.0187335272697     
8000000000.0        0.00546140590823    0.0189623642651     0.985333179265      -0.153337528912     0.985333179265      -0.153337528912     0.00546140590823    0.0189623642651     
8100000000.0        0.00553712363371    0.0191908987577     0.985027336576      -0.155239010054     0.985027336576      -0.155239010054     0.00553712363371    0.0191908987577     
8200000000.0        0.0056137292961     0.0194191273319     0.984717760777      -0.157139917492     0.984717760777      -0.157139917492     0.0056137292961     0.0194191273319     
8300000000.0        0.00569122182205    0.0196470465786     0.984404452829      -0.159040243919     0.984404452829      -0.159040243919     0.00569122182205    0.0196470465786     
8400000000.0        0.00576960012022    0.0198746530949     0.984087413716      -0.160939982025     0.984087413716      -0.160939982025     0.00576960012022    0.0198746530949     
8500000000.0        0.00584886308155    0.0201019434844     0.983766644442      -0.162839124502     0.983766644442      -0.162839124502     0.00584886308155    0.0201019434844     
8600000000.0        0.0059290095796     0.0203289143572     0.983442146032      -0.16473766404      0.983442146032      -0.16473766404      0.0059290095796     0.0203289143572     
8700000000.0        0.00601003847072    0.0205555623299     0.983113919527      -0.16663559333      0.983113919527      -0.16663559333      0.00601003847072    0.0205555623299     
8800000000.0        0.0060919485944     0.0207818840255     0.982781965993      -0.168532905061     0.982781965993      -0.168532905061     0.0060919485944     0.0207818840255     
8900000000.0        0.00617473877343    0.0210078760735     0.98244628651       -0.170429591924     0.98244628651       -0.170429591924     0.00617473877343    0.0210078760735     
9000000000.0        0.00625840781416    0.0212335351102     0.982106882181      -0.172325646607     0.982106882181      -0.172325646607     0.00625840781416    0.0212335351102     
9100000000.0        0.00634295450672    0.0214588577784     0.981763754125      -0.174221061801     0.981763754125      -0.174221061801     0.00634295450672    0.0214588577784     
9200000000.0        0.00642837762523    0.0216838407273     0.981416903483      -0.176115830195     0.981416903483      -0.176115830195     0.00642837762523    0.0216838407273     
9300000000.0        0.00651467592795    0.0219084806131     0.981066331412      -0.178009944478     0.981066331412      -0.178009944478     0.00651467592795    0.0219084806131     
9400000000.0        0.00660184815754    0.0221327740986     0.980712039089      -0.179903397342     0.980712039089      -0.179903397342     0.00660184815754    0.0221327740986     
9500000000.0        0.00668989304119    0.0223567178532     0.980354027708      -0.181796181476     0.980354027708      -0.181796181476     0.00668989304119    0.0223567178532     
9600000000.0        0.0067788092908     0.0225803085531     0.979992298482      -0.183688289571     0.979992298482      -0.183688289571     0.0067788092908     0.0225803085531     
9700000000.0        0.00686859560315    0.0228035428814     0.979626852642      -0.185579714319     0.979626852642      -0.185579714319     0.00686859560315    0.0228035428814     
9800000000.0        0.00695925066008    0.0230264175279     0.979257691438      -0.187470448412     0.979257691438      -0.187470448412     0.00695925066008    0.0230264175279     
9900000000.0        0.0070507731286     0.0232489291892     0.978884816135      -0.189360484542     0.978884816135      -0.189360484542     0.0070507731286     0.0232489291892     
10000000000.0       0.00714316166107    0.0234710745688     0.978508228019      -0.191249815403     0.978508228019      -0.191249815403     0.00714316166107    0.0234710745688     
