# Hz S RI R 50.00 
100000000.0         -0.000223012755424  -0.0146662549571    0.99975940564       -0.0147697027228    0.99975940564       -0.0147697027228    -0.000223012755424  -0.0146662549571    
200000000.0         -0.000886882172329  -0.0293107555906    0.999095400266      -0.0295177009539    0.999095400266      -0.0295177009539    -0.000886882172329  -0.0293107555906    
300000000.0         -0.00198142336398   -0.0439136172885    0.998000742665      -0.04422413493      0.998000742665      -0.04422413493      -0.00198142336398   -0.0439136172885    
400000000.0         -0.00350347612594   -0.0584553855656    0.996478577894      -0.0588695685045    0.996478577894      -0.0588695685045    -0.00350347612594   -0.0584553855656    
500000000.0         -0.00544874421727   -0.0729170151783    0.994533196366      -0.0734349712272    0.994533196366      -0.0734349712272    -0.00544874421727   -0.0729170151783    
600000000.0         -0.00781183294606   -0.0872799136087    0.992169989791      -0.0879017628891    0.992169989791      -0.0879017628891    -0.00781183294606   -0.0872799136087    
700000000.0         -0.0105862930285    -0.101525998202     0.989395405681      -0.102251871216     0.989395405681      -0.102251871216     -0.0105862930285    -0.101525998202     
800000000.0         -0.0137646694947    -0.115637755947     0.986216897844      -0.116467792001     0.986216897844      -0.116467792001     -0.0137646694947    -0.115637755947     
900000000.0         -0.0173385552554    -0.129598301806     0.982642872554      -0.130532647667     0.982642872554      -0.130532647667     -0.0173385552554    -0.129598301806     
1000000000.0        -0.0212986489038    -0.143391433576     0.978682630615      -0.144430242319     0.978682630615      -0.144430242319     -0.0212986489038    -0.143391433576     
1100000000.0        -0.0256348162423    -0.157001682159     0.974346305759      -0.158145112148     0.974346305759      -0.158145112148     -0.0256348162423    -0.157001682159     
1200000000.0        -0.0303361549656    -0.170414356552     0.969644799921      -0.17166257054      0.969644799921      -0.17166257054      -0.0303361549656    -0.170414356552     
1300000000.0        -0.0353910618876    -0.183615583087     0.964589715982      -0.184968747417     0.964589715982      -0.184968747417     -0.0353910618876    -0.183615583087     
1400000000.0        -0.0407873020847    -0.196592338694     0.959193288612      -0.198050622581     0.959193288612      -0.198050622581     -0.0407873020847    -0.196592338694     
1500000000.0        -0.04651207932      -0.209332478007     0.953468313828      -0.210896052894     0.953468313828      -0.210896052894     -0.04651207932      -0.209332478007     
1600000000.0        -0.0525521071233    -0.221824754315     0.947428077909      -0.223493793297     0.947428077909      -0.223493793297     -0.0525521071233    -0.221824754315     
1700000000.0        -0.0588936799213    -0.234058834398     0.941086286263      -0.235833511703     0.941086286263      -0.235833511703     -0.0588936799213    -0.234058834398     
1800000000.0        -0.065522743636     -0.246025307386     0.934456992814      -0.24790579791      0.934456992814      -0.24790579791      -0.065522743636     -0.246025307386     
1900000000.0        -0.0724249652101    -0.25771568785      0.927554530486      -0.25970216674      0.927554530486      -0.25970216674      -0.0724249652101    -0.25771568785      
2000000000.0        -0.0795858005535    -0.26912241337      0.920393443244      -0.271215055649     0.920393443244      -0.271215055649     -0.0795858005535    -0.26912241337      
2100000000.0        -0.0869905604553    -0.28023883689      0.912988420184      -0.282437817126     0.912988420184      -0.282437817126     -0.0869905604553    -0.28023883689      
2200000000.0        -0.0946244740502    -0.291059214208     0.905354232066      -0.293364706214     0.905354232066      -0.293364706214     -0.0946244740502    -0.291059214208     
2300000000.0        -0.102472749485     -0.30157868697      0.897505670646      -0.303990863541     0.897505670646      -0.303990863541     -0.102472749485     -0.30157868697      
2400000000.0        -0.110520631474     -0.311793261564     0.889457491116      -0.314312294245     0.889457491116      -0.314312294245     -0.110520631474     -0.311793261564     
2500000000.0        -0.118753455503     -0.32169978434      0.881224357905      -0.324325843217     0.881224357905      -0.324325843217     -0.118753455503     -0.32169978434      
2600000000.0        -0.127156698464     -0.33129591356      0.872820794041      -0.334029167084     0.872820794041      -0.334029167084     -0.127156698464     -0.33129591356      
2700000000.0        -0.135716025585     -0.340580088526     0.864261134217      -0.343420703351     0.864261134217      -0.343420703351     -0.135716025585     -0.340580088526     
2800000000.0        -0.144417333547     -0.349551496287     0.855559481679      -0.352499637136     0.855559481679      -0.352499637136     -0.144417333547     -0.349551496287     
2900000000.0        -0.153246789735     -0.358210036349     0.846729668975      -0.361265865901     0.846729668975      -0.361265865901     -0.153246789735     -0.358210036349     
3000000000.0        -0.162190867598     -0.366556283797     0.837785222588      -0.369719962583     0.837785222588      -0.369719962583     -0.162190867598     -0.366556283797     
3100000000.0        -0.17123637816      -0.374591451191     0.828739331433      -0.377863137515     0.828739331433      -0.377863137515     -0.17123637816      -0.374591451191     
3200000000.0        -0.180370497726     -0.382317349622     0.819604819145      -0.38569719949      0.819604819145      -0.38569719949      -0.180370497726     -0.382317349622     
3300000000.0        -0.189580791875     -0.389736349258     0.810394120086      -0.393224516328     0.810394120086      -0.393224516328     -0.189580791875     -0.389736349258     
3400000000.0        -0.19885523587      -0.396851339701     0.80111925894       -0.400447975233     0.80111925894       -0.400447975233     -0.19885523587      -0.396851339701     
3500000000.0        -0.208182231608     -0.403665690438     0.791791833756      -0.407370943269     0.791791833756      -0.407370943269     -0.208182231608     -0.403665690438     
3600000000.0        -0.217550621273     -0.410183211667     0.782423002301      -0.413997228184     0.782423002301      -0.413997228184     -0.217550621273     -0.410183211667     
3700000000.0        -0.226949697879     -0.416408115713     0.773023471512      -0.420331039843     0.773023471512      -0.420331039843     -0.226949697879     -0.416408115713     
3800000000.0        -0.236369212867     -0.422344979262     0.763603489903      -0.426376952464     0.763603489903      -0.426376952464     -0.236369212867     -0.422344979262     
3900000000.0        -0.245799380967     -0.427998706586     0.754172842696      -0.432139867856     0.754172842696      -0.432139867856     -0.245799380967     -0.427998706586     
4000000000.0        -0.255230882523     -0.433374493921     0.744740849508      -0.437624979797     0.744740849508      -0.437624979797     -0.255230882523     -0.433374493921     
4100000000.0        -0.264654863469     -0.438477795124     0.735316364359      -0.442837739702     0.735316364359      -0.442837739702     -0.264654863469     -0.438477795124     
4200000000.0        -0.274062933181     -0.443314288727     0.725907777838      -0.447783823675     0.725907777838      -0.447783823675     -0.274062933181     -0.443314288727     
4300000000.0        -0.283447160381     -0.447889846459     0.716523021183      -0.452469101048     0.716523021183      -0.452469101048     -0.283447160381     -0.447889846459     
4400000000.0        -0.292800067306     -0.452210503325     0.707169572118      -0.456899604449     0.707169572118      -0.456899604449     -0.292800067306     -0.452210503325     
4500000000.0        -0.302114622333     -0.45628242926      0.697854462232      -0.46108150147      0.697854462232      -0.46108150147      -0.302114622333     -0.45628242926      
4600000000.0        -0.31138423123      -0.46011190241      0.688584285721      -0.465021067947     0.688584285721      -0.465021067947     -0.31138423123      -0.46011190241      
4700000000.0        -0.320602727222     -0.463705284042     0.679365209328      -0.468724662872     0.679365209328      -0.468724662872     -0.320602727222     -0.463705284042     
4800000000.0        -0.329764360037     -0.467068995081     0.670202983292      -0.472198704933     0.670202983292      -0.472198704933     -0.329764360037     -0.467068995081     
4900000000.0        -0.338863784079     -0.470209494269     0.661102953178      -0.475449650677     0.661102953178      -0.475449650677     -0.338863784079     -0.470209494269     
5000000000.0        -0.347896045897     -0.473133257912     0.652070072407      -0.478483974254     0.652070072407      -0.478483974254     -0.347896045897     -0.473133257912     
5100000000.0        -0.35685657106      -0.47584676119      0.643108915378      -0.481308148732     0.643108915378      -0.481308148732     -0.35685657106      -0.47584676119      
5200000000.0        -0.365741150595     -0.478356460977     0.634223691039      -0.483928628915     0.634223691039      -0.483928628915     -0.365741150595     -0.478356460977     
5300000000.0        -0.374545927077     -0.480668780138     0.625418256786      -0.486351835645     0.625418256786      -0.486351835645     -0.374545927077     -0.480668780138     
5400000000.0        -0.3832673805       -0.482790093233     0.616696132598      -0.488584141503     0.616696132598      -0.488584141503     -0.3832673805       -0.482790093233     
5500000000.0        -0.391902314013     -0.484726713587     0.6080605153        -0.490631857881     0.6080605153        -0.490631857881     -0.391902314013     -0.484726713587     
5600000000.0        -0.400447839614     -0.486484881646     0.59951429287       -0.492501223337     0.59951429287       -0.492501223337     -0.400447839614     -0.486484881646     
5700000000.0        -0.408901363878     -0.488070754573     0.591060058706      -0.494198393191     0.591060058706      -0.494198393191     -0.408901363878     -0.488070754573     
5800000000.0        -0.417260573793     -0.489490397005     0.582700125796      -0.495729430284     0.582700125796      -0.495729430284     -0.417260573793     -0.489490397005     
5900000000.0        -0.425523422758     -0.490749772918     0.57443654072       -0.497100296842     0.57443654072       -0.497100296842     -0.425523422758     -0.490749772918     
6000000000.0        -0.433688116802     -0.491854738522     0.566271097423      -0.49831684737      0.566271097423      -0.49831684737      -0.433688116802     -0.491854738522     
6100000000.0        -0.441753101073     -0.492811036129     0.558205350738      -0.499384822519     0.558205350738      -0.499384822519     -0.441753101073     -0.492811036129     
6200000000.0        -0.449717046621     -0.493624288927     0.550240629591      -0.500309843861     0.550240629591      -0.500309843861     -0.449717046621     -0.493624288927     
6300000000.0        -0.457578837536     -0.494299996598     0.542378049873      -0.501097409507     0.542378049873      -0.501097409507     -0.457578837536     -0.494299996598     
6400000000.0        -0.465337558434     -0.494843531711     0.534618526945      -0.5017528905       0.534618526945      -0.5017528905       -0.465337558434     -0.494843531711     
6500000000.0        -0.472992482347     -0.495260136849     0.526962787755      -0.502281527934     0.526962787755      -0.502281527934     -0.472992482347     -0.495260136849     
6600000000.0        -0.480543059008     -0.49555492239      0.519411382551      -0.502688430746     0.519411382551      -0.502688430746     -0.480543059008     -0.49555492239      
6700000000.0        -0.487988903557     -0.495732864901     0.511964696173      -0.502978574102     0.511964696173      -0.502978574102     -0.487988903557     -0.495732864901     
6800000000.0        -0.495329785678     -0.495798806094     0.504622958918      -0.503156798353     0.504622958918      -0.503156798353     -0.495329785678     -0.495798806094     
6900000000.0        -0.502565619164     -0.495757452286     0.497386256976      -0.503227808496     0.497386256976      -0.503227808496     -0.502565619164     -0.495757452286     
7000000000.0        -0.509696451919     -0.495613374319     0.490254542421      -0.503196174091     0.490254542421      -0.503196174091     -0.509696451919     -0.495613374319     
7100000000.0        -0.5167224564       -0.4953710079       0.483227642781      -0.503066329604     0.483227642781      -0.503066329604     -0.5167224564       -0.4953710079       
7200000000.0        -0.523643920486     -0.495034654311     0.476305270157      -0.50284257511      0.476305270157      -0.50284257511      -0.523643920486     -0.495034654311     
7300000000.0        -0.530461238778     -0.494608481457     0.469487029931      -0.502529077347     0.469487029931      -0.502529077347     -0.530461238778     -0.494608481457     
7400000000.0        -0.537174904322     -0.494096525208     0.462772429042      -0.502129871054     0.462772429042      -0.502129871054     -0.537174904322     -0.494096525208     
7500000000.0        -0.543785500741     -0.493502691012     0.456160883848      -0.501648860582     0.456160883848      -0.501648860582     -0.543785500741     -0.493502691012     
7600000000.0        -0.550293694777     -0.492830755729     0.44965172759       -0.501089821729     0.44965172759       -0.501089821729     -0.550293694777     -0.492830755729     
7700000000.0        -0.556700229223     -0.492084369681     0.443244217459      -0.500456403787     0.443244217459      -0.500456403787     -0.556700229223     -0.492084369681     
7800000000.0        -0.563005916245     -0.491267058859     0.436937541274      -0.499752131753     0.436937541274      -0.499752131753     -0.563005916245     -0.491267058859     
7900000000.0        -0.56921163106      -0.490382227299     0.4307308238        -0.4989804087       0.4307308238        -0.4989804087       -0.56921163106      -0.490382227299     
8000000000.0        -0.575318305991     -0.489433159569     0.424623132697      -0.498144518262     0.424623132697      -0.498144518262     -0.575318305991     -0.489433159569     
8100000000.0        -0.581326924858     -0.488423023369     0.418613484133      -0.497247627237     0.418613484133      -0.497247627237     -0.581326924858     -0.488423023369     
8200000000.0        -0.587238517698     -0.487354872211     0.412700848053      -0.496292788267     0.412700848053      -0.496292788267     -0.587238517698     -0.487354872211     
8300000000.0        -0.593054155814     -0.486231648176     0.406884153138      -0.495282942586     0.406884153138      -0.495282942586     -0.593054155814     -0.486231648176     
8400000000.0        -0.598774947124     -0.48505618471      0.401162291456      -0.494220922828     0.401162291456      -0.494220922828     -0.598774947124     -0.48505618471      
8500000000.0        -0.604402031806     -0.483831209468     0.395534122813      -0.493109455858     0.395534122813      -0.493109455858     -0.604402031806     -0.483831209468     
8600000000.0        -0.60993657822      -0.482559347177     0.389998478835      -0.491951165643     0.389998478835      -0.491951165643     -0.60993657822      -0.482559347177     
8700000000.0        -0.615379779098     -0.481243122509     0.384554166773      -0.49074857612      0.384554166773      -0.49074857612      -0.615379779098     -0.481243122509     
8800000000.0        -0.620732847993     -0.479884962962     0.379199973062      -0.489504114075     0.379199973062      -0.489504114075     -0.620732847993     -0.479884962962     
8900000000.0        -0.625997015958     -0.478487201723     0.373934666631      -0.488220112012     0.373934666631      -0.488220112012     -0.625997015958     -0.478487201723     
9000000000.0        -0.63117352847      -0.477052080527     0.36875700199       -0.486898811002     0.36875700199       -0.486898811002     -0.63117352847      -0.477052080527     
9100000000.0        -0.636263642559     -0.475581752477     0.363665722095      -0.485542363511     0.363665722095      -0.485542363511     -0.636263642559     -0.475581752477     
9200000000.0        -0.641268624147     -0.474078284847     0.358659561008      -0.484152836196     0.358659561008      -0.484152836196     -0.641268624147     -0.474078284847     
9300000000.0        -0.646189745585     -0.472543661841     0.353737246364      -0.482732212669     0.353737246364      -0.482732212669     -0.646189745585     -0.472543661841     
9400000000.0        -0.651028283374     -0.470979787311     0.348897501647      -0.481282396207     0.348897501647      -0.481282396207     -0.651028283374     -0.470979787311     
9500000000.0        -0.655785516056     -0.469388487432     0.344139048303      -0.479805212434     0.344139048303      -0.479805212434     -0.655785516056     -0.469388487432     
9600000000.0        -0.660462722269     -0.467771513324     0.339460607677      -0.478302411939     0.339460607677      -0.478302411939     -0.660462722269     -0.467771513324     
9700000000.0        -0.665061178965     -0.466130543625     0.334860902803      -0.476775672848     0.334860902803      -0.476775672848     -0.665061178965     -0.466130543625     
9800000000.0        -0.669582159765     -0.464467187009     0.330338660047      -0.47522660334      0.330338660047      -0.47522660334      -0.669582159765     -0.464467187009     
9900000000.0        -0.674026933451     -0.462782984642     0.32589261061       -0.473656744108     0.32589261061       -0.473656744108     -0.674026933451     -0.462782984642     
10000000000.0       -0.678396762595     -0.461079412583     0.321521491909      -0.472067570755     0.321521491909      -0.472067570755     -0.678396762595     -0.461079412583     
