# Hz S RI R 50.00 
100000000.0         -0.00437257407202   -0.0654973251575    0.995598785561      -0.0656800788531    0.995598785561      -0.0656800788531    -0.00437257407202   -0.0654973251575    
200000000.0         -0.0171731900097    -0.129288559825     0.982797923566      -0.129654158989     0.982797923566      -0.129654158989     -0.0171731900097    -0.129288559825     
300000000.0         -0.0377422676442    -0.189834724458     0.962228615365      -0.190383307014     0.962228615365      -0.190383307014     -0.0377422676442    -0.189834724458     
400000000.0         -0.0650971739681    -0.245858676188     0.934873469264      -0.246590413946     0.934873469264      -0.246590413946     -0.0650971739681    -0.245858676188     
500000000.0         -0.0980296547593    -0.296418548686     0.901940729941      -0.297333640474     0.901940729941      -0.297333640474     -0.0980296547593    -0.296418548686     
600000000.0         -0.135226920689     -0.340933617391     0.864743181809      -0.342032284151     0.864743181809      -0.342032284151     -0.135226920689     -0.340933617391     
700000000.0         -0.175382810762     -0.379166927202     0.824586982908      -0.380449408145     0.824586982908      -0.380449408145     -0.175382810762     -0.379166927202     
800000000.0         -0.217285340883     -0.411176486622     0.782684115368      -0.412643036058     0.782684115368      -0.412643036058     -0.217285340883     -0.411176486622     
900000000.0         -0.259874737867     -0.437249448067     0.740094350966      -0.438900332728     0.740094350966      -0.438900332728     -0.259874737867     -0.437249448067     
1000000000.0        -0.302272785122     -0.457832357154     0.697695905231      -0.459667853893     0.697695905231      -0.459667853893     -0.302272785122     -0.457832357154     
1100000000.0        -0.343788607775     -0.473466982033     0.656179652198      -0.47548737583      0.656179652198      -0.47548737583      -0.343788607775     -0.473466982033     
1200000000.0        -0.383907781053     -0.484737129687     0.61606001595       -0.48694271191      0.61606001595       -0.48694271191      -0.383907781053     -0.484737129687     
1300000000.0        -0.422271486285     -0.492228358609     0.57769581458       -0.4946194255       0.57769581458       -0.4946194255       -0.422271486285     -0.492228358609     
1400000000.0        -0.458651209941     -0.496500086616     0.54131556112       -0.499076937969     0.54131556112       -0.499076937969     -0.458651209941     -0.496500086616     
1500000000.0        -0.492922896777     -0.498068265212     0.507043310373      -0.500831203217     0.507043310373      -0.500831203217     -0.492922896777     -0.498068265212     
1600000000.0        -0.525042982313     -0.497396301456     0.474922626427      -0.500345629701     0.474922626427      -0.500345629701     -0.525042982313     -0.497396301456     
1700000000.0        -0.555027553856     -0.494891951776     0.444937421621      -0.498027974378     0.444937421621      -0.498027974378     -0.555027553856     -0.494891951776     
1800000000.0        -0.582935068017     -0.490908231472     0.417029239017      -0.494231252333     0.417029239017      -0.494231252333     -0.582935068017     -0.490908231472     
1900000000.0        -0.608852542569     -0.485746799506     0.391111060543      -0.489257121672     0.391111060543      -0.489257121672     -0.608852542569     -0.485746799506     
2000000000.0        -0.632884865856     -0.479662685205     0.367077997575      -0.483360610328     0.367077997575      -0.483360610328     -0.632884865856     -0.479662685205     
2100000000.0        -0.655146752222     -0.47286957157      0.344815335506      -0.476755399453     0.344815335506      -0.476755399453     -0.655146752222     -0.47286957157      
2200000000.0        -0.675756855197     -0.465545123267     0.324204420561      -0.469619151484     0.324204420561      -0.469619151484     -0.675756855197     -0.465545123267     
2300000000.0        -0.694833587044     -0.457836049172     0.305126840242      -0.46209857276      0.305126840242      -0.46209857276      -0.694833587044     -0.457836049172     
2400000000.0        -0.712492254266     -0.449862730922     0.287467287824      -0.454314042137     0.287467287824      -0.454314042137     -0.712492254266     -0.449862730922     
2500000000.0        -0.728843186137     -0.441723343496     0.27111543382       -0.446363731615     0.27111543382       -0.446363731615     -0.728843186137     -0.441723343496     
2600000000.0        -0.743990597561     -0.433497453911     0.255967063124      -0.438327205091     0.255967063124      -0.438327205091     -0.743990597561     -0.433497453911     
2700000000.0        -0.758031984056     -0.425249119861     0.241924680023      -0.430268517035     0.241924680023      -0.430268517035     -0.758031984056     -0.425249119861     
2800000000.0        -0.771057893912     -0.417029529402     0.228897736041      -0.422238852215     0.228897736041      -0.422238852215     -0.771057893912     -0.417029529402     
2900000000.0        -0.783151960738     -0.408879231376     0.216802597385      -0.414278756154     0.216802597385      -0.414278756154     -0.783151960738     -0.408879231376     
3000000000.0        -0.794391109754     -0.400830008214     0.205562338663      -0.406420007959     0.205562338663      -0.406420007959     -0.794391109754     -0.400830008214     
3100000000.0        -0.804845874403     -0.392906440802     0.195106426259      -0.398687185213     0.195106426259      -0.398687185213     -0.804845874403     -0.392906440802     
3200000000.0        -0.814580777651     -0.385127211074     0.185370337044      -0.391098966593     0.185370337044      -0.391098966593     -0.814580777651     -0.385127211074     
3300000000.0        -0.823654745597     -0.377506183037     0.176295144758      -0.383669212908     0.176295144758      -0.383669212908     -0.823654745597     -0.377506183037     
3400000000.0        -0.832121530951     -0.370053297795     0.167827096534      -0.376407862142     0.167827096534      -0.376407862142     -0.832121530951     -0.370053297795     
3500000000.0        -0.840030131196     -0.362775313131     0.159917194736      -0.369321669048     0.159917194736      -0.369321669048     -0.840030131196     -0.362775313131     
3600000000.0        -0.84742519154      -0.355676413679     0.152520794005      -0.362414815333     0.152520794005      -0.362414815333     -0.84742519154      -0.355676413679     
3700000000.0        -0.854347386554     -0.348758713627     0.145597219624      -0.355689412366     0.145597219624      -0.355689412366     -0.854347386554     -0.348758713627     
3800000000.0        -0.860833777089     -0.342022670366     0.139109410596      -0.349145914841     0.139109410596      -0.349145914841     -0.860833777089     -0.342022670366     
3900000000.0        -0.866918140952     -0.335467424446     0.133023588973      -0.342783460733     0.133023588973      -0.342783460733     -0.866918140952     -0.335467424446     
4000000000.0        -0.872631277082     -0.329091078624     0.127308955673      -0.336600150354     0.127308955673      -0.336600150354     -0.872631277082     -0.329091078624     
4100000000.0        -0.878001283841     -0.322890926609     0.121937412197      -0.330593275099     0.121937412197      -0.330593275099     -0.878001283841     -0.322890926609     
4200000000.0        -0.883053812558     -0.316863640288     0.116883307076      -0.324759504678     0.116883307076      -0.324759504678     -0.883053812558     -0.316863640288     
4300000000.0        -0.887812297799     -0.311005422691     0.11212320561       -0.319095040081     0.11212320561       -0.319095040081     -0.887812297799     -0.311005422691     
4400000000.0        -0.89229816599      -0.305312132715     0.107635681237      -0.3135957383       0.107635681237      -0.3135957383       -0.89229816599      -0.305312132715     
4500000000.0        -0.896531024099     -0.299779386541     0.103401126853      -0.30825721375      0.103401126853      -0.30825721375      -0.896531024099     -0.299779386541     
4600000000.0        -0.900528830053     -0.294402639854     0.0994015843996     -0.303074920489     0.0994015843996     -0.303074920489     -0.900528830053     -0.294402639854     
4700000000.0        -0.904308046521     -0.289177254247     0.095620591072      -0.298044218615     0.095620591072      -0.298044218615     -0.904308046521     -0.289177254247     
4800000000.0        -0.907883779612     -0.284098550581     0.0920430406284     -0.293160427634     0.0920430406284     -0.293160427634     -0.907883779612     -0.284098550581     
4900000000.0        -0.911269903922     -0.279161851628     0.0886550583406     -0.288418869092     0.0886550583406     -0.288418869092     -0.911269903922     -0.279161851628     
5000000000.0        -0.914479175264     -0.274362515879     0.0854438882614     -0.283814900387     0.0854438882614     -0.283814900387     -0.914479175264     -0.274362515879     
5100000000.0        -0.91752333231      -0.269695964105     0.082397791586      -0.279343941325     0.082397791586      -0.279343941325     -0.91752333231      -0.269695964105     
5200000000.0        -0.920413188249     -0.265157699954     0.0795059549911     -0.275001494719     0.0795059549911     -0.275001494719     -0.920413188249     -0.265157699954     
5300000000.0        -0.923158713479     -0.260743325677     0.0767584079451     -0.270783162103     0.0767584079451     -0.270783162103     -0.923158713479     -0.260743325677     
5400000000.0        -0.92576911024      -0.256448553847     0.0741459480736     -0.266684655459     0.0741459480736     -0.266684655459     -0.92576911024      -0.256448553847     
5500000000.0        -0.928252880013     -0.252269215826     0.07166007376       -0.262701805676     0.07166007376       -0.262701805676     -0.928252880013     -0.252269215826     
5600000000.0        -0.930617884426     -0.248201267572     0.0692929232402     -0.258830568351     0.0692929232402     -0.258830568351     -0.930617884426     -0.248201267572     
5700000000.0        -0.932871400326     -0.244240793294     0.0670372195295     -0.255067027447     0.0670372195295     -0.255067027447     -0.932871400326     -0.244240793294     
5800000000.0        -0.93502016962      -0.240384007369     0.0648862205844     -0.251407397205     0.0648862205844     -0.251407397205     -0.93502016962      -0.240384007369     
5900000000.0        -0.937070444404     -0.236627254859     0.0628336741697     -0.247848022657     0.0628336741697     -0.247848022657     -0.937070444404     -0.236627254859     
6000000000.0        -0.939028027871     -0.232967010918     0.0608737769509     -0.24438537903      0.0608737769509     -0.24438537903      -0.939028027871     -0.232967010918     
6100000000.0        -0.940898311422     -0.229399879316     0.0590011373873     -0.241016070268     0.0590011373873     -0.241016070268     -0.940898311422     -0.229399879316     
6200000000.0        -0.942686308348     -0.225922590274     0.0572107420438     -0.237736826864     0.0572107420438     -0.237736826864     -0.942686308348     -0.225922590274     
6300000000.0        -0.944396684448     -0.22253199777      0.055497924979      -0.234544503162     0.055497924979      -0.234544503162     -0.944396684448     -0.22253199777      
6400000000.0        -0.946033785862     -0.219225076441     0.0538583399053     -0.231436074261     0.0538583399053     -0.231436074261     -0.946033785862     -0.219225076441     
6500000000.0        -0.947601664419     -0.215998918199     0.0522879348475     -0.228408632619     0.0522879348475     -0.228408632619     -0.947601664419     -0.215998918199     
6600000000.0        -0.949104100723     -0.212850728631     0.050782929054      -0.225459384458     0.050782929054      -0.225459384458     -0.949104100723     -0.212850728631     
6700000000.0        -0.950544625204     -0.209777823266     0.0493397919431     -0.222585646027     0.0493397919431     -0.222585646027     -0.950544625204     -0.209777823266     
6800000000.0        -0.951926537338     -0.206777623769     0.0479552238868     -0.219784839791     0.0479552238868     -0.219784839791     -0.951926537338     -0.206777623769     
6900000000.0        -0.953252923201     -0.203847654093     0.0466261386568     -0.217054490584     0.0466261386568     -0.217054490584     -0.953252923201     -0.203847654093     
7000000000.0        -0.954526671514     -0.200985536647     0.0453496473739     -0.214392221769     0.0453496473739     -0.214392221769     -0.954526671514     -0.200985536647     
7100000000.0        -0.95575048834      -0.198188988486     0.0441230438202     -0.211795751435     0.0441230438202     -0.211795751435     -0.95575048834      -0.198188988486     
7200000000.0        -0.956926910528     -0.195455817576     0.0429437909851     -0.209262888648     0.0429437909851     -0.209262888648     -0.956926910528     -0.195455817576     
7300000000.0        -0.958058318054     -0.192783919118     0.0418095087324     -0.206791529781     0.0418095087324     -0.206791529781     -0.958058318054     -0.192783919118     
7400000000.0        -0.959146945332     -0.190171271971     0.0407179624837     -0.204379654936     0.0407179624837     -0.204379654936     -0.959146945332     -0.190171271971     
7500000000.0        -0.960194891609     -0.187615935178     0.0396670528269     -0.20202532446      0.0396670528269     -0.20202532446      -0.960194891609     -0.187615935178     
7600000000.0        -0.961204130514     -0.185116044588     0.0386548059652     -0.199726675572     0.0386548059652     -0.199726675572     -0.961204130514     -0.185116044588     
7700000000.0        -0.962176518844     -0.182669809606     0.0376793649312     -0.197481919109     0.0376793649312     -0.197481919109     -0.962176518844     -0.182669809606     
7800000000.0        -0.963113804653     -0.180275510042     0.036738981499      -0.195289336374     0.036738981499      -0.195289336374     -0.963113804653     -0.180275510042     
7900000000.0        -0.964017634704     -0.177931493095     0.035832008732      -0.193147276114     0.035832008732      -0.193147276114     -0.964017634704     -0.177931493095     
8000000000.0        -0.964889561338     -0.175636170435     0.0349568941108     -0.191054151606     0.0349568941108     -0.191054151606     -0.964889561338     -0.175636170435     
8100000000.0        -0.965731048821     -0.173388015418     0.0341121731917     -0.189008437869     0.0341121731917     -0.189008437869     -0.965731048821     -0.173388015418     
8200000000.0        -0.966543479196     -0.171185560406     0.0332964637498     -0.18700866898      0.0332964637498     -0.18700866898      -0.966543479196     -0.171185560406     
8300000000.0        -0.967328157698     -0.169027394206     0.0325084603653     -0.185053435512     0.0325084603653     -0.185053435512     -0.967328157698     -0.169027394206     
8400000000.0        -0.968086317765     -0.166912159612     0.0317469294159     -0.183141382079     0.0317469294159     -0.183141382079     -0.968086317765     -0.166912159612     
8500000000.0        -0.968819125666     -0.164838551061     0.0310107044414     -0.181271204983     0.0310107044414     -0.181271204983     -0.968819125666     -0.164838551061     
8600000000.0        -0.969527684804     -0.162805312388     0.0302986818495     -0.179441649978     0.0302986818495     -0.179441649978     -0.969527684804     -0.162805312388     
8700000000.0        -0.970213039689     -0.160811234686     0.0296098169349     -0.177651510116     0.0296098169349     -0.177651510116     -0.970213039689     -0.160811234686     
8800000000.0        -0.970876179636     -0.158855154256     0.0289431201857     -0.175899623706     0.0289431201857     -0.175899623706     -0.970876179636     -0.158855154256     
8900000000.0        -0.971518042194     -0.156935950654     0.0282976538551     -0.174184872358     0.0282976538551     -0.174184872358     -0.971518042194     -0.156935950654     
9000000000.0        -0.972139516327     -0.155052544831     0.0276725287756     -0.172506179117     0.0276725287756     -0.172506179117     -0.972139516327     -0.155052544831     
9100000000.0        -0.972741445382     -0.153203897348     0.0270669013974     -0.170862506683     0.0270669013974     -0.170862506683     -0.972741445382     -0.153203897348     
9200000000.0        -0.973324629837     -0.151389006687     0.0264799710338     -0.169252855717     0.0264799710338     -0.169252855717     -0.973324629837     -0.151389006687     
9300000000.0        -0.973889829871     -0.149606907625     0.0259109772959     -0.167676263217     0.0259109772959     -0.167676263217     -0.973889829871     -0.149606907625     
9400000000.0        -0.974437767751     -0.147856669697     0.0253591977038     -0.166131800977     0.0253591977038     -0.166131800977     -0.974437767751     -0.147856669697     
9500000000.0        -0.97496913006      -0.146137395723     0.0248239454594     -0.164618574114     0.0248239454594     -0.164618574114     -0.97496913006      -0.146137395723     
9600000000.0        -0.975484569772     -0.144448220402     0.0243045673689     -0.163135719667     0.0243045673689     -0.163135719667     -0.975484569772     -0.144448220402     
9700000000.0        -0.975984708194     -0.142788308979     0.0238004419041     -0.161682405251     0.0238004419041     -0.161682405251     -0.975984708194     -0.142788308979     
9800000000.0        -0.976470136775     -0.141156855963     0.0233109773919     -0.160257827787     0.0233109773919     -0.160257827787     -0.976470136775     -0.141156855963     
9900000000.0        -0.976941418797     -0.139553083916     0.0228356103222     -0.158861212283     0.0228356103222     -0.158861212283     -0.976941418797     -0.139553083916     
10000000000.0       -0.97739909096      -0.137976242287     0.0223738037655     -0.15749181067      0.0223738037655     -0.15749181067      -0.97739909096      -0.137976242287     
