# Hz S RI R 50.00 
100000000.0         0.00780311074693    0.0012324828148     0.992195307412      -0.00172948664506   0.992195307412      -0.00172948664506   0.00780311074693    0.0012324828148     
200000000.0         0.00786062037965    0.00246464444462    0.99213696826       -0.00345865597807   0.99213696826       -0.00345865597807   0.00786062037965    0.00246464444462    
300000000.0         0.00790863943733    0.00369659163392    0.992087871983      -0.00518761705904   0.992087871983      -0.00518761705904   0.00790863943733    0.00369659163392    
400000000.0         0.00795391352946    0.00492835013347    0.992041272952      -0.0069163974678    0.992041272952      -0.0069163974678    0.00795391352946    0.00492835013347    
500000000.0         0.00799904399948    0.00615992680439    0.991994569798      -0.00864500564951   0.991994569798      -0.00864500564951   0.00799904399948    0.00615992680439    
600000000.0         0.00804535906379    0.00739132012838    0.991946434281      -0.0103734415095    0.991946434281      -0.0103734415095    0.00804535906379    0.00739132012838    
700000000.0         0.00809364410959    0.00862252398788    0.991896080986      -0.0121017002368    0.991896080986      -0.0121017002368    0.00809364410959    0.00862252398788    
800000000.0         0.0081444083706     0.00985352942161    0.99184300065       -0.0138297740854    0.99184300065       -0.0138297740854    0.0081444083706     0.00985352942161    
900000000.0         0.00819800372437    0.0110843255685     0.991786841364      -0.0155576533352    0.991786841364      -0.0155576533352    0.00819800372437    0.0110843255685     
1000000000.0        0.00825468493753    0.012314900227      0.991727348328      -0.0172853268635    0.991727348328      -0.0172853268635    0.00825468493753    0.012314900227      
1100000000.0        0.00831464317128    0.013545240211      0.991664330347      -0.0190127825096    0.991664330347      -0.0190127825096    0.00831464317128    0.013545240211      
1200000000.0        0.00837802595576    0.0147753315883     0.991597639852      -0.0207400073198    0.991597639852      -0.0207400073198    0.00837802595576    0.0147753315883     
1300000000.0        0.00844494976276    0.0160051598468     0.991527160334      -0.0224669877196    0.991527160334      -0.0224669877196    0.00844494976276    0.0160051598468     
1400000000.0        0.00851550827342    0.0172347100157     0.991452798072      -0.0241937096385    0.991452798072      -0.0241937096385    0.00851550827342    0.0172347100157     
1500000000.0        0.00858977801458    0.0184639667546     0.991374476497      -0.0259201586029    0.991374476497      -0.0259201586029    0.00858977801458    0.0184639667546     
1600000000.0        0.00866782231922    0.0196929144219     0.991292132233      -0.0276463198073    0.991292132233      -0.0276463198073    0.00866782231922    0.0196929144219     
1700000000.0        0.00874969418171    0.0209215371279     0.991205712241      -0.02937217817      0.991205712241      -0.02937217817      0.00874969418171    0.0209215371279     
1800000000.0        0.00883543836258    0.0221498187763     0.991115171713      -0.0310977183769    0.991115171713      -0.0310977183769    0.00883543836258    0.0221498187763     
1900000000.0        0.00892509297023    0.0233777430985     0.991020472493      -0.0328229249171    0.991020472493      -0.0328229249171    0.00892509297023    0.0233777430985     
2000000000.0        0.00901869067004    0.0246052936802     0.990921581867      -0.0345477821116    0.990921581867      -0.0345477821116    0.00901869067004    0.0246052936802     
2100000000.0        0.00911625962252    0.0258324539845     0.990818471624      -0.0362722741375    0.990818471624      -0.0362722741375    0.00911625962252    0.0258324539845     
2200000000.0        0.00921782422122    0.0270592073704     0.990711117319      -0.0379963850479    0.990711117319      -0.0379963850479    0.00921782422122    0.0270592073704     
2300000000.0        0.00932340568012    0.0282855371086     0.990599497683      -0.0397200987887    0.990599497683      -0.0397200987887    0.00932340568012    0.0282855371086     
2400000000.0        0.00943302250634    0.029511426395      0.990483594156      -0.0414433992134    0.990483594156      -0.0414433992134    0.00943302250634    0.029511426395      
2500000000.0        0.00954669088426    0.0307368583619     0.990363390497      -0.0431662700948    0.990363390497      -0.0431662700948    0.00954669088426    0.0307368583619     
2600000000.0        0.0096644249907     0.0319618160883     0.990238872472      -0.0448886951361    0.990238872472      -0.0448886951361    0.0096644249907     0.0319618160883     
2700000000.0        0.00978623725541    0.0331862826081     0.990110027593      -0.0466106579803    0.990110027593      -0.0466106579803    0.00978623725541    0.0331862826081     
2800000000.0        0.00991213857823    0.0344102409176     0.989976844902      -0.048332142218     0.989976844902      -0.048332142218     0.00991213857823    0.0344102409176     
2900000000.0        0.0100421385112     0.0356336739824     0.989839314785      -0.0500531313949    0.989839314785      -0.0500531313949    0.0100421385112     0.0356336739824     
3000000000.0        0.0101762454126     0.036856564743      0.989697428823      -0.0517736090183    0.989697428823      -0.0517736090183    0.0101762454126     0.036856564743      
3100000000.0        0.0103144665775     0.0380788961198     0.989551179658      -0.0534935585623    0.989551179658      -0.0534935585623    0.0103144665775     0.0380788961198     
3200000000.0        0.0104568083496     0.0393006510184     0.989400560882      -0.0552129634735    0.989400560882      -0.0552129634735    0.0104568083496     0.0393006510184     
3300000000.0        0.0106032762172     0.0405218123331     0.989245566942      -0.0569318071755    0.989245566942      -0.0569318071755    0.0106032762172     0.0405218123331     
3400000000.0        0.0107538748959     0.0417423629507     0.989086193056      -0.0586500730726    0.989086193056      -0.0586500730726    0.0107538748959     0.0417423629507     
3500000000.0        0.0109086084006     0.0429622857545     0.988922435143      -0.0603677445545    0.988922435143      -0.0603677445545    0.0109086084006     0.0429622857545     
3600000000.0        0.0110674801083     0.0441815636268     0.988754289758      -0.0620848049988    0.988754289758      -0.0620848049988    0.0110674801083     0.0441815636268     
3700000000.0        0.0112304928122     0.0454001794521     0.988581754038      -0.0638012377749    0.988581754038      -0.0638012377749    0.0112304928122     0.0454001794521     
3800000000.0        0.0113976487703     0.0466181161193     0.988404825656      -0.0655170262466    0.988404825656      -0.0655170262466    0.0113976487703     0.0466181161193     
3900000000.0        0.0115689497475     0.0478353565248     0.988223502776      -0.0672321537749    0.988223502776      -0.0672321537749    0.0115689497475     0.0478353565248     
4000000000.0        0.0117443970534     0.0490518835738     0.988037784016      -0.0689466037206    0.988037784016      -0.0689466037206    0.0117443970534     0.0490518835738     
4100000000.0        0.0119239915747     0.0502676801833     0.987847668417      -0.0706603594464    0.987847668417      -0.0706603594464    0.0119239915747     0.0502676801833     
4200000000.0        0.0121077338057     0.0514827292834     0.987653155412      -0.0723734043194    0.987653155412      -0.0723734043194    0.0121077338057     0.0514827292834     
4300000000.0        0.0122956238741     0.0526970138192     0.987454244798      -0.0740857217128    0.987454244798      -0.0740857217128    0.0122956238741     0.0526970138192     
4400000000.0        0.0124876615649     0.0539105167526     0.987250936715      -0.0757972950079    0.987250936715      -0.0757972950079    0.0124876615649     0.0539105167526     
4500000000.0        0.0126838463415     0.0551232210638     0.987043231623      -0.0775081075961    0.987043231623      -0.0775081075961    0.0126838463415     0.0551232210638     
4600000000.0        0.0128841773648     0.056335109753      0.986831130285      -0.0792181428805    0.986831130285      -0.0792181428805    0.0128841773648     0.056335109753      
4700000000.0        0.0130886535103     0.0575461658414     0.986614633748      -0.0809273842773    0.986614633748      -0.0809273842773    0.0130886535103     0.0575461658414     
4800000000.0        0.0132972733841     0.0587563723727     0.986393743326      -0.0826358152176    0.986393743326      -0.0826358152176    0.0132972733841     0.0587563723727     
4900000000.0        0.0135100353365     0.0599657124145     0.986168460589      -0.0843434191485    0.986168460589      -0.0843434191485    0.0135100353365     0.0599657124145     
5000000000.0        0.0137269374751     0.0611741690594     0.985938787352      -0.0860501795349    0.985938787352      -0.0860501795349    0.0137269374751     0.0611741690594     
5100000000.0        0.0139479776768     0.062381725426      0.985704725655      -0.0877560798606    0.985704725655      -0.0877560798606    0.0139479776768     0.062381725426      
5200000000.0        0.0141731535978     0.0635883646602     0.98546627776       -0.0894611036293    0.98546627776       -0.0894611036293    0.0141731535978     0.0635883646602     
5300000000.0        0.0144024626838     0.0647940699363     0.985223446141      -0.0911652343661    0.985223446141      -0.0911652343661    0.0144024626838     0.0647940699363     
5400000000.0        0.0146359021791     0.0659988244575     0.984976233468      -0.0928684556188    0.984976233468      -0.0928684556188    0.0146359021791     0.0659988244575     
5500000000.0        0.0148734691342     0.0672026114575     0.984724642609      -0.0945707509585    0.984724642609      -0.0945707509585    0.0148734691342     0.0672026114575     
5600000000.0        0.0151151604142     0.0684054142011     0.984468676614      -0.0962721039811    0.984468676614      -0.0962721039811    0.0151151604142     0.0684054142011     
5700000000.0        0.0153609727048     0.069607215985      0.984208338711      -0.097972498308     0.984208338711      -0.097972498308     0.0153609727048     0.069607215985      
5800000000.0        0.0156109025198     0.0708080001388     0.983943632302      -0.0996719175873    0.983943632302      -0.0996719175873    0.0156109025198     0.0708080001388     
5900000000.0        0.0158649462062     0.072007750026      0.983674560952      -0.101370345495     0.983674560952      -0.101370345495     0.0158649462062     0.072007750026      
6000000000.0        0.0161230999499     0.0732064490444     0.983401128389      -0.103067765734     0.983401128389      -0.103067765734     0.0161230999499     0.0732064490444     
6100000000.0        0.0163853597811     0.0744040806272     0.983123338495      -0.10476416204      0.983123338495      -0.10476416204      0.0163853597811     0.0744040806272     
6200000000.0        0.0166517215791     0.0756006282436     0.982841195303      -0.106459518175     0.982841195303      -0.106459518175     0.0166517215791     0.0756006282436     
6300000000.0        0.016922181076      0.0767960753995     0.98255470299       -0.108153817935     0.98255470299       -0.108153817935     0.016922181076      0.0767960753995     
6400000000.0        0.017196733862      0.0779904056385     0.982263865878      -0.109847045146     0.982263865878      -0.109847045146     0.017196733862      0.0779904056385     
6500000000.0        0.017475375388      0.0791836025421     0.981968688424      -0.111539183668     0.981968688424      -0.111539183668     0.017475375388      0.0791836025421     
6600000000.0        0.0177581009704     0.0803756497309     0.981669175224      -0.113230217394     0.981669175224      -0.113230217394     0.0177581009704     0.0803756497309     
6700000000.0        0.0180449057936     0.081566530865      0.981365330999      -0.114920130251     0.981365330999      -0.114920130251     0.0180449057936     0.081566530865      
6800000000.0        0.0183357849135     0.0827562296444     0.981057160604      -0.116608906201     0.981057160604      -0.116608906201     0.0183357849135     0.0827562296444     
6900000000.0        0.0186307332609     0.0839447298101     0.980744669013      -0.118296529241     0.980744669013      -0.118296529241     0.0186307332609     0.0839447298101     
7000000000.0        0.0189297456433     0.0851320151446     0.980427861328      -0.119982983407     0.980427861328      -0.119982983407     0.0189297456433     0.0851320151446     
7100000000.0        0.0192328167489     0.0863180694722     0.980106742766      -0.121668252768     0.980106742766      -0.121668252768     0.0192328167489     0.0863180694722     
7200000000.0        0.0195399411477     0.0875028766597     0.979781318663      -0.123352321434     0.979781318663      -0.123352321434     0.0195399411477     0.0875028766597     
7300000000.0        0.0198511132952     0.0886864206174     0.97945159447       -0.125035173553     0.97945159447       -0.125035173553     0.0198511132952     0.0886864206174     
7400000000.0        0.0201663275335     0.089868685299      0.979117575749      -0.126716793309     0.979117575749      -0.126716793309     0.0201663275335     0.089868685299      
7500000000.0        0.0204855780942     0.0910496547027     0.978779268172      -0.128397164929     0.978779268172      -0.128397164929     0.0204855780942     0.0910496547027     
7600000000.0        0.0208088591002     0.0922293128714     0.978436677522      -0.13007627268      0.978436677522      -0.13007627268      0.0208088591002     0.0922293128714     
7700000000.0        0.0211361645675     0.0934076438933     0.978089809685      -0.131754100867     0.978089809685      -0.131754100867     0.0211361645675     0.0934076438933     
7800000000.0        0.0214674884071     0.0945846319028     0.977738670653      -0.133430633839     0.977738670653      -0.133430633839     0.0214674884071     0.0945846319028     
7900000000.0        0.0218028244269     0.0957602610803     0.977383266522      -0.135105855986     0.977383266522      -0.135105855986     0.0218028244269     0.0957602610803     
8000000000.0        0.0221421663333     0.0969345156532     0.977023603486      -0.136779751741     0.977023603486      -0.136779751741     0.0221421663333     0.0969345156532     
8100000000.0        0.0224855077325     0.0981073798965     0.976659687842      -0.13845230558      0.976659687842      -0.13845230558      0.0224855077325     0.0981073798965     
8200000000.0        0.0228328421324     0.0992788381329     0.976291525982      -0.140123502023     0.976291525982      -0.140123502023     0.0228328421324     0.0992788381329     
8300000000.0        0.0231841629441     0.100448874733      0.975919124396      -0.141793325633     0.975919124396      -0.141793325633     0.0231841629441     0.100448874733      
8400000000.0        0.023539463483      0.101617474118      0.975542489669      -0.143461761018     0.975542489669      -0.143461761018     0.023539463483      0.101617474118      
8500000000.0        0.0238987369702     0.102784620756      0.97516162848       -0.145128792833     0.97516162848       -0.145128792833     0.0238987369702     0.102784620756      
8600000000.0        0.0242619765343     0.103950299167      0.974776547601      -0.146794405777     0.974776547601      -0.146794405777     0.0242619765343     0.103950299167      
8700000000.0        0.0246291752119     0.105114493919      0.974387253892      -0.148458584595     0.974387253892      -0.148458584595     0.0246291752119     0.105114493919      
8800000000.0        0.0250003259492     0.106277189632      0.973993754307      -0.150121314081     0.973993754307      -0.150121314081     0.0250003259492     0.106277189632      
8900000000.0        0.0253754216035     0.107438370978      0.973596055887      -0.151782579074     0.973596055887      -0.151782579074     0.0253754216035     0.107438370978      
9000000000.0        0.0257544549436     0.108598022678      0.973194165761      -0.153442364462     0.973194165761      -0.153442364462     0.0257544549436     0.108598022678      
9100000000.0        0.0261374186514     0.109756129508      0.972788091145      -0.15510065518      0.972788091145      -0.15510065518      0.0261374186514     0.109756129508      
9200000000.0        0.026524305323      0.110912676295      0.97237783934       -0.156757436212     0.97237783934       -0.156757436212     0.026524305323      0.110912676295      
9300000000.0        0.0269151074694     0.112067647916      0.971963417731      -0.158412692593     0.971963417731      -0.158412692593     0.0269151074694     0.112067647916      
9400000000.0        0.0273098175176     0.113221029307      0.971544833788      -0.160066409405     0.971544833788      -0.160066409405     0.0273098175176     0.113221029307      
9500000000.0        0.027708427812      0.114372805452      0.971122095063      -0.161718571781     0.971122095063      -0.161718571781     0.027708427812      0.114372805452      
9600000000.0        0.0281109306146     0.115522961393      0.970695209189      -0.163369164905     0.970695209189      -0.163369164905     0.0281109306146     0.115522961393      
9700000000.0        0.0285173181067     0.116671482224      0.970264183882      -0.165018174012     0.970264183882      -0.165018174012     0.0285173181067     0.116671482224      
9800000000.0        0.028927582389      0.117818353094      0.969829026934      -0.166665584387     0.969829026934      -0.166665584387     0.028927582389      0.117818353094      
9900000000.0        0.0293417154832     0.118963559208      0.96938974622       -0.168311381368     0.96938974622       -0.168311381368     0.0293417154832     0.118963559208      
10000000000.0       0.0297597093326     0.120107085827      0.96894634969       -0.169955550344     0.96894634969       -0.169955550344     0.0297597093326     0.120107085827      
