# Hz S RI R 50.00 
100000000.0         0.0025333168421     0.000607324783141   0.99746269258       -0.00228013421963   0.99746269258       -0.00228013421963   0.0025333168421     0.000607324783141   
200000000.0         0.00255355101209    0.00121453981965    0.997436667042      -0.00456017239068   0.997436667042      -0.00456017239068   0.00255355101209    0.00121453981965    
300000000.0         0.0025721000117     0.00182167000176    0.997409525683      -0.00684014770837   0.997409525683      -0.00684014770837   0.0025721000117     0.00182167000176    
400000000.0         0.00259115883945    0.00242871502799    0.997379073253      -0.00912006557769   0.997379073253      -0.00912006557769   0.00259115883945    0.00242871502799    
500000000.0         0.00261157264458    0.0030356688498     0.997344464304      -0.011399924345     0.997344464304      -0.011399924345     0.00261157264458    0.0030356688498     
600000000.0         0.00263377225501    0.00364252292424    0.997305267671      -0.0136797190032    0.997305267671      -0.0136797190032    0.00263377225501    0.00364252292424    
700000000.0         0.00265801197829    0.00424926737269    0.99726122867       -0.0159594425801    0.99726122867       -0.0159594425801    0.00265801197829    0.00424926737269    
800000000.0         0.00268445638336    0.00485589151342    0.997212182321      -0.0182390868101    0.997212182321      -0.0182390868101    0.00268445638336    0.00485589151342    
900000000.0         0.00271321893623    0.00546238414516    0.997158014716      -0.0205186425083    0.997158014716      -0.0205186425083    0.00271321893623    0.00546238414516    
1000000000.0        0.00274438158142    0.00606873371322    0.997098643435      -0.0227980998009    0.997098643435      -0.0227980998009    0.00274438158142    0.00606873371322    
1100000000.0        0.00277800562592    0.00667492841392    0.997034006669      -0.025077448277     0.997034006669      -0.025077448277     0.00277800562592    0.00667492841392    
1200000000.0        0.00281413822373    0.00728095626376    0.996964056733      -0.027356677094     0.996964056733      -0.027356677094     0.00281413822373    0.00728095626376    
1300000000.0        0.00285281645519    0.00788680514715    0.996888755993      -0.0296357750537    0.996888755993      -0.0296357750537    0.00285281645519    0.00788680514715    
1400000000.0        0.00289407000793    0.0084924628504     0.99680807418       -0.0319147306593    0.99680807418       -0.0319147306593    0.00289407000793    0.0084924628504     
1500000000.0        0.00293792300351    0.00909791708668    0.996721986567      -0.0341935321596    0.996721986567      -0.0341935321596    0.00293792300351    0.00909791708668    
1600000000.0        0.00298439528013    0.00970315551475    0.996630472691      -0.0364721675827    0.996630472691      -0.0364721675827    0.00298439528013    0.00970315551475    
1700000000.0        0.00303350331697    0.0103081657532     0.996533515424      -0.0387506247643    0.996533515424      -0.0387506247643    0.00303350331697    0.0103081657532     
1800000000.0        0.00308526091505    0.0109129353916     0.996431100297      -0.0410288913698    0.996431100297      -0.0410288913698    0.00308526091505    0.0109129353916     
1900000000.0        0.00313967970875    0.0115174519992     0.996323214985      -0.0433069549132    0.996323214985      -0.0433069549132    0.00313967970875    0.0115174519992     
2000000000.0        0.00319676955647    0.012121703132      0.996209848922      -0.0455848027724    0.996209848922      -0.0455848027724    0.00319676955647    0.012121703132      
2100000000.0        0.0032565388437     0.0127256763384     0.996090992998      -0.0478624222025    0.996090992998      -0.0478624222025    0.0032565388437     0.0127256763384     
2200000000.0        0.00331899472121    0.0133293591635     0.995966639316      -0.0501398003475    0.995966639316      -0.0501398003475    0.00331899472121    0.0133293591635     
2300000000.0        0.00338414329455    0.0139327391535     0.995836781009      -0.0524169242496    0.995836781009      -0.0524169242496    0.00338414329455    0.0139327391535     
2400000000.0        0.00345198977653    0.0145358038583     0.995701412088      -0.0546937808577    0.995701412088      -0.0546937808577    0.00345198977653    0.0145358038583     
2500000000.0        0.003522538611      0.0151385408342     0.995560527315      -0.0569703570356    0.995560527315      -0.0569703570356    0.003522538611      0.0151385408342     
2600000000.0        0.00359579357437    0.0157409376465     0.995414122103      -0.0592466395676    0.995414122103      -0.0592466395676    0.00359579357437    0.0157409376465     
2700000000.0        0.00367175785956    0.0163429818709     0.995262192435      -0.0615226151652    0.995262192435      -0.0615226151652    0.00367175785956    0.0163429818709     
2800000000.0        0.00375043414583    0.0169446610954     0.995104734794      -0.0637982704718    0.995104734794      -0.0637982704718    0.00375043414583    0.0169446610954     
2900000000.0        0.0038318246574     0.0175459629214     0.994941746103      -0.066073592068     0.994941746103      -0.066073592068     0.0038318246574     0.0175459629214     
3000000000.0        0.00391593121296    0.0181468749652     0.994773223678      -0.0683485664753    0.994773223678      -0.0683485664753    0.00391593121296    0.0181468749652     
3100000000.0        0.0040027552677     0.0187473848588     0.994599165182      -0.0706231801602    0.994599165182      -0.0706231801602    0.0040027552677     0.0187473848588     
3200000000.0        0.00409229794917    0.0193474802508     0.994419568599      -0.072897419538     0.994419568599      -0.072897419538     0.00409229794917    0.0193474802508     
3300000000.0        0.00418456008817    0.0199471488072     0.994234432191      -0.0751712709756    0.994234432191      -0.0751712709756    0.00418456008817    0.0199471488072     
3400000000.0        0.00427954224531    0.0205463782121     0.994043754483      -0.0774447207948    0.994043754483      -0.0774447207948    0.00427954224531    0.0205463782121     
3500000000.0        0.00437724473408    0.0211451561684     0.993847534235      -0.0797177552748    0.993847534235      -0.0797177552748    0.00437724473408    0.0211451561684     
3600000000.0        0.00447766764097    0.0217434703979     0.993645770419      -0.0819903606551    0.993645770419      -0.0819903606551    0.00447766764097    0.0217434703979     
3700000000.0        0.00458081084299    0.0223413086423     0.993438462211      -0.0842625231374    0.993438462211      -0.0842625231374    0.00458081084299    0.0223413086423     
3800000000.0        0.00468667402309    0.0229386586633     0.993225608967      -0.0865342288882    0.993225608967      -0.0865342288882    0.00468667402309    0.0229386586633     
3900000000.0        0.00479525668376    0.0235355082432     0.993007210215      -0.0888054640403    0.993007210215      -0.0888054640403    0.00479525668376    0.0235355082432     
4000000000.0        0.00490655815902    0.0241318451848     0.992783265641      -0.0910762146955    0.992783265641      -0.0910762146955    0.00490655815902    0.0241318451848     
4100000000.0        0.00502057762509    0.0247276573124     0.992553775079      -0.0933464669257    0.992553775079      -0.0933464669257    0.00502057762509    0.0247276573124     
4200000000.0        0.00513731410984    0.0253229324714     0.992318738501      -0.0956162067749    0.992318738501      -0.0956162067749    0.00513731410984    0.0253229324714     
4300000000.0        0.00525676650128    0.0259176585288     0.992078156014      -0.0978854202607    0.992078156014      -0.0978854202607    0.00525676650128    0.0259176585288     
4400000000.0        0.00537893355509    0.0265118233736     0.991832027844      -0.100154093376     0.991832027844      -0.100154093376     0.00537893355509    0.0265118233736     
4500000000.0        0.00550381390149    0.0271054149168     0.991580354336      -0.10242221209      0.991580354336      -0.10242221209      0.00550381390149    0.0271054149168     
4600000000.0        0.00563140605127    0.0276984210917     0.991323135947      -0.104689762349     0.991323135947      -0.104689762349     0.00563140605127    0.0276984210917     
4700000000.0        0.0057617084014     0.028290829854      0.991060373238      -0.106956730081     0.991060373238      -0.106956730081     0.0057617084014     0.028290829854      
4800000000.0        0.00589471923996    0.0288826291821     0.990792066873      -0.109223101192     0.990792066873      -0.109223101192     0.00589471923996    0.0288826291821     
4900000000.0        0.0060304367507     0.029473807077      0.990518217612      -0.111488861571     0.990518217612      -0.111488861571     0.0060304367507     0.029473807077      
5000000000.0        0.00616885901715    0.0300643515628     0.990238826308      -0.113753997087     0.990238826308      -0.113753997087     0.00616885901715    0.0300643515628     
5100000000.0        0.00630998402637    0.0306542506866     0.989953893903      -0.116018493596     0.989953893903      -0.116018493596     0.00630998402637    0.0306542506866     
5200000000.0        0.00645380967238    0.0312434925187     0.989663421427      -0.118282336936     0.989663421427      -0.118282336936     0.00645380967238    0.0312434925187     
5300000000.0        0.00660033375927    0.0318320651526     0.989367409992      -0.120545512934     0.989367409992      -0.120545512934     0.00660033375927    0.0318320651526     
5400000000.0        0.0067495540041     0.0324199567054     0.989065860791      -0.1228080074       0.989065860791      -0.1228080074       0.0067495540041     0.0324199567054     
5500000000.0        0.00690146803951    0.0330071553177     0.988758775094      -0.125069806133     0.988758775094      -0.125069806133     0.00690146803951    0.0330071553177     
5600000000.0        0.00705607341618    0.0335936491539     0.988446154249      -0.12733089492      0.988446154249      -0.12733089492      0.00705607341618    0.0335936491539     
5700000000.0        0.00721336760502    0.034179426402      0.988127999678      -0.129591259539     0.988127999678      -0.129591259539     0.00721336760502    0.034179426402      
5800000000.0        0.00737334799926    0.034764475274      0.987804312873      -0.131850885755     0.987804312873      -0.131850885755     0.00737334799926    0.034764475274      
5900000000.0        0.00753601191639    0.0353487840058     0.987475095399      -0.134109759325     0.987475095399      -0.134109759325     0.00753601191639    0.0353487840058     
6000000000.0        0.00770135659987    0.0359323408575     0.987140348887      -0.136367865998     0.987140348887      -0.136367865998     0.00770135659987    0.0359323408575     
6100000000.0        0.00786937922081    0.0365151341134     0.986800075037      -0.138625191515     0.986800075037      -0.138625191515     0.00786937922081    0.0365151341134     
6200000000.0        0.00804007687953    0.037097152082      0.986454275616      -0.140881721609     0.986454275616      -0.140881721609     0.00804007687953    0.037097152082      
6300000000.0        0.0082134466069     0.0376783830962     0.986102952453      -0.143137442007     0.986102952453      -0.143137442007     0.0082134466069     0.0376783830962     
6400000000.0        0.00838948536577    0.0382588155136     0.985746107443      -0.145392338431     0.985746107443      -0.145392338431     0.00838948536577    0.0382588155136     
6500000000.0        0.00856819005213    0.0388384377161     0.985383742541      -0.147646396596     0.985383742541      -0.147646396596     0.00856819005213    0.0388384377161     
6600000000.0        0.00874955749632    0.0394172381103     0.985015859766      -0.149899602214     0.985015859766      -0.149899602214     0.00874955749632    0.0394172381103     
6700000000.0        0.00893358446411    0.0399952051279     0.984642461196      -0.152151940992     0.984642461196      -0.152151940992     0.00893358446411    0.0399952051279     
6800000000.0        0.00912026765771    0.040572327225      0.984263548968      -0.154403398635     0.984263548968      -0.154403398635     0.00912026765771    0.040572327225      
6900000000.0        0.00930960371676    0.0411485928831     0.983879125281      -0.156653960843     0.983879125281      -0.156653960843     0.00930960371676    0.0411485928831     
7000000000.0        0.00950158921921    0.0417239906083     0.983489192387      -0.158903613316     0.983489192387      -0.158903613316     0.00950158921921    0.0417239906083     
7100000000.0        0.00969622068217    0.0422985089322     0.9830937526        -0.16115234175      0.9830937526        -0.16115234175      0.00969622068217    0.0422985089322     
7200000000.0        0.00989349456276    0.0428721364114     0.982692808289      -0.163400131842     0.982692808289      -0.163400131842     0.00989349456276    0.0428721364114     
7300000000.0        0.0100934072588     0.043444861628      0.982286361877      -0.165646969286     0.982286361877      -0.165646969286     0.0100934072588     0.043444861628      
7400000000.0        0.0102959551097     0.0440166731893     0.981874415845      -0.167892839778     0.981874415845      -0.167892839778     0.0102959551097     0.0440166731893     
7500000000.0        0.0105011343968     0.0445875597284     0.981456972728      -0.170137729012     0.981456972728      -0.170137729012     0.0105011343968     0.0445875597284     
7600000000.0        0.0107089413444     0.0451575099037     0.981034035117      -0.172381622685     0.981034035117      -0.172381622685     0.0107089413444     0.0451575099037     
7700000000.0        0.0109193721204     0.0457265123995     0.980605605652      -0.174624506493     0.980605605652      -0.174624506493     0.0109193721204     0.0457265123995     
7800000000.0        0.0111324228362     0.0462945559257     0.980171687033      -0.176866366136     0.980171687033      -0.176866366136     0.0111324228362     0.0462945559257     
7900000000.0        0.0113480895483     0.0468616292183     0.979732282008      -0.179107187313     0.979732282008      -0.179107187313     0.0113480895483     0.0468616292183     
8000000000.0        0.0115663682581     0.047427721039      0.979287393378      -0.181346955728     0.979287393378      -0.181346955728     0.0115663682581     0.047427721039      
8100000000.0        0.0117872549126     0.0479928201757     0.978837024         -0.183585657088     0.978837024         -0.183585657088     0.0117872549126     0.0479928201757     
8200000000.0        0.0120107454048     0.0485569154426     0.978381176777      -0.185823277101     0.978381176777      -0.185823277101     0.0120107454048     0.0485569154426     
8300000000.0        0.0122368355747     0.0491199956799     0.977919854668      -0.188059801481     0.977919854668      -0.188059801481     0.0122368355747     0.0491199956799     
8400000000.0        0.0124655212089     0.0496820497542     0.977453060682      -0.190295215946     0.977453060682      -0.190295215946     0.0124655212089     0.0496820497542     
8500000000.0        0.0126967980417     0.0502430665586     0.976980797876      -0.192529506216     0.976980797876      -0.192529506216     0.0126967980417     0.0502430665586     
8600000000.0        0.0129306617552     0.0508030350129     0.976503069361      -0.194762658021     0.976503069361      -0.194762658021     0.0129306617552     0.0508030350129     
8700000000.0        0.0131671079798     0.051361944063      0.976019878296      -0.19699465709      0.976019878296      -0.19699465709      0.0131671079798     0.051361944063      
8800000000.0        0.0134061322947     0.0519197826822     0.97553122789       -0.199225489163     0.97553122789       -0.199225489163     0.0134061322947     0.0519197826822     
8900000000.0        0.013647730228      0.0524765398701     0.975037121402      -0.201455139983     0.975037121402      -0.201455139983     0.013647730228      0.0524765398701     
9000000000.0        0.0138918972573     0.0530322046534     0.974537562141      -0.203683595301     0.974537562141      -0.203683595301     0.0138918972573     0.0530322046534     
9100000000.0        0.0141386288099     0.0535867660859     0.974032553463      -0.205910840874     0.974032553463      -0.205910840874     0.0141386288099     0.0535867660859     
9200000000.0        0.0143879202632     0.0541402132483     0.973522098774      -0.208136862466     0.973522098774      -0.208136862466     0.0143879202632     0.0541402132483     
9300000000.0        0.0146397669452     0.0546925352488     0.973006201529      -0.210361645848     0.973006201529      -0.210361645848     0.0146397669452     0.0546925352488     
9400000000.0        0.0148941641344     0.0552437212226     0.972484865229      -0.2125851768       0.972484865229      -0.2125851768       0.0148941641344     0.0552437212226     
9500000000.0        0.0151511070605     0.0557937603325     0.971958093427      -0.214807441111     0.971958093427      -0.214807441111     0.0151511070605     0.0557937603325     
9600000000.0        0.0154105909045     0.0563426417687     0.97142588972       -0.217028424575     0.97142588972       -0.217028424575     0.0154105909045     0.0563426417687     
9700000000.0        0.015672610799      0.0568903547491     0.970888257754      -0.219248112998     0.970888257754      -0.219248112998     0.015672610799      0.0568903547491     
9800000000.0        0.0159371618288     0.0574368885193     0.970345201224      -0.221466492193     0.970345201224      -0.221466492193     0.0159371618288     0.0574368885193     
9900000000.0        0.0162042390306     0.0579822323526     0.969796723869      -0.223683547984     0.969796723869      -0.223683547984     0.0162042390306     0.0579822323526     
10000000000.0       0.0164738373936     0.0585263755502     0.969242829479      -0.225899266204     0.969242829479      -0.225899266204     0.0164738373936     0.0585263755502     
