# Hz S RI R 50.00 
100000000.0         0.00108401194881    0.00067834712807    0.998912000804      -0.00236088384077   0.998912000804      -0.00236088384077   0.00108401194881    0.00067834712807    
200000000.0         0.00109529047544    0.00135663367214    0.998894902842      -0.00472174713478   0.998894902842      -0.00472174713478   0.00109529047545    0.00135663367214    
300000000.0         0.00110787273381    0.00203485986994    0.998873668556      -0.00708261164712   0.998873668556      -0.00708261164712   0.00110787273381    0.00203485986994    
400000000.0         0.00112269731321    0.0027130151465     0.998847358836      -0.00944348244799   0.998847358836      -0.00944348244799   0.00112269731321    0.0027130151465     
500000000.0         0.00114012523001    0.0033910866693     0.998815612044      -0.011804359327     0.998815612044      -0.011804359327     0.00114012523001    0.0033910866693     
600000000.0         0.0011603403021     0.00406906073579    0.998778243655      -0.0141652391939    0.998778243655      -0.0141652391939    0.0011603403021     0.00406906073579    
700000000.0         0.0011834508776     0.00474692325239    0.998735144539      -0.0165261170789    0.998735144539      -0.0165261170789    0.0011834508776     0.00474692325239    
800000000.0         0.0012095269447     0.00542465994653    0.998686243857      -0.0188869866589    0.998686243857      -0.0188869866589    0.0012095269447     0.00542465994653    
900000000.0         0.00123861664706    0.00610225647432    0.998631492555      -0.021247840575     0.998631492555      -0.021247840575     0.00123861664706    0.00610225647432    
1000000000.0        0.00127075465123    0.00677969848019    0.998570854996      -0.0236086706405    0.998570854996      -0.0236086706405    0.00127075465123    0.00677969848019    
1100000000.0        0.00130596679581    0.00745697163189    0.998504304322      -0.0259694679871    0.998504304322      -0.0259694679871    0.00130596679581    0.00745697163189    
1200000000.0        0.00134427286058    0.00813406164166    0.998431819685      -0.0283302231706    0.998431819685      -0.0283302231706    0.00134427286058    0.00813406164166    
1300000000.0        0.00138568830796    0.00881095427933    0.998353384512      -0.0306909262528    0.998353384512      -0.0306909262528    0.00138568830796    0.00881095427933    
1400000000.0        0.00143022542719    0.0094876353804     0.998268985358      -0.0330515668641    0.998268985358      -0.0330515668641    0.00143022542719    0.0094876353804     
1500000000.0        0.00147789411379    0.010164090851      0.998178611139      -0.0354121342547    0.998178611139      -0.0354121342547    0.00147789411379    0.010164090851      
1600000000.0        0.00152870241678    0.0108403066707     0.998082252578      -0.0377726173355    0.998082252578      -0.0377726173355    0.00152870241678    0.0108403066707     
1700000000.0        0.00158265693301    0.0115162688938     0.997979901818      -0.0401330047127    0.997979901818      -0.0401330047127    0.00158265693301    0.0115162688938     
1800000000.0        0.00163976309754    0.01219196365       0.997871552134      -0.0424932847165    0.997871552134      -0.0424932847165    0.00163976309754    0.01219196365       
1900000000.0        0.00170002540191    0.012867377144      0.997757197716      -0.0448534454257    0.997757197716      -0.0448534454257    0.00170002540191    0.012867377144      
2000000000.0        0.00176344756076    0.013542495655      0.997636833503      -0.0472134746888    0.997636833503      -0.0472134746888    0.00176344756076    0.013542495655      
2100000000.0        0.0018300326412     0.0142173055358     0.997510455058      -0.0495733601428    0.997510455058      -0.0495733601428    0.0018300326412     0.0142173055358     
2200000000.0        0.00189978316447    0.0148917932113     0.997378058465      -0.0519330892286    0.997378058465      -0.0519330892286    0.00189978316447    0.0148917932113     
2300000000.0        0.00197270118684    0.0155659451775     0.997239640253      -0.0542926492062    0.997239640253      -0.0542926492062    0.00197270118684    0.0155659451775     
2400000000.0        0.00204878836482    0.0162397480001     0.997095197328      -0.0566520271664    0.997095197328      -0.0566520271664    0.00204878836482    0.0162397480001     
2500000000.0        0.00212804600807    0.0169131883128     0.996944726929      -0.0590112100428    0.996944726929      -0.0590112100428    0.00212804600807    0.0169131883128     
2600000000.0        0.00221047512284    0.0175862528159     0.996788226575      -0.0613701846217    0.996788226575      -0.0613701846217    0.00221047512284    0.0175862528159     
2700000000.0        0.00229607644793    0.0182589282751     0.996625694041      -0.0637289375513    0.996625694041      -0.0637289375513    0.00229607644793    0.0182589282751     
2800000000.0        0.00238485048465    0.0189312015196     0.996457127321      -0.0660874553503    0.996457127321      -0.0660874553503    0.00238485048465    0.0189312015196     
2900000000.0        0.00247679752201    0.0196030594407     0.996282524611      -0.0684457244151    0.996282524611      -0.0684457244151    0.00247679752201    0.0196030594407     
3000000000.0        0.002571917658      0.0202744889905     0.996101884283      -0.0708037310269    0.996101884283      -0.0708037310269    0.002571917658      0.0202744889905     
3100000000.0        0.00267021081769    0.0209454771804     0.995915204869      -0.0731614613584    0.995915204869      -0.0731614613584    0.00267021081769    0.0209454771804     
3200000000.0        0.00277167676871    0.0216160110796     0.995722485051      -0.0755189014792    0.995722485051      -0.0755189014792    0.00277167676871    0.0216160110796     
3300000000.0        0.00287631513463    0.022286077814      0.995523723643      -0.0778760373615    0.995523723643      -0.0778760373615    0.00287631513463    0.022286077814      
3400000000.0        0.00298412540647    0.0229556645645     0.995318919583      -0.0802328548853    0.995318919583      -0.0802328548853    0.00298412540647    0.0229556645645     
3500000000.0        0.00309510695269    0.0236247585659     0.995108071922      -0.0825893398425    0.995108071922      -0.0825893398425    0.00309510695269    0.0236247585659     
3600000000.0        0.003209259028      0.0242933471058     0.994891179821      -0.0849454779418    0.994891179821      -0.0849454779418    0.003209259028      0.0242933471058     
3700000000.0        0.00332658078098    0.024961417523      0.994668242536      -0.0873012548124    0.994668242536      -0.0873012548124    0.00332658078098    0.024961417523      
3800000000.0        0.00344707126086    0.0256289572067     0.994439259421      -0.0896566560082    0.994439259421      -0.0896566560082    0.00344707126086    0.0256289572067     
3900000000.0        0.00357072942349    0.026295953595      0.994204229914      -0.0920116670107    0.994204229914      -0.0920116670107    0.00357072942349    0.026295953595      
4000000000.0        0.00369755413661    0.0269623941741     0.99396315354       -0.0943662732328    0.99396315354       -0.0943662732328    0.00369755413661    0.0269623941741     
4100000000.0        0.00382754418462    0.0276282664772     0.993716029903      -0.0967204600219    0.993716029903      -0.0967204600219    0.00382754418462    0.0276282664772     
4200000000.0        0.0039606982727     0.028293558083      0.99346285868       -0.0990742126626    0.99346285868       -0.0990742126626    0.0039606982727     0.028293558083      
4300000000.0        0.00409701503069    0.0289582566152     0.993203639625      -0.10142751638      0.993203639625      -0.10142751638      0.00409701503069    0.0289582566152     
4400000000.0        0.00423649301639    0.0296223497415     0.992938372559      -0.10378035634      0.992938372559      -0.10378035634      0.00423649301639    0.0296223497415     
4500000000.0        0.00437913071866    0.0302858251722     0.992667057371      -0.106132717657     0.992667057371      -0.106132717657     0.00437913071866    0.0302858251722     
4600000000.0        0.00452492656018    0.0309486706597     0.992389694017      -0.10848458539      0.992389694017      -0.10848458539      0.00452492656018    0.0309486706597     
4700000000.0        0.00467387889996    0.0316108739975     0.992106282514      -0.11083594455      0.992106282514      -0.11083594455      0.00467387889996    0.0316108739975     
4800000000.0        0.00482598603558    0.0322724230192     0.991816822942      -0.113186780096     0.991816822942      -0.113186780096     0.00482598603558    0.0322724230192     
4900000000.0        0.00498124620531    0.0329333055978     0.991521315439      -0.115537076945     0.991521315439      -0.115537076945     0.00498124620531    0.0329333055978     
5000000000.0        0.00513965758995    0.0335935096451     0.991219760203      -0.117886819968     0.991219760203      -0.117886819968     0.00513965758995    0.0335935096451     
5100000000.0        0.00530121831462    0.0342530231102     0.990912157489      -0.120235993993     0.990912157489      -0.120235993993     0.00530121831462    0.0342530231102     
5200000000.0        0.0054659264503     0.0349118339795     0.990598507608      -0.122584583806     0.990598507608      -0.122584583806     0.0054659264503     0.0349118339795     
5300000000.0        0.00563378001532    0.0355699302755     0.990278810924      -0.124932574157     0.990278810924      -0.124932574157     0.00563378001532    0.0355699302755     
5400000000.0        0.00580477697667    0.0362273000565     0.989953067858      -0.127279949756     0.989953067858      -0.127279949756     0.00580477697667    0.0362273000565     
5500000000.0        0.00597891525127    0.0368839314154     0.989621278882      -0.129626695276     0.989621278882      -0.129626695276     0.00597891525127    0.0368839314154     
5600000000.0        0.00615619270713    0.0375398124792     0.98928344452       -0.131972795357     0.98928344452       -0.131972795357     0.00615619270713    0.0375398124792     
5700000000.0        0.00633660716435    0.0381949314087     0.988939565348      -0.134318234606     0.988939565348      -0.134318234606     0.00633660716435    0.0381949314087     
5800000000.0        0.00652015639616    0.0388492763971     0.988589641995      -0.136662997594     0.988589641995      -0.136662997594     0.00652015639616    0.0388492763971     
5900000000.0        0.00670683812981    0.0395028356704     0.988233675137      -0.139007068866     0.988233675137      -0.139007068866     0.00670683812981    0.0395028356704     
6000000000.0        0.00689665004742    0.0401555974857     0.987871665501      -0.141350432933     0.987871665501      -0.141350432933     0.00689665004742    0.0401555974857     
6100000000.0        0.00708958978679    0.0408075501316     0.987503613866      -0.14369307428      0.987503613866      -0.14369307428      0.00708958978679    0.0408075501316     
6200000000.0        0.0072856549421     0.0414586819268     0.987129521055      -0.146034977362     0.987129521055      -0.146034977362     0.0072856549421     0.0414586819268     
6300000000.0        0.00748484306466    0.0421089812203     0.986749387943      -0.148376126611     0.986749387943      -0.148376126611     0.00748484306466    0.0421089812203     
6400000000.0        0.00768715166349    0.0427584363901     0.986363215452      -0.150716506429     0.986363215452      -0.150716506429     0.00768715166349    0.0427584363901     
6500000000.0        0.00789257820595    0.0434070358434     0.985971004552      -0.153056101196     0.985971004552      -0.153056101196     0.00789257820595    0.0434070358434     
6600000000.0        0.00810112011835    0.0440547680157     0.98557275626       -0.155394895268     0.98557275626       -0.155394895268     0.00810112011835    0.0440547680157     
6700000000.0        0.0083127747864     0.0447016213701     0.98516847164       -0.157732872978     0.98516847164       -0.157732872978     0.0083127747864     0.0447016213701     
6800000000.0        0.00852753955578    0.0453475843973     0.984758151804      -0.160070018635     0.984758151804      -0.160070018635     0.00852753955578    0.0453475843973     
6900000000.0        0.00874541173257    0.045992645615      0.984341797911      -0.16240631653      0.984341797911      -0.16240631653      0.00874541173256    0.045992645615      
7000000000.0        0.00896638858369    0.0466367935672     0.983919411164      -0.164741750931     0.983919411164      -0.164741750931     0.00896638858369    0.0466367935672     
7100000000.0        0.00919046733735    0.0472800168239     0.983490992814      -0.167076306087     0.983490992814      -0.167076306087     0.00919046733735    0.0472800168239     
7200000000.0        0.0094176451834     0.0479223039807     0.983056544158      -0.169409966227     0.983056544158      -0.169409966227     0.0094176451834     0.0479223039807     
7300000000.0        0.00964791927375    0.0485636436584     0.982616066539      -0.171742715565     0.982616066539      -0.171742715565     0.00964791927375    0.0485636436584     
7400000000.0        0.00988128672264    0.0492040245024     0.982169561346      -0.174074538292     0.982169561346      -0.174074538292     0.00988128672264    0.0492040245024     
7500000000.0        0.0101177446071     0.0498434351828     0.981717030012      -0.176405418586     0.981717030012      -0.176405418586     0.0101177446071     0.0498434351828     
7600000000.0        0.010357289967      0.0504818643931     0.981258474017      -0.178735340607     0.981258474017      -0.178735340607     0.010357289967      0.0504818643931     
7700000000.0        0.0105999198057     0.0511193008507     0.980793894888      -0.1810642885       0.980793894888      -0.1810642885       0.0105999198057     0.0511193008507     
7800000000.0        0.0108456310902     0.0517557332962     0.980323294193      -0.183392246392     0.980323294193      -0.183392246392     0.0108456310902     0.0517557332962     
7900000000.0        0.011094420751      0.0523911504929     0.979846673549      -0.185719198399     0.979846673549      -0.185719198399     0.011094420751      0.0523911504929     
8000000000.0        0.0113462856831     0.0530255412266     0.979364034617      -0.18804512862      0.979364034617      -0.18804512862      0.0113462856831     0.0530255412266     
8100000000.0        0.0116012227456     0.0536588943052     0.978875379103      -0.19037002114      0.978875379103      -0.19037002114      0.0116012227456     0.0536588943052     
8200000000.0        0.0118592287622     0.0542911985584     0.978380708757      -0.192693860034     0.978380708757      -0.192693860034     0.0118592287622     0.0542911985584     
8300000000.0        0.0121203005213     0.0549224428373     0.977880025376      -0.19501662936      0.977880025376      -0.19501662936      0.0121203005213     0.0549224428373     
8400000000.0        0.0123844347763     0.0555526160142     0.9773733308        -0.197338313166     0.9773733308        -0.197338313166     0.0123844347763     0.0555526160142     
8500000000.0        0.0126516282459     0.056181706982      0.976860626916      -0.199658895487     0.976860626916      -0.199658895487     0.0126516282459     0.056181706982      
8600000000.0        0.0129218776138     0.0568097046544     0.976341915653      -0.201978360348     0.976341915653      -0.201978360348     0.0129218776138     0.0568097046544     
8700000000.0        0.0131951795293     0.057436597965      0.975817198988      -0.204296691762     0.975817198988      -0.204296691762     0.0131951795293     0.057436597965      
8800000000.0        0.0134715306075     0.0580623758674     0.97528647894       -0.20661387373      0.97528647894       -0.20661387373      0.0134715306075     0.0580623758674     
8900000000.0        0.013750927429      0.0586870273348     0.974749757575      -0.208929890245     0.974749757575      -0.208929890245     0.013750927429      0.0586870273348     
9000000000.0        0.0140333665406     0.0593105413597     0.974207037003      -0.211244725288     0.974207037003      -0.211244725288     0.0140333665406     0.0593105413597     
9100000000.0        0.0143188444549     0.0599329069535     0.973658319377      -0.213558362831     0.973658319377      -0.213558362831     0.0143188444549     0.0599329069535     
9200000000.0        0.0146073576508     0.0605541131466     0.973103606898      -0.215870786838     0.973103606898      -0.215870786838     0.0146073576508     0.0605541131466     
9300000000.0        0.0148989025733     0.0611741489877     0.972542901809      -0.218181981263     0.972542901809      -0.218181981263     0.0148989025733     0.0611741489877     
9400000000.0        0.0151934756341     0.0617930035438     0.971976206399      -0.22049193005      0.971976206399      -0.22049193005      0.0151934756341     0.0617930035438     
9500000000.0        0.0154910732112     0.0624106658998     0.971403523003      -0.222800617137     0.971403523003      -0.222800617137     0.0154910732112     0.0624106658998     
9600000000.0        0.015791691649      0.0630271251583     0.970824853998      -0.225108026452     0.970824853998      -0.225108026452     0.015791691649      0.0630271251583     
9700000000.0        0.0160953272589     0.0636423704395     0.970240201808      -0.227414141917     0.970240201808      -0.227414141917     0.0160953272589     0.0636423704395     
9800000000.0        0.0164019763187     0.0642563908806     0.969649568901      -0.229718947446     0.969649568901      -0.229718947446     0.0164019763187     0.0642563908806     
9900000000.0        0.0167116350733     0.0648691756361     0.96905295779       -0.232022426945     0.96905295779       -0.232022426945     0.0167116350733     0.0648691756361     
10000000000.0       0.0170242997343     0.065480713877      0.968450371034      -0.234324564314     0.968450371034      -0.234324564314     0.0170242997343     0.065480713877      
