# Hz S RI R 50.00 
100000000.0         0.0218842015217     0.00258176590568    0.978111637529      -0.00432137526277   0.978111637529      -0.00432137526277   0.0218842015217     0.00258176590568    
200000000.0         0.0220594115483     0.00516129763621    0.977930217367      -0.00864052531168   0.977930217367      -0.00864052531168   0.0220594115483     0.00516129763621    
300000000.0         0.022219351525      0.00773916856707    0.977761017628      -0.0129580325002    0.977761017628      -0.0129580325002    0.022219351525      0.00773916856707    
400000000.0         0.0223826619911     0.0103154238816     0.97758539734       -0.0172739496139    0.97758539734       -0.0172739496139    0.0223826619911     0.0103154238816     
500000000.0         0.0225565210413     0.0128899862182     0.977396177935      -0.0215882062035    0.977396177935      -0.0215882062035    0.0225565210413     0.0128899862182     
600000000.0         0.0227445840198     0.0154627241583     0.97718970355       -0.0259006773126    0.97718970355       -0.0259006773126    0.0227445840198     0.0154627241583     
700000000.0         0.0229490029344     0.01803347683       0.976963821603      -0.0302112082042    0.976963821603      -0.0302112082042    0.0229490029344     0.01803347683       
800000000.0         0.0231711638094     0.0206020653316     0.976717145441      -0.0345196258567    0.976717145441      -0.0345196258567    0.0231711638094     0.0206020653316     
900000000.0         0.0234120151274     0.0231682988801     0.976448725894      -0.038825745161     0.976448725894      -0.038825745161     0.0234120151274     0.0231682988801     
1000000000.0        0.0236722343742     0.0257319784653     0.976157884732      -0.0431293726083    0.976157884732      -0.0431293726083    0.0236722343742     0.0257319784653     
1100000000.0        0.0239523206531     0.0282928991835     0.975844122048      -0.047430308648     0.975844122048      -0.047430308648     0.0239523206531     0.0282928991835     
1200000000.0        0.0242526498925     0.0308508518122     0.97550706105       -0.051728349282     0.97550706105       -0.051728349282     0.0242526498925     0.0308508518122     
1300000000.0        0.0245735095937     0.0334056239221     0.975146413318      -0.0560232871912    0.975146413318      -0.0560232871912    0.0245735095937     0.0334056239221     
1400000000.0        0.0249151216801     0.0359570006905     0.974761955948      -0.0603149125609    0.974761955948      -0.0603149125609    0.0249151216801     0.0359570006905     
1500000000.0        0.0252776580755     0.038504765516      0.974353515978      -0.0646030137051    0.974353515978      -0.0646030137051    0.0252776580755     0.038504765516      
1600000000.0        0.0256612516514     0.0410487004955     0.97392095944       -0.068887377552     0.97392095944       -0.068887377552     0.0256612516514     0.0410487004955     
1700000000.0        0.0260660041226     0.0435885868032     0.973464183465      -0.0731677900289    0.973464183465      -0.0731677900289    0.0260660041226     0.0435885868032     
1800000000.0        0.0264919918698     0.0461242049978     0.972983110459      -0.0774440363764    0.972983110459      -0.0774440363764    0.0264919918698     0.0461242049978     
1900000000.0        0.026939270318      0.0486553352774     0.972477683726      -0.0817159014073    0.972477683726      -0.0817159014073    0.026939270318      0.0486553352774     
2000000000.0        0.0274078772879     0.0511817576932     0.971947864117      -0.085983169725     0.971947864117      -0.085983169725     0.0274078772879     0.0511817576932     
2100000000.0        0.0278978355987     0.0537032523325     0.971393627426      -0.0902456259106    0.971393627426      -0.0902456259106    0.0278978355987     0.0537032523325     
2200000000.0        0.0284091551201     0.0562195994778     0.970814962339      -0.0945030546846    0.970814962339      -0.0945030546846    0.0284091551201     0.0562195994778     
2300000000.0        0.0289418344087     0.0587305797451     0.970211868801      -0.0987552410491    0.970211868801      -0.0987552410491    0.0289418344087     0.0587305797451     
2400000000.0        0.0294958620292     0.0612359742086     0.969584356686      -0.103001970414     0.969584356686      -0.103001970414     0.0294958620292     0.0612359742086     
2500000000.0        0.0300712176324     0.063735564511      0.968932444731      -0.107243028712     0.968932444731      -0.107243028712     0.0300712176324     0.063735564511      
2600000000.0        0.0306678728429     0.0662291329646     0.968256159638      -0.111478202497     0.968256159638      -0.111478202497     0.0306678728429     0.0662291329646     
2700000000.0        0.0312857919975     0.068716462643      0.967555535343      -0.115707279043     0.967555535343      -0.115707279043     0.0312857919975     0.068716462643      
2800000000.0        0.0319249327647     0.0711973374655     0.966830612392      -0.11993004643      0.966830612392      -0.11993004643      0.0319249327647     0.0711973374655     
2900000000.0        0.032585246668      0.0736715422763     0.96608143742       -0.124146293618     0.96608143742       -0.124146293618     0.032585246668      0.0736715422763     
3000000000.0        0.0332666795331     0.076138862917      0.965308062704      -0.12835581053      0.965308062704      -0.12835581053      0.0332666795331     0.076138862917      
3100000000.0        0.033969171871      0.0785990862957     0.96451054578       -0.132558388117     0.96451054578       -0.132558388117     0.033969171871      0.0785990862957     
3200000000.0        0.0346926592098     0.0810520004515     0.963688949111      -0.136753818424     0.963688949111      -0.136753818424     0.0346926592098     0.0810520004515     
3300000000.0        0.0354370723838     0.0834973946156     0.962843339796      -0.140941894656     0.962843339796      -0.140941894656     0.0354370723838     0.0834973946156     
3400000000.0        0.0362023377877     0.0859350592695     0.961973789319      -0.145122411231     0.961973789319      -0.145122411231     0.0362023377877     0.0859350592695     
3500000000.0        0.0369883775999     0.0883647862004     0.961080373327      -0.149295163843     0.961080373327      -0.149295163843     0.0369883775999     0.0883647862004     
3600000000.0        0.0377951099824     0.0907863685539     0.960163171424      -0.153459949509     0.960163171424      -0.153459949509     0.0377951099824     0.0907863685539     
3700000000.0        0.0386224492584     0.0931996008843     0.959222266999      -0.157616566628     0.959222266999      -0.157616566628     0.0386224492584     0.0931996008843     
3800000000.0        0.0394703060735     0.0956042792037     0.958257747064      -0.161764815023     0.958257747064      -0.161764815023     0.0394703060735     0.0956042792037     
3900000000.0        0.0403385875405     0.0980002010282     0.957269702108      -0.165904495992     0.957269702108      -0.165904495992     0.0403385875405     0.0980002010282     
4000000000.0        0.0412271973725     0.100387165423      0.956258225964      -0.170035412354     0.956258225964      -0.170035412354     0.0412271973725     0.100387165423      
4100000000.0        0.0421360360038     0.102764973044      0.955223415689      -0.174157368491     0.955223415689      -0.174157368491     0.0421360360038     0.102764973044      
4200000000.0        0.0430650007022     0.105133426183      0.95416537145       -0.178270170391     0.95416537145       -0.178270170391     0.0430650007022     0.105133426183      
4300000000.0        0.0440139856729     0.107492328805      0.953084196426      -0.182373625688     0.953084196426      -0.182373625688     0.0440139856729     0.107492328805      
4400000000.0        0.044982882155      0.109841486587      0.951979996701      -0.186467543705     0.951979996701      -0.186467543705     0.044982882155      0.109841486587      
4500000000.0        0.0459715785125     0.112180706956      0.950852881184      -0.190551735486     0.950852881184      -0.190551735486     0.0459715785125     0.112180706956      
4600000000.0        0.0469799603189     0.114509799127      0.949702961518      -0.194626013835     0.949702961518      -0.194626013835     0.0469799603189     0.114509799127      
4700000000.0        0.0480079104386     0.116828574135      0.948530352001      -0.198690193356     0.948530352001      -0.198690193356     0.0480079104386     0.116828574135      
4800000000.0        0.0490553091029     0.11913684487       0.947335169506      -0.202744090479     0.947335169506      -0.202744090479     0.0490553091029     0.11913684487       
4900000000.0        0.0501220339831     0.121434426113      0.946117533417      -0.206787523501     0.946117533417      -0.206787523501     0.0501220339831     0.121434426113      
5000000000.0        0.0512079602606     0.12372113456       0.944877565548      -0.210820312612     0.944877565548      -0.210820312612     0.0512079602606     0.12372113456       
5100000000.0        0.0523129606938     0.125996788859      0.943615390084      -0.214842279929     0.943615390084      -0.214842279929     0.0523129606938     0.125996788859      
5200000000.0        0.0534369056832     0.12826120964       0.942331133514      -0.218853249525     0.942331133514      -0.218853249525     0.0534369056832     0.12826120964       
5300000000.0        0.0545796633332     0.130514219537      0.941024924565      -0.222853047457     0.941024924565      -0.222853047457     0.0545796633332     0.130514219537      
5400000000.0        0.0557410995135     0.132755643221      0.939696894148      -0.226841501795     0.939696894148      -0.226841501795     0.0557410995135     0.132755643221      
5500000000.0        0.0569210779179     0.134985307426      0.938347175293      -0.230818442648     0.938347175293      -0.230818442648     0.0569210779179     0.134985307426      
5600000000.0        0.0581194601215     0.13720304097       0.936975903095      -0.234783702189     0.936975903095      -0.234783702189     0.0581194601215     0.13720304097       
5700000000.0        0.0593361056374     0.139408674785      0.935583214657      -0.23873711468      0.935583214657      -0.23873711468      0.0593361056374     0.139408674785      
5800000000.0        0.0605708719711     0.141602041938      0.934169249033      -0.242678516499     0.934169249033      -0.242678516499     0.0605708719711     0.141602041938      
5900000000.0        0.0618236146746     0.143782977652      0.932734147177      -0.246607746155     0.932734147177      -0.246607746155     0.0618236146746     0.143782977652      
6000000000.0        0.0630941873996     0.145951319331      0.93127805189       -0.250524644319     0.93127805189       -0.250524644319     0.0630941873996     0.145951319331      
6100000000.0        0.0643824419491     0.148106906579      0.929801107766      -0.254429053837     0.929801107766      -0.254429053837     0.0643824419491     0.148106906579      
6200000000.0        0.0656882283291     0.150249581219      0.928303461142      -0.258320819757     0.928303461142      -0.258320819757     0.0656882283291     0.150249581219      
6300000000.0        0.0670113947987     0.152379187311      0.926785260045      -0.262199789342     0.926785260045      -0.262199789342     0.0670113947987     0.152379187311      
6400000000.0        0.0683517879205     0.154495571176      0.925246654148      -0.26606581209      0.925246654148      -0.26606581209      0.0683517879205     0.154495571176      
6500000000.0        0.0697092526093     0.156598581404      0.923687794713      -0.269918739755     0.923687794713      -0.269918739755     0.0697092526093     0.156598581404      
6600000000.0        0.0710836321816     0.158688068878      0.922108834549      -0.273758426357     0.922108834549      -0.273758426357     0.0710836321816     0.158688068878      
6700000000.0        0.0724747684029     0.160763886786      0.920509927959      -0.277584728203     0.920509927959      -0.277584728203     0.0724747684029     0.160763886786      
6800000000.0        0.0738825015363     0.162825890634      0.918891230696      -0.281397503898     0.918891230696      -0.281397503898     0.0738825015363     0.162825890634      
6900000000.0        0.0753066703892     0.164873938263      0.917252899911      -0.285196614359     0.917252899911      -0.285196614359     0.0753066703892     0.164873938263      
7000000000.0        0.0767471123606     0.166907889861      0.915595094112      -0.288981922833     0.915595094112      -0.288981922833     0.0767471123606     0.166907889861      
7100000000.0        0.078203663487      0.168927607971      0.913917973112      -0.292753294899     0.913917973112      -0.292753294899     0.078203663487      0.168927607971      
7200000000.0        0.0796761584893     0.170932957508      0.912221697985      -0.296510598491     0.912221697985      -0.296510598491     0.0796761584893     0.170932957508      
7300000000.0        0.0811644308176     0.172923805766      0.910506431023      -0.300253703897     0.910506431023      -0.300253703897     0.0811644308176     0.172923805766      
7400000000.0        0.0826683126973     0.174900022427      0.908772335687      -0.303982483778     0.908772335687      -0.303982483778     0.0826683126973     0.174900022427      
7500000000.0        0.0841876351737     0.17686147957       0.907019576561      -0.30769681317      0.907019576561      -0.30769681317      0.0841876351737     0.17686147957       
7600000000.0        0.0857222281567     0.178808051682      0.905248319312      -0.311396569496     0.905248319312      -0.311396569496     0.0857222281567     0.178808051682      
7700000000.0        0.0872719204654     0.180739615659      0.903458730642      -0.315081632571     0.903458730642      -0.315081632571     0.0872719204654     0.180739615659      
7800000000.0        0.0888365398718     0.182656050818      0.901650978245      -0.318751884608     0.901650978245      -0.318751884608     0.0888365398718     0.182656050818      
7900000000.0        0.0904159131446     0.184557238899      0.899825230762      -0.322407210225     0.899825230762      -0.322407210225     0.0904159131446     0.184557238899      
8000000000.0        0.0920098660926     0.186443064072      0.89798165774       -0.326047496449     0.89798165774       -0.326047496449     0.0920098660926     0.186443064072      
8100000000.0        0.0936182236078     0.188313412937      0.896120429587      -0.329672632719     0.896120429587      -0.329672632719     0.0936182236078     0.188313412937      
8200000000.0        0.0952408097079     0.190168174531      0.894241717531      -0.333282510893     0.894241717531      -0.333282510893     0.0952408097079     0.190168174531      
8300000000.0        0.0968774475788     0.192007240331      0.892345693574      -0.336877025242     0.892345693574      -0.336877025242     0.0968774475788     0.192007240331      
8400000000.0        0.0985279596169     0.193830504251      0.890432530455      -0.340456072463     0.890432530455      -0.340456072463     0.0985279596169     0.193830504251      
8500000000.0        0.10019216747       0.195637862647      0.888502401603      -0.344019551671     0.888502401603      -0.344019551671     0.10019216747       0.195637862647      
8600000000.0        0.101869892081      0.197429214316      0.886555481099      -0.347567364401     0.886555481099      -0.347567364401     0.101869892081      0.197429214316      
8700000000.0        0.103560953725      0.199204460494      0.884591943634      -0.351099414612     0.884591943634      -0.351099414612     0.103560953725      0.199204460494      
8800000000.0        0.105265172053      0.200963504859      0.882611964468      -0.35461560868      0.882611964468      -0.35461560868      0.105265172053      0.200963504859      
8900000000.0        0.106982366133      0.202706253523      0.880615719389      -0.358115855399     0.880615719389      -0.358115855399     0.106982366133      0.202706253523      
9000000000.0        0.108712354488      0.204432615036      0.878603384674      -0.361600065979     0.878603384674      -0.361600065979     0.108712354488      0.204432615036      
9100000000.0        0.110454955134      0.206142500376      0.876575137048      -0.365068154042     0.876575137048      -0.365068154042     0.110454955134      0.206142500376      
9200000000.0        0.112209985626      0.20783582295       0.874531153646      -0.368520035615     0.874531153646      -0.368520035615     0.112209985626      0.20783582295       
9300000000.0        0.113977263087      0.209512498589      0.872471611972      -0.37195562913      0.872471611972      -0.37195562913      0.113977263087      0.209512498589      
9400000000.0        0.115756604258      0.211172445541      0.870396689864      -0.375374855418     0.870396689864      -0.375374855418     0.115756604258      0.211172445541      
9500000000.0        0.117547825526      0.212815584463      0.868306565451      -0.378777637699     0.868306565451      -0.378777637699     0.117547825526      0.212815584463      
9600000000.0        0.119350742967      0.214441838422      0.866201417118      -0.382163901582     0.866201417118      -0.382163901582     0.119350742967      0.214441838422      
9700000000.0        0.121165172384      0.216051132881      0.864081423468      -0.385533575051     0.864081423468      -0.385533575051     0.121165172384      0.216051132881      
9800000000.0        0.122990929342      0.217643395692      0.861946763286      -0.388886588462     0.861946763286      -0.388886588462     0.122990929342      0.217643395692      
9900000000.0        0.124827829203      0.219218557091      0.859797615498      -0.392222874534     0.859797615498      -0.392222874534     0.124827829203      0.219218557091      
10000000000.0       0.126675687167      0.220776549688      0.857634159141      -0.395542368338     0.857634159141      -0.395542368338     0.126675687167      0.220776549688      
