# Hz S RI R 50.00 
100000000.0         0.00269632073426    0.000864311704209   0.99730180307       -0.00154964941622   0.99730180307       -0.00154964941622   0.00269632073426    0.000864311704209   
200000000.0         0.00271792770461    0.0017285311037     0.99727884976       -0.00309921587091   0.99727884976       -0.00309921587091   0.00271792770461    0.0017285311037     
300000000.0         0.00273745752871    0.00259268508647    0.99725750341       -0.00464873152044   0.99725750341       -0.00464873152044   0.00273745752871    0.00259268508647    
400000000.0         0.00275724810428    0.0034567775487     0.997235426069      -0.00619820432353   0.997235426069      -0.00619820432353   0.00275724810428    0.0034567775487     
500000000.0         0.00277820017345    0.00432080698968    0.997211716934      -0.00774763622992   0.997211716934      -0.00774763622992   0.00277820017345    0.00432080698968    
600000000.0         0.00280077325306    0.00518476950865    0.997185916419      -0.00929702638667   0.997185916419      -0.00929702638667   0.00280077325306    0.00518476950865    
700000000.0         0.00282523884406    0.00604865988773    0.997157752949      -0.010846372328     0.997157752949      -0.010846372328     0.00282523884406    0.00604865988773    
800000000.0         0.00285177285476    0.00691247209686    0.997127050533      -0.0123956705445    0.997127050533      -0.0123956705445    0.00285177285476    0.00691247209686    
900000000.0         0.00288049675647    0.00777619956615    0.997093687612      -0.0139449167977    0.997093687612      -0.0139449167977    0.00288049675647    0.00777619956615    
1000000000.0        0.00291149844599    0.00863983534783    0.997057576196      -0.0154941063125    0.997057576196      -0.0154941063125    0.00291149844599    0.00863983534783    
1100000000.0        0.00294484384376    0.00950337221955    0.997018650264      -0.0170432339021    0.997018650264      -0.0170432339021    0.00294484384376    0.00950337221955    
1200000000.0        0.00298058380539    0.0103668027535     0.996976858857      -0.0185922940545    0.996976858857      -0.0185922940545    0.00298058380539    0.0103668027535     
1300000000.0        0.0030187584702     0.0112301193652     0.996932161727      -0.0201412809941    0.996932161727      -0.0201412809941    0.0030187584702     0.0112301193652     
1400000000.0        0.00305940011974    0.0120933143481     0.996884526479      -0.0216901887282    0.996884526479      -0.0216901887282    0.00305940011974    0.0120933143481     
1500000000.0        0.0031025351257     0.0129563799001     0.996833926624      -0.0232390110814    0.996833926624      -0.0232390110814    0.0031025351257     0.0129563799001     
1600000000.0        0.00314818531811    0.0138193081432     0.996780340209      -0.0247877417231    0.996780340209      -0.0247877417231    0.00314818531811    0.0138193081432     
1700000000.0        0.00319636897127    0.0146820911388     0.996723748835      -0.0263363741893    0.996723748835      -0.0263363741893    0.00319636897127    0.0146820911388     
1800000000.0        0.00324710153028    0.0155447208999     0.996664136926      -0.0278849019001    0.996664136926      -0.0278849019001    0.00324710153028    0.0155447208999     
1900000000.0        0.00330039615685    0.0164071894008     0.996601491187      -0.029433318174     0.996601491187      -0.029433318174     0.00330039615685    0.0164071894008     
2000000000.0        0.00335626414625    0.0172694885849     0.996535800187      -0.0309816162399    0.996535800187      -0.0309816162399    0.00335626414625    0.0172694885849     
2100000000.0        0.00341471525078    0.018131610371      0.996467054033      -0.0325297892473    0.996467054033      -0.0325297892473    0.00341471525078    0.018131610371      
2200000000.0        0.00347575793409    0.018993546659      0.996395244118      -0.0340778302746    0.996395244118      -0.0340778302746    0.00347575793409    0.018993546659      
2300000000.0        0.00353939957348    0.0198552893338     0.996320362918      -0.0356257323368    0.996320362918      -0.0356257323368    0.00353939957348    0.0198552893338     
2400000000.0        0.00360564662266    0.0207168302693     0.99624240383       -0.0371734883913    0.99624240383       -0.0371734883913    0.00360564662266    0.0207168302693     
2500000000.0        0.00367450474405    0.0215781613318     0.996161361039      -0.0387210913439    0.996161361039      -0.0387210913439    0.00367450474405    0.0215781613318     
2600000000.0        0.00374597891712    0.022439274382      0.996077229411      -0.0402685340532    0.996077229411      -0.0402685340532    0.00374597891712    0.022439274382      
2700000000.0        0.00382007352802    0.0233001612781     0.995990004403      -0.0418158093354    0.995990004403      -0.0418158093354    0.00382007352802    0.0233001612781     
2800000000.0        0.00389679244423    0.0241608138771     0.995899681985      -0.0433629099675    0.995899681985      -0.0433629099675    0.00389679244423    0.0241608138771     
2900000000.0        0.00397613907717    0.0250212240371     0.995806258585      -0.0449098286908    0.995806258585      -0.0449098286908    0.00397613907717    0.0250212240371     
3000000000.0        0.00405811643502    0.0258813836183     0.995709731029      -0.0464565582144    0.995709731029      -0.0464565582144    0.00405811643502    0.0258813836183     
3100000000.0        0.00414272716764    0.0267412844845     0.9956100965        -0.0480030912173    0.9956100965        -0.0480030912173    0.00414272716764    0.0267412844845     
3200000000.0        0.00422997360491    0.0276009185045     0.995507352499      -0.049549420351     0.995507352499      -0.049549420351     0.00422997360491    0.0276009185045     
3300000000.0        0.00431985778963    0.0284602775525     0.995401496811      -0.0510955382419    0.995401496811      -0.0510955382419    0.00431985778963    0.0284602775525     
3400000000.0        0.00441238150597    0.0293193535097     0.995292527477      -0.0526414374932    0.995292527477      -0.0526414374932    0.00441238150597    0.0293193535097     
3500000000.0        0.00450754630404    0.0301781382645     0.995180442774      -0.0541871106869    0.995180442774      -0.0541871106869    0.00450754630404    0.0301781382645     
3600000000.0        0.00460535352138    0.0310366237134     0.995065241185      -0.0557325503851    0.995065241185      -0.0557325503851    0.00460535352138    0.0310366237134     
3700000000.0        0.00470580430167    0.0318948017619     0.994946921387      -0.0572777491321    0.994946921387      -0.0572777491321    0.00470580430167    0.0318948017619     
3800000000.0        0.00480889961117    0.0327526643245     0.994825482234      -0.0588226994551    0.994825482234      -0.0588226994551    0.00480889961117    0.0327526643245     
3900000000.0        0.00491464025323    0.0336102033257     0.994700922738      -0.0603673938665    0.994700922738      -0.0603673938665    0.00491464025323    0.0336102033257     
4000000000.0        0.00502302688107    0.0344674107001     0.994573242063      -0.0619118248641    0.994573242063      -0.0619118248641    0.00502302688107    0.0344674107001     
4100000000.0        0.00513406000916    0.0353242783929     0.994442439508      -0.0634559849331    0.994442439508      -0.0634559849331    0.00513406000916    0.0353242783929     
4200000000.0        0.00524774002328    0.0361807983605     0.994308514499      -0.0649998665465    0.994308514499      -0.0649998665465    0.00524774002328    0.0361807983605     
4300000000.0        0.00536406718952    0.0370369625703     0.994171466582      -0.0665434621665    0.994171466582      -0.0665434621665    0.00536406718952    0.0370369625703     
4400000000.0        0.00548304166241    0.0378927630015     0.994031295412      -0.0680867642453    0.994031295412      -0.0680867642453    0.00548304166241    0.0378927630015     
4500000000.0        0.00560466349206    0.0387481916451     0.993888000746      -0.0696297652258    0.993888000746      -0.0696297652258    0.00560466349206    0.0387481916451     
4600000000.0        0.00572893263071    0.0396032405041     0.99374158244       -0.0711724575426    0.99374158244       -0.0711724575426    0.00572893263071    0.0396032405041     
4700000000.0        0.00585584893861    0.0404579015939     0.99359204044       -0.0727148336228    0.99359204044       -0.0727148336228    0.00585584893861    0.0404579015939     
4800000000.0        0.00598541218926    0.0413121669424     0.993439374775      -0.0742568858866    0.993439374775      -0.0742568858866    0.00598541218926    0.0413121669424     
4900000000.0        0.00611762207425    0.04216602859       0.993283585558      -0.0757986067479    0.993283585558      -0.0757986067479    0.00611762207425    0.04216602859       
5000000000.0        0.00625247820763    0.0430194785901     0.993124672978      -0.0773399886151    0.993124672978      -0.0773399886151    0.00625247820763    0.0430194785901     
5100000000.0        0.00638998012983    0.0438725090089     0.992962637295      -0.0788810238915    0.992962637295      -0.0788810238915    0.00638998012983    0.0438725090089     
5200000000.0        0.00653012731132    0.044725111926      0.992797478838      -0.0804217049762    0.992797478838      -0.0804217049762    0.00653012731132    0.044725111926      
5300000000.0        0.00667291915587    0.0455772794338     0.992629198004      -0.0819620242643    0.992629198004      -0.0819620242643    0.00667291915587    0.0455772794338     
5400000000.0        0.00681835500362    0.0464290036384     0.992457795251      -0.0835019741475    0.992457795251      -0.0835019741475    0.00681835500362    0.0464290036384     
5500000000.0        0.00696643413381    0.047280276659      0.992283271096      -0.0850415470148    0.992283271096      -0.0850415470148    0.00696643413381    0.047280276659      
5600000000.0        0.00711715576732    0.0481310906285     0.992105626116      -0.0865807352525    0.992105626116      -0.0865807352525    0.00711715576732    0.0481310906285     
5700000000.0        0.00727051906907    0.0489814376935     0.991924860942      -0.0881195312451    0.991924860942      -0.0881195312451    0.00727051906907    0.0489814376935     
5800000000.0        0.00742652315011    0.0498313100139     0.991740976257      -0.0896579273755    0.991740976257      -0.0896579273755    0.00742652315011    0.0498313100139     
5900000000.0        0.00758516706964    0.0506806997637     0.991553972796      -0.0911959160255    0.991553972796      -0.0911959160255    0.00758516706964    0.0506806997637     
6000000000.0        0.00774644983688    0.0515295991306     0.991363851345      -0.092733489576     0.991363851345      -0.092733489576     0.00774644983688    0.0515295991306     
6100000000.0        0.00791037041274    0.052378000316      0.991170612735      -0.0942706404075    0.991170612735      -0.0942706404075    0.00791037041274    0.052378000316      
6200000000.0        0.00807692771139    0.0532258955353     0.990974257844      -0.0958073609004    0.990974257844      -0.0958073609004    0.00807692771139    0.0532258955353     
6300000000.0        0.00824612060179    0.054073277018      0.990774787595      -0.0973436434354    0.990774787595      -0.0973436434354    0.00824612060179    0.054073277018      
6400000000.0        0.00841794790901    0.0549201370074     0.990572202955      -0.0988794803938    0.990572202955      -0.0988794803938    0.00841794790901    0.0549201370074     
6500000000.0        0.0085924084155     0.055766467761      0.990366504931      -0.100414864158     0.990366504931      -0.100414864158     0.0085924084155     0.055766467761      
6600000000.0        0.00876950086231    0.0566122615501     0.990157694573      -0.10194978711      0.990157694573      -0.10194978711      0.00876950086231    0.0566122615501     
6700000000.0        0.00894922395018    0.0574575106605     0.989945772969      -0.103484241637     0.989945772969      -0.103484241637     0.00894922395018    0.0574575106605     
6800000000.0        0.00913157634059    0.0583022073917     0.989730741248      -0.105018220123     0.989730741248      -0.105018220123     0.00913157634059    0.0583022073917     
6900000000.0        0.0093165566567     0.0591463440577     0.989512600576      -0.106551714957     0.989512600576      -0.106551714957     0.0093165566567     0.0591463440577     
7000000000.0        0.00950416348432    0.0599899129866     0.989291352154      -0.108084718531     0.989291352154      -0.108084718531     0.00950416348432    0.0599899129866     
7100000000.0        0.00969439537271    0.0608329065206     0.989066997223      -0.109617223237     0.989066997223      -0.109617223237     0.00969439537271    0.0608329065206     
7200000000.0        0.0098872508354     0.0616753170162     0.988839537056      -0.111149221471     0.988839537056      -0.111149221471     0.0098872508354     0.0616753170162     
7300000000.0        0.010082728351      0.0625171368442     0.988608972963      -0.112680705631     0.988608972963      -0.112680705631     0.010082728351      0.0625171368442     
7400000000.0        0.0102808263637     0.0633583583896     0.988375306287      -0.114211668121     0.988375306287      -0.114211668121     0.0102808263637     0.0633583583896     
7500000000.0        0.0104815432844     0.0641989740518     0.988138538404      -0.115742101344     0.988138538404      -0.115742101344     0.0104815432844     0.0641989740518     
7600000000.0        0.0106848774908     0.0650389762442     0.987898670723      -0.117271997709     0.987898670723      -0.117271997709     0.0106848774908     0.0650389762442     
7700000000.0        0.0108908273284     0.0658783573949     0.987655704686      -0.11880134963      0.987655704686      -0.11880134963      0.0108908273284     0.0658783573949     
7800000000.0        0.0110993911108     0.0667171099461     0.987409641765      -0.120330149523     0.987409641765      -0.120330149523     0.0110993911108     0.0667171099461     
7900000000.0        0.0113105671205     0.0675552263542     0.987160483466      -0.121858389808     0.987160483466      -0.121858389808     0.0113105671205     0.0675552263542     
8000000000.0        0.0115243536091     0.0683926990903     0.986908231322      -0.12338606291      0.986908231322      -0.12338606291      0.0115243536091     0.0683926990903     
8100000000.0        0.011740748798      0.0692295206395     0.986652886899      -0.124913161258     0.986652886899      -0.124913161258     0.011740748798      0.0692295206395     
8200000000.0        0.0119597508791     0.0700656835015     0.986394451791      -0.126439677286     0.986394451791      -0.126439677286     0.0119597508791     0.0700656835015     
8300000000.0        0.0121813580145     0.0709011801902     0.986132927622      -0.127965603434     0.986132927622      -0.127965603434     0.0121813580145     0.0709011801902     
8400000000.0        0.0124055683377     0.071736003234      0.985868316046      -0.129490932144     0.985868316046      -0.129490932144     0.0124055683377     0.071736003234      
8500000000.0        0.0126323799534     0.0725701451756     0.985600618744      -0.131015655865     0.985600618744      -0.131015655865     0.0126323799534     0.0725701451756     
8600000000.0        0.0128617909385     0.0734035985721     0.985329837424      -0.132539767052     0.985329837424      -0.132539767052     0.0128617909385     0.0734035985721     
8700000000.0        0.0130937993418     0.074236355995      0.985055973826      -0.134063258163     0.985055973826      -0.134063258163     0.0130937993418     0.074236355995      
8800000000.0        0.0133284031848     0.0750684100301     0.984779029714      -0.135586121664     0.984779029714      -0.135586121664     0.0133284031848     0.0750684100301     
8900000000.0        0.0135656004618     0.0758997532778     0.984499006881      -0.137108350025     0.984499006881      -0.137108350025     0.0135656004618     0.0758997532778     
9000000000.0        0.0138053891403     0.0767303783527     0.984215907145      -0.138629935723     0.984215907145      -0.138629935723     0.0138053891403     0.0767303783527     
9100000000.0        0.0140477671615     0.0775602778839     0.983929732353      -0.140150871238     0.983929732353      -0.140150871238     0.0140477671615     0.0775602778839     
9200000000.0        0.0142927324401     0.0783894445149     0.983640484378      -0.141671149061     0.983640484378      -0.141671149061     0.0142927324401     0.0783894445149     
9300000000.0        0.0145402828652     0.0792178709036     0.983348165116      -0.143190761684     0.983348165116      -0.143190761684     0.0145402828652     0.0792178709036     
9400000000.0        0.0147904162999     0.0800455497222     0.983052776493      -0.144709701609     0.983052776493      -0.144709701609     0.0147904162999     0.0800455497222     
9500000000.0        0.0150431305821     0.0808724736575     0.982754320459      -0.146227961343     0.982754320459      -0.146227961343     0.0150431305821     0.0808724736575     
9600000000.0        0.0152984235246     0.0816986354106     0.982452798989      -0.147745533399     0.982452798989      -0.147745533399     0.0152984235246     0.0816986354106     
9700000000.0        0.0155562929151     0.0825240276971     0.982148214084      -0.149262410297     0.982148214084      -0.149262410297     0.0155562929151     0.0825240276971     
9800000000.0        0.0158167365169     0.0833486432469     0.981840567768      -0.150778584565     0.981840567768      -0.150778584565     0.0158167365169     0.0833486432469     
9900000000.0        0.0160797520685     0.0841724748043     0.981529862093      -0.152294048734     0.981529862093      -0.152294048734     0.0160797520685     0.0841724748043     
10000000000.0       0.0163453372844     0.0849955151283     0.981216099133      -0.153808795347     0.981216099133      -0.153808795347     0.0163453372844     0.0849955151283     
