# Hz S RI R 50.00 
100000000.0         0.0443214292069     0.0033954975438     0.955672921303      -0.00564682267154   0.955672921303      -0.00564682267154   0.0443214292069     0.0033954975438     
200000000.0         0.0446609660568     0.00678511789795    0.955323587021      -0.0112877701298    0.955323587021      -0.0112877701298    0.0446609660568     0.00678511789795    
300000000.0         0.0449652033648     0.0101704518847     0.95500440315       -0.016924442711     0.95500440315       -0.016924442711     0.0449652033648     0.0101704518847     
400000000.0         0.045271048692      0.0135516861722     0.954678461065      -0.0225570361266    0.954678461065      -0.0225570361266    0.045271048692      0.0135516861722     
500000000.0         0.0455927005741     0.0169286822567     0.954331561142      -0.0281854206802    0.954331561142      -0.0281854206802    0.0455927005741     0.0169286822567     
600000000.0         0.0459373758865     0.0203011585876     0.953956485336      -0.0338093234737    0.953956485336      -0.0338093234737    0.0459373758865     0.0203011585876     
700000000.0         0.0463093101212     0.0236687560091     0.953548996884      -0.0394283938914    0.953548996884      -0.0394283938914    0.0463093101212     0.0236687560091     
800000000.0         0.0467112180312     0.0270310681694     0.953106379641      -0.045042234033     0.953106379641      -0.045042234033     0.0467112180312     0.0270310681694     
900000000.0         0.0471449442497     0.0303876579154     0.952626787457      -0.0506504151248    0.952626787457      -0.0506504151248    0.0471449442497     0.0303876579154     
1000000000.0        0.0476117932055     0.0337380670607     0.952108914252      -0.0562524872989    0.952108914252      -0.0562524872989    0.0476117932055     0.0337380670607     
1100000000.0        0.0481127125929     0.0370818226478     0.951551810543      -0.0618479858636    0.951551810543      -0.0618479858636    0.0481127125929     0.0370818226478     
1200000000.0        0.0486484027459     0.0404184411973     0.950954774069      -0.0674364355583    0.950954774069      -0.0674364355583    0.0486484027459     0.0404184411973     
1300000000.0        0.0492193854885     0.0437474317252     0.950317280931      -0.0730173535758    0.950317280931      -0.0730173535758    0.0492193854885     0.0437474317252     
1400000000.0        0.0498260494224     0.0470682979707     0.949638940311      -0.0785902517937    0.949638940311      -0.0785902517937    0.0498260494224     0.0470682979707     
1500000000.0        0.0504686808156     0.0503805400943     0.948919463576      -0.0841546384754    0.948919463576      -0.0841546384754    0.0504686808156     0.0503805400943     
1600000000.0        0.0511474853236     0.0536836560097     0.948158642559      -0.0897100196046    0.948158642559      -0.0897100196046    0.0511474853236     0.0536836560097     
1700000000.0        0.0518626036699     0.0569771424556     0.947356333875      -0.0952558999586    0.947356333875      -0.0952558999586    0.0518626036699     0.0569771424556     
1800000000.0        0.0526141232244     0.060260495876      0.946512447343      -0.10079178399      0.946512447343      -0.10079178399      0.0526141232244     0.060260495876      
1900000000.0        0.0534020867269     0.0635332131593     0.945626937261      -0.106317176569     0.945626937261      -0.106317176569     0.0534020867269     0.0635332131593     
2000000000.0        0.0542264989779     0.0667947922676     0.944699795715      -0.111831583611     0.944699795715      -0.111831583611     0.0542264989779     0.0667947922676     
2100000000.0        0.0550873320526     0.0700447327835     0.943731047366      -0.117334512625     0.943731047366      -0.117334512625     0.0550873320526     0.0700447327835     
2200000000.0        0.0559845294259     0.0732825363894     0.942720745319      -0.122825473196     0.942720745319      -0.122825473196     0.0559845294259     0.0732825363894     
2300000000.0        0.0569180092787     0.0765077072941     0.941668967825      -0.128303977409     0.941668967825      -0.128303977409     0.0569180092787     0.0765077072941     
2400000000.0        0.0578876671824     0.0797197526166     0.940575815588      -0.133769540235     0.940575815588      -0.133769540235     0.0578876671824     0.0797197526166     
2500000000.0        0.0588933783047     0.0829181827335     0.939441409563      -0.139221679878     0.939441409563      -0.139221679878     0.0588933783047     0.0829181827335     
2600000000.0        0.059934999242      0.0861025115971     0.938265889122      -0.144659918097     0.938265889122      -0.144659918097     0.059934999242      0.0861025115971     
2700000000.0        0.0610123695584     0.089272257029      0.937049410515      -0.150083780491     0.937049410515      -0.150083780491     0.0610123695584     0.089272257029      
2800000000.0        0.0621253130913     0.0924269409906     0.935792145563      -0.155492796781     0.935792145563      -0.155492796781     0.0621253130913     0.0924269409906     
2900000000.0        0.0632736390705     0.0955660898365     0.934494280542      -0.160886501054     0.934494280542      -0.160886501054     0.0632736390705     0.0955660898365     
3000000000.0        0.0644571430867     0.0986892345507     0.933156015209      -0.166264432006     0.933156015209      -0.166264432006     0.0644571430867     0.0986892345507     
3100000000.0        0.0656756079369     0.101795910968      0.931777561961      -0.171626133159     0.931777561961      -0.171626133159     0.0656756079369     0.101795910968      
3200000000.0        0.06692880437       0.104885659983      0.930359145085      -0.176971153072     0.930359145085      -0.176971153072     0.06692880437       0.104885659983      
3300000000.0        0.0682164917493     0.107958027748      0.9289010001        -0.182299045537     0.9289010001        -0.182299045537     0.0682164917493     0.107958027748      
3400000000.0        0.0695384186471     0.111012565856      0.927403373157      -0.187609369768     0.927403373157      -0.187609369768     0.0695384186471     0.111012565856      
3500000000.0        0.0708943233817     0.114048831521      0.925866520506      -0.19290169057      0.925866520506      -0.19290169057      0.0708943233817     0.114048831521      
3600000000.0        0.0722839345074     0.117066387742      0.924290708004      -0.198175578515     0.924290708004      -0.198175578515     0.0722839345074     0.117066387742      
3700000000.0        0.0737069712637     0.120064803461      0.922676210663      -0.203430610092     0.922676210663      -0.203430610092     0.0737069712637     0.120064803461      
3800000000.0        0.0751631439912     0.123043653716      0.921023312238      -0.208666367862     0.921023312238      -0.208666367862     0.0751631439912     0.123043653716      
3900000000.0        0.0766521545184     0.12600251978       0.919332304839      -0.213882440596     0.919332304839      -0.213882440596     0.0766521545184     0.12600251978       
4000000000.0        0.0781736965244     0.128940989295      0.917603488566      -0.219078423414     0.917603488566      -0.219078423414     0.0781736965244     0.128940989295      
4100000000.0        0.0797274558801     0.131858656405      0.915837171167      -0.224253917907     0.915837171167      -0.224253917907     0.0797274558801     0.131858656405      
4200000000.0        0.0813131109719     0.134755121871      0.91403366772       -0.229408532263     0.91403366772       -0.229408532263     0.0813131109719     0.134755121871      
4300000000.0        0.0829303330097     0.137629993188      0.912193300315      -0.234541881376     0.912193300315      -0.234541881376     0.0829303330097     0.137629993188      
4400000000.0        0.0845787863213     0.140482884689      0.91031639777       -0.239653586956     0.91031639777       -0.239653586956     0.0845787863213     0.140482884689      
4500000000.0        0.0862581286356     0.143313417654      0.908403295337      -0.244743277631     0.908403295337      -0.244743277631     0.0862581286356     0.143313417654      
4600000000.0        0.0879680113547     0.146121220396      0.906454334439      -0.249810589039     0.906454334439      -0.249810589039     0.0879680113547     0.146121220396      
4700000000.0        0.089708079818      0.148905928358      0.904469862398      -0.254855163917     0.904469862398      -0.254855163917     0.089708079818      0.148905928358      
4800000000.0        0.0914779735575     0.151667184189      0.902450232185      -0.259876652188     0.902450232185      -0.259876652188     0.0914779735575     0.151667184189      
4900000000.0        0.0932773265466     0.15440463783       0.900395802168      -0.264874711033     0.900395802168      -0.264874711033     0.0932773265466     0.15440463783       
5000000000.0        0.0951057674422     0.157117946577      0.89830693587       -0.269849004967     0.89830693587       -0.269849004967     0.0951057674422     0.157117946577      
5100000000.0        0.0969629198216     0.159806775156      0.896184001729      -0.274799205901     0.896184001729      -0.274799205901     0.0969629198216     0.159806775156      
5200000000.0        0.098848402414      0.162470795776      0.894027372875      -0.279724993208     0.894027372875      -0.279724993208     0.098848402414      0.162470795776      
5300000000.0        0.100761829327      0.165109688193      0.891837426891      -0.284626053772     0.891837426891      -0.284626053772     0.100761829327      0.165109688193      
5400000000.0        0.102702810269      0.167723139751      0.8896145456        -0.289502082041     0.8896145456        -0.289502082041     0.102702810269      0.167723139751      
5500000000.0        0.104670950769      0.170310845436      0.887359114841      -0.294352780075     0.887359114841      -0.294352780075     0.104670950769      0.170310845436      
5600000000.0        0.106665852389      0.17287250791       0.885071524253      -0.29917785758      0.885071524253      -0.29917785758      0.106665852389      0.17287250791       
5700000000.0        0.108687112938      0.17540783755       0.88275216707       -0.303977031945     0.88275216707       -0.303977031945     0.108687112938      0.17540783755       
5800000000.0        0.110734326679      0.177916552476      0.880401439901      -0.308750028272     0.880401439901      -0.308750028272     0.110734326679      0.177916552476      
5900000000.0        0.112807084533      0.180398378576      0.878019742538      -0.313496579402     0.878019742538      -0.313496579402     0.112807084533      0.180398378576      
6000000000.0        0.114904974282      0.182853049527      0.875607477743      -0.318216425933     0.875607477743      -0.318216425933     0.114904974282      0.182853049527      
6100000000.0        0.117027580769      0.185280306815      0.873165051053      -0.322909316236     0.873165051053      -0.322909316236     0.117027580769      0.185280306815      
6200000000.0        0.11917448609       0.187679899737      0.870692870586      -0.327575006466     0.870692870586      -0.327575006466     0.11917448609       0.187679899737      
6300000000.0        0.121345269793      0.190051585419      0.86819134684       -0.33221326057      0.86819134684       -0.33221326057      0.121345269793      0.190051585419      
6400000000.0        0.123539509064      0.192395128808      0.865660892509      -0.336823850285     0.865660892509      -0.336823850285     0.123539509064      0.192395128808      
6500000000.0        0.125756778919      0.194710302677      0.863101922292      -0.34140655514      0.863101922292      -0.34140655514      0.125756778919      0.194710302677      
6600000000.0        0.127996652385      0.196996887616      0.860514852706      -0.345961162443     0.860514852706      -0.345961162443     0.127996652385      0.196996887616      
6700000000.0        0.130258700686      0.199254672022      0.857900101904      -0.350487467279     0.857900101904      -0.350487467279     0.130258700686      0.199254672022      
6800000000.0        0.13254249342       0.201483452085      0.855258089496      -0.354985272486     0.855258089496      -0.354985272486     0.13254249342       0.201483452085      
6900000000.0        0.134847598742      0.203683031767      0.852589236367      -0.359454388641     0.852589236367      -0.359454388641     0.134847598742      0.203683031767      
7000000000.0        0.137173583529      0.205853222784      0.849893964507      -0.363894634036     0.849893964507      -0.363894634036     0.137173583529      0.205853222784      
7100000000.0        0.139520013562      0.207993844575      0.847172696837      -0.368305834651     0.847172696837      -0.368305834651     0.139520013562      0.207993844575      
7200000000.0        0.14188645369       0.210104724275      0.844425857035      -0.372687824124     0.844425857035      -0.372687824124     0.14188645369       0.210104724275      
7300000000.0        0.144272467995      0.212185696682      0.841653869377      -0.377040443715     0.841653869377      -0.377040443715     0.144272467995      0.212185696682      
7400000000.0        0.146677619961      0.214236604216      0.838857158564      -0.381363542271     0.838857158564      -0.381363542271     0.146677619961      0.214236604216      
7500000000.0        0.149101472631      0.216257296884      0.836036149567      -0.385656976183     0.836036149567      -0.385656976183     0.149101472631      0.216257296884      
7600000000.0        0.151543588767      0.218247632231      0.833191267466      -0.389920609342     0.833191267466      -0.389920609342     0.151543588767      0.218247632231      
7700000000.0        0.154003531003      0.220207475296      0.830322937292      -0.394154313091     0.830322937292      -0.394154313091     0.154003531003      0.220207475296      
7800000000.0        0.156480862002      0.22213669856       0.827431583878      -0.398357966175     0.827431583878      -0.398357966175     0.156480862002      0.22213669856       
7900000000.0        0.158975144603      0.224035181895      0.824517631704      -0.402531454687     0.824517631704      -0.402531454687     0.158975144603      0.224035181895      
8000000000.0        0.161485941966      0.225902812504      0.821581504753      -0.40667467201      0.821581504753      -0.40667467201      0.161485941966      0.225902812504      
8100000000.0        0.16401281772       0.227739484865      0.818623626367      -0.410787518758     0.818623626367      -0.410787518758     0.16401281772       0.227739484865      
8200000000.0        0.166555336103      0.229545100671      0.8156444191        -0.414869902713     0.8156444191        -0.414869902713     0.166555336103      0.229545100671      
8300000000.0        0.169113062097      0.231319568759      0.812644304587      -0.418921738761     0.812644304587      -0.418921738761     0.169113062097      0.231319568759      
8400000000.0        0.171685561567      0.233062805048      0.809623703403      -0.422942948824     0.809623703403      -0.422942948824     0.171685561567      0.233062805048      
8500000000.0        0.17427240139       0.234774732469      0.806583034929      -0.426933461787     0.806583034929      -0.426933461787     0.17427240139       0.234774732469      
8600000000.0        0.176873149587      0.236455280892      0.80352271723       -0.430893213431     0.80352271723       -0.430893213431     0.176873149587      0.236455280892      
8700000000.0        0.179487375449      0.238104387052      0.800443166919      -0.434822146353     0.800443166919      -0.434822146353     0.179487375449      0.238104387052      
8800000000.0        0.182114649656      0.239721994475      0.797344799039      -0.438720209892     0.797344799039      -0.438720209892     0.182114649656      0.239721994475      
8900000000.0        0.184754544402      0.241308053394      0.79422802694       -0.442587360049     0.79422802694       -0.442587360049     0.184754544402      0.241308053394      
9000000000.0        0.187406633509      0.242862520677      0.791093262164      -0.446423559406     0.791093262164      -0.446423559406     0.187406633509      0.242862520677      
9100000000.0        0.190070492543      0.244385359737      0.787940914326      -0.450228777044     0.787940914326      -0.450228777044     0.190070492543      0.244385359737      
9200000000.0        0.192745698922      0.245876540454      0.784771391007      -0.454002988456     0.784771391007      -0.454002988456     0.192745698922      0.245876540454      
9300000000.0        0.195431832027      0.247336039085      0.781585097642      -0.457746175465     0.781585097642      -0.457746175465     0.195431832027      0.247336039085      
9400000000.0        0.198128473306      0.24876383818       0.778382437418      -0.46145832613      0.778382437418      -0.46145832613      0.198128473306      0.24876383818       
9500000000.0        0.200835206372      0.250159926494      0.775163811168      -0.465139434665     0.775163811168      -0.465139434665     0.200835206372      0.250159926494      
9600000000.0        0.203551617109      0.251524298892      0.771929617274      -0.468789501338     0.771929617274      -0.468789501338     0.203551617109      0.251524298892      
9700000000.0        0.20627729376       0.252856956264      0.768680251571      -0.472408532389     0.768680251571      -0.472408532389     0.20627729376       0.252856956264      
9800000000.0        0.209011827023      0.254157905428      0.76541610725       -0.475996539929     0.76541610725       -0.475996539929     0.209011827023      0.254157905428      
9900000000.0        0.211754810141      0.255427159039      0.762137574775      -0.479553541849     0.762137574775      -0.479553541849     0.211754810141      0.255427159039      
10000000000.0       0.214505838989      0.256664735492      0.758845041789      -0.483079561726     0.758845041789      -0.483079561726     0.214505838989      0.256664735492      
