# Hz S RI R 50.00 
100000000.0         0.000129963580262   -0.00641140017734   0.999766322519      -0.00697019022215   0.999766322519      -0.00697019022215   0.000129963580262   -0.00641140017734   
200000000.0         -9.44761735167e-06  -0.0128209743379    0.999623979326      -0.0139385657376    0.999623979326      -0.0139385657376    -9.44761735167e-06  -0.0128209743379    
300000000.0         -0.000238470640401  -0.0192270128456    0.999392342368      -0.0209034261183    0.999392342368      -0.0209034261183    -0.000238470640401  -0.0192270128456    
400000000.0         -0.000556837269019  -0.0256277948765    0.999071366289      -0.0278630576314    0.999071366289      -0.0278630576314    -0.000556837269019  -0.0256277948765    
500000000.0         -0.000964331542457  -0.0320215966927    0.998661146661      -0.0348157427634    0.998661146661      -0.0348157427634    -0.000964331542456  -0.0320215966927    
600000000.0         -0.00146072264363   -0.0384066955327    0.998161853072      -0.0417597644492    0.998161853072      -0.0417597644492    -0.00146072264363   -0.0384066955327    
700000000.0         -0.00204574793405   -0.0447813723076    0.997573712072      -0.0486934089274    0.997573712072      -0.0486934089274    -0.00204574793405   -0.0447813723076    
800000000.0         -0.00271910690344   -0.0511439137906    0.996897000832      -0.0556149680195    0.996897000832      -0.0556149680195    -0.00271910690344   -0.0511439137906    
900000000.0         -0.00348045864771   -0.0574926145414    0.996132044153      -0.0625227411119    0.996132044153      -0.0625227411119    -0.00348045864771   -0.0574926145414    
1000000000.0        -0.00432942078405   -0.063825778671     0.995279212764      -0.0694150369603    0.995279212764      -0.0694150369603    -0.00432942078405   -0.063825778671     
1100000000.0        -0.00526556905575   -0.0701417214992    0.994338922167      -0.0762901753755    0.994338922167      -0.0762901753755    -0.00526556905575   -0.0701417214992    
1200000000.0        -0.0062884373155    -0.0764387711329    0.993311631738      -0.0831464888231    0.993311631738      -0.0831464888231    -0.0062884373155    -0.0764387711329    
1300000000.0        -0.00739751774115   -0.0827152699812    0.992197843926      -0.0899823239553    0.992197843926      -0.0899823239553    -0.00739751774115   -0.0827152699812    
1400000000.0        -0.00859226120932   -0.088969576216     0.990998103504      -0.0967960430845    0.990998103504      -0.0967960430845    -0.00859226120932   -0.088969576216     
1500000000.0        -0.00987207778535   -0.0952000651838    0.989712996823      -0.103586025606     0.989712996823      -0.103586025606     -0.00987207778534   -0.0952000651838    
1600000000.0        -0.0112363373052    -0.101405130771     0.988343151042      -0.110350669373     0.988343151042      -0.110350669373     -0.0112363373052    -0.101405130771     
1700000000.0        -0.0126843700338    -0.107583186728     0.986889233348      -0.117088392026     0.986889233348      -0.117088392026     -0.0126843700338    -0.107583186728     
1800000000.0        -0.0142154673896    -0.113732667942     0.985351950129      -0.123797632274     0.985351950129      -0.123797632274     -0.0142154673896    -0.113732667942     
1900000000.0        -0.0158288827275    -0.119852031678     0.983732046122      -0.130476851141     0.983732046122      -0.130476851141     -0.0158288827275    -0.119852031678     
2000000000.0        -0.0175238321745    -0.125939758762     0.982030303524      -0.137124533152     0.982030303524      -0.137124533152     -0.0175238321745    -0.125939758762     
2100000000.0        -0.0192994955145    -0.131994354734     0.980247541061      -0.14373918749      0.980247541061      -0.14373918749      -0.0192994955145    -0.131994354734     
2200000000.0        -0.0211550171165    -0.13801435094      0.978384613031      -0.150319349098     0.978384613031      -0.150319349098     -0.0211550171165    -0.13801435094      
2300000000.0        -0.0230895069046    -0.143998305594     0.976442408304      -0.156863579732     0.976442408304      -0.156863579732     -0.0230895069046    -0.143998305594     
2400000000.0        -0.0251020413659    -0.149944804781     0.974421849294      -0.163370468981     0.974421849294      -0.163370468981     -0.0251020413659    -0.149944804781     
2500000000.0        -0.0271916645927    -0.155852463418     0.972323890903      -0.169838635217     0.972323890903      -0.169838635217     -0.0271916645927    -0.155852463418     
2600000000.0        -0.0293573893574    -0.161719926165     0.970149519425      -0.17626672652      0.970149519425      -0.17626672652      -0.0293573893574    -0.161719926165     
2700000000.0        -0.0315981982171    -0.167545868285     0.967899751437      -0.182653421534     0.967899751437      -0.182653421534     -0.0315981982171    -0.167545868285     
2800000000.0        -0.033913044644     -0.173328996461     0.965575632654      -0.188997430286     0.965575632654      -0.188997430286     -0.033913044644     -0.173328996461     
2900000000.0        -0.036300854181     -0.179068049555     0.963178236769      -0.195297494947     0.963178236769      -0.195297494947     -0.036300854181     -0.179068049555     
3000000000.0        -0.0387605256183    -0.184761799317     0.960708664267      -0.201552390548     0.960708664267      -0.201552390548     -0.0387605256183    -0.184761799317     
3100000000.0        -0.0412909321893    -0.190409051051     0.958168041223      -0.207760925637     0.958168041223      -0.207760925637     -0.0412909321893    -0.190409051051     
3200000000.0        -0.0438909227827    -0.196008644218     0.955557518089      -0.213921942893     0.955557518089      -0.213921942893     -0.0438909227827    -0.196008644218     
3300000000.0        -0.046559323169     -0.201559452999     0.952878268459      -0.220034319686     0.952878268459      -0.220034319686     -0.046559323169     -0.201559452999     
3400000000.0        -0.0492949372387    -0.207060386794     0.95013148783       -0.226096968577     0.95013148783       -0.226096968577     -0.0492949372387    -0.207060386794     
3500000000.0        -0.0520965482492    -0.212510390683     0.947318392348      -0.232108837784     0.947318392348      -0.232108837784     -0.0520965482492    -0.212510390683     
3600000000.0        -0.0549629200788    -0.217908445825     0.944440217558      -0.238068911575     0.944440217558      -0.238068911575     -0.0549629200788    -0.217908445825     
3700000000.0        -0.0578927984857    -0.223253569814     0.941498217137      -0.243976210631     0.941498217137      -0.243976210631     -0.0578927984857    -0.223253569814     
3800000000.0        -0.060884912368     -0.228544816977     0.938493661634      -0.249829792343     0.938493661634      -0.249829792343     -0.060884912368     -0.228544816977     
3900000000.0        -0.0639379750249    -0.233781278628     0.935427837206      -0.255628751067     0.935427837206      -0.255628751067     -0.0639379750249    -0.233781278628     
4000000000.0        -0.0670506854151    -0.238962083268     0.93230204436       -0.261372218326     0.93230204436       -0.261372218326     -0.0670506854151    -0.238962083268     
4100000000.0        -0.0702217294108    -0.244086396743     0.929117596696      -0.267059362964     0.929117596696      -0.267059362964     -0.0702217294108    -0.244086396743     
4200000000.0        -0.0734497810455    -0.249153422344     0.925875819659      -0.272689391253     0.925875819659      -0.272689391253     -0.0734497810455    -0.249153422344     
4300000000.0        -0.0767335037539    -0.25416240087      0.922578049296      -0.278261546954     0.922578049296      -0.278261546954     -0.0767335037539    -0.25416240087      
4400000000.0        -0.0800715516002    -0.259112610636     0.91922563103       -0.283775111324     0.91922563103       -0.283775111324     -0.0800715516002    -0.259112610636     
4500000000.0        -0.0834625704958    -0.264003367443     0.915819918439      -0.289229403089     0.915819918439      -0.289229403089     -0.0834625704958    -0.264003367443     
4600000000.0        -0.0869051994021    -0.268834024501     0.912362272051      -0.294623778367     0.912362272051      -0.294623778367     -0.0869051994021    -0.268834024501     
4700000000.0        -0.0903980715179    -0.273603972306     0.908854058161      -0.299957630546     0.908854058161      -0.299957630546     -0.0903980715179    -0.273603972306     
4800000000.0        -0.0939398154499    -0.27831263848      0.905296647655      -0.305230390123     0.905296647655      -0.305230390123     -0.0939398154499    -0.27831263848      
4900000000.0        -0.0975290563641    -0.28295948757      0.901691414861      -0.310441524505     0.901691414861      -0.310441524505     -0.0975290563641    -0.28295948757      
5000000000.0        -0.101164417117     -0.287544020804     0.898039736414      -0.315590537766     0.898039736414      -0.315590537766     -0.101164417117     -0.287544020804     
5100000000.0        -0.104844519367     -0.292065775816     0.894342990149      -0.320676970368     0.894342990149      -0.320676970368     -0.104844519367     -0.292065775816     
5200000000.0        -0.108567984657     -0.296524326324     0.890602554012      -0.325700398848     0.890602554012      -0.325700398848     -0.108567984657     -0.296524326324     
5300000000.0        -0.112333435484     -0.300919281787     0.886819804997      -0.330660435467     0.886819804997      -0.330660435467     -0.112333435484     -0.300919281787     
5400000000.0        -0.116139496331     -0.305250287018     0.882996118107      -0.335556727827     0.882996118107      -0.335556727827     -0.116139496331     -0.305250287018     
5500000000.0        -0.119984794682     -0.309517021766     0.879132865343      -0.340388958457     0.879132865343      -0.340388958457     -0.119984794682     -0.309517021766     
5600000000.0        -0.123867962007     -0.313719200277     0.875231414719      -0.345156844365     0.875231414719      -0.345156844365     -0.123867962007     -0.313719200277     
5700000000.0        -0.127787634717     -0.317856570813     0.871293129301      -0.349860136567     0.871293129301      -0.349860136567     -0.127787634717     -0.317856570813     
5800000000.0        -0.131742455093     -0.321928915152     0.867319366286      -0.354498619584     0.867319366286      -0.354498619584     -0.131742455093     -0.321928915152     
5900000000.0        -0.135731072186     -0.325936048065     0.863311476094      -0.359072110914     0.863311476094      -0.359072110914     -0.135731072186     -0.325936048065     
6000000000.0        -0.139752142686     -0.329877816756     0.859270801507      -0.363580460485     0.859270801507      -0.363580460485     -0.139752142686     -0.329877816756     
6100000000.0        -0.143804331761     -0.333754100298     0.855198676823      -0.368023550076     0.855198676823      -0.368023550076     -0.143804331761     -0.333754100298     
6200000000.0        -0.147886313861     -0.33756480903      0.851096427052      -0.372401292725     0.851096427052      -0.372401292725     -0.147886313861     -0.33756480903      
6300000000.0        -0.151996773503     -0.341309883946     0.846965367137      -0.376713632118     0.846965367137      -0.376713632118     -0.151996773503     -0.341309883946     
6400000000.0        -0.156134406009     -0.344989296063     0.842806801208      -0.38096054195      0.842806801208      -0.38096054195      -0.156134406009     -0.344989296063     
6500000000.0        -0.160297918224     -0.348603045773     0.838622021871      -0.385142025283     0.838622021871      -0.385142025283     -0.160297918224     -0.348603045773     
6600000000.0        -0.164486029198     -0.352151162179     0.834412309522      -0.389258113883     0.834412309522      -0.389258113883     -0.164486029198     -0.352151162179     
6700000000.0        -0.168697470833     -0.355633702417     0.830178931696      -0.393308867538     0.830178931696      -0.393308867538     -0.168697470833     -0.355633702417     
6800000000.0        -0.172930988509     -0.359050750969     0.825923142454      -0.397294373377     0.825923142454      -0.397294373377     -0.172930988509     -0.359050750969     
6900000000.0        -0.177185341662     -0.362402418965     0.821646181787      -0.401214745165     0.821646181787      -0.401214745165     -0.177185341662     -0.362402418965     
7000000000.0        -0.18145930435      -0.365688843475     0.817349275066      -0.405070122601     0.817349275066      -0.405070122601     -0.18145930435      -0.365688843475     
7100000000.0        -0.185751665767     -0.368910186788     0.813033632518      -0.408860670598     0.813033632518      -0.408860670598     -0.185751665767     -0.368910186788     
7200000000.0        -0.190061230744     -0.372066635698     0.808700448728      -0.412586578561     0.808700448728      -0.412586578561     -0.190061230744     -0.372066635698     
7300000000.0        -0.194386820207     -0.375158400771     0.80435090218       -0.416248059665     0.80435090218       -0.416248059665     -0.194386820207     -0.375158400771     
7400000000.0        -0.198727271614     -0.378185715615     0.799986154826      -0.41984535012      0.799986154826      -0.41984535012      -0.198727271614     -0.378185715615     
7500000000.0        -0.203081439351     -0.38114883615      0.795607351678      -0.423378708437     0.795607351678      -0.423378708437     -0.203081439351     -0.38114883615      
7600000000.0        -0.20744819511      -0.384048039865     0.791215620442      -0.426848414696     0.791215620442      -0.426848414696     -0.20744819511      -0.384048039865     
7700000000.0        -0.211826428228     -0.386883625091     0.786812071169      -0.430254769806     0.786812071169      -0.430254769806     -0.211826428228     -0.386883625091     
7800000000.0        -0.216215046007     -0.38965591026      0.782397795944      -0.433598094778     0.782397795944      -0.433598094778     -0.216215046007     -0.38965591026      
7900000000.0        -0.220612973996     -0.392365233175     0.777973868596      -0.436878729984     0.777973868596      -0.436878729984     -0.220612973996     -0.392365233175     
8000000000.0        -0.225019156254     -0.395011950278     0.773541344441      -0.440097034431     0.773541344441      -0.440097034431     -0.225019156254     -0.395011950278     
8100000000.0        -0.229432555583     -0.397596435924     0.769101260045      -0.443253385032     0.769101260045      -0.443253385032     -0.229432555583     -0.397596435924     
8200000000.0        -0.23385215373      -0.400119081659     0.764654633024      -0.446348175889     0.764654633024      -0.446348175889     -0.23385215373      -0.400119081659     
8300000000.0        -0.238276951574     -0.4025802955       0.760202461857      -0.449381817569     0.760202461857      -0.449381817569     -0.238276951574     -0.4025802955       
8400000000.0        -0.242705969279     -0.404980501232     0.755745725729      -0.4523547364       0.755745725729      -0.4523547364       -0.242705969279     -0.404980501232     
8500000000.0        -0.247138246427     -0.407320137695     0.751285384407      -0.455267373765     0.751285384407      -0.455267373765     -0.247138246427     -0.407320137695     
8600000000.0        -0.251572842126     -0.409599658096     0.746822378121      -0.458120185405     0.746822378121      -0.458120185405     -0.251572842126     -0.409599658096     
8700000000.0        -0.256008835096     -0.411819529316     0.742357627484      -0.460913640735     0.742357627484      -0.460913640735     -0.256008835096     -0.411819529316     
8800000000.0        -0.260445323737     -0.413980231233     0.737892033427      -0.463648222161     0.737892033427      -0.463648222161     -0.260445323737     -0.413980231233     
8900000000.0        -0.264881426165     -0.416082256056     0.733426477155      -0.466324424416     0.733426477155      -0.466324424416     -0.264881426165     -0.416082256056     
9000000000.0        -0.26931628024      -0.418126107663     0.728961820124      -0.468942753898     0.728961820124      -0.468942753898     -0.26931628024      -0.418126107663     
9100000000.0        -0.273749043567     -0.420112300951     0.724498904041      -0.471503728024     0.724498904041      -0.471503728024     -0.273749043567     -0.420112300951     
9200000000.0        -0.278178893478     -0.422041361204     0.720038550876      -0.474007874591     0.720038550876      -0.474007874591     -0.278178893478     -0.422041361204     
9300000000.0        -0.282605027001     -0.423913823463     0.715581562901      -0.476455731152     0.715581562901      -0.476455731152     -0.282605027001     -0.423913823463     
9400000000.0        -0.287026660807     -0.425730231915     0.711128722738      -0.478847844401     0.711128722738      -0.478847844401     -0.287026660807     -0.425730231915     
9500000000.0        -0.291443031139     -0.427491139287     0.706680793428      -0.481184769573     0.706680793428      -0.481184769573     -0.291443031139     -0.427491139287     
9600000000.0        -0.295853393732     -0.429197106264     0.702238518518      -0.483467069854     0.702238518518      -0.483467069854     -0.295853393732     -0.429197106264     
9700000000.0        -0.30025702371      -0.430848700906     0.697802622158      -0.485695315805     0.697802622158      -0.485695315805     -0.30025702371      -0.430848700906     
9800000000.0        -0.304653215473     -0.432446498086     0.693373809216      -0.487870084799     0.693373809216      -0.487870084799     -0.304653215473     -0.432446498086     
9900000000.0        -0.309041282569     -0.433991078943     0.688952765403      -0.48999196047      0.688952765403      -0.48999196047      -0.309041282569     -0.433991078943     
10000000000.0       -0.313420557555     -0.435483030342     0.68454015742       -0.492061532178     0.68454015742       -0.492061532178     -0.313420557555     -0.435483030342     
