# Hz S RI R 50.00 
100000000.0         0.000919403997729   0.000497399244337   0.999078324582      -0.00140787372891   0.999078324582      -0.00140787372891   0.000919403997729   0.000497399244337   
200000000.0         0.000927221209551   0.000994771898296   0.999068406653      -0.00281574416957   0.999068406653      -0.00281574416957   0.000927221209551   0.000994771898296   
300000000.0         0.000934820398499   0.0014921233631     0.999057877329      -0.00422362916121   0.999057877329      -0.00422362916121   0.000934820398499   0.0014921233631     
400000000.0         0.000942999042938   0.00198945305804    0.999045938977      -0.00563153749917   0.999045938977      -0.00563153749917   0.000942999042938   0.00198945305804    
500000000.0         0.000952064150481   0.0024867590902     0.999032284411      -0.00703947509672   0.999032284411      -0.00703947509672   0.000952064150482   0.0024867590902     
600000000.0         0.000962172240869   0.00298403903366    0.999016756907      -0.00844744629304   0.999016756907      -0.00844744629304   0.000962172240869   0.00298403903366    
700000000.0         0.000973415748083   0.00348129020549    0.998999263808      -0.00985545439993   0.998999263808      -0.00985545439993   0.000973415748083   0.00348129020549    
800000000.0         0.000985854545451   0.00397850979087    0.998979744997      -0.0112635019909    0.998979744997      -0.0112635019909    0.000985854545451   0.00397850979087    
900000000.0         0.000999529978229   0.00447569490853    0.998958158869      -0.0126715910752    0.998958158869      -0.0126715910752    0.00099952997823    0.00447569490853    
1000000000.0        0.00101447197437    0.00497284264814    0.998934475221      -0.0140797232125    0.998934475221      -0.0140797232125    0.00101447197437    0.00497284264814    
1100000000.0        0.0010307029961     0.005469950093      0.998908671301      -0.0154878995928    0.998908671301      -0.0154878995928    0.0010307029961     0.005469950093      
1200000000.0        0.00104824039398    0.00596701433451    0.998880729456      -0.0168961210953    0.998880729456      -0.0168961210953    0.00104824039398    0.00596701433451    
1300000000.0        0.00106709788741    0.00646403248144    0.998850635651      -0.0183043883326    0.998850635651      -0.0183043883326    0.00106709788741    0.00646403248144    
1400000000.0        0.0010872865376     0.00696100166627    0.998818378498      -0.0197127016855    0.998818378498      -0.0197127016855    0.0010872865376     0.00696100166627    
1500000000.0        0.00110881541029    0.00745791904927    0.998783948596      -0.0211210613308    0.998783948596      -0.0211210613308    0.00110881541029    0.00745791904927    
1600000000.0        0.00113169204116    0.00795478182131    0.998747338061      -0.0225294672641    0.998747338061      -0.0225294672641    0.00113169204116    0.00795478182131    
1700000000.0        0.00115592277106    0.00845158720564    0.998708540197      -0.0239379193179    0.998708540197      -0.0239379193179    0.00115592277106    0.00845158720564    
1800000000.0        0.00118151299308    0.00894833245897    0.998667549248      -0.025346417178     0.998667549248      -0.025346417178     0.00118151299308    0.00894833245897    
1900000000.0        0.00120846733795    0.00944501487219    0.998624360209      -0.0267549603966    0.998624360209      -0.0267549603966    0.00120846733795    0.00944501487219    
2000000000.0        0.0012367898158     0.0099416317706     0.998578968692      -0.0281635484037    0.998578968692      -0.0281635484037    0.0012367898158     0.0099416317706     
2100000000.0        0.00126648392605    0.0104381805139     0.998531370811      -0.029572180517     0.998531370811      -0.029572180517     0.00126648392605    0.0104381805139     
2200000000.0        0.00129755274376    0.0109346584962     0.998481563098      -0.0309808559508    0.998481563098      -0.0309808559508    0.00129755274376    0.0109346584962     
2300000000.0        0.00132999898838    0.0114310631454     0.998429542434      -0.0323895738235    0.998429542434      -0.0323895738235    0.00132999898838    0.0114310631454     
2400000000.0        0.00136382507907    0.0119273919231     0.998375305997      -0.0337983331645    0.998375305997      -0.0337983331645    0.00136382507907    0.0119273919231     
2500000000.0        0.00139903317954    0.012423642324      0.998318851214      -0.0352071329201    0.998318851214      -0.0352071329201    0.00139903317954    0.012423642324      
2600000000.0        0.00143562523494    0.0129198118753     0.998260175725      -0.0366159719589    0.998260175725      -0.0366159719589    0.00143562523494    0.0129198118753     
2700000000.0        0.00147360300229    0.0134158981362     0.998199277355      -0.0380248490769    0.998199277355      -0.0380248490769    0.00147360300229    0.0134158981362     
2800000000.0        0.00151296807581    0.0139118986973     0.998136154088      -0.0394337630016    0.998136154088      -0.0394337630016    0.00151296807581    0.0139118986973     
2900000000.0        0.00155372190824    0.0144078111799     0.998070804044      -0.0408427123963    0.998070804044      -0.0408427123963    0.00155372190824    0.0144078111799     
3000000000.0        0.00159586582878    0.0149036332354     0.998003225464      -0.0422516958636    0.998003225464      -0.0422516958636    0.00159586582878    0.0149036332354     
3100000000.0        0.00163940105836    0.0153993625447     0.997933416696      -0.0436607119485    0.997933416696      -0.0436607119485    0.00163940105836    0.0153993625447     
3200000000.0        0.00168432872269    0.0158949968177     0.997861376177      -0.0450697591419    0.997861376177      -0.0450697591419    0.00168432872269    0.0158949968177     
3300000000.0        0.0017306498635     0.0163905337922     0.997787102428      -0.0464788358831    0.997787102428      -0.0464788358831    0.0017306498635     0.0163905337922     
3400000000.0        0.00177836544814    0.0168859712338     0.997710594041      -0.0478879405625    0.997710594041      -0.0478879405625    0.00177836544814    0.0168859712338     
3500000000.0        0.00182747637806    0.0173813069349     0.997631849673      -0.0492970715238    0.997631849673      -0.0492970715238    0.00182747637806    0.0173813069349     
3600000000.0        0.00187798349608    0.0178765387143     0.997550868035      -0.0507062270666    0.997550868035      -0.0507062270666    0.00187798349608    0.0178765387143     
3700000000.0        0.00192988759276    0.0183716644165     0.997467647891      -0.0521154054482    0.997467647891      -0.0521154054482    0.00192988759276    0.0183716644165     
3800000000.0        0.00198318941209    0.018866681911      0.99738218805       -0.0535246048853    0.99738218805       -0.0535246048853    0.00198318941209    0.018866681911      
3900000000.0        0.00203788965639    0.0193615890918     0.997294487361      -0.0549338235562    0.997294487361      -0.0549338235562    0.00203788965639    0.0193615890918     
4000000000.0        0.00209398899071    0.0198563838771     0.99720454471       -0.0563430596024    0.99720454471       -0.0563430596024    0.00209398899071    0.0198563838771     
4100000000.0        0.00215148804674    0.020351064208      0.997112359014      -0.0577523111297    0.997112359014      -0.0577523111297    0.00215148804674    0.020351064208      
4200000000.0        0.00221038742625    0.0208456280489     0.99701792922       -0.0591615762101    0.99701792922       -0.0591615762101    0.00221038742625    0.0208456280489     
4300000000.0        0.00227068770417    0.021340073386      0.996921254302      -0.0605708528832    0.996921254302      -0.0605708528832    0.00227068770417    0.021340073386      
4400000000.0        0.00233238943143    0.0218343982275     0.996822333257      -0.061980139157     0.996822333257      -0.061980139157     0.00233238943143    0.0218343982275     
4500000000.0        0.00239549313739    0.0223286006026     0.996721165104      -0.0633894330097    0.996721165104      -0.0633894330097    0.00239549313739    0.0223286006026     
4600000000.0        0.0024599993321     0.0228226785615     0.996617748882      -0.0647987323903    0.996617748882      -0.0647987323903    0.0024599993321     0.0228226785615     
4700000000.0        0.00252590850835    0.0233166301741     0.996512083646      -0.0662080352201    0.996512083646      -0.0662080352201    0.00252590850835    0.0233166301741     
4800000000.0        0.00259322114348    0.0238104535302     0.996404168467      -0.0676173393931    0.996404168467      -0.0676173393931    0.00259322114348    0.0238104535302     
4900000000.0        0.00266193770105    0.024304146739      0.996294002432      -0.0690266427778    0.996294002432      -0.0690266427778    0.00266193770105    0.024304146739      
5000000000.0        0.00273205863237    0.0247977079282     0.996181584638      -0.0704359432171    0.996181584638      -0.0704359432171    0.00273205863237    0.0247977079282     
5100000000.0        0.00280358437785    0.0252911352437     0.996066914197      -0.0718452385302    0.996066914197      -0.0718452385302    0.00280358437785    0.0252911352437     
5200000000.0        0.00287651536831    0.0257844268493     0.995949990229      -0.0732545265123    0.995949990229      -0.0732545265123    0.00287651536831    0.0257844268493     
5300000000.0        0.00295085202608    0.0262775809262     0.995830811864      -0.0746638049362    0.995830811864      -0.0746638049362    0.00295085202608    0.0262775809262     
5400000000.0        0.0030265947661     0.0267705956726     0.995709378241      -0.0760730715526    0.995709378241      -0.0760730715526    0.0030265947661     0.0267705956726     
5500000000.0        0.00310374399686    0.027263469303      0.995585688508      -0.0774823240908    0.995585688508      -0.0774823240908    0.00310374399686    0.027263469303      
5600000000.0        0.00318230012131    0.0277562000481     0.995459741817      -0.0788915602595    0.995459741817      -0.0788915602595    0.00318230012131    0.0277562000481     
5700000000.0        0.00326226353771    0.0282487861544     0.995331537328      -0.0803007777471    0.995331537328      -0.0803007777471    0.00326226353771    0.0282487861544     
5800000000.0        0.00334363464033    0.0287412258834     0.995201074208      -0.0817099742225    0.995201074208      -0.0817099742225    0.00334363464033    0.0287412258834     
5900000000.0        0.00342641382022    0.0292335175118     0.995068351626      -0.0831191473358    0.995068351626      -0.0831191473358    0.00342641382022    0.0292335175118     
6000000000.0        0.00351060146582    0.0297256593307     0.994933368756      -0.0845282947184    0.994933368756      -0.0845282947184    0.00351060146582    0.0297256593307     
6100000000.0        0.00359619796357    0.0302176496453     0.994796124779      -0.0859374139836    0.994796124779      -0.0859374139836    0.00359619796357    0.0302176496453     
6200000000.0        0.0036832036985     0.0307094867745     0.994656618876      -0.0873465027272    0.994656618876      -0.0873465027272    0.0036832036985     0.0307094867745     
6300000000.0        0.00377161905472    0.0312011690508     0.994514850232      -0.0887555585281    0.994514850232      -0.0887555585281    0.00377161905472    0.0312011690508     
6400000000.0        0.00386144441593    0.0316926948195     0.994370818035      -0.0901645789482    0.994370818035      -0.0901645789482    0.00386144441593    0.0316926948195     
6500000000.0        0.00395268016586    0.032184062439      0.994224521476      -0.0915735615331    0.994224521476      -0.0915735615331    0.00395268016586    0.032184062439      
6600000000.0        0.0040453266887     0.0326752702795     0.994075959746      -0.0929825038125    0.994075959746      -0.0929825038125    0.0040453266887     0.0326752702795     
6700000000.0        0.00413938436949    0.0331663167238     0.993925132039      -0.0943914033006    0.993925132039      -0.0943914033006    0.00413938436949    0.0331663167238     
6800000000.0        0.00423485359451    0.0336572001659     0.99377203755       -0.0958002574961    0.99377203755       -0.0958002574961    0.00423485359451    0.0336572001659     
6900000000.0        0.00433173475161    0.0341479190116     0.993616675476      -0.0972090638828    0.993616675476      -0.0972090638828    0.00433173475161    0.0341479190116     
7000000000.0        0.00443002823054    0.0346384716774     0.993459045013      -0.09861781993      0.993459045013      -0.09861781993      0.00443002823054    0.0346384716774     
7100000000.0        0.00452973442326    0.0351288565907     0.993299145359      -0.100026523092     0.993299145359      -0.100026523092     0.00452973442326    0.0351288565907     
7200000000.0        0.00463085372421    0.0356190721894     0.993136975711      -0.101435170811     0.993136975711      -0.101435170811     0.00463085372422    0.0356190721894     
7300000000.0        0.00473338653063    0.0361091169214     0.992972535269      -0.102843760512     0.992972535269      -0.102843760512     0.00473338653064    0.0361091169214     
7400000000.0        0.00483733324276    0.0365989892445     0.992805823229      -0.104252289609     0.992805823229      -0.104252289609     0.00483733324276    0.0365989892445     
7500000000.0        0.00494269426408    0.0370886876261     0.99263683879       -0.105660755502     0.99263683879       -0.105660755502     0.00494269426408    0.0370886876261     
7600000000.0        0.0050494700016     0.0375782105426     0.99246558115       -0.107069155577     0.99246558115       -0.107069155577     0.0050494700016     0.0375782105426     
7700000000.0        0.00515766086599    0.0380675564796     0.992292049505      -0.108477487209     0.992292049505      -0.108477487209     0.00515766086599    0.0380675564796     
7800000000.0        0.00526726727185    0.0385567239313     0.992116243052      -0.109885747757     0.992116243052      -0.109885747757     0.00526726727185    0.0385567239313     
7900000000.0        0.00537828963785    0.0390457114004     0.991938160988      -0.111293934571     0.991938160988      -0.111293934571     0.00537828963785    0.0390457114004     
8000000000.0        0.00549072838693    0.0395345173975     0.991757802507      -0.112702044986     0.991757802507      -0.112702044986     0.00549072838693    0.0395345173975     
8100000000.0        0.0056045839465     0.0400231404414     0.991575166802      -0.114110076326     0.991575166802      -0.114110076326     0.0056045839465     0.0400231404414     
8200000000.0        0.00571985674852    0.0405115790583     0.991390253068      -0.115518025902     0.991390253068      -0.115518025902     0.00571985674852    0.0405115790583     
8300000000.0        0.00583654722975    0.0409998317817     0.991203060495      -0.116925891013     0.991203060495      -0.116925891013     0.00583654722975    0.0409998317817     
8400000000.0        0.00595465583182    0.0414878971524     0.991013588275      -0.118333668949     0.991013588275      -0.118333668949     0.00595465583182    0.0414878971524     
8500000000.0        0.00607418300139    0.0419757737177     0.990821835597      -0.119741356983     0.990821835597      -0.119741356983     0.00607418300139    0.0419757737177     
8600000000.0        0.00619512919028    0.0424634600318     0.990627801648      -0.121148952381     0.990627801648      -0.121148952381     0.00619512919028    0.0424634600318     
8700000000.0        0.00631749485561    0.0429509546551     0.990431485614      -0.122556452396     0.990431485614      -0.122556452396     0.00631749485561    0.0429509546551     
8800000000.0        0.00644128045987    0.0434382561541     0.990232886682      -0.123963854269     0.990232886682      -0.123963854269     0.00644128045987    0.0434382561541     
8900000000.0        0.00656648647108    0.0439253631012     0.990032004034      -0.12537115523      0.990032004034      -0.12537115523      0.00656648647108    0.0439253631012     
9000000000.0        0.00669311336285    0.0444122740742     0.989828836852      -0.126778352498     0.989828836852      -0.126778352498     0.00669311336285    0.0444122740742     
9100000000.0        0.0068211616145     0.0448989876566     0.989623384316      -0.128185443282     0.989623384316      -0.128185443282     0.0068211616145     0.0448989876566     
9200000000.0        0.00695063171115    0.0453855024369     0.989415645604      -0.129592424777     0.989415645604      -0.129592424777     0.00695063171115    0.0453855024369     
9300000000.0        0.00708152414382    0.0458718170083     0.989205619894      -0.13099929417      0.989205619894      -0.13099929417      0.00708152414382    0.0458718170083     
9400000000.0        0.00721383940948    0.046357929969      0.988993306358      -0.132406048636     0.988993306358      -0.132406048636     0.00721383940948    0.046357929969      
9500000000.0        0.00734757801115    0.0468438399215     0.988778704172      -0.133812685339     0.988778704172      -0.133812685339     0.00734757801115    0.0468438399215     
9600000000.0        0.00748274045798    0.0473295454727     0.988561812505      -0.135219201432     0.988561812505      -0.135219201432     0.00748274045798    0.0473295454727     
9700000000.0        0.00761932726529    0.0478150452331     0.988342630528      -0.136625594058     0.988342630528      -0.136625594058     0.00761932726529    0.0478150452331     
9800000000.0        0.00775733895469    0.0483003378175     0.988121157407      -0.138031860348     0.988121157407      -0.138031860348     0.00775733895469    0.0483003378175     
9900000000.0        0.00789677605408    0.048785421844      0.987897392308      -0.139437997425     0.987897392308      -0.139437997425     0.00789677605408    0.048785421844      
10000000000.0       0.00803763909774    0.0492702959341     0.987671334395      -0.140844002397     0.987671334395      -0.140844002397     0.00803763909774    0.0492702959341     
