# Hz S RI R 50.00 
100000000.0         0.000274237204836   -0.00019337742071   0.9997233471        -0.00078482990102   0.9997233471        -0.00078482990102   0.000274237204836   -0.00019337742071   
200000000.0         0.000275161386335   -0.000386761302298  0.999720050196      -0.001569667057     0.999720050196      -0.001569667057     0.000275161386335   -0.000386761302298  
300000000.0         0.000275298803298   -0.000580153194273  0.99971658295       -0.00235451734427   0.99971658295       -0.00235451734427   0.000275298803298   -0.000580153194272  
400000000.0         0.000274887886427   -0.000773554529607  0.99971270683       -0.00313938478774   0.99971270683       -0.00313938478774   0.000274887886427   -0.000773554529607  
500000000.0         0.000274020298487   -0.000966966524733  0.999708330055      -0.00392427263609   0.999708330055      -0.00392427263609   0.000274020298487   -0.000966966524733  
600000000.0         0.000272742691482   -0.00116039022395   0.999703405839      -0.00470918365936   0.999703405839      -0.00470918365936   0.000272742691482   -0.00116039022395   
700000000.0         0.000271082556867   -0.00135382653412   0.999697906543      -0.00549412029021   0.999697906543      -0.00549412029021   0.000271082556867   -0.00135382653412   
800000000.0         0.000269057653775   -0.00154727624831   0.999691814248      -0.00627908470408   0.999691814248      -0.00627908470408   0.000269057653775   -0.00154727624831   
900000000.0         0.000266680204533   -0.00174074006321   0.999685116558      -0.00706407887074   0.999685116558      -0.00706407887074   0.000266680204533   -0.00174074006321   
1000000000.0        0.00026395901993    -0.00193421859243   0.999677804482      -0.00784910459005   0.999677804482      -0.00784910459005   0.000263959019929   -0.00193421859243   
1100000000.0        0.000260900680064   -0.00212771237662   0.999669871247      -0.0086341635178    0.999669871247      -0.0086341635178    0.000260900680064   -0.00212771237662   
1200000000.0        0.000257510237491   -0.00232122189135   0.999661311601      -0.00941925718501   0.999661311601      -0.00941925718501   0.000257510237491   -0.00232122189135   
1300000000.0        0.000253791659492   -0.00251474755351   0.999652121366      -0.0102043870131    0.999652121366      -0.0102043870131    0.000253791659492   -0.00251474755351   
1400000000.0        0.000249748118574   -0.00270828972672   0.999642297154      -0.0109895543261    0.999642297154      -0.0109895543261    0.000249748118574   -0.00270828972672   
1500000000.0        0.000245382190354   -0.00290184872594   0.999631836166      -0.0117747603605    0.999631836166      -0.0117747603605    0.000245382190354   -0.00290184872594   
1600000000.0        0.000240695992529   -0.0030954248209    0.999620736052      -0.0125600062733    0.999620736052      -0.0125600062733    0.000240695992529   -0.0030954248209    
1700000000.0        0.000235691284922   -0.00328901823969   0.999608994816      -0.013345293149     0.999608994816      -0.013345293149     0.000235691284922   -0.00328901823969   
1800000000.0        0.000230369543254   -0.00348262917134   0.99959661074       -0.0141306220054    0.99959661074       -0.0141306220054    0.000230369543254   -0.00348262917134   
1900000000.0        0.000224732014487   -0.00367625776842   0.999583582327      -0.0149159937986    0.999583582327      -0.0149159937986    0.000224732014487   -0.00367625776842   
2000000000.0        0.000218779759151   -0.0038699041492    0.999569908265      -0.0157014094276    0.999569908265      -0.0157014094276    0.000218779759151   -0.0038699041492    
2100000000.0        0.000212513684144   -0.0040635683995    0.999555587386      -0.0164868697379    0.999555587386      -0.0164868697379    0.000212513684144   -0.0040635683995    
2200000000.0        0.000205934568534   -0.00425725057452   0.999540618648      -0.0172723755247    0.999540618648      -0.0172723755247    0.000205934568534   -0.00425725057452   
2300000000.0        0.000199043084089   -0.00445095070034   0.999525001113      -0.0180579275365    0.999525001113      -0.0180579275365    0.000199043084089   -0.00445095070034   
2400000000.0        0.000191839811792   -0.00464466877531   0.999508733928      -0.0188435264773    0.999508733928      -0.0188435264773    0.000191839811792   -0.00464466877531   
2500000000.0        0.000184325255276   -0.00483840477148   0.999491816312      -0.0196291730093    0.999491816312      -0.0196291730093    0.000184325255276   -0.00483840477148   
2600000000.0        0.000176499851821   -0.00503215863557   0.999474247551      -0.0204148677547    0.999474247551      -0.0204148677547    0.000176499851821   -0.00503215863557   
2700000000.0        0.000168363981468   -0.00522593029021   0.999456026981      -0.0212006112983    0.999456026981      -0.0212006112983    0.000168363981468   -0.00522593029021   
2800000000.0        0.00015991797461    -0.00541971963488   0.999437153987      -0.0219864041888    0.999437153987      -0.0219864041888    0.00015991797461    -0.00541971963488   
2900000000.0        0.000151162118363   -0.00561352654672   0.999417627992      -0.0227722469407    0.999417627992      -0.0227722469407    0.000151162118363   -0.00561352654672   
3000000000.0        0.000142096661949   -0.00580735088163   0.999397448457      -0.0235581400358    0.999397448457      -0.0235581400358    0.000142096661949   -0.00580735088163   
3100000000.0        0.000132721821273   -0.00600119247479   0.999376614872      -0.0243440839247    0.999376614872      -0.0243440839247    0.000132721821273   -0.00600119247479   
3200000000.0        0.000123037782845   -0.00619505114159   0.999355126754      -0.0251300790277    0.999355126754      -0.0251300790277    0.000123037782845   -0.00619505114159   
3300000000.0        0.000113044707138   -0.00638892667824   0.999332983645      -0.0259161257366    0.999332983645      -0.0259161257366    0.000113044707138   -0.00638892667824   
3400000000.0        0.000102742731503   -0.00658281886244   0.999310185106      -0.0267022244155    0.999310185106      -0.0267022244155    0.000102742731503   -0.00658281886244   
3500000000.0        9.21319726932e-05   -0.00677672745396   0.99928673072       -0.0274883754017    0.99928673072       -0.0274883754017    9.2131972693e-05    -0.00677672745396   
3600000000.0        8.12125290679e-05   -0.00697065219527   0.999262620084      -0.0282745790071    0.999262620084      -0.0282745790071    8.12125290679e-05   -0.00697065219527   
3700000000.0        6.99844825229e-05   -0.00716459281203   0.999237852811      -0.0290608355187    0.999237852811      -0.0290608355187    6.99844825229e-05   -0.00716459281203   
3800000000.0        5.84479001833e-05   -0.00735854901366   0.999212428527      -0.0298471451999    0.999212428527      -0.0298471451999    5.84479001835e-05   -0.00735854901366   
3900000000.0        4.6602835909e-05    -0.00755252049373   0.999186346871      -0.0306335082908    0.999186346871      -0.0306335082908    4.6602835909e-05    -0.00755252049373   
4000000000.0        3.44493316149e-05   -0.00774650693055   0.999159607492      -0.0314199250094    0.999159607492      -0.0314199250094    3.44493316145e-05   -0.00774650693055   
4100000000.0        2.19874184575e-05   -0.0079405079875    0.999132210048      -0.0322063955521    0.999132210048      -0.0322063955521    2.19874184573e-05   -0.0079405079875    
4200000000.0        9.2171178816e-06    -0.0081345233135    0.999104154209      -0.0329929200946    0.999104154209      -0.0329929200946    9.2171178816e-06    -0.0081345233135    
4300000000.0        -3.86155743282e-06  -0.0083285525434    0.999075439648      -0.0337794987922    0.999075439648      -0.0337794987922    -3.86155743282e-06  -0.0083285525434    
4400000000.0        -1.72486027273e-05  -0.00852259529836   0.999046066051      -0.0345661317807    0.999046066051      -0.0345661317807    -1.72486027273e-05  -0.00852259529836   
4500000000.0        -3.09440204053e-05  -0.0087166511862    0.999016033106      -0.0353528191768    0.999016033106      -0.0353528191768    -3.09440204052e-05  -0.0087166511862    
4600000000.0        -4.49478193422e-05  -0.00891071980177   0.998985340511      -0.0361395610789    0.998985340511      -0.0361395610789    -4.49478193421e-05  -0.00891071980177   
4700000000.0        -5.92600142706e-05  -0.00910480072727   0.998953987966      -0.0369263575675    0.998953987966      -0.0369263575675    -5.92600142706e-05  -0.00910480072727   
4800000000.0        -7.38806252062e-05  -0.00929889353255   0.998921975179      -0.0377132087055    0.998921975179      -0.0377132087055    -7.38806252057e-05  -0.00929889353255   
4900000000.0        -8.8809676945e-05   -0.00949299777549   0.99888930186       -0.038500114539     0.99888930186       -0.038500114539     -8.88096769449e-05  -0.00949299777549   
5000000000.0        -0.00010404719859   -0.00968711300218   0.998855967727      -0.0392870750976    0.998855967727      -0.0392870750976    -0.000104047198591  -0.00968711300218   
5100000000.0        -0.000119593223128  -0.00988123874733   0.9988219725        -0.0400740903949    0.9988219725        -0.0400740903949    -0.000119593223128  -0.00988123874733   
5200000000.0        -0.000135447787036  -0.0100753745344    0.998787315901      -0.0408611604289    0.998787315901      -0.0408611604289    -0.000135447787035  -0.0100753745344    
5300000000.0        -0.000151610929922  -0.0102695198761    0.998751997659      -0.0416482851823    0.998751997659      -0.0416482851823    -0.000151610929922  -0.0102695198761    
5400000000.0        -0.000168082694197  -0.0104636742742    0.998716017503      -0.0424354646232    0.998716017503      -0.0424354646232    -0.000168082694198  -0.0104636742742    
5500000000.0        -0.000184863124774  -0.0106578372204    0.998679375169      -0.043222698705     0.998679375169      -0.043222698705     -0.000184863124774  -0.0106578372204    
5600000000.0        -0.00020195226878   -0.0108520081961    0.998642070391      -0.0440099873672    0.998642070391      -0.0440099873672    -0.00020195226878   -0.0108520081961    
5700000000.0        -0.000219350175303  -0.0110461866726    0.99860410291       -0.0447973305355    0.99860410291       -0.0447973305355    -0.000219350175302  -0.0110461866726    
5800000000.0        -0.000237056895149  -0.0112403721117    0.998565472466      -0.0455847281222    0.998565472466      -0.0455847281222    -0.000237056895149  -0.0112403721117    
5900000000.0        -0.000255072480622  -0.0114345639657    0.998526178804      -0.0463721800266    0.998526178804      -0.0463721800266    -0.000255072480622  -0.0114345639657    
6000000000.0        -0.000273396985313  -0.0116287616773    0.998486221671      -0.0471596861351    0.998486221671      -0.0471596861351    -0.000273396985313  -0.0116287616773    
6100000000.0        -0.000292030463909  -0.0118229646805    0.998445600814      -0.0479472463218    0.998445600814      -0.0479472463218    -0.000292030463909  -0.0118229646805    
6200000000.0        -0.000310972972015  -0.0120171724001    0.998404315985      -0.0487348604484    0.998404315985      -0.0487348604484    -0.000310972972015  -0.0120171724001    
6300000000.0        -0.000330224565982  -0.0122113842524    0.998362366934      -0.0495225283648    0.998362366934      -0.0495225283648    -0.000330224565982  -0.0122113842524    
6400000000.0        -0.000349785302754  -0.012405599645     0.998319753417      -0.0503102499093    0.998319753417      -0.0503102499093    -0.000349785302754  -0.012405599645     
6500000000.0        -0.000369655239719  -0.0125998179774    0.99827647519       -0.0510980249088    0.99827647519       -0.0510980249088    -0.000369655239719  -0.0125998179774    
6600000000.0        -0.00038983443457   -0.0127940386406    0.998232532009      -0.0518858531791    0.998232532009      -0.0518858531791    -0.00038983443457   -0.0127940386406    
6700000000.0        -0.00041032294518   -0.0129882610177    0.998187923635      -0.052673734525     0.998187923635      -0.052673734525     -0.00041032294518   -0.0129882610177    
6800000000.0        -0.000431120829474  -0.0131824844842    0.998142649828      -0.0534616687407    0.998142649828      -0.0534616687407    -0.000431120829474  -0.0131824844842    
6900000000.0        -0.00045222814532   -0.0133767084077    0.998096710351      -0.0542496556101    0.998096710351      -0.0542496556101    -0.00045222814532   -0.0133767084077    
7000000000.0        -0.000473644950417  -0.0135709321482    0.998050104966      -0.0550376949067    0.998050104966      -0.0550376949067    -0.000473644950417  -0.0135709321482    
7100000000.0        -0.000495371302196  -0.0137651550584    0.99800283344       -0.0558257863943    0.99800283344       -0.0558257863943    -0.000495371302196  -0.0137651550584    
7200000000.0        -0.000517407257722  -0.013959376484     0.997954895539      -0.0566139298267    0.997954895539      -0.0566139298267    -0.000517407257721  -0.013959376484     
7300000000.0        -0.000539752873602  -0.0141535957633    0.997906291031      -0.0574021249481    0.997906291031      -0.0574021249481    -0.000539752873602  -0.0141535957633    
7400000000.0        -0.000562408205901  -0.0143478122277    0.997857019685      -0.0581903714935    0.997857019685      -0.0581903714935    -0.000562408205901  -0.0143478122277    
7500000000.0        -0.00058537331006   -0.0145420252019    0.997807081272      -0.0589786691887    0.997807081272      -0.0589786691887    -0.00058537331006   -0.0145420252019    
7600000000.0        -0.000608648240817  -0.014736234004     0.997756475564      -0.0597670177504    0.997756475564      -0.0597670177504    -0.000608648240817  -0.014736234004     
7700000000.0        -0.000632233052135  -0.0149304379454    0.997705202333      -0.0605554168865    0.997705202333      -0.0605554168865    -0.000632233052135  -0.0149304379454    
7800000000.0        -0.000656127797128  -0.0151246363311    0.997653261353      -0.0613438662964    0.997653261353      -0.0613438662964    -0.000656127797128  -0.0151246363311    
7900000000.0        -0.000680332528002  -0.0153188284599    0.997600652402      -0.0621323656708    0.997600652402      -0.0621323656708    -0.000680332528003  -0.0153188284599    
8000000000.0        -0.000704847295985  -0.0155130136242    0.997547375254      -0.0629209146924    0.997547375254      -0.0629209146924    -0.000704847295985  -0.0155130136242    
8100000000.0        -0.000729672151267  -0.0157071911108    0.997493429688      -0.0637095130355    0.997493429688      -0.0637095130355    -0.000729672151268  -0.0157071911108    
8200000000.0        -0.000754807142948  -0.0159013602       0.997438815483      -0.0644981603666    0.997438815483      -0.0644981603666    -0.000754807142948  -0.0159013602       
8300000000.0        -0.000780252318975  -0.0160955201668    0.997383532419      -0.0652868563443    0.997383532419      -0.0652868563443    -0.000780252318975  -0.0160955201668    
8400000000.0        -0.000806007726094  -0.01628967028      0.997327580278      -0.0660756006196    0.997327580278      -0.0660756006196    -0.000806007726094  -0.01628967028      
8500000000.0        -0.000832073409803  -0.0164838098032    0.997270958842      -0.0668643928358    0.997270958842      -0.0668643928358    -0.000832073409803  -0.0164838098032    
8600000000.0        -0.000858449414293  -0.0166779379944    0.997213667894      -0.0676532326291    0.997213667894      -0.0676532326291    -0.000858449414293  -0.0166779379944    
8700000000.0        -0.000885135782417  -0.0168720541059    0.997155707219      -0.0684421196282    0.997155707219      -0.0684421196282    -0.000885135782417  -0.0168720541059    
8800000000.0        -0.00091213255563   -0.0170661573852    0.997097076604      -0.0692310534549    0.997097076604      -0.0692310534549    -0.00091213255563   -0.0170661573852    
8900000000.0        -0.000939439773961  -0.0172602470743    0.997037775835      -0.0700200337238    0.997037775835      -0.0700200337238    -0.000939439773961  -0.0172602470743    
9000000000.0        -0.000967057475961  -0.0174543224101    0.9969778047        -0.0708090600429    0.9969778047        -0.0708090600429    -0.000967057475961  -0.0174543224101    
9100000000.0        -0.000994985698672  -0.0176483826245    0.996917162989      -0.0715981320134    0.996917162989      -0.0715981320134    -0.000994985698672  -0.0176483826245    
9200000000.0        -0.00102322447758   -0.0178424269447    0.996855850491      -0.0723872492299    0.996855850491      -0.0723872492299    -0.00102322447758   -0.0178424269447    
9300000000.0        -0.0010517738466    -0.0180364545929    0.996793866999      -0.0731764112805    0.996793866999      -0.0731764112805    -0.0010517738466    -0.0180364545929    
9400000000.0        -0.00108063383802   -0.0182304647865    0.996731212305      -0.0739656177471    0.996731212305      -0.0739656177471    -0.00108063383802   -0.0182304647865    
9500000000.0        -0.00110980448246   -0.0184244567385    0.996667886203      -0.0747548682051    0.996667886203      -0.0747548682051    -0.00110980448246   -0.0184244567385    
9600000000.0        -0.00113928580887   -0.0186184296571    0.996603888488      -0.0755441622241    0.996603888488      -0.0755441622241    -0.00113928580887   -0.0186184296571    
9700000000.0        -0.00116907784448   -0.0188123827463    0.996539218955      -0.0763334993674    0.996539218955      -0.0763334993674    -0.00116907784448   -0.0188123827463    
9800000000.0        -0.00119918061478   -0.0190063152054    0.996473877401      -0.0771228791927    0.996473877401      -0.0771228791927    -0.00119918061478   -0.0190063152054    
9900000000.0        -0.00122959414347   -0.0192002262296    0.996407863626      -0.0779123012516    0.996407863626      -0.0779123012516    -0.00122959414347   -0.0192002262296    
10000000000.0       -0.00126031845247   -0.0193941150099    0.996341177428      -0.0787017650903    0.996341177428      -0.0787017650903    -0.00126031845247   -0.0193941150099    
