# Hz S RI R 50.00 
100000000.0         -1.90831927793e-05  -0.00577970774338   0.999936918907      -0.00601105722811   0.999936918907      -0.00601105722811   -1.90831927793e-05  -0.00577970774338   
200000000.0         -0.000128983868692  -0.0115584554593    0.999826638949      -0.012021201272     0.999826638949      -0.012021201272     -0.000128983868692  -0.0115584554593    
300000000.0         -0.000308379983127  -0.017335218284     0.999646886004      -0.0180294312235    0.999646886004      -0.0180294312235    -0.000308379983127  -0.017335218284     
400000000.0         -0.000557207139602  -0.0231089195954    0.999397686529      -0.0240346886353    0.999397686529      -0.0240346886353    -0.000557207139601  -0.0231089195954    
500000000.0         -0.000875389451498  -0.0288784558078    0.999079101807      -0.0300358850981    0.999079101807      -0.0300358850981    -0.000875389451498  -0.0288784558078    
600000000.0         -0.00126283039755   -0.0346427057314    0.998691220896      -0.0360319125783    0.998691220896      -0.0360319125783    -0.00126283039755   -0.0346427057314    
700000000.0         -0.00171941002906   -0.0404005358281    0.998234159304      -0.0420216491769    0.998234159304      -0.0420216491769    -0.00171941002906   -0.0404005358281    
800000000.0         -0.00224498367199   -0.046150803752     0.997708058799      -0.0480039629732    0.997708058799      -0.0480039629732    -0.00224498367199   -0.046150803752     
900000000.0         -0.00283938117956   -0.0518923610197    0.997113087487      -0.0539777148997    0.997113087487      -0.0539777148997    -0.00283938117956   -0.0518923610197    
1000000000.0        -0.003502406454     -0.05762405518      0.996449439955      -0.0599417610568    0.996449439955      -0.0599417610568    -0.003502406454     -0.05762405518      
1100000000.0        -0.00423383713034   -0.0633447316708    0.995717337405      -0.0658949546795    0.995717337405      -0.0658949546795    -0.00423383713034   -0.0633447316708    
1200000000.0        -0.00503342437325   -0.0690532354662    0.99491702774       -0.0718361478705    0.99491702774       -0.0718361478705    -0.00503342437325   -0.0690532354662    
1300000000.0        -0.00590089276224   -0.0747484125776    0.994048785615      -0.0777641931706    0.994048785615      -0.0777641931706    -0.00590089276224   -0.0747484125776    
1400000000.0        -0.00683594024998   -0.0804291114435    0.993112912432      -0.0836779450057    0.993112912432      -0.0836779450057    -0.00683594024998   -0.0804291114435    
1500000000.0        -0.00783823818482   -0.086094184236     0.992109736283      -0.089576261042     0.992109736283      -0.089576261042     -0.00783823818482   -0.086094184236     
1600000000.0        -0.00890743139122   -0.0917424880971    0.991039611856      -0.0954580034638    0.991039611856      -0.0954580034638    -0.00890743139122   -0.0917424880971    
1700000000.0        -0.0100431383032    -0.09737288632      0.989902920279      -0.101322040191     0.989902920279      -0.101322040191     -0.0100431383032    -0.09737288632      
1800000000.0        -0.0112449511475    -0.102984249478     0.988700068928      -0.107167246041     0.988700068928      -0.107167246041     -0.0112449511475    -0.102984249478     
1900000000.0        -0.0125124361725    -0.108575456511     0.987431491192      -0.11299250384      0.987431491192      -0.11299250384      -0.0125124361725    -0.108575456511     
2000000000.0        -0.0138451339222    -0.114145395769     0.986097646188      -0.1187967055       0.986097646188      -0.1187967055       -0.0138451339222    -0.114145395769     
2100000000.0        -0.0152425595504    -0.119692966021     0.984699018449      -0.12457875304      0.984699018449      -0.12457875304      -0.0152425595504    -0.119692966021     
2200000000.0        -0.0167042031752    -0.125217077421     0.983236117556      -0.130337559584     0.983236117556      -0.130337559584     -0.0167042031752    -0.125217077421     
2300000000.0        -0.0182295302701    -0.130716652446     0.981709477754      -0.136072050311     0.981709477754      -0.136072050311     -0.0182295302701    -0.130716652446     
2400000000.0        -0.0198179820913    -0.136190626796     0.980119657516      -0.141781163374     0.980119657516      -0.141781163374     -0.0198179820913    -0.136190626796     
2500000000.0        -0.0214689761379    -0.141637950254     0.978467239082      -0.14746385078      0.978467239082      -0.14746385078      -0.0214689761379    -0.141637950254     
2600000000.0        -0.0231819066438    -0.147057587524     0.976752827967      -0.15311907924      0.976752827967      -0.15311907924      -0.0231819066438    -0.147057587524     
2700000000.0        -0.0249561451       -0.152448519024     0.974977052438      -0.158745830977     0.974977052438      -0.158745830977     -0.0249561451       -0.152448519024     
2800000000.0        -0.0267910408046    -0.157809741653     0.973140562958      -0.164343104505     0.973140562958      -0.164343104505     -0.0267910408046    -0.157809741653     
2900000000.0        -0.0286859214393    -0.163140269518     0.971244031617      -0.169909915371     0.971244031617      -0.169909915371     -0.0286859214393    -0.163140269518     
3000000000.0        -0.0306400936708    -0.16843913463      0.969288151523      -0.175445296861     0.969288151523      -0.175445296861     -0.0306400936708    -0.16843913463      
3100000000.0        -0.0326528437743    -0.173705387568     0.967273636179      -0.180948300674     0.967273636179      -0.180948300674     -0.0326528437743    -0.173705387568     
3200000000.0        -0.0347234382795    -0.178938098104     0.96520121884       -0.186417997556     0.96520121884       -0.186417997556     -0.0347234382795    -0.178938098104     
3300000000.0        -0.0368511246349    -0.184136355795     0.963071651844      -0.191853477907     0.963071651844      -0.191853477907     -0.0368511246349    -0.184136355795     
3400000000.0        -0.0390351318906    -0.189299270544     0.960885705934      -0.197253852345     0.960885705934      -0.197253852345     -0.0390351318906    -0.189299270544     
3500000000.0        -0.0412746713976    -0.194425973123     0.958644169551      -0.202618252241     0.958644169551      -0.202618252241     -0.0412746713976    -0.194425973123     
3600000000.0        -0.0435689375202    -0.199515615664     0.956347848129      -0.207945830213     0.956347848129      -0.207945830213     -0.0435689375202    -0.199515615664     
3700000000.0        -0.0459171083634    -0.204567372113     0.953997563362      -0.213235760595     0.953997563362      -0.213235760595     -0.0459171083634    -0.204567372113     
3800000000.0        -0.0483183465097    -0.209580438651     0.95159415247       -0.218487239859     0.95159415247       -0.218487239859     -0.0483183465097    -0.209580438651     
3900000000.0        -0.0507717997672    -0.214554034085     0.94913846745       -0.223699487013     0.94913846745       -0.223699487013     -0.0507717997672    -0.214554034085     
4000000000.0        -0.0532766019247    -0.219487400196     0.946631374321      -0.228871743959     0.946631374321      -0.228871743959     -0.0532766019247    -0.219487400196     
4100000000.0        -0.0558318735144    -0.224379802063     0.944073752357      -0.234003275819     0.944073752357      -0.234003275819     -0.0558318735144    -0.224379802063     
4200000000.0        -0.0584367225792    -0.22923052835      0.941466493328      -0.239093371229     0.941466493328      -0.239093371229     -0.0584367225792    -0.22923052835      
4300000000.0        -0.0610902454445    -0.234038891555     0.938810500721      -0.244141342594     0.938810500721      -0.244141342594     -0.0610902454445    -0.234038891555     
4400000000.0        -0.0637915274913    -0.238804228238     0.936106688968      -0.249146526319     0.936106688968      -0.249146526319     -0.0637915274913    -0.238804228238     
4500000000.0        -0.0665396439315    -0.243525899205     0.933355982675      -0.254108282998     0.933355982675      -0.254108282998     -0.0665396439315    -0.243525899205     
4600000000.0        -0.0693336605821    -0.248203289668     0.930559315842      -0.25902599758      0.930559315842      -0.25902599758      -0.0693336605821    -0.248203289668     
4700000000.0        -0.072172634638     -0.252835809371     0.927717631094      -0.263899079498     0.927717631094      -0.263899079498     -0.072172634638     -0.252835809371     
4800000000.0        -0.075055615442     -0.257422892687     0.924831878908      -0.268726962769     0.924831878908      -0.268726962769     -0.075055615442     -0.257422892687     
4900000000.0        -0.0779816452507    -0.261963998683     0.921903016849      -0.273509106065     0.921903016849      -0.273509106065     -0.0779816452507    -0.261963998683     
5000000000.0        -0.080949759995     -0.266458611159     0.918932008811      -0.278244992751     0.918932008811      -0.278244992751     -0.080949759995     -0.266458611159     
5100000000.0        -0.0839589900346    -0.270906238655     0.915919824259      -0.282934130901     0.915919824259      -0.282934130901     -0.0839589900346    -0.270906238655     
5200000000.0        -0.0870083609051    -0.275306414433     0.912867437482      -0.28757605328      0.912867437482      -0.28757605328      -0.0870083609051    -0.275306414433     
5300000000.0        -0.0900968940563    -0.279658696432     0.90977582686       -0.292170317298     0.90977582686       -0.292170317298     -0.0900968940563    -0.279658696432     
5400000000.0        -0.0932236075813    -0.283962667192     0.906645974125      -0.296716504946     0.906645974125      -0.296716504946     -0.0932236075813    -0.283962667192     
5500000000.0        -0.0963875169361    -0.288217933761     0.903478863654      -0.301214222697     0.903478863654      -0.301214222697     -0.0963875169361    -0.288217933761     
5600000000.0        -0.0995876356465    -0.29242412757      0.900275481749      -0.305663101388     0.900275481749      -0.305663101388     -0.0995876356465    -0.29242412757      
5700000000.0        -0.102822976005     -0.296580904289     0.897036815951      -0.310062796076     0.897036815951      -0.310062796076     -0.102822976005     -0.296580904289     
5800000000.0        -0.106092549752     -0.300687943655     0.893763854351      -0.314412985867     0.893763854351      -0.314412985867     -0.106092549752     -0.300687943655     
5900000000.0        -0.10939536875      -0.304744949286     0.890457584923      -0.318713373737     0.890457584923      -0.318713373737     -0.10939536875      -0.304744949286     
6000000000.0        -0.112730445632     -0.308751648463     0.887118994866      -0.322963686312     0.887118994866      -0.322963686312     -0.112730445632     -0.308751648463     
6100000000.0        -0.116096794449     -0.312707791903     0.883749069965      -0.327163673643     0.883749069965      -0.327163673643     -0.116096794449     -0.312707791903     
6200000000.0        -0.119493431295     -0.316613153507     0.880348793964      -0.331313108953     0.880348793964      -0.331313108953     -0.119493431295     -0.316613153507     
6300000000.0        -0.122919374911     -0.320467530087     0.876919147957      -0.335411788374     0.876919147957      -0.335411788374     -0.122919374911     -0.320467530087     
6400000000.0        -0.126373647288     -0.324270741082     0.873461109794      -0.339459530655     0.873461109794      -0.339459530655     -0.126373647288     -0.324270741082     
6500000000.0        -0.129855274235     -0.328022628254     0.869975653504      -0.343456176864     0.869975653504      -0.343456176864     -0.129855274235     -0.328022628254     
6600000000.0        -0.133363285945     -0.331723055366     0.866463748733      -0.347401590067     0.866463748733      -0.347401590067     -0.133363285945     -0.331723055366     
6700000000.0        -0.136896717536     -0.335371907852     0.862926360203      -0.351295655        0.862926360203      -0.351295655        -0.136896717536     -0.335371907852     
6800000000.0        -0.140454609577     -0.338969092467     0.85936444719       -0.355138277715     0.85936444719       -0.355138277715     -0.140454609577     -0.338969092467     
6900000000.0        -0.144036008592     -0.342514536925     0.855778963008      -0.358929385227     0.855778963008      -0.358929385227     -0.144036008592     -0.342514536925     
7000000000.0        -0.147639967553     -0.34600818953      0.852170854531      -0.362668925139     0.852170854531      -0.362668925139     -0.147639967553     -0.34600818953      
7100000000.0        -0.151265546348     -0.349450018789     0.84854106171       -0.36635686526      0.84854106171       -0.36635686526      -0.151265546348     -0.349450018789     
7200000000.0        -0.154911812238     -0.352840013022     0.844890517133      -0.369993193211     0.844890517133      -0.369993193211     -0.154911812238     -0.352840013022     
7300000000.0        -0.158577840286     -0.356178179953     0.841220145579      -0.373577916025     0.841220145579      -0.373577916025     -0.158577840286     -0.356178179953     
7400000000.0        -0.162262713774     -0.359464546304     0.83753086361       -0.377111059733     0.83753086361       -0.377111059733     -0.162262713774     -0.359464546304     
7500000000.0        -0.165965524605     -0.362699157373     0.833823579172      -0.380592668949     0.833823579172      -0.380592668949     -0.165965524605     -0.362699157373     
7600000000.0        -0.169685373674     -0.365882076605     0.830099191213      -0.384022806439     0.830099191213      -0.384022806439     -0.169685373674     -0.365882076605     
7700000000.0        -0.173421371237     -0.369013385167     0.826358589327      -0.387401552693     0.826358589327      -0.387401552693     -0.173421371237     -0.369013385167     
7800000000.0        -0.177172637247     -0.372093181503     0.822602653406      -0.390729005489     0.822602653406      -0.390729005489     -0.177172637247     -0.372093181503     
7900000000.0        -0.18093830168      -0.375121580895     0.818832253322      -0.394005279447     0.818832253322      -0.394005279447     -0.18093830168      -0.375121580895     
8000000000.0        -0.184717504842     -0.37809871502      0.815048248617      -0.397230505587     0.815048248617      -0.397230505587     -0.184717504842     -0.37809871502      
8100000000.0        -0.188509397657     -0.381024731493     0.811251488217      -0.40040483088      0.811251488217      -0.40040483088      -0.188509397657     -0.381024731493     
8200000000.0        -0.192313141937     -0.383899793425     0.807442810158      -0.403528417795     0.807442810158      -0.403528417795     -0.192313141937     -0.383899793425     
8300000000.0        -0.196127910636     -0.386724078962     0.803623041336      -0.406601443848     0.803623041336      -0.406601443848     -0.196127910636     -0.386724078962     
8400000000.0        -0.199952888085     -0.389497780836     0.799792997269      -0.409624101148     0.799792997269      -0.409624101148     -0.199952888085     -0.389497780836     
8500000000.0        -0.203787270213     -0.392221105909     0.795953481879      -0.412596595941     0.795953481879      -0.412596595941     -0.203787270213     -0.392221105909     
8600000000.0        -0.207630264749     -0.394894274716     0.792105287288      -0.415519148158     0.792105287288      -0.415519148158     -0.207630264749     -0.394894274716     
8700000000.0        -0.211481091406     -0.397517521015     0.788249193632      -0.41839199096      0.788249193632      -0.41839199096      -0.211481091406     -0.397517521015     
8800000000.0        -0.215338982054     -0.400091091332     0.784385968893      -0.421215370286     0.784385968893      -0.421215370286     -0.215338982054     -0.400091091332     
8900000000.0        -0.219203180876     -0.402615244511     0.780516368741      -0.423989544402     0.780516368741      -0.423989544402     -0.219203180876     -0.402615244511     
9000000000.0        -0.223072944502     -0.405090251265     0.776641136395      -0.426714783454     0.776641136395      -0.426714783454     -0.223072944502     -0.405090251265     
9100000000.0        -0.226947542137     -0.407516393733     0.772761002503      -0.429391369022     0.772761002503      -0.429391369022     -0.226947542137     -0.407516393733     
9200000000.0        -0.230826255674     -0.409893965034     0.768876685025      -0.432019593676     0.768876685025      -0.432019593676     -0.230826255674     -0.409893965034     
9300000000.0        -0.23470837978      -0.412223268829     0.764988889145      -0.434599760539     0.764988889145      -0.434599760539     -0.23470837978      -0.412223268829     
9400000000.0        -0.238593221989     -0.41450461889      0.761098307183      -0.437132182855     0.761098307183      -0.437132182855     -0.238593221989     -0.41450461889      
9500000000.0        -0.242480102762     -0.416738338663     0.75720561853       -0.439617183552     0.75720561853       -0.439617183552     -0.242480102762     -0.416738338663     
9600000000.0        -0.246368355545     -0.41892476085      0.753311489593      -0.442055094822     0.753311489593      -0.442055094822     -0.246368355545     -0.41892476085      
9700000000.0        -0.250257326812     -0.421064226984     0.74941657375       -0.444446257702     0.74941657375       -0.444446257702     -0.250257326812     -0.421064226984     
9800000000.0        -0.254146376095     -0.423157087015     0.745521511325      -0.446791021654     0.745521511325      -0.446791021654     -0.254146376095     -0.423157087015     
9900000000.0        -0.258034876002     -0.425203698902     0.74162692956       -0.449089744159     0.74162692956       -0.449089744159     -0.258034876002     -0.425203698902     
10000000000.0       -0.261922212224     -0.427204428209     0.737733442619      -0.451342790314     0.737733442619      -0.451342790314     -0.261922212224     -0.427204428209     
