# Hz S RI R 50.00 
100000000.0         0.00013135356798    -0.00230380528386   0.999848983128      -0.00291000337912   0.999848983128      -0.00291000337912   0.00013135356798    -0.00230380528386   
200000000.0         0.000109659250984   -0.00460755596335   0.999824828357      -0.00581996436597   0.999824828357      -0.00581996436597   0.000109659250984   -0.00460755596335   
300000000.0         7.43103769372e-05   -0.00691118639933   0.999787142133      -0.00872982600987   0.999787142133      -0.00872982600987   7.43103769374e-05   -0.00691118639933   
400000000.0         2.54290282293e-05   -0.00921462247379   0.99973580291       -0.0116395206798    0.99973580291       -0.0116395206798    2.54290282291e-05   -0.00921462247379   
500000000.0         -3.69372350575e-05  -0.0115177856653    0.999670764674      -0.0145489754028    0.999670764674      -0.0145489754028    -3.69372350574e-05  -0.0115177856653    
600000000.0         -0.000112763255057  -0.0138205945308    0.999592004962      -0.0174581137044    0.999592004962      -0.0174581137044    -0.000112763255057  -0.0138205945308    
700000000.0         -0.000202033013624  -0.016122965472     0.999499511709      -0.0203668565467    0.999499511709      -0.0203668565467    -0.000202033013624  -0.016122965472     
800000000.0         -0.000304734777983  -0.0184248132022    0.99939327847       -0.0232751228933    0.99939327847       -0.0232751228933    -0.000304734777984  -0.0184248132022    
900000000.0         -0.000420858928068  -0.0207260510576    0.999273302312      -0.0261828300836    0.999273302312      -0.0261828300836    -0.000420858928068  -0.0207260510576    
1000000000.0        -0.000550396846346  -0.0230265912212    0.999139582755      -0.0290898941007    0.999139582755      -0.0290898941007    -0.000550396846346  -0.0230265912212    
1100000000.0        -0.000693340293615  -0.0253263448908    0.9989921212        -0.0319962297702    0.9989921212        -0.0319962297702    -0.000693340293615  -0.0253263448908    
1200000000.0        -0.000849681031375  -0.02762522241      0.998830920581      -0.0349017509158    0.998830920581      -0.0349017509158    -0.000849681031375  -0.02762522241      
1300000000.0        -0.00101941057964   -0.0299231333751    0.998655985169      -0.0378063704846    0.998655985169      -0.0378063704846    -0.00101941057964   -0.0299231333751    
1400000000.0        -0.00120252005396   -0.0322199867231    0.998467320429      -0.0407100006492    0.998467320429      -0.0407100006492    -0.00120252005396   -0.0322199867231    
1500000000.0        -0.00139900005119   -0.0345156908057    0.998264932942      -0.0436125528946    0.998264932942      -0.0436125528946    -0.00139900005119   -0.0345156908057    
1600000000.0        -0.00160884056672   -0.0368101534542    0.998048830344      -0.0465139380927    0.998048830344      -0.0465139380927    -0.00160884056672   -0.0368101534542    
1700000000.0        -0.00183203093254   -0.0391032820358    0.997819021285      -0.0494140665669    0.997819021285      -0.0494140665669    -0.00183203093254   -0.0391032820358    
1800000000.0        -0.00206855976984   -0.0413949835039    0.997575515405      -0.0523128481493    0.997575515405      -0.0523128481493    -0.00206855976984   -0.0413949835039    
1900000000.0        -0.00231841495186   -0.0436851644428    0.997318323312      -0.0552101922322    0.997318323312      -0.0552101922322    -0.00231841495186   -0.0436851644428    
2000000000.0        -0.00258158357413   -0.0459737311095    0.997047456574      -0.0581060078143    0.997047456574      -0.0581060078143    -0.00258158357413   -0.0459737311095    
2100000000.0        -0.00285805193043   -0.0482605894712    0.996762927706      -0.0610002035437    0.996762927706      -0.0610002035437    -0.00285805193043   -0.0482605894712    
2200000000.0        -0.00314780549288   -0.0505456452401    0.996464750165      -0.0638926877559    0.996464750165      -0.0638926877559    -0.00314780549288   -0.0505456452401    
2300000000.0        -0.00345082889544   -0.0528288039062    0.996152938346      -0.0667833685113    0.996152938346      -0.0667833685113    -0.00345082889544   -0.0528288039062    
2400000000.0        -0.00376710592      -0.0551099707685    0.995827507581      -0.0696721536285    0.995827507581      -0.0696721536285    -0.00376710592      -0.0551099707685    
2500000000.0        -0.00409661948462   -0.057389050963     0.995488474137      -0.0725589507161    0.995488474137      -0.0725589507161    -0.00409661948462   -0.057389050963     
2600000000.0        -0.00443935163354   -0.0596659494912    0.995135855212      -0.0754436672032    0.995135855212      -0.0754436672032    -0.00443935163354   -0.0596659494912    
2700000000.0        -0.00479528352865   -0.0619405712458    0.994769668939      -0.0783262103681    0.994769668939      -0.0783262103681    -0.00479528352865   -0.0619405712458    
2800000000.0        -0.00516439544216   -0.064212821036     0.994389934384      -0.0812064873652    0.994389934384      -0.0812064873652    -0.00516439544216   -0.064212821036     
2900000000.0        -0.00554666675047   -0.0664826036119    0.993996671543      -0.0840844052515    0.993996671543      -0.0840844052515    -0.00554666675047   -0.0664826036119    
3000000000.0        -0.00594207592883   -0.0687498236874    0.993589901348      -0.0869598710119    0.993589901348      -0.0869598710119    -0.00594207592883   -0.0687498236874    
3100000000.0        -0.00635060054696   -0.0710143859632    0.993169645663      -0.089832791583     0.993169645663      -0.089832791583     -0.00635060054696   -0.0710143859632    
3200000000.0        -0.00677221726531   -0.0732761951483    0.992735927284      -0.0927030738768    0.992735927284      -0.0927030738768    -0.00677221726531   -0.0732761951483    
3300000000.0        -0.0072069018321    -0.0755351559816    0.992288769939      -0.0955706248035    0.992288769939      -0.0955706248035    -0.0072069018321    -0.0755351559816    
3400000000.0        -0.00765462908085   -0.0777911732522    0.99182819829       -0.098435351293     0.99182819829       -0.098435351293     -0.00765462908085   -0.0777911732522    
3500000000.0        -0.00811537292858   -0.0800441518199    0.99135423793       -0.101297160317     0.99135423793       -0.101297160317     -0.00811537292858   -0.0800441518199    
3600000000.0        -0.00858910637446   -0.0822939966344    0.990866915382      -0.104155958909     0.990866915382      -0.104155958909     -0.00858910637446   -0.0822939966344    
3700000000.0        -0.00907580149903   -0.0845406127552    0.990366258099      -0.107011654185     0.990366258099      -0.107011654185     -0.00907580149903   -0.0845406127552    
3800000000.0        -0.00957542946376   -0.0867839053698    0.989852294464      -0.109864153365     0.989852294464      -0.109864153365     -0.00957542946377   -0.0867839053698    
3900000000.0        -0.0100879605112    -0.0890237798127    0.989325053786      -0.112713363788     0.989325053786      -0.112713363788     -0.0100879605112    -0.0890237798127    
4000000000.0        -0.0106133639652    -0.091260141583     0.9887845663        -0.115559192936     0.9887845663        -0.115559192936     -0.0106133639652    -0.091260141583     
4100000000.0        -0.0111516082324    -0.0934928963626    0.988230863165      -0.118401548451     0.988230863165      -0.118401548451     -0.0111516082324    -0.0934928963626    
4200000000.0        -0.0117026608025    -0.0957219500332    0.98766397646       -0.121240338151     0.98766397646       -0.121240338151     -0.0117026608025    -0.0957219500332    
4300000000.0        -0.0122664882507    -0.0979472086939    0.987083939186      -0.124075470051     0.987083939186      -0.124075470051     -0.0122664882507    -0.0979472086939    
4400000000.0        -0.0128430562394    -0.100168578678     0.986490785258      -0.126906852377     0.986490785258      -0.126906852377     -0.0128430562394    -0.100168578678     
4500000000.0        -0.0134323295202    -0.102385966569     0.985884549504      -0.129734393588     0.985884549504      -0.129734393588     -0.0134323295202    -0.102385966569     
4600000000.0        -0.0140342719368    -0.104599279218     0.985265267664      -0.132558002389     0.985265267664      -0.132558002389     -0.0140342719368    -0.104599279218     
4700000000.0        -0.0146488464278    -0.106808423758     0.984632976384      -0.135377587751     0.984632976384      -0.135377587751     -0.0146488464278    -0.106808423758     
4800000000.0        -0.0152760150301    -0.109013307623     0.983987713213      -0.138193058924     0.983987713213      -0.138193058924     -0.0152760150301    -0.109013307623     
4900000000.0        -0.0159157388821    -0.111213838559     0.983329516599      -0.141004325454     0.983329516599      -0.141004325454     -0.0159157388821    -0.111213838559     
5000000000.0        -0.0165679782275    -0.113409924644     0.982658425886      -0.1438112972       0.982658425886      -0.1438112972       -0.0165679782275    -0.113409924644     
5100000000.0        -0.0172326924198    -0.115601474298     0.981974481307      -0.146613884352     0.981974481307      -0.146613884352     -0.0172326924198    -0.115601474298     
5200000000.0        -0.0179098399261    -0.117788396304     0.981277723983      -0.14941199744      0.981277723983      -0.14941199744      -0.0179098399261    -0.117788396304     
5300000000.0        -0.0185993783322    -0.119970599818     0.980568195913      -0.152205547354     0.980568195913      -0.152205547354     -0.0185993783322    -0.119970599818     
5400000000.0        -0.0193012643471    -0.122147994384     0.979845939975      -0.154994445359     0.979845939975      -0.154994445359     -0.0193012643471    -0.122147994384     
5500000000.0        -0.0200154538082    -0.124320489951     0.979110999917      -0.157778603105     0.979110999917      -0.157778603105     -0.0200154538082    -0.124320489951     
5600000000.0        -0.0207419016869    -0.126487996883     0.97836342035       -0.160557932648     0.97836342035       -0.160557932648     -0.0207419016869    -0.126487996883     
5700000000.0        -0.0214805620937    -0.128650425977     0.977603246746      -0.163332346459     0.977603246746      -0.163332346459     -0.0214805620937    -0.128650425977     
5800000000.0        -0.0222313882847    -0.130807688474     0.97683052543       -0.166101757442     0.97683052543       -0.166101757442     -0.0222313882847    -0.130807688474     
5900000000.0        -0.0229943326672    -0.132959696072     0.976045303573      -0.168866078942     0.976045303573      -0.168866078942     -0.0229943326672    -0.132959696072     
6000000000.0        -0.0237693468059    -0.13510636094      0.975247629189      -0.171625224767     0.975247629189      -0.171625224767     -0.0237693468059    -0.13510636094      
6100000000.0        -0.02455638143      -0.137247595733     0.974437551122      -0.174379109191     0.974437551122      -0.174379109191     -0.02455638143      -0.137247595733     
6200000000.0        -0.0253553864392    -0.139383313601     0.973615119047      -0.177127646978     0.973615119047      -0.177127646978     -0.0253553864392    -0.139383313601     
6300000000.0        -0.0261663109111    -0.141513428204     0.972780383456      -0.179870753386     0.972780383456      -0.179870753386     -0.0261663109111    -0.141513428204     
6400000000.0        -0.0269891031083    -0.143637853723     0.971933395655      -0.182608344185     0.971933395655      -0.182608344185     -0.0269891031083    -0.143637853723     
6500000000.0        -0.0278237104854    -0.145756504875     0.971074207757      -0.185340335665     0.971074207757      -0.185340335665     -0.0278237104854    -0.145756504875     
6600000000.0        -0.0286700796971    -0.147869296921     0.970202872669      -0.188066644654     0.970202872669      -0.188066644654     -0.0286700796971    -0.147869296921     
6700000000.0        -0.0295281566052    -0.149976145679     0.969319444091      -0.190787188525     0.969319444091      -0.190787188525     -0.0295281566052    -0.149976145679     
6800000000.0        -0.030397886287     -0.152076967538     0.968423976505      -0.193501885209     0.968423976505      -0.193501885209     -0.030397886287     -0.152076967538     
6900000000.0        -0.0312792130434    -0.154171679467     0.967516525164      -0.19621065321      0.967516525164      -0.19621065321      -0.0312792130434    -0.154171679467     
7000000000.0        -0.0321720804067    -0.156260199025     0.966597146091      -0.198913411611     0.966597146091      -0.198913411611     -0.0321720804067    -0.156260199025     
7100000000.0        -0.0330764311495    -0.158342444374     0.965665896061      -0.201610080088     0.965665896061      -0.201610080088     -0.0330764311495    -0.158342444374     
7200000000.0        -0.033992207293     -0.160418334291     0.964722832602      -0.204300578922     0.964722832602      -0.204300578922     -0.033992207293     -0.160418334291     
7300000000.0        -0.0349193501159    -0.162487788175     0.963768013978      -0.206984829008     0.963768013978      -0.206984829008     -0.0349193501159    -0.162487788175     
7400000000.0        -0.0358578001631    -0.164550726058     0.962801499186      -0.209662751863     0.962801499186      -0.209662751863     -0.0358578001631    -0.164550726058     
7500000000.0        -0.0368074972552    -0.166607068618     0.961823347945      -0.212334269645     0.961823347945      -0.212334269645     -0.0368074972552    -0.166607068618     
7600000000.0        -0.037768380497     -0.168656737186     0.960833620684      -0.214999305151     0.960833620684      -0.214999305151     -0.037768380497     -0.168656737186     
7700000000.0        -0.0387403882875    -0.170699653757     0.959832378537      -0.217657781839     0.959832378537      -0.217657781839     -0.0387403882875    -0.170699653757     
7800000000.0        -0.039723458329     -0.172735740996     0.95881968333       -0.220309623826     0.95881968333       -0.220309623826     -0.039723458329     -0.172735740996     
7900000000.0        -0.0407175276367    -0.174764922256     0.957795597573      -0.222954755908     0.957795597573      -0.222954755908     -0.0407175276367    -0.174764922256     
8000000000.0        -0.0417225325489    -0.176787121575     0.956760184453      -0.225593103561     0.956760184453      -0.225593103561     -0.0417225325489    -0.176787121575     
8100000000.0        -0.0427384087362    -0.178802263695     0.955713507817      -0.228224592956     0.955713507817      -0.228224592956     -0.0427384087362    -0.178802263695     
8200000000.0        -0.043765091212     -0.180810274066     0.954655632168      -0.230849150964     0.954655632168      -0.230849150964     -0.043765091212     -0.180810274066     
8300000000.0        -0.0448025143424    -0.182811078854     0.953586622654      -0.233466705166     0.953586622654      -0.233466705166     -0.0448025143424    -0.182811078854     
8400000000.0        -0.0458506118564    -0.184804604951     0.952506545054      -0.23607718386      0.952506545054      -0.23607718386      -0.0458506118564    -0.184804604951     
8500000000.0        -0.0469093168563    -0.186790779982     0.951415465774      -0.238680516073     0.951415465774      -0.238680516073     -0.0469093168563    -0.186790779982     
8600000000.0        -0.047978561828     -0.188769532312     0.95031345183       -0.241276631563     0.95031345183       -0.241276631563     -0.047978561828     -0.188769532312     
8700000000.0        -0.0490582786519    -0.190740791057     0.949200570842      -0.243865460831     0.949200570842      -0.243865460831     -0.0490582786519    -0.190740791057     
8800000000.0        -0.0501483986128    -0.192704486085     0.948076891022      -0.246446935129     0.948076891022      -0.246446935129     -0.0501483986128    -0.192704486085     
8900000000.0        -0.0512488524114    -0.194660548031     0.946942481161      -0.249020986463     0.946942481161      -0.249020986463     -0.0512488524114    -0.194660548031     
9000000000.0        -0.0523595701746    -0.196608908297     0.945797410624      -0.251587547605     0.945797410624      -0.251587547605     -0.0523595701746    -0.196608908297     
9100000000.0        -0.0534804814665    -0.198549499062     0.944641749332      -0.254146552095     0.944641749332      -0.254146552095     -0.0534804814665    -0.198549499062     
9200000000.0        -0.0546115152994    -0.200482253289     0.943475567755      -0.256697934253     0.943475567755      -0.256697934253     -0.0546115152994    -0.200482253289     
9300000000.0        -0.0557526001447    -0.20240710473      0.942298936902      -0.25924162918      0.942298936902      -0.25924162918      -0.0557526001447    -0.20240710473      
9400000000.0        -0.0569036639444    -0.204323987932     0.941111928307      -0.261777572767     0.941111928307      -0.261777572767     -0.0569036639444    -0.204323987932     
9500000000.0        -0.0580646341215    -0.206232838242     0.939914614019      -0.264305701703     0.939914614019      -0.264305701703     -0.0580646341215    -0.206232838242     
9600000000.0        -0.059235437592     -0.208133591816     0.938707066592      -0.266825953476     0.938707066592      -0.266825953476     -0.059235437592     -0.208133591816     
9700000000.0        -0.0604160007758    -0.21002618562      0.937489359072      -0.269338266381     0.937489359072      -0.269338266381     -0.0604160007758    -0.21002618562      
9800000000.0        -0.0616062496079    -0.21191055744      0.936261564986      -0.271842579527     0.936261564986      -0.271842579527     -0.0616062496079    -0.21191055744      
9900000000.0        -0.0628061095503    -0.213786645882     0.93502375833       -0.274338832839     0.93502375833       -0.274338832839     -0.0628061095503    -0.213786645882     
10000000000.0       -0.0640155056027    -0.215654390381     0.93377601356       -0.276826967064     0.93377601356       -0.276826967064     -0.0640155056027    -0.215654390381     
