# Hz S RI R 50.00 
100000000.0         0.00331688019185    0.000817585432077   0.996680414855      -0.00194695815291   0.996680414855      -0.00194695815291   0.00331688019185    0.000817585432077   
200000000.0         0.00334315187721    0.0016350374945     0.996651161257      -0.00389379185151   0.996651161257      -0.00389379185151   0.00334315187721    0.0016350374945     
300000000.0         0.00336676561153    0.00245239199257    0.996623288568      -0.00584054252588   0.996623288568      -0.00584054252588   0.00336676561153    0.00245239199257    
400000000.0         0.00339059522585    0.00326965272915    0.996593922851      -0.00778721822535   0.996593922851      -0.00778721822535   0.00339059522585    0.00326965272915    
500000000.0         0.00341574777543    0.00408681608183    0.996561956932      -0.00973381887936   0.996561956932      -0.00973381887936   0.00341574777543    0.00408681608183    
600000000.0         0.00344278789781    0.00490387515189    0.996526826036      -0.0116803406866    0.996526826036      -0.0116803406866    0.00344278789781    0.00490387515189    
700000000.0         0.00347204909       0.00572082125341    0.996488196516      -0.0136267777268    0.996488196516      -0.0136267777268    0.00347204909       0.00572082125341    
800000000.0         0.00350374732394    0.00653764460339    0.996445852233      -0.0155731227238    0.996445852233      -0.0155731227238    0.00350374732394    0.00653764460339    
900000000.0         0.00353803163746    0.00735433469183    0.996399643972      -0.0175193674645    0.996399643972      -0.0175193674645    0.00353803163746    0.00735433469183    
1000000000.0        0.00357500977916    0.00817088050066    0.996349463793      -0.0194655030516    0.996349463793      -0.0194655030516    0.00357500977916    0.00817088050066    
1100000000.0        0.0036147624649     0.00898727064254    0.996295230775      -0.0214115200672    0.996295230775      -0.0214115200672    0.0036147624649     0.00898727064254    
1200000000.0        0.00365735187311    0.00980349345362    0.996236882526      -0.0233574086854    0.996236882526      -0.0233574086854    0.00365735187311    0.00980349345362    
1300000000.0        0.00370282698986    0.0106195370582     0.996174369832      -0.0253031587516    0.996174369832      -0.0253031587516    0.00370282698986    0.0106195370582     
1400000000.0        0.00375122712219    0.0114353894154     0.99610765315       -0.0272487598411    0.99610765315       -0.0272487598411    0.00375122712219    0.0114353894154     
1500000000.0        0.00380258429223    0.0122510383537     0.996036700209      -0.0291942013044    0.996036700209      -0.0291942013044    0.00380258429223    0.0122510383537     
1600000000.0        0.00385692491878    0.0130664715969     0.995961484334      -0.0311394723009    0.995961484334      -0.0311394723009    0.00385692491878    0.0130664715969     
1700000000.0        0.00391427102899    0.013881676785      0.99588198323       -0.0330845618268    0.99588198323       -0.0330845618268    0.00391427102899    0.013881676785      
1800000000.0        0.00397464115129    0.0146966414893     0.995798178091      -0.0350294587366    0.995798178091      -0.0350294587366    0.00397464115129    0.0146966414893     
1900000000.0        0.00403805098604    0.0155113532261     0.995710052931      -0.0369741517618    0.995710052931      -0.0369741517618    0.00403805098604    0.0155113532261     
2000000000.0        0.004104513918      0.0163257994664     0.99561759407       -0.038918629525     0.99561759407       -0.038918629525     0.004104513918      0.0163257994664     
2100000000.0        0.00417404141381    0.0171399676447     0.995520789739      -0.0408628805529    0.995520789739      -0.0408628805529    0.00417404141381    0.0171399676447     
2200000000.0        0.0042466433344     0.0179538451657     0.995419629764      -0.0428068932867    0.995419629764      -0.0428068932867    0.0042466433344     0.0179538451657     
2300000000.0        0.00432232818369    0.0187674194107     0.995314105322      -0.0447506560913    0.995314105322      -0.0447506560913    0.00432232818369    0.0187674194107     
2400000000.0        0.00440110330849    0.0195806777421     0.995204208737      -0.0466941572627    0.995204208737      -0.0466941572627    0.00440110330849    0.0195806777421     
2500000000.0        0.00448297506105    0.020393607508      0.995089933321      -0.0486373850355    0.995089933321      -0.0486373850355    0.00448297506105    0.020393607508      
2600000000.0        0.00456794893219    0.0212061960456     0.99497127324       -0.0505803275881    0.99497127324       -0.0505803275881    0.00456794893219    0.0212061960456     
2700000000.0        0.00465602966138    0.0220184306843     0.994848223403      -0.0525229730485    0.994848223403      -0.0525229730485    0.00465602966138    0.0220184306843     
2800000000.0        0.0047472213285     0.0228302987487     0.994720779373      -0.0544653094986    0.994720779373      -0.0544653094986    0.0047472213285     0.0228302987487     
2900000000.0        0.00484152743064    0.0236417875607     0.994588937286      -0.0564073249788    0.994588937286      -0.0564073249788    0.00484152743064    0.0236417875607     
3000000000.0        0.0049389509471     0.0244528844418     0.994452693792      -0.0583490074911    0.994452693792      -0.0583490074911    0.0049389509471     0.0244528844418     
3100000000.0        0.00503949439449    0.0252635767149     0.994312045993      -0.0602903450031    0.994312045993      -0.0602903450031    0.00503949439449    0.0252635767149     
3200000000.0        0.00514315987382    0.026073851706      0.994166991404      -0.0622313254507    0.994166991404      -0.0622313254507    0.00514315987382    0.026073851706      
3300000000.0        0.00524994911097    0.0268836967457     0.994017527907      -0.0641719367409    0.994017527907      -0.0641719367409    0.00524994911097    0.0268836967457     
3400000000.0        0.00535986349152    0.0276930991702     0.993863653716      -0.0661121667545    0.993863653716      -0.0661121667545    0.00535986349152    0.0276930991702     
3500000000.0        0.00547290409104    0.0285020463232     0.993705367352      -0.0680520033483    0.993705367352      -0.0680520033483    0.00547290409104    0.0285020463232     
3600000000.0        0.00558907170137    0.0293105255562     0.993542667611      -0.0699914343574    0.993542667611      -0.0699914343574    0.00558907170137    0.0293105255562     
3700000000.0        0.00570836685369    0.0301185242301     0.993375553546      -0.0719304475969    0.993375553546      -0.0719304475969    0.00570836685369    0.0301185242301     
3800000000.0        0.00583078983864    0.0309260297159     0.993204024443      -0.073869030864     0.993204024443      -0.073869030864     0.00583078983864    0.0309260297159     
3900000000.0        0.00595634072419    0.0317330293954     0.993028079804      -0.0758071719396    0.993028079804      -0.0758071719396    0.00595634072419    0.0317330293954     
4000000000.0        0.00608501937128    0.0325395106622     0.992847719334      -0.0777448585901    0.992847719334      -0.0777448585901    0.00608501937128    0.0325395106622     
4100000000.0        0.00621682544783    0.0333454609224     0.992662942926      -0.0796820785683    0.992662942926      -0.0796820785683    0.00621682544783    0.0333454609224     
4200000000.0        0.00635175844107    0.0341508675949     0.992473750647      -0.0816188196158    0.992473750647      -0.0816188196158    0.00635175844107    0.0341508675949     
4300000000.0        0.00648981766866    0.0349557181127     0.992280142727      -0.0835550694632    0.992280142727      -0.0835550694632    0.00648981766866    0.0349557181127     
4400000000.0        0.00663100228856    0.0357599999226     0.992082119554      -0.0854908158323    0.992082119554      -0.0854908158323    0.00663100228856    0.0357599999226     
4500000000.0        0.00677531130791    0.0365637004867     0.991879681658      -0.0874260464365    0.991879681658      -0.0874260464365    0.00677531130791    0.0365637004867     
4600000000.0        0.00692274359106    0.0373668072822     0.991672829708      -0.0893607489826    0.991672829708      -0.0893607489826    0.00692274359106    0.0373668072822     
4700000000.0        0.00707329786668    0.038169307802      0.991461564504      -0.0912949111714    0.991461564504      -0.0912949111714    0.00707329786668    0.038169307802      
4800000000.0        0.0072269727344     0.0389711895555     0.991245886971      -0.0932285206986    0.991245886971      -0.0932285206986    0.0072269727344     0.0389711895555     
4900000000.0        0.00738376667061    0.0397724400688     0.991025798149      -0.0951615652564    0.991025798149      -0.0951615652564    0.00738376667061    0.0397724400688     
5000000000.0        0.00754367803388    0.040573046885      0.990801299196      -0.0970940325336    0.990801299196      -0.0970940325336    0.00754367803388    0.040573046885      
5100000000.0        0.00770670506979    0.0413729975648     0.990572391374      -0.0990259102171    0.990572391374      -0.0990259102171    0.00770670506979    0.0413729975648     
5200000000.0        0.00787284591545    0.0421722796868     0.990339076051      -0.100957185992     0.990339076051      -0.100957185992     0.00787284591545    0.0421722796868     
5300000000.0        0.00804209860352    0.0429708808479     0.990101354695      -0.102887847545     0.990101354695      -0.102887847545     0.00804209860352    0.0429708808479     
5400000000.0        0.00821446106592    0.0437687886634     0.989859228868      -0.104817882559     0.989859228868      -0.104817882559     0.00821446106592    0.0437687886634     
5500000000.0        0.00838993113732    0.0445659907679     0.989612700228      -0.106747278721     0.989612700228      -0.106747278721     0.00838993113732    0.0445659907679     
5600000000.0        0.0085685065582     0.0453624748149     0.989361770521      -0.10867602372      0.989361770521      -0.10867602372      0.0085685065582     0.0453624748149     
5700000000.0        0.00875018497782    0.0461582284778     0.989106441581      -0.110604105246     0.989106441581      -0.110604105246     0.00875018497782    0.0461582284778     
5800000000.0        0.00893496395684    0.0469532394497     0.988846715324      -0.112531510992     0.988846715324      -0.112531510992     0.00893496395684    0.0469532394497     
5900000000.0        0.00912284096981    0.047747495444      0.988582593752      -0.114458228655     0.988582593752      -0.114458228655     0.00912284096981    0.047747495444      
6000000000.0        0.00931381340746    0.0485409841946     0.988314078942      -0.116384245937     0.988314078942      -0.116384245937     0.00931381340746    0.0485409841946     
6100000000.0        0.00950787857883    0.0493336934558     0.988041173053      -0.118309550544     0.988041173053      -0.118309550544     0.00950787857883    0.0493336934558     
6200000000.0        0.0097050337132     0.0501256110035     0.987763878318      -0.120234130188     0.987763878318      -0.120234130188     0.0097050337132     0.0501256110035     
6300000000.0        0.00990527596199    0.0509167246344     0.987482197043      -0.122157972587     0.987482197043      -0.122157972587     0.00990527596199    0.0509167246344     
6400000000.0        0.0101086024004     0.0517070221671     0.987196131608      -0.124081065465     0.987196131608      -0.124081065465     0.0101086024004     0.0517070221671     
6500000000.0        0.0103150100291     0.0524964914417     0.986905684462      -0.126003396554     0.986905684462      -0.126003396554     0.0103150100291     0.0524964914417     
6600000000.0        0.0105244957755     0.0532851203206     0.986610858126      -0.127924953594     0.986610858126      -0.127924953594     0.0105244957755     0.0532851203206     
6700000000.0        0.0107370564956     0.0540728966884     0.986311655187      -0.129845724331     0.986311655187      -0.129845724331     0.0107370564956     0.0540728966884     
6800000000.0        0.0109526889748     0.0548598084522     0.986008078299      -0.131765696522     0.986008078299      -0.131765696522     0.0109526889748     0.0548598084522     
6900000000.0        0.0111713899293     0.055645843542      0.985700130182      -0.133684857932     0.985700130182      -0.133684857932     0.0111713899293     0.055645843542      
7000000000.0        0.0113931560075     0.0564309899107     0.98538781362       -0.135603196336     0.98538781362       -0.135603196336     0.0113931560075     0.0564309899107     
7100000000.0        0.0116179837907     0.0572152355345     0.985071131461      -0.137520699519     0.985071131461      -0.137520699519     0.0116179837907     0.0572152355345     
7200000000.0        0.0118458697945     0.0579985684131     0.984750086616      -0.139437355276     0.984750086616      -0.139437355276     0.0118458697945     0.0579985684131     
7300000000.0        0.0120768104695     0.0587809765696     0.984424682056      -0.141353151413     0.984424682056      -0.141353151413     0.0120768104695     0.0587809765696     
7400000000.0        0.0123108022023     0.0595624480515     0.984094920813      -0.143268075749     0.984094920813      -0.143268075749     0.0123108022023     0.0595624480515     
7500000000.0        0.0125478413165     0.0603429709301     0.98376080598       -0.145182116113     0.98376080598       -0.145182116113     0.0125478413165     0.0603429709301     
7600000000.0        0.0127879240734     0.061122533301      0.983422340708      -0.147095260346     0.983422340708      -0.147095260346     0.0127879240734     0.061122533301      
7700000000.0        0.0130310466726     0.0619011232845     0.983079528206      -0.149007496303     0.983079528206      -0.149007496303     0.0130310466726     0.0619011232845     
7800000000.0        0.0132772052532     0.0626787290257     0.982732371742      -0.150918811851     0.982732371742      -0.150918811851     0.0132772052532     0.0626787290257     
7900000000.0        0.0135263958943     0.0634553386944     0.98238087464       -0.152829194871     0.98238087464       -0.152829194871     0.0135263958943     0.0634553386944     
8000000000.0        0.0137786146154     0.0642309404858     0.982025040279      -0.154738633257     0.982025040279      -0.154738633257     0.0137786146154     0.0642309404858     
8100000000.0        0.0140338573776     0.0650055226204     0.981664872097      -0.156647114918     0.981664872097      -0.156647114918     0.0140338573776     0.0650055226204     
8200000000.0        0.0142921200837     0.0657790733444     0.981300373583      -0.158554627777     0.981300373583      -0.158554627777     0.0142921200837     0.0657790733444     
8300000000.0        0.0145533985791     0.0665515809294     0.980931548284      -0.160461159772     0.980931548284      -0.160461159772     0.0145533985791     0.0665515809294     
8400000000.0        0.0148176886524     0.0673230336734     0.980558399799      -0.162366698857     0.980558399799      -0.162366698857     0.0148176886524     0.0673230336734     
8500000000.0        0.0150849860357     0.0680934199004     0.980180931782      -0.164271232999     0.980180931782      -0.164271232999     0.0150849860357     0.0680934199004     
8600000000.0        0.0153552864053     0.0688627279605     0.979799147937      -0.166174750184     0.979799147937      -0.166174750184     0.0153552864053     0.0688627279605     
8700000000.0        0.0156285853822     0.0696309462308     0.979413052024      -0.168077238413     0.979413052024      -0.168077238413     0.0156285853822     0.0696309462308     
8800000000.0        0.0159048785326     0.0703980631148     0.979022647853      -0.169978685702     0.979022647853      -0.169978685702     0.0159048785326     0.0703980631148     
8900000000.0        0.0161841613683     0.0711640670431     0.978627939287      -0.171879080088     0.978627939287      -0.171879080088     0.0161841613683     0.0711640670431     
9000000000.0        0.0164664293473     0.0719289464733     0.978228930238      -0.17377840962      0.978228930238      -0.17377840962      0.0164664293473     0.0719289464733     
9100000000.0        0.016751677874      0.0726926898903     0.977825624671      -0.17567666237      0.977825624671      -0.17567666237      0.016751677874      0.0726926898903     
9200000000.0        0.0170399022999     0.0734552858066     0.9774180266        -0.177573826422     0.9774180266        -0.177573826422     0.0170399022999     0.0734552858066     
9300000000.0        0.0173310979238     0.0742167227622     0.977006140091      -0.179469889884     0.977006140091      -0.179469889884     0.0173310979238     0.0742167227622     
9400000000.0        0.0176252599924     0.0749769893251     0.976589969256      -0.181364840878     0.976589969256      -0.181364840878     0.0176252599924     0.0749769893251     
9500000000.0        0.0179223837005     0.0757360740913     0.97616951826       -0.183258667548     0.97616951826       -0.183258667548     0.0179223837005     0.0757360740913     
9600000000.0        0.0182224641914     0.0764939656849     0.975744791314      -0.185151358054     0.975744791314      -0.185151358054     0.0182224641914     0.0764939656849     
9700000000.0        0.0185254965576     0.0772506527584     0.97531579268       -0.187042900578     0.97531579268       -0.187042900578     0.0185254965576     0.0772506527584     
9800000000.0        0.0188314758405     0.078006123993      0.974882526667      -0.188933283321     0.974882526667      -0.188933283321     0.0188314758405     0.078006123993      
9900000000.0        0.0191403970316     0.0787603680986     0.974444997631      -0.190822494502     0.974444997631      -0.190822494502     0.0191403970316     0.0787603680986     
10000000000.0       0.019452255072      0.0795133738138     0.974003209978      -0.192710522364     0.974003209978      -0.192710522364     0.019452255072      0.0795133738138     
