# Hz S RI R 50.00 
100000000.0         0.00457171504634    0.00093711108982    0.995426408538      -0.00161959006659   0.995426408538      -0.00161959006659   0.00457171504634    0.00093711108982    
200000000.0         0.00460618670059    0.00187405935585    0.995390593945      -0.00323902513295   0.995390593945      -0.00323902513295   0.00460618670059    0.00187405935585    
300000000.0         0.00463562485354    0.00281089746973    0.99535934629       -0.00485836239401   0.99535934629       -0.00485836239401   0.00463562485354    0.00281089746973    
400000000.0         0.00466399057831    0.00374763702343    0.995328704451      -0.00647761695232   0.995328704451      -0.00647761695232   0.00466399057831    0.00374763702343    
500000000.0         0.00469281077502    0.00468428000485    0.995297141474      -0.00809679379491   0.995297141474      -0.00809679379491   0.00469281077502    0.00468428000485    
600000000.0         0.00472286478369    0.00562082413731    0.995263877958      -0.00971589330856   0.995263877958      -0.00971589330856   0.00472286478369    0.00562082413731    
700000000.0         0.00475461329762    0.00655726480305    0.995228453142      -0.0113349132936    0.995228453142      -0.0113349132936    0.00475461329762    0.00655726480305    
800000000.0         0.00478835495496    0.00749359593799    0.995190568316      -0.012953849912     0.995190568316      -0.012953849912     0.00478835495496    0.00749359593799    
900000000.0         0.00482429608298    0.00842981051326    0.995150017074      -0.0145726982052    0.995150017074      -0.0145726982052    0.00482429608298    0.00842981051326    
1000000000.0        0.00486258606054    0.00936590082105    0.995106649954      -0.0161914524041    0.995106649954      -0.0161914524041    0.00486258606054    0.00936590082105    
1100000000.0        0.00490333698144    0.0103018586564     0.995060354776      -0.0178101061299    0.995060354776      -0.0178101061299    0.00490333698144    0.0103018586564     
1200000000.0        0.00494663537453    0.011237675439      0.995011044916      -0.01942865253      0.995011044916      -0.01942865253      0.00494663537453    0.011237675439      
1300000000.0        0.00499254957944    0.0121733422988     0.99495865194       -0.0210470843743    0.99495865194       -0.0210470843743    0.00499254957944    0.0121733422988     
1400000000.0        0.00504113459595    0.0131088501372     0.994903120745      -0.0226653941259    0.994903120745      -0.0226653941259    0.00504113459595    0.0131088501372     
1500000000.0        0.00509243538937    0.0140441896731     0.994844406262      -0.0242835739944    0.994844406262      -0.0242835739944    0.00509243538937    0.0140441896731     
1600000000.0        0.00514648921252    0.0149793514779     0.994782471128      -0.0259016159767    0.994782471128      -0.0259016159767    0.00514648921252    0.0149793514779     
1700000000.0        0.00520332727962    0.015914326002      0.994717284017      -0.0275195118894    0.994717284017      -0.0275195118894    0.00520332727962    0.015914326002      
1800000000.0        0.00526297599982    0.0168491035968     0.994648818402      -0.0291372533945    0.994648818402      -0.0291372533945    0.00526297599982    0.0168491035968     
1900000000.0        0.00532545790411    0.0177836745313     0.994577051634      -0.0307548320201    0.994577051634      -0.0307548320201    0.0053254579041     0.0177836745313     
2000000000.0        0.00539079235364    0.0187180290062     0.994501964227      -0.0323722391785    0.994501964227      -0.0323722391785    0.00539079235364    0.0187180290062     
2100000000.0        0.00545899608936    0.0196521571652     0.994423539315      -0.0339894661794    0.994423539315      -0.0339894661794    0.00545899608936    0.0196521571652     
2200000000.0        0.00553008366406    0.0205860491044     0.994341762214      -0.0356065042428    0.994341762214      -0.0356065042428    0.00553008366406    0.0205860491044     
2300000000.0        0.00560406778637    0.0215196948804     0.994256620083      -0.0372233445092    0.994256620083      -0.0372233445092    0.00560406778637    0.0215196948804     
2400000000.0        0.00568095959747    0.0224530845165     0.994168101645      -0.0388399780477    0.994168101645      -0.0388399780477    0.00568095959747    0.0224530845165     
2500000000.0        0.00576076889589    0.0233862080092     0.994076196964      -0.0404563958647    0.994076196964      -0.0404563958647    0.00576076889589    0.0233862080092     
2600000000.0        0.00584350432196    0.0243190553322     0.993980897257      -0.0420725889094    0.993980897257      -0.0420725889094    0.00584350432196    0.0243190553322     
2700000000.0        0.00592917351021    0.0252516164411     0.993882194746      -0.0436885480802    0.993882194746      -0.0436885480802    0.00592917351021    0.0252516164411     
2800000000.0        0.00601778321633    0.0261838812769     0.993780082528      -0.0453042642299    0.993780082528      -0.0453042642299    0.00601778321633    0.0261838812769     
2900000000.0        0.00610933942377    0.0271158397693     0.993674554471      -0.0469197281696    0.993674554471      -0.0469197281696    0.00610933942377    0.0271158397693     
3000000000.0        0.00620384743364    0.0280474818392     0.993565605123      -0.0485349306732    0.993565605123      -0.0485349306732    0.00620384743364    0.0280474818392     
3100000000.0        0.00630131194112    0.0289787974015     0.993453229633      -0.0501498624809    0.993453229633      -0.0501498624809    0.00630131194112    0.0289787974015     
3200000000.0        0.00640173710078    0.0299097763671     0.993337423691      -0.0517645143023    0.993337423691      -0.0517645143023    0.00640173710078    0.0299097763671     
3300000000.0        0.00650512658262    0.0308404086446     0.993218183468      -0.0533788768194    0.993218183468      -0.0533788768194    0.00650512658262    0.0308404086446     
3400000000.0        0.00661148362043    0.0317706841425     0.993095505569      -0.0549929406891    0.993095505569      -0.0549929406891    0.00661148362043    0.0317706841425     
3500000000.0        0.00672081105374    0.0327005927705     0.992969386993      -0.0566066965458    0.992969386993      -0.0566066965458    0.00672081105374    0.0327005927705     
3600000000.0        0.00683311136434    0.0336301244408     0.992839825091      -0.0582201350035    0.992839825091      -0.0582201350035    0.00683311136434    0.0336301244408     
3700000000.0        0.0069483867082     0.0345592690695     0.992706817541      -0.0598332466576    0.992706817541      -0.0598332466576    0.0069483867082     0.0345592690695     
3800000000.0        0.00706663894348    0.0354880165775     0.992570362316      -0.061446022087     0.992570362316      -0.061446022087     0.00706663894348    0.0354880165775     
3900000000.0        0.00718786965523    0.0364163568919     0.992430457659      -0.0630584518558    0.992430457659      -0.0630584518558    0.00718786965523    0.0364163568919     
4000000000.0        0.00731208017717    0.0373442799467     0.992287102064      -0.0646705265144    0.992287102064      -0.0646705265144    0.00731208017717    0.0373442799467     
4100000000.0        0.00743927161104    0.0382717756837     0.992140294254      -0.0662822366017    0.992140294254      -0.0662822366017    0.00743927161104    0.0382717756837     
4200000000.0        0.00756944484381    0.0391988340531     0.991990033167      -0.0678935726458    0.991990033167      -0.0678935726458    0.00756944484381    0.0391988340531     
4300000000.0        0.00770260056302    0.0401254450146     0.991836317936      -0.0695045251655    0.991836317936      -0.0695045251655    0.00770260056302    0.0401254450146     
4400000000.0        0.00783873927053    0.0410515985378     0.99167914788       -0.0711150846714    0.99167914788       -0.0711150846714    0.00783873927053    0.0410515985378     
4500000000.0        0.0079778612948     0.0419772846028     0.991518522488      -0.0727252416671    0.991518522488      -0.0727252416671    0.0079778612948     0.0419772846028     
4600000000.0        0.008119966802      0.0429024932008     0.991354441411      -0.0743349866501    0.991354441411      -0.0743349866501    0.008119966802      0.0429024932008     
4700000000.0        0.00826505580596    0.0438272143348     0.991186904452      -0.0759443101129    0.991186904452      -0.0759443101129    0.00826505580596    0.0438272143348     
4800000000.0        0.00841312817725    0.0447514380198     0.991015911553      -0.0775532025436    0.991015911553      -0.0775532025436    0.00841312817725    0.0447514380198     
4900000000.0        0.00856418365132    0.0456751542835     0.990841462791      -0.0791616544271    0.990841462791      -0.0791616544271    0.00856418365132    0.0456751542835     
5000000000.0        0.00871822183591    0.0465983531663     0.99066355837       -0.0807696562458    0.99066355837       -0.0807696562458    0.00871822183591    0.0465983531663     
5100000000.0        0.00887524221783    0.0475210247225     0.990482198613      -0.08237719848      0.990482198613      -0.08237719848      0.00887524221783    0.0475210247225     
5200000000.0        0.0090352441691     0.0484431590197     0.990297383955      -0.0839842716093    0.990297383955      -0.0839842716093    0.0090352441691     0.0484431590197     
5300000000.0        0.00919822695257    0.04936474614       0.990109114941      -0.0855908661126    0.990109114941      -0.0855908661126    0.00919822695257    0.04936474614       
5400000000.0        0.00936418972707    0.0502857761797     0.989917392218      -0.0871969724692    0.989917392218      -0.0871969724692    0.00936418972707    0.0502857761797     
5500000000.0        0.00953313155212    0.0512062392499     0.98972221653       -0.0888025811593    0.98972221653       -0.0888025811593    0.00953313155212    0.0512062392499     
5600000000.0        0.00970505139226    0.0521261254768     0.989523588718      -0.0904076826642    0.989523588718      -0.0904076826642    0.00970505139226    0.0521261254768     
5700000000.0        0.00987994812102    0.0530454250019     0.989321509708      -0.0920122674677    0.989321509708      -0.0920122674677    0.00987994812102    0.0530454250019     
5800000000.0        0.0100578205246     0.0539641279824     0.989115980517      -0.0936163260558    0.989115980517      -0.0936163260558    0.0100578205246     0.0539641279824     
5900000000.0        0.0102386673054     0.0548822245911     0.988907002241      -0.0952198489176    0.988907002241      -0.0952198489176    0.0102386673054     0.0548822245911     
6000000000.0        0.0104224870847     0.0557997050171     0.988694576059      -0.0968228265457    0.988694576059      -0.0968228265457    0.0104224870847     0.0557997050171     
6100000000.0        0.0106092784062     0.0567165594656     0.988478703224      -0.0984252494369    0.988478703224      -0.0984252494369    0.0106092784062     0.0567165594656     
6200000000.0        0.0107990397382     0.0576327781585     0.988259385064      -0.100027108092     0.988259385064      -0.100027108092     0.0107990397382     0.0576327781585     
6300000000.0        0.0109917694763     0.0585483513342     0.988036622981      -0.101628393018     0.988036622981      -0.101628393018     0.0109917694763     0.0585483513342     
6400000000.0        0.0111874659458     0.0594632692483     0.987810418444      -0.103229094724     0.987810418444      -0.103229094724     0.0111874659458     0.0594632692483     
6500000000.0        0.0113861274037     0.0603775221731     0.987580772989      -0.10482920373      0.987580772989      -0.10482920373      0.0113861274037     0.0603775221731     
6600000000.0        0.0115877520408     0.0612911003986     0.987347688219      -0.106428710556     0.987347688219      -0.106428710556     0.0115877520408     0.0612911003986     
6700000000.0        0.0117923379834     0.062203994232      0.987111165801      -0.108027605734     0.987111165801      -0.108027605734     0.0117923379834     0.062203994232      
6800000000.0        0.0119998832955     0.0631161939982     0.98687120746       -0.109625879798     0.98687120746       -0.109625879798     0.0119998832955     0.0631161939982     
6900000000.0        0.01221038598       0.0640276900399     0.986627814986      -0.111223523294     0.986627814986      -0.111223523294     0.01221038598       0.0640276900399     
7000000000.0        0.0124238439804     0.0649384727177     0.986380990225      -0.112820526771     0.986380990225      -0.112820526771     0.0124238439804     0.0649384727177     
7100000000.0        0.0126402551824     0.0658485324103     0.986130735079      -0.114416880789     0.986130735079      -0.114416880789     0.0126402551824     0.0658485324103     
7200000000.0        0.0128596174151     0.0667578595146     0.985877051509      -0.116012575915     0.985877051509      -0.116012575915     0.0128596174151     0.0667578595146     
7300000000.0        0.0130819284522     0.067666444446      0.985619941528      -0.117607602723     0.985619941528      -0.117607602723     0.0130819284522     0.067666444446      
7400000000.0        0.0133071860135     0.0685742776384     0.985359407203      -0.119201951798     0.985359407203      -0.119201951798     0.0133071860135     0.0685742776384     
7500000000.0        0.0135353877656     0.0694813495442     0.985095450654      -0.120795613734     0.985095450654      -0.120795613734     0.0135353877656     0.0694813495442     
7600000000.0        0.0137665313236     0.0703876506347     0.984828074052      -0.122388579133     0.984828074052      -0.122388579133     0.0137665313236     0.0703876506347     
7700000000.0        0.0140006142514     0.0712931714        0.984557279618      -0.123980838606     0.984557279618      -0.123980838606     0.0140006142514     0.0712931714        
7800000000.0        0.0142376340632     0.0721979023495     0.984283069623      -0.125572382776     0.984283069623      -0.125572382776     0.0142376340632     0.0721979023495     
7900000000.0        0.0144775882244     0.0731018340114     0.984005446384      -0.127163202275     0.984005446384      -0.127163202275     0.0144775882244     0.0731018340114     
8000000000.0        0.0147204741519     0.0740049569335     0.983724412269      -0.128753287745     0.983724412269      -0.128753287745     0.0147204741519     0.0740049569335     
8100000000.0        0.0149662892155     0.0749072616826     0.98343996969       -0.130342629839     0.98343996969       -0.130342629839     0.0149662892155     0.0749072616826     
8200000000.0        0.0152150307387     0.0758087388453     0.983152121106      -0.131931219221     0.983152121106      -0.131931219221     0.0152150307387     0.0758087388453     
8300000000.0        0.015466695999      0.0767093790278     0.982860869023      -0.133519046566     0.982860869023      -0.133519046566     0.015466695999      0.0767093790278     
8400000000.0        0.0157212822289     0.0776091728558     0.982566215988      -0.13510610256      0.982566215988      -0.13510610256      0.0157212822289     0.0776091728558     
8500000000.0        0.0159787866164     0.0785081109749     0.982268164595      -0.136692377901     0.982268164595      -0.136692377901     0.0159787866164     0.0785081109749     
8600000000.0        0.0162392063061     0.0794061840508     0.981966717481      -0.138277863299     0.981966717481      -0.138277863299     0.0162392063061     0.0794061840508     
8700000000.0        0.0165025383992     0.080303382769      0.981661877324      -0.139862549474     0.981661877324      -0.139862549474     0.0165025383992     0.080303382769      
8800000000.0        0.0167687799544     0.0811996978352     0.981353646845      -0.14144642716      0.981353646845      -0.14144642716      0.0167687799544     0.0811996978352     
8900000000.0        0.0170379279885     0.0820951199753     0.981042028807      -0.143029487104     0.981042028807      -0.143029487104     0.0170379279885     0.0820951199753     
9000000000.0        0.0173099794769     0.0829896399355     0.980727026015      -0.144611720064     0.980727026015      -0.144611720064     0.0173099794769     0.0829896399355     
9100000000.0        0.017584931354      0.0838832484825     0.980408641312      -0.14619311681      0.980408641312      -0.14619311681      0.017584931354      0.0838832484825     
9200000000.0        0.0178627805138     0.0847759364034     0.980086877583      -0.147773668129     0.980086877583      -0.147773668129     0.0178627805138     0.0847759364034     
9300000000.0        0.0181435238105     0.0856676945059     0.979761737753      -0.149353364816     0.979761737753      -0.149353364816     0.0181435238105     0.0856676945059     
9400000000.0        0.0184271580586     0.0865585136185     0.979433224784      -0.150932197682     0.979433224784      -0.150932197682     0.0184271580586     0.0865585136185     
9500000000.0        0.0187136800338     0.0874483845904     0.97910134168       -0.152510157552     0.97910134168       -0.152510157552     0.0187136800338     0.0874483845904     
9600000000.0        0.0190030864729     0.0883372982916     0.978766091481      -0.154087235264     0.978766091481      -0.154087235264     0.0190030864729     0.0883372982916     
9700000000.0        0.0192953740749     0.089225245613      0.978427477266      -0.15566342167      0.978427477266      -0.15566342167      0.0192953740749     0.089225245613      
9800000000.0        0.0195905395006     0.0901122174668     0.978085502151      -0.157238707635     0.978085502151      -0.157238707635     0.0195905395006     0.0901122174668     
9900000000.0        0.0198885793736     0.0909982047862     0.977740169289      -0.158813084038     0.977740169289      -0.158813084038     0.0198885793736     0.0909982047862     
10000000000.0       0.0201894902805     0.0918831985253     0.977391481871      -0.160386541776     0.977391481871      -0.160386541776     0.0201894902805     0.0918831985253     
