# Hz S RI R 50.00 
100000000.0         0.000158147793344   -0.00713061805515   0.999703254291      -0.00850695887526   0.999703254291      -0.00850695887526   0.000158147793344   -0.00713061805515   
200000000.0         -2.99458956473e-05  -0.0142587148709    0.999509241183      -0.0170114697256    0.999509241183      -0.0170114697256    -2.99458956471e-05  -0.0142587148709    
300000000.0         -0.000339642800415  -0.0213817556368    0.999192515202      -0.0255110483274    0.999192515202      -0.0255110483274    -0.000339642800415  -0.0213817556368    
400000000.0         -0.000770578812767  -0.02849714916      0.998753047972      -0.0340031436711    0.998753047972      -0.0340031436711    -0.000770578812767  -0.02849714916      
500000000.0         -0.00132243655202   -0.0356022795193    0.998191005532      -0.0424851754002    0.998191005532      -0.0424851754002    -0.00132243655202   -0.0356022795193    
600000000.0         -0.00199486043311   -0.0426945192069    0.997506665865      -0.0509545486771    0.997506665865      -0.0509545486771    -0.00199486043311   -0.0426945192069    
700000000.0         -0.0027874347639    -0.0497712372734    0.99670039832       -0.0594086631642    0.99670039832       -0.0594086631642    -0.0027874347639    -0.0497712372734    
800000000.0         -0.00369967572021   -0.0568298053743    0.995772656157      -0.0678449195556    0.995772656157      -0.0678449195556    -0.00369967572021   -0.0568298053743    
900000000.0         -0.00473102790566   -0.0638676027383    0.994723973114      -0.0762607248609    0.994723973114      -0.0762607248609    -0.00473102790566   -0.0638676027383    
1000000000.0        -0.00588086284696   -0.0708820205058    0.993554961426      -0.0846534969609    0.993554961426      -0.0846534969609    -0.00588086284696   -0.0708820205058    
1100000000.0        -0.00714847846943   -0.0778704656592    0.992266310424      -0.0930206686981    0.992266310424      -0.0930206686981    -0.00714847846943   -0.0778704656592    
1200000000.0        -0.00853309914903   -0.0848303646687    0.990858785333      -0.101359691643     0.990858785333      -0.101359691643     -0.00853309914903   -0.0848303646687    
1300000000.0        -0.0100338761482    -0.0917591669212    0.989333226116      -0.109668039618     0.989333226116      -0.109668039618     -0.0100338761482    -0.0917591669212    
1400000000.0        -0.0116498883342    -0.0986543479761    0.98769054629       -0.117943212027     0.98769054629       -0.117943212027     -0.0116498883342    -0.0986543479761    
1500000000.0        -0.0133801431225    -0.105513412672     0.985931731651      -0.126182737029     0.985931731651      -0.126182737029     -0.0133801431225    -0.105513412672     
1600000000.0        -0.0152235776077    -0.112333898099     0.984057838931      -0.134384174559     0.984057838931      -0.134384174559     -0.0152235776077    -0.112333898099     
1700000000.0        -0.0171790598605    -0.119113376452     0.982069994332      -0.142545119221     0.982069994332      -0.142545119221     -0.0171790598605    -0.119113376452     
1800000000.0        -0.0192453903705    -0.125849457759     0.979969391967      -0.150663203062     0.979969391967      -0.150663203062     -0.0192453903705    -0.125849457759     
1900000000.0        -0.0214213036232    -0.132539792502     0.977757292196      -0.158736098218     0.977757292196      -0.158736098218     -0.0214213036232    -0.132539792502     
2000000000.0        -0.0237054697999    -0.139182074113     0.975435019861      -0.166761519444     0.975435019861      -0.166761519444     -0.0237054697999    -0.139182074113     
2100000000.0        -0.0260964965894    -0.145774041366     0.973003962417      -0.174737226527     0.973003962417      -0.174737226527     -0.0260964965894    -0.145774041366     
2200000000.0        -0.0285929311053    -0.152313480648     0.970465567977      -0.182661026578     0.970465567977      -0.182661026578     -0.0285929311053    -0.152313480648     
2300000000.0        -0.0311932618986    -0.158798228114     0.967821343269      -0.19053077621      0.967821343269      -0.19053077621      -0.0311932618986    -0.158798228114     
2400000000.0        -0.0338959210582    -0.165226171725     0.96507285151       -0.198344383593     0.96507285151       -0.198344383593     -0.0338959210582    -0.165226171725     
2500000000.0        -0.0366992863928    -0.171595253163     0.962221710199      -0.206099810385     0.962221710199      -0.206099810385     -0.0366992863928    -0.171595253163     
2600000000.0        -0.0396016836853    -0.177903469634     0.959269588851      -0.213795073547     0.959269588851      -0.213795073547     -0.0396016836853    -0.177903469634     
2700000000.0        -0.0426013890142    -0.184148875538     0.956218206659      -0.22142824703      0.956218206659      -0.22142824703      -0.0426013890142    -0.184148875538     
2800000000.0        -0.0456966311325    -0.190329584024     0.953069330105      -0.22899746334      0.953069330105      -0.22899746334      -0.0456966311325    -0.190329584024     
2900000000.0        -0.048885593899     -0.196443768415     0.949824770517      -0.236500914974     0.949824770517      -0.236500914974     -0.048885593899     -0.196443768415     
3000000000.0        -0.0521664187544    -0.202489663512     0.946486381588      -0.243936855738     0.946486381588      -0.243936855738     -0.0521664187544    -0.202489663512     
3100000000.0        -0.0555372072337    -0.208465566774     0.943056056854      -0.25130360193      0.943056056854      -0.25130360193      -0.0555372072337    -0.208465566774     
3200000000.0        -0.0589960235108    -0.214369839366     0.939535727148      -0.258599533403     0.939535727148      -0.258599533403     -0.0589960235108    -0.214369839366     
3300000000.0        -0.0625408969661    -0.220200907091     0.935927358022      -0.265823094503     0.935927358022      -0.265823094503     -0.0625408969661    -0.220200907091     
3400000000.0        -0.0661698247713    -0.225957261192     0.93223294716       -0.272972794879     0.93223294716       -0.272972794879     -0.0661698247713    -0.225957261192     
3500000000.0        -0.0698807744853    -0.231637459032     0.928454521782      -0.28004721017      0.928454521782      -0.28004721017      -0.0698807744853    -0.231637459032     
3600000000.0        -0.0736716866537    -0.237240124654     0.924594136035      -0.287044982573     0.924594136035      -0.287044982573     -0.0736716866537    -0.237240124654     
3700000000.0        -0.0775404774074    -0.242763949219     0.920653868398      -0.293964821284     0.920653868398      -0.293964821284     -0.0775404774074    -0.242763949219     
3800000000.0        -0.0814850410517    -0.248207691322     0.916635819086      -0.300805502828     0.916635819086      -0.300805502828     -0.0814850410517    -0.248207691322     
3900000000.0        -0.0855032526432    -0.253570177201     0.912542107473      -0.307565871264     0.912542107473      -0.307565871264     -0.0855032526432    -0.253570177201     
4000000000.0        -0.0895929705458    -0.258850300821     0.908374869534      -0.31424483828      0.908374869534      -0.31424483828      -0.0895929705458    -0.258850300821     
4100000000.0        -0.0937520389627    -0.264047023852     0.904136255309      -0.320841383178     0.904136255309      -0.320841383178     -0.0937520389627    -0.264047023852     
4200000000.0        -0.097978290438     -0.26915937554      0.899828426403      -0.327354552746     0.899828426403      -0.327354552746     -0.097978290438     -0.26915937554      
4300000000.0        -0.102269548323     -0.274186452471     0.895453553518      -0.333783461026     0.895453553518      -0.333783461026     -0.102269548323     -0.274186452471     
4400000000.0        -0.106623629204     -0.279127418228     0.891013814021      -0.340127288981     0.891013814021      -0.340127288981     -0.106623629204     -0.279127418228     
4500000000.0        -0.111038345285     -0.283981502962     0.886511389564      -0.346385284063     0.886511389564      -0.346385284063     -0.111038345285     -0.283981502962     
4600000000.0        -0.115511506721     -0.288748002853     0.881948463746      -0.352556759685     0.881948463746      -0.352556759685     -0.115511506721     -0.288748002853     
4700000000.0        -0.120040923902     -0.293426279492     0.87732721983       -0.358641094604     0.87732721983       -0.358641094604     -0.120040923902     -0.293426279492     
4800000000.0        -0.12462440968      -0.298015759168     0.872649838514      -0.36463773221      0.872649838514      -0.36463773221      -0.12462440968      -0.298015759168     
4900000000.0        -0.129259781538     -0.302515932082     0.867918495764      -0.370546179745     0.867918495764      -0.370546179745     -0.129259781538     -0.302515932082     
5000000000.0        -0.133944863695     -0.306926351469     0.863135360705      -0.376366007432     0.863135360705      -0.376366007432     -0.133944863695     -0.306926351469     
5100000000.0        -0.138677489145     -0.311246632659     0.85830259358       -0.382096847531     0.85830259358       -0.382096847531     -0.138677489145     -0.311246632659     
5200000000.0        -0.143455501638     -0.315476452057     0.853422343773      -0.387738393333     0.853422343773      -0.387738393333     -0.143455501638     -0.315476452057     
5300000000.0        -0.14827675758      -0.319615546069     0.848496747904      -0.393290398076     0.848496747904      -0.393290398076     -0.14827675758      -0.319615546069     
5400000000.0        -0.15313912787      -0.323663709952     0.843527927994      -0.398752673813     0.843527927994      -0.398752673813     -0.15313912787      -0.323663709952     
5500000000.0        -0.158040499658     -0.327620796623     0.838517989702      -0.404125090213     0.838517989702      -0.404125090213     -0.158040499658     -0.327620796623     
5600000000.0        -0.162978778037     -0.331486715405     0.833469020639      -0.40940757331      0.833469020639      -0.40940757331      -0.162978778037     -0.331486715405     
5700000000.0        -0.167951887654     -0.335261430729     0.828383088752      -0.414600104214     0.828383088752      -0.414600104214     -0.167951887654     -0.335261430729     
5800000000.0        -0.172957774243     -0.338944960792     0.823262240787      -0.419702717767     0.823262240787      -0.419702717767     -0.172957774243     -0.338944960792     
5900000000.0        -0.177994406091     -0.342537376174     0.818108500833      -0.424715501165     0.818108500833      -0.424715501165     -0.177994406091     -0.342537376174     
6000000000.0        -0.183059775414     -0.346038798424     0.812923868932      -0.429638592542     0.812923868932      -0.429638592542     -0.183059775414     -0.346038798424     
6100000000.0        -0.188151899669     -0.349449398612     0.807710319775      -0.43447217953      0.807710319775      -0.43447217953      -0.188151899669     -0.349449398612     
6200000000.0        -0.193268822781     -0.352769395854     0.802469801474      -0.439216497781     0.802469801474      -0.439216497781     -0.193268822781     -0.352769395854     
6300000000.0        -0.198408616295     -0.355999055815     0.797204234406      -0.443871829478     0.797204234406      -0.443871829478     -0.198408616295     -0.355999055815     
6400000000.0        -0.203569380451     -0.359138689193     0.791915510138      -0.448438501814     0.791915510138      -0.448438501814     -0.203569380451     -0.359138689193     
6500000000.0        -0.208749245188     -0.362188650189     0.786605490424      -0.452916885471     0.786605490424      -0.452916885471     -0.208749245188     -0.362188650189     
6600000000.0        -0.21394637107      -0.365149334962     0.781276006276      -0.457307393072     0.781276006276      -0.457307393072     -0.21394637107      -0.365149334962     
6700000000.0        -0.219158950136     -0.368021180081     0.775928857117      -0.461610477638     0.775928857117      -0.461610477638     -0.219158950136     -0.368021180081     
6800000000.0        -0.224385206682     -0.370804660967     0.770565809993      -0.465826631029     0.770565809993      -0.465826631029     -0.224385206682     -0.370804660967     
6900000000.0        -0.229623397973     -0.373500290336     0.765188598866      -0.469956382391     0.765188598866      -0.469956382391     -0.229623397973     -0.373500290336     
7000000000.0        -0.234871814878     -0.376108616644     0.759798923972      -0.474000296603     0.759798923972      -0.474000296603     -0.234871814878     -0.376108616644     
7100000000.0        -0.240128782442     -0.378630222538     0.754398451254      -0.477958972728     0.754398451254      -0.477958972728     -0.240128782442     -0.378630222538     
7200000000.0        -0.245392660396     -0.381065723307     0.74898881185       -0.481833042467     0.74898881185       -0.481833042467     -0.245392660396     -0.381065723307     
7300000000.0        -0.250661843589     -0.383415765356     0.743571601654      -0.485623168633     0.743571601654      -0.485623168633     -0.250661843589     -0.383415765356     
7400000000.0        -0.255934762373     -0.385681024676     0.73814838094       -0.489330043626     0.73814838094       -0.489330043626     -0.255934762373     -0.385681024676     
7500000000.0        -0.261209882914     -0.387862205345     0.732720674044      -0.49295438793      0.732720674044      -0.49295438793      -0.261209882914     -0.387862205345     
7600000000.0        -0.266485707451     -0.389960038036     0.727289969107      -0.496496948628     0.727289969107      -0.496496948628     -0.266485707451     -0.389960038036     
7700000000.0        -0.271760774495     -0.391975278545     0.72185771787       -0.49995849793      0.72185771787       -0.49995849793      -0.271760774495     -0.391975278545     
7800000000.0        -0.277033658975     -0.393908706343     0.716425335535      -0.503339831723     0.716425335535      -0.503339831723     -0.277033658975     -0.393908706343     
7900000000.0        -0.28230297233      -0.395761123153     0.710994200668      -0.506641768153     0.710994200668      -0.506641768153     -0.28230297233      -0.395761123153     
8000000000.0        -0.287567362547     -0.397533351543     0.705565655155      -0.509865146218     0.705565655155      -0.509865146218     -0.287567362547     -0.397533351543     
8100000000.0        -0.292825514159     -0.39922623355      0.700141004216      -0.513010824396     0.700141004216      -0.513010824396     -0.292825514159     -0.39922623355      
8200000000.0        -0.298076148185     -0.400840629334     0.694721516451      -0.516079679294     0.694721516451      -0.516079679294     -0.298076148185     -0.400840629334     
8300000000.0        -0.303318022036     -0.402377415856     0.689308423941      -0.519072604335     0.689308423941      -0.519072604335     -0.303318022036     -0.402377415856     
8400000000.0        -0.308549929372     -0.403837485587     0.683902922387      -0.521990508459     0.683902922387      -0.521990508459     -0.308549929372     -0.403837485587     
8500000000.0        -0.313770699922     -0.405221745246     0.678506171291      -0.524834314874     0.678506171291      -0.524834314874     -0.313770699922     -0.405221745246     
8600000000.0        -0.318979199263     -0.406531114571     0.673119294171      -0.527604959817     0.673119294171      -0.527604959817     -0.318979199263     -0.406531114571     
8700000000.0        -0.32417432857      -0.407766525123     0.66774337882       -0.530303391366     0.66774337882       -0.530303391366     -0.32417432857      -0.407766525123     
8800000000.0        -0.329355024322     -0.40892891912      0.662379477589      -0.532930568271     0.662379477589      -0.532930568271     -0.329355024322     -0.40892891912      
8900000000.0        -0.334520257984     -0.410019248305     0.657028607707      -0.535487458828     0.657028607707      -0.535487458828     -0.334520257984     -0.410019248305     
9000000000.0        -0.339669035658     -0.411038472848     0.651691751633      -0.537975039776     0.651691751633      -0.537975039776     -0.339669035658     -0.411038472848     
9100000000.0        -0.344800397704     -0.411987560284     0.646369857429      -0.540394295239     0.646369857429      -0.540394295239     -0.344800397704     -0.411987560284     
9200000000.0        -0.349913418334     -0.412867484477     0.641063839165      -0.542746215695     0.641063839165      -0.542746215695     -0.349913418334     -0.412867484477     
9300000000.0        -0.355007205189     -0.413679224629     0.635774577348      -0.545031796977     0.635774577348      -0.545031796977     -0.355007205189     -0.413679224629     
9400000000.0        -0.360080898886     -0.414423764316     0.630502919365      -0.547252039318     0.630502919365      -0.547252039318     -0.360080898886     -0.414423764316     
9500000000.0        -0.365133672547     -0.41510209056      0.625249679958      -0.549407946421     0.625249679958      -0.549407946421     -0.365133672547     -0.41510209056      
9600000000.0        -0.370164731312     -0.415715192937     0.620015641706      -0.551500524565     0.620015641706      -0.551500524565     -0.370164731312     -0.415715192937     
9700000000.0        -0.375173311833     -0.416264062711     0.614801555537      -0.553530781748     0.614801555537      -0.553530781748     -0.375173311833     -0.416264062711     
9800000000.0        -0.38015868175      -0.416749692018     0.609608141242      -0.555499726861     0.609608141242      -0.555499726861     -0.38015868175      -0.416749692018     
9900000000.0        -0.385120139161     -0.417173073063     0.60443608801       -0.557408368894     0.60443608801       -0.557408368894     -0.385120139161     -0.417173073063     
10000000000.0       -0.390057012071     -0.417535197365     0.599286054978      -0.55925771618      0.599286054978      -0.55925771618      -0.390057012071     -0.417535197365     
