# Hz S RI R 50.00 
100000000.0         -2.39470791776e-05  -0.00500196478588   0.999962773783      -0.00501772519317   0.999962773783      -0.00501772519317   -2.39470791781e-05  -0.00500196478588   
200000000.0         -0.000104176242104  -0.0100029969907    0.999882453617      -0.0100345185078    0.999882453617      -0.0100345185078    -0.000104176242104  -0.0100029969907    
300000000.0         -0.000234576218404  -0.0150023025821    0.999751985262      -0.0150495862769    0.999751985262      -0.0150495862769    -0.000234576218404  -0.0150023025821    
400000000.0         -0.000415096497075  -0.0199990976853    0.999571407811      -0.0200621449087    0.999571407811      -0.0200621449087    -0.000415096497075  -0.0199990976853    
500000000.0         -0.000645674026259  -0.0249926043983    0.999340779944      -0.0250714167422    0.999340779944      -0.0250714167422    -0.000645674026259  -0.0249926043983    
600000000.0         -0.000926230964031  -0.0299820496325    0.999060177283      -0.030076628903     0.999060177283      -0.030076628903     -0.00092623096403   -0.0299820496325    
700000000.0         -0.00125667421056   -0.0349666646944    0.998729691623      -0.0350770128922    0.998729691623      -0.0350770128922    -0.00125667421056   -0.0349666646944    
800000000.0         -0.00163689533025   -0.0399456852031    0.998349430562      -0.0400718045075    0.998349430562      -0.0400718045075    -0.00163689533025   -0.0399456852031    
900000000.0         -0.00206677059131   -0.0449183511615    0.997919517252      -0.0450602439183    0.997919517252      -0.0450602439183    -0.00206677059131   -0.0449183511615    
1000000000.0        -0.00254616106186   -0.0498839071258    0.99744009021       -0.0500415758363    0.99744009021       -0.0500415758363    -0.00254616106186   -0.0498839071258    
1100000000.0        -0.00307491273149   -0.0548416024159    0.996911303138      -0.0550150497277    0.996911303138      -0.0550150497277    -0.00307491273149   -0.0548416024159    
1200000000.0        -0.00365285665003   -0.0597906913677    0.996333324747      -0.059979920067     0.996333324747      -0.059979920067     -0.00365285665003   -0.0597906913677    
1300000000.0        -0.00427980908057   -0.0647304336104    0.995706338587      -0.0649354466142    0.995706338587      -0.0649354466142    -0.00427980908057   -0.0647304336104    
1400000000.0        -0.00495557166306   -0.0696600943413    0.995030542868      -0.0698808946915    0.995030542868      -0.0698808946915    -0.00495557166306   -0.0696600943413    
1500000000.0        -0.00567993158824   -0.0745789446259    0.994306150279      -0.0748155354829    0.994306150279      -0.0748155354829    -0.00567993158824   -0.0745789446259    
1600000000.0        -0.0064526617816    -0.0794862616949    0.993533387792      -0.0797386463325    0.993533387792      -0.0797386463325    -0.0064526617816    -0.0794862616949    
1700000000.0        -0.0072735210947    -0.0843813292334    0.992712496473      -0.0846495110336    0.992712496473      -0.0846495110336    -0.0072735210947    -0.0843813292334    
1800000000.0        -0.00814225450851   -0.0892634376929    0.991843731269      -0.0895474201413    0.991843731269      -0.0895474201413    -0.00814225450851   -0.0892634376929    
1900000000.0        -0.00905859334219   -0.0941318845765    0.990927360802      -0.0944316712578    0.990927360802      -0.0944316712578    -0.00905859334219   -0.0941318845765    
2000000000.0        -0.0100222554716    -0.0989859747352    0.989963667143      -0.099301569329     0.989963667143      -0.099301569329     -0.0100222554716    -0.0989859747352    
2100000000.0        -0.0110329455564    -0.103825020658     0.988952945589      -0.104156426935     0.988952945589      -0.104156426935     -0.0110329455564    -0.103825020658     
2200000000.0        -0.0120903552735    -0.10864834275      0.987895504424      -0.108995564569     0.987895504424      -0.108995564569     -0.0120903552735    -0.10864834275      
2300000000.0        -0.0131941635593    -0.113455269616     0.986791664677      -0.113818310919     0.986791664677      -0.113818310919     -0.0131941635593    -0.113455269616     
2400000000.0        -0.0143440368586    -0.118245138328     0.985641759873      -0.118624003137     0.985641759873      -0.118624003137     -0.0143440368586    -0.118245138328     
2500000000.0        -0.0155396293803    -0.123017294685     0.984446135777      -0.123411987102     0.984446135777      -0.123411987102     -0.0155396293803    -0.123017294685     
2600000000.0        -0.0167805833609    -0.12777109348      0.983205150131      -0.128181617679     0.983205150131      -0.128181617679     -0.0167805833609    -0.12777109348      
2700000000.0        -0.0180665293325    -0.13250589874      0.981919172379      -0.132932258967     0.981919172379      -0.132932258967     -0.0180665293325    -0.13250589874      
2800000000.0        -0.019397086399     -0.137221083969     0.9805885834        -0.137663284538     0.9805885834        -0.137663284538     -0.019397086399     -0.137221083969     
2900000000.0        -0.020771862516     -0.141916032381     0.979213775222      -0.142374077674     0.979213775222      -0.142374077674     -0.020771862516     -0.141916032381     
3000000000.0        -0.0221904547775    -0.146590137125     0.977795150736      -0.147064031586     0.977795150736      -0.147064031586     -0.0221904547775    -0.146590137125     
3100000000.0        -0.0236524497073    -0.151242801497     0.976333123404      -0.15173254963      0.976333123404      -0.15173254963      -0.0236524497073    -0.151242801497     
3200000000.0        -0.0251574235549    -0.155873439148     0.974828116964      -0.156379045517     0.974828116964      -0.156379045517     -0.0251574235549    -0.155873439148     
3300000000.0        -0.0267049425956    -0.160481474279     0.973280565131      -0.161002943502     0.973280565131      -0.161002943502     -0.0267049425956    -0.160481474279     
3400000000.0        -0.0282945634355    -0.165066341827     0.971690911287      -0.165603678578     0.971690911287      -0.165603678578     -0.0282945634355    -0.165066341827     
3500000000.0        -0.0299258333193    -0.169627487647     0.97005960818       -0.170180696651     0.97005960818       -0.170180696651     -0.0299258333193    -0.169627487647     
3600000000.0        -0.031598290442     -0.174164368677     0.968387117605      -0.174733454708     0.968387117605      -0.174733454708     -0.031598290442     -0.174164368677     
3700000000.0        -0.0333114642626    -0.178676453094     0.966673910095      -0.179261420973     0.966673910095      -0.179261420973     -0.0333114642626    -0.178676453094     
3800000000.0        -0.0350648758224    -0.183163220466     0.964920464604      -0.183764075061     0.964920464604      -0.183764075061     -0.0350648758224    -0.183163220466     
3900000000.0        -0.0368580380632    -0.187624161891     0.963127268182      -0.188240908112     0.963127268182      -0.188240908112     -0.0368580380632    -0.187624161891     
4000000000.0        -0.0386904561493    -0.192058780122     0.961294815659      -0.192691422921     0.961294815659      -0.192691422921     -0.0386904561493    -0.192058780122     
4100000000.0        -0.0405616277901    -0.196466589689     0.959423609321      -0.197115134059     0.959423609321      -0.197115134059     -0.0405616277901    -0.196466589689     
4200000000.0        -0.042471043564     -0.200847117008     0.957514158583      -0.201511567978     0.957514158583      -0.201511567978     -0.042471043564     -0.200847117008     
4300000000.0        -0.0444181872437    -0.20519990048      0.955566979669      -0.205880263116     0.955566979669      -0.205880263116     -0.0444181872437    -0.20519990048      
4400000000.0        -0.0464025361219    -0.209524490578     0.953582595282      -0.210220769981     0.953582595282      -0.210220769981     -0.0464025361219    -0.209524490578     
4500000000.0        -0.0484235613365    -0.21382044993      0.95156153428       -0.214532651234     0.95156153428       -0.214532651234     -0.0484235613365    -0.21382044993      
4600000000.0        -0.0504807281967    -0.218087353389     0.94950433135       -0.218815481759     0.94950433135       -0.218815481759     -0.0504807281967    -0.218087353389     
4700000000.0        -0.0525734965088    -0.22232478809      0.947411526683      -0.223068848721     0.947411526683      -0.223068848721     -0.0525734965088    -0.22232478809      
4800000000.0        -0.0547013208996    -0.226532353505     0.945283665648      -0.227292351619     0.945283665648      -0.227292351619     -0.0547013208996    -0.226532353505     
4900000000.0        -0.0568636511407    -0.230709661482     0.943121298471      -0.231485602329     0.943121298471      -0.231485602329     -0.0568636511407    -0.230709661482     
5000000000.0        -0.0590599324707    -0.234856336276     0.940924979911      -0.235648225132     0.940924979911      -0.235648225132     -0.0590599324707    -0.234856336276     
5100000000.0        -0.0612896059156    -0.238972014576     0.938695268939      -0.239779856741     0.938695268939      -0.239779856741     -0.0612896059156    -0.238972014576     
5200000000.0        -0.0635521086077    -0.243056345517     0.936432728421      -0.243880146312     0.936432728421      -0.243880146312     -0.0635521086077    -0.243056345517     
5300000000.0        -0.0658468741013    -0.247108990682     0.934137924801      -0.24794875545      0.934137924801      -0.24794875545      -0.0658468741013    -0.247108990682     
5400000000.0        -0.0681733326878    -0.251129624103     0.931811427784      -0.251985358207     0.931811427784      -0.251985358207     -0.0681733326878    -0.251129624103     
5500000000.0        -0.0705309117062    -0.255117932244     0.929453810031      -0.255989641068     0.929453810031      -0.255989641068     -0.0705309117062    -0.255117932244     
5600000000.0        -0.0729190358516    -0.259073613986     0.927065646844      -0.259961302927     0.927065646844      -0.259961302927     -0.0729190358516    -0.259073613986     
5700000000.0        -0.0753371274808    -0.26299638059      0.924647515865      -0.263900055065     0.924647515865      -0.263900055065     -0.0753371274808    -0.26299638059      
5800000000.0        -0.0777846069133    -0.266885955669     0.922199996772      -0.267805621109     0.922199996772      -0.267805621109     -0.0777846069133    -0.266885955669     
5900000000.0        -0.0802608927291    -0.270742075133     0.919723670986      -0.271677736983     0.919723670986      -0.271677736983     -0.0802608927291    -0.270742075133     
6000000000.0        -0.0827654020639    -0.274564487145     0.917219121368      -0.275516150864     0.917219121368      -0.275516150864     -0.0827654020639    -0.274564487145     
6100000000.0        -0.085297550898     -0.278352952056     0.914686931937      -0.279320623113     0.914686931937      -0.279320623113     -0.085297550898     -0.278352952056     
6200000000.0        -0.0878567543426    -0.282107242337     0.912127687581      -0.283090926213     0.912127687581      -0.283090926213     -0.0878567543426    -0.282107242337     
6300000000.0        -0.0904424269211    -0.285827142508     0.909541973776      -0.286826844693     0.909541973776      -0.286826844693     -0.0904424269211    -0.285827142508     
6400000000.0        -0.0930539828456    -0.289512449052     0.906930376308      -0.290528175045     0.906930376308      -0.290528175045     -0.0930539828456    -0.289512449052     
6500000000.0        -0.0956908362882    -0.29316297033      0.904293481004      -0.294194725639     0.904293481004      -0.294194725639     -0.0956908362882    -0.29316297033      
6600000000.0        -0.0983524016488    -0.296778526487     0.901631873464      -0.297826316625     0.901631873464      -0.297826316625     -0.0983524016488    -0.296778526487     
6700000000.0        -0.101038093816     -0.300358949345     0.898946138799      -0.301422779833     0.898946138799      -0.301422779833     -0.101038093816     -0.300358949345     
6800000000.0        -0.103747328424     -0.303904082306     0.896236861372      -0.304983958668     0.896236861372      -0.304983958668     -0.103747328424     -0.303904082306     
6900000000.0        -0.106479522106     -0.307413780232     0.893504624552      -0.308509707998     0.893504624552      -0.308509707998     -0.106479522106     -0.307413780232     
7000000000.0        -0.109234092732     -0.310887909329     0.890750010466      -0.311999894031     0.890750010466      -0.311999894031     -0.109234092732     -0.310887909329     
7100000000.0        -0.112010459661     -0.314326347024     0.887973599756      -0.315454394197     0.887973599756      -0.315454394197     -0.112010459661     -0.314326347024     
7200000000.0        -0.114808043964     -0.317728981839     0.88517597135       -0.318873097019     0.88517597135       -0.318873097019     -0.114808043964     -0.317728981839     
7300000000.0        -0.11762626866      -0.321095713252     0.882357702228      -0.322255901977     0.882357702228      -0.322255901977     -0.11762626866      -0.321095713252     
7400000000.0        -0.120464558935     -0.324426451565     0.879519367203      -0.325602719373     0.879519367203      -0.325602719373     -0.120464558935     -0.324426451565     
7500000000.0        -0.123322342361     -0.327721117761     0.876661538704      -0.328913470188     0.876661538704      -0.328913470188     -0.123322342361     -0.327721117761     
7600000000.0        -0.126199049106     -0.330979643354     0.873784786564      -0.332188085936     0.873784786564      -0.332188085936     -0.126199049106     -0.330979643354     
7700000000.0        -0.129094112137     -0.334201970242     0.870889677812      -0.335426508513     0.870889677812      -0.335426508513     -0.129094112137     -0.334201970242     
7800000000.0        -0.132006967423     -0.337388050554     0.867976776481      -0.338628690045     0.867976776481      -0.338628690045     -0.132006967423     -0.337388050554     
7900000000.0        -0.134937054123     -0.340537846492     0.865046643411      -0.34179459273      0.865046643411      -0.34179459273      -0.134937054123     -0.340537846492     
8000000000.0        -0.137883814777     -0.343651330168     0.862099836062      -0.344924188677     0.862099836062      -0.344924188677     -0.137883814777     -0.343651330168     
8100000000.0        -0.140846695484     -0.346728483446     0.859136908336      -0.348017459744     0.859136908336      -0.348017459744     -0.140846695484     -0.346728483446     
8200000000.0        -0.143825146074     -0.349769297771     0.8561584104        -0.351074397372     0.8561584104        -0.351074397372     -0.143825146074     -0.349769297771     
8300000000.0        -0.146818620281     -0.352773774003     0.853164888521      -0.354095002413     0.853164888521      -0.354095002413     -0.146818620281     -0.352773774003     
8400000000.0        -0.149826575903     -0.355741922245     0.850156884902      -0.357079284966     0.850156884902      -0.357079284966     -0.149826575903     -0.355741922245     
8500000000.0        -0.152848474957     -0.35867376167      0.847134937526      -0.360027264196     0.847134937526      -0.360027264196     -0.152848474957     -0.35867376167      
8600000000.0        -0.155883783827     -0.361569320347     0.844099580006      -0.362938968165     0.844099580006      -0.362938968165     -0.155883783827     -0.361569320347     
8700000000.0        -0.158931973414     -0.364428635063     0.841051341444      -0.36581443365      0.841051341444      -0.36581443365      -0.158931973414     -0.364428635063     
8800000000.0        -0.161992519265     -0.367251751147     0.837990746291      -0.368653705973     0.837990746291      -0.368653705973     -0.161992519265     -0.367251751147     
8900000000.0        -0.165064901713     -0.370038722286     0.834918314215      -0.371456838811     0.834918314215      -0.371456838811     -0.165064901713     -0.370038722286     
9000000000.0        -0.168148605996     -0.372789610349     0.831834559977      -0.374223894024     0.831834559977      -0.374223894024     -0.168148605996     -0.372789610349     
9100000000.0        -0.17124312238      -0.375504485204     0.828739993312      -0.37695494147      0.828739993312      -0.37695494147      -0.17124312238      -0.375504485204     
9200000000.0        -0.174347946273     -0.378183424534     0.825635118811      -0.37965005882      0.825635118811      -0.37965005882      -0.174347946273     -0.378183424534     
9300000000.0        -0.177462578331     -0.380826513656     0.822520435818      -0.382309331382     0.822520435818      -0.382309331382     -0.177462578331     -0.380826513656     
9400000000.0        -0.180586524562     -0.383433845336     0.819396438326      -0.384932851909     0.819396438326      -0.384932851909     -0.180586524562     -0.383433845336     
9500000000.0        -0.183719296421     -0.386005519609     0.816263614878      -0.387520720425     0.816263614878      -0.387520720425     -0.183719296421     -0.386005519609     
9600000000.0        -0.186860410905     -0.388541643591     0.81312244848       -0.390073044032     0.81312244848       -0.390073044032     -0.186860410905     -0.388541643591     
9700000000.0        -0.190009390631     -0.391042331295     0.809973416512      -0.392589936734     0.809973416512      -0.392589936734     -0.190009390631     -0.391042331295     
9800000000.0        -0.193165763924     -0.393507703454     0.806816990651      -0.395071519247     0.806816990651      -0.395071519247     -0.193165763924     -0.393507703454     
9900000000.0        -0.196329064887     -0.395937887332     0.803653636793      -0.397517918823     0.803653636793      -0.397517918823     -0.196329064887     -0.395937887332     
10000000000.0       -0.199498833472     -0.398333016542     0.800483814987      -0.399929269062     0.800483814987      -0.399929269062     -0.199498833472     -0.398333016542     
