# Hz S RI R 50.00 
100000000.0         0.0313339705771     0.000930501350548   0.96866477743       -0.00117270539711   0.96866477743       -0.00117270539711   0.0313339705771     0.000930501350548   
200000000.0         0.0315361196164     0.00186013283319    0.968462317092      -0.00234454205052   0.968462317092      -0.00234454205052   0.0315361196164     0.00186013283319    
300000000.0         0.0316857809195     0.00278924535736    0.968312285175      -0.00351586152781   0.968312285175      -0.00351586152781   0.0316857809195     0.00278924535736    
400000000.0         0.0318095523941     0.00371795824453    0.968188083764      -0.00468678367098   0.968188083764      -0.00468678367098   0.0318095523941     0.00371795824453    
500000000.0         0.0319177167166     0.00464633675235    0.968079430175      -0.00585737418934   0.968079430175      -0.00585737418934   0.0319177167166     0.00464633675235    
600000000.0         0.0320155374354     0.00557442212198    0.967981060855      -0.00702767473107   0.967981060855      -0.00702767473107   0.0320155374354     0.00557442212198    
700000000.0         0.0321061352948     0.00650224238604    0.967889855052      -0.00819771370333   0.967889855052      -0.00819771370333   0.0321061352948     0.00650224238604    
800000000.0         0.0321915396038     0.00742981738772    0.967803783451      -0.00936751129876   0.967803783451      -0.00936751129876   0.0321915396038     0.00742981738772    
900000000.0         0.0322731570515     0.00835716147958    0.967721439358      -0.0105370821991    0.967721439358      -0.0105370821991    0.0322731570515     0.00835716147958    
1000000000.0        0.0323520096848     0.00928428512302    0.967641800719      -0.0117064371778    0.967641800719      -0.0117064371778    0.0323520096848     0.00928428512302    
1100000000.0        0.0324288673891     0.0102111959048     0.967564097642      -0.0128755841195    0.967564097642      -0.0128755841195    0.0324288673891     0.0102111959048     
1200000000.0        0.0325043269425     0.0111378992186     0.967487733343      -0.014044528703     0.967487733343      -0.014044528703     0.0325043269425     0.0111378992186     
1300000000.0        0.0325788618234     0.0120643987407     0.967412234337      -0.0152132748787    0.967412234337      -0.0152132748787    0.0325788618234     0.0120643987407     
1400000000.0        0.0326528549968     0.0129906967744     0.967337217652      -0.0163818252141    0.967337217652      -0.0163818252141    0.0326528549968     0.0129906967744     
1500000000.0        0.032726621286      0.0139167945053     0.967262368459      -0.01755018115      0.967262368459      -0.01755018115      0.032726621286      0.0139167945053     
1600000000.0        0.0328004231087     0.0148426921958     0.967187424333      -0.018718343196     0.967187424333      -0.018718343196     0.0328004231087     0.0148426921958     
1700000000.0        0.0328744818323     0.0157683893356     0.967112163898      -0.0198863110815    0.967112163898      -0.0198863110815    0.0328744818323     0.0157683893356     
1800000000.0        0.032948986153      0.0166938847611     0.967036398453      -0.0210540838757    0.967036398453      -0.0210540838757    0.032948986153      0.0166938847611     
1900000000.0        0.0330240983991     0.0176191767502     0.966959965661      -0.0222216600832    0.966959965661      -0.0222216600832    0.0330240983991     0.0176191767502     
2000000000.0        0.0330999593532     0.0185442631001     0.966882724732      -0.0233890377216    0.966882724732      -0.0233890377216    0.0330999593532     0.0185442631001     
2100000000.0        0.0331766919986     0.0194691411906     0.966804552676      -0.0245562143858    0.966804552676      -0.0245562143858    0.0331766919986     0.0194691411906     
2200000000.0        0.0332544044684     0.0203938080368     0.96672534135       -0.0257231873007    0.96672534135       -0.0257231873007    0.0332544044684     0.0203938080368     
2300000000.0        0.033333192395      0.0213182603333     0.966644995116      -0.0268899533659    0.966644995116      -0.0268899533659    0.033333192395      0.0213182603333     
2400000000.0        0.033413140803      0.0222424944915     0.96656342894       -0.028056509193     0.96656342894       -0.028056509193     0.033413140803      0.0222424944915     
2500000000.0        0.0334943256493     0.0231665066713     0.966480566858      -0.0292228511379    0.966480566858      -0.0292228511379    0.0334943256493     0.0231665066713     
2600000000.0        0.0335768150869     0.0240902928083     0.966396340707      -0.030388975328     0.966396340707      -0.030388975328     0.0335768150869     0.0240902928083     
2700000000.0        0.0336606705118     0.0250138486374     0.966310689084      -0.0315548776858    0.966310689084      -0.0315548776858    0.0336606705118     0.0250138486374     
2800000000.0        0.0337459474347     0.0259371697133     0.966223556468      -0.0327205539499    0.966223556468      -0.0327205539499    0.0337459474347     0.0259371697133     
2900000000.0        0.0338326962149     0.0268602514277     0.966134892493      -0.0338859996926    0.966134892493      -0.0338859996926    0.0338326962149     0.0268602514277     
3000000000.0        0.033920962679      0.0277830890257     0.966044651322      -0.0350512103354    0.966044651322      -0.0350512103354    0.033920962679      0.0277830890257     
3100000000.0        0.0340107886486     0.028705677619      0.965952791124      -0.0362161811637    0.965952791124      -0.0362161811637    0.0340107886486     0.028705677619      
3200000000.0        0.03410221239       0.0296280121983     0.965859273625      -0.0373809073384    0.965859273625      -0.0373809073384    0.03410221239       0.0296280121983     
3300000000.0        0.0341952690022     0.0305500876439     0.965764063715      -0.0385453839069    0.965764063715      -0.0385453839069    0.0341952690022     0.0305500876439     
3400000000.0        0.0342899907512     0.0314718987357     0.96566712912       -0.0397096058132    0.96566712912       -0.0397096058132    0.0342899907512     0.0314718987357     
3500000000.0        0.0343864073604     0.0323934401617     0.965568440106      -0.0408735679065    0.965568440106      -0.0408735679065    0.0343864073604     0.0323934401617     
3600000000.0        0.0344845462636     0.0333147065255     0.96546796923       -0.0420372649491    0.96546796923       -0.0420372649491    0.0344845462636     0.0333147065255     
3700000000.0        0.0345844328267     0.0342356923538     0.965365691116      -0.043200691623     0.965365691116      -0.043200691623     0.0345844328267     0.0342356923538     
3800000000.0        0.0346860905419     0.0351563921022     0.965261582262      -0.0443638425374    0.965261582262      -0.0443638425374    0.0346860905419     0.0351563921022     
3900000000.0        0.0347895411993     0.0360768001615     0.965155620867      -0.0455267122332    0.965155620867      -0.0455267122332    0.0347895411993     0.0360768001615     
4000000000.0        0.0348948050386     0.0369969108624     0.965047786681      -0.0466892951895    0.965047786681      -0.0466892951895    0.0348948050386     0.0369969108624     
4100000000.0        0.0350019008837     0.0379167184807     0.964938060871      -0.0478515858275    0.964938060871      -0.0478515858275    0.0350019008837     0.0379167184807     
4200000000.0        0.0351108462624     0.0388362172412     0.964826425898      -0.0490135785157    0.964826425898      -0.0490135785157    0.0351108462624     0.0388362172412     
4300000000.0        0.0352216575137     0.0397554013222     0.964712865413      -0.0501752675731    0.964712865413      -0.0501752675731    0.0352216575137     0.0397554013222     
4400000000.0        0.0353343498829     0.0406742648587     0.964597364158      -0.0513366472737    0.964597364158      -0.0513366472737    0.0353343498829     0.0406742648587     
4500000000.0        0.0354489376082     0.041592801946      0.964479907886      -0.0524977118495    0.964479907886      -0.0524977118495    0.0354489376082     0.041592801946      
4600000000.0        0.0355654339976     0.0425110066429     0.964360483277      -0.0536584554937    0.964360483277      -0.0536584554937    0.0355654339976     0.0425110066429     
4700000000.0        0.0356838514987     0.0434288729741     0.964239077873      -0.0548188723638    0.964239077873      -0.0548188723638    0.0356838514987     0.0434288729741     
4800000000.0        0.0358042017619     0.0443463949336     0.964115680011      -0.055978956584     0.964115680011      -0.055978956584     0.0358042017619     0.0443463949336     
4900000000.0        0.0359264956972     0.0452635664864     0.963990278771      -0.0571387022481    0.963990278771      -0.0571387022481    0.0359264956972     0.0452635664864     
5000000000.0        0.0360507435265     0.0461803815713     0.96386286392       -0.0582981034212    0.96386286392       -0.0582981034212    0.0360507435265     0.0461803815713     
5100000000.0        0.0361769548304     0.0470968341029     0.963733425865      -0.0594571541428    0.963733425865      -0.0594571541428    0.0361769548304     0.0470968341029     
5200000000.0        0.036305138591      0.0480129179733     0.963601955612      -0.0606158484279    0.963601955612      -0.0606158484279    0.036305138591      0.0480129179733     
5300000000.0        0.0364353032319     0.0489286270545     0.963468444726      -0.0617741802695    0.963468444726      -0.0617741802695    0.0364353032319     0.0489286270545     
5400000000.0        0.0365674566533     0.0498439551996     0.963332885295      -0.06293214364      0.963332885295      -0.06293214364      0.0365674566533     0.0498439551996     
5500000000.0        0.0367016062654     0.0507588962448     0.963195269897      -0.0640897324931    0.963195269897      -0.0640897324931    0.0367016062654     0.0507588962448     
5600000000.0        0.0368377590183     0.0516734440105     0.963055591569      -0.0652469407652    0.963055591569      -0.0652469407652    0.0368377590183     0.0516734440105     
5700000000.0        0.03697592143       0.0525875923032     0.962913843782      -0.066403762377     0.962913843782      -0.066403762377     0.03697592143       0.0525875923032     
5800000000.0        0.0371160996118     0.0535013349167     0.962770020412      -0.0675601912346    0.962770020412      -0.0675601912346    0.0371160996118     0.0535013349167     
5900000000.0        0.0372582992919     0.054414665633      0.962624115718      -0.0687162212313    0.962624115718      -0.0687162212313    0.0372582992919     0.054414665633      
6000000000.0        0.0374025258372     0.0553275782239     0.962476124322      -0.0698718462481    0.962476124322      -0.0698718462481    0.0374025258372     0.0553275782239     
6100000000.0        0.0375487842733     0.0562400664522     0.962326041184      -0.0710270601555    0.962326041184      -0.0710270601555    0.0375487842733     0.0562400664522     
6200000000.0        0.0376970793033     0.0571521240722     0.96217386159       -0.0721818568142    0.96217386159       -0.0721818568142    0.0376970793033     0.0571521240722     
6300000000.0        0.0378474153249     0.0580637448312     0.962019581128      -0.0733362300764    0.962019581128      -0.0733362300764    0.0378474153249     0.0580637448312     
6400000000.0        0.0379997964466     0.0589749224705     0.961863195677      -0.0744901737865    0.961863195677      -0.0744901737865    0.0379997964466     0.0589749224705     
6500000000.0        0.0381542265024     0.0598856507258     0.961704701391      -0.0756436817822    0.961704701391      -0.0756436817822    0.0381542265024     0.0598856507258     
6600000000.0        0.0383107090659     0.0607959233285     0.961544094683      -0.0767967478952    0.961544094683      -0.0767967478952    0.0383107090659     0.0607959233285     
6700000000.0        0.0384692474629     0.0617057340063     0.961381372214      -0.0779493659524    0.961381372214      -0.0779493659524    0.0384692474629     0.0617057340063     
6800000000.0        0.0386298447836     0.0626150764843     0.96121653088       -0.0791015297764    0.96121653088       -0.0791015297764    0.0386298447836     0.0626150764843     
6900000000.0        0.0387925038941     0.063523944485      0.961049567802      -0.080253233186     0.961049567802      -0.080253233186     0.0387925038941     0.063523944485      
7000000000.0        0.0389572274463     0.06443233173       0.960880480316      -0.0814044699976    0.960880480316      -0.0814044699976    0.0389572274463     0.06443233173       
7100000000.0        0.0391240178883     0.0653402319397     0.960709265958      -0.0825552340254    0.960709265958      -0.0825552340254    0.0391240178883     0.0653402319397     
7200000000.0        0.0392928774734     0.0662476388347     0.960535922464      -0.0837055190821    0.960535922464      -0.0837055190821    0.0392928774734     0.0662476388347     
7300000000.0        0.0394638082685     0.0671545461358     0.960360447751      -0.0848553189797    0.960360447751      -0.0848553189797    0.0394638082685     0.0671545461358     
7400000000.0        0.0396368121625     0.0680609475652     0.960182839918      -0.08600462753      0.960182839918      -0.08600462753      0.0396368121625     0.0680609475652     
7500000000.0        0.0398118908738     0.0689668368464     0.960003097233      -0.0871534385449    0.960003097233      -0.0871534385449    0.0398118908738     0.0689668368464     
7600000000.0        0.0399890459573     0.0698722077052     0.959821218126      -0.0883017458376    0.959821218126      -0.0883017458376    0.0399890459573     0.0698722077052     
7700000000.0        0.0401682788113     0.0707770538701     0.959637201185      -0.0894495432226    0.959637201185      -0.0894495432226    0.0401682788113     0.0707770538701     
7800000000.0        0.0403495906838     0.0716813690727     0.959451045149      -0.0905968245162    0.959451045149      -0.0905968245162    0.0403495906838     0.0716813690727     
7900000000.0        0.0405329826783     0.0725851470482     0.9592627489        -0.0917435835374    0.9592627489        -0.0917435835374    0.0405329826783     0.0725851470482     
8000000000.0        0.0407184557596     0.0734883815361     0.959072311459      -0.0928898141079    0.959072311459      -0.0928898141079    0.0407184557596     0.0734883815361     
8100000000.0        0.040906010759      0.07439106628       0.95887973198       -0.0940355100529    0.95887973198       -0.0940355100529    0.040906010759      0.07439106628       
8200000000.0        0.0410956483792     0.0752931950289     0.958685009747      -0.0951806652014    0.958685009747      -0.0951806652014    0.0410956483792     0.0752931950289     
8300000000.0        0.0412873691994     0.0761947615368     0.958488144166      -0.0963252733863    0.958488144166      -0.0963252733863    0.0412873691994     0.0761947615368     
8400000000.0        0.0414811736794     0.0770957595635     0.958289134762      -0.0974693284455    0.958289134762      -0.0974693284455    0.0414811736794     0.0770957595635     
8500000000.0        0.041677062164      0.077996182875      0.958087981177      -0.0986128242217    0.958087981177      -0.0986128242217    0.041677062164      0.077996182875      
8600000000.0        0.0418750348868     0.0788960252438     0.957884683162      -0.0997557545631    0.957884683162      -0.0997557545631    0.0418750348868     0.0788960252438     
8700000000.0        0.0420750919746     0.0797952804489     0.957679240577      -0.100898113323     0.957679240577      -0.100898113323     0.0420750919746     0.0797952804489     
8800000000.0        0.0422772334501     0.0806939422768     0.957471653382      -0.102039894363     0.957471653382      -0.102039894363     0.0422772334501     0.0806939422768     
8900000000.0        0.0424814592363     0.0815920045212     0.957261921642      -0.103181091547     0.957261921642      -0.103181091547     0.0424814592363     0.0815920045212     
9000000000.0        0.0426877691589     0.0824894609839     0.957050045515      -0.10432169875      0.957050045515      -0.10432169875      0.0426877691589     0.0824894609839     
9100000000.0        0.04289616295       0.0833863054744     0.956836025254      -0.105461709851     0.956836025254      -0.105461709851     0.04289616295       0.0833863054744     
9200000000.0        0.0431066402507     0.084282531811      0.956619861204      -0.106601118738     0.956619861204      -0.106601118738     0.0431066402507     0.084282531811      
9300000000.0        0.0433192006141     0.0851781338203     0.956401553796      -0.107739919306     0.956401553796      -0.107739919306     0.0433192006141     0.0851781338203     
9400000000.0        0.0435338435076     0.086073105338      0.956181103548      -0.108878105458     0.956181103548      -0.108878105458     0.0435338435076     0.086073105338      
9500000000.0        0.0437505683161     0.0869674402092     0.955958511059      -0.110015671106     0.955958511059      -0.110015671106     0.0437505683161     0.0869674402092     
9600000000.0        0.0439693743438     0.0878611322882     0.955733777012      -0.111152610169     0.955733777012      -0.111152610169     0.0439693743438     0.0878611322882     
9700000000.0        0.0441902608167     0.0887541754392     0.955506902163      -0.112288916577     0.955506902163      -0.112288916577     0.0441902608167     0.0887541754392     
9800000000.0        0.044413226885      0.0896465635364     0.955277887348      -0.113424584266     0.955277887348      -0.113424584266     0.044413226885      0.0896465635364     
9900000000.0        0.0446382716249     0.090538290464      0.955046733476      -0.114559607183     0.955046733476      -0.114559607183     0.0446382716249     0.090538290464      
10000000000.0       0.0448653940409     0.0914293501169     0.954813441525      -0.115693979286     0.954813441525      -0.115693979286     0.0448653940409     0.0914293501169     
