# Hz S RI R 50.00 
100000000.0         0.0879692740911     0.00375800831932    0.912027033582      -0.00532122548912   0.912027033582      -0.00532122548912   0.0879692740911     0.00375800831932    
200000000.0         0.0885624833173     0.00750481747989    0.911428608735      -0.0106312579634    0.911428608735      -0.0106312579634    0.0885624833173     0.00750481747989    
300000000.0         0.0890555230208     0.0112441153416     0.910927829066      -0.015933794335     0.910927829066      -0.015933794335     0.0890555230208     0.0112441153416     
400000000.0         0.0895185622247     0.0149767757891     0.910454524719      -0.021229717131     0.910454524719      -0.021229717131     0.0895185622247     0.0149767757891     
500000000.0         0.0899786352813     0.0187030196145     0.909981660573      -0.0265192555807    0.909981660573      -0.0265192555807    0.0899786352813     0.0187030196145     
600000000.0         0.0904495129856     0.0224227795251     0.909495465073      -0.0318023506954    0.909495465073      -0.0318023506954    0.0904495129856     0.0224227795251     
700000000.0         0.0909393033073     0.0261358313117     0.908987829476      -0.0370787864738    0.908987829476      -0.0370787864738    0.0909393033073     0.0261358313117     
800000000.0         0.0914532276696     0.0298418547665     0.908453531552      -0.0423482508412    0.908453531552      -0.0423482508412    0.0914532276696     0.0298418547665     
900000000.0         0.0919948580092     0.0335404664846     0.907888998519      -0.0476103684658    0.907888998519      -0.0476103684658    0.0919948580092     0.0335404664846     
1000000000.0        0.0925667442571     0.0372312393634     0.907291679557      -0.0528647202684    0.907291679557      -0.0528647202684    0.0925667442571     0.0372312393634     
1100000000.0        0.0931707633886     0.0409137150622     0.906659696748      -0.0581108558889    0.906659696748      -0.0581108558889    0.0931707633886     0.0409137150622     
1200000000.0        0.093808327561      0.0445874124154     0.905991636939      -0.0633483021056    0.905991636939      -0.0633483021056    0.093808327561      0.0445874124154     
1300000000.0        0.094480515164      0.0482518333731     0.905286420687      -0.0685765687804    0.905286420687      -0.0685765687804    0.094480515164      0.0482518333731     
1400000000.0        0.0951881570328     0.0519064673521     0.904543216045      -0.0737951532126    0.904543216045      -0.0737951532126    0.0951881570328     0.0519064673521     
1500000000.0        0.095931895257      0.0555507945227     0.903761379752      -0.0790035434298    0.903761379752      -0.0790035434298    0.095931895257      0.0555507945227     
1600000000.0        0.0967122245353     0.05918428836       0.902940415875      -0.0842012207408    0.902940415875      -0.0842012207408    0.0967122245353     0.05918428836       
1700000000.0        0.0975295220242     0.0628064176713     0.90207994596       -0.089387661765     0.90207994596       -0.089387661765     0.0975295220242     0.0628064176713     
1800000000.0        0.098384069374      0.0664166482395     0.901179686997      -0.0945623400783    0.901179686997      -0.0945623400783    0.098384069374      0.0664166482395     
1900000000.0        0.0992760693225     0.0700144441821     0.900239434822      -0.099724727573     0.900239434822      -0.099724727573     0.0992760693225     0.0700144441821     
2000000000.0        0.100205658413      0.0735992690926     0.899259051402      -0.1048742956       0.899259051402      -0.1048742956       0.100205658413      0.0735992690926     
2100000000.0        0.101172916897      0.0771705870129     0.898238454926      -0.110010515945     0.898238454926      -0.110010515945     0.101172916897      0.0771705870129     
2200000000.0        0.102177876555      0.0807278632742     0.897177611991      -0.115132861666     0.897177611991      -0.115132861666     0.102177876555      0.0807278632742     
2300000000.0        0.103220526961      0.0842705652317     0.896076531334      -0.120240807833     0.896076531334      -0.120240807833     0.103220526961      0.0842705652317     
2400000000.0        0.104300820549      0.087798162914      0.894935258761      -0.125333832176     0.894935258761      -0.125333832176     0.104300820549      0.087798162914      
2500000000.0        0.105418676775      0.0913101296012     0.893753872992      -0.130411415664     0.893753872992      -0.130411415664     0.105418676775      0.0913101296012     
2600000000.0        0.106573985554      0.0948059423463     0.892532482217      -0.135473043029     0.892532482217      -0.135473043029     0.106573985554      0.0948059423463     
2700000000.0        0.107766610142      0.0982850824458     0.891271221218      -0.140518203233     0.891271221218      -0.140518203233     0.107766610142      0.0982850824458     
2800000000.0        0.10899638957       0.10174703587       0.889970248933      -0.145546389904     0.889970248933      -0.145546389904     0.10899638957       0.10174703587       
2900000000.0        0.110263140716      0.105191293655      0.888629746384      -0.150557101725     0.888629746384      -0.150557101725     0.110263140716      0.105191293655      
3000000000.0        0.111566660087      0.108617352269      0.887249914894      -0.1555498428       0.887249914894      -0.1555498428       0.111566660087      0.108617352269      
3100000000.0        0.112906725374      0.112024713941      0.885830974535      -0.16052412299      0.885830974535      -0.16052412299      0.112906725374      0.112024713941      
3200000000.0        0.114283096796      0.115412886979      0.884373162778      -0.165479458219     0.884373162778      -0.165479458219     0.114283096796      0.115412886979      
3300000000.0        0.115695518304      0.118781386051      0.882876733293      -0.170415370769     0.882876733293      -0.170415370769     0.115695518304      0.118781386051      
3400000000.0        0.117143718637      0.122129732461      0.881341954895      -0.175331389548     0.881341954895      -0.175331389548     0.117143718637      0.122129732461      
3500000000.0        0.118627412274      0.125457454395      0.879769110584      -0.180227050338     0.879769110584      -0.180227050338     0.118627412274      0.125457454395      
3600000000.0        0.120146300293      0.128764087159      0.878158496693      -0.185101896033     0.878158496693      -0.185101896033     0.120146300293      0.128764087159      
3700000000.0        0.121700071148      0.132049173396      0.876510422106      -0.18995547686      0.876510422106      -0.18995547686      0.121700071148      0.132049173396      
3800000000.0        0.123288401386      0.135312263294      0.874825207547      -0.194787350579     0.874825207547      -0.194787350579     0.123288401386      0.135312263294      
3900000000.0        0.1249109563        0.138552914773      0.87310318492       -0.199597082681     0.87310318492       -0.199597082681     0.1249109563        0.138552914773      
4000000000.0        0.126567390538      0.141770693669      0.871344696704      -0.204384246564     0.871344696704      -0.204384246564     0.126567390538      0.141770693669      
4100000000.0        0.128257348668      0.144965173899      0.869550095386      -0.209148423701     0.869550095386      -0.209148423701     0.128257348668      0.144965173899      
4200000000.0        0.129980465709      0.148135937617      0.867719742928      -0.213889203794     0.867719742928      -0.213889203794     0.129980465709      0.148135937617      
4300000000.0        0.131736367632      0.151282575357      0.865854010273      -0.218606184924     0.865854010273      -0.218606184924     0.131736367632      0.151282575357      
4400000000.0        0.133524671826      0.154404686172      0.863953276869      -0.223298973682     0.863953276869      -0.223298973682     0.133524671826      0.154404686172      
4500000000.0        0.135344987553      0.157501877754      0.862017930223      -0.227967185292     0.862017930223      -0.227967185292     0.135344987553      0.157501877754      
4600000000.0        0.137196916371      0.160573766551      0.860048365472      -0.232610443732     0.860048365472      -0.232610443732     0.137196916371      0.160573766551      
4700000000.0        0.139080052541      0.163619977872      0.858044984975      -0.237228381832     0.858044984975      -0.237228381832     0.139080052541      0.163619977872      
4800000000.0        0.140993983424      0.166640145982      0.856008197922      -0.241820641375     0.856008197922      -0.241820641375     0.140993983424      0.166640145982      
4900000000.0        0.142938289854      0.169633914192      0.853938419956      -0.246386873184     0.853938419956      -0.246386873184     0.142938289854      0.169633914192      
5000000000.0        0.144912546504      0.172600934933      0.851836072806      -0.2509267372       0.851836072806      -0.2509267372       0.144912546504      0.172600934933      
5100000000.0        0.146916322238      0.175540869831      0.849701583938      -0.255439902552     0.849701583938      -0.255439902552     0.146916322238      0.175540869831      
5200000000.0        0.148949180454      0.178453389769      0.847535386213      -0.25992604762      0.847535386213      -0.25992604762      0.148949180454      0.178453389769      
5300000000.0        0.151010679411      0.181338174936      0.845337917552      -0.264384860089     0.845337917552      -0.264384860089     0.151010679411      0.181338174936      
5400000000.0        0.153100372558      0.184194914881      0.843109620617      -0.268816036996     0.843109620617      -0.268816036996     0.153100372558      0.184194914881      
5500000000.0        0.155217808842      0.187023308544      0.840850942494      -0.273219284767     0.840850942494      -0.273219284767     0.155217808842      0.187023308544      
5600000000.0        0.157362533018      0.189823064295      0.83856233439       -0.277594319254     0.83856233439       -0.277594319254     0.157362533018      0.189823064295      
5700000000.0        0.159534085946      0.192593899951      0.836244251331      -0.281940865751     0.836244251331      -0.281940865751     0.159534085946      0.192593899951      
5800000000.0        0.161732004885      0.1953355428        0.833897151869      -0.286258659017     0.833897151869      -0.286258659017     0.161732004885      0.1953355428        
5900000000.0        0.163955823776      0.198047729606      0.831521497801      -0.290547443288     0.831521497801      -0.290547443288     0.163955823776      0.198047729606      
6000000000.0        0.166205073522      0.200730206615      0.829117753884      -0.294806972272     0.829117753884      -0.294806972272     0.166205073522      0.200730206615      
6100000000.0        0.16847928226       0.203382729552      0.826686387567      -0.299037009157     0.826686387567      -0.299037009157     0.16847928226       0.203382729552      
6200000000.0        0.170777975632      0.206005063611      0.824227868719      -0.303237326593     0.824227868719      -0.303237326593     0.170777975632      0.206005063611      
6300000000.0        0.173100677043      0.208596983439      0.821742669371      -0.307407706681     0.821742669371      -0.307407706681     0.173100677043      0.208596983439      
6400000000.0        0.175446907916      0.211158273115      0.819231263457      -0.311547940951     0.819231263457      -0.311547940951     0.175446907916      0.211158273115      
6500000000.0        0.177816187949      0.213688726125      0.816694126564      -0.315657830332     0.816694126564      -0.315657830332     0.177816187949      0.213688726125      
6600000000.0        0.180208035354      0.216188145324      0.814131735684      -0.319737185122     0.814131735684      -0.319737185122     0.180208035354      0.216188145324      
6700000000.0        0.182621967101      0.218656342899      0.811544568978      -0.323785824948     0.811544568978      -0.323785824948     0.182621967101      0.218656342899      
6800000000.0        0.185057499153      0.221093140327      0.808933105535      -0.32780357872      0.808933105535      -0.32780357872      0.185057499153      0.221093140327      
6900000000.0        0.187514146696      0.223498368323      0.806297825144      -0.331790284586     0.806297825144      -0.331790284586     0.187514146696      0.223498368323      
7000000000.0        0.189991424364      0.225871866787      0.80363920807       -0.335745789873     0.80363920807       -0.335745789873     0.189991424364      0.225871866787      
7100000000.0        0.192488846462      0.228213484743      0.800957734829      -0.33966995103      0.800957734829      -0.33966995103      0.192488846462      0.228213484743      
7200000000.0        0.195005927177      0.230523080277      0.798253885976      -0.343562633564     0.798253885976      -0.343562633564     0.195005927177      0.230523080277      
7300000000.0        0.197542180794      0.232800520468      0.79552814189       -0.347423711969     0.79552814189       -0.347423711969     0.197542180794      0.232800520468      
7400000000.0        0.200097121897      0.235045681312      0.792780982574      -0.351253069656     0.792780982574      -0.351253069656     0.200097121897      0.235045681312      
7500000000.0        0.202670265575      0.237258447648      0.790012887446      -0.355050598876     0.790012887446      -0.355050598876     0.202670265575      0.237258447648      
7600000000.0        0.205261127613      0.239438713076      0.787224335148      -0.358816200634     0.787224335148      -0.358816200634     0.205261127613      0.239438713076      
7700000000.0        0.207869224689      0.241586379871      0.784415803354      -0.362549784608     0.784415803354      -0.362549784608     0.207869224689      0.241586379871      
7800000000.0        0.210494074555      0.243701358893      0.78158776858       -0.366251269059     0.78158776858       -0.366251269059     0.210494074555      0.243701358893      
7900000000.0        0.213135196225      0.245783569497      0.778740706003      -0.369920580738     0.778740706003      -0.369920580738     0.213135196225      0.245783569497      
8000000000.0        0.215792110144      0.247832939435      0.775875089285      -0.37355765479      0.775875089285      -0.37355765479      0.215792110144      0.247832939435      
8100000000.0        0.21846433837       0.249849404756      0.772991390402      -0.377162434653     0.772991390402      -0.377162434653     0.21846433837       0.249849404756      
8200000000.0        0.221151404733      0.251832909705      0.77009007947       -0.38073487196      0.77009007947       -0.38073487196      0.221151404733      0.251832909705      
8300000000.0        0.223852835002      0.253783406619      0.767171624588      -0.384274926427     0.767171624588      -0.384274926427     0.223852835002      0.253783406619      
8400000000.0        0.226568157043      0.255700855814      0.764236491678      -0.387782565752     0.764236491678      -0.387782565752     0.226568157043      0.255700855814      
8500000000.0        0.229296900971      0.25758522548       0.76128514433       -0.3912577655       0.76128514433       -0.3912577655       0.229296900971      0.25758522548       
8600000000.0        0.2320385993        0.259436491562      0.758318043654      -0.394700508987     0.758318043654      -0.394700508987     0.2320385993        0.259436491562      
8700000000.0        0.234792787084      0.261254637651      0.755335648135      -0.398110787173     0.755335648135      -0.398110787173     0.234792787084      0.261254637651      
8800000000.0        0.23755900206       0.263039654859      0.752338413498      -0.401488598535     0.752338413498      -0.401488598535     0.23755900206       0.263039654859      
8900000000.0        0.24033678478       0.264791541704      0.749326792565      -0.404833948951     0.749326792565      -0.404833948951     0.24033678478       0.264791541704      
9000000000.0        0.24312567874       0.266510303987      0.746301235132      -0.408146851581     0.746301235132      -0.408146851581     0.24312567874       0.266510303987      
9100000000.0        0.245925230511      0.268195954668      0.74326218784       -0.411427326739     0.74326218784       -0.411427326739     0.245925230511      0.268195954668      
9200000000.0        0.248734989851      0.269848513743      0.740210094054      -0.41467540177      0.740210094054      -0.41467540177      0.248734989851      0.269848513743      
9300000000.0        0.25155450983       0.271468008113      0.737145393748      -0.417891110922     0.737145393748      -0.417891110922     0.25155450983       0.271468008113      
9400000000.0        0.254383346934      0.273054471461      0.734068523391      -0.42107449522      0.734068523391      -0.42107449522      0.254383346934      0.273054471461      
9500000000.0        0.257221061179      0.27460794412       0.730979915841      -0.424225602337     0.730979915841      -0.424225602337     0.257221061179      0.27460794412       
9600000000.0        0.260067216208      0.276128472945      0.727880000241      -0.427344486461     0.727880000241      -0.427344486461     0.260067216208      0.276128472945      
9700000000.0        0.262921379392      0.277616111179      0.72476920192       -0.430431208169     0.72476920192       -0.430431208169     0.262921379392      0.277616111179      
9800000000.0        0.265783121927      0.279070918325      0.721647942301      -0.433485834289     0.721647942301      -0.433485834289     0.265783121927      0.279070918325      
9900000000.0        0.268652018918      0.280492960011      0.718516638806      -0.436508437771     0.718516638806      -0.436508437771     0.268652018918      0.280492960011      
10000000000.0       0.271527649468      0.281882307856      0.715375704776      -0.439499097555     0.715375704776      -0.439499097555     0.271527649468      0.281882307856      
