# Hz S RI R 50.00 
100000000.0         0.00764314018181    0.00135837379061    0.992354865623      -0.00211502095926   0.992354865623      -0.00211502095926   0.00764314018181    0.00135837379061    
200000000.0         0.00770177650033    0.0027163707999     0.992294661082      -0.00422967224697   0.992294661082      -0.00422967224697   0.00770177650033    0.0027163707999     
300000000.0         0.00775271597556    0.00407410551893    0.992241579306      -0.00634407272944   0.992241579306      -0.00634407272944   0.00775271597556    0.00407410551893    
400000000.0         0.00780256284282    0.0054315994093     0.992189016002      -0.00845824732274   0.992189016002      -0.00845824732274   0.00780256284282    0.0054315994093     
500000000.0         0.00785386303434    0.0067888522418     0.992134425172      -0.0105721987879    0.992134425172      -0.0105721987879    0.00785386303434    0.0067888522418     
600000000.0         0.00790791590804    0.00814585417037    0.99207650739       -0.0126859199648    0.99207650739       -0.0126859199648    0.00790791590804    0.00814585417037    
700000000.0         0.00796548935192    0.00950259007482    0.992014494689      -0.0147993981971    0.992014494689      -0.0147993981971    0.00796548935192    0.00950259007482    
800000000.0         0.00802708088311    0.0108590415779     0.991947889469      -0.0169126173979    0.991947889469      -0.0169126173979    0.00802708088311    0.0108590415779     
900000000.0         0.00809303394819    0.01221518813       0.991876348192      -0.019025559167     0.991876348192      -0.019025559167     0.00809303394819    0.01221518813       
1000000000.0        0.00816359689561    0.0135710076522     0.991799622413      -0.0211382034564    0.991799622413      -0.0211382034564    0.00816359689561    0.0135710076522     
1100000000.0        0.00823895576971    0.0149264769456     0.991717525986      -0.0232505289966    0.991717525986      -0.0232505289966    0.00823895576971    0.0149264769456     
1200000000.0        0.00831925385871    0.0162815719649     0.991629915516      -0.0253625135831    0.991629915516      -0.0253625135831    0.00831925385871    0.0162815719649     
1300000000.0        0.0084046039976     0.0176362680113     0.991536678053      -0.0274741342788    0.991536678053      -0.0274741342788    0.0084046039976     0.0176362680113     
1400000000.0        0.00849509665759    0.0189905398704     0.991437723008      -0.0295853675607    0.991437723008      -0.0295853675607    0.00849509665759    0.0189905398704     
1500000000.0        0.00859080546021    0.0203443619161     0.991332976636      -0.0316961894303    0.991332976636      -0.0316961894303    0.00859080546021    0.0203443619161     
1600000000.0        0.00869179105142    0.0216977081895     0.991222378162      -0.0338065754978    0.991222378162      -0.0338065754978    0.00869179105142    0.0216977081895     
1700000000.0        0.00879810389442    0.0230505524598     0.991105876988      -0.0359165010478    0.991105876988      -0.0359165010478    0.00879810389442    0.0230505524598     
1800000000.0        0.00890978632801    0.0244028682732     0.990983430638      -0.0380259410925    0.990983430638      -0.0380259410925    0.00890978632801    0.0244028682732     
1900000000.0        0.00902687411339    0.0257546289918     0.990855003206      -0.040134870414     0.990855003206      -0.040134870414     0.00902687411339    0.0257546289918     
2000000000.0        0.00914939761635    0.0271058078258     0.990720564181      -0.042243263599     0.990720564181      -0.042243263599     0.00914939761635    0.0271058078258     
2100000000.0        0.00927738272463    0.0284563778595     0.990580087521      -0.0443510950682    0.990580087521      -0.0443510950682    0.00927738272463    0.0284563778595     
2200000000.0        0.00941085156922    0.0298063120732     0.990433550939      -0.0464583391004    0.990433550939      -0.0464583391004    0.00941085156922    0.0298063120732     
2300000000.0        0.00954982309862    0.0311555833625     0.990280935325      -0.0485649698535    0.990280935325      -0.0485649698535    0.00954982309862    0.0311555833625     
2400000000.0        0.00969431354089    0.0325041645534     0.990122224288      -0.0506709613821    0.990122224288      -0.0506709613821    0.00969431354089    0.0325041645534     
2500000000.0        0.00984433677919    0.0338520284162     0.989957403774      -0.0527762876526    0.989957403774      -0.0527762876526    0.00984433677919    0.0338520284162     
2600000000.0        0.00999990465978    0.0351991476776     0.989786461765      -0.0548809225571    0.989786461765      -0.0548809225571    0.00999990465978    0.0351991476776     
2700000000.0        0.0101610272467     0.0365454950304     0.989609388019      -0.0569848399246    0.989609388019      -0.0569848399246    0.0101610272467     0.0365454950304     
2800000000.0        0.010327713034      0.0378910431433     0.989426173863      -0.059088013532     0.989426173863      -0.059088013532     0.010327713034      0.0378910431433     
2900000000.0        0.010499969124      0.0392357646684     0.989236812008      -0.0611904171126    0.989236812008      -0.0611904171126    0.010499969124      0.0392357646684     
3000000000.0        0.0106778013773     0.0405796322488     0.989041296406      -0.0632920243649    0.989041296406      -0.0632920243649    0.0106778013773     0.0405796322488     
3100000000.0        0.0108612145413     0.0419226185245     0.988839622118      -0.06539280896      0.988839622118      -0.06539280896      0.0108612145413     0.0419226185245     
3200000000.0        0.0110502123588     0.0432646961389     0.988631785206      -0.0674927445481    0.988631785206      -0.0674927445481    0.0110502123588     0.0432646961389     
3300000000.0        0.0112447976626     0.0446058377435     0.988417782639      -0.0695918047648    0.988417782639      -0.0695918047648    0.0112447976626     0.0446058377435     
3400000000.0        0.0114449724558     0.0459460160029     0.98819761221       -0.0716899632368    0.98819761221       -0.0716899632368    0.0114449724558     0.0459460160029     
3500000000.0        0.0116507379827     0.0472852035993     0.98797127247       -0.0737871935869    0.98797127247       -0.0737871935869    0.0116507379827     0.0472852035993     
3600000000.0        0.0118620947901     0.0486233732365     0.987738762664      -0.0758834694388    0.987738762664      -0.0758834694388    0.0118620947901     0.0486233732365     
3700000000.0        0.0120790427805     0.0499604976433     0.987500082676      -0.0779787644214    0.987500082676      -0.0779787644214    0.0120790427805     0.0499604976433     
3800000000.0        0.0123015812598     0.0512965495777     0.987255232985      -0.0800730521731    0.987255232985      -0.0800730521731    0.0123015812598     0.0512965495777     
3900000000.0        0.0125297089785     0.0526315018293     0.987004214623      -0.0821663063457    0.987004214623      -0.0821663063457    0.0125297089785     0.0526315018293     
4000000000.0        0.0127634241684     0.053965327223      0.986747029135      -0.0842585006076    0.986747029135      -0.0842585006076    0.0127634241684     0.053965327223      
4100000000.0        0.0130027245756     0.0552979986214     0.986483678552      -0.0863496086473    0.986483678552      -0.0863496086473    0.0130027245756     0.0552979986214     
4200000000.0        0.0132476074894     0.0566294889277     0.986214165355      -0.0884396041769    0.986214165355      -0.0884396041769    0.0132476074894     0.0566294889277     
4300000000.0        0.0134980697685     0.0579597710883     0.985938492456      -0.0905284609346    0.985938492456      -0.0905284609346    0.0134980697685     0.0579597710883     
4400000000.0        0.013754107864      0.0592888180947     0.98565666317       -0.0926161526879    0.98565666317       -0.0926161526879    0.013754107864      0.0592888180947     
4500000000.0        0.0140157178407     0.0606166029865     0.985368681196      -0.0947026532362    0.985368681196      -0.0947026532362    0.0140157178407     0.0606166029865     
4600000000.0        0.0142828953958     0.061943098853      0.985074550597      -0.0967879364132    0.985074550597      -0.0967879364132    0.0142828953958     0.061943098853      
4700000000.0        0.0145556358762     0.0632682788355     0.984774275784      -0.0988719760897    0.984774275784      -0.0988719760897    0.0145556358762     0.0632682788355     
4800000000.0        0.0148339342938     0.0645921161293     0.984467861501      -0.100954746175     0.984467861501      -0.100954746175     0.0148339342938     0.0645921161293     
4900000000.0        0.0151177853397     0.0659145839853     0.984155312809      -0.103036220622     0.984155312809      -0.103036220622     0.0151177853397     0.0659145839853     
5000000000.0        0.0154071833971     0.0672356557124     0.983836635075      -0.105116373424     0.983836635075      -0.105116373424     0.0154071833971     0.0672356557124     
5100000000.0        0.015702122553      0.0685553046788     0.983511833958      -0.107195178624     0.983511833958      -0.107195178624     0.015702122553      0.0685553046788     
5200000000.0        0.0160025966088     0.0698735043137     0.983180915403      -0.109272610308     0.983180915403      -0.109272610308     0.0160025966088     0.0698735043137     
5300000000.0        0.0163085990903     0.0711902281091     0.982843885624      -0.111348642615     0.982843885624      -0.111348642615     0.0163085990903     0.0711902281091     
5400000000.0        0.0166201232567     0.0725054496216     0.982500751104      -0.113423249736     0.982500751104      -0.113423249736     0.0166201232567     0.0725054496216     
5500000000.0        0.0169371621092     0.0738191424734     0.982151518577      -0.115496405913     0.982151518577      -0.115496405913     0.0169371621092     0.0738191424734     
5600000000.0        0.0172597083982     0.0751312803541     0.981796195028      -0.117568085444     0.981796195028      -0.117568085444     0.0172597083982     0.0751312803541     
5700000000.0        0.017587754631      0.0764418370223     0.981434787681      -0.119638262685     0.981434787681      -0.119638262685     0.017587754631      0.0764418370223     
5800000000.0        0.0179212930783     0.0777507863067     0.981067303997      -0.121706912048     0.981067303997      -0.121706912048     0.0179212930783     0.0777507863067     
5900000000.0        0.0182603157801     0.0790581021078     0.980693751661      -0.123774008008     0.980693751661      -0.123774008008     0.0182603157801     0.0790581021078     
6000000000.0        0.0186048145518     0.080363758399      0.980314138585      -0.125839525099     0.980314138585      -0.125839525099     0.0186048145518     0.080363758399      
6100000000.0        0.0189547809892     0.0816677292278     0.979928472894      -0.12790343792      0.979928472894      -0.12790343792      0.0189547809892     0.0816677292278     
6200000000.0        0.0193102064741     0.0829699887174     0.979536762929      -0.129965721135     0.979536762929      -0.129965721135     0.0193102064741     0.0829699887174     
6300000000.0        0.0196710821784     0.0842705110681     0.979139017234      -0.132026349471     0.979139017234      -0.132026349471     0.0196710821784     0.0842705110681     
6400000000.0        0.0200373990689     0.0855692705577     0.97873524456       -0.134085297726     0.97873524456       -0.134085297726     0.0200373990689     0.0855692705577     
6500000000.0        0.0204091479115     0.0868662415436     0.978325453855      -0.136142540765     0.978325453855      -0.136142540765     0.0204091479115     0.0868662415436     
6600000000.0        0.0207863192748     0.0881613984637     0.977909654262      -0.138198053524     0.977909654262      -0.138198053524     0.0207863192748     0.0881613984637     
6700000000.0        0.0211689035342     0.0894547158372     0.977487855115      -0.140251811011     0.977487855115      -0.140251811011     0.0211689035342     0.0894547158372     
6800000000.0        0.0215568908751     0.0907461682662     0.977060065936      -0.142303788307     0.977060065936      -0.142303788307     0.0215568908751     0.0907461682662     
6900000000.0        0.0219502712966     0.0920357304366     0.976626296431      -0.144353960564     0.976626296431      -0.144353960564     0.0219502712966     0.0920357304366     
7000000000.0        0.0223490346143     0.0933233771191     0.97618655649       -0.146402303015     0.97618655649       -0.146402303015     0.0223490346143     0.0933233771191     
7100000000.0        0.0227531704636     0.0946090831705     0.975740856177      -0.148448790965     0.975740856177      -0.148448790965     0.0227531704636     0.0946090831705     
7200000000.0        0.0231626683024     0.0958928235347     0.975289205734      -0.150493399799     0.975289205734      -0.150493399799     0.0231626683024     0.0958928235347     
7300000000.0        0.0235775174139     0.0971745732434     0.974831615576      -0.15253610498      0.974831615576      -0.15253610498      0.0235775174139     0.0971745732434     
7400000000.0        0.0239977069094     0.0984543074178     0.974368096287      -0.154576882054     0.974368096287      -0.154576882054     0.0239977069094     0.0984543074178     
7500000000.0        0.0244232257306     0.0997320012689     0.973898658619      -0.156615706644     0.973898658619      -0.156615706644     0.0244232257306     0.0997320012689     
7600000000.0        0.0248540626521     0.101007630099      0.973423313488      -0.158652554458     0.973423313488      -0.158652554458     0.0248540626521     0.101007630099      
7700000000.0        0.0252902062839     0.102281169302      0.972942071975      -0.160687401289     0.972942071975      -0.160687401289     0.0252902062839     0.102281169302      
7800000000.0        0.0257316450733     0.103552594365      0.97245494532       -0.162720223011     0.97245494532       -0.162720223011     0.0257316450733     0.103552594365      
7900000000.0        0.0261783673075     0.10482188087       0.971961944923      -0.164750995587     0.971961944923      -0.164750995587     0.0261783673075     0.10482188087       
8000000000.0        0.0266303611153     0.106089004492      0.971463082338      -0.166779695064     0.971463082338      -0.166779695064     0.0266303611153     0.106089004492      
8100000000.0        0.0270876144694     0.107353941003      0.970958369276      -0.16880629758      0.970958369276      -0.16880629758      0.0270876144694     0.107353941003      
8200000000.0        0.0275501151882     0.108616666273      0.970447817599      -0.170830779359     0.970447817599      -0.170830779359     0.0275501151882     0.108616666273      
8300000000.0        0.0280178509379     0.109877156266      0.96993143932       -0.172853116717     0.96993143932       -0.172853116717     0.0280178509379     0.109877156266      
8400000000.0        0.0284908092342     0.111135387048      0.969409246601      -0.174873286058     0.969409246601      -0.174873286058     0.0284908092342     0.111135387048      
8500000000.0        0.0289689774442     0.112391334783      0.96888125175       -0.176891263881     0.96888125175       -0.176891263881     0.0289689774442     0.112391334783      
8600000000.0        0.0294523427879     0.113644975733      0.96834746722       -0.178907026775     0.96834746722       -0.178907026775     0.0294523427879     0.113644975733      
8700000000.0        0.0299408923404     0.114896286265      0.967807905609      -0.180920551424     0.967807905609      -0.180920551424     0.0299408923404     0.114896286265      
8800000000.0        0.0304346130333     0.116145242845      0.967262579656      -0.182931814607     0.967262579656      -0.182931814607     0.0304346130333     0.116145242845      
8900000000.0        0.030933491656      0.117391822042      0.966711502241      -0.184940793197     0.966711502241      -0.184940793197     0.030933491656      0.117391822042      
9000000000.0        0.0314375148581     0.11863600053       0.966154686381      -0.186947464164     0.966154686381      -0.186947464164     0.0314375148581     0.11863600053       
9100000000.0        0.0319466691503     0.119877755084      0.965592145231      -0.188951804577     0.965592145231      -0.188951804577     0.0319466691503     0.119877755084      
9200000000.0        0.0324609409063     0.121117062588      0.965023892081      -0.190953791599     0.965023892081      -0.190953791599     0.0324609409063     0.121117062588      
9300000000.0        0.032980316364      0.122353900029      0.964449940357      -0.192953402496     0.964449940357      -0.192953402496     0.032980316364      0.122353900029      
9400000000.0        0.0335047816274     0.1235882445        0.963870303615      -0.194950614632     0.963870303615      -0.194950614632     0.0335047816274     0.1235882445        
9500000000.0        0.0340343226678     0.124820073204      0.963284995543      -0.196945405471     0.963284995543      -0.196945405471     0.0340343226678     0.124820073204      
9600000000.0        0.0345689253252     0.12604936345       0.96269402996       -0.198937752579     0.96269402996       -0.198937752579     0.0345689253252     0.12604936345       
9700000000.0        0.0351085753099     0.127276092655      0.962097420812      -0.200927633626     0.962097420812      -0.200927633626     0.0351085753099     0.127276092655      
9800000000.0        0.0356532582039     0.128500238347      0.961495182171      -0.202915026381     0.961495182171      -0.202915026381     0.0356532582039     0.128500238347      
9900000000.0        0.036202959462      0.129721778164      0.960887328236      -0.204899908721     0.960887328236      -0.204899908721     0.036202959462      0.129721778164      
10000000000.0       0.0367576644136     0.130940689854      0.960273873331      -0.206882258625     0.960273873331      -0.206882258625     0.0367576644136     0.130940689854      
