# Hz S RI R 50.00 
100000000.0         0.00412293896452    -0.0008413396576    0.995854354095      -0.00485543940726   0.995854354095      -0.00485543940726   0.00412293896452    -0.0008413396576    
200000000.0         0.00413553322398    -0.00168280103714   0.995787554625      -0.00971051555893   0.995787554625      -0.00971051555893   0.00413553322398    -0.00168280103714   
300000000.0         0.00413274984657    -0.00252422171845   0.995703636282      -0.0145651955672    0.995703636282      -0.0145651955672    0.00413274984657    -0.00252422171845   
400000000.0         0.00411815920811    -0.00336549570568   0.99559903199       -0.0194193862935    0.99559903199       -0.0194193862935    0.00411815920811    -0.00336549570568   
500000000.0         0.0040931370693     -0.00420652971909   0.995472370786      -0.0242729799943    0.995472370786      -0.0242729799943    0.0040931370693     -0.00420652971909   
600000000.0         0.0040583864384     -0.00504723596466   0.995322955964      -0.0291258622388    0.995322955964      -0.0291258622388    0.0040583864384     -0.00504723596466   
700000000.0         0.00401432429807    -0.00588752958434   0.995150378349      -0.0339779148149    0.995150378349      -0.0339779148149    0.00401432429807    -0.00588752958434   
800000000.0         0.00396122269678    -0.00672732749679   0.99495437522       -0.0388290171069    0.99495437522       -0.0388290171069    0.00396122269678    -0.00672732749679   
900000000.0         0.00389927154721    -0.0075665477889    0.994734767509      -0.0436790468527    0.994734767509      -0.0436790468527    0.00389927154721    -0.0075665477889    
1000000000.0        0.00382861044605    -0.00840510936496   0.994491427996      -0.0485278806024    0.994491427996      -0.0485278806024    0.00382861044605    -0.00840510936496   
1100000000.0        0.00374934635586    -0.00924293173077   0.994224263627      -0.0533753940179    0.994224263627      -0.0533753940179    0.00374934635586    -0.00924293173077   
1200000000.0        0.00366156413743    -0.0100799348545    0.993933204991      -0.0582214620793    0.993933204991      -0.0582214620793    0.00366156413743    -0.0100799348545    
1300000000.0        0.00356533317375    -0.010916039074     0.993618199692      -0.0630659592328    0.993618199692      -0.0630659592328    0.00356533317375    -0.010916039074     
1400000000.0        0.00346071172225    -0.0117511650332    0.993279208009      -0.067908759502     0.993279208009      -0.067908759502     0.00346071172224    -0.0117511650332    
1500000000.0        0.00334774987939    -0.0125852336385    0.992916199929      -0.0727497365733    0.992916199929      -0.0727497365733    0.00334774987939    -0.0125852336385    
1600000000.0        0.00322649166188    -0.0134181660281    0.992529153069      -0.0775887638634    0.992529153069      -0.0775887638634    0.00322649166188    -0.0134181660281    
1700000000.0        0.00309697650573    -0.0142498835507    0.992118051177      -0.0824257145739    0.992118051177      -0.0824257145739    0.00309697650573    -0.0142498835507    
1800000000.0        0.00295924037028    -0.0150803077508    0.991682883036      -0.0872604617368    0.991682883036      -0.0872604617368    0.00295924037028    -0.0150803077508    
1900000000.0        0.00281331656692    -0.0159093603595    0.991223641627      -0.0920928782525    0.991223641627      -0.0920928782525    0.00281331656692    -0.0159093603595    
2000000000.0        0.00265923639187    -0.0167369632884    0.990740323503      -0.0969228369222    0.990740323503      -0.0969228369222    0.00265923639188    -0.0167369632884    
2100000000.0        0.00249702961656    -0.0175630386262    0.990232928299      -0.101750210476     0.990232928299      -0.101750210476     0.00249702961656    -0.0175630386262    
2200000000.0        0.00232672487268    -0.0183875086383    0.989701458341      -0.1065748716       0.989701458341      -0.1065748716       0.00232672487268    -0.0183875086383    
2300000000.0        0.00214834995821    -0.0192102957669    0.989145918349      -0.111396692953     0.989145918349      -0.111396692953     0.00214834995821    -0.0192102957669    
2400000000.0        0.00196193208321    -0.0200313226333    0.988566315182      -0.116215547195     0.988566315182      -0.116215547195     0.00196193208321    -0.0200313226333    
2500000000.0        0.00176749806907    -0.0208505120409    0.987962657641      -0.121031306996     0.987962657641      -0.121031306996     0.00176749806907    -0.0208505120409    
2600000000.0        0.00156507451155    -0.0216677869794    0.987334956306      -0.12584384506      0.987334956306      -0.12584384506      0.00156507451155    -0.0216677869794    
2700000000.0        0.00135468791504    -0.0224830706287    0.986683223399      -0.130653034137     0.986683223399      -0.130653034137     0.00135468791504    -0.0224830706287    
2800000000.0        0.00113636480417    -0.0232962863647    0.986007472669      -0.135458747038     0.986007472669      -0.135458747038     0.00113636480417    -0.0232962863647    
2900000000.0        0.000910131816886   -0.0241073577643    0.985307719302      -0.140260856649     0.985307719302      -0.140260856649     0.000910131816885   -0.0241073577643    
3000000000.0        0.000676015782723   -0.0249162086119    0.984583979833      -0.145059235943     0.984583979833      -0.145059235943     0.000676015782724   -0.0249162086119    
3100000000.0        0.000434043788888   -0.0257227629051    0.983836272084      -0.149853757992     0.983836272084      -0.149853757992     0.000434043788887   -0.0257227629051    
3200000000.0        0.000184243236281   -0.0265269448615    0.983064615102      -0.154644295981     0.983064615102      -0.154644295981     0.000184243236281   -0.0265269448615    
3300000000.0        -7.33581127673e-05  -0.0273286789251    0.98226902911       -0.159430723215     0.98226902911       -0.159430723215     -7.33581127674e-05  -0.0273286789251    
3400000000.0        -0.000338732093724  -0.0281278897734    0.981449535459      -0.164212913131     0.981449535459      -0.164212913131     -0.000338732093724  -0.0281278897734    
3500000000.0        -0.000611850104905  -0.0289245023245    0.980606156597      -0.168990739311     0.980606156597      -0.168990739311     -0.000611850104905  -0.0289245023245    
3600000000.0        -0.000892683077455  -0.0297184417436    0.979738916027      -0.173764075487     0.979738916027      -0.173764075487     -0.000892683077454  -0.0297184417436    
3700000000.0        -0.00118120144951   -0.0305096334507    0.978847838283      -0.178532795557     0.978847838283      -0.178532795557     -0.00118120144951   -0.0305096334507    
3800000000.0        -0.00147737514392   -0.0312980031277    0.977932948903      -0.183296773586     0.977932948903      -0.183296773586     -0.00147737514392   -0.0312980031277    
3900000000.0        -0.00178117354908   -0.0320834767259    0.976994274404      -0.188055883821     0.976994274404      -0.188055883821     -0.00178117354908   -0.0320834767259    
4000000000.0        -0.00209256550236   -0.0328659804728    0.97603184226       -0.1928100007       0.97603184226       -0.1928100007       -0.00209256550236   -0.0328659804728    
4100000000.0        -0.00241151927581   -0.0336454408801    0.975045680886      -0.197558998856     0.975045680886      -0.197558998856     -0.00241151927581   -0.0336454408801    
4200000000.0        -0.00273800256395   -0.0344217847508    0.97403581962       -0.20230275313      0.97403581962       -0.20230275313      -0.00273800256395   -0.0344217847508    
4300000000.0        -0.0030719824732    -0.0351949391866    0.973002288706      -0.207041138577     0.973002288706      -0.207041138577     -0.0030719824732    -0.0351949391866    
4400000000.0        -0.00341342551286   -0.0359648315955    0.971945119281      -0.211774030473     0.971945119281      -0.211774030473     -0.00341342551286   -0.0359648315955    
4500000000.0        -0.0037622975875    -0.0367313896992    0.970864343362      -0.216501304325     0.970864343362      -0.216501304325     -0.0037622975875    -0.0367313896992    
4600000000.0        -0.00411856399049   -0.0374945415404    0.969759993834      -0.22122283588      0.969759993834      -0.22122283588      -0.00411856399049   -0.0374945415404    
4700000000.0        -0.00448218939855   -0.0382542154901    0.968632104436      -0.225938501128     0.968632104436      -0.225938501128     -0.00448218939855   -0.0382542154901    
4800000000.0        -0.00485313786732   -0.0390103402556    0.967480709756      -0.230648176313     0.967480709756      -0.230648176313     -0.00485313786732   -0.0390103402556    
4900000000.0        -0.00523137282776   -0.0397628448871    0.966305845217      -0.23535173794      0.966305845217      -0.23535173794      -0.00523137282776   -0.0397628448871    
5000000000.0        -0.00561685708323   -0.0405116587855    0.965107547069      -0.240049062781     0.965107547069      -0.240049062781     -0.00561685708323   -0.0405116587855    
5100000000.0        -0.00600955280734   -0.0412567117098    0.96388585238       -0.244740027884     0.96388585238       -0.244740027884     -0.00600955280734   -0.0412567117098    
5200000000.0        -0.0064094215424    -0.0419979337842    0.962640799028      -0.249424510577     0.962640799028      -0.249424510577     -0.0064094215424    -0.0419979337842    
5300000000.0        -0.00681642419839   -0.0427352555053    0.961372425694      -0.254102388479     0.961372425694      -0.254102388479     -0.00681642419839   -0.0427352555053    
5400000000.0        -0.00723052105243   -0.0434686077497    0.960080771855      -0.258773539503     0.960080771855      -0.258773539503     -0.00723052105243   -0.0434686077497    
5500000000.0        -0.00765167174882   -0.0441979217807    0.958765877772      -0.263437841867     0.958765877772      -0.263437841867     -0.00765167174882   -0.0441979217807    
5600000000.0        -0.00807983529937   -0.0449231292558    0.95742778449       -0.268095174095     0.95742778449       -0.268095174095     -0.00807983529936   -0.0449231292558    
5700000000.0        -0.00851497008417   -0.0456441622339    0.956066533827      -0.272745415029     0.956066533827      -0.272745415029     -0.00851497008417   -0.0456441622339    
5800000000.0        -0.00895703385278   -0.0463609531819    0.954682168367      -0.277388443832     0.954682168367      -0.277388443832     -0.00895703385278   -0.0463609531819    
5900000000.0        -0.00940598372567   -0.0470734349824    0.953274731457      -0.282024139996     0.953274731457      -0.282024139996     -0.00940598372567   -0.0470734349824    
6000000000.0        -0.00986177619598   -0.04778154094      0.951844267199      -0.286652383349     0.951844267199      -0.286652383349     -0.00986177619598   -0.04778154094      
6100000000.0        -0.0103243671316    -0.0484852047885    0.950390820442      -0.291273054058     0.950390820442      -0.291273054058     -0.0103243671316    -0.0484852047885    
6200000000.0        -0.0107937117775    -0.0491843606982    0.948914436779      -0.295886032639     0.948914436779      -0.295886032639     -0.0107937117775    -0.0491843606982    
6300000000.0        -0.0112697647582    -0.0498789432819    0.947415162541      -0.300491199961     0.947415162541      -0.300491199961     -0.0112697647582    -0.0498789432819    
6400000000.0        -0.0117524800809    -0.0505688876024    0.945893044789      -0.305088437252     0.945893044789      -0.305088437252     -0.0117524800809    -0.0505688876024    
6500000000.0        -0.0122418111381    -0.0512541291788    0.944348131311      -0.309677626106     0.944348131311      -0.309677626106     -0.0122418111381    -0.0512541291788    
6600000000.0        -0.012737710711     -0.0519346039932    0.942780470615      -0.314258648488     0.942780470615      -0.314258648488     -0.012737710711     -0.0519346039932    
6700000000.0        -0.0132401309729    -0.0526102484976    0.941190111921      -0.318831386738     0.941190111921      -0.318831386738     -0.0132401309729    -0.0526102484976    
6800000000.0        -0.0137490234928    -0.0532809996201    0.939577105161      -0.323395723581     0.939577105161      -0.323395723581     -0.0137490234928    -0.0532809996201    
6900000000.0        -0.0142643392395    -0.0539467947716    0.93794150097       -0.327951542131     0.93794150097       -0.327951542131     -0.0142643392395    -0.0539467947716    
7000000000.0        -0.0147860285847    -0.054607571852     0.936283350681      -0.332498725891     0.936283350681      -0.332498725891     -0.0147860285847    -0.054607571852     
7100000000.0        -0.0153140413081    -0.0552632692568    0.934602706319      -0.337037158769     0.934602706319      -0.337037158769     -0.0153140413081    -0.0552632692568    
7200000000.0        -0.0158483266008    -0.0559138258834    0.932899620596      -0.341566725073     0.932899620596      -0.341566725073     -0.0158483266008    -0.0559138258834    
7300000000.0        -0.0163888330702    -0.0565591811371    0.931174146908      -0.346087309524     0.931174146908      -0.346087309524     -0.0163888330702    -0.0565591811371    
7400000000.0        -0.0169355087443    -0.0571992749374    0.929426339326      -0.350598797256     0.929426339326      -0.350598797256     -0.0169355087443    -0.0571992749374    
7500000000.0        -0.0174883010765    -0.0578340477242    0.927656252592      -0.355101073824     0.927656252592      -0.355101073824     -0.0174883010765    -0.0578340477242    
7600000000.0        -0.0180471569499    -0.0584634404637    0.925863942114      -0.359594025209     0.925863942114      -0.359594025209     -0.0180471569499    -0.0584634404637    
7700000000.0        -0.0186120226828    -0.0590873946545    0.924049463962      -0.36407753782      0.924049463962      -0.36407753782      -0.0186120226828    -0.0590873946545    
7800000000.0        -0.0191828440333    -0.0597058523332    0.922212874859      -0.368551498504     0.922212874859      -0.368551498504     -0.0191828440333    -0.0597058523332    
7900000000.0        -0.0197595662046    -0.0603187560808    0.920354232178      -0.373015794547     0.920354232178      -0.373015794547     -0.0197595662046    -0.0603187560808    
8000000000.0        -0.0203421338498    -0.0609260490279    0.918473593937      -0.377470313679     0.918473593937      -0.377470313679     -0.0203421338498    -0.0609260490279    
8100000000.0        -0.0209304910777    -0.0615276748606    0.916571018793      -0.38191494408      0.916571018793      -0.38191494408      -0.0209304910777    -0.0615276748606    
8200000000.0        -0.0215245814581    -0.0621235778261    0.914646566036      -0.386349574386     0.914646566036      -0.386349574386     -0.0215245814581    -0.0621235778261    
8300000000.0        -0.0221243480269    -0.0627137027386    0.912700295584      -0.39077409369      0.912700295584      -0.39077409369      -0.0221243480269    -0.0627137027386    
8400000000.0        -0.0227297332921    -0.0632979949839    0.910732267977      -0.395188391547     0.910732267977      -0.395188391547     -0.0227297332921    -0.0632979949839    
8500000000.0        -0.0233406792392    -0.063876400526     0.908742544374      -0.399592357982     0.908742544374      -0.399592357982     -0.0233406792392    -0.063876400526     
8600000000.0        -0.0239571273371    -0.0644488659112    0.906731186544      -0.403985883491     0.906731186544      -0.403985883491     -0.0239571273371    -0.0644488659112    
8700000000.0        -0.0245790185438    -0.0650153382743    0.904698256863      -0.408368859045     0.904698256863      -0.408368859045     -0.0245790185438    -0.0650153382743    
8800000000.0        -0.0252062933126    -0.0655757653434    0.902643818308      -0.412741176098     0.902643818308      -0.412741176098     -0.0252062933126    -0.0655757653434    
8900000000.0        -0.0258388915975    -0.0661300954449    0.90056793445       -0.417102726586     0.90056793445       -0.417102726586     -0.0258388915975    -0.0661300954449    
9000000000.0        -0.0264767528599    -0.0666782775086    0.898470669451      -0.421453402935     0.898470669451      -0.421453402935     -0.0264767528599    -0.0666782775086    
9100000000.0        -0.027119816074     -0.067220261073     0.896352088056      -0.425793098061     0.896352088056      -0.425793098061     -0.027119816074     -0.067220261073     
9200000000.0        -0.0277680197339    -0.0677559962895    0.89421225559       -0.43012170538      0.89421225559       -0.43012170538      -0.0277680197339    -0.0677559962895    
9300000000.0        -0.0284213018588    -0.0682854339277    0.892051237949      -0.434439118804     0.892051237949      -0.434439118804     -0.0284213018588    -0.0682854339277    
9400000000.0        -0.0290796000003    -0.0688085253802    0.889869101599      -0.438745232751     0.889869101599      -0.438745232751     -0.0290796000003    -0.0688085253802    
9500000000.0        -0.0297428512481    -0.0693252226667    0.887665913564      -0.443039942146     0.887665913564      -0.443039942146     -0.0297428512481    -0.0693252226667    
9600000000.0        -0.0304109922366    -0.0698354784391    0.885441741429      -0.447323142425     0.885441741429      -0.447323142425     -0.0304109922366    -0.0698354784391    
9700000000.0        -0.0310839591514    -0.0703392459856    0.883196653325      -0.451594729538     0.883196653325      -0.451594729538     -0.0310839591514    -0.0703392459856    
9800000000.0        -0.0317616877362    -0.0708364792353    0.88093071793       -0.455854599954     0.88093071793       -0.455854599954     -0.0317616877362    -0.0708364792353    
9900000000.0        -0.0324441132988    -0.0713271327626    0.878644004462      -0.46010265066      0.878644004462      -0.46010265066      -0.0324441132988    -0.0713271327626    
10000000000.0       -0.033131170718     -0.0718111617911    0.876336582669      -0.46433877917      0.876336582669      -0.46433877917      -0.033131170718     -0.0718111617911    
