# Hz S RI R 50.00 
100000000.0         0.0249597487098     0.00128931826183    0.975038697346      -0.00176143224621   0.975038697346      -0.00176143224621   0.0249597487098     0.00128931826183    
200000000.0         0.0251266091217     0.00257761635383    0.974871058162      -0.00352184781023   0.974871058162      -0.00352184781023   0.0251266091217     0.00257761635383    
300000000.0         0.0252544305026     0.00386528584536    0.974742233149      -0.00528164037159   0.974742233149      -0.00528164037159   0.0252544305026     0.00386528584536    
400000000.0         0.0253644968112     0.00515245105265    0.974630938319      -0.00704093592455   0.974630938319      -0.00704093592455   0.0253644968112     0.00515245105265    
500000000.0         0.0254650287778     0.00643917397012    0.974528952913      -0.00879979792478   0.974528952913      -0.00879979792478   0.0254650287778     0.00643917397012    
600000000.0         0.0255602304946     0.00772548893661    0.97443207281       -0.0105582620312    0.97443207281       -0.0105582620312    0.0255602304946     0.00772548893661    
700000000.0         0.0256525920596     0.00901141509928    0.974337807883      -0.012316348608     0.974337807883      -0.012316348608     0.0256525920596     0.00901141509928    
800000000.0         0.0257437309456     0.0102969621994     0.974244540629      -0.0140740685339    0.974244540629      -0.0140740685339    0.0257437309456     0.0102969621994     
900000000.0         0.0258347670416     0.011582133682      0.974151151126      -0.0158314263266    0.974151151126      -0.0158314263266    0.0258347670416     0.011582133682      
1000000000.0        0.0259265129614     0.0128669285387     0.974056826728      -0.0175884219958    0.974056826728      -0.0175884219958    0.0259265129614     0.0128669285387     
1100000000.0        0.0260195799497     0.0141513424779     0.973960956155      -0.019345052222     0.973960956155      -0.019345052222     0.0260195799497     0.0141513424779     
1200000000.0        0.0261144410561     0.0154353687093     0.973863066323      -0.0211013111465    0.973863066323      -0.0211013111465    0.0261144410561     0.0154353687093     
1300000000.0        0.0262114709232     0.0167189984921     0.973762782552      -0.0228571909244    0.973762782552      -0.0228571909244    0.0262114709232     0.0167189984921     
1400000000.0        0.0263109719675     0.0180022215305     0.973659802386      -0.0246126821236    0.973659802386      -0.0246126821236    0.0263109719675     0.0180022215305     
1500000000.0        0.0264131922385     0.019285026268      0.973553877738      -0.0263677740227    0.973553877738      -0.0263677740227    0.0264131922385     0.019285026268      
1600000000.0        0.0265183379747     0.0205674001111     0.973444802327      -0.0281224548366    0.973444802327      -0.0281224548366    0.0265183379747     0.0205674001111     
1700000000.0        0.0266265826616     0.0218493296026     0.973332402627      -0.0298767118927    0.973332402627      -0.0298767118927    0.0266265826616     0.0218493296026     
1800000000.0        0.0267380737133     0.0231308005589     0.973216531178      -0.0316305317693    0.973216531178      -0.0316305317693    0.0267380737133     0.0231308005589     
1900000000.0        0.026852937496      0.0244117981796     0.973097061571      -0.0333839004073    0.973097061571      -0.0333839004073    0.026852937496      0.0244117981796     
2000000000.0        0.0269712831709     0.0256923071366     0.972973884598      -0.0351368032004    0.972973884598      -0.0351368032004    0.0269712831709     0.0256923071366     
2100000000.0        0.0270932056776     0.0269723116475     0.972846905273      -0.03688922507      0.972846905273      -0.03688922507      0.0270932056776     0.0269723116475     
2200000000.0        0.0272187880824     0.0282517955363     0.972716040481      -0.0386411505268    0.972716040481      -0.0386411505268    0.0272187880824     0.0282517955363     
2300000000.0        0.0273481034481     0.0295307422846     0.97258121711       -0.0403925637228    0.97258121711       -0.0403925637228    0.0273481034481     0.0295307422846     
2400000000.0        0.02748121634       0.0308091350747     0.972442370543      -0.0421434484956    0.972442370543      -0.0421434484956    0.02748121634       0.0308091350747     
2500000000.0        0.0276181840507     0.0320869568265     0.972299443436      -0.0438937884057    0.972299443436      -0.0438937884057    0.0276181840507     0.0320869568265     
2600000000.0        0.0277590576051     0.0333641902288     0.972152384712      -0.0456435667689    0.972152384712      -0.0456435667689    0.0277590576051     0.0333641902288     
2700000000.0        0.0279038825917     0.034640817767      0.972001148728      -0.0473927666843    0.972001148728      -0.0473927666843    0.0279038825917     0.034640817767      
2800000000.0        0.0280526998561     0.0359168217469     0.971845694582      -0.0491413710588    0.971845694582      -0.0491413710588    0.0280526998561     0.0359168217469     
2900000000.0        0.0282055460829     0.0371921843152     0.971685985535      -0.0508893626281    0.971685985535      -0.0508893626281    0.0282055460829     0.0371921843152     
3000000000.0        0.0283624542875     0.0384668874779     0.971521988514      -0.0526367239757    0.971521988514      -0.0526367239757    0.0283624542875     0.0384668874779     
3100000000.0        0.0285234542345     0.0397409131168     0.971353673695      -0.0543834375498    0.971353673695      -0.0543834375498    0.0285234542345     0.0397409131168     
3200000000.0        0.0286885727951     0.0410142430035     0.971181014148      -0.0561294856775    0.971181014148      -0.0561294856775    0.0286885727951     0.0410142430035     
3300000000.0        0.0288578342539     0.0422868588126     0.971003985528      -0.0578748505785    0.971003985528      -0.0578748505785    0.0288578342539     0.0422868588126     
3400000000.0        0.029031260575      0.0435587421328     0.970822565809      -0.059619514377     0.970822565809      -0.059619514377     0.029031260575      0.0435587421328     
3500000000.0        0.0292088716314     0.0448298744777     0.970636735057      -0.061363459112     0.970636735057      -0.061363459112     0.0292088716314     0.0448298744777     
3600000000.0        0.0293906854061     0.0461002372948     0.970446475224      -0.0631066667473    0.970446475224      -0.0631066667473    0.0293906854061     0.0461002372948     
3700000000.0        0.0295767181671     0.0473698119741     0.970251769978      -0.0648491191802    0.970251769978      -0.0648491191802    0.0295767181671     0.0473698119741     
3800000000.0        0.0297669846222     0.0486385798558     0.970052604547      -0.0665907982492    0.970052604547      -0.0665907982492    0.0297669846222     0.0486385798558     
3900000000.0        0.029961498054      0.0499065222375     0.969848965582      -0.0683316857418    0.969848965582      -0.0683316857418    0.029961498054      0.0499065222375     
4000000000.0        0.0301602704405     0.0511736203805     0.969640841036      -0.0700717634008    0.969640841036      -0.0700717634008    0.0301602704405     0.0511736203805     
4100000000.0        0.0303633125617     0.0524398555155     0.969428220063      -0.0718110129306    0.969428220063      -0.0718110129306    0.0303633125617     0.0524398555155     
4200000000.0        0.0305706340943     0.0537052088485     0.969211092917      -0.0735494160029    0.969211092917      -0.0735494160029    0.0305706340943     0.0537052088485     
4300000000.0        0.0307822436966     0.0549696615654     0.96898945087       -0.0752869542616    0.96898945087       -0.0752869542616    0.0307822436966     0.0549696615654     
4400000000.0        0.0309981490839     0.0562331948371     0.968763286135      -0.0770236093282    0.968763286135      -0.0770236093282    0.0309981490839     0.0562331948371     
4500000000.0        0.0312183570972     0.0574957898233     0.9685325918        -0.0787593628058    0.9685325918        -0.0787593628058    0.0312183570972     0.0574957898233     
4600000000.0        0.0314428737639     0.058757427677      0.968297361765      -0.0804941962837    0.968297361765      -0.0804941962837    0.0314428737639     0.058757427677      
4700000000.0        0.031671704353      0.0600180895478     0.968057590689      -0.0822280913409    0.968057590689      -0.0822280913409    0.031671704353      0.0600180895478     
4800000000.0        0.0319048534258     0.061277756586      0.967813273935      -0.0839610295501    0.967813273935      -0.0839610295501    0.0319048534258     0.061277756586      
4900000000.0        0.03214232488       0.0625364099452     0.967564407532      -0.085692992481     0.967564407532      -0.085692992481     0.03214232488       0.0625364099452     
5000000000.0        0.0323841219921     0.0637940307859     0.967310988126      -0.0874239617036    0.967310988126      -0.0874239617036    0.0323841219921     0.0637940307859     
5100000000.0        0.0326302474537     0.0650506002781     0.967053012951      -0.0891539187912    0.967053012951      -0.0891539187912    0.0326302474537     0.0650506002781     
5200000000.0        0.0328807034064     0.0663060996042     0.966790479787      -0.090882845323     0.966790479787      -0.090882845323     0.0328807034064     0.0663060996042     
5300000000.0        0.0331354914724     0.0675605099615     0.966523386933      -0.0926107228873    0.966523386933      -0.0926107228873    0.0331354914724     0.0675605099615     
5400000000.0        0.0333946127836     0.0688138125647     0.966251733181      -0.0943375330838    0.966251733181      -0.0943375330838    0.0333946127836     0.0688138125647     
5500000000.0        0.0336580680074     0.0700659886482     0.965975517781      -0.096063257526     0.965975517781      -0.096063257526     0.0336580680074     0.0700659886482     
5600000000.0        0.0339258573708     0.0713170194682     0.965694740428      -0.0977878778434    0.965694740428      -0.0977878778434    0.0339258573708     0.0713170194682     
5700000000.0        0.0341979806828     0.072566886305      0.965409401231      -0.0995113756841    0.965409401231      -0.0995113756841    0.0341979806828     0.072566886305      
5800000000.0        0.0344744373542     0.0738155704646     0.965119500698      -0.101233732717     0.965119500698      -0.101233732717     0.0344744373542     0.0738155704646     
5900000000.0        0.0347552264173     0.0750630532812     0.964825039714      -0.102954930632     0.964825039714      -0.102954930632     0.0347552264173     0.0750630532812     
6000000000.0        0.0350403465423     0.0763093161183     0.964526019525      -0.104674951144     0.964526019525      -0.104674951144     0.0350403465423     0.0763093161183     
6100000000.0        0.0353297960546     0.0775543403711     0.964222441723      -0.106393775996     0.964222441723      -0.106393775996     0.0353297960546     0.0775543403711     
6200000000.0        0.0356235729486     0.0787981074677     0.963914308229      -0.108111386957     0.963914308229      -0.108111386957     0.0356235729486     0.0787981074677     
6300000000.0        0.0359216749023     0.080040598871      0.963601621279      -0.109827765825     0.963601621279      -0.109827765825     0.0359216749023     0.080040598871      
6400000000.0        0.0362240992902     0.0812817960798     0.963284383414      -0.11154289443      0.963284383414      -0.11154289443      0.0362240992902     0.0812817960798     
6500000000.0        0.036530843195      0.0825216806308     0.962962597463      -0.113256754636     0.962962597463      -0.113256754636     0.036530843195      0.0825216806308     
6600000000.0        0.0368419034191     0.0837602340997     0.962636266538      -0.11496932834      0.962636266538      -0.11496932834      0.0368419034191     0.0837602340997     
6700000000.0        0.0371572764949     0.0849974381027     0.962305394018      -0.116680597474     0.962305394018      -0.116680597474     0.0371572764949     0.0849974381027     
6800000000.0        0.037476958695      0.0862332742976     0.961969983543      -0.118390544009     0.961969983543      -0.118390544009     0.037476958695      0.0862332742976     
6900000000.0        0.0378009460408     0.0874677243854     0.961630039002      -0.120099149952     0.961630039002      -0.120099149952     0.0378009460408     0.0874677243854     
7000000000.0        0.0381292343114     0.0887007701112     0.961285564526      -0.121806397352     0.961285564526      -0.121806397352     0.0381292343114     0.0887007701112     
7100000000.0        0.0384618190518     0.0899323932655     0.960936564479      -0.123512268298     0.960936564479      -0.123512268298     0.0384618190518     0.0899323932655     
7200000000.0        0.0387986955804     0.0911625756856     0.960583043454      -0.125216744922     0.960583043454      -0.125216744922     0.0387986955804     0.0911625756856     
7300000000.0        0.039139858996      0.0923912992563     0.960225006258      -0.126919809397     0.960225006258      -0.126919809397     0.039139858996      0.0923912992563     
7400000000.0        0.0394853041848     0.0936185459113     0.959862457916      -0.128621443943     0.959862457916      -0.128621443943     0.0394853041848     0.0936185459113     
7500000000.0        0.0398350258263     0.0948442976341     0.959495403653      -0.130321630825     0.959495403653      -0.130321630825     0.0398350258263     0.0948442976341     
7600000000.0        0.0401890183999     0.096068536459      0.959123848898      -0.132020352355     0.959123848898      -0.132020352355     0.0401890183999     0.096068536459      
7700000000.0        0.0405472761901     0.0972912444723     0.958747799272      -0.133717590891     0.958747799272      -0.133717590891     0.0405472761901     0.0972912444723     
7800000000.0        0.0409097932921     0.0985124038129     0.958367260586      -0.135413328841     0.958367260586      -0.135413328841     0.0409097932921     0.0985124038129     
7900000000.0        0.0412765636165     0.0997319966736     0.957982238834      -0.137107548664     0.957982238834      -0.137107548664     0.0412765636165     0.0997319966736     
8000000000.0        0.0416475808949     0.100950005302      0.95759274019       -0.138800232868     0.95759274019       -0.138800232868     0.0416475808949     0.100950005302      
8100000000.0        0.0420228386836     0.102166412         0.957198771001      -0.140491364012     0.957198771001      -0.140491364012     0.0420228386836     0.102166412         
8200000000.0        0.0424023303683     0.103381199129      0.956800337785      -0.14218092471      0.956800337785      -0.14218092471      0.0424023303683     0.103381199129      
8300000000.0        0.0427860491685     0.104594349104      0.956397447226      -0.143868897628     0.956397447226      -0.143868897628     0.0427860491685     0.104594349104      
8400000000.0        0.0431739881411     0.1058058444        0.955990106169      -0.145555265486     0.955990106169      -0.145555265486     0.0431739881411     0.1058058444        
8500000000.0        0.0435661401842     0.107015667551      0.955578321618      -0.14724001106      0.955578321618      -0.14724001106      0.0435661401842     0.107015667551      
8600000000.0        0.0439624980408     0.10822380115       0.955162100732      -0.148923117182     0.955162100732      -0.148923117182     0.0439624980408     0.10822380115       
8700000000.0        0.044363054302      0.109430227852      0.95474145082       -0.150604566741     0.95474145082       -0.150604566741     0.044363054302      0.109430227852      
8800000000.0        0.0447678014107     0.11063493037       0.954316379341      -0.152284342682     0.954316379341      -0.152284342682     0.0447678014107     0.11063493037       
8900000000.0        0.0451767316642     0.111837891482      0.953886893897      -0.15396242801      0.953886893897      -0.15396242801      0.0451767316642     0.111837891482      
9000000000.0        0.0455898372177     0.113039094028      0.953453002232      -0.15563880579      0.953453002232      -0.15563880579      0.0455898372177     0.113039094028      
9100000000.0        0.0460071100868     0.114238520911      0.95301471223       -0.157313459144     0.95301471223       -0.157313459144     0.0460071100868     0.114238520911      
9200000000.0        0.0464285421503     0.115436155097      0.952572031911      -0.158986371258     0.952572031911      -0.158986371258     0.0464285421503     0.115436155097      
9300000000.0        0.0468541251533     0.116631979619      0.952124969428      -0.160657525378     0.952124969428      -0.160657525378     0.0468541251533     0.116631979619      
9400000000.0        0.0472838507092     0.117825977573      0.951673533065      -0.16232690481      0.951673533065      -0.16232690481      0.0472838507092     0.117825977573      
9500000000.0        0.0477177103024     0.119018132123      0.951217731235      -0.163994492926     0.951217731235      -0.163994492926     0.0477177103024     0.119018132123      
9600000000.0        0.0481556952907     0.1202084265        0.950757572477      -0.165660273159     0.950757572477      -0.165660273159     0.0481556952907     0.1202084265        
9700000000.0        0.0485977969075     0.121396843999      0.950293065454      -0.167324229008     0.950293065454      -0.167324229008     0.0485977969075     0.121396843999      
9800000000.0        0.0490440062641     0.122583367987      0.949824218952      -0.168986344036     0.949824218952      -0.168986344036     0.0490440062641     0.122583367987      
9900000000.0        0.0494943143518     0.123767981897      0.949351041873      -0.17064660187      0.949351041873      -0.17064660187      0.0494943143518     0.123767981897      
10000000000.0       0.0499487120439     0.124950669231      0.948873543241      -0.172304986204     0.948873543241      -0.172304986204     0.0499487120439     0.124950669231      
