# Hz S RI R 50.00 
100000000.0         0.00101664991692    -0.00410270720183   0.998922504105      -0.00591280101516   0.998922504105      -0.00591280101516   0.00101664991692    -0.00410270720183   
200000000.0         0.000946079250638   -0.00820466244316   0.998832894433      -0.011824814869     0.998832894433      -0.011824814869     0.000946079250638   -0.00820466244316   
300000000.0         0.000825183213656   -0.0123051601373    0.998693316071      -0.0177353677376    0.998693316071      -0.0177353677376    0.000825183213655   -0.0123051601373    
400000000.0         0.000654898346579   -0.0164034981947    0.998502898297      -0.0236437751922    0.998502898297      -0.0236437751922    0.000654898346579   -0.0164034981947    
500000000.0         0.000435617656239   -0.0204989751006    0.998261339542      -0.0295493498729    0.998261339542      -0.0295493498729    0.000435617656239   -0.0204989751006    
600000000.0         0.000167576522678   -0.0245908900083    0.997968521517      -0.0354514034486    0.997968521517      -0.0354514034486    0.000167576522678   -0.0245908900083    
700000000.0         -0.00014904932374   -0.028678543059     0.997624411234      -0.0413492476304    0.997624411234      -0.0413492476304    -0.00014904932374   -0.028678543059     
800000000.0         -0.000514108101471  -0.0327612357352    0.997229025269      -0.047242194856     0.997229025269      -0.047242194856     -0.000514108101471  -0.0327612357352    
900000000.0         -0.000927456123023  -0.0368382712094    0.996782413845      -0.0531295588225    0.996782413845      -0.0531295588225    -0.000927456123023  -0.0368382712094    
1000000000.0        -0.00138894979472   -0.0409089546858    0.996284652749      -0.0590106549391    0.996284652749      -0.0590106549391    -0.00138894979472   -0.0409089546858    
1100000000.0        -0.00189844120448   -0.0449725937311    0.995735838806      -0.0648848007318    0.995735838806      -0.0648848007318    -0.00189844120448   -0.0449725937311    
1200000000.0        -0.00245577552761   -0.0490284985985    0.995136087164      -0.0707513162169    0.995136087164      -0.0707513162169    -0.00245577552761   -0.0490284985985    
1300000000.0        -0.00306078943001   -0.0530759825427    0.994485529545      -0.0766095242529    0.994485529545      -0.0766095242529    -0.00306078943001   -0.0530759825427    
1400000000.0        -0.00371331005429   -0.05711436213      0.993784313065      -0.0824587508764    0.993784313065      -0.0824587508764    -0.00371331005429   -0.05711436213      
1500000000.0        -0.00441315436514   -0.0611429575403    0.993032599401      -0.0882983256255    0.993032599401      -0.0882983256255    -0.00441315436514   -0.0611429575403    
1600000000.0        -0.00516012872604   -0.0651610928647    0.99223056416       -0.0941275818525    0.99223056416       -0.0941275818525    -0.00516012872604   -0.0651610928647    
1700000000.0        -0.00595402863117   -0.0691680963971    0.991378396401      -0.0999458570285    0.991378396401      -0.0999458570285    -0.00595402863117   -0.0691680963971    
1800000000.0        -0.00679463854483   -0.0731633009199    0.990476298233      -0.10575249304      0.990476298233      -0.10575249304      -0.00679463854483   -0.0731633009199    
1900000000.0        -0.00768173181811   -0.0771460439851    0.989524484488      -0.111546836475     0.989524484488      -0.111546836475     -0.00768173181811   -0.0771460439851    
2000000000.0        -0.00861507066245   -0.0811156681895    0.988523182428      -0.117328238913     0.988523182428      -0.117328238913     -0.00861507066245   -0.0811156681895    
2100000000.0        -0.0095944061665    -0.0850715214446    0.987472631481      -0.123096057189     0.987472631481      -0.123096057189     -0.0095944061665    -0.0850715214446    
2200000000.0        -0.0106194783466    -0.0890129572411    0.986373082999      -0.128849653675     0.986373082999      -0.128849653675     -0.0106194783466    -0.0890129572411    
2300000000.0        -0.0116900162241    -0.0929393349076    0.985224800027      -0.134588396534     0.985224800027      -0.134588396534     -0.0116900162241    -0.0929393349076    
2400000000.0        -0.0128057379247    -0.0968500198641    0.984028057078      -0.140311659983     0.984028057078      -0.140311659983     -0.0128057379247    -0.0968500198641    
2500000000.0        -0.0139663507958    -0.100744383869     0.982783139919      -0.146018824538     0.982783139919      -0.146018824538     -0.0139663507958    -0.100744383869     
2600000000.0        -0.0151715515393    -0.104621805262     0.981490345355      -0.151709277265     0.981490345355      -0.151709277265     -0.0151715515393    -0.104621805262     
2700000000.0        -0.0164210263584    -0.108481669197     0.980149981014      -0.157382412011     0.980149981014      -0.157382412011     -0.0164210263584    -0.108481669197     
2800000000.0        -0.0177144511146    -0.112323367874     0.978762365134      -0.163037629641     0.978762365134      -0.163037629641     -0.0177144511146    -0.112323367874     
2900000000.0        -0.0190514914966    -0.11614630076      0.977327826348      -0.16867433826      0.977327826348      -0.16867433826      -0.0190514914966    -0.11614630076      
3000000000.0        -0.020431803197     -0.119949874808     0.975846703464      -0.174291953431     0.975846703464      -0.174291953431     -0.020431803197     -0.119949874808     
3100000000.0        -0.0218550320984    -0.123733504667     0.97431934525       -0.17988989839      0.97431934525       -0.17988989839      -0.0218550320984    -0.123733504667     
3200000000.0        -0.0233208144659    -0.127496612884     0.972746110212      -0.185467604248     0.972746110212      -0.185467604248     -0.0233208144659    -0.127496612884     
3300000000.0        -0.0248287771473    -0.131238630099     0.971127366364      -0.19102451019      0.971127366364      -0.19102451019      -0.0248287771473    -0.131238630099     
3400000000.0        -0.0263785377791    -0.134958995242     0.969463491007      -0.196560063667     0.969463491007      -0.196560063667     -0.0263785377791    -0.134958995242     
3500000000.0        -0.0279697049985    -0.138657155709     0.967754870495      -0.202073720578     0.967754870495      -0.202073720578     -0.0279697049985    -0.138657155709     
3600000000.0        -0.0296018786602    -0.142332567543     0.966001900004      -0.20756494545      0.966001900004      -0.20756494545      -0.0296018786602    -0.142332567543     
3700000000.0        -0.0312746500585    -0.145984695599     0.964204983295      -0.213033211607     0.964204983295      -0.213033211607     -0.0312746500585    -0.145984695599     
3800000000.0        -0.0329876021536    -0.149613013712     0.962364532475      -0.21847800133      0.962364532475      -0.21847800133      -0.0329876021536    -0.149613013712     
3900000000.0        -0.0347403098017    -0.153217004843     0.960480967757      -0.223898806017     0.960480967757      -0.223898806017     -0.0347403098017    -0.153217004843     
4000000000.0        -0.0365323399895    -0.156796161237     0.958554717214      -0.229295126328     0.958554717214      -0.229295126328     -0.0365323399895    -0.156796161237     
4100000000.0        -0.0383632520713    -0.160349984553     0.956586216537      -0.234666472328     0.956586216537      -0.234666472328     -0.0383632520713    -0.160349984553     
4200000000.0        -0.0402325980096    -0.163877986004     0.954575908785      -0.240012363617     0.954575908785      -0.240012363617     -0.0402325980096    -0.163877986004     
4300000000.0        -0.0421399226182    -0.16737968648      0.952524244133      -0.245332329459     0.952524244133      -0.245332329459     -0.0421399226182    -0.16737968648      
4400000000.0        -0.0440847638078    -0.170854616668     0.950431679623      -0.250625908903     0.950431679623      -0.250625908903     -0.0440847638078    -0.170854616668     
4500000000.0        -0.0460666528338    -0.174302317157     0.948298678912      -0.255892650886     0.948298678912      -0.255892650886     -0.0460666528338    -0.174302317157     
4600000000.0        -0.0480851145459    -0.17772233855      0.946125712013      -0.261132114345     0.946125712013      -0.261132114345     -0.0480851145459    -0.17772233855      
4700000000.0        -0.0501396676392    -0.181114241553     0.943913255043      -0.266343868309     0.943913255043      -0.266343868309     -0.0501396676392    -0.181114241553     
4800000000.0        -0.052229824907     -0.184477597066     0.941661789967      -0.27152749199      0.941661789967      -0.27152749199      -0.052229824907     -0.184477597066     
4900000000.0        -0.0543550934937    -0.187811986265     0.939371804336      -0.276682574862     0.939371804336      -0.276682574862     -0.0543550934937    -0.187811986265     
5000000000.0        -0.0565149751497    -0.191117000674     0.937043791037      -0.281808716738     0.937043791037      -0.281808716738     -0.0565149751497    -0.191117000674     
5100000000.0        -0.0587089664861    -0.194392242234     0.934678248028      -0.286905527833     0.934678248028      -0.286905527833     -0.0587089664861    -0.194392242234     
5200000000.0        -0.0609365592298    -0.19763732336      0.932275678083      -0.291972628829     0.932275678083      -0.291972628829     -0.0609365592298    -0.19763732336      
5300000000.0        -0.0631972404787    -0.200851866994     0.929836588535      -0.297009650922     0.929836588535      -0.297009650922     -0.0631972404787    -0.200851866994     
5400000000.0        -0.0654904929568    -0.20403550665      0.927361491018      -0.302016235871     0.927361491018      -0.302016235871     -0.0654904929568    -0.20403550665      
5500000000.0        -0.0678157952687    -0.207187886453     0.924850901209      -0.306992036032     0.924850901209      -0.306992036032     -0.0678157952687    -0.207187886453     
5600000000.0        -0.0701726221539    -0.210308661165     0.922305338574      -0.311936714394     0.922305338574      -0.311936714394     -0.0701726221539    -0.210308661165     
5700000000.0        -0.0725604447397    -0.213397496218     0.91972532611       -0.316849944599     0.91972532611       -0.316849944599     -0.0725604447397    -0.213397496218     
5800000000.0        -0.0749787307931    -0.21645406772      0.917111390095      -0.321731410961     0.917111390095      -0.321731410961     -0.0749787307931    -0.21645406772      
5900000000.0        -0.0774269449721    -0.219478062476     0.914464059834      -0.326580808477     0.914464059834      -0.326580808477     -0.0774269449721    -0.219478062476     
6000000000.0        -0.0799045490746    -0.222469177984     0.911783867406      -0.331397842828     0.911783867406      -0.331397842828     -0.0799045490746    -0.222469177984     
6100000000.0        -0.0824110022865    -0.225427122435     0.909071347417      -0.336182230381     0.909071347417      -0.336182230381     -0.0824110022865    -0.225427122435     
6200000000.0        -0.0849457614271    -0.228351614704     0.906327036753      -0.340933698174     0.906327036753      -0.340933698174     -0.0849457614271    -0.228351614704     
6300000000.0        -0.0875082811934    -0.231242384333     0.903551474334      -0.345651983905     0.903551474334      -0.345651983905     -0.0875082811934    -0.231242384333     
6400000000.0        -0.0900980144011    -0.234099171512     0.900745200873      -0.35033683591      0.900745200873      -0.35033683591      -0.0900980144011    -0.234099171512     
6500000000.0        -0.0927144122244    -0.236921727048     0.897908758631      -0.35498801313      0.897908758631      -0.35498801313      -0.0927144122244    -0.236921727048     
6600000000.0        -0.0953569244324    -0.23970981233      0.895042691187      -0.359605285085     0.895042691187      -0.359605285085     -0.0953569244324    -0.23970981233      
6700000000.0        -0.098024999623     -0.242463199296     0.892147543193      -0.364188431826     0.892147543193      -0.364188431826     -0.098024999623     -0.242463199296     
6800000000.0        -0.100718085454     -0.24518167038      0.889223860152      -0.368737243898     0.889223860152      -0.368737243898     -0.100718085454     -0.24518167038      
6900000000.0        -0.103435628872     -0.247865018464     0.886272188182      -0.373251522283     0.886272188182      -0.373251522283     -0.103435628872     -0.247865018464     
7000000000.0        -0.106177076337     -0.250513046824     0.883293073793      -0.377731078345     0.883293073793      -0.377731078345     -0.106177076337     -0.250513046824     
7100000000.0        -0.108941874042     -0.253125569065     0.880287063662      -0.38217573377      0.880287063662      -0.38217573377      -0.108941874042     -0.253125569065     
7200000000.0        -0.111729468135     -0.255702409055     0.877254704417      -0.386585320498     0.877254704417      -0.386585320498     -0.111729468135     -0.255702409055     
7300000000.0        -0.114539304933     -0.258243400855     0.874196542421      -0.390959680651     0.874196542421      -0.390959680651     -0.114539304933     -0.258243400855     
7400000000.0        -0.117370831129     -0.26074838864      0.871113123556      -0.395298666458     0.871113123556      -0.395298666458     -0.117370831129     -0.26074838864      
7500000000.0        -0.120223494006     -0.263217226621     0.868004993019      -0.399602140173     0.868004993019      -0.399602140173     -0.120223494006     -0.263217226621     
7600000000.0        -0.123096741638     -0.265649778955     0.864872695117      -0.403869973988     0.864872695117      -0.403869973988     -0.123096741638     -0.265649778955     
7700000000.0        -0.125990023085     -0.268045919661     0.861716773063      -0.408102049946     0.861716773063      -0.408102049946     -0.125990023085     -0.268045919661     
7800000000.0        -0.128902788598     -0.27040553252      0.858537768785      -0.412298259843     0.858537768785      -0.412298259843     -0.128902788598     -0.27040553252      
7900000000.0        -0.131834489803     -0.27272851098      0.855336222729      -0.416458505133     0.855336222729      -0.416458505133     -0.131834489803     -0.27272851098      
8000000000.0        -0.134784579891     -0.275014758053     0.852112673672      -0.420582696825     0.852112673672      -0.420582696825     -0.134784579891     -0.275014758053     
8100000000.0        -0.137752513805     -0.27726418621      0.848867658541      -0.424670755376     0.848867658541      -0.424670755376     -0.137752513805     -0.27726418621      
8200000000.0        -0.140737748411     -0.279476717271     0.845601712228      -0.428722610583     0.845601712228      -0.428722610583     -0.140737748411     -0.279476717271     
8300000000.0        -0.143739742679     -0.281652282294     0.84231536742       -0.432738201471     0.84231536742       -0.432738201471     -0.143739742679     -0.281652282294     
8400000000.0        -0.146757957854     -0.283790821455     0.839009154423      -0.436717476174     0.839009154423      -0.436717476174     -0.146757957854     -0.283790821455     
8500000000.0        -0.149791857617     -0.285892283934     0.835683601001      -0.440660391818     0.835683601001      -0.440660391818     -0.149791857617     -0.285892283934     
8600000000.0        -0.152840908248     -0.287956627791     0.832339232208      -0.444566914402     0.832339232208      -0.444566914402     -0.152840908248     -0.287956627791     
8700000000.0        -0.155904578786     -0.289983819841     0.828976570236      -0.448437018667     0.828976570236      -0.448437018667     -0.155904578786     -0.289983819841     
8800000000.0        -0.158982341179     -0.291973835528     0.825596134258      -0.452270687975     0.825596134258      -0.452270687975     -0.158982341179     -0.291973835528     
8900000000.0        -0.16207367043      -0.293926658794     0.822198440281      -0.456067914173     0.822198440281      -0.456067914173     -0.16207367043      -0.293926658794     
9000000000.0        -0.165178044744     -0.29584228195      0.818784001004      -0.459828697468     0.818784001004      -0.459828697468     -0.165178044744     -0.29584228195      
9100000000.0        -0.168294945665     -0.297720705539     0.815353325675      -0.46355304629      0.815353325675      -0.46355304629      -0.168294945665     -0.297720705539     
9200000000.0        -0.171423858208     -0.299561938201     0.811906919958      -0.467240977152     0.811906919958      -0.467240977152     -0.171423858208     -0.299561938201     
9300000000.0        -0.174564270993     -0.301365996536     0.808445285805      -0.470892514518     0.808445285805      -0.470892514518     -0.174564270993     -0.301365996536     
9400000000.0        -0.177715676367     -0.303132904966     0.804968921326      -0.474507690664     0.804968921326      -0.474507690664     -0.177715676367     -0.303132904966     
9500000000.0        -0.180877570523     -0.304862695591     0.801478320672      -0.478086545529     0.801478320672      -0.478086545529     -0.180877570523     -0.304862695591     
9600000000.0        -0.184049453621     -0.306555408047     0.797973973917      -0.481629126583     0.797973973917      -0.481629126583     -0.184049453621     -0.306555408047     
9700000000.0        -0.187230829894     -0.308211089368     0.794456366945      -0.485135488674     0.794456366945      -0.485135488674     -0.187230829894     -0.308211089368     
9800000000.0        -0.190421207757     -0.309829793833     0.790925981344      -0.488605693892     0.790925981344      -0.488605693892     -0.190421207757     -0.309829793833     
9900000000.0        -0.19362009991      -0.311411582827     0.787383294304      -0.492039811416     0.787383294304      -0.492039811416     -0.19362009991      -0.311411582827     
10000000000.0       -0.196827023435     -0.312956524692     0.783828778515      -0.495437917371     0.783828778515      -0.495437917371     -0.196827023435     -0.312956524692     
