# Hz S RI R 50.00 
100000000.0         0.00043106672977    -0.00462167843233   0.99949983161       -0.00611483428113   0.99949983161       -0.00611483428113   0.00043106672977    -0.00462167843233   
200000000.0         0.000344192753293   -0.00924248466349   0.999403324805      -0.0122288087004    0.999403324805      -0.0122288087004    0.000344192753294   -0.00924248466349   
300000000.0         0.000200009977853   -0.0138615877123    0.999248893993      -0.0183411190007    0.999248893993      -0.0183411190007    0.000200009977853   -0.0138615877123    
400000000.0         -1.04077751295e-06  -0.0184781455475    0.999036176453      -0.0244509422892    0.999036176453      -0.0244509422892    -1.04077751284e-06  -0.0184781455475    
500000000.0         -0.000258749736776  -0.0230913106287    0.998765073032      -0.0305574476786    0.998765073032      -0.0305574476786    -0.000258749736776  -0.0230913106287    
600000000.0         -0.000572966399863  -0.0277002324585    0.99843557678       -0.0366597999495    0.99843557678       -0.0366597999495    -0.000572966399863  -0.0277002324585    
700000000.0         -0.000943555868985  -0.0323040591369    0.998047729515      -0.0427571615758    0.998047729515      -0.0427571615758    -0.000943555868985  -0.0323040591369    
800000000.0         -0.00137038290617   -0.0369019384745    0.99760160601       -0.0488486940887    0.99760160601       -0.0488486940887    -0.00137038290617   -0.0369019384745    
900000000.0         -0.00185330484427   -0.0414930188764    0.997097306971      -0.0549335591127    0.997097306971      -0.0549335591127    -0.00185330484427   -0.0414930188764    
1000000000.0        -0.00239216801357   -0.0460764500902    0.996534955458      -0.0610109192144    0.996534955458      -0.0610109192144    -0.00239216801357   -0.0460764500902    
1100000000.0        -0.00298680578299   -0.0506513838686    0.995914694877      -0.0670799386357    0.995914694877      -0.0670799386357    -0.00298680578299   -0.0506513838686    
1200000000.0        -0.00363703742656   -0.0552169745739    0.995236687755      -0.0731397839501    0.995236687755      -0.0731397839501    -0.00363703742656   -0.0552169745739    
1300000000.0        -0.00434266744848   -0.0597723797407    0.994501114927      -0.0791896246648    0.994501114927      -0.0791896246648    -0.00434266744848   -0.0597723797407    
1400000000.0        -0.00510348518119   -0.0643167606069    0.993708174972      -0.0852286337827    0.993708174972      -0.0852286337827    -0.00510348518119   -0.0643167606069    
1500000000.0        -0.00591926455592   -0.0688492826205    0.992858083772      -0.0912559883337    0.992858083772      -0.0912559883337    -0.00591926455592   -0.0688492826205    
1600000000.0        -0.00678976398836   -0.0733691159264    0.991951074168      -0.097270869882     0.991951074168      -0.097270869882     -0.00678976398836   -0.0733691159264    
1700000000.0        -0.00771472634459   -0.0778754358358    0.990987395656      -0.103272465012     0.990987395656      -0.103272465012     -0.00771472634459   -0.0778754358358    
1800000000.0        -0.00869387896579   -0.0823674232811    0.989967314121      -0.109259965796     0.989967314121      -0.109259965796     -0.00869387896579   -0.0823674232811    
1900000000.0        -0.00972693373772   -0.0868442652571    0.988891111576      -0.115232570251     0.988891111576      -0.115232570251     -0.00972693373772   -0.0868442652571    
2000000000.0        -0.0108135871954    -0.0913051552502    0.987759085925      -0.121189482773     0.987759085925      -0.121189482773     -0.0108135871954    -0.0913051552502    
2100000000.0        -0.0119535206569    -0.0957492936556    0.986571550716      -0.127129914569     0.986571550716      -0.127129914569     -0.0119535206569    -0.0957492936556    
2200000000.0        -0.0131464003806    -0.100175888184     0.985328834898      -0.133053084065     0.985328834898      -0.133053084065     -0.0131464003806    -0.100175888184     
2300000000.0        -0.0143918777444    -0.104584154255     0.984031282576      -0.138958217313     0.984031282576      -0.138958217313     -0.0143918777444    -0.104584154255     
2400000000.0        -0.0156895894422    -0.108973315384     0.982679252757      -0.144844548379     0.982679252757      -0.144844548379     -0.0156895894422    -0.108973315384     
2500000000.0        -0.0170391576972    -0.113342603556     0.981273119099      -0.150711319724     0.981273119099      -0.150711319724     -0.0170391576972    -0.113342603556     
2600000000.0        -0.0184401904895    -0.117691259586     0.979813269638      -0.156557782569     0.979813269638      -0.156557782569     -0.0184401904895    -0.117691259586     
2700000000.0        -0.019892281798     -0.122018533476     0.978300106526      -0.162383197259     0.978300106526      -0.162383197259     -0.019892281798     -0.122018533476     
2800000000.0        -0.0213950118539    -0.126323684754     0.976734045745      -0.1681868336       0.976734045745      -0.1681868336       -0.0213950118539    -0.126323684754     
2900000000.0        -0.0229479474059    -0.130605982806     0.975115516825      -0.173967971202     0.975115516825      -0.173967971202     -0.0229479474059    -0.130605982806     
3000000000.0        -0.0245506419964    -0.134864707198     0.973444962552      -0.1797258998       0.973444962552      -0.1797258998       -0.0245506419964    -0.134864707198     
3100000000.0        -0.0262026362472    -0.139099147983     0.971722838661      -0.185459919563     0.971722838661      -0.185459919563     -0.0262026362472    -0.139099147983     
3200000000.0        -0.0279034581547    -0.143308606003     0.969949613536      -0.191169341402     0.969949613536      -0.191169341402     -0.0279034581547    -0.143308606003     
3300000000.0        -0.0296526233938    -0.147492393172     0.968125767889      -0.196853487255     0.968125767889      -0.196853487255     -0.0296526233938    -0.147492393172     
3400000000.0        -0.0314496356297    -0.151649832755     0.966251794444      -0.202511690366     0.966251794444      -0.202511690366     -0.0314496356297    -0.151649832755     
3500000000.0        -0.0332939868375    -0.155780259631     0.964328197604      -0.208143295555     0.964328197604      -0.208143295555     -0.0332939868375    -0.155780259631     
3600000000.0        -0.0351851576285    -0.159883020548     0.962355493123      -0.213747659468     0.962355493123      -0.213747659468     -0.0351851576285    -0.159883020548     
3700000000.0        -0.0371226175828    -0.163957474363     0.960334207765      -0.219324150826     0.960334207765      -0.219324150826     -0.0371226175828    -0.163957474363     
3800000000.0        -0.0391058255887    -0.168002992271     0.958264878956      -0.22487215065      0.958264878956      -0.22487215065      -0.0391058255887    -0.168002992271     
3900000000.0        -0.0411342301863    -0.172018958023     0.956148054443      -0.230391052488     0.956148054443      -0.230391052488     -0.0411342301863    -0.172018958023     
4000000000.0        -0.0432072699174    -0.176004768136     0.953984291932      -0.235880262617     0.953984291932      -0.235880262617     -0.0432072699174    -0.176004768136     
4100000000.0        -0.0453243736785    -0.179959832081     0.951774158738      -0.241339200242     0.951774158738      -0.241339200242     -0.0453243736785    -0.179959832081     
4200000000.0        -0.0474849610793    -0.183883572471     0.949518231418      -0.246767297678     0.949518231418      -0.246767297678     -0.0474849610793    -0.183883572471     
4300000000.0        -0.0496884428033    -0.187775425227     0.947217095411      -0.252164000522     0.947217095411      -0.252164000522     -0.0496884428033    -0.187775425227     
4400000000.0        -0.051934220973     -0.19163483974      0.944871344669      -0.257528767814     0.944871344669      -0.257528767814     -0.051934220973     -0.19163483974      
4500000000.0        -0.0542216895161    -0.195461279015     0.942481581285      -0.262861072184     0.942481581285      -0.262861072184     -0.0542216895161    -0.195461279015     
4600000000.0        -0.0565502345357    -0.199254219807     0.94004841513       -0.268160399986     0.94004841513       -0.268160399986     -0.0565502345357    -0.199254219807     
4700000000.0        -0.0589192346805    -0.203013152745     0.937572463469      -0.273426251425     0.937572463469      -0.273426251425     -0.0589192346805    -0.203013152745     
4800000000.0        -0.0613280615179    -0.206737582438     0.935054350595      -0.278658140668     0.935054350595      -0.278658140668     -0.0613280615179    -0.206737582438     
4900000000.0        -0.0637760799071    -0.210427027581     0.932494707449      -0.283855595943     0.932494707449      -0.283855595943     -0.0637760799071    -0.210427027581     
5000000000.0        -0.0662626483728    -0.214081021036     0.929894171251      -0.289018159627     0.929894171251      -0.289018159627     -0.0662626483728    -0.214081021036     
5100000000.0        -0.0687871194794    -0.217699109914     0.927253385115      -0.294145388324     0.927253385115      -0.294145388324     -0.0687871194794    -0.217699109914     
5200000000.0        -0.0713488402046    -0.221280855633     0.924572997685      -0.299236852933     0.924572997685      -0.299236852933     -0.0713488402046    -0.221280855633     
5300000000.0        -0.0739471523122    -0.224825833977     0.92185366275       -0.304292138694     0.92185366275       -0.304292138694     -0.0739471523122    -0.224825833977     
5400000000.0        -0.0765813927246    -0.228333635134     0.919096038882      -0.30931084524      0.919096038882      -0.30931084524      -0.0765813927246    -0.228333635134     
5500000000.0        -0.0792508938924    -0.231803863728     0.916300789054      -0.314292586622     0.916300789054      -0.314292586622     -0.0792508938924    -0.231803863728     
5600000000.0        -0.0819549841641    -0.235236138838     0.913468580279      -0.319236991331     0.913468580279      -0.319236991331     -0.0819549841641    -0.235236138838     
5700000000.0        -0.0846929881517    -0.238630094008     0.910600083237      -0.324143702308     0.910600083237      -0.324143702308     -0.0846929881517    -0.238630094008     
5800000000.0        -0.0874642270957    -0.241985377246     0.907695971913      -0.329012376943     0.907695971913      -0.329012376943     -0.0874642270957    -0.241985377246     
5900000000.0        -0.0902680192254    -0.245301651008     0.904756923232      -0.333842687065     0.904756923232      -0.333842687065     -0.0902680192254    -0.245301651008     
6000000000.0        -0.0931036801177    -0.24857859218      0.901783616705      -0.338634318916     0.901783616705      -0.338634318916     -0.0931036801177    -0.24857859218      
6100000000.0        -0.0959705230516    -0.251815892045     0.898776734068      -0.343386973125     0.898776734068      -0.343386973125     -0.0959705230516    -0.251815892045     
6200000000.0        -0.0988678593588    -0.255013256238     0.895736958936      -0.348100364661     0.895736958936      -0.348100364661     -0.0988678593588    -0.255013256238     
6300000000.0        -0.101794998771     -0.258170404698     0.892664976451      -0.352774222785     0.892664976451      -0.352774222785     -0.101794998771     -0.258170404698     
6400000000.0        -0.104751249762     -0.261287071604     0.88956147294       -0.357408290991     0.88956147294       -0.357408290991     -0.104751249762     -0.261287071604     
6500000000.0        -0.107735919886     -0.264363005305     0.886427135578      -0.362002326929     0.886427135578      -0.362002326929     -0.107735919886     -0.264363005305     
6600000000.0        -0.11074831611      -0.267397968245     0.883262652055      -0.366556102337     0.883262652055      -0.366556102337     -0.11074831611      -0.267397968245     
6700000000.0        -0.113787745144     -0.270391736869     0.880068710242      -0.371069402943     0.880068710242      -0.371069402943     -0.113787745144     -0.270391736869     
6800000000.0        -0.116853513761     -0.273344101531     0.876845997875      -0.375542028379     0.876845997875      -0.375542028379     -0.116853513761     -0.273344101531     
6900000000.0        -0.119944929117     -0.27625486639      0.87359520223       -0.37997379207      0.87359520223       -0.37997379207      -0.119944929117     -0.27625486639      
7000000000.0        -0.123061299059     -0.279123849296     0.870317009817      -0.384364521126     0.870317009817      -0.384364521126     -0.123061299059     -0.279123849296     
7100000000.0        -0.126201932434     -0.281950881671     0.867012106071      -0.388714056222     0.867012106071      -0.388714056222     -0.126201932434     -0.281950881671     
7200000000.0        -0.129366139389     -0.284735808383     0.863681175052      -0.393022251471     0.863681175052      -0.393022251471     -0.129366139389     -0.284735808383     
7300000000.0        -0.132553231659     -0.287478487613     0.86032489915       -0.397288974293     0.86032489915       -0.397288974293     -0.132553231659     -0.287478487613     
7400000000.0        -0.135762522862     -0.290178790709     0.856943958802      -0.40151410527      0.856943958802      -0.40151410527      -0.135762522862     -0.290178790709     
7500000000.0        -0.138993328771     -0.292836602047     0.853539032206      -0.405697538004     0.853539032206      -0.405697538004     -0.138993328771     -0.292836602047     
7600000000.0        -0.142244967596     -0.295451818872     0.850110795048      -0.409839178962     0.850110795048      -0.409839178962     -0.142244967596     -0.295451818872     
7700000000.0        -0.145516760243     -0.29802435114      0.846659920239      -0.413938947315     0.846659920239      -0.413938947315     -0.145516760243     -0.29802435114      
7800000000.0        -0.14880803058      -0.300554121352     0.843187077649      -0.417996774779     0.843187077649      -0.417996774779     -0.14880803058      -0.300554121352     
7900000000.0        -0.152118105687     -0.30304106439      0.839692933854      -0.42201260544      0.839692933854      -0.42201260544      -0.152118105687     -0.30304106439      
8000000000.0        -0.155446316104     -0.305485127332     0.836178151894      -0.42598639558      0.836178151894      -0.42598639558      -0.155446316104     -0.305485127332     
8100000000.0        -0.158791996068     -0.307886269282     0.832643391029      -0.4299181135       0.832643391029      -0.4299181135       -0.158791996068     -0.307886269282     
8200000000.0        -0.162154483743     -0.310244461176     0.829089306511      -0.433807739334     0.829089306511      -0.433807739334     -0.162154483743     -0.310244461176     
8300000000.0        -0.165533121452     -0.312559685601     0.825516549355      -0.437655264859     0.825516549355      -0.437655264859     -0.165533121452     -0.312559685601     
8400000000.0        -0.168927255883     -0.314831936601     0.821925766123      -0.441460693306     0.821925766123      -0.441460693306     -0.168927255883     -0.314831936601     
8500000000.0        -0.172336238308     -0.317061219475     0.818317598717      -0.445224039163     0.818317598717      -0.445224039163     -0.172336238308     -0.317061219475     
8600000000.0        -0.175759424781     -0.319247550584     0.814692684171      -0.448945327971     0.814692684171      -0.448945327971     -0.175759424781     -0.319247550584     
8700000000.0        -0.179196176333     -0.321390957146     0.81105165446       -0.45262459613      0.81105165446       -0.45262459613      -0.179196176333     -0.321390957146     
8800000000.0        -0.182645859162     -0.323491477028     0.807395136309      -0.456261890686     0.807395136309      -0.456261890686     -0.182645859162     -0.323491477028     
8900000000.0        -0.18610784481      -0.325549158543     0.803723751012      -0.459857269126     0.803723751012      -0.459857269126     -0.18610784481      -0.325549158543     
9000000000.0        -0.189581510341     -0.327564060233     0.800038114263      -0.463410799167     0.800038114263      -0.463410799167     -0.189581510341     -0.327564060233     
9100000000.0        -0.193066238499     -0.32953625066      0.796338835984      -0.466922558545     0.796338835984      -0.466922558545     -0.193066238499     -0.32953625066      
9200000000.0        -0.196561417874     -0.331465808191     0.792626520171      -0.470392634798     0.792626520171      -0.470392634798     -0.196561417874     -0.331465808191     
9300000000.0        -0.200066443049     -0.333352820781     0.788901764738      -0.473821125052     0.788901764738      -0.473821125052     -0.200066443049     -0.333352820781     
9400000000.0        -0.203580714744     -0.335197385757     0.785165161376      -0.477208135801     0.785165161376      -0.477208135801     -0.203580714744     -0.335197385757     
9500000000.0        -0.207103639955     -0.336999609597     0.781417295416      -0.480553782694     0.781417295416      -0.480553782694     -0.207103639955     -0.336999609597     
9600000000.0        -0.210634632082     -0.338759607711     0.777658745696      -0.483858190307     0.777658745696      -0.483858190307     -0.210634632082     -0.338759607711     
9700000000.0        -0.214173111052     -0.340477504222     0.773890084439      -0.487121491931     0.773890084439      -0.487121491931     -0.214173111052     -0.340477504222     
9800000000.0        -0.217718503434     -0.342153431743     0.770111877139      -0.490343829346     0.770111877139      -0.490343829346     -0.217718503434     -0.342153431743     
9900000000.0        -0.22127024255      -0.343787531158     0.766324682449      -0.493525352602     0.766324682449      -0.493525352602     -0.22127024255      -0.343787531158     
10000000000.0       -0.224827768576     -0.345379951398     0.762529052076      -0.496666219798     0.762529052076      -0.496666219798     -0.224827768576     -0.345379951398     
