# Hz S RI R 50.00 
100000000.0         0.0138854790797     0.00192323726339    0.986112145175      -0.00289198937043   0.986112145175      -0.00289198937043   0.0138854790797     0.00192323726339    
200000000.0         0.01399263308       0.00384551414984    0.986002672454      -0.00578302604115   0.986002672454      -0.00578302604115   0.01399263308       0.00384551414984    
300000000.0         0.0140866831778     0.00576711060506    0.985905360557      -0.00867339527118   0.985905360557      -0.00867339527118   0.0140866831778     0.00576711060506    
400000000.0         0.0141795582878     0.00768807264404    0.985808280463      -0.0115631473939    0.985808280463      -0.0115631473939    0.0141795582878     0.00768807264404    
500000000.0         0.0142758566955     0.00960839186581    0.985706833768      -0.0144522778262    0.985706833768      -0.0144522778262    0.0142758566955     0.00960839186581    
600000000.0         0.0143779243864     0.0115280357897     0.985598674362      -0.017340757578     0.985598674362      -0.017340757578     0.0143779243864     0.0115280357897     
700000000.0         0.0144871467555     0.0134469587564     0.985482416712      -0.0202285442419    0.985482416712      -0.0202285442419    0.0144871467555     0.0134469587564     
800000000.0         0.0146044202821     0.015365106987      0.985357164188      -0.0231155871049    0.985357164188      -0.0231155871049    0.0146044202821     0.015365106987      
900000000.0         0.0147303626451     0.0172824213026     0.985222298952      -0.0260018299034    0.985222298952      -0.0260018299034    0.0147303626451     0.0172824213026     
1000000000.0        0.0148654192739     0.0191988387371     0.9850773754        -0.0288872124598    0.9850773754        -0.0288872124598    0.0148654192739     0.0191988387371     
1100000000.0        0.015009922606      0.0211142935634     0.984922060913      -0.0317716717268    0.984922060913      -0.0317716717268    0.015009922606      0.0211142935634     
1200000000.0        0.015164127412      0.0230287179817     0.984756100525      -0.0346551424905    0.984756100525      -0.0346551424905    0.015164127412      0.0230287179817     
1300000000.0        0.0153282330295     0.0249420426031     0.984579294694      -0.0375375578635    0.984579294694      -0.0375375578635    0.0153282330295     0.0249420426031     
1400000000.0        0.0155023979839     0.0268541967996     0.984391484677      -0.0404188496444    0.984391484677      -0.0404188496444    0.0155023979839     0.0268541967996     
1500000000.0        0.0156867499555     0.0287651089658     0.984192542568      -0.0432989485865    0.984192542568      -0.0432989485865    0.0156867499555     0.0287651089658     
1600000000.0        0.015881392783      0.0306747067192     0.98398236429       -0.0461777846042    0.98398236429       -0.0461777846042    0.015881392783      0.0306747067192     
1700000000.0        0.0160864115125     0.0325829170576     0.983760864551      -0.0490552869351    0.983760864551      -0.0490552869351    0.0160864115125     0.0325829170576     
1800000000.0        0.0163018761197     0.0344896664834     0.983527973116      -0.051931384269     0.983527973116      -0.051931384269     0.0163018761197     0.0344896664834     
1900000000.0        0.0165278443073     0.0363948811055     0.983283632016      -0.0548060048532    0.983283632016      -0.0548060048532    0.0165278443073     0.0363948811055     
2000000000.0        0.0167643636435     0.0382984867225     0.983027793404      -0.0576790765793    0.983027793404      -0.0576790765793    0.0167643636435     0.0382984867225     
2100000000.0        0.017011473222      0.0402004088927     0.982760417899      -0.0605505270556    0.982760417899      -0.0605505270556    0.017011473222      0.0402004088927     
2200000000.0        0.0172692049675     0.0421005729927     0.982481473281      -0.0634202836689    0.982481473281      -0.0634202836689    0.0172692049675     0.0421005729927     
2300000000.0        0.0175375846757     0.0439989042681     0.982190933446      -0.0662882736365    0.982190933446      -0.0662882736365    0.0175375846757     0.0439989042681     
2400000000.0        0.0178166328502     0.045895327877      0.981888777574      -0.0691544240527    0.981888777574      -0.0691544240527    0.0178166328502     0.045895327877      
2500000000.0        0.0181063653834     0.0477897689278     0.981574989449      -0.0720186619278    0.981574989449      -0.0720186619278    0.0181063653834     0.0477897689278     
2600000000.0        0.0184067941154     0.0496821525131     0.981249556896      -0.0748809142239    0.981249556896      -0.0748809142239    0.0184067941154     0.0496821525131     
2700000000.0        0.0187179272961     0.0515724037392     0.98091247132       -0.0777411078858    0.98091247132       -0.0777411078858    0.0187179272961     0.0515724037392     
2800000000.0        0.0190397699714     0.053460447753      0.980563727324      -0.0805991698694    0.980563727324      -0.0805991698694    0.0190397699714     0.053460447753      
2900000000.0        0.0193723243071     0.055346209766      0.98020332238       -0.0834550271667    0.98020332238       -0.0834550271667    0.0193723243071     0.055346209766      
3000000000.0        0.0197155898631     0.0572296150762     0.979831256558      -0.0863086068292    0.979831256558      -0.0863086068292    0.0197155898631     0.0572296150762     
3100000000.0        0.0200695638271     0.0591105890883     0.979447532289      -0.0891598359889    0.979447532289      -0.0891598359889    0.0200695638271     0.0591105890883     
3200000000.0        0.020434241214      0.0609890573322     0.979052154173      -0.0920086418779    0.979052154173      -0.0920086418779    0.020434241214      0.0609890573322     
3300000000.0        0.0208096150389     0.0628649454797     0.978645128796      -0.0948549518459    0.978645128796      -0.0948549518459    0.0208096150389     0.0628649454797     
3400000000.0        0.0211956764652     0.0647381793608     0.978226464591      -0.0976986933778    0.978226464591      -0.0976986933778    0.0211956764652     0.0647381793608     
3500000000.0        0.0215924149354     0.0666086849784     0.977796171701      -0.100539794109     0.977796171701      -0.100539794109     0.0215924149354     0.0666086849784     
3600000000.0        0.0219998182835     0.0684763885225     0.97735426187       -0.103378181838     0.97735426187       -0.103378181838     0.0219998182835     0.0684763885225     
3700000000.0        0.0224178728354     0.0703412163828     0.976900748342      -0.106213784546     0.976900748342      -0.106213784546     0.0224178728354     0.0703412163828     
3800000000.0        0.0228465634966     0.0722030951619     0.976435645772      -0.109046530404     0.976435645772      -0.109046530404     0.0228465634966     0.0722030951619     
3900000000.0        0.0232858738303     0.0740619516866     0.975958970152      -0.111876347786     0.975958970152      -0.111876347786     0.0232858738303     0.0740619516866     
4000000000.0        0.0237357861265     0.0759177130193     0.975470738735      -0.114703165286     0.975470738735      -0.114703165286     0.0237357861265     0.0759177130193     
4100000000.0        0.0241962814642     0.0777703064689     0.97497096998       -0.117526911723     0.97497096998       -0.117526911723     0.0241962814642     0.0777703064689     
4200000000.0        0.0246673397673     0.0796196596009     0.974459683493      -0.120347516156     0.974459683493      -0.120347516156     0.0246673397673     0.0796196596009     
4300000000.0        0.0251489398542     0.0814657002476     0.973936899974      -0.123164907892     0.973936899974      -0.123164907892     0.0251489398542     0.0814657002476     
4400000000.0        0.0256410594832     0.0833083565173     0.97340264118       -0.125979016497     0.97340264118       -0.125979016497     0.0256410594832     0.0833083565173     
4500000000.0        0.0261436753941     0.0851475568037     0.972856929875      -0.128789771806     0.972856929875      -0.128789771806     0.0261436753941     0.0851475568037     
4600000000.0        0.0266567633451     0.0869832297947     0.9722997898        -0.131597103932     0.9722997898        -0.131597103932     0.0266567633451     0.0869832297947     
4700000000.0        0.0271802981471     0.088815304481      0.971731245632      -0.134400943275     0.971731245632      -0.134400943275     0.0271802981471     0.088815304481      
4800000000.0        0.0277142536954     0.0906437101645     0.971151322958      -0.13720122053      0.971151322958      -0.13720122053      0.0277142536954     0.0906437101645     
4900000000.0        0.0282586029984     0.092468376466      0.970560048245      -0.139997866695     0.970560048245      -0.139997866695     0.0282586029984     0.092468376466      
5000000000.0        0.0288133182041     0.0942892333336     0.969957448811      -0.142790813083     0.969957448811      -0.142790813083     0.0288133182041     0.0942892333336     
5100000000.0        0.0293783706251     0.0961062110498     0.969343552803      -0.145579991324     0.969343552803      -0.145579991324     0.0293783706251     0.0961062110498     
5200000000.0        0.0299537307617     0.0979192402391     0.968718389171      -0.148365333378     0.968718389171      -0.148365333378     0.0299537307617     0.0979192402391     
5300000000.0        0.0305393683228     0.0997282518753     0.968081987652      -0.151146771539     0.968081987652      -0.151146771539     0.0305393683228     0.0997282518753     
5400000000.0        0.0311352522466     0.101533177288      0.967434378743      -0.153924238444     0.967434378743      -0.153924238444     0.0311352522466     0.101533177288      
5500000000.0        0.031741350719      0.103333948171      0.966775593689      -0.156697667081     0.966775593689      -0.156697667081     0.031741350719      0.103333948171      
5600000000.0        0.0323576311918     0.105130496587      0.96610566446       -0.159466990793     0.96610566446       -0.159466990793     0.0323576311918     0.105130496587      
5700000000.0        0.0329840603988     0.106922754975      0.965424623735      -0.162232143286     0.965424623735      -0.162232143286     0.0329840603988     0.106922754975      
5800000000.0        0.0336206043722     0.108710656156      0.964732504892      -0.164993058639     0.964732504892      -0.164993058639     0.0336206043722     0.108710656156      
5900000000.0        0.0342672284576     0.110494133341      0.964029341984      -0.167749671305     0.964029341984      -0.167749671305     0.0342672284576     0.110494133341      
6000000000.0        0.0349238973282     0.112273120135      0.963315169731      -0.17050191612      0.963315169731      -0.17050191612      0.0349238973282     0.112273120135      
6100000000.0        0.0355905749986     0.114047550546      0.962590023504      -0.173249728311     0.962590023504      -0.173249728311     0.0355905749986     0.114047550546      
6200000000.0        0.0362672248378     0.115817358985      0.961853939313      -0.175993043499     0.961853939313      -0.175993043499     0.0362672248378     0.115817358985      
6300000000.0        0.0369538095821     0.117582480278      0.961106953794      -0.178731797704     0.961106953794      -0.178731797704     0.0369538095821     0.117582480278      
6400000000.0        0.037650291347      0.119342849667      0.960349104196      -0.181465927355     0.960349104196      -0.181465927355     0.037650291347      0.119342849667      
6500000000.0        0.0383566316389     0.121098402821      0.959580428369      -0.184195369293     0.959580428369      -0.184195369293     0.0383566316389     0.121098402821      
6600000000.0        0.0390727913665     0.122849075832      0.958800964755      -0.186920060776     0.958800964755      -0.186920060776     0.0390727913665     0.122849075832      
6700000000.0        0.0397987308518     0.12459480523       0.958010752376      -0.189639939485     0.958010752376      -0.189639939485     0.0397987308518     0.12459480523       
6800000000.0        0.0405344098403     0.126335527982      0.957209830824      -0.192354943531     0.957209830824      -0.192354943531     0.0405344098403     0.126335527982      
6900000000.0        0.0412797875121     0.128071181499      0.956398240248      -0.195065011455     0.956398240248      -0.195065011455     0.0412797875121     0.128071181499      
7000000000.0        0.0420348224913     0.12980170364       0.955576021346      -0.197770082241     0.955576021346      -0.197770082241     0.0420348224913     0.12980170364       
7100000000.0        0.042799472856      0.131527032719      0.954743215356      -0.200470095312     0.954743215356      -0.200470095312     0.042799472856      0.131527032719      
7200000000.0        0.0435736961482     0.133247107505      0.953899864046      -0.203164990542     0.953899864046      -0.203164990542     0.0435736961482     0.133247107505      
7300000000.0        0.0443574493827     0.134961867233      0.953046009703      -0.205854708255     0.953046009703      -0.205854708255     0.0443574493826     0.134961867233      
7400000000.0        0.0451506890565     0.1366712516        0.952181695126      -0.208539189236     0.952181695126      -0.208539189236     0.0451506890565     0.1366712516        
7500000000.0        0.0459533711583     0.138375200779      0.951306963615      -0.211218374728     0.951306963615      -0.211218374728     0.0459533711583     0.138375200779      
7600000000.0        0.0467654511766     0.140073655415      0.950421858963      -0.213892206442     0.950421858963      -0.213892206442     0.0467654511766     0.140073655415      
7700000000.0        0.047586884109      0.141766556632      0.949526425449      -0.216560626558     0.949526425449      -0.216560626558     0.047586884109      0.141766556632      
7800000000.0        0.0484176244705     0.143453846039      0.948620707825      -0.219223577732     0.948620707825      -0.219223577732     0.0484176244705     0.143453846039      
7900000000.0        0.0492576263021     0.145135465732      0.947704751314      -0.221881003096     0.947704751314      -0.221881003096     0.0492576263021     0.145135465732      
8000000000.0        0.0501068431794     0.146811358295      0.946778601594      -0.224532846265     0.946778601594      -0.224532846265     0.0501068431794     0.146811358295      
8100000000.0        0.0509652282204     0.14848146681       0.945842304797      -0.227179051341     0.945842304797      -0.227179051341     0.0509652282204     0.14848146681       
8200000000.0        0.0518327340941     0.150145734855      0.944895907497      -0.229819562914     0.944895907497      -0.229819562914     0.0518327340941     0.150145734855      
8300000000.0        0.0527093130283     0.151804106511      0.9439394567        -0.232454326068     0.9439394567        -0.232454326068     0.0527093130283     0.151804106511      
8400000000.0        0.0535949168176     0.153456526361      0.942972999841      -0.235083286384     0.942972999841      -0.235083286384     0.0535949168176     0.153456526361      
8500000000.0        0.0544894968319     0.155102939499      0.941996584773      -0.237706389941     0.941996584773      -0.237706389941     0.0544894968319     0.155102939499      
8600000000.0        0.0553930040232     0.156743291529      0.941010259761      -0.240323583325     0.941010259761      -0.240323583325     0.0553930040232     0.156743291529      
8700000000.0        0.0563053889344     0.15837752857       0.94001407347       -0.242934813624     0.94001407347       -0.242934813624     0.0563053889344     0.15837752857       
8800000000.0        0.0572266017066     0.160005597256      0.939008074962      -0.245540028438     0.939008074962      -0.245540028438     0.0572266017066     0.160005597256      
8900000000.0        0.0581565920865     0.161627444745      0.937992313688      -0.24813917588      0.937992313688      -0.24813917588      0.0581565920865     0.161627444745      
9000000000.0        0.0590953094347     0.163243018715      0.936966839478      -0.250732204577     0.936966839478      -0.250732204577     0.0590953094347     0.163243018715      
9100000000.0        0.0600427027325     0.16485226737       0.935931702533      -0.253319063674     0.935931702533      -0.253319063674     0.0600427027325     0.16485226737       
9200000000.0        0.0609987205901     0.166455139444      0.934886953421      -0.255899702838     0.934886953421      -0.255899702838     0.0609987205901     0.166455139444      
9300000000.0        0.0619633112536     0.168051584199      0.933832643066      -0.258474072258     0.933832643066      -0.258474072258     0.0619633112536     0.168051584199      
9400000000.0        0.0629364226127     0.169641551432      0.932768822744      -0.261042122651     0.932768822744      -0.261042122651     0.0629364226127     0.169641551432      
9500000000.0        0.0639180022078     0.171224991474      0.931695544072      -0.263603805259     0.931695544072      -0.263603805259     0.0639180022078     0.171224991474      
9600000000.0        0.0649079972376     0.172801855196      0.930612859004      -0.266159071858     0.930612859004      -0.266159071858     0.0649079972376     0.172801855196      
9700000000.0        0.0659063545665     0.174372094006      0.92952081982       -0.268707874753     0.92952081982       -0.268707874753     0.0659063545665     0.174372094006      
9800000000.0        0.0669130207314     0.175935659856      0.928419479123      -0.271250166788     0.928419479123      -0.271250166788     0.0669130207314     0.175935659856      
9900000000.0        0.0679279419495     0.177492505239      0.927308889829      -0.273785901341     0.927308889829      -0.273785901341     0.0679279419495     0.177492505239      
10000000000.0       0.068951064125      0.179042583196      0.926189105159      -0.276315032329     0.926189105159      -0.276315032329     0.068951064125      0.179042583196      
