# Hz S RI R 50.00 
100000000.0         -2.0733921649e-05   -0.00664904143363   0.999914420671      -0.00691198624414   0.999914420671      -0.00691198624414   -2.07339216489e-05  -0.00664904143363   
200000000.0         -0.00016504916343   -0.0132961356962    0.999769560742      -0.0138220542862    0.999769560742      -0.0138220542862    -0.00016504916343   -0.0132961356962    
300000000.0         -0.000401242806327  -0.0199394716665    0.999532865208      -0.0207284081733    0.999532865208      -0.0207284081733    -0.000401242806327  -0.0199394716665    
400000000.0         -0.000729165121195  -0.0265772295011    0.999204427946      -0.027629239702     0.999204427946      -0.027629239702     -0.000729165121195  -0.0265772295011    
500000000.0         -0.00114863541661   -0.0332075877773    0.998784408192      -0.0345227372959    0.998784408192      -0.0345227372959    -0.00114863541661   -0.0332075877773    
600000000.0         -0.00165943002115   -0.0398287270906    0.998273018688      -0.0414070902053    0.998273018688      -0.0414070902053    -0.00165943002115   -0.0398287270906    
700000000.0         -0.00226127931984   -0.0464388326978    0.997670522586      -0.0482804914575    0.997670522586      -0.0482804914575    -0.00226127931984   -0.0464388326978    
800000000.0         -0.00295386682534   -0.0530360967524    0.996977232173      -0.0551411402769    0.996977232173      -0.0551411402769    -0.00295386682534   -0.0530360967524    
900000000.0         -0.00373682895592   -0.059618720328     0.996193508113      -0.0619872442303    0.996193508113      -0.0619872442303    -0.00373682895592   -0.059618720328     
1000000000.0        -0.00460975513977   -0.0661849153048    0.995319758844      -0.0688170212003    0.995319758844      -0.0688170212003    -0.00460975513977   -0.0661849153048    
1100000000.0        -0.00557218810782   -0.0727329061664    0.994356440015      -0.0756287012463    0.994356440015      -0.0756287012463    -0.00557218810782   -0.0727329061664    
1200000000.0        -0.00662362431615   -0.079260931725     0.993304053898      -0.0824205283794    0.993304053898      -0.0824205283794    -0.00662362431615   -0.079260931725     
1300000000.0        -0.00776351446877   -0.0857672467855    0.992163148761      -0.0891907622664    0.992163148761      -0.0891907622664    -0.00776351446877   -0.0857672467855    
1400000000.0        -0.00899126412535   -0.0922501237587    0.990934318197      -0.095937679875     0.990934318197      -0.095937679875     -0.00899126412535   -0.0922501237587    
1500000000.0        -0.0103062343837    -0.098707854222     0.989618200393      -0.102659577062     0.989618200393      -0.102659577062     -0.0103062343837    -0.098707854222     
1600000000.0        -0.0117077426308    -0.105138750435     0.988215477347      -0.109354770111     0.988215477347      -0.109354770111     -0.0117077426308    -0.105138750435     
1700000000.0        -0.0131950633574    -0.111541146802     0.986726874035      -0.116021597215     0.986726874035      -0.116021597215     -0.0131950633574    -0.111541146802     
1800000000.0        -0.0147674290317    -0.117913401293     0.985153157514      -0.122658419914     0.985153157514      -0.122658419914     -0.0147674290317    -0.117913401293     
1900000000.0        -0.0164240310291    -0.124253896809     0.983495135983      -0.129263624474     0.983495135983      -0.129263624474     -0.0164240310291    -0.124253896809     
2000000000.0        -0.0181640206143    -0.130561042498     0.981753657792      -0.135835623224     0.981753657792      -0.135835623224     -0.0181640206143    -0.130561042498     
2100000000.0        -0.0199865099736    -0.136833275028     0.979929610402      -0.142372855828     0.979929610402      -0.142372855828     -0.0199865099736    -0.136833275028     
2200000000.0        -0.0218905732925    -0.143069059795     0.978023919301      -0.148873790515     0.978023919301      -0.148873790515     -0.0218905732925    -0.143069059795     
2300000000.0        -0.023875247878     -0.149266892087     0.976037546876      -0.155336925246     0.976037546876      -0.155336925246     -0.023875247878     -0.149266892087     
2400000000.0        -0.0259395353203    -0.155425298189     0.973971491251      -0.161760788833     0.973971491251      -0.161760788833     -0.0259395353203    -0.155425298189     
2500000000.0        -0.0280824026931    -0.161542836431     0.97182678508       -0.168143941993     0.97182678508       -0.168143941993     -0.0280824026931    -0.161542836431     
2600000000.0        -0.030302783788     -0.167618098187     0.969604494315      -0.174484978351     0.969604494315      -0.174484978351     -0.030302783788     -0.167618098187     
2700000000.0        -0.0325995803799    -0.173649708802     0.967305716932      -0.180782525383     0.967305716932      -0.180782525383     -0.0325995803799    -0.173649708802     
2800000000.0        -0.0349716635224    -0.179636328479     0.96493158164       -0.1870352453       0.96493158164       -0.1870352453       -0.0349716635224    -0.179636328479     
2900000000.0        -0.0374178748679    -0.185576653088     0.962483246558      -0.193241835869     0.962483246558      -0.193241835869     -0.0374178748679    -0.185576653088     
3000000000.0        -0.0399370280102    -0.191469414932     0.959961897869      -0.199401031181     0.959961897869      -0.199401031181     -0.0399370280102    -0.191469414932     
3100000000.0        -0.0425279098474    -0.19731338344      0.957368748458      -0.205511602356     0.957368748458      -0.205511602356     -0.0425279098474    -0.19731338344      
3200000000.0        -0.0451892819617    -0.203107365809     0.954705036533      -0.211572358181     0.954705036533      -0.211572358181     -0.0451892819617    -0.203107365809     
3300000000.0        -0.0479198820117    -0.208850207582     0.951972024228      -0.2175821457       0.951972024228      -0.2175821457       -0.0479198820117    -0.208850207582     
3400000000.0        -0.0507184251377    -0.214540793165     0.949170996202      -0.223539850732     0.949170996202      -0.223539850732     -0.0507184251377    -0.214540793165     
3500000000.0        -0.0535836053729    -0.220178046285     0.946303258222      -0.229444398334     0.946303258222      -0.229444398334     -0.0535836053729    -0.220178046285     
3600000000.0        -0.0565140970618    -0.225760930393     0.943370135748      -0.235294753208     0.943370135748      -0.235294753208     -0.0565140970618    -0.225760930393     
3700000000.0        -0.0595085562796    -0.231288448998     0.940372972513      -0.241089920038     0.940372972513      -0.241089920038     -0.0595085562796    -0.231288448998     
3800000000.0        -0.0625656222523    -0.236759645951     0.937313129101      -0.246828943783     0.937313129101      -0.246828943783     -0.0625656222523    -0.236759645951     
3900000000.0        -0.0656839187738    -0.24217360567      0.93419198153       -0.252510909894     0.93419198153       -0.252510909894     -0.0656839187738    -0.24217360567      
4000000000.0        -0.0688620556175    -0.247529453302     0.931010919843      -0.258134944493     0.931010919843      -0.258134944493     -0.0688620556175    -0.247529453302     
4100000000.0        -0.0720986299402    -0.252826354838     0.927771346698      -0.263700214482     0.927771346698      -0.263700214482     -0.0720986299402    -0.252826354838     
4200000000.0        -0.0753922276758    -0.258063517166     0.924474675979      -0.269205927599     0.924474675979      -0.269205927599     -0.0753922276758    -0.258063517166     
4300000000.0        -0.0787414249162    -0.263240188073     0.921122331416      -0.27465133243      0.921122331416      -0.27465133243      -0.0787414249162    -0.263240188073     
4400000000.0        -0.082144789278     -0.268355656196     0.917715745211      -0.280035718354     0.917715745211      -0.280035718354     -0.082144789278     -0.268355656196     
4500000000.0        -0.0856008812517    -0.273409250917     0.914256356698      -0.285358415448     0.914256356698      -0.285358415448     -0.0856008812517    -0.273409250917     
4600000000.0        -0.0891082555325    -0.278400342215     0.910745611005      -0.290618794335     0.910745611005      -0.290618794335     -0.0891082555325    -0.278400342215     
4700000000.0        -0.0926654623301    -0.283328340462     0.907184957746      -0.295816265989     0.907184957746      -0.295816265989     -0.0926654623301    -0.283328340462     
4800000000.0        -0.096271048656     -0.288192696183     0.903575849737      -0.300950281489     0.903575849737      -0.300950281489     -0.096271048656     -0.288192696183     
4900000000.0        -0.0999235595865    -0.292992899757     0.899919741727      -0.306020331732     0.899919741727      -0.306020331732     -0.0999235595865    -0.292992899757     
5000000000.0        -0.1036215395       -0.297728481087     0.896218089167      -0.311025947099     0.896218089167      -0.311025947099     -0.1036215395       -0.297728481087     
5100000000.0        -0.107363533285     -0.302399009226     0.892472346995      -0.315966697079     0.892472346995      -0.315966697079     -0.107363533285     -0.302399009226     
5200000000.0        -0.111148087525     -0.307004091953     0.888683968459      -0.320842189859     0.888683968459      -0.320842189859     -0.111148087525     -0.307004091953     
5300000000.0        -0.114973751646     -0.311543375329     0.884854403962      -0.325652071869     0.884854403962      -0.325652071869     -0.114973751646     -0.311543375329     
5400000000.0        -0.118839079036     -0.316016543199     0.880985099946      -0.330396027297     0.880985099946      -0.330396027297     -0.118839079036     -0.316016543199     
5500000000.0        -0.122742628135     -0.320423316673     0.877077497804      -0.335073777561     0.877077497804      -0.335073777561     -0.122742628135     -0.320423316673     
5600000000.0        -0.126682963489     -0.324763453568     0.873133032821      -0.33968508076      0.873133032821      -0.33968508076      -0.126682963489     -0.324763453568     
5700000000.0        -0.130658656769     -0.32903674782      0.869153133158      -0.344229731085     0.869153133158      -0.344229731085     -0.130658656769     -0.32903674782      
5800000000.0        -0.134668287759     -0.333243028872     0.865139218866      -0.348707558209     0.865139218866      -0.348707558209     -0.134668287759     -0.333243028872     
5900000000.0        -0.138710445304     -0.337382161028     0.861092700932      -0.353118426642     0.861092700932      -0.353118426642     -0.138710445304     -0.337382161028     
6000000000.0        -0.142783728227     -0.341454042789     0.857014980368      -0.35746223507      0.857014980368      -0.35746223507      -0.142783728227     -0.341454042789     
6100000000.0        -0.146886746205     -0.345458606165     0.852907447331      -0.361738915662     0.852907447331      -0.361738915662     -0.146886746205     -0.345458606165     
6200000000.0        -0.151018120616     -0.349395815961     0.848771480279      -0.365948433367     0.848771480279      -0.365948433367     -0.151018120616     -0.349395815961     
6300000000.0        -0.155176485336     -0.35326566905      0.844608445171      -0.37009078518      0.844608445171      -0.37009078518      -0.155176485336     -0.35326566905      
6400000000.0        -0.159360487514     -0.357068193626     0.840419694693      -0.374165999402     0.840419694693      -0.374165999402     -0.159360487514     -0.357068193626     
6500000000.0        -0.163568788302     -0.360803448441     0.836206567531      -0.378174134874     0.836206567531      -0.378174134874     -0.163568788302     -0.360803448441     
6600000000.0        -0.167800063547     -0.364471522031     0.831970387674      -0.382115280204     0.831970387674      -0.382115280204     -0.167800063547     -0.364471522031     
6700000000.0        -0.172053004448     -0.368072531926     0.82771246376       -0.385989552981     0.82771246376       -0.385989552981     -0.172053004448     -0.368072531926     
6800000000.0        -0.17632631818      -0.371606623852     0.82343408845       -0.389797098977     0.82343408845       -0.389797098977     -0.17632631818      -0.371606623852     
6900000000.0        -0.180618728477     -0.375073970924     0.81913653785       -0.39353809134      0.81913653785       -0.39353809134      -0.180618728477     -0.375073970924     
7000000000.0        -0.184928976177     -0.378474772835     0.814821070959      -0.397212729781     0.814821070959      -0.397212729781     -0.184928976177     -0.378474772835     
7100000000.0        -0.189255819739     -0.38180925503      0.810488929155      -0.400821239756     0.810488929155      -0.400821239756     -0.189255819739     -0.38180925503      
7200000000.0        -0.193598035717     -0.385077667888     0.806141335724      -0.404363871644     0.806141335724      -0.404363871644     -0.193598035717     -0.385077667888     
7300000000.0        -0.197954419204     -0.388280285894     0.801779495411      -0.407840899918     0.801779495411      -0.407840899918     -0.197954419204     -0.388280285894     
7400000000.0        -0.202323784241     -0.391417406807     0.797404594015      -0.41125262232      0.797404594015      -0.41125262232      -0.202323784241     -0.391417406807     
7500000000.0        -0.206704964187     -0.394489350841     0.793017798014      -0.414599359035     0.793017798014      -0.414599359035     -0.206704964187     -0.394489350841     
7600000000.0        -0.211096812067     -0.397496459829     0.788620254225      -0.417881451863     0.788620254225      -0.417881451863     -0.211096812067     -0.397496459829     
7700000000.0        -0.215498200876     -0.400439096407     0.784213089491      -0.421099263397     0.784213089491      -0.421099263397     -0.215498200876     -0.400439096407     
7800000000.0        -0.21990802386      -0.403317643189     0.779797410407      -0.424253176205     0.779797410407      -0.424253176205     -0.21990802386      -0.403317643189     
7900000000.0        -0.224325194761     -0.406132501954     0.77537430307       -0.427343592014     0.77537430307       -0.427343592014     -0.224325194761     -0.406132501954     
8000000000.0        -0.228748648036     -0.408884092836     0.770944832864      -0.430370930899     0.770944832864      -0.430370930899     -0.228748648036     -0.408884092836     
8100000000.0        -0.233177339041     -0.411572853524     0.766510044272      -0.433335630486     0.766510044272      -0.433335630486     -0.233177339041     -0.411572853524     
8200000000.0        -0.237610244196     -0.414199238462     0.762070960716      -0.436238145154     0.762070960716      -0.436238145154     -0.237610244196     -0.414199238462     
8300000000.0        -0.24204636111      -0.416763718067     0.757628584426      -0.439078945251     0.757628584426      -0.439078945251     -0.24204636111      -0.416763718067     
8400000000.0        -0.246484708694     -0.419266777953     0.753183896332      -0.441858516316     0.753183896332      -0.441858516316     -0.246484708694     -0.419266777953     
8500000000.0        -0.250924327234     -0.421708918162     0.748737855991      -0.444577358318     0.748737855991      -0.444577358318     -0.250924327234     -0.421708918162     
8600000000.0        -0.255364278446     -0.424090652412     0.744291401524      -0.447235984895     0.744291401524      -0.447235984895     -0.255364278446     -0.424090652412     
8700000000.0        -0.259803645513     -0.426412507349     0.739845449592      -0.449834922616     0.739845449592      -0.449834922616     -0.259803645513     -0.426412507349     
8800000000.0        -0.264241533085     -0.42867502182      0.735400895385      -0.452374710247     0.735400895385      -0.452374710247     -0.264241533085     -0.42867502182      
8900000000.0        -0.268677067269     -0.430878746153     0.730958612638      -0.454855898034     0.730958612638      -0.454855898034     -0.268677067269     -0.430878746153     
9000000000.0        -0.27310939559      -0.43302424145      0.726519453665      -0.457279046997     0.726519453665      -0.457279046997     -0.27310939559      -0.43302424145      
9100000000.0        -0.27753768694      -0.435112078899     0.722084249416      -0.459644728242     0.722084249416      -0.459644728242     -0.27753768694      -0.435112078899     
9200000000.0        -0.281961131496     -0.437142839094     0.717653809555      -0.461953522279     0.717653809555      -0.461953522279     -0.281961131496     -0.437142839094     
9300000000.0        -0.286378940633     -0.439117111371     0.713228922549      -0.464206018364     0.713228922549      -0.464206018364     -0.286378940633     -0.439117111371     
9400000000.0        -0.290790346806     -0.441035493165     0.708810355784      -0.46640281385      0.708810355784      -0.46640281385      -0.290790346806     -0.441035493165     
9500000000.0        -0.295194603425     -0.442898589375     0.704398855691      -0.468544513553     0.704398855691      -0.468544513553     -0.295194603425     -0.442898589375     
9600000000.0        -0.299590984711     -0.444707011742     0.699995147888      -0.470631729138     0.699995147888      -0.470631729138     -0.299590984711     -0.444707011742     
9700000000.0        -0.303978785536     -0.446461378255     0.695599937347      -0.472665078513     0.695599937347      -0.472665078513     -0.303978785536     -0.446461378255     
9800000000.0        -0.30835732125      -0.44816231256      0.691213908558      -0.474645185248     0.691213908558      -0.474645185248     -0.30835732125      -0.44816231256      
9900000000.0        -0.312725927494     -0.449810443391     0.686837725721      -0.476572678003     0.686837725721      -0.476572678003     -0.312725927494     -0.449810443391     
10000000000.0       -0.31708396         -0.451406404016     0.682472032943      -0.478448189972     0.682472032943      -0.478448189972     -0.31708396         -0.451406404016     
