# Hz S RI R 50.00 
100000000.0         -0.00316702043833   -0.0558143791117    0.996781493066      -0.0560143280872    0.996781493066      -0.0560143280872    -0.00316702043833   -0.0558143791117    
200000000.0         -0.012512013649     -0.110569848288     0.987436087885      -0.110969799298     0.987436087885      -0.110969799298     -0.012512013649     -0.110569848288     
300000000.0         -0.0276650877015    -0.163287664765     0.972282650021      -0.163887698853     0.972282650021      -0.163887698853     -0.0276650877015    -0.163287664765     
400000000.0         -0.0480889730234    -0.213110717084     0.951858404734      -0.213910936854     0.951858404734      -0.213910936854     -0.0480889730234    -0.213110717084     
500000000.0         -0.073099806294     -0.259344307461     0.926847198314      -0.260344833672     0.926847198314      -0.260344833672     -0.073099806294     -0.259344307461     
600000000.0         -0.101920539225     -0.301479096737     0.898026070355      -0.302680065959     0.898026070355      -0.302680065959     -0.101920539225     -0.301479096737     
700000000.0         -0.133734888161     -0.339195884958     0.866211299356      -0.340597447779     0.866211299356      -0.340597447779     -0.133734888161     -0.339195884958     
800000000.0         -0.167735804575     -0.372354707561     0.832209930474      -0.373957027125     0.832209930474      -0.373957027125     -0.167735804575     -0.372354707561     
900000000.0         -0.203164432415     -0.400972440748     0.796780817401      -0.402775691523     0.796780817401      -0.402775691523     -0.203164432415     -0.400972440748     
1000000000.0        -0.239337724957     -0.42519368249      0.760607005124      -0.427198049193     0.760607005124      -0.427198049193     -0.239337724957     -0.42519368249      
1100000000.0        -0.275664808564     -0.445259310897     0.724279365943      -0.447464987549     0.724279365943      -0.447464987549     -0.275664808564     -0.445259310897     
1200000000.0        -0.311653519591     -0.461476177735     0.688290062439      -0.463883366815     0.688290062439      -0.463883366815     -0.311653519591     -0.461476177735     
1300000000.0        -0.34690924622      -0.474190237704     0.653033705561      -0.476799149389     0.653033705561      -0.476799149389     -0.34690924622      -0.474190237704     
1400000000.0        -0.381128378586     -0.483764321297     0.618813904441      -0.486575172763     0.618813904441      -0.486575172763     -0.381128378586     -0.483764321297     
1500000000.0        -0.414088477093     -0.490560887851     0.58585309805       -0.493573902646     0.58585309805       -0.493573902646     -0.414088477093     -0.490560887851     
1600000000.0        -0.445636880885     -0.494929497136     0.554303946695      -0.498144904599     0.554303946695      -0.498144904599     -0.445636880885     -0.494929497136     
1700000000.0        -0.475679030738     -0.49719839286      0.524261009114      -0.500616427588     0.524261009114      -0.500616427588     -0.475679030738     -0.49719839286      
1800000000.0        -0.504167359922     -0.497669445288     0.495771851601      -0.501290346648     0.495771851601      -0.501290346648     -0.504167359922     -0.497669445288     
1900000000.0        -0.531091257587     -0.496615690075     0.468847084603      -0.500439701753     0.468847084603      -0.500439701753     -0.531091257587     -0.496615690075     
2000000000.0        -0.556468345481     -0.494280770582     0.443469086005      -0.498308140169     0.443469086005      -0.498308140169     -0.556468345481     -0.494280770582     
2100000000.0        -0.580337125622     -0.490879699289     0.419599353446      -0.495110677897     0.419599353446      -0.495110677897     -0.580337125622     -0.490879699289     
2200000000.0        -0.602750940227     -0.486600472021     0.397184544387      -0.491035313933     0.397184544387      -0.491035313933     -0.602750940227     -0.486600472021     
2300000000.0        -0.623773119658     -0.481606179943     0.37616132816       -0.486245142287     0.37616132816       -0.486245142287     -0.623773119658     -0.481606179943     
2400000000.0        -0.643473164324     -0.476037360293     0.356460204067      -0.480880702746     0.356460204067      -0.480880702746     -0.643473164324     -0.476037360293     
2500000000.0        -0.661923800104     -0.470014405081     0.338008445952      -0.475062389595     0.338008445952      -0.475062389595     -0.661923800104     -0.470014405081     
2600000000.0        -0.679198754565     -0.463639907719     0.32073232598       -0.468892798267     0.32073232598       -0.468892798267     -0.679198754565     -0.463639907719     
2700000000.0        -0.695371116453     -0.457000873116     0.304558755151      -0.462458935467     0.304558755151      -0.462458935467     -0.695371116453     -0.457000873116     
2800000000.0        -0.710512159272     -0.450170749638     0.289416459708      -0.45583425114      0.289416459708      -0.45583425114      -0.710512159272     -0.450170749638     
2900000000.0        -0.724690528547     -0.443211264284     0.275236793885      -0.44908047368      0.275236793885      -0.44908047368      -0.724690528547     -0.443211264284     
3000000000.0        -0.73797170994      -0.436174057865     0.261954271785      -0.442249245113     0.261954271785      -0.442249245113     -0.73797170994      -0.436174057865     
3100000000.0        -0.750417711106     -0.429102126753     0.24950688552       -0.435383562872     0.24950688552       -0.435383562872     -0.750417711106     -0.429102126753     
3200000000.0        -0.762086903692     -0.422031083689     0.23783626322       -0.428519040613     0.23783626322       -0.428519040613     -0.762086903692     -0.422031083689     
3300000000.0        -0.773033983159     -0.414990253162     0.226887709201      -0.421685003611     0.226887709201      -0.421685003611     -0.773033983159     -0.414990253162     
3400000000.0        -0.783310013452     -0.408003618131     0.216610159301      -0.414905435501     0.216610159301      -0.414905435501     -0.783310013452     -0.408003618131     
3500000000.0        -0.792962531053     -0.401090634843     0.206956076821      -0.408199793095     0.206956076821      -0.408199793095     -0.792962531053     -0.401090634843     
3600000000.0        -0.802035688972     -0.394266931746     0.197881308543      -0.401583705321     0.197881308543      -0.401583705321     -0.802035688972     -0.394266931746     
3700000000.0        -0.81057042599      -0.387544907356     0.189344915475      -0.395069571095     0.189344915475      -0.395069571095     -0.81057042599      -0.387544907356     
3800000000.0        -0.81860465022      -0.380934240538     0.1813089893        -0.388667069606     0.1813089893        -0.388667069606     -0.81860465022      -0.380934240538     
3900000000.0        -0.826173428907     -0.374442325225     0.173738462567      -0.382383595054     0.173738462567      -0.382383595054     -0.826173428907     -0.374442325225     
4000000000.0        -0.833309178683     -0.368074640202     0.166600918444      -0.37622462644      0.166600918444      -0.37622462644      -0.833309178683     -0.368074640202     
4100000000.0        -0.840041852138     -0.361835063253     0.159866404139      -0.37019404172      0.159866404139      -0.37019404172      -0.840041852138     -0.361835063253     
4200000000.0        -0.846399117927     -0.355726137735     0.153507250798      -0.364294384384     0.153507250798      -0.364294384384     -0.846399117927     -0.355726137735     
4300000000.0        -0.85240653256      -0.349749298556     0.147497901717      -0.358527089447     0.147497901717      -0.358527089447     -0.85240653256      -0.349749298556     
4400000000.0        -0.858087702769     -0.343905063575     0.141814749964      -0.352892674851     0.141814749964      -0.352892674851     -0.858087702769     -0.343905063575     
4500000000.0        -0.863464437902     -0.338193195552     0.136435985999      -0.347390903424     0.136435985999      -0.347390903424     -0.863464437902     -0.338193195552     
4600000000.0        -0.868556892126     -0.332612839069     0.131341455459      -0.342020919806     0.131341455459      -0.342020919806     -0.868556892126     -0.332612839069     
4700000000.0        -0.873383696556     -0.327162636177     0.126512527035      -0.336781366098     0.126512527035      -0.336781366098     -0.873383696556     -0.327162636177     
4800000000.0        -0.877962081586     -0.32184082396      0.121931970143      -0.331670479436     0.121931970143      -0.331670479436     -0.877962081586     -0.32184082396      
4900000000.0        -0.882307989811     -0.31664531677      0.117583841993      -0.326686174226     0.117583841993      -0.326686174226     -0.882307989811     -0.31664531677      
5000000000.0        -0.886436180066     -0.311573775423     0.11345338356       -0.321826111349     0.11345338356       -0.321826111349     -0.886436180066     -0.311573775423     
5100000000.0        -0.890360323075     -0.306623665354     0.109526923929      -0.317087756315     0.109526923929      -0.317087756315     -0.890360323075     -0.306623665354     
5200000000.0        -0.894093089292     -0.301792305388     0.105791792453      -0.31246842804      0.105791792453      -0.31246842804      -0.894093089292     -0.301792305388     
5300000000.0        -0.897646229469     -0.29707690856      0.102236238189      -0.307965339668     0.102236238189      -0.307965339668     -0.897646229469     -0.29707690856      
5400000000.0        -0.901030648512     -0.292474616191     0.0988493560408     -0.303575632652     0.0988493560408     -0.303575632652     -0.901030648512     -0.292474616191     
5500000000.0        -0.904256473126     -0.287982526245     0.0956210191103     -0.29929640511      0.0956210191103     -0.29929640511      -0.904256473126     -0.287982526245     
5600000000.0        -0.907333113767     -0.283597716837     0.0925418167511     -0.295124735342     0.0925418167511     -0.295124735342     -0.907333113767     -0.283597716837     
5700000000.0        -0.910269321353     -0.279317265645     0.0896029978531     -0.291057701235     0.0896029978531     -0.291057701235     -0.910269321353     -0.279317265645     
5800000000.0        -0.913073239182     -0.275138265837     0.0867964189246     -0.287092396199     0.0867964189246     -0.287092396199     -0.913073239182     -0.275138265837     
5900000000.0        -0.915752450466     -0.271057839061     0.0841144965627     -0.283225942158     0.0841144965627     -0.283225942158     -0.915752450466     -0.271057839061     
6000000000.0        -0.918314021842     -0.267073145948     0.0815501639355     -0.279455500053     0.0815501639355     -0.279455500053     -0.918314021842     -0.267073145948     
6100000000.0        -0.92076454323      -0.263181394517     0.0790968309286     -0.275778278247     0.0790968309286     -0.275778278247     -0.92076454323      -0.263181394517     
6200000000.0        -0.923110164341     -0.259379846806     0.0767483476374     -0.272191539161     0.0767483476374     -0.272191539161     -0.923110164341     -0.259379846806     
6300000000.0        -0.925356628129     -0.255665824012     0.0744989709116     -0.268692604413     0.0744989709116     -0.268692604413     -0.925356628129     -0.255665824012     
6400000000.0        -0.927509301462     -0.252036710376     0.0723433336854     -0.265278858704     0.0723433336854     -0.265278858704     -0.927509301462     -0.252036710376     
6500000000.0        -0.929573203255     -0.248489956014     0.0702764168475     -0.261947752652     0.0702764168475     -0.261947752652     -0.929573203255     -0.248489956014     
6600000000.0        -0.931553030276     -0.24502307887      0.0682935234304     -0.258696804741     0.0682935234304     -0.258696804741     -0.931553030276     -0.24502307887      
6700000000.0        -0.933453180848     -0.241633665931     0.0663902549124     -0.255523602543     0.0663902549124     -0.255523602543     -0.933453180848     -0.241633665931     
6800000000.0        -0.935277776612     -0.238319373831     0.0645624894501     -0.252425803318     0.0645624894501     -0.252425803318     -0.935277776612     -0.238319373831     
6900000000.0        -0.937030682538     -0.235077928949     0.0628063618719     -0.249401134113     0.0628063618719     -0.249401134113     -0.937030682538     -0.235077928949     
7000000000.0        -0.938715525322     -0.231907127094     0.0611182452788     -0.246447391452     0.0611182452788     -0.246447391452     -0.938715525322     -0.231907127094     
7100000000.0        -0.940335710315     -0.228804832844     0.0594947341136     -0.243562440667     0.0594947341136     -0.243562440667     -0.940335710315     -0.228804832844     
7200000000.0        -0.941894437114     -0.225768978615     0.0579326285726     -0.240744214974     0.0579326285726     -0.240744214974     -0.941894437114     -0.225768978615     
7300000000.0        -0.943394713925     -0.2227975635       0.0564289202423     -0.237990714312     0.0564289202423     -0.237990714312     -0.943394713925     -0.2227975635       
7400000000.0        -0.944839370803     -0.219888651944     0.0549807788587     -0.235300004013     0.0549807788587     -0.235300004013     -0.944839370803     -0.219888651944     
7500000000.0        -0.946231071866     -0.217040372272     0.0535855400922     -0.232670213335     0.0535855400922     -0.232670213335     -0.946231071866     -0.217040372272     
7600000000.0        -0.94757232657      -0.21425091512      0.0522406942725     -0.230099533893     0.0522406942725     -0.230099533893     -0.94757232657      -0.21425091512      
7700000000.0        -0.948865500128     -0.211518531785     0.050943875973      -0.227586218006     0.050943875973      -0.227586218006     -0.948865500128     -0.211518531785     
7800000000.0        -0.950112823133     -0.208841532531     0.0496928543845     -0.225128577002     0.0496928543845     -0.225128577002     -0.950112823133     -0.208841532531     
7900000000.0        -0.951316400461     -0.206218284848     0.0484855244118     -0.222724979485     0.0484855244118     -0.222724979485     -0.951316400461     -0.206218284848     
8000000000.0        -0.952478219512     -0.203647211707     0.0473198984339     -0.220373849578     0.0473198984339     -0.220373849578     -0.952478219512     -0.203647211707     
8100000000.0        -0.953600157842     -0.201126789804     0.0461940986728     -0.218073665177     0.0461940986728     -0.218073665177     -0.953600157842     -0.201126789804     
8200000000.0        -0.954683990232     -0.19865554781      0.0451063501224     -0.215822956198     0.0451063501224     -0.215822956198     -0.954683990232     -0.19865554781      
8300000000.0        -0.955731395247     -0.196232064646     0.0440549739917     -0.213620302846     0.0440549739917     -0.213620302846     -0.955731395247     -0.196232064646     
8400000000.0        -0.956743961319     -0.193854967772     0.0430383816204     -0.211464333912     0.0430383816204     -0.211464333912     -0.956743961319     -0.193854967772     
8500000000.0        -0.957723192393     -0.191522931509     0.0420550688308     -0.20935372509      0.0420550688308     -0.20935372509      -0.957723192393     -0.191522931509     
8600000000.0        -0.95867051318      -0.189234675397     0.0411036106799     -0.207287197338     0.0411036106799     -0.207287197338     -0.95867051318      -0.189234675397     
8700000000.0        -0.95958727403      -0.18698896259      0.0401826565812     -0.205263515268     0.0401826565812     -0.205263515268     -0.95958727403      -0.18698896259      
8800000000.0        -0.960474755472     -0.184784598293     0.0392909257673     -0.203281485586     0.0392909257673     -0.203281485586     -0.960474755472     -0.184784598293     
8900000000.0        -0.961334172439     -0.182620428237     0.0384272030661     -0.201339955568     0.0384272030661     -0.201339955568     -0.961334172439     -0.182620428237     
9000000000.0        -0.962166678196     -0.180495337203     0.0375903349682     -0.199437811581     0.0375903349682     -0.199437811581     -0.962166678196     -0.180495337203     
9100000000.0        -0.96297336801      -0.178408247592     0.0367792259611     -0.197573977653     0.0367792259611     -0.197573977653     -0.96297336801      -0.178408247592     
9200000000.0        -0.963755282567     -0.176358118034     0.0359928351119     -0.195747414083     0.0359928351119     -0.195747414083     -0.963755282567     -0.176358118034     
9300000000.0        -0.964513411156     -0.174343942054     0.0352301728789     -0.193957116104     0.0352301728789     -0.193957116104     -0.964513411156     -0.174343942054     
9400000000.0        -0.965248694652     -0.172364746768     0.0344902981351     -0.192202112585     0.0344902981351     -0.192202112585     -0.965248694652     -0.172364746768     
9500000000.0        -0.965962028291     -0.170419591642     0.033772315388      -0.19048146478      0.033772315388      -0.19048146478      -0.965962028291     -0.170419591642     
9600000000.0        -0.96665426427      -0.168507567279     0.0330753721816     -0.188794265126     0.0330753721816     -0.188794265126     -0.96665426427      -0.168507567279     
9700000000.0        -0.967326214177     -0.166627794264     0.0323986566665     -0.187139636075     0.0323986566665     -0.187139636075     -0.967326214177     -0.166627794264     
9800000000.0        -0.967978651261     -0.164779422038     0.0317413953269     -0.185516728981     0.0317413953269     -0.185516728981     -0.967978651261     -0.164779422038     
9900000000.0        -0.968612312568     -0.162961627826     0.0311028508527     -0.183924723017     0.0311028508527     -0.183924723017     -0.968612312568     -0.162961627826     
10000000000.0       -0.969227900922     -0.161173615602     0.0304823201459     -0.182362824143     0.0304823201459     -0.182362824143     -0.969227900922     -0.161173615602     
