# Hz S RI R 50.00 
100000000.0         0.00181252141027    0.000627258812027   0.998178356883      -0.00381824258807   0.998178356883      -0.00381824258807   0.00181252141027    0.000627258812027   
200000000.0         0.00183033683074    0.00125436700059    0.99814223043       -0.00763638554632   0.99814223043       -0.00763638554632   0.00183033683074    0.00125436700059    
300000000.0         0.0018497787592     0.00188132259673    0.998094286747      -0.0114544497383    0.998094286747      -0.0114544497383    0.0018497787592     0.00188132259673    
400000000.0         0.00187241505233    0.00250809778599    0.998032956163      -0.0152724184873    0.998032956163      -0.0152724184873    0.00187241505233    0.00250809778599    
500000000.0         0.00189884814798    0.00313465947389    0.997957634085      -0.0190902638421    0.997957634085      -0.0190902638421    0.00189884814798    0.00313465947389    
600000000.0         0.00192938415438    0.00376097256099    0.997868011957      -0.0229079518658    0.997868011957      -0.0229079518658    0.00192938415438    0.00376097256099    
700000000.0         0.00196420286248    0.0043870010575     0.997763907286      -0.0267254447839    0.997763907286      -0.0267254447839    0.00196420286248    0.0043870010575     
800000000.0         0.00200341976883    0.00501270857071    0.997645201648      -0.0305427020944    0.997645201648      -0.0305427020944    0.00200341976883    0.00501270857071    
900000000.0         0.00204711368047    0.00563805855001    0.997511813106      -0.0343596812255    0.997511813106      -0.0343596812255    0.00204711368047    0.00563805855001    
1000000000.0        0.00209534070222    0.00626301442137    0.997363682245      -0.0381763379621    0.997363682245      -0.0381763379621    0.00209534070222    0.00626301442137    
1100000000.0        0.00214814200965    0.0068875396656     0.997200764413      -0.0419926267413    0.997200764413      -0.0419926267413    0.00214814200965    0.0068875396656     
1200000000.0        0.0022055484797     0.0075115978657     0.997023025108      -0.0458085008663    0.997023025108      -0.0458085008663    0.0022055484797     0.0075115978657     
1300000000.0        0.00226758360359    0.00813515273615    0.996830437078      -0.0496239126681    0.996830437078      -0.0496239126681    0.00226758360359    0.00813515273615    
1400000000.0        0.00233426540131    0.00875816814126    0.996622978417      -0.053438813631     0.996622978417      -0.053438813631     0.00233426540131    0.00875816814126    
1500000000.0        0.00240560772636    0.00938060810647    0.996400631275      -0.0572531544925    0.996400631275      -0.0572531544925    0.00240560772636    0.00938060810647    
1600000000.0        0.00248162118234    0.0100024368253     0.996163380946      -0.0610668853244    0.996163380946      -0.0610668853244    0.00248162118234    0.0100024368253     
1700000000.0        0.00256231378369    0.0106236186633     0.995911215222      -0.0648799556003    0.995911215222      -0.0648799556003    0.00256231378369    0.0106236186633     
1800000000.0        0.00264769144291    0.0112441181596     0.995644123912      -0.0686923142516    0.995644123912      -0.0686923142516    0.00264769144291    0.0112441181596     
1900000000.0        0.00273775833678    0.0118639000278     0.995362098481      -0.072503909716     0.995362098481      -0.072503909716     0.00273775833678    0.0118639000278     
2000000000.0        0.00283251718658    0.0124829291557     0.995065131782      -0.0763146899785    0.995065131782      -0.0763146899785    0.00283251718658    0.0124829291557     
2100000000.0        0.00293196947565    0.0131011706036     0.994753217842      -0.0801246026071    0.994753217842      -0.0801246026071    0.00293196947565    0.0131011706036     
2200000000.0        0.00303611562075    0.0137185896035     0.9944263517        -0.083933594785     0.9944263517        -0.083933594785     0.00303611562075    0.0137185896035     
2300000000.0        0.00314495510874    0.0143351515571     0.994084529273      -0.0877416133379    0.994084529273      -0.0877416133379    0.00314495510874    0.0143351515571     
2400000000.0        0.00325848660668    0.0149508220341     0.993727747255      -0.0915486047586    0.993727747255      -0.0915486047586    0.00325848660668    0.0149508220341     
2500000000.0        0.00337670805168    0.0155655667696     0.993356003028      -0.0953545152302    0.993356003028      -0.0953545152302    0.00337670805168    0.0155655667696     
2600000000.0        0.00349961672465    0.016179351663      0.9929692946        -0.0991592906449    0.9929692946        -0.0991592906449    0.00349961672465    0.016179351663      
2700000000.0        0.00362720931159    0.016792142775      0.992567620544      -0.102962876623     0.992567620544      -0.102962876623     0.00362720931159    0.016792142775      
2800000000.0        0.00375948195479    0.0174039063261     0.992150979952      -0.10676521853      0.992150979952      -0.10676521853      0.00375948195479    0.0174039063261     
2900000000.0        0.00389643029607    0.0180146086943     0.991719372397      -0.11056626149      0.991719372397      -0.11056626149      0.00389643029607    0.0180146086943     
3000000000.0        0.00403804951333    0.0186242164135     0.991272797901      -0.114365950401     0.991272797901      -0.114365950401     0.00403804951333    0.0186242164135     
3100000000.0        0.00418433435194    0.019232696171      0.990811256906      -0.118164229947     0.990811256906      -0.118164229947     0.00418433435194    0.019232696171      
3200000000.0        0.0043352791516     0.019840014806      0.990334750255      -0.121961044612     0.990334750255      -0.121961044612     0.0043352791516     0.019840014806      
3300000000.0        0.00449087786961    0.020446139308      0.989843279165      -0.125756338687     0.989843279165      -0.125756338687     0.00449087786961    0.020446139308      
3400000000.0        0.00465112410114    0.0210510368146     0.98933684522       -0.129550056285     0.98933684522       -0.129550056285     0.00465112410114    0.0210510368146     
3500000000.0        0.00481601109687    0.0216546746101     0.988815450348      -0.133342141347     0.988815450348      -0.133342141347     0.00481601109687    0.0216546746101     
3600000000.0        0.00498553177855    0.022257020124      0.988279096814      -0.137132537654     0.988279096814      -0.137132537654     0.00498553177855    0.022257020124      
3700000000.0        0.0051596787527     0.0228580409292     0.987727787208      -0.14092118883      0.987727787208      -0.14092118883      0.0051596787527     0.0228580409292     
3800000000.0        0.00533844432279    0.0234577047409     0.987161524434      -0.144708038359     0.987161524434      -0.144708038359     0.00533844432279    0.0234577047409     
3900000000.0        0.00552182050004    0.0240559794149     0.986580311707      -0.148493029585     0.986580311707      -0.148493029585     0.00552182050004    0.0240559794149     
4000000000.0        0.00570979901313    0.0246528329465     0.98598415254       -0.152276105721     0.98598415254       -0.152276105721     0.00570979901313    0.0246528329465     
4100000000.0        0.00590237131688    0.0252482334692     0.985373050741      -0.156057209857     0.985373050741      -0.156057209857     0.00590237131688    0.0252482334692     
4200000000.0        0.00609952860008    0.0258421492534     0.984747010409      -0.159836284967     0.984747010409      -0.159836284967     0.00609952860008    0.0258421492534     
4300000000.0        0.0063012617926     0.0264345487055     0.984106035928      -0.163613273913     0.984106035928      -0.163613273913     0.0063012617926     0.0264345487055     
4400000000.0        0.00650756157182    0.0270254003666     0.983450131961      -0.167388119452     0.983450131961      -0.167388119452     0.00650756157182    0.0270254003666     
4500000000.0        0.00671841836847    0.0276146729114     0.982779303451      -0.171160764241     0.982779303451      -0.171160764241     0.00671841836847    0.0276146729114     
4600000000.0        0.00693382237205    0.0282023351476     0.982093555613      -0.174931150844     0.982093555613      -0.174931150844     0.00693382237205    0.0282023351476     
4700000000.0        0.00715376353566    0.0287883560147     0.981392893936      -0.178699221734     0.981392893936      -0.178699221734     0.00715376353566    0.0287883560147     
4800000000.0        0.0073782315806     0.0293727045833     0.980677324176      -0.182464919301     0.980677324176      -0.182464919301     0.0073782315806     0.0293727045833     
4900000000.0        0.0076072160005     0.0299553500541     0.979946852356      -0.186228185856     0.979946852356      -0.186228185856     0.0076072160005     0.0299553500541     
5000000000.0        0.00784070606517    0.0305362617574     0.979201484767      -0.189988963635     0.979201484767      -0.189988963635     0.00784070606517    0.0305362617574     
5100000000.0        0.00807869082422    0.0311154091519     0.978441227959      -0.193747194801     0.978441227959      -0.193747194801     0.00807869082422    0.0311154091519     
5200000000.0        0.00832115911034    0.0316927618246     0.977666088747      -0.197502821453     0.977666088747      -0.197502821453     0.00832115911034    0.0316927618246     
5300000000.0        0.00856809954244    0.0322682894898     0.976876074206      -0.201255785627     0.976876074206      -0.201255785627     0.00856809954244    0.0322682894898     
5400000000.0        0.00881950052854    0.0328419619886     0.976071191669      -0.2050060293       0.976071191669      -0.2050060293       0.00881950052854    0.0328419619886     
5500000000.0        0.00907535026848    0.0334137492882     0.97525144873       -0.208753494395     0.97525144873       -0.208753494395     0.00907535026848    0.0334137492882     
5600000000.0        0.0093356367565     0.0339836214818     0.974416853236      -0.212498122784     0.974416853236      -0.212498122784     0.00933563675651    0.0339836214818     
5700000000.0        0.00960034778362    0.0345515487874     0.973567413295      -0.21623985629      0.973567413295      -0.21623985629      0.00960034778362    0.0345515487874     
5800000000.0        0.00986947093991    0.035117501548      0.972703137268      -0.219978636694     0.972703137268      -0.219978636694     0.00986947093991    0.035117501548      
5900000000.0        0.0101429936167     0.0356814502309     0.971824033772      -0.223714405735     0.971824033772      -0.223714405735     0.0101429936167     0.0356814502309     
6000000000.0        0.0104209030084     0.0362433654273     0.970930111678      -0.227447105114     0.970930111678      -0.227447105114     0.0104209030084     0.0362433654273     
6100000000.0        0.0107031861147     0.0368032178518     0.970021380111      -0.2311766765       0.970021380111      -0.2311766765       0.0107031861147     0.0368032178518     
6200000000.0        0.0109898297423     0.0373609783426     0.969097848449      -0.234903061527     0.969097848449      -0.234903061527     0.0109898297423     0.0373609783426     
6300000000.0        0.0112808205065     0.0379166178605     0.968159526324      -0.238626201803     0.968159526324      -0.238626201803     0.0112808205065     0.0379166178605     
6400000000.0        0.0115761448333     0.038470107489      0.96720642362       -0.242346038912     0.96720642362       -0.242346038912     0.0115761448333     0.038470107489      
6500000000.0        0.0118757889603     0.0390214184342     0.966238550473      -0.246062514411     0.966238550473      -0.246062514411     0.0118757889603     0.0390214184342     
6600000000.0        0.0121797389388     0.039570522024      0.96525591727       -0.249775569842     0.96525591727       -0.249775569842     0.0121797389388     0.039570522024      
6700000000.0        0.0124879806351     0.0401173897087     0.96425853465       -0.253485146726     0.96425853465       -0.253485146726     0.0124879806351     0.0401173897087     
6800000000.0        0.0128004997318     0.04066199306       0.963246413503      -0.257191186571     0.963246413503      -0.257191186571     0.0128004997318     0.04066199306       
6900000000.0        0.0131172817292     0.0412043037716     0.962219564972      -0.260893630873     0.962219564972      -0.260893630873     0.0131172817292     0.0412043037716     
7000000000.0        0.0134383119468     0.0417442936584     0.961178000448      -0.264592421119     0.961178000448      -0.264592421119     0.0134383119468     0.0417442936584     
7100000000.0        0.0137635755241     0.0422819346568     0.960121731572      -0.268287498786     0.960121731572      -0.268287498786     0.0137635755241     0.0422819346568     
7200000000.0        0.0140930574222     0.0428171988246     0.959050770239      -0.271978805352     0.959050770239      -0.271978805352     0.0140930574222     0.0428171988246     
7300000000.0        0.0144267424248     0.0433500583406     0.95796512859       -0.275666282286     0.95796512859       -0.275666282286     0.0144267424248     0.0433500583406     
7400000000.0        0.0147646151393     0.0438804855052     0.956864819018      -0.279349871061     0.956864819018      -0.279349871061     0.0147646151393     0.0438804855052     
7500000000.0        0.015106659998      0.0444084527394     0.955749854165      -0.283029513153     0.955749854165      -0.283029513153     0.015106659998      0.0444084527394     
7600000000.0        0.0154528612591     0.0449339325858     0.954620246922      -0.286705150039     0.954620246922      -0.286705150039     0.0154528612591     0.0449339325858     
7700000000.0        0.0158032030077     0.0454568977078     0.953476010431      -0.290376723205     0.953476010431      -0.290376723205     0.0158032030077     0.0454568977078     
7800000000.0        0.0161576691567     0.0459773208903     0.952317158082      -0.294044174145     0.952317158082      -0.294044174145     0.0161576691567     0.0459773208903     
7900000000.0        0.0165162434481     0.0464951750392     0.951143703514      -0.297707444364     0.951143703514      -0.297707444364     0.0165162434481     0.0464951750392     
8000000000.0        0.0168789094535     0.0470104331815     0.949955660615      -0.30136647538      0.949955660615      -0.30136647538      0.0168789094535     0.0470104331815     
8100000000.0        0.0172456505754     0.0475230684659     0.948753043521      -0.305021208725     0.948753043521      -0.305021208725     0.0172456505754     0.0475230684659     
8200000000.0        0.0176164500478     0.0480330541622     0.947535866618      -0.308671585949     0.947535866618      -0.308671585949     0.0176164500478     0.0480330541622     
8300000000.0        0.0179912909372     0.0485403636618     0.94630414454       -0.31231754862      0.94630414454       -0.31231754862      0.0179912909372     0.0485403636618     
8400000000.0        0.0183701561435     0.0490449704779     0.945057892169      -0.315959038327     0.945057892169      -0.315959038327     0.0183701561435     0.0490449704779     
8500000000.0        0.0187530284007     0.0495468482451     0.943797124636      -0.319595996682     0.943797124636      -0.319595996682     0.0187530284007     0.0495468482451     
8600000000.0        0.0191398902779     0.0500459707202     0.942521857317      -0.323228365322     0.942521857317      -0.323228365322     0.0191398902779     0.0500459707202     
8700000000.0        0.0195307241798     0.0505423117819     0.941232105841      -0.326856085907     0.941232105841      -0.326856085907     0.0195307241798     0.0505423117819     
8800000000.0        0.0199255123478     0.0510358454312     0.93992788608       -0.33047910013      0.93992788608       -0.33047910013      0.0199255123478     0.0510358454312     
8900000000.0        0.0203242368603     0.0515265457913     0.938609214156      -0.334097349711     0.938609214156      -0.334097349711     0.0203242368603     0.0515265457913     
9000000000.0        0.0207268796342     0.0520143871084     0.937276106438      -0.337710776401     0.937276106438      -0.337710776401     0.0207268796342     0.0520143871084     
9100000000.0        0.0211334224249     0.0524993437509     0.935928579543      -0.341319321987     0.935928579543      -0.341319321987     0.0211334224249     0.0524993437509     
9200000000.0        0.0215438468271     0.0529813902109     0.934566650334      -0.344922928289     0.934566650334      -0.344922928289     0.0215438468271     0.0529813902109     
9300000000.0        0.0219581342762     0.0534605011031     0.933190335921      -0.348521537164     0.933190335921      -0.348521537164     0.0219581342762     0.0534605011031     
9400000000.0        0.0223762660479     0.0539366511661     0.931799653662      -0.352115090509     0.931799653662      -0.352115090509     0.0223762660479     0.0539366511661     
9500000000.0        0.0227982232599     0.054409815262      0.930394621162      -0.35570353026      0.930394621162      -0.35570353026      0.0227982232599     0.054409815262      
9600000000.0        0.0232239868719     0.0548799683771     0.92897525627       -0.359286798395     0.92897525627       -0.359286798395     0.0232239868719     0.0548799683771     
9700000000.0        0.0236535376864     0.0553470856218     0.927541577084      -0.362864836935     0.927541577084      -0.362864836935     0.0236535376864     0.0553470856218     
9800000000.0        0.0240868563496     0.055811142231      0.926093601948      -0.366437587946     0.926093601948      -0.366437587946     0.0240868563496     0.055811142231      
9900000000.0        0.0245239233518     0.0562721135647     0.92463134945       -0.370004993541     0.92463134945       -0.370004993541     0.0245239233518     0.0562721135647     
10000000000.0       0.024964719028      0.0567299751077     0.923154838427      -0.373566995881     0.923154838427      -0.373566995881     0.024964719028      0.0567299751077     
