# Hz S RI R 50.00 
100000000.0         0.00159588471558    0.000457758607775   0.998402908538      -0.000660796322599  0.998402908538      -0.000660796322599  0.00159588471558    0.000457758607774   
200000000.0         0.00160729337311    0.000915494429765   0.998391251883      -0.00132157223544   0.998391251883      -0.00132157223544   0.00160729337311    0.000915494429765   
300000000.0         0.00161647947085    0.00137321700155    0.998381776534      -0.00198233853295   0.998381776534      -0.00198233853295   0.00161647947085    0.00137321700155    
400000000.0         0.00162482974311    0.00183092944805    0.99837309575       -0.00264309930877   0.99837309575       -0.00264309930877   0.00162482974311    0.00183092944805    
500000000.0         0.00163287870129    0.00228863336492    0.998364675017      -0.00330385697963   0.998364675017      -0.00330385697963   0.00163287870129    0.00228863336492    
600000000.0         0.00164089916617    0.00274632965939    0.998356241508      -0.00396461317681   0.998356241508      -0.00396461317681   0.00164089916617    0.00274632965939    
700000000.0         0.00164905243116    0.00320401885671    0.998347633924      -0.00462536907865   0.998347633924      -0.00462536907865   0.00164905243116    0.00320401885671    
800000000.0         0.00165744308158    0.00366170124456    0.998338747674      -0.0052861255697    0.998338747674      -0.0052861255697    0.00165744308158    0.00366170124456    
900000000.0         0.00166614340906    0.00411937695112    0.99832951046       -0.00594688332966   0.99832951046       -0.00594688332966   0.00166614340906    0.00411937695112    
1000000000.0        0.00167520578958    0.00457704599213    0.998319869898      -0.00660764288733   0.998319869898      -0.00660764288733   0.00167520578958    0.00457704599213    
1100000000.0        0.001684669566      0.00503470830106    0.99830978664       -0.00726840465604   0.99830978664       -0.00726840465604   0.001684669566      0.00503470830106    
1200000000.0        0.00169456515001    0.00549236374933    0.998299230265      -0.00792916895816   0.998299230265      -0.00792916895816   0.00169456515001    0.00549236374933    
1300000000.0        0.00170491660352    0.00595001216074    0.998288176706      -0.00858993604269   0.998288176706      -0.00858993604269   0.00170491660352    0.00595001216074    
1400000000.0        0.00171574333576    0.00640765332188    0.998276606544      -0.00925070609822   0.998276606544      -0.00925070609822   0.00171574333576    0.00640765332188    
1500000000.0        0.00172706125992    0.00686528698999    0.998264503858      -0.00991147926291   0.998264503858      -0.00991147926291   0.00172706125992    0.00686528698999    
1600000000.0        0.00173888360577    0.00732291289883    0.998251855411      -0.0105722556323    0.998251855411      -0.0105722556323    0.00173888360577    0.00732291289883    
1700000000.0        0.00175122150533    0.00778053076337    0.998238650062      -0.0112330352653    0.998238650062      -0.0112330352653    0.00175122150533    0.00778053076337    
1800000000.0        0.00176408442448    0.00823814028351    0.998224878336      -0.0118938181895    0.998224878336      -0.0118938181895    0.00176408442448    0.00823814028351    
1900000000.0        0.00177748048728    0.00869574114696    0.9982105321        -0.0125546044049    0.9982105321        -0.0125546044049    0.00177748048728    0.00869574114696    
2000000000.0        0.00179141672381    0.0091533330317     0.998195604315      -0.0132153938875    0.998195604315      -0.0132153938875    0.00179141672381    0.0091533330317     
2100000000.0        0.0018058992624     0.00961091560787    0.998180088844      -0.0138761865921    0.998180088844      -0.0138761865921    0.0018058992624     0.00961091560787    
2200000000.0        0.00182093348085    0.0100684885395     0.998163980299      -0.0145369824547    0.998163980299      -0.0145369824547    0.00182093348085    0.0100684885395     
2300000000.0        0.00183652412672    0.0105260514859     0.998147273924      -0.0151977813946    0.998147273924      -0.0151977813946    0.00183652412672    0.0105260514859     
2400000000.0        0.0018526754141     0.0109836041025     0.998129965493      -0.0158585833161    0.998129965493      -0.0158585833161    0.0018526754141     0.0109836041025     
2500000000.0        0.00186939110231    0.0114411460424     0.998112051239      -0.0165193881101    0.998112051239      -0.0165193881101    0.00186939110231    0.0114411460424     
2600000000.0        0.00188667456034    0.0118986769565     0.998093527782      -0.0171801956554    0.998093527782      -0.0171801956554    0.00188667456034    0.0118986769565     
2700000000.0        0.00190452882017    0.012356196495      0.99807439208       -0.0178410058199    0.99807439208       -0.0178410058199    0.00190452882017    0.012356196495      
2800000000.0        0.0019229566212     0.012813704307      0.998054641384      -0.0185018184616    0.998054641384      -0.0185018184616    0.0019229566212     0.012813704307      
2900000000.0        0.00194196044747    0.0132712000422     0.998034273198      -0.0191626334296    0.998034273198      -0.0191626334296    0.00194196044747    0.0132712000422     
3000000000.0        0.00196154255911    0.0137286833504     0.998013285253      -0.0198234505649    0.998013285253      -0.0198234505649    0.00196154255911    0.0137286833504     
3100000000.0        0.00198170501906    0.0141861538823     0.997991675475      -0.020484269701     0.997991675475      -0.020484269701     0.00198170501906    0.0141861538823     
3200000000.0        0.00200244971589    0.0146436112899     0.997969441964      -0.0211450906647    0.997969441964      -0.0211450906647    0.00200244971589    0.0146436112899     
3300000000.0        0.00202377838339    0.0151010552266     0.997946582977      -0.0218059132767    0.997946582977      -0.0218059132767    0.00202377838339    0.0151010552266     
3400000000.0        0.00204569261746    0.0155584853476     0.997923096906      -0.022466737352     0.997923096906      -0.022466737352     0.00204569261746    0.0155584853476     
3500000000.0        0.00206819389074    0.0160159013101     0.997898982268      -0.0231275627004    0.997898982268      -0.0231275627004    0.00206819389074    0.0160159013101     
3600000000.0        0.00209128356544    0.0164733027736     0.99787423769       -0.0237883891273    0.99787423769       -0.0237883891273    0.00209128356544    0.0164733027736     
3700000000.0        0.00211496290437    0.0169306893997     0.997848861897      -0.0244492164334    0.997848861897      -0.0244492164334    0.00211496290437    0.0169306893997     
3800000000.0        0.00213923308083    0.0173880608527     0.997822853706      -0.0251100444158    0.997822853706      -0.0251100444158    0.00213923308083    0.0173880608527     
3900000000.0        0.00216409518715    0.0178454167995     0.997796212012      -0.0257708728678    0.997796212012      -0.0257708728678    0.00216409518715    0.0178454167995     
4000000000.0        0.0021895502423     0.0183027569099     0.997768935787      -0.0264317015795    0.997768935787      -0.0264317015795    0.0021895502423     0.0183027569099     
4100000000.0        0.00221559919869    0.0187600808565     0.997741024065      -0.0270925303379    0.997741024065      -0.0270925303379    0.00221559919869    0.0187600808565     
4200000000.0        0.00224224294809    0.0192173883147     0.997712475944      -0.0277533589273    0.997712475944      -0.0277533589273    0.00224224294809    0.0192173883147     
4300000000.0        0.00226948232701    0.0196746789632     0.997683290577      -0.0284141871295    0.997683290577      -0.0284141871295    0.00226948232701    0.0196746789632     
4400000000.0        0.0022973181215     0.0201319524837     0.997653467165      -0.0290750147238    0.997653467165      -0.0290750147238    0.0022973181215     0.0201319524837     
4500000000.0        0.00232575107139    0.020589208561      0.997623004957      -0.0297358414876    0.997623004957      -0.0297358414876    0.00232575107139    0.020589208561      
4600000000.0        0.00235478187418    0.0210464468833     0.997591903245      -0.0303966671964    0.997591903245      -0.0303966671964    0.00235478187418    0.0210464468833     
4700000000.0        0.00238441118849    0.0215036671419     0.997560161358      -0.0310574916237    0.997560161358      -0.0310574916237    0.00238441118849    0.0215036671419     
4800000000.0        0.00241463963717    0.0219608690314     0.997527778663      -0.0317183145416    0.997527778663      -0.0317183145416    0.00241463963717    0.0219608690314     
4900000000.0        0.0024454678102     0.0224180522498     0.997494754556      -0.0323791357208    0.997494754556      -0.0323791357208    0.0024454678102     0.0224180522498     
5000000000.0        0.0024768962672     0.0228752164984     0.997461088468      -0.0330399549305    0.997461088468      -0.0330399549305    0.0024768962672     0.0228752164984     
5100000000.0        0.00250892553977    0.023332361482      0.997426779856      -0.0337007719389    0.997426779856      -0.0337007719389    0.00250892553977    0.023332361482      
5200000000.0        0.00254155613368    0.0237894869086     0.997391828201      -0.034361586513     0.997391828201      -0.034361586513     0.00254155613368    0.0237894869086     
5300000000.0        0.00257478853073    0.0242465924896     0.997356233011      -0.0350223984189    0.997356233011      -0.0350223984189    0.00257478853073    0.0242465924896     
5400000000.0        0.00260862319056    0.0247036779399     0.997319993814      -0.0356832074218    0.997319993814      -0.0356832074218    0.00260862319056    0.0247036779399     
5500000000.0        0.00264306055229    0.0251607429777     0.99728311016       -0.0363440132863    0.99728311016       -0.0363440132863    0.00264306055229    0.0251607429777     
5600000000.0        0.00267810103597    0.0256177873248     0.997245581617      -0.037004815776     0.997245581617      -0.037004815776     0.00267810103597    0.0256177873248     
5700000000.0        0.00271374504398    0.0260748107061     0.997207407771      -0.0376656146544    0.997207407771      -0.0376656146544    0.00271374504398    0.0260748107061     
5800000000.0        0.00274999296227    0.0265318128502     0.997168588225      -0.0383264096839    0.997168588225      -0.0383264096839    0.00274999296227    0.0265318128502     
5900000000.0        0.00278684516153    0.0269887934887     0.997129122597      -0.038987200627     0.997129122597      -0.038987200627     0.00278684516153    0.0269887934887     
6000000000.0        0.00282430199823    0.027445752357      0.997089010518      -0.0396479872454    0.997089010518      -0.0396479872454    0.00282430199823    0.027445752357      
6100000000.0        0.00286236381566    0.0279026891936     0.997048251635      -0.0403087693007    0.997048251635      -0.0403087693007    0.00286236381566    0.0279026891936     
6200000000.0        0.00290103094477    0.0283596037405     0.997006845604      -0.0409695465541    0.997006845604      -0.0409695465541    0.00290103094477    0.0283596037405     
6300000000.0        0.00294030370509    0.0288164957428     0.996964792094      -0.0416303187669    0.996964792094      -0.0416303187669    0.00294030370509    0.0288164957428     
6400000000.0        0.00298018240547    0.0292733649491     0.996922090786      -0.0422910856999    0.996922090786      -0.0422910856999    0.00298018240547    0.0292733649491     
6500000000.0        0.00302066734482    0.0297302111114     0.996878741369      -0.0429518471138    0.996878741369      -0.0429518471138    0.00302066734482    0.0297302111114     
6600000000.0        0.00306175881278    0.0301870339847     0.996834743542      -0.0436126027695    0.996834743542      -0.0436126027695    0.00306175881278    0.0301870339847     
6700000000.0        0.00310345709037    0.0306438333276     0.996790097013      -0.0442733524275    0.996790097013      -0.0442733524275    0.00310345709037    0.0306438333276     
6800000000.0        0.00314576245055    0.0311006089016     0.996744801498      -0.0449340958487    0.996744801498      -0.0449340958487    0.00314576245055    0.0311006089016     
6900000000.0        0.00318867515879    0.0315573604717     0.99669885672       -0.0455948327938    0.99669885672       -0.0455948327938    0.00318867515879    0.0315573604717     
7000000000.0        0.00323219547358    0.0320140878059     0.996652262409      -0.0462555630234    0.996652262409      -0.0462555630234    0.00323219547358    0.0320140878059     
7100000000.0        0.00327632364689    0.0324707906755     0.996605018302      -0.0469162862986    0.996605018302      -0.0469162862986    0.00327632364689    0.0324707906755     
7200000000.0        0.00332105992464    0.0329274688549     0.996557124143      -0.0475770023804    0.996557124143      -0.0475770023804    0.00332105992464    0.0329274688549     
7300000000.0        0.00336640454709    0.0333841221216     0.99650857968       -0.0482377110298    0.99650857968       -0.0482377110298    0.00336640454709    0.0333841221216     
7400000000.0        0.00341235774927    0.0338407502564     0.996459384668      -0.0488984120083    0.996459384668      -0.0488984120083    0.00341235774927    0.0338407502564     
7500000000.0        0.00345891976133    0.0342973530428     0.996409538864      -0.0495591050774    0.996409538864      -0.0495591050774    0.00345891976133    0.0342973530428     
7600000000.0        0.00350609080887    0.0347539302678     0.996359042033      -0.0502197899986    0.996359042033      -0.0502197899986    0.00350609080887    0.0347539302678     
7700000000.0        0.00355387111331    0.035210481721      0.996307893943      -0.0508804665341    0.996307893943      -0.0508804665341    0.00355387111331    0.035210481721      
7800000000.0        0.00360226089214    0.0356670071952     0.996256094365      -0.051541134446     0.996256094365      -0.051541134446     0.00360226089214    0.0356670071952     
7900000000.0        0.00365126035925    0.0361235064863     0.996203643075      -0.0522017934966    0.996203643075      -0.0522017934966    0.00365126035925    0.0361235064863     
8000000000.0        0.00370086972519    0.0365799793929     0.996150539851      -0.0528624434488    0.996150539851      -0.0528624434488    0.00370086972519    0.0365799793929     
8100000000.0        0.00375108919742    0.0370364257166     0.996096784476      -0.0535230840653    0.996096784476      -0.0535230840653    0.00375108919742    0.0370364257166     
8200000000.0        0.00380191898056    0.0374928452621     0.996042376735      -0.0541837151095    0.996042376735      -0.0541837151095    0.00380191898056    0.0374928452621     
8300000000.0        0.00385335927662    0.0379492378365     0.995987316415      -0.054844336345     0.995987316415      -0.054844336345     0.00385335927662    0.0379492378365     
8400000000.0        0.0039054102852     0.0384056032501     0.995931603307      -0.0555049475355    0.995931603307      -0.0555049475355    0.0039054102852     0.0384056032501     
8500000000.0        0.00395807220373    0.0388619413159     0.995875237202      -0.0561655484451    0.995875237202      -0.0561655484451    0.00395807220373    0.0388619413159     
8600000000.0        0.00401134522761    0.0393182518498     0.995818217896      -0.0568261388383    0.995818217896      -0.0568261388383    0.00401134522761    0.0393182518498     
8700000000.0        0.00406522955044    0.0397745346701     0.995760545185      -0.0574867184798    0.995760545185      -0.0574867184798    0.00406522955044    0.0397745346701     
8800000000.0        0.00411972536418    0.0402307895982     0.995702218866      -0.0581472871348    0.995702218866      -0.0581472871348    0.00411972536418    0.0402307895982     
8900000000.0        0.0041748328593     0.0406870164579     0.995643238739      -0.0588078445685    0.995643238739      -0.0588078445685    0.0041748328593     0.0406870164579     
9000000000.0        0.00423055222496    0.0411432150758     0.995583604606      -0.0594683905466    0.995583604606      -0.0594683905466    0.00423055222496    0.0411432150758     
9100000000.0        0.00428688364915    0.0415993852812     0.995523316269      -0.0601289248352    0.995523316269      -0.0601289248352    0.00428688364915    0.0415993852812     
9200000000.0        0.00434382731881    0.0420555269058     0.995462373531      -0.0607894472005    0.995462373531      -0.0607894472005    0.00434382731881    0.0420555269058     
9300000000.0        0.00440138342001    0.042511639784      0.995400776196      -0.0614499574093    0.995400776196      -0.0614499574093    0.00440138342001    0.042511639784      
9400000000.0        0.00445955213802    0.0429677237528     0.995338524071      -0.0621104552284    0.995338524071      -0.0621104552284    0.00445955213802    0.0429677237528     
9500000000.0        0.00451833365749    0.0434237786515     0.99527561696       -0.0627709404251    0.99527561696       -0.0627709404251    0.00451833365749    0.0434237786515     
9600000000.0        0.00457772816252    0.043879804322      0.995212054671      -0.0634314127669    0.995212054671      -0.0634314127669    0.00457772816252    0.043879804322      
9700000000.0        0.0046377358368     0.0443358006088     0.995147837011      -0.0640918720217    0.995147837011      -0.0640918720217    0.0046377358368     0.0443358006088     
9800000000.0        0.0046983568637     0.0447917673585     0.995082963787      -0.0647523179578    0.995082963787      -0.0647523179578    0.0046983568637     0.0447917673585     
9900000000.0        0.00475959142638    0.0452477044205     0.995017434808      -0.0654127503434    0.995017434808      -0.0654127503434    0.00475959142638    0.0452477044205     
10000000000.0       0.00482143970788    0.0457036116462     0.994951249881      -0.0660731689474    0.994951249881      -0.0660731689474    0.00482143970788    0.0457036116462     
