# Hz S RI R 50.00 
100000000.0         0.000681895161747   -0.000996539340129  0.999296288797      -0.00457713406058   0.999296288797      -0.00457713406058   0.000681895161747   -0.000996539340129  
200000000.0         0.000670221247692   -0.00199307999344   0.999256071343      -0.00915425853776   0.999256071343      -0.00915425853776   0.000670221247692   -0.00199307999344   
300000000.0         0.000648223243345   -0.00298956480328   0.999195099115      -0.0137313548402    0.999195099115      -0.0137313548402    0.000648223243345   -0.00298956480328   
400000000.0         0.000616496129422   -0.00398593456307   0.999112773146      -0.0183083750067    0.999112773146      -0.0183083750067    0.000616496129422   -0.00398593456307   
500000000.0         0.000575268110393   -0.00498212643855   0.999008861221      -0.0228852584513    0.999008861221      -0.0228852584513    0.000575268110393   -0.00498212643855   
600000000.0         0.000524655224417   -0.0059780746516    0.998883243521      -0.0274619366621    0.998883243521      -0.0274619366621    0.000524655224417   -0.0059780746516    
700000000.0         0.000464726047374   -0.00697371101394   0.998735848113      -0.0320383354406    0.998735848113      -0.0320383354406    0.000464726047374   -0.00697371101394   
800000000.0         0.000395525315722   -0.00796896531245   0.998566627469      -0.0366143761976    0.998566627469      -0.0366143761976    0.000395525315722   -0.00796896531245   
900000000.0         0.000317084456721   -0.00896376559421   0.998375548057      -0.04118997679      0.998375548057      -0.04118997679      0.000317084456721   -0.00896376559421   
1000000000.0        0.000229426937566   -0.00995803838498   0.998162585091      -0.0457650521031    0.998162585091      -0.0457650521031    0.000229426937567   -0.00995803838498   
1100000000.0        0.000132571249057   -0.010951708862     0.997927719636      -0.0503395144786    0.997927719636      -0.0503395144786    0.000132571249057   -0.010951708862     
1200000000.0        2.653269214e-05     -0.0119447009942    0.997670936894      -0.054913274041     0.997670936894      -0.054913274041     2.653269214e-05     -0.0119447009942    
1300000000.0        -8.86754907e-05     -0.0129369376593    0.997392225142      -0.059486238956     0.997392225142      -0.059486238956     -8.86754907001e-05  -0.0129369376593    
1400000000.0        -0.000213041365518  -0.0139283407427    0.997091575044      -0.0640583156387    0.997091575044      -0.0640583156387    -0.000213041365519  -0.0139283407427    
1500000000.0        -0.000346553790517  -0.0149188312235    0.996768979184      -0.0686294089269    0.996768979184      -0.0686294089269    -0.000346553790517  -0.0149188312235    
1600000000.0        -0.000489202048741  -0.015908329249     0.996424431756      -0.0731994222265    0.996424431756      -0.0731994222265    -0.000489202048742  -0.015908329249     
1700000000.0        -0.000640975579413  -0.0168967542018    0.996057928333      -0.0777682576357    0.996057928333      -0.0777682576357    -0.000640975579413  -0.0168967542018    
1800000000.0        -0.000801863776505  -0.0178840247593    0.995669465712      -0.0823358160538    0.995669465712      -0.0823358160538    -0.000801863776505  -0.0178840247593    
1900000000.0        -0.000971855834451  -0.0188700589483    0.995259041799      -0.0869019972751    0.995259041799      -0.0869019972751    -0.000971855834451  -0.0188700589483    
2000000000.0        -0.00115094062762   -0.0198547741944    0.99482665552       -0.0914667000738    0.99482665552       -0.0914667000738    -0.00115094062762   -0.0198547741944    
2100000000.0        -0.00133910661458   -0.020838087368     0.994372306761      -0.0960298222787    0.994372306761      -0.0960298222787    -0.00133910661458   -0.020838087368     
2200000000.0        -0.00153634176081   -0.0218199148269    0.993895996321      -0.100591260841     0.993895996321      -0.100591260841     -0.00153634176081   -0.0218199148269    
2300000000.0        -0.00174263347546   -0.0228001724556    0.993397725877      -0.105150911897     0.993397725877      -0.105150911897     -0.00174263347546   -0.0228001724556    
2400000000.0        -0.001957968559     -0.0237787757032    0.992877497959      -0.109708670823     0.992877497959      -0.109708670823     -0.00195796855899   -0.0237787757032    
2500000000.0        -0.00218233315926   -0.0247556396184    0.992335315927      -0.114264432288     0.992335315927      -0.114264432288     -0.00218233315926   -0.0247556396184    
2600000000.0        -0.00241571273436   -0.025730678883     0.991771183963      -0.118818090304     0.991771183963      -0.118818090304     -0.00241571273436   -0.025730678883     
2700000000.0        -0.00265809202097   -0.0267038078434    0.991185107054      -0.123369538265     0.991185107054      -0.123369538265     -0.00265809202097   -0.0267038078434    
2800000000.0        -0.00290945500701   -0.0276749405418    0.990577090988      -0.127918668998     0.990577090988      -0.127918668998     -0.00290945500701   -0.0276749405418    
2900000000.0        -0.00316978490805   -0.0286439907444    0.989947142351      -0.132465374791     0.989947142351      -0.132465374791     -0.00316978490805   -0.0286439907444    
3000000000.0        -0.0034390641467    -0.0296108719701    0.989295268517      -0.137009547441     0.989295268517      -0.137009547441     -0.0034390641467    -0.0296108719701    
3100000000.0        -0.00371727433461   -0.0305754975172    0.988621477652      -0.14155107828      0.988621477652      -0.14155107828      -0.00371727433461   -0.0305754975172    
3200000000.0        -0.00400439625659   -0.0315377804897    0.98792577871       -0.146089858216     0.98792577871       -0.146089858216     -0.00400439625659   -0.0315377804897    
3300000000.0        -0.00430040985667   -0.0324976338222    0.987208181431      -0.150625777756     0.987208181431      -0.150625777756     -0.00430040985668   -0.0324976338222    
3400000000.0        -0.00460529422574   -0.0334549703045    0.986468696345      -0.155158727045     0.986468696345      -0.155158727045     -0.00460529422574   -0.0334549703045    
3500000000.0        -0.0049190275906    -0.0344097026056    0.985707334769      -0.159688595888     0.985707334769      -0.159688595888     -0.0049190275906    -0.0344097026056    
3600000000.0        -0.0052415873043    -0.0353617432967    0.984924108811      -0.16421527378      0.984924108811      -0.16421527378      -0.0052415873043    -0.0353617432967    
3700000000.0        -0.00557294983759   -0.0363110048733    0.984119031366      -0.168738649933     0.984119031366      -0.168738649933     -0.00557294983759   -0.0363110048733    
3800000000.0        -0.00591309077131   -0.0372573997781    0.983292116123      -0.173258613301     0.983292116123      -0.173258613301     -0.00591309077131   -0.0372573997781    
3900000000.0        -0.00626198478973   -0.0382008404216    0.982443377561      -0.177775052603     0.982443377561      -0.177775052603     -0.00626198478973   -0.0382008404216    
4000000000.0        -0.00661960567471   -0.0391412392035    0.981572830952      -0.182287856349     0.981572830952      -0.182287856349     -0.00661960567471   -0.0391412392035    
4100000000.0        -0.00698592630052   -0.0400785085332    0.980680492362      -0.186796912863     0.980680492362      -0.186796912863     -0.00698592630052   -0.0400785085332    
4200000000.0        -0.00736091862946   -0.0410125608498    0.979766378654      -0.1913021103       0.979766378654      -0.1913021103       -0.00736091862946   -0.0410125608498    
4300000000.0        -0.00774455370802   -0.0419433086418    0.978830507482      -0.195803336673     0.978830507482      -0.195803336673     -0.00774455370802   -0.0419433086418    
4400000000.0        -0.00813680166364   -0.0428706644669    0.977872897301      -0.200300479875     0.977872897301      -0.200300479875     -0.00813680166364   -0.0428706644669    
4500000000.0        -0.00853763170207   -0.0437945409701    0.976893567359      -0.20479342769      0.976893567359      -0.20479342769      -0.00853763170207   -0.0437945409701    
4600000000.0        -0.00894701210512   -0.0447148509031    0.975892537701      -0.209282067824     0.975892537701      -0.209282067824     -0.00894701210512   -0.0447148509031    
4700000000.0        -0.00936491022905   -0.0456315071425    0.974869829169      -0.213766287916     0.974869829169      -0.213766287916     -0.00936491022905   -0.0456315071425    
4800000000.0        -0.00979129250324   -0.0465444227073    0.973825463403      -0.21824597556      0.973825463403      -0.21824597556      -0.00979129250324   -0.0465444227073    
4900000000.0        -0.0102261244294    -0.0474535107772    0.972759462837      -0.222721018321     0.972759462837      -0.222721018321     -0.0102261244294    -0.0474535107772    
5000000000.0        -0.0106693705812    -0.0483586847097    0.971671850702      -0.227191303756     0.971671850702      -0.227191303756     -0.0106693705812    -0.0483586847097    
5100000000.0        -0.0111209946041    -0.0492598580573    0.970562651024      -0.231656719428     0.970562651024      -0.231656719428     -0.0111209946041    -0.0492598580573    
5200000000.0        -0.0115809592159    -0.0501569445845    0.969431888621      -0.236117152922     0.969431888621      -0.236117152922     -0.0115809592159    -0.0501569445845    
5300000000.0        -0.0120492262072    -0.0510498582841    0.968279589105      -0.240572491867     0.968279589105      -0.240572491867     -0.0120492262072    -0.0510498582841    
5400000000.0        -0.0125257564424    -0.0519385133941    0.967105778881      -0.245022623945     0.967105778881      -0.245022623945     -0.0125257564424    -0.0519385133941    
5500000000.0        -0.0130105098615    -0.0528228244131    0.965910485142      -0.24946743691      0.965910485142      -0.24946743691      -0.0130105098615    -0.0528228244131    
5600000000.0        -0.0135034454811    -0.0537027061171    0.964693735869      -0.253906818606     0.964693735869      -0.253906818606     -0.0135034454811    -0.0537027061171    
5700000000.0        -0.0140045213968    -0.0545780735742    0.96345555983       -0.258340656975     0.96345555983       -0.258340656975     -0.0140045213968    -0.0545780735742    
5800000000.0        -0.0145136947853    -0.0554488421608    0.962195986576      -0.262768840078     0.962195986576      -0.262768840078     -0.0145136947853    -0.0554488421608    
5900000000.0        -0.0150309219068    -0.0563149275766    0.96091504644       -0.267191256107     0.96091504644       -0.267191256107     -0.0150309219068    -0.0563149275766    
6000000000.0        -0.0155561581081    -0.0571762458593    0.959612770535      -0.271607793397     0.959612770535      -0.271607793397     -0.0155561581081    -0.0571762458593    
6100000000.0        -0.0160893578253    -0.0580327133998    0.958289190748      -0.276018340444     0.958289190748      -0.276018340444     -0.0160893578253    -0.0580327133998    
6200000000.0        -0.0166304745876    -0.0588842469567    0.95694433974       -0.280422785914     0.95694433974       -0.280422785914     -0.0166304745876    -0.0588842469567    
6300000000.0        -0.01717946102      -0.0597307636704    0.955578250944      -0.28482101866      0.955578250944      -0.28482101866      -0.01717946102      -0.0597307636704    
6400000000.0        -0.0177362688481    -0.0605721810777    0.954190958557      -0.289212927732     0.954190958557      -0.289212927732     -0.0177362688481    -0.0605721810777    
6500000000.0        -0.0183008489013    -0.0614084171258    0.952782497542      -0.29359840239      0.952782497542      -0.29359840239      -0.0183008489013    -0.0614084171258    
6600000000.0        -0.0188731511176    -0.0622393901855    0.951352903619      -0.297977332119     0.951352903619      -0.297977332119     -0.0188731511176    -0.0622393901855    
6700000000.0        -0.0194531245478    -0.0630650190656    0.949902213266      -0.302349606636     0.949902213266      -0.302349606636     -0.0194531245478    -0.0630650190656    
6800000000.0        -0.0200407173601    -0.0638852230259    0.948430463712      -0.306715115909     0.948430463712      -0.306715115909     -0.0200407173601    -0.0638852230259    
6900000000.0        -0.0206358768454    -0.0646999217904    0.946937692932      -0.31107375016      0.946937692932      -0.31107375016      -0.0206358768454    -0.0646999217904    
7000000000.0        -0.0212385494217    -0.0655090355607    0.945423939648      -0.315425399885     0.945423939648      -0.315425399885     -0.0212385494217    -0.0655090355607    
7100000000.0        -0.0218486806401    -0.0663124850283    0.943889243317      -0.319769955858     0.943889243317      -0.319769955858     -0.0218486806401    -0.0663124850283    
7200000000.0        -0.0224662151899    -0.0671101913879    0.942333644132      -0.324107309147     0.942333644132      -0.324107309147     -0.0224662151899    -0.0671101913879    
7300000000.0        -0.0230910969043    -0.0679020763497    0.940757183015      -0.328437351121     0.940757183015      -0.328437351121     -0.0230910969043    -0.0679020763497    
7400000000.0        -0.0237232687664    -0.0686880621515    0.939159901612      -0.332759973463     0.939159901612      -0.332759973463     -0.0237232687664    -0.0686880621515    
7500000000.0        -0.024362672915     -0.0694680715712    0.93754184229       -0.33707506818      0.93754184229       -0.33707506818      -0.024362672915     -0.0694680715712    
7600000000.0        -0.0250092506509    -0.0702420279386    0.935903048128      -0.34138252761      0.935903048128      -0.34138252761      -0.0250092506509    -0.0702420279386    
7700000000.0        -0.0256629424435    -0.0710098551474    0.934243562914      -0.345682244436     0.934243562914      -0.345682244436     -0.0256629424435    -0.0710098551474    
7800000000.0        -0.0263236879369    -0.0717714776664    0.932563431141      -0.349974111693     0.932563431141      -0.349974111693     -0.0263236879369    -0.0717714776664    
7900000000.0        -0.026991425957     -0.0725268205516    0.930862697997      -0.354258022778     0.930862697997      -0.354258022778     -0.026991425957     -0.0725268205516    
8000000000.0        -0.0276660945182    -0.073275809457     0.929141409363      -0.35853387146      0.929141409363      -0.35853387146      -0.0276660945182    -0.073275809457     
8100000000.0        -0.0283476308301    -0.074018370646     0.927399611807      -0.362801551887     0.927399611807      -0.362801551887     -0.0283476308301    -0.074018370646     
8200000000.0        -0.0290359713055    -0.0747544310022    0.925637352576      -0.367060958598     0.925637352576      -0.367060958598     -0.0290359713055    -0.0747544310022    
8300000000.0        -0.0297310515668    -0.0754839180402    0.92385467959       -0.371311986527     0.92385467959       -0.371311986527     -0.0297310515668    -0.0754839180402    
8400000000.0        -0.0304328064539    -0.0762067599166    0.922051641439      -0.375554531015     0.922051641439      -0.375554531015     -0.0304328064539    -0.0762067599166    
8500000000.0        -0.0311411700319    -0.0769228854397    0.920228287372      -0.379788487819     0.920228287372      -0.379788487819     -0.0311411700319    -0.0769228854397    
8600000000.0        -0.0318560755983    -0.0776322240805    0.918384667294      -0.384013753114     0.918384667294      -0.384013753114     -0.0318560755983    -0.0776322240805    
8700000000.0        -0.0325774556917    -0.0783347059827    0.916520831758      -0.388230223509     0.916520831758      -0.388230223509     -0.0325774556917    -0.0783347059827    
8800000000.0        -0.0333052420989    -0.0790302619721    0.91463683196       -0.392437796049     0.91463683196       -0.392437796049     -0.0333052420989    -0.0790302619721    
8900000000.0        -0.0340393658636    -0.0797188235672    0.912732719729      -0.396636368222     0.912732719729      -0.396636368222     -0.0340393658636    -0.0797188235672    
9000000000.0        -0.0347797572944    -0.0804003229882    0.910808547523      -0.400825837971     0.910808547523      -0.400825837971     -0.0347797572944    -0.0804003229882    
9100000000.0        -0.0355263459733    -0.0810746931669    0.908864368423      -0.405006103696     0.908864368423      -0.405006103696     -0.0355263459733    -0.0810746931669    
9200000000.0        -0.036279060764     -0.0817418677557    0.906900236122      -0.409177064265     0.906900236122      -0.409177064265     -0.036279060764     -0.0817418677557    
9300000000.0        -0.0370378298207    -0.0824017811368    0.90491620492       -0.413338619016     0.90491620492       -0.413338619016     -0.0370378298207    -0.0824017811368    
9400000000.0        -0.0378025805967    -0.0830543684314    0.902912329721      -0.417490667769     0.902912329721      -0.417490667769     -0.0378025805967    -0.0830543684314    
9500000000.0        -0.0385732398529    -0.0836995655082    0.900888666017      -0.421633110828     0.900888666017      -0.421633110828     -0.0385732398529    -0.0836995655082    
9600000000.0        -0.0393497336673    -0.0843373089922    0.898845269888      -0.425765848988     0.898845269888      -0.425765848988     -0.0393497336673    -0.0843373089922    
9700000000.0        -0.0401319874437    -0.0849675362733    0.896782197994      -0.429888783542     0.896782197994      -0.429888783542     -0.0401319874437    -0.0849675362733    
9800000000.0        -0.0409199259206    -0.0855901855142    0.894699507562      -0.434001816286     0.894699507562      -0.434001816286     -0.0409199259206    -0.0855901855142    
9900000000.0        -0.0417134731808    -0.0862051956593    0.892597256384      -0.438104849527     0.892597256384      -0.438104849527     -0.0417134731808    -0.0862051956593    
10000000000.0       -0.0425125526605    -0.086812506442     0.89047550281       -0.442197786082     0.89047550281       -0.442197786082     -0.0425125526605    -0.086812506442     
