# Hz S RI R 50.00 
100000000.0         0.064681630668      0.00284720854327    0.935315804536      -0.00391207570402   0.935315804536      -0.00391207570402   0.064681630668      0.00284720854327    
200000000.0         0.0651147078177     0.00568840226076    0.934880002141      -0.00781814154264   0.934880002141      -0.00781814154264   0.0651147078177     0.00568840226076    
300000000.0         0.0654628926809     0.00852569766912    0.934527931229      -0.0117203189033    0.934527931229      -0.0117203189033    0.0654628926809     0.00852569766912    
400000000.0         0.0657791235281     0.0113596733988     0.93420665325       -0.0156191907518    0.93420665325       -0.0156191907518    0.0657791235281     0.0113596733988     
500000000.0         0.0660838274153     0.0141905503674     0.933895740893      -0.0195149820737    0.933895740893      -0.0195149820737    0.0660838274153     0.0141905503674     
600000000.0         0.0663874349495     0.0170183912032     0.933584763302      -0.0234077593913    0.933584763302      -0.0234077593913    0.0663874349495     0.0170183912032     
700000000.0         0.0666961103424     0.0198431718997     0.933267556017      -0.0272975024666    0.933267556017      -0.0272975024666    0.0666961103424     0.0198431718997     
800000000.0         0.0670138448429     0.022664815069      0.932940127535      -0.0311841375824    0.932940127535      -0.0311841375824    0.0670138448429     0.022664815069      
900000000.0         0.0673433897402     0.0254832078189     0.932599726304      -0.0350675554387    0.932599726304      -0.0350675554387    0.0673433897402     0.0254832078189     
1000000000.0        0.0676867297206     0.0282982123528     0.932244367363      -0.0389476217655    0.932244367363      -0.0389476217655    0.0676867297206     0.0282982123528     
1100000000.0        0.0680453462384     0.0311096727158     0.931872568973      -0.0428241840786    0.931872568973      -0.0428241840786    0.0680453462384     0.0311096727158     
1200000000.0        0.0684203745892     0.0339174193263     0.931483195539      -0.0466970762187    0.931483195539      -0.0466970762187    0.0684203745892     0.0339174193263     
1300000000.0        0.0688127028196     0.0367212721531     0.931075358704      -0.0505661215342    0.931075358704      -0.0505661215342    0.0688127028196     0.0367212721531     
1400000000.0        0.0692230367968     0.0395210430219     0.930648352274      -0.0544311351922    0.930648352274      -0.0544311351922    0.0692230367968     0.0395210430219     
1500000000.0        0.0696519445891     0.0423165373397     0.930201607838      -0.0582919259072    0.930201607838      -0.0582919259072    0.0696519445891     0.0423165373397     
1600000000.0        0.0700998876642     0.0451075554169     0.929734663574      -0.0621482972655    0.929734663574      -0.0621482972655    0.0700998876642     0.0451075554169     
1700000000.0        0.0705672433946     0.0478938935019     0.929247141737      -0.0660000487635    0.929247141737      -0.0660000487635    0.0705672433946     0.0478938935019     
1800000000.0        0.0710543216569     0.0506753446078     0.928738732063      -0.069846976636     0.928738732063      -0.069846976636     0.0710543216569     0.0506753446078     
1900000000.0        0.0715613773153     0.0534516991837     0.928209179286      -0.0736888745293    0.928209179286      -0.0736888745293    0.0715613773153     0.0534516991837     
2000000000.0        0.0720886197715     0.0562227456672     0.927658273585      -0.0775255340563    0.927658273585      -0.0775255340563    0.0720886197715     0.0562227456672     
2100000000.0        0.0726362203831     0.0589882709477     0.927085843168      -0.0813567452602    0.927085843168      -0.0813567452602    0.0726362203831     0.0589882709477     
2200000000.0        0.073204318304      0.061748060757      0.926491748428      -0.0851822970074    0.926491748428      -0.0851822970074    0.073204318304      0.061748060757      
2300000000.0        0.073793025141      0.0645019000048     0.925875877293      -0.0890019773235    0.925875877293      -0.0890019773235    0.073793025141      0.0645019000048     
2400000000.0        0.0744024287064     0.0672495730689     0.925238141465      -0.0928155736847    0.925238141465      -0.0928155736847    0.0744024287064     0.0672495730689     
2500000000.0        0.0750325960751     0.0699908640481     0.924578473371      -0.0966228732721    0.924578473371      -0.0966228732721    0.0750325960751     0.0699908640481     
2600000000.0        0.0756835760969     0.072725556986      0.923896823644      -0.100423663196     0.923896823644      -0.100423663196     0.0756835760969     0.072725556986      
2700000000.0        0.0763554014802     0.0754534360696     0.923193159041      -0.104217730694     0.923193159041      -0.104217730694     0.0763554014802     0.0754534360696     
2800000000.0        0.0770480905341     0.0781742858069     0.922467460705      -0.108004863312     0.922467460705      -0.108004863312     0.0770480905341     0.0781742858069     
2900000000.0        0.0777616486354     0.0808878911875     0.921719722692      -0.111784849065     0.921719722692      -0.111784849065     0.0777616486354     0.0808878911875     
3000000000.0        0.0784960694736     0.0835940378287     0.92094995073       -0.115557476579     0.92094995073       -0.115557476579     0.0784960694736     0.0835940378287     
3100000000.0        0.0792513361138     0.0862925121077     0.920158161154      -0.119322535232     0.920158161154      -0.119322535232     0.0792513361138     0.0862925121077     
3200000000.0        0.0800274219109     0.0889831012845     0.919344379992      -0.123079815271     0.919344379992      -0.123079815271     0.0800274219109     0.0889831012845     
3300000000.0        0.0808242912998     0.0916655936143     0.918508642178      -0.126829107926     0.918508642178      -0.126829107926     0.0808242912998     0.0916655936143     
3400000000.0        0.0816419004829     0.0943397784519     0.917650990858      -0.130570205516     0.917650990858      -0.130570205516     0.0816419004829     0.0943397784519     
3500000000.0        0.0824801980316     0.097005446349      0.916771476796      -0.134302901549     0.916771476796      -0.134302901549     0.0824801980316     0.097005446349      
3600000000.0        0.0833391254155     0.099662389145      0.915870157839      -0.138026990807     0.915870157839      -0.138026990807     0.0833391254155     0.099662389145      
3700000000.0        0.08421861747       0.102310400052      0.914947098451      -0.141742269436     0.914947098451      -0.141742269436     0.08421861747       0.102310400052      
3800000000.0        0.0851186028123     0.104949273735      0.914002369298      -0.145448535028     0.914002369298      -0.145448535028     0.0851186028123     0.104949273735      
3900000000.0        0.0860390042127     0.107578806386      0.913036046877      -0.149145586689     0.913036046877      -0.149145586689     0.0860390042127     0.107578806386      
4000000000.0        0.0869797389281     0.110198795797      0.912048213181      -0.152833225119     0.912048213181      -0.152833225119     0.0869797389281     0.110198795797      
4100000000.0        0.0879407190022     0.112809041426      0.911038955399      -0.156511252674     0.911038955399      -0.156511252674     0.0879407190022     0.112809041426      
4200000000.0        0.0889218515386     0.115409344462      0.910008365644      -0.160179473433     0.910008365644      -0.160179473433     0.0889218515386     0.115409344462      
4300000000.0        0.0899230389482     0.117999507884      0.908956540704      -0.163837693257     0.908956540704      -0.163837693257     0.0899230389482     0.117999507884      
4400000000.0        0.0909441791759     0.120579336519      0.907883581818      -0.167485719849     0.907883581818      -0.167485719849     0.0909441791759     0.120579336519      
4500000000.0        0.091985165909      0.123148637097      0.906789594464      -0.171123362805     0.906789594464      -0.171123362805     0.091985165909      0.123148637097      
4600000000.0        0.0930458887689     0.125707218306      0.905674688169      -0.174750433671     0.905674688169      -0.174750433671     0.0930458887689     0.125707218306      
4700000000.0        0.0941262334886     0.128254890835      0.904538976333      -0.17836674599      0.904538976333      -0.17836674599      0.0941262334886     0.128254890835      
4800000000.0        0.0952260820784     0.130791467429      0.903382576061      -0.181972115351     0.903382576061      -0.181972115351     0.0952260820784     0.130791467429      
4900000000.0        0.0963453129795     0.133316762928      0.902205608011      -0.185566359435     0.902205608011      -0.185566359435     0.0963453129795     0.133316762928      
5000000000.0        0.0974838012085     0.135830594315      0.901008196247      -0.189149298055     0.901008196247      -0.189149298055     0.0974838012085     0.135830594315      
5100000000.0        0.0986414184933     0.138332780754      0.899790468106      -0.192720753201     0.899790468106      -0.192720753201     0.0986414184933     0.138332780754      
5200000000.0        0.099818033401      0.140823143631      0.898552554071      -0.196280549078     0.898552554071      -0.196280549078     0.099818033401      0.140823143631      
5300000000.0        0.101013511459      0.143301506589      0.897294587643      -0.199828512143     0.897294587643      -0.199828512143     0.101013511459      0.143301506589      
5400000000.0        0.102227715271      0.145767695568      0.896016705235      -0.203364471143     0.896016705235      -0.203364471143     0.102227715271      0.145767695568      
5500000000.0        0.103460504624      0.148221538834      0.894719046056      -0.206888257145     0.894719046056      -0.206888257145     0.103460504624      0.148221538834      
5600000000.0        0.104711736596      0.150662867016      0.893401752008      -0.210399703574     0.893401752008      -0.210399703574     0.104711736596      0.150662867016      
5700000000.0        0.105981265656      0.153091513132      0.892064967588      -0.213898646239     0.892064967588      -0.213898646239     0.105981265656      0.153091513132      
5800000000.0        0.107268943757      0.155507312623      0.890708839788      -0.217384923364     0.890708839788      -0.217384923364     0.107268943757      0.155507312623      
5900000000.0        0.108574620432      0.157910103376      0.889333518005      -0.220858375616     0.889333518005      -0.220858375616     0.108574620432      0.157910103376      
6000000000.0        0.109898142883      0.160299725753      0.887939153951      -0.224318846134     0.887939153951      -0.224318846134     0.109898142883      0.160299725753      
6100000000.0        0.111239356067      0.162676022617      0.886525901564      -0.227766180547     0.886525901564      -0.227766180547     0.111239356067      0.162676022617      
6200000000.0        0.112598102777      0.165038839352      0.88509391693       -0.231200227004     0.88509391693       -0.231200227004     0.112598102777      0.165038839352      
6300000000.0        0.113974223729      0.167388023886      0.883643358195      -0.234620836194     0.883643358195      -0.234620836194     0.113974223729      0.167388023886      
6400000000.0        0.115367557636      0.169723426713      0.882174385492      -0.238027861364     0.882174385492      -0.238027861364     0.115367557636      0.169723426713      
6500000000.0        0.116777941287      0.172044900912      0.880687160859      -0.241421158344     0.880687160859      -0.241421158344     0.116777941287      0.172044900912      
6600000000.0        0.118205209622      0.174352302163      0.879181848169      -0.244800585559     0.879181848169      -0.244800585559     0.118205209622      0.174352302163      
6700000000.0        0.119649195804      0.176645488766      0.877658613051      -0.24816600405      0.877658613051      -0.24816600405      0.119649195804      0.176645488766      
6800000000.0        0.121109731293      0.178924321657      0.876117622823      -0.251517277489     0.876117622823      -0.251517277489     0.121109731293      0.178924321657      
6900000000.0        0.122586645912      0.181188664417      0.874559046422      -0.254854272191     0.874559046422      -0.254854272191     0.122586645912      0.181188664417      
7000000000.0        0.124079767921      0.183438383293      0.872983054331      -0.25817685713      0.872983054331      -0.25817685713      0.124079767921      0.183438383293      
7100000000.0        0.125588924079      0.185673347204      0.871389818517      -0.26148490395      0.871389818517      -0.26148490395      0.125588924079      0.185673347204      
7200000000.0        0.127113939713      0.187893427754      0.869779512361      -0.264778286974     0.869779512361      -0.264778286974     0.127113939713      0.187893427754      
7300000000.0        0.128654638783      0.19009849924       0.868152310597      -0.268056883216     0.868152310597      -0.268056883216     0.128654638783      0.19009849924       
7400000000.0        0.130210843943      0.192288438663      0.866508389243      -0.271320572388     0.866508389243      -0.271320572388     0.130210843943      0.192288438663      
7500000000.0        0.131782376608      0.194463125733      0.864847925544      -0.274569236909     0.864847925544      -0.274569236909     0.131782376608      0.194463125733      
7600000000.0        0.133369057009      0.196622442876      0.863171097906      -0.277802761909     0.863171097906      -0.277802761909     0.133369057009      0.196622442876      
7700000000.0        0.134970704261      0.198766275239      0.86147808584       -0.281021035238     0.86147808584       -0.281021035238     0.134970704261      0.198766275239      
7800000000.0        0.136587136417      0.200894510695      0.859769069898      -0.284223947463     0.859769069898      -0.284223947463     0.136587136417      0.200894510695      
7900000000.0        0.138218170531      0.203007039843      0.858044231615      -0.28741139188      0.858044231615      -0.28741139188      0.138218170531      0.203007039843      
8000000000.0        0.13986362271       0.205103756015      0.856303753454      -0.290583264509     0.856303753454      -0.290583264509     0.13986362271       0.205103756015      
8100000000.0        0.141523308179      0.207184555273      0.854547818745      -0.2937394641       0.854547818745      -0.2937394641       0.141523308179      0.207184555273      
8200000000.0        0.14319704133       0.20924933641       0.852776611634      -0.296879892129     0.852776611634      -0.296879892129     0.14319704133       0.20924933641       
8300000000.0        0.144884635781      0.211298000949      0.850990317022      -0.300004452801     0.850990317022      -0.300004452801     0.144884635781      0.211298000949      
8400000000.0        0.14658590443       0.213330453143      0.849189120513      -0.303113053043     0.849189120513      -0.303113053043     0.14658590443       0.213330453143      
8500000000.0        0.148300659508      0.215346599969      0.847373208362      -0.306205602509     0.847373208362      -0.306205602509     0.148300659508      0.215346599969      
8600000000.0        0.150028712632      0.217346351127      0.845542767416      -0.309282013566     0.845542767416      -0.309282013566     0.150028712632      0.217346351127      
8700000000.0        0.151769874859      0.219329619032      0.843697985072      -0.3123422013       0.843697985072      -0.3123422013       0.151769874859      0.219329619032      
8800000000.0        0.153523956737      0.221296318814      0.841839049213      -0.315386083504     0.841839049213      -0.315386083504     0.153523956737      0.221296318814      
8900000000.0        0.155290768352      0.223246368305      0.839966148168      -0.318413580671     0.839966148168      -0.318413580671     0.155290768352      0.223246368305      
9000000000.0        0.157070119385      0.225179688036      0.838079470656      -0.321424615993     0.838079470656      -0.321424615993     0.157070119385      0.225179688036      
9100000000.0        0.158861819154      0.227096201229      0.836179205736      -0.324419115345     0.836179205736      -0.324419115345     0.158861819154      0.227096201229      
9200000000.0        0.160665676668      0.228995833785      0.834265542763      -0.327397007283     0.834265542763      -0.327397007283     0.160665676668      0.228995833785      
9300000000.0        0.162481500673      0.230878514277      0.832338671337      -0.33035822303      0.832338671337      -0.33035822303      0.162481500673      0.230878514277      
9400000000.0        0.164309099698      0.23274417394       0.830398781255      -0.333302696467     0.830398781255      -0.333302696467     0.164309099698      0.23274417394       
9500000000.0        0.166148282104      0.234592746656      0.828446062467      -0.336230364122     0.828446062467      -0.336230364122     0.166148282104      0.234592746656      
9600000000.0        0.167998856126      0.236424168947      0.826480705029      -0.339141165159     0.826480705029      -0.339141165159     0.167998856126      0.236424168947      
9700000000.0        0.169860629924      0.238238379958      0.824502899057      -0.342035041361     0.824502899057      -0.342035041361     0.169860629924      0.238238379958      
9800000000.0        0.171733411621      0.240035321445      0.822512834683      -0.344911937124     0.822512834683      -0.344911937124     0.171733411621      0.240035321445      
9900000000.0        0.173617009351      0.241814937764      0.820510702015      -0.347771799435     0.820510702015      -0.347771799435     0.173617009351      0.241814937764      
10000000000.0       0.175511231298      0.243577175849      0.818496691086      -0.350614577863     0.818496691086      -0.350614577863     0.175511231298      0.243577175849      
