# Hz S RI R 50.00 
100000000.0         0.00534985223414    0.000940029590691   0.994648290476      -0.00161633832282   0.994648290476      -0.00161633832282   0.00534985223414    0.000940029590691   
200000000.0         0.00538944925107    0.00187986772085    0.994607377936      -0.00323248797811   0.994607377936      -0.00323248797811   0.00538944925108    0.00187986772085    
300000000.0         0.00542264757974    0.00281957645523    0.994572405825      -0.00484851296906   0.994572405825      -0.00484851296906   0.00542264757974    0.00281957645523    
400000000.0         0.00545407942377    0.00375917005964    0.994538741916      -0.00646442908997   0.994538741916      -0.00646442908997   0.00545407942377    0.00375917005964    
500000000.0         0.00548553041722    0.00469865168032    0.994504600546      -0.00808024081033   0.994504600546      -0.00808024081033   0.00548553041722    0.00469865168032    
600000000.0         0.00551791195478    0.00563801953997    0.99446907029       -0.00969594754234   0.99446907029       -0.00969594754234   0.00551791195478    0.00563801953997    
700000000.0         0.0055517627748     0.00657726916305    0.994431612377      -0.0113115459028    0.994431612377      -0.0113115459028    0.0055517627748     0.00657726916305    
800000000.0         0.00558743208523    0.00751639440771    0.994391877564      -0.0129270307668    0.994391877564      -0.0129270307668    0.00558743208523    0.00751639440771    
900000000.0         0.00562516112773    0.00845538802002    0.994349624569      -0.0145423958364    0.994349624569      -0.0145423958364    0.00562516112773    0.00845538802002    
1000000000.0        0.00566512453406    0.00939424196189    0.994304678721      -0.0161576339786    0.994304678721      -0.0161576339786    0.00566512453406    0.00939424196189    
1100000000.0        0.00570745332272    0.0103329476194     0.994256908956      -0.017772737441     0.994256908956      -0.017772737441     0.00570745332272    0.0103329476194     
1200000000.0        0.00575224860626    0.0112714959423     0.994206214117      -0.019387697997     0.994206214117      -0.019387697997     0.00575224860626    0.0112714959423     
1300000000.0        0.00579959021772    0.0122098775409     0.994152514322      -0.0210025070473    0.994152514322      -0.0210025070473    0.00579959021772    0.0122098775409     
1400000000.0        0.00584954238245    0.0131480827569     0.994095745295      -0.0226171556941    0.994095745295      -0.0226171556941    0.00584954238245    0.0131480827569     
1500000000.0        0.00590215758411    0.0140861017152     0.994035854499      -0.0242316347959    0.994035854499      -0.0242316347959    0.00590215758411    0.0140861017152     
1600000000.0        0.00595747928068    0.0150239243638     0.993972798421      -0.0258459350098    0.993972798421      -0.0258459350098    0.00595747928068    0.0150239243638     
1700000000.0        0.00601554386228    0.0159615405042     0.993906540612      -0.0274600468241    0.993906540612      -0.0274600468241    0.00601554386228    0.0159615405042     
1800000000.0        0.00607638209406    0.016898939816      0.993837050249      -0.0290739605845    0.993837050249      -0.0290739605845    0.00607638209406    0.016898939816      
1900000000.0        0.00614002020039    0.0178361118761     0.993764301045      -0.030687666515     0.993764301045      -0.030687666515     0.00614002020039    0.0178361118761     
2000000000.0        0.00620648069348    0.0187730461749     0.993688270423      -0.0323011547351    0.993688270423      -0.0323011547351    0.00620648069348    0.0187730461749     
2100000000.0        0.0062757830162     0.0197097321289     0.993608938876      -0.0339144152737    0.993608938876      -0.0339144152737    0.0062757830162     0.0197097321289     
2200000000.0        0.0063479440476     0.0206461590915     0.993526289455      -0.0355274380813    0.993526289455      -0.0355274380813    0.0063479440476     0.0206461590915     
2300000000.0        0.00642297850522    0.0215823163622     0.993440307374      -0.0371402130397    0.993440307374      -0.0371402130397    0.00642297850522    0.0215823163622     
2400000000.0        0.00650089926877    0.0225181931946     0.99335097968       -0.0387527299704    0.99335097968       -0.0387527299704    0.00650089926877    0.0225181931946     
2500000000.0        0.00658171764317    0.0234537788021     0.993258294995      -0.0403649786423    0.993258294995      -0.0403649786423    0.00658171764317    0.0234537788021     
2600000000.0        0.00666544357424    0.0243890623644     0.993162243297      -0.0419769487776    0.993162243297      -0.0419769487776    0.00666544357424    0.0243890623644     
2700000000.0        0.00675208582699    0.0253240330318     0.993062815744      -0.0435886300573    0.993062815744      -0.0435886300573    0.00675208582699    0.0253240330318     
2800000000.0        0.00684165213415    0.0262586799298     0.992960004523      -0.0452000121263    0.992960004523      -0.0452000121263    0.00684165213415    0.0262586799298     
2900000000.0        0.00693414932082    0.0271929921628     0.992853802729      -0.0468110845974    0.992853802729      -0.0468110845974    0.00693414932082    0.0271929921628     
3000000000.0        0.00702958340963    0.028126958817      0.992744204254      -0.0484218370553    0.992744204254      -0.0484218370553    0.00702958340963    0.028126958817      
3100000000.0        0.00712795971016    0.0290605689639     0.992631203705      -0.0500322590594    0.992631203705      -0.0500322590594    0.00712795971016    0.0290605689639     
3200000000.0        0.00722928289524    0.0299938116625     0.992514796322      -0.0516423401476    0.992514796322      -0.0516423401476    0.00722928289525    0.0299938116625     
3300000000.0        0.00733355706657    0.0309266759619     0.992394977916      -0.0532520698382    0.992394977916      -0.0532520698382    0.00733355706657    0.0309266759619     
3400000000.0        0.00744078581123    0.0318591509032     0.992271744808      -0.054861437633     0.992271744808      -0.054861437633     0.00744078581123    0.0318591509032     
3500000000.0        0.00755097225075    0.0327912255215     0.992145093787      -0.0564704330192    0.992145093787      -0.0564704330192    0.00755097225075    0.0327912255215     
3600000000.0        0.00766411908379    0.0337228888476     0.992015022059      -0.0580790454713    0.992015022059      -0.0580790454713    0.00766411908379    0.0337228888476     
3700000000.0        0.00778022862349    0.0346541299095     0.991881527217      -0.0596872644533    0.991881527217      -0.0596872644533    0.00778022862349    0.0346541299095     
3800000000.0        0.00789930283016    0.0355849377342     0.991744607204      -0.0612950794201    0.991744607204      -0.0612950794201    0.00789930283016    0.0355849377342     
3900000000.0        0.00802134334021    0.0365153013485     0.991604260285      -0.0629024798194    0.991604260285      -0.0629024798194    0.00802134334021    0.0365153013485     
4000000000.0        0.00814635149156    0.0374452097805     0.991460485022      -0.0645094550927    0.991460485022      -0.0645094550927    0.00814635149156    0.0374452097805     
4100000000.0        0.00827432834628    0.0383746520608     0.991313280251      -0.066115994677     0.991313280251      -0.066115994677     0.00827432834628    0.0383746520608     
4200000000.0        0.00840527471069    0.0393036172234     0.991162645064      -0.067722088006     0.991162645064      -0.067722088006     0.00840527471069    0.0393036172234     
4300000000.0        0.00853919115327    0.0402320943069     0.991008578788      -0.0693277245111    0.991008578788      -0.0693277245111    0.00853919115327    0.0402320943069     
4400000000.0        0.00867607802071    0.0411600723549     0.990851080969      -0.0709328936226    0.990851080969      -0.0709328936226    0.00867607802071    0.0411600723549     
4500000000.0        0.0088159354523     0.0420875404174     0.990690151361      -0.0725375847709    0.990690151361      -0.0725375847709    0.0088159354523     0.0420875404174     
4600000000.0        0.00895876339284    0.0430144875515     0.99052578991       -0.0741417873872    0.99052578991       -0.0741417873872    0.00895876339284    0.0430144875515     
4700000000.0        0.00910456160434    0.0439409028218     0.990357996743      -0.0757454909045    0.990357996743      -0.0757454909045    0.00910456160434    0.0439409028218     
4800000000.0        0.00925332967651    0.0448667753017     0.990186772159      -0.0773486847585    0.990186772159      -0.0773486847585    0.00925332967651    0.0448667753017     
4900000000.0        0.00940506703633    0.0457920940735     0.990012116618      -0.0789513583884    0.990012116618      -0.0789513583884    0.00940506703633    0.0457920940735     
5000000000.0        0.00955977295672    0.0467168482292     0.989834030731      -0.0805535012378    0.989834030731      -0.0805535012378    0.00955977295672    0.0467168482292     
5100000000.0        0.00971744656437    0.0476410268715     0.989652515255      -0.082155102755     0.989652515255      -0.082155102755     0.00971744656437    0.0476410268715     
5200000000.0        0.00987808684698    0.0485646191139     0.989467571085      -0.0837561523945    0.989467571085      -0.0837561523945    0.00987808684698    0.0485646191139     
5300000000.0        0.0100416926598     0.0494876140815     0.989279199247      -0.0853566396168    0.989279199247      -0.0853566396168    0.0100416926598     0.0494876140815     
5400000000.0        0.0102082627315     0.0504100009113     0.989087400891      -0.0869565538895    0.989087400891      -0.0869565538895    0.0102082627315     0.0504100009113     
5500000000.0        0.0103777956699     0.051331768753      0.988892177288      -0.0885558846881    0.988892177288      -0.0885558846881    0.0103777956699     0.051331768753      
5600000000.0        0.0105502899669     0.0522529067695     0.988693529823      -0.0901546214962    0.988693529823      -0.0901546214962    0.0105502899669     0.0522529067695     
5700000000.0        0.010725744003      0.053173404137      0.98849145999       -0.0917527538062    0.98849145999       -0.0917527538062    0.010725744003      0.053173404137      
5800000000.0        0.0109041560518     0.0540932500458     0.98828596939       -0.09335027112      0.98828596939       -0.09335027112      0.0109041560518     0.0540932500458     
5900000000.0        0.0110855242839     0.0550124337005     0.988077059725      -0.0949471629492    0.988077059725      -0.0949471629492    0.0110855242839     0.0550124337005     
6000000000.0        0.0112698467704     0.0559309443209     0.987864732795      -0.0965434188161    0.987864732795      -0.0965434188161    0.0112698467704     0.0559309443209     
6100000000.0        0.0114571214863     0.0568487711416     0.987648990495      -0.0981390282538    0.987648990495      -0.0981390282538    0.0114571214863     0.0568487711416     
6200000000.0        0.011647346314      0.0577659034133     0.987429834812      -0.0997339808068    0.987429834812      -0.0997339808068    0.011647346314      0.0577659034133     
6300000000.0        0.0118405190455     0.0586823304023     0.987207267821      -0.101328266031     0.987207267821      -0.101328266031     0.0118405190455     0.0586823304023     
6400000000.0        0.012036637386      0.0595980413917     0.986981291684      -0.102921873497     0.986981291684      -0.102921873497     0.012036637386      0.0595980413917     
6500000000.0        0.0122356989556     0.0605130256813     0.986751908644      -0.104514792784     0.986751908644      -0.104514792784     0.0122356989556     0.0605130256813     
6600000000.0        0.0124377012921     0.0614272725878     0.986519121028      -0.106107013487     0.986519121028      -0.106107013487     0.0124377012921     0.0614272725878     
6700000000.0        0.0126426418531     0.0623407714458     0.986282931241      -0.107698525216     0.986282931241      -0.107698525216     0.0126426418531     0.0623407714458     
6800000000.0        0.0128505180182     0.0632535116075     0.986043341764      -0.109289317592     0.986043341764      -0.109289317592     0.0128505180182     0.0632535116075     
6900000000.0        0.0130613270906     0.0641654824431     0.985800355153      -0.110879380252     0.985800355153      -0.110879380252     0.0130613270906     0.0641654824431     
7000000000.0        0.0132750662991     0.0650766733417     0.98555397404       -0.112468702848     0.98555397404       -0.112468702848     0.0132750662991     0.0650766733417     
7100000000.0        0.0134917327999     0.0659870737109     0.985304201125      -0.114057275047     0.985304201125      -0.114057275047     0.0134917327999     0.0659870737109     
7200000000.0        0.0137113236779     0.0668966729776     0.985051039179      -0.11564508653      0.985051039179      -0.11564508653      0.0137113236779     0.0668966729776     
7300000000.0        0.0139338359484     0.0678054605879     0.984794491042      -0.117232126997     0.984794491042      -0.117232126997     0.0139338359484     0.0678054605879     
7400000000.0        0.0141592665587     0.0687134260079     0.984534559622      -0.118818386161     0.984534559622      -0.118818386161     0.0141592665587     0.0687134260079     
7500000000.0        0.014387612389      0.0696205587235     0.984271247889      -0.120403853755     0.984271247889      -0.120403853755     0.014387612389      0.0696205587235     
7600000000.0        0.014618870254      0.0705268482411     0.984004558882      -0.121988519526     0.984004558882      -0.121988519526     0.014618870254      0.0705268482411     
7700000000.0        0.0148530369038     0.0714322840875     0.9837344957        -0.123572373239     0.9837344957        -0.123572373239     0.0148530369038     0.0714322840875     
7800000000.0        0.0150901090255     0.0723368558105     0.983461061505      -0.125155404679     0.983461061505      -0.125155404679     0.0150901090255     0.0723368558105     
7900000000.0        0.0153300832437     0.0732405529791     0.983184259521      -0.126737603646     0.983184259521      -0.126737603646     0.0153300832437     0.0732405529791     
8000000000.0        0.015572956122      0.0741433651835     0.982904093031      -0.12831895996      0.982904093031      -0.12831895996      0.015572956122      0.0741433651835     
8100000000.0        0.0158187241638     0.0750452820359     0.982620565378      -0.129899463458     0.982620565378      -0.129899463458     0.0158187241638     0.0750452820359     
8200000000.0        0.0160673838129     0.0759462931701     0.982333679962      -0.131479103998     0.982333679962      -0.131479103998     0.0160673838129     0.0759462931701     
8300000000.0        0.016318931455      0.0768463882425     0.98204344024       -0.133057871456     0.98204344024       -0.133057871456     0.016318931455      0.0768463882425     
8400000000.0        0.0165733634182     0.0777455569316     0.981749849729      -0.134635755727     0.981749849729      -0.134635755727     0.0165733634182     0.0777455569316     
8500000000.0        0.0168306759735     0.0786437889389     0.981452911996      -0.136212746727     0.981452911996      -0.136212746727     0.0168306759735     0.0786437889389     
8600000000.0        0.0170908653362     0.0795410739887     0.981152630667      -0.137788834392     0.981152630667      -0.137788834392     0.0170908653362     0.0795410739887     
8700000000.0        0.0173539276663     0.0804374018285     0.980849009422      -0.139364008678     0.980849009422      -0.139364008678     0.0173539276663     0.0804374018285     
8800000000.0        0.0176198590691     0.0813327622294     0.980542051993      -0.140938259561     0.980542051993      -0.140938259561     0.0176198590691     0.0813327622294     
8900000000.0        0.0178886555961     0.0822271449861     0.980231762165      -0.142511577039     0.980231762165      -0.142511577039     0.0178886555961     0.0822271449861     
9000000000.0        0.0181603132454     0.0831205399172     0.979918143776      -0.14408395113      0.979918143776      -0.14408395113      0.0181603132454     0.0831205399172     
9100000000.0        0.0184348279627     0.0840129368656     0.979601200714      -0.145655371876     0.979601200714      -0.145655371876     0.0184348279627     0.0840129368656     
9200000000.0        0.0187121956416     0.0849043256985     0.97928093692       -0.147225829338     0.97928093692       -0.147225829338     0.0187121956416     0.0849043256985     
9300000000.0        0.0189924121242     0.0857946963078     0.978957356385      -0.1487953136       0.978957356385      -0.1487953136       0.0189924121242     0.0857946963078     
9400000000.0        0.0192754732017     0.0866840386101     0.978630463148      -0.150363814768     0.978630463148      -0.150363814768     0.0192754732017     0.0866840386101     
9500000000.0        0.0195613746151     0.0875723425472     0.978300261299      -0.151931322972     0.978300261299      -0.151931322972     0.0195613746151     0.0875723425472     
9600000000.0        0.0198501120555     0.0884595980863     0.977966754976      -0.153497828363     0.977966754976      -0.153497828363     0.0198501120555     0.0884595980863     
9700000000.0        0.0201416811648     0.0893457952199     0.977629948366      -0.155063321116     0.977629948366      -0.155063321116     0.0201416811648     0.0893457952199     
9800000000.0        0.0204360775359     0.0902309239665     0.977289845703      -0.156627791429     0.977289845703      -0.156627791429     0.0204360775359     0.0902309239665     
9900000000.0        0.0207332967134     0.0911149743702     0.976946451268      -0.158191229523     0.976946451268      -0.158191229523     0.0207332967134     0.0911149743702     
10000000000.0       0.0210333341943     0.0919979365016     0.97659976939       -0.159753625644     0.97659976939       -0.159753625644     0.0210333341943     0.0919979365016     
