# Hz S RI R 50.00 
100000000.0         0.000168882857392   -0.000297955480883  0.999828327412      -0.000868424786493  0.999828327412      -0.000868424786493  0.000168882857392   -0.000297955480883  
200000000.0         0.000168697961467   -0.000595919332207  0.99982536197       -0.00173686217732   0.99982536197       -0.00173686217732   0.000168697961467   -0.000595919332207  
300000000.0         0.000167697870891   -0.000893894823265  0.999821850975      -0.00260531995973   0.999821850975      -0.00260531995973   0.000167697870891   -0.000893894823265  
400000000.0         0.000166029703586   -0.00119188443527   0.99981764713       -0.00347380366402   0.99981764713       -0.00347380366402   0.000166029703586   -0.00119188443527   
500000000.0         0.000163749934229   -0.00148989015063   0.999812693749      -0.00434231777227   0.999812693749      -0.00434231777227   0.000163749934229   -0.00148989015063   
600000000.0         0.000160887246772   -0.00178791360404   0.999806961911      -0.00521086609698   0.999806961911      -0.00521086609698   0.000160887246772   -0.00178791360404   
700000000.0         0.000157458496652   -0.00208595616572   0.999800434496      -0.00607945196684   0.999800434496      -0.00607945196684   0.000157458496652   -0.00208595616572   
800000000.0         0.000153474531392   -0.00238401899477   0.999793100373      -0.00694807833707   0.999793100373      -0.00694807833707   0.000153474531392   -0.00238401899477   
900000000.0         0.000148942780144   -0.00268210307465   0.999784951811      -0.0078167478605    0.999784951811      -0.0078167478605    0.000148942780144   -0.00268210307465   
1000000000.0        0.000143868565311   -0.00298020923883   0.999775983167      -0.00868546293733   0.999775983167      -0.00868546293733   0.000143868565311   -0.00298020923883   
1100000000.0        0.000138255831239   -0.00327833819068   0.99976619016       -0.00955422575227   0.99976619016       -0.00955422575227   0.000138255831239   -0.00327833819068   
1200000000.0        0.000132107578174   -0.00357649051777   0.999755569439      -0.0104230383016    0.999755569439      -0.0104230383016    0.000132107578174   -0.00357649051777   
1300000000.0        0.000125426135181   -0.00387466670472   0.999744118312      -0.0112919024161    0.999744118312      -0.0112919024161    0.000125426135181   -0.00387466670472   
1400000000.0        0.000118213339502   -0.00417286714239   0.999731834565      -0.0121608197777    0.999731834565      -0.0121608197777    0.000118213339502   -0.00417286714239   
1500000000.0        0.00011047065874    -0.00447109213625   0.999718716344      -0.0130297919346    0.999718716344      -0.0130297919346    0.000110470658741   -0.00447109213625   
1600000000.0        0.000102199276708   -0.0047693419133    0.999704762066      -0.0138988203128    0.999704762066      -0.0138988203128    0.000102199276708   -0.0047693419133    
1700000000.0        9.34001552881e-05   -0.00506761662787   0.999689970364      -0.0147679062267    0.999689970364      -0.0147679062267    9.34001552881e-05   -0.00506761662787   
1800000000.0        8.40740800538e-05   -0.00536591636661   0.999674340035      -0.0156370508877    0.999674340035      -0.0156370508877    8.40740800536e-05   -0.00536591636661   
1900000000.0        7.42216945555e-05   -0.0056642411531    0.999657870013      -0.0165062554113    0.999657870013      -0.0165062554113    7.42216945555e-05   -0.0056642411531    
2000000000.0        6.38435265452e-05   -0.00596259095156   0.999640559339      -0.0173755208244    0.999640559339      -0.0173755208244    6.38435265452e-05   -0.00596259095156   
2100000000.0        5.29400083555e-05   -0.00626096567051   0.999622407142      -0.0182448480706    0.999622407142      -0.0182448480706    5.29400083555e-05   -0.00626096567051   
2200000000.0        4.1511492926e-05    -0.00655936516574   0.999603412626      -0.0191142380154    0.999603412626      -0.0191142380154    4.1511492926e-05    -0.00655936516574   
2300000000.0        2.9558266601e-05    -0.00685778924313   0.999583575054      -0.0199836914511    0.999583575054      -0.0199836914511    2.95582666006e-05   -0.00685778924313   
2400000000.0        1.70805594371e-05   -0.00715623766117   0.999562893742      -0.0208532091005    0.999562893742      -0.0208532091005    1.70805594371e-05   -0.00715623766117   
2500000000.0        4.07855359952e-06   -0.00745471013329   0.999541368049      -0.0217227916208    0.999541368049      -0.0217227916208    4.07855359952e-06   -0.00745471013329   
2600000000.0        -9.44760972743e-06  -0.00775320632993   0.99951899737       -0.0225924396072    0.99951899737       -0.0225924396072    -9.44760972732e-06  -0.00775320632993   
2700000000.0        -2.34978246159e-05  -0.00805172588049   0.999495781131      -0.0234621535956    0.999495781131      -0.0234621535956    -2.34978246159e-05  -0.00805172588049   
2800000000.0        -3.80720155962e-05  -0.00835026837507   0.999471718788      -0.0243319340656    0.999471718788      -0.0243319340656    -3.80720155966e-05  -0.00835026837507   
2900000000.0        -5.31701336357e-05  -0.00864883336618   0.999446809818      -0.0252017814433    0.999446809818      -0.0252017814433    -5.31701336355e-05  -0.00864883336618   
3000000000.0        -6.87921527011e-05  -0.00894742037024   0.999421053719      -0.0260716961033    0.999421053719      -0.0260716961033    -6.87921527009e-05  -0.00894742037024   
3100000000.0        -8.49380668437e-05  -0.00924602886892   0.999394450008      -0.0269416783712    0.999394450008      -0.0269416783712    -8.49380668435e-05  -0.00924602886892   
3200000000.0        -0.00010160788769   -0.00954465831063   0.999366998217      -0.0278117285256    0.999366998217      -0.0278117285256    -0.00010160788769   -0.00954465831063   
3300000000.0        -0.000118801642267  -0.00984330811159   0.999338697891      -0.0286818467999    0.999338697891      -0.0286818467999    -0.000118801642267  -0.00984330811159   
3400000000.0        -0.000136519371126  -0.0101419776572    0.99930954859       -0.0295520333844    0.99930954859       -0.0295520333844    -0.000136519371126  -0.0101419776572    
3500000000.0        -0.000154761126691  -0.0104406663028    0.999279549883      -0.0304222884275    0.999279549883      -0.0304222884275    -0.000154761126691  -0.0104406663028    
3600000000.0        -0.00017352697182   -0.0107393733752    0.99924870135       -0.0312926120376    0.99924870135       -0.0312926120376    -0.00017352697182   -0.0107393733752    
3700000000.0        -0.000192816978534  -0.0110380981732    0.999217002578      -0.0321630042845    0.999217002578      -0.0321630042845    -0.000192816978534  -0.0110380981732    
3800000000.0        -0.000212631226889  -0.0113368399687    0.999184453166      -0.0330334652008    0.999184453166      -0.0330334652008    -0.000212631226889  -0.0113368399687    
3900000000.0        -0.000232969803976  -0.0116355980076    0.999151052717      -0.0339039947832    0.999151052717      -0.0339039947832    -0.000232969803976  -0.0116355980076    
4000000000.0        -0.000253832803034  -0.0119343715108    0.999116800841      -0.0347745929937    0.999116800841      -0.0347745929937    -0.000253832803034  -0.0119343715108    
4100000000.0        -0.000275220322645  -0.0122331596744    0.999081697156      -0.0356452597608    0.999081697156      -0.0356452597608    -0.000275220322645  -0.0122331596744    
4200000000.0        -0.000297132466017  -0.0125319616713    0.999045741285      -0.0365159949806    0.999045741285      -0.0365159949806    -0.000297132466017  -0.0125319616713    
4300000000.0        -0.000319569340341  -0.0128307766511    0.999008932856      -0.0373867985179    0.999008932856      -0.0373867985179    -0.00031956934034   -0.0128307766511    
4400000000.0        -0.000342531056196  -0.0131296037413    0.998971271501      -0.0382576702071    0.998971271501      -0.0382576702071    -0.000342531056196  -0.0131296037413    
4500000000.0        -0.000366017727028  -0.013428442048     0.998932756859      -0.0391286098532    0.998932756859      -0.0391286098532    -0.000366017727028  -0.013428442048     
4600000000.0        -0.000390029468659  -0.013727290656     0.99889338857       -0.039999617233     0.99889338857       -0.039999617233     -0.000390029468659  -0.013727290656     
4700000000.0        -0.000414566398846  -0.0140261486301    0.998853166282      -0.0408706920954    0.998853166282      -0.0408706920954    -0.000414566398846  -0.0140261486301    
4800000000.0        -0.000439628636879  -0.0143250150152    0.998812089645      -0.0417418341625    0.998812089645      -0.0417418341625    -0.000439628636879  -0.0143250150152    
4900000000.0        -0.000465216303206  -0.0146238888368    0.998770158311      -0.0426130431308    0.998770158311      -0.0426130431308    -0.000465216303206  -0.0146238888368    
5000000000.0        -0.000491329519096  -0.0149227691021    0.998727371939      -0.0434843186711    0.998727371939      -0.0434843186711    -0.000491329519096  -0.0149227691021    
5100000000.0        -0.000517968406322  -0.0152216547998    0.99868373019       -0.0443556604301    0.99868373019       -0.0443556604301    -0.000517968406322  -0.0152216547998    
5200000000.0        -0.000545133086866  -0.0155205449012    0.998639232726      -0.0452270680305    0.998639232726      -0.0452270680305    -0.000545133086866  -0.0155205449012    
5300000000.0        -0.000572823682657  -0.0158194383601    0.998593879215      -0.0460985410721    0.998593879215      -0.0460985410721    -0.000572823682657  -0.0158194383601    
5400000000.0        -0.000601040315316  -0.0161183341139    0.998547669328      -0.0469700791319    0.998547669328      -0.0469700791319    -0.000601040315316  -0.0161183341139    
5500000000.0        -0.000629783105922  -0.0164172310835    0.998500602739      -0.0478416817653    0.998500602739      -0.0478416817653    -0.000629783105922  -0.0164172310835    
5600000000.0        -0.0006590521748    -0.0167161281741    0.998452679122      -0.0487133485064    0.998452679122      -0.0487133485064    -0.0006590521748    -0.0167161281741    
5700000000.0        -0.000688847641314  -0.0170150242753    0.998403898159      -0.0495850788686    0.998403898159      -0.0495850788686    -0.000688847641314  -0.0170150242753    
5800000000.0        -0.000719169623677  -0.0173139182618    0.99835425953       -0.0504568723453    0.99835425953       -0.0504568723453    -0.000719169623677  -0.0173139182618    
5900000000.0        -0.000750018238777  -0.0176128089935    0.99830376292       -0.0513287284101    0.99830376292       -0.0513287284101    -0.000750018238778  -0.0176128089935    
6000000000.0        -0.000781393602011  -0.0179116953162    0.998252408019      -0.0522006465176    0.998252408019      -0.0522006465176    -0.000781393602011  -0.0179116953162    
6100000000.0        -0.000813295827123  -0.0182105760616    0.998200194515      -0.0530726261039    0.998200194515      -0.0530726261039    -0.000813295827123  -0.0182105760616    
6200000000.0        -0.00084572502606   -0.0185094500479    0.998147122102      -0.0539446665871    0.998147122102      -0.0539446665871    -0.00084572502606   -0.0185094500479    
6300000000.0        -0.000878681308836  -0.0188083160802    0.998093190477      -0.0548167673675    0.998093190477      -0.0548167673675    -0.000878681308836  -0.0188083160802    
6400000000.0        -0.000912164783396  -0.0191071729506    0.998038399337      -0.0556889278282    0.998038399337      -0.0556889278282    -0.000912164783396  -0.0191071729506    
6500000000.0        -0.000946175555494  -0.0194060194387    0.997982748385      -0.0565611473357    0.997982748385      -0.0565611473357    -0.000946175555494  -0.0194060194387    
6600000000.0        -0.000980713728578  -0.0197048543117    0.997926237324      -0.0574334252401    0.997926237324      -0.0574334252401    -0.000980713728578  -0.0197048543117    
6700000000.0        -0.00101577940368   -0.0200036763249    0.997868865862      -0.0583057608758    0.997868865862      -0.0583057608758    -0.00101577940368   -0.0200036763249    
6800000000.0        -0.00105137267929   -0.0203024842221    0.997810633707      -0.0591781535614    0.997810633707      -0.0591781535614    -0.00105137267929   -0.0203024842221    
6900000000.0        -0.0010874936513    -0.0206012767356    0.997751540572      -0.0600506026004    0.997751540572      -0.0600506026004    -0.0010874936513    -0.0206012767356    
7000000000.0        -0.00112414241287   -0.0209000525866    0.997691586172      -0.0609231072819    0.997691586172      -0.0609231072819    -0.00112414241287   -0.0209000525866    
7100000000.0        -0.00116131905435   -0.0211988104855    0.997630770225      -0.0617956668802    0.997630770225      -0.0617956668802    -0.00116131905435   -0.0211988104855    
7200000000.0        -0.0011990236632    -0.0214975491321    0.997569092451      -0.0626682806558    0.997569092451      -0.0626682806558    -0.0011990236632    -0.0214975491321    
7300000000.0        -0.0012372563239    -0.0217962672159    0.997506552573      -0.0635409478554    0.997506552573      -0.0635409478554    -0.0012372563239    -0.0217962672159    
7400000000.0        -0.00127601711788   -0.0220949634165    0.997443150317      -0.0644136677124    0.997443150317      -0.0644136677124    -0.00127601711788   -0.0220949634165    
7500000000.0        -0.00131530612342   -0.0223936364035    0.997378885412      -0.0652864394471    0.997378885412      -0.0652864394471    -0.00131530612342   -0.0223936364035    
7600000000.0        -0.00135512341563   -0.022692284837     0.997313757588      -0.0661592622672    0.997313757588      -0.0661592622672    -0.00135512341563   -0.022692284837     
7700000000.0        -0.00139546906634   -0.0229909073678    0.997247766581      -0.0670321353678    0.997247766581      -0.0670321353678    -0.00139546906634   -0.0229909073678    
7800000000.0        -0.00143634314404   -0.0232895026375    0.997180912127      -0.0679050579319    0.997180912127      -0.0679050579319    -0.00143634314404   -0.0232895026375    
7900000000.0        -0.00147774571383   -0.0235880692789    0.997113193966      -0.0687780291308    0.997113193966      -0.0687780291308    -0.00147774571383   -0.0235880692789    
8000000000.0        -0.00151967683735   -0.023886605916     0.99704461184       -0.0696510481242    0.99704461184       -0.0696510481242    -0.00151967683735   -0.023886605916     
8100000000.0        -0.00156213657273   -0.0241851111643    0.996975165494      -0.0705241140603    0.996975165494      -0.0705241140603    -0.00156213657273   -0.0241851111643    
8200000000.0        -0.00160512497455   -0.0244835836313    0.996904854678      -0.0713972260767    0.996904854678      -0.0713972260767    -0.00160512497455   -0.0244835836313    
8300000000.0        -0.00164864209374   -0.0247820219162    0.996833679143      -0.0722703832998    0.996833679143      -0.0722703832998    -0.00164864209374   -0.0247820219162    
8400000000.0        -0.00169268797759   -0.0250804246102    0.996761638641      -0.0731435848458    0.996761638641      -0.0731435848458    -0.00169268797759   -0.0250804246102    
8500000000.0        -0.00173726266964   -0.0253787902972    0.996688732931      -0.0740168298205    0.996688732931      -0.0740168298205    -0.00173726266964   -0.0253787902972    
8600000000.0        -0.00178236620971   -0.0256771175533    0.996614961772      -0.0748901173197    0.996614961772      -0.0748901173197    -0.00178236620971   -0.0256771175533    
8700000000.0        -0.00182799863376   -0.0259754049473    0.996540324926      -0.0757634464294    0.996540324926      -0.0757634464294    -0.00182799863376   -0.0259754049473    
8800000000.0        -0.00187415997395   -0.0262736510409    0.996464822161      -0.0766368162262    0.996464822161      -0.0766368162262    -0.00187415997395   -0.0262736510409    
8900000000.0        -0.00192085025851   -0.026571854389     0.996388453243      -0.0775102257771    0.996388453243      -0.0775102257771    -0.00192085025851   -0.026571854389     
9000000000.0        -0.00196806951174   -0.0268700135393    0.996311217946      -0.0783836741402    0.996311217946      -0.0783836741402    -0.00196806951174   -0.0268700135393    
9100000000.0        -0.002015817754     -0.0271681270333    0.996233116043      -0.0792571603645    0.996233116043      -0.0792571603645    -0.002015817754     -0.0271681270333    
9200000000.0        -0.00206409500162   -0.0274661934057    0.996154147312      -0.0801306834905    0.996154147312      -0.0801306834905    -0.00206409500162   -0.0274661934057    
9300000000.0        -0.00211290126688   -0.027764211185     0.996074311534      -0.0810042425501    0.996074311534      -0.0810042425501    -0.00211290126688   -0.027764211185     
9400000000.0        -0.00216223655801   -0.0280621788937    0.995993608493      -0.0818778365669    0.995993608493      -0.0818778365669    -0.00216223655801   -0.0280621788937    
9500000000.0        -0.00221210087911   -0.0283600950479    0.995912037976      -0.0827514645565    0.995912037976      -0.0827514645565    -0.00221210087911   -0.0283600950479    
9600000000.0        -0.00226249423015   -0.0286579581581    0.995829599772      -0.0836251255264    0.995829599772      -0.0836251255264    -0.00226249423015   -0.0286579581581    
9700000000.0        -0.00231341660693   -0.0289557667292    0.995746293674      -0.0844988184765    0.995746293674      -0.0844988184765    -0.00231341660693   -0.0289557667292    
9800000000.0        -0.00236486800105   -0.0292535192602    0.995662119479      -0.0853725423991    0.995662119479      -0.0853725423991    -0.00236486800105   -0.0292535192602    
9900000000.0        -0.00241684839987   -0.0295512142449    0.995577076986      -0.0862462962791    0.995577076986      -0.0862462962791    -0.00241684839987   -0.0295512142449    
10000000000.0       -0.00246935778653   -0.0298488501717    0.995491165996      -0.0871200790942    0.995491165996      -0.0871200790942    -0.00246935778653   -0.0298488501717    
