# Hz S RI R 50.00 
100000000.0         0.0860210839676     0.00501170491002    0.913973913671      -0.00703297143492   0.913973913671      -0.00703297143492   0.0860210839676     0.00501170491002    
200000000.0         0.0866541276759     0.0100082318606     0.913332651994      -0.0140508025698    0.913332651994      -0.0140508025698    0.0866541276759     0.0100082318606     
300000000.0         0.0872234237959     0.0149937048742     0.912750920201      -0.0210576487296    0.912750920201      -0.0210576487296    0.0872234237959     0.0149937048742     
400000000.0         0.0877975651458     0.0199686019636     0.912160123572      -0.0280540157735    0.912160123572      -0.0280540157735    0.0877975651458     0.0199686019636     
500000000.0         0.0884028854545     0.0249325577188     0.911533926429      -0.0350395643897    0.911533926429      -0.0350395643897    0.0884028854545     0.0249325577188     
600000000.0         0.0890527130403     0.0298848372369     0.910858998384      -0.0420135846275    0.910858998384      -0.0420135846275    0.0890527130403     0.0298848372369     
700000000.0         0.0897548126401     0.0348245068474     0.910127572466      -0.0489751669285    0.910127572466      -0.0489751669285    0.0897548126401     0.0348245068474     
800000000.0         0.0905141029873     0.0397505137569     0.909334727534      -0.0559232819551    0.909334727534      -0.0559232819551    0.0905141029873     0.0397505137569     
900000000.0         0.0913338674591     0.0446617292395     0.908477177608      -0.0628568239026    0.908477177608      -0.0628568239026    0.0913338674591     0.0446617292395     
1000000000.0        0.0922163680788     0.0495569745808     0.907552657868      -0.0697746365292    0.907552657868      -0.0697746365292    0.0922163680788     0.0495569745808     
1100000000.0        0.0931631870806     0.0544350378896     0.906559583077      -0.0766755300296    0.906559583077      -0.0766755300296    0.0931631870806     0.0544350378896     
1200000000.0        0.0941754306433     0.0592946856573     0.90549684385       -0.083558292644     0.90549684385       -0.083558292644     0.0941754306433     0.0592946856573     
1300000000.0        0.0952538572579     0.0641346711018     0.904363678278      -0.0904216990397    0.904363678278      -0.0904216990397    0.0952538572579     0.0641346711018     
1400000000.0        0.0963989622853     0.0689537404388     0.903159587376      -0.097264516613     0.903159587376      -0.097264516613     0.0963989622853     0.0689537404388     
1500000000.0        0.0976110357548     0.0737506377608     0.901884277276      -0.104085510394     0.901884277276      -0.104085510394     0.0976110357548     0.0737506377608     
1600000000.0        0.0988902031359     0.0785241089471     0.900537618459      -0.110883446977     0.900537618459      -0.110883446977     0.0988902031359     0.0785241089471     
1700000000.0        0.100236454898      0.083272904877      0.899119616194      -0.117657097753     0.899119616194      -0.117657097753     0.100236454898      0.083272904877      
1800000000.0        0.101649668467      0.0879957841288     0.897630388577      -0.124405241622     0.897630388577      -0.124405241622     0.101649668467      0.0879957841288     
1900000000.0        0.103129624895      0.0926915152897     0.896070149869      -0.131126667319     0.896070149869      -0.131126667319     0.103129624895      0.0926915152897     
2000000000.0        0.104676021769      0.0973588789629     0.894439197579      -0.13782017543      0.894439197579      -0.13782017543      0.104676021769      0.0973588789629     
2100000000.0        0.106288483401      0.101996669535      0.892737902277      -0.144484580172     0.892737902277      -0.144484580172     0.106288483401      0.101996669535      
2200000000.0        0.107966569009      0.106603696752      0.890966699416      -0.151118710976     0.890966699416      -0.151118710976     0.107966569009      0.106603696752      
2300000000.0        0.10970977939       0.111178787126      0.889126082651      -0.157721413904     0.889126082651      -0.157721413904     0.10970977939       0.111178787126      
2400000000.0        0.111517562464      0.115720785222      0.887216598304      -0.164291552943     0.887216598304      -0.164291552943     0.111517562464      0.115720785222      
2500000000.0        0.113389317937      0.120228554815      0.885238840694      -0.170828011165     0.885238840694      -0.170828011165     0.113389317937      0.120228554815      
2600000000.0        0.115324401284      0.12470097995       0.88319344816       -0.177329691799     0.88319344816       -0.177329691799     0.115324401284      0.12470097995       
2700000000.0        0.117322127201      0.129136965917      0.881081099601      -0.183795519208     0.881081099601      -0.183795519208     0.117322127201      0.129136965917      
2800000000.0        0.119381772635      0.133535440143      0.878902511451      -0.190224439784     0.878902511451      -0.190224439784     0.119381772635      0.133535440143      
2900000000.0        0.121502579481      0.137895353004      0.876658434986      -0.196615422774     0.876658434986      -0.196615422774     0.121502579481      0.137895353004      
3000000000.0        0.123683756996      0.142215678584      0.874349653898      -0.202967461029     0.874349653898      -0.202967461029     0.123683756996      0.142215678584      
3100000000.0        0.125924484007      0.146495415357      0.871976982101      -0.209279571701     0.871976982101      -0.209279571701     0.125924484007      0.146495415357      
3200000000.0        0.128223910927      0.150733586817      0.869541261703      -0.215550796875     0.869541261703      -0.215550796875     0.128223910927      0.150733586817      
3300000000.0        0.130581161626      0.154929242056      0.867043361139      -0.221780204147     0.867043361139      -0.221780204147     0.130581161626      0.154929242056      
3400000000.0        0.132995335183      0.159081456278      0.864484173426      -0.227966887143     0.864484173426      -0.227966887143     0.132995335183      0.159081456278      
3500000000.0        0.135465507521      0.163189331277      0.861864614511      -0.234109966        0.861864614511      -0.234109966        0.135465507521      0.163189331277      
3600000000.0        0.13799073297       0.16725199585       0.859185621727      -0.240208587785     0.859185621727      -0.240208587785     0.13799073297       0.16725199585       
3700000000.0        0.140570045741      0.171268606181      0.856448152306      -0.246261926875     0.856448152306      -0.246261926875     0.140570045741      0.171268606181      
3800000000.0        0.143202461342      0.175238346167      0.853653181964      -0.25226918529      0.853653181964      -0.25226918529      0.143202461342      0.175238346167      
3900000000.0        0.145886977935      0.179160427704      0.850801703549      -0.258229592982     0.850801703549      -0.258229592982     0.145886977935      0.179160427704      
4000000000.0        0.148622577646      0.183034090932      0.847894725725      -0.26414240808      0.847894725725      -0.26414240808      0.148622577646      0.183034090932      
4100000000.0        0.151408227826      0.18685860444       0.844933271717      -0.270006917098     0.844933271717      -0.270006917098     0.151408227826      0.18685860444       
4200000000.0        0.154242882273      0.190633265428      0.84191837808       -0.2758224351       0.84191837808       -0.2758224351       0.154242882273      0.190633265428      
4300000000.0        0.157125482421      0.194357399834      0.838851093518      -0.281588305824     0.838851093518      -0.281588305824     0.157125482421      0.194357399834      
4400000000.0        0.160054958489      0.198030362419      0.835732477729      -0.28730390178      0.835732477729      -0.28730390178      0.160054958489      0.198030362419      
4500000000.0        0.163030230602      0.201651536822      0.832563600285      -0.292968624292     0.832563600285      -0.292968624292     0.163030230602      0.201651536822      
4600000000.0        0.166050209884      0.205220335574      0.82934553954       -0.298581903526     0.82934553954       -0.298581903526     0.166050209884      0.205220335574      
4700000000.0        0.169113799516      0.208736200082      0.826079381568      -0.304143198469     0.826079381568      -0.304143198469     0.169113799516      0.208736200082      
4800000000.0        0.172219895775      0.212198600577      0.822766219128      -0.309651996881     0.822766219128      -0.309651996881     0.172219895775      0.212198600577      
4900000000.0        0.175367389036      0.215607036032      0.819407150657      -0.315107815212     0.819407150657      -0.315107815212     0.175367389036      0.215607036032      
5000000000.0        0.178555164762      0.21896103405       0.816003279282      -0.320510198495     0.816003279282      -0.320510198495     0.178555164762      0.21896103405       
5100000000.0        0.181782104453      0.22226015072       0.81255571187       -0.325858720201     0.81255571187       -0.325858720201     0.181782104453      0.22226015072       
5200000000.0        0.185047086584      0.225503970445      0.80906555809       -0.331152982067     0.80906555809       -0.331152982067     0.185047086584      0.225503970445      
5300000000.0        0.188348987506      0.228692105745      0.805533929506      -0.336392613903     0.805533929506      -0.336392613903     0.188348987506      0.228692105745      
5400000000.0        0.191686682333      0.23182419703       0.801961938699      -0.341577273366     0.801961938699      -0.341577273366     0.191686682333      0.23182419703       
5500000000.0        0.195059045797      0.234899912351      0.798350698401      -0.34670664571      0.798350698401      -0.34670664571      0.195059045797      0.234899912351      
5600000000.0        0.198464953081      0.237918947124      0.794701320669      -0.351780443512     0.794701320669      -0.351780443512     0.198464953081      0.237918947124      
5700000000.0        0.201903280628      0.240881023834      0.79101491607       -0.356798406378     0.79101491607       -0.356798406378     0.201903280628      0.240881023834      
5800000000.0        0.205372906925      0.243785891717      0.787292592898      -0.361760300623     0.787292592898      -0.361760300623     0.205372906925      0.243785891717      
5900000000.0        0.208872713264      0.246633326416      0.783535456414      -0.366665918933     0.783535456414      -0.366665918933     0.208872713264      0.246633326416      
6000000000.0        0.212401584474      0.249423129624      0.779744608111      -0.371515080005     0.779744608111      -0.371515080005     0.212401584474      0.249423129624      
6100000000.0        0.215958409635      0.252155128707      0.775921144999      -0.37630762817      0.775921144999      -0.37630762817      0.215958409635      0.252155128707      
6200000000.0        0.21954208276       0.254829176306      0.77206615892       -0.381043433001     0.77206615892       -0.381043433001     0.21954208276       0.254829176306      
6300000000.0        0.223151503461      0.257445149927      0.768180735887      -0.385722388896     0.768180735887      -0.385722388896     0.223151503461      0.257445149927      
6400000000.0        0.226785577584      0.260002951514      0.764265955444      -0.390344414659     0.764265955444      -0.390344414659     0.226785577584      0.260002951514      
6500000000.0        0.230443217819      0.262502507005      0.760322890052      -0.394909453056     0.760322890052      -0.394909453056     0.230443217819      0.262502507005      
6600000000.0        0.234123344293      0.264943765882      0.756352604502      -0.399417470359     0.756352604502      -0.399417470359     0.234123344293      0.264943765882      
6700000000.0        0.237824885132      0.267326700704      0.752356155346      -0.403868455887     0.752356155346      -0.403868455887     0.237824885132      0.267326700704      
6800000000.0        0.241546776998      0.269651306627      0.748334590361      -0.408262421522     0.748334590361      -0.408262421522     0.241546776998      0.269651306627      
6900000000.0        0.245287965611      0.271917600919      0.744288948028      -0.412599401229     0.744288948028      -0.412599401229     0.245287965611      0.271917600919      
7000000000.0        0.249047406233      0.274125622464      0.740220257041      -0.416879450556     0.740220257041      -0.416879450556     0.249047406233      0.274125622464      
7100000000.0        0.252824064143      0.276275431256      0.736129535837      -0.421102646132     0.736129535837      -0.421102646132     0.252824064143      0.276275431256      
7200000000.0        0.256616915079      0.278367107891      0.732017792149      -0.425269085156     0.732017792149      -0.425269085156     0.256616915079      0.278367107891      
7300000000.0        0.260424945659      0.280400753045      0.727886022586      -0.42937888488      0.727886022586      -0.42937888488      0.260424945659      0.280400753045      
7400000000.0        0.264247153778      0.282376486957      0.72373521223       -0.433432182088     0.72373521223       -0.433432182088     0.264247153778      0.282376486957      
7500000000.0        0.26808254899       0.284294448895      0.719566334262      -0.437429132567     0.719566334262      -0.437429132567     0.26808254899       0.284294448895      
7600000000.0        0.271930152853      0.286154796634      0.715380349605      -0.441369910579     0.715380349605      -0.441369910579     0.271930152853      0.286154796634      
7700000000.0        0.275788999266      0.287957705914      0.711178206591      -0.445254708327     0.711178206591      -0.445254708327     0.275788999266      0.287957705914      
7800000000.0        0.279658134778      0.28970336991       0.706960840653      -0.449083735421     0.706960840653      -0.449083735421     0.279658134778      0.28970336991       
7900000000.0        0.283536618873      0.291391998697      0.702729174031      -0.452857218342     0.702729174031      -0.452857218342     0.283536618873      0.291391998697      
8000000000.0        0.287423524241      0.293023818708      0.698484115509      -0.456575399903     0.698484115509      -0.456575399903     0.287423524241      0.293023818708      
8100000000.0        0.291317937023      0.294599072201      0.694226560159      -0.460238538719     0.694226560159      -0.460238538719     0.291317937023      0.294599072201      
8200000000.0        0.295218957037      0.296118016726      0.689957389121      -0.463846908665     0.689957389121      -0.463846908665     0.295218957037      0.296118016726      
8300000000.0        0.299125697984      0.297580924587      0.68567746939       -0.467400798349     0.68567746939       -0.467400798349     0.299125697984      0.297580924587      
8400000000.0        0.30303728764       0.298988082312      0.681387653626      -0.470900510574     0.681387653626      -0.470900510574     0.30303728764       0.298988082312      
8500000000.0        0.30695286802       0.300339790125      0.677088779989      -0.474346361818     0.677088779989      -0.474346361818     0.30695286802       0.300339790125      
8600000000.0        0.310871595529      0.301636361423      0.672781671981      -0.477738681701     0.672781671981      -0.477738681701     0.310871595529      0.301636361423      
8700000000.0        0.314792641097      0.302878122252      0.668467138315      -0.481077812471     0.668467138315      -0.481077812471     0.314792641097      0.302878122252      
8800000000.0        0.318715190292      0.30406541079       0.664145972797      -0.484364108484     0.664145972797      -0.484364108484     0.318715190292      0.30406541079       
8900000000.0        0.322638443418      0.305198576841      0.659818954228      -0.487597935691     0.659818954228      -0.487597935691     0.322638443418      0.305198576841      
9000000000.0        0.326561615599      0.306277981322      0.655486846317      -0.490779671138     0.655486846317      -0.490779671138     0.326561615599      0.306277981322      
9100000000.0        0.330483936842      0.307303995767      0.651150397617      -0.493909702462     0.651150397617      -0.493909702462     0.330483936842      0.307303995767      
9200000000.0        0.334404652091      0.308277001834      0.646810341469      -0.496988427395     0.646810341469      -0.496988427395     0.334404652091      0.308277001834      
9300000000.0        0.33832302126       0.309197390814      0.642467395967      -0.500016253283     0.642467395967      -0.500016253283     0.33832302126       0.309197390814      
9400000000.0        0.342238319254      0.310065563154      0.638122263933      -0.5029935966       0.638122263933      -0.5029935966       0.342238319254      0.310065563154      
9500000000.0        0.346149835981      0.310881927985      0.633775632909      -0.505920882481     0.633775632909      -0.505920882481     0.346149835981      0.310881927985      
9600000000.0        0.350056876341      0.311646902652      0.62942817516       -0.508798544249     0.62942817516       -0.508798544249     0.350056876341      0.311646902652      
9700000000.0        0.353958760209      0.312360912261      0.625080547691      -0.511627022966     0.625080547691      -0.511627022966     0.353958760209      0.312360912261      
9800000000.0        0.357854822406      0.313024389229      0.620733392273      -0.514406766978     0.620733392273      -0.514406766978     0.357854822406      0.313024389229      
9900000000.0        0.361744412653      0.313637772843      0.616387335489      -0.517138231475     0.616387335489      -0.517138231475     0.361744412653      0.313637772843      
10000000000.0       0.365626895523      0.314201508825      0.612042988782      -0.519821878062     0.612042988782      -0.519821878062     0.365626895523      0.314201508825      
