# Hz S RI R 50.00 
100000000.0         1.27655095088e-05   -0.0141953964594    0.999535267365      -0.0148625830264    0.999535267365      -0.0148625830264    1.27655095086e-05   -0.0141953964594    
200000000.0         -0.000632518511094  -0.0283718102799    0.998886071489      -0.0297061996527    0.998886071489      -0.0297061996527    -0.000632518511093  -0.0283718102799    
300000000.0         -0.00169813335621   -0.0425111152248    0.9978169233        -0.0445127388411    0.9978169233        -0.0445127388411    -0.00169813335621   -0.0425111152248    
400000000.0         -0.00318122398828   -0.0565953263081    0.996330266444      -0.0592642280182    0.996330266444      -0.0592642280182    -0.00318122398828   -0.0565953263081    
500000000.0         -0.00507804303768   -0.0706066789226    0.994429690385      -0.0739429138966    0.994429690385      -0.0739429138966    -0.00507804303768   -0.0706066789226    
600000000.0         -0.00738388483589   -0.0845277024008    0.992119820476      -0.088531336473     0.992119820476      -0.088531336473     -0.00738388483589   -0.0845277024008    
700000000.0         -0.0100930911609    -0.0983412900498    0.989406267585      -0.103012399265     0.989406267585      -0.103012399265     -0.0100930911609    -0.0983412900498    
800000000.0         -0.0131990768611    -0.112030765681     0.986295586211      -0.117369435955     0.986295586211      -0.117369435955     -0.0131990768611    -0.112030765681     
900000000.0         -0.0166943652798    -0.125579946324     0.982795231833      -0.131586273171     0.982795231833      -0.131586273171     -0.0166943652798    -0.125579946324     
1000000000.0        -0.0205706303003    -0.13897320074      0.978913515208      -0.145647289059     0.978913515208      -0.145647289059     -0.0205706303003    -0.13897320074      
1100000000.0        -0.0248187435548    -0.152195503392     0.974659553132      -0.159537467275     0.974659553132      -0.159537467275     -0.0248187435548    -0.152195503392     
1200000000.0        -0.0294288258761    -0.16523248352      0.970043215784      -0.1732424461       0.970043215784      -0.1732424461       -0.0294288258761    -0.16523248352      
1300000000.0        -0.0343903022604    -0.178070469078     0.965075071001      -0.186748562389     0.965075071001      -0.186748562389     -0.0343903022604    -0.178070469078     
1400000000.0        -0.0396919596839    -0.190696525314     0.959766325967      -0.200042890167     0.959766325967      -0.200042890167     -0.0396919596839    -0.190696525314     
1500000000.0        -0.0453220071514    -0.203098487841     0.954128766825      -0.21311327372      0.954128766825      -0.21311327372      -0.0453220071514    -0.203098487841     
1600000000.0        -0.0512681373722    -0.215264990134     0.948174696766      -0.2259483551       0.948174696766      -0.2259483551       -0.0512681373722    -0.215264990134     
1700000000.0        -0.0575175894785    -0.22718548543      0.941916873136      -0.238537596029     0.941916873136      -0.238537596029     -0.0575175894785    -0.22718548543      
1800000000.0        -0.0640572122235    -0.238850263062     0.935368444118      -0.250871294249     0.935368444118      -0.250871294249     -0.0640572122235    -0.238850263062     
1900000000.0        -0.0708735271175    -0.250250459355     0.928542885496      -0.262940594421     0.928542885496      -0.262940594421     -0.0708735271175    -0.250250459355     
2000000000.0        -0.0779527909929    -0.261378063212     0.921453938025      -0.274737493716     0.921453938025      -0.274737493716     -0.0779527909929    -0.261378063212     
2100000000.0        -0.0852810575216    -0.27222591661      0.914115545851      -0.286254842317     0.914115545851      -0.286254842317     -0.0852810575216    -0.27222591661      
2200000000.0        -0.0928442372462    -0.282787710242     0.906541796441      -0.297486339068     0.906541796441      -0.297486339068     -0.0928442372462    -0.282787710242     
2300000000.0        -0.100628155728     -0.293057974592     0.898746862401      -0.308426522553     0.898746862401      -0.308426522553     -0.100628155728     -0.293057974592     
2400000000.0        -0.108618609456     -0.303032066759     0.890744945535      -0.319070757915     0.890744945535      -0.319070757915     -0.108618609456     -0.303032066759     
2500000000.0        -0.116801419214     -0.312706153354     0.882550223459      -0.329415219772     0.882550223459      -0.329415219772     -0.116801419214     -0.312706153354     
2600000000.0        -0.125162480632     -0.32207718984      0.87417679903       -0.339456871545     0.87417679903       -0.339456871545     -0.125162480632     -0.32207718984      
2700000000.0        -0.133687811721     -0.331142896676     0.865638652799      -0.349193441615     0.865638652799      -0.349193441615     -0.133687811721     -0.331142896676     
2800000000.0        -0.1423635972       -0.33990173264      0.856949598662      -0.358623396643     0.856949598662      -0.358623396643     -0.1423635972       -0.33990173264      
2900000000.0        -0.15117622951      -0.348352865705     0.84812324285       -0.367745912453     0.84812324285       -0.367745912453     -0.15117622951      -0.348352865705     
3000000000.0        -0.160112346405     -0.356496141848     0.839172946317      -0.376560842837     0.839172946317      -0.376560842837     -0.160112346405     -0.356496141848     
3100000000.0        -0.169158865095     -0.364332052147     0.830111790593      -0.385068686659     0.830111790593      -0.385068686659     -0.169158865095     -0.364332052147     
3200000000.0        -0.178303012917     -0.371861698524     0.82095254711       -0.3932705536       0.82095254711       -0.3932705536       -0.178303012917     -0.371861698524     
3300000000.0        -0.187532354569     -0.379086758477     0.811707649959      -0.401168128888     0.811707649959      -0.401168128888     -0.187532354569     -0.379086758477     
3400000000.0        -0.196834815944     -0.386009449109     0.802389172051      -0.408763637332     0.802389172051      -0.408763637332     -0.196834815944     -0.386009449109     
3500000000.0        -0.206198704673     -0.39263249077      0.793008804573      -0.416059806965     0.793008804573      -0.416059806965     -0.206198704673     -0.39263249077      
3600000000.0        -0.215612727452     -0.398959070578     0.783577839654      -0.423059832566     0.783577839654      -0.423059832566     -0.215612727452     -0.398959070578     
3700000000.0        -0.225066004301     -0.404992806084     0.774107156107      -0.429767339326     0.774107156107      -0.429767339326     -0.225066004301     -0.404992806084     
3800000000.0        -0.234548079879     -0.410737709311     0.764607208103      -0.436186346889     0.764607208103      -0.436186346889     -0.234548079879     -0.410737709311     
3900000000.0        -0.244048932029     -0.416198151372     0.755088016636      -0.442321233972     0.755088016636      -0.442321233972     -0.244048932029     -0.416198151372     
4000000000.0        -0.253558977697     -0.421378827861     0.745559163591      -0.448176703756     0.745559163591      -0.448176703756     -0.253558977697     -0.421378827861     
4100000000.0        -0.263069076417     -0.426284725172     0.736029788264      -0.453757750207     0.736029788264      -0.453757750207     -0.263069076417     -0.426284725172     
4200000000.0        -0.272570531525     -0.430921087885     0.726508586141      -0.459069625461     0.726508586141      -0.459069625461     -0.272570531525     -0.430921087885     
4300000000.0        -0.282055089293     -0.435293387339     0.717003809767      -0.464117808401     0.717003809767      -0.464117808401     -0.282055089293     -0.435293387339     
4400000000.0        -0.291514936157     -0.439407291485     0.707523271514      -0.468907974512     0.707523271514      -0.468907974512     -0.291514936157     -0.439407291485     
4500000000.0        -0.300942694221     -0.4432686361       0.698074348079      -0.47344596709      0.698074348079      -0.47344596709      -0.300942694221     -0.4432686361       
4600000000.0        -0.310331415205     -0.446883397411     0.688663986529      -0.477737769875     0.688663986529      -0.477737769875     -0.310331415205     -0.446883397411     
4700000000.0        -0.31967457302      -0.450257666181     0.679298711731      -0.481789481131     0.679298711731      -0.481789481131     -0.31967457302      -0.450257666181     
4800000000.0        -0.328966055128     -0.453397623275     0.669984634989      -0.485607289216     0.669984634989      -0.485607289216     -0.328966055128     -0.453397623275     
4900000000.0        -0.338200152833     -0.456309516719     0.660727463751      -0.489197449642     0.660727463751      -0.489197449642     -0.338200152833     -0.456309516719     
5000000000.0        -0.347371550681     -0.458999640248     0.651532512208      -0.492566263624     0.651532512208      -0.492566263624     -0.347371550681     -0.458999640248     
5100000000.0        -0.356475315077     -0.461474313343     0.642404712682      -0.495720058119     0.642404712682      -0.495720058119     -0.356475315077     -0.461474313343     
5200000000.0        -0.365506882278     -0.463739862719     0.633348627621      -0.498665167307     0.633348627621      -0.498665167307     -0.365506882278     -0.463739862719     
5300000000.0        -0.374462045875     -0.465802605238     0.624368462131      -0.501407915519     0.624368462131      -0.501407915519     -0.374462045875     -0.465802605238     
5400000000.0        -0.383336943873     -0.467668832222     0.615468076883      -0.503954601536     0.615468076883      -0.503954601536     -0.383336943873     -0.467668832222     
5500000000.0        -0.392128045486     -0.469344795099     0.606651001321      -0.506311484247     0.606651001321      -0.506311484247     -0.392128045486     -0.469344795099     
5600000000.0        -0.400832137743     -0.470836692361     0.597920447064      -0.5084847696       0.597920447064      -0.5084847696       -0.400832137743     -0.470836692361     
5700000000.0        -0.409446311975     -0.472150657751     0.589279321405      -0.510480598795     0.589279321405      -0.510480598795     -0.409446311975     -0.472150657751     
5800000000.0        -0.417967950286     -0.473292749654     0.580730240846      -0.512305037674     0.580730240846      -0.512305037674     -0.417967950286     -0.473292749654     
5900000000.0        -0.42639471207      -0.474268941612     0.572275544587      -0.513964067232     0.572275544587      -0.513964067232     -0.42639471207      -0.474268941612     
6000000000.0        -0.434724520622     -0.475085113911     0.563917307899      -0.515463575215     0.563917307899      -0.515463575215     -0.434724520622     -0.475085113911     
6100000000.0        -0.442955549931     -0.475747046186     0.55565735535       -0.516809348716     0.55565735535       -0.516809348716     -0.442955549931     -0.475747046186     
6200000000.0        -0.451086211667     -0.476260410978     0.547497273801      -0.518007067736     0.547497273801      -0.518007067736     -0.451086211667     -0.476260410978     
6300000000.0        -0.459115142432     -0.476630768178     0.539438425163      -0.519062299632     0.539438425163      -0.519062299632     -0.459115142432     -0.476630768178     
6400000000.0        -0.467041191303     -0.476863560319     0.531481958853      -0.519980494402     0.531481958853      -0.519980494402     -0.467041191303     -0.476863560319     
6500000000.0        -0.474863407684     -0.47696410863      0.52362882394       -0.520766980747     0.52362882394       -0.520766980747     -0.474863407684     -0.47696410863      
6600000000.0        -0.482581029515     -0.476937609825     0.515879780936      -0.521426962859     0.515879780936      -0.521426962859     -0.482581029515     -0.476937609825     
6700000000.0        -0.490193471841     -0.476789133547     0.508235413231      -0.521965517862     0.508235413231      -0.521965517862     -0.490193471841     -0.476789133547     
6800000000.0        -0.497700315759     -0.476523620439     0.500696138137      -0.522387593886     0.500696138137      -0.522387593886     -0.497700315759     -0.476523620439     
6900000000.0        -0.505101297769     -0.476145880765     0.493262217545      -0.52269800869      0.493262217545      -0.52269800869      -0.505101297769     -0.476145880765     
7000000000.0        -0.512396299514     -0.47566059356      0.485933768181      -0.52290144881      0.485933768181      -0.52290144881      -0.512396299514     -0.47566059356      
7100000000.0        -0.519585337934     -0.47507230624      0.478710771452      -0.523002469172     0.478710771452      -0.523002469172     -0.519585337934     -0.47507230624      
7200000000.0        -0.526668555832     -0.474385434647     0.471593082881      -0.523005493134     0.471593082881      -0.523005493134     -0.526668555832     -0.474385434647     
7300000000.0        -0.53364621284      -0.473604263472     0.464580441138      -0.522914812914     0.464580441138      -0.522914812914     -0.53364621284      -0.473604263472     
7400000000.0        -0.5405186768       -0.472732947033     0.457672476664      -0.522734590365     0.457672476664      -0.522734590365     -0.5405186768       -0.472732947033     
7500000000.0        -0.547286415544     -0.471775510355     0.450868719884      -0.522468858058     0.450868719884      -0.522468858058     -0.547286415544     -0.471775510355     
7600000000.0        -0.55394998907      -0.470735850533     0.444168609038      -0.522121520643     0.444168609038      -0.522121520643     -0.55394998907      -0.470735850533     
7700000000.0        -0.560510042105     -0.469617738337     0.43757149761       -0.521696356458     0.43757149761       -0.521696356458     -0.560510042105     -0.469617738337     
7800000000.0        -0.566967297058     -0.468424820034     0.431076661383      -0.521197019347     0.431076661383      -0.521197019347     -0.566967297058     -0.468424820034     
7900000000.0        -0.57332254733      -0.467160619392     0.424683305121      -0.52062704067      0.424683305121      -0.52062704067      -0.57332254733      -0.467160619392     
8000000000.0        -0.579576650996     -0.465828539857     0.418390568894      -0.519989831474     0.418390568894      -0.519989831474     -0.579576650996     -0.465828539857     
8100000000.0        -0.585730524831     -0.464431866856     0.412197534046      -0.519288684804     0.412197534046      -0.519288684804     -0.585730524831     -0.464431866856     
8200000000.0        -0.591785138673     -0.462973770226     0.406103228834      -0.518526778126     0.406103228834      -0.518526778126     -0.591785138673     -0.462973770226     
8300000000.0        -0.597741510118     -0.461457306739     0.400106633736      -0.517707175854     0.400106633736      -0.517707175854     -0.597741510118     -0.461457306739     
8400000000.0        -0.603600699521     -0.4598854227       0.394206686443      -0.516832831954     0.394206686443      -0.516832831954     -0.603600699521     -0.4598854227       
8500000000.0        -0.609363805304     -0.458260956617     0.388402286556      -0.515906592607     0.388402286556      -0.515906592607     -0.609363805304     -0.458260956617     
8600000000.0        -0.615031959555     -0.456586641913     0.382692299987      -0.514931198923     0.382692299987      -0.514931198923     -0.615031959555     -0.456586641913     
8700000000.0        -0.620606323892     -0.454865109668     0.377075563089      -0.51390928969      0.377075563089      -0.51390928969      -0.620606323892     -0.454865109668     
8800000000.0        -0.626088085612     -0.453098891393     0.371550886516      -0.512843404139     0.371550886516      -0.512843404139     -0.626088085612     -0.453098891393     
8900000000.0        -0.631478454068     -0.451290421804     0.366117058838      -0.511735984725     0.366117058838      -0.511735984725     -0.631478454068     -0.451290421804     
9000000000.0        -0.636778657308     -0.449442041602     0.360772849903      -0.510589379905     0.360772849903      -0.510589379905     -0.636778657308     -0.449442041602     
9100000000.0        -0.64198993893      -0.44755600024      0.355517013988      -0.509405846909     0.355517013988      -0.509405846909     -0.64198993893      -0.44755600024      
9200000000.0        -0.64711355516      -0.445634458682     0.350348292712      -0.508187554492     0.350348292712      -0.508187554492     -0.64711355516      -0.445634458682     
9300000000.0        -0.652150772132     -0.443679492126     0.345265417761      -0.506936585666     0.345265417761      -0.506936585666     -0.652150772132     -0.443679492126     
9400000000.0        -0.657102863369     -0.441693092709     0.340267113407      -0.505654940397     0.340267113407      -0.505654940397     -0.657102863369     -0.441693092709     
9500000000.0        -0.661971107444     -0.439677172166     0.335352098845      -0.504344538274     0.335352098845      -0.504344538274     -0.661971107444     -0.439677172166     
9600000000.0        -0.66675678582      -0.437633564459     0.330519090353      -0.503007221131     0.330519090353      -0.503007221131     -0.66675678582      -0.437633564459     
9700000000.0        -0.671461180851     -0.435564028355     0.32576680329       -0.501644755628     0.32576680329       -0.501644755628     -0.671461180851     -0.435564028355     
9800000000.0        -0.676085573944     -0.433470249959     0.321093953938      -0.500258835784     0.321093953938      -0.500258835784     -0.676085573944     -0.433470249959     
9900000000.0        -0.680631243863     -0.431353845195     0.316499261191      -0.498851085461     0.316499261191      -0.498851085461     -0.680631243863     -0.431353845195     
10000000000.0       -0.685099465177     -0.429216362238     0.311981448115      -0.497423060793     0.311981448115      -0.497423060793     -0.685099465177     -0.429216362238     
