# Hz S RI R 50.00 
100000000.0         -2.66453528781e-05  -0.00603929731651   0.999939128979      -0.0061618904379    0.999939128979      -0.0061618904379    -2.66453528781e-05  -0.00603929731651   
200000000.0         -0.00014419414877   -0.0120770562694    0.999821324679      -0.0123222593189    0.999821324679      -0.0123222593189    -0.000144194148771  -0.0120770562694    
300000000.0         -0.000336128419031  -0.0181119026713    0.999629178964      -0.0184797411091    0.999629178964      -0.0184797411091    -0.000336128419031  -0.0181119026713    
400000000.0         -0.000602345042092  -0.024142468093     0.999362765487      -0.0246329739924    0.999362765487      -0.0246329739924    -0.000602345042092  -0.024142468093     
500000000.0         -0.000942716677308  -0.0301673890262    0.999022200284      -0.0307806000273    0.999022200284      -0.0307806000273    -0.000942716677309  -0.0301673890262    
600000000.0         -0.00135708563919   -0.0361853072567    0.99860763529       -0.0369212658674    0.99860763529       -0.0369212658674    -0.00135708563919   -0.0361853072567    
700000000.0         -0.0018452624975    -0.0421948705489    0.998119256546      -0.0430536236239    0.998119256546      -0.0430536236239    -0.0018452624975    -0.0421948705489    
800000000.0         -0.00240702572236   -0.0481947334599    0.997557283387      -0.0491763317857    0.997557283387      -0.0491763317857    -0.00240702572236   -0.0481947334599    
900000000.0         -0.00304212168442   -0.054183558208     0.996921967928      -0.0552880561597    0.996921967928      -0.0552880561597    -0.00304212168442   -0.054183558208     
1000000000.0        -0.00375026481585   -0.0601600155677    0.996213594636      -0.0613874708147    0.996213594636      -0.0613874708147    -0.00375026481585   -0.0601600155677    
1100000000.0        -0.00453113786229   -0.0661227857728    0.995432479936      -0.0674732590225    0.995432479936      -0.0674732590225    -0.00453113786229   -0.0661227857728    
1200000000.0        -0.00538439219733   -0.0720705594221    0.994578971813      -0.0735441141924    0.994578971813      -0.0735441141924    -0.00538439219733   -0.0720705594221    
1300000000.0        -0.00630964818568   -0.0780020383781    0.993653449388      -0.0795987407933    0.993653449388      -0.0795987407933    -0.00630964818568   -0.0780020383781    
1400000000.0        -0.00730649558756   -0.083915936656     0.992656322484      -0.0856358552609    0.992656322484      -0.0856358552609    -0.00730649558756   -0.083915936656     
1500000000.0        -0.00837449400018   -0.0898109812999    0.991588031158      -0.09165418689      0.991588031158      -0.09165418689      -0.00837449400018   -0.0898109812999    
1600000000.0        -0.00951317333335   -0.0956859132416    0.990449045209      -0.0976524787072    0.990449045209      -0.0976524787072    -0.00951317333335   -0.0956859132416    
1700000000.0        -0.0107220343172    -0.101539488143     0.989239863657      -0.103629488324     0.989239863657      -0.103629488324     -0.0107220343172    -0.101539488143     
1800000000.0        -0.0120005490399    -0.107370477219     0.987961014198      -0.10958398877      0.987961014198      -0.10958398877      -0.0120005490399    -0.107370477219     
1900000000.0        -0.0133481615148    -0.113177668034     0.98661305263       -0.115514769299     0.98661305263       -0.115514769299     -0.0133481615148    -0.113177668034     
2000000000.0        -0.0147642882739    -0.118959865283     0.985196562253      -0.121420636178     0.985196562253      -0.121420636178     -0.0147642882739    -0.118959865283     
2100000000.0        -0.0162483189885    -0.124715891544     0.983712153245      -0.127300413444     0.983712153245      -0.127300413444     -0.0162483189885    -0.124715891544     
2200000000.0        -0.0177996171134    -0.130444588003     0.982160462018      -0.133152943643     0.982160462018      -0.133152943643     -0.0177996171134    -0.130444588003     
2300000000.0        -0.0194175205553    -0.136144815161     0.980542150541      -0.138977088532     0.980542150541      -0.138977088532     -0.0194175205553    -0.136144815161     
2400000000.0        -0.0211013423625    -0.141815453501     0.978857905653      -0.144771729762     0.978857905653      -0.144771729762     -0.0211013423625    -0.141815453501     
2500000000.0        -0.0228503714353    -0.14745540414      0.97710843835       -0.150535769527     0.97710843835       -0.150535769527     -0.0228503714353    -0.14745540414      
2600000000.0        -0.0246638732563    -0.153063589443     0.975294483054      -0.156268131189     0.975294483054      -0.156268131189     -0.0246638732563    -0.153063589443     
2700000000.0        -0.0265410906374    -0.158638953612     0.973416796861      -0.161967759866     0.973416796861      -0.161967759866     -0.0265410906374    -0.158638953612     
2800000000.0        -0.0284812444845    -0.164180463242     0.971476158783      -0.167633622997     0.971476158783      -0.167633622997     -0.0284812444845    -0.164180463242     
2900000000.0        -0.0304835345759    -0.169687107851     0.969473368961      -0.173264710871     0.969473368961      -0.173264710871     -0.0304835345759    -0.169687107851     
3000000000.0        -0.0325471403559    -0.175157900373     0.967409247875      -0.178860037127     0.967409247875      -0.178860037127     -0.0325471403559    -0.175157900373     
3100000000.0        -0.0346712217393    -0.180591877622     0.965284635539      -0.184418639222     0.965284635539      -0.184418639222     -0.0346712217393    -0.180591877622     
3200000000.0        -0.0368549199273    -0.18598810073      0.963100390682      -0.189939578867     0.963100390682      -0.189939578867     -0.0368549199273    -0.18598810073      
3300000000.0        -0.039097358233     -0.191345655543     0.960857389928      -0.195421942434     0.960857389928      -0.195421942434     -0.039097358233     -0.191345655543     
3400000000.0        -0.0413976429147    -0.196663652993     0.958556526954      -0.200864841322     0.958556526954      -0.200864841322     -0.0413976429147    -0.196663652993     
3500000000.0        -0.0437548640156    -0.201941229434     0.956198711657      -0.206267412303     0.956198711657      -0.206267412303     -0.0437548640156    -0.201941229434     
3600000000.0        -0.0461680962096    -0.207177546948     0.953784869304      -0.211628817827     0.953784869304      -0.211628817827     -0.0461680962096    -0.207177546948     
3700000000.0        -0.0486363996496    -0.21237179362      0.951315939685      -0.216948246301     0.951315939685      -0.216948246301     -0.0486363996496    -0.21237179362      
3800000000.0        -0.0511588208202    -0.217523183776     0.948792876262      -0.222224912328     0.948792876262      -0.222224912328     -0.0511588208202    -0.217523183776     
3900000000.0        -0.0537343933903    -0.222630958199     0.946216645313      -0.227458056923     0.946216645313      -0.227458056923     -0.0537343933903    -0.222630958199     
4000000000.0        -0.0563621390657    -0.227694384301     0.943588225079      -0.232646947694     0.943588225079      -0.232646947694     -0.0563621390657    -0.227694384301     
4100000000.0        -0.0590410684414    -0.232712756276     0.940908604915      -0.237790878992     0.940908604915      -0.237790878992     -0.0590410684414    -0.232712756276     
4200000000.0        -0.0617701818505    -0.237685395216     0.938178784439      -0.242889172029     0.938178784439      -0.242889172029     -0.0617701818505    -0.237685395216     
4300000000.0        -0.0645484702096    -0.242611649197     0.935399772686      -0.247941174966     0.935399772686      -0.247941174966     -0.0645484702096    -0.242611649197     
4400000000.0        -0.0673749158594    -0.247490893339     0.932572587268      -0.252946262978     0.932572587268      -0.252946262978     -0.0673749158594    -0.247490893339     
4500000000.0        -0.0702484933994    -0.252322529831     0.929698253539      -0.257903838276     0.929698253539      -0.257903838276     -0.0702484933994    -0.252322529831     
4600000000.0        -0.0731681705152    -0.257105987937     0.92677780377       -0.262813330115     0.92677780377       -0.262813330115     -0.0731681705152    -0.257105987937     
4700000000.0        -0.0761329087978    -0.261840723958     0.923812276323      -0.267674194766     0.923812276323      -0.267674194766     -0.0761329087978    -0.261840723958     
4800000000.0        -0.0791416645538    -0.266526221185     0.92080271485       -0.272485915458     0.92080271485       -0.272485915458     -0.0791416645538    -0.266526221185     
4900000000.0        -0.0821933896055    -0.271161989815     0.917750167485      -0.277248002301     0.917750167485      -0.277248002301     -0.0821933896055    -0.271161989815     
5000000000.0        -0.0852870320797    -0.27574756684      0.914655686059      -0.281959992181     0.914655686059      -0.281959992181     -0.0852870320797    -0.27574756684      
5100000000.0        -0.0884215371849    -0.280282515917     0.911520325322      -0.286621448622     0.911520325322      -0.286621448622     -0.0884215371849    -0.280282515917     
5200000000.0        -0.0915958479758    -0.284766427206     0.908345142179      -0.291231961635     0.908345142179      -0.291231961635     -0.0915958479758    -0.284766427206     
5300000000.0        -0.0948089061036    -0.289198917195     0.905131194939      -0.295791147534     0.905131194939      -0.295791147534     -0.0948089061036    -0.289198917195     
5400000000.0        -0.098059652553     -0.29357962849      0.901879542576      -0.300298648739     0.901879542576      -0.300298648739     -0.098059652553     -0.29357962849      
5500000000.0        -0.101347028364     -0.297908229593     0.898591244014      -0.304754133542     0.898591244014      -0.304754133542     -0.101347028364     -0.297908229593     
5600000000.0        -0.104669975336     -0.302184414654     0.895267357411      -0.309157295869     0.895267357411      -0.309157295869     -0.104669975336     -0.302184414654     
5700000000.0        -0.108027436722     -0.306407903201     0.89190893948       -0.313507855011     0.89190893948       -0.313507855011     -0.108027436722     -0.306407903201     
5800000000.0        -0.111418357896     -0.310578439857     0.888517044807      -0.317805555337     0.888517044807      -0.317805555337     -0.111418357896     -0.310578439857     
5900000000.0        -0.114841687013     -0.314695794034     0.885092725201      -0.322050165992     0.885092725201      -0.322050165992     -0.114841687013     -0.314695794034     
6000000000.0        -0.118296375646     -0.318759759611     0.881637029053      -0.326241480575     0.881637029053      -0.326241480575     -0.118296375646     -0.318759759611     
6100000000.0        -0.121781379405     -0.322770154592     0.878151000715      -0.3303793168       0.878151000715      -0.3303793168       -0.121781379405     -0.322770154592     
6200000000.0        -0.125295658541     -0.326726820756     0.874635679902      -0.334463516142     0.874635679902      -0.334463516142     -0.125295658541     -0.326726820756     
6300000000.0        -0.128838178527     -0.330629623284     0.871092101106      -0.33849394347      0.871092101106      -0.33849394347      -0.128838178527     -0.330629623284     
6400000000.0        -0.132407910622     -0.334478450377     0.867521293032      -0.342470486664     0.867521293032      -0.342470486664     -0.132407910622     -0.334478450377     
6500000000.0        -0.136003832416     -0.338273212861     0.863924278057      -0.346393056217     0.863924278057      -0.346393056217     -0.136003832416     -0.338273212861     
6600000000.0        -0.139624928355     -0.342013843775     0.860302071699      -0.35026158483      0.860302071699      -0.35026158483      -0.139624928355     -0.342013843775     
6700000000.0        -0.143270190247     -0.345700297956     0.856655682117      -0.354076026995     0.856655682117      -0.354076026995     -0.143270190247     -0.345700297956     
6800000000.0        -0.146938617748     -0.349332551608     0.852986109623      -0.357836358559     0.852986109623      -0.357836358559     -0.146938617748     -0.349332551608     
6900000000.0        -0.150629218827     -0.35291060186      0.849294346213      -0.361542576294     0.849294346213      -0.361542576294     -0.150629218827     -0.35291060186      
7000000000.0        -0.154341010213     -0.356434466322     0.845581375128      -0.365194697445     0.845581375128      -0.365194697445     -0.154341010213     -0.356434466322     
7100000000.0        -0.158073017821     -0.35990418263      0.841848170417      -0.368792759275     0.841848170417      -0.368792759275     -0.158073017821     -0.35990418263      
7200000000.0        -0.16182427716      -0.363319807979     0.838095696542      -0.372336818605     0.838095696542      -0.372336818605     -0.16182427716      -0.363319807979     
7300000000.0        -0.165593833718     -0.366681418662     0.834324907981      -0.375826951348     0.834324907981      -0.375826951348     -0.165593833718     -0.366681418662     
7400000000.0        -0.169380743333     -0.369989109591     0.830536748867      -0.379263252033     0.830536748867      -0.379263252033     -0.169380743333     -0.369989109591     
7500000000.0        -0.173184072538     -0.37324299382      0.826732152635      -0.382645833327     0.826732152635      -0.382645833327     -0.173184072538     -0.37324299382      
7600000000.0        -0.177002898889     -0.376443202066     0.822912041697      -0.385974825558     0.822912041697      -0.385974825558     -0.177002898889     -0.376443202066     
7700000000.0        -0.180836311277     -0.379589882223     0.819077327132      -0.389250376228     0.819077327132      -0.389250376228     -0.180836311277     -0.379589882223     
7800000000.0        -0.184683410221     -0.382683198874     0.815228908392      -0.392472649525     0.815228908392      -0.392472649525     -0.184683410221     -0.382683198874     
7900000000.0        -0.188543308134     -0.385723332804     0.811367673034      -0.395641825838     0.811367673034      -0.395641825838     -0.188543308134     -0.385723332804     
8000000000.0        -0.192415129581     -0.388710480511     0.807494496461      -0.398758101269     0.807494496461      -0.398758101269     -0.192415129581     -0.388710480511     
8100000000.0        -0.196298011515     -0.391644853714     0.803610241692      -0.401821687138     0.803610241692      -0.401821687138     -0.196298011515     -0.391644853714     
8200000000.0        -0.200191103494     -0.394526678868     0.79971575914       -0.4048328095       0.79971575914       -0.4048328095       -0.200191103494     -0.394526678868     
8300000000.0        -0.20409356788      -0.397356196671     0.795811886413      -0.407791708655     0.795811886413      -0.407791708655     -0.20409356788      -0.397356196671     
8400000000.0        -0.208004580027     -0.40013366158      0.791899448131      -0.410698638659     0.791899448131      -0.410698638659     -0.208004580027     -0.40013366158      
8500000000.0        -0.211923328442     -0.402859341327     0.787979255755      -0.413553866845     0.787979255755      -0.413553866845     -0.211923328442     -0.402859341327     
8600000000.0        -0.215849014938     -0.405533516434     0.784052107446      -0.416357673336     0.784052107446      -0.416357673336     -0.215849014938     -0.405533516434     
8700000000.0        -0.219780854769     -0.408156479738     0.780118787921      -0.419110350569     0.780118787921      -0.419110350569     -0.219780854769     -0.408156479738     
8800000000.0        -0.223718076748     -0.410728535911     0.77618006834       -0.42181220282      0.77618006834       -0.42181220282      -0.223718076748     -0.410728535911     
8900000000.0        -0.227659923348     -0.413250000993     0.7722367062        -0.42446354573      0.7722367062        -0.42446354573      -0.227659923348     -0.413250000993     
9000000000.0        -0.231605650795     -0.415721201922     0.768289445251      -0.427064705843     0.768289445251      -0.427064705843     -0.231605650795     -0.415721201922     
9100000000.0        -0.235554529138     -0.418142476073     0.764339015415      -0.429616020138     0.764339015415      -0.429616020138     -0.235554529138     -0.418142476073     
9200000000.0        -0.239505842311     -0.420514170801     0.76038613273       -0.43211783558      0.76038613273       -0.43211783558      -0.239505842311     -0.420514170801     
9300000000.0        -0.24345888818      -0.422836642991     0.756431499306      -0.434570508661     0.756431499306      -0.434570508661     -0.24345888818      -0.422836642991     
9400000000.0        -0.247412978574     -0.42511025861      0.752475803283      -0.436974404959     0.752475803283      -0.436974404959     -0.247412978574     -0.42511025861      
9500000000.0        -0.251367439311     -0.42733539227      0.748519718822      -0.4393298987       0.748519718822      -0.4393298987       -0.251367439311     -0.42733539227      
9600000000.0        -0.255321610198     -0.429512426793     0.744563906085      -0.441637372322     0.744563906085      -0.441637372322     -0.255321610198     -0.429512426793     
9700000000.0        -0.259274845037     -0.43164175279      0.740609011247      -0.443897216053     0.740609011247      -0.443897216053     -0.259274845037     -0.43164175279      
9800000000.0        -0.263226511604     -0.433723768237     0.736655666505      -0.446109827489     0.736655666505      -0.446109827489     -0.263226511604     -0.433723768237     
9900000000.0        -0.267175991623     -0.435758878063     0.732704490108      -0.448275611183     0.732704490108      -0.448275611183     -0.267175991623     -0.435758878063     
10000000000.0       -0.271122680737     -0.437747493752     0.72875608639       -0.450394978244     0.72875608639       -0.450394978244     -0.271122680737     -0.437747493752     
