# Hz S RI R 50.00 
100000000.0         -2.01500750456e-05  -0.0101578148227    0.999772001298      -0.0111119102462    0.999772001298      -0.0111119102462    -2.01500750456e-05  -0.0101578148227    
200000000.0         -0.000368456551221  -0.0203090739067    0.999420919737      -0.0222173794564    0.999420919737      -0.0222173794564    -0.000368456551222  -0.0203090739067    
300000000.0         -0.000942240281489  -0.0304471737142    0.998843807936      -0.0333098690928    0.998843807936      -0.0333098690928    -0.000942240281489  -0.0304471737142    
400000000.0         -0.00174078230249   -0.0405654074569    0.998041205349      -0.0443827236353    0.998041205349      -0.0443827236353    -0.00174078230249   -0.0405654074569    
500000000.0         -0.00276314971275   -0.0506570384177    0.997013975397      -0.0554292508291    0.997013975397      -0.0554292508291    -0.00276314971275   -0.0506570384177    
600000000.0         -0.00400815548923   -0.0607153350843    0.995763269211      -0.0664427591592    0.995763269211      -0.0664427591592    -0.00400815548923   -0.0607153350843    
700000000.0         -0.00547434891876   -0.0707335960655    0.994290515823      -0.0774165839514    0.994290515823      -0.0774165839514    -0.00547434891876   -0.0707335960655    
800000000.0         -0.0071600137504    -0.0807051706304    0.992597416949      -0.0883441086196    0.992597416949      -0.0883441086196    -0.0071600137504    -0.0807051706304    
900000000.0         -0.00906316960877   -0.0906234768784    0.990685942445      -0.0992187833031    0.990685942445      -0.0992187833031    -0.00906316960877   -0.0906234768784    
1000000000.0        -0.0111815753295    -0.10048201839      0.988558325385      -0.110034141848     0.988558325385      -0.110034141848     -0.0111815753295    -0.10048201839      
1100000000.0        -0.0135127336896    -0.110274399755     0.98621705646       -0.120783817583     0.98621705646       -0.120783817583     -0.0135127336896    -0.110274399755     
1200000000.0        -0.016053897276     -0.119994341179     0.983664877585      -0.131461558109     0.983664877585      -0.131461558109     -0.016053897276     -0.119994341179     
1300000000.0        -0.0188020753398    -0.129635692251     0.980904774719      -0.142061239223     0.980904774719      -0.142061239223     -0.0188020753398    -0.129635692251     
1400000000.0        -0.0217540415299    -0.13919244493      0.977939969921      -0.152576878028     0.977939969921      -0.152576878028     -0.0217540415299    -0.13919244493      
1500000000.0        -0.0249063424214    -0.148658745757     0.974773912679      -0.163002645239     0.974773912679      -0.163002645239     -0.0249063424214    -0.148658745757     
1600000000.0        -0.0282553067618    -0.158028907287     0.97141027056       -0.173332876708     0.97141027056       -0.173332876708     -0.0282553067618    -0.158028907287     
1700000000.0        -0.0317970553677    -0.167297418735     0.967852919244      -0.183562084142     0.967852919244      -0.183562084142     -0.0317970553677    -0.167297418735     
1800000000.0        -0.0355275116009    -0.176458955824     0.964105931997      -0.193684965016     0.964105931997      -0.193684965016     -0.0355275116009    -0.176458955824     
1900000000.0        -0.039442412359     -0.185508389822     0.960173568641      -0.20369641166      0.960173568641      -0.20369641166      -0.039442412359     -0.185508389822     
2000000000.0        -0.0435373195139    -0.194440795739     0.956060264085      -0.213591519517     0.956060264085      -0.213591519517     -0.0435373195139    -0.194440795739     
2100000000.0        -0.0478076317313    -0.203251459701     0.951770616485      -0.223365594552     0.951770616485      -0.223365594552     -0.0478076317313    -0.203251459701     
2200000000.0        -0.0522485966064    -0.21193588547      0.94730937509       -0.233014159814     0.94730937509       -0.233014159814     -0.0522485966064    -0.21193588547      
2300000000.0        -0.0568553230512    -0.220489800115     0.942681427844      -0.242532961148     0.942681427844      -0.242532961148     -0.0568553230512    -0.220489800115     
2400000000.0        -0.0616227938675    -0.228909158839     0.937891788797      -0.251917972048     0.937891788797      -0.251917972048     -0.0616227938675    -0.228909158839     
2500000000.0        -0.0665458784457    -0.237190148954     0.932945585405      -0.261165397669     0.932945585405      -0.261165397669     -0.0665458784457    -0.237190148954     
2600000000.0        -0.0716193455259    -0.245329193027     0.927848045755      -0.270271677998     0.927848045755      -0.270271677998     -0.0716193455259    -0.245329193027     
2700000000.0        -0.0768378759629    -0.253322951201     0.922604485801      -0.279233490197     0.922604485801      -0.279233490197     -0.0768378759629    -0.253322951201     
2800000000.0        -0.0821960754381    -0.261168322707     0.917220296643      -0.288047750147     0.917220296643      -0.288047750147     -0.0821960754381    -0.261168322707     
2900000000.0        -0.0876884870639    -0.268862446593     0.91170093192       -0.29671161319      0.91170093192       -0.29671161319      -0.0876884870639    -0.268862446593     
3000000000.0        -0.093309603828     -0.27640270169      0.906051895366      -0.305222474125     0.906051895366      -0.305222474125     -0.093309603828     -0.27640270169      
3100000000.0        -0.0990538808301    -0.283786705842     0.900278728567      -0.313577966448     0.900278728567      -0.313577966448     -0.0990538808301    -0.283786705842     
3200000000.0        -0.104915747265     -0.291012314433     0.894386998976      -0.321775960904     0.894386998976      -0.321775960904     -0.104915747265     -0.291012314433     
3300000000.0        -0.110889618108     -0.298077618241     0.888382288229      -0.329814563356     0.888382288229      -0.329814563356     -0.110889618108     -0.298077618241     
3400000000.0        -0.116969905472     -0.304980940655     0.882270180785      -0.337692112014     0.882270180785      -0.337692112014     -0.116969905472     -0.304980940655     
3500000000.0        -0.123151029583     -0.311720834291     0.876056252945      -0.345407174073     0.876056252945      -0.345407174073     -0.123151029583     -0.311720834291     
3600000000.0        -0.129427429372     -0.318296077047     0.869746062269      -0.352958541779     0.869746062269      -0.352958541779     -0.129427429372     -0.318296077047     
3700000000.0        -0.135793572623     -0.32470566764      0.863345137417      -0.360345227975     0.863345137417      -0.360345227975     -0.135793572623     -0.32470566764      
3800000000.0        -0.142243965677     -0.330948820653     0.856858968448      -0.367566461169     0.856858968448      -0.367566461169     -0.142243965677     -0.330948820653     
3900000000.0        -0.148773162666     -0.337024961149     0.850292997589      -0.374621680153     0.850292997589      -0.374621680153     -0.148773162666     -0.337024961149     
4000000000.0        -0.155375774248     -0.342933718885     0.843652610493      -0.381510528234     0.843652610493      -0.381510528234     -0.155375774248     -0.342933718885     
4100000000.0        -0.162046475854     -0.348674922168     0.836943127998      -0.388232847096     0.836943127998      -0.388232847096     -0.162046475854     -0.348674922168     
4200000000.0        -0.168780015408     -0.354248591399     0.830169798397      -0.394788670354     0.830169798397      -0.394788670354     -0.168780015408     -0.354248591399     
4300000000.0        -0.175571220545     -0.359654932332     0.823337790233      -0.40117821683      0.823337790233      -0.40117821683      -0.175571220545     -0.359654932332     
4400000000.0        -0.182415005292     -0.36489432911      0.816452185606      -0.40740188359      0.816452185606      -0.40740188359      -0.182415005292     -0.36489432911      
4500000000.0        -0.189306376235     -0.369967337096     0.80951797401       -0.413460238788     0.80951797401       -0.413460238788     -0.189306376235     -0.369967337096     
4600000000.0        -0.196240438171     -0.374874675549     0.802540046682      -0.419354014348     0.802540046682      -0.419354014348     -0.196240438171     -0.374874675549     
4700000000.0        -0.20321239923      -0.379617220175     0.795523191476      -0.425084098528     0.795523191476      -0.425084098528     -0.20321239923      -0.379617220175     
4800000000.0        -0.210217575504     -0.384195995593     0.788472088239      -0.430651528386     0.788472088239      -0.430651528386     -0.210217575504     -0.384195995593     
4900000000.0        -0.217251395168     -0.388612167741     0.781391304683      -0.436057482199     0.781391304683      -0.436057482199     -0.217251395168     -0.388612167741     
5000000000.0        -0.224309402121     -0.392867036264     0.774285292751      -0.44130327186      0.774285292751      -0.44130327186      -0.224309402121     -0.392867036264     
5100000000.0        -0.23138725914      -0.396962026905     0.767158385454      -0.446390335266     0.767158385454      -0.446390335266     -0.23138725914      -0.396962026905     
5200000000.0        -0.23848075059      -0.400898683933     0.76001479417       -0.451320228761     0.76001479417       -0.451320228761     -0.23848075059      -0.400898683933     
5300000000.0        -0.245585784678     -0.40467866262      0.752858606383      -0.456094619619     0.752858606383      -0.456094619619     -0.245585784678     -0.40467866262      
5400000000.0        -0.252698395283     -0.408303721817     0.745693783856      -0.460715278619     0.745693783856      -0.460715278619     -0.252698395283     -0.408303721817     
5500000000.0        -0.259814743374     -0.411775716623     0.738524161209      -0.465184072726     0.738524161209      -0.465184072726     -0.259814743374     -0.411775716623     
5600000000.0        -0.266931118047     -0.415096591181     0.731353444887      -0.469502957891     0.731353444887      -0.469502957891     -0.266931118047     -0.415096591181     
5700000000.0        -0.274043937176     -0.418268371621     0.724185212505      -0.473673971997     0.724185212505      -0.473673971997     -0.274043937176     -0.418268371621     
5800000000.0        -0.28114974772      -0.42129315916      0.71702291254       -0.477699227963     0.71702291254       -0.477699227963     -0.28114974772      -0.42129315916      
5900000000.0        -0.288245225701     -0.424173123371     0.709869864356      -0.481580907024     0.709869864356      -0.481580907024     -0.288245225701     -0.424173123371     
6000000000.0        -0.295327175863     -0.426910495643     0.702729258542      -0.485321252188     0.702729258542      -0.485321252188     -0.295327175863     -0.426910495643     
6100000000.0        -0.302392531041     -0.429507562839     0.695604157544      -0.488922561902     0.695604157544      -0.488922561902     -0.302392531041     -0.429507562839     
6200000000.0        -0.309438351263     -0.431966661152     0.688497496559      -0.492387183912     0.688497496559      -0.492387183912     -0.309438351263     -0.431966661152     
6300000000.0        -0.316461822595     -0.434290170183     0.681412084698      -0.495717509343     0.681412084698      -0.495717509343     -0.316461822595     -0.434290170183     
6400000000.0        -0.323460255757     -0.436480507231     0.67435060636       -0.498915966997     0.67435060636       -0.498915966997     -0.323460255757     -0.436480507231     
6500000000.0        -0.33043108452      -0.438540121815     0.667315622838      -0.501985017872     0.667315622838      -0.501985017872     -0.33043108452      -0.438540121815     
6600000000.0        -0.337371863918     -0.440471490415     0.660309574111      -0.504927149913     0.660309574111      -0.504927149913     -0.337371863918     -0.440471490415     
6700000000.0        -0.344280268278     -0.442277111451     0.653334780808      -0.50774487299      0.653334780808      -0.50774487299      -0.344280268278     -0.442277111451     
6800000000.0        -0.351154089088     -0.443959500488     0.646393446341      -0.510440714108     0.646393446341      -0.510440714108     -0.351154089088     -0.443959500488     
6900000000.0        -0.357991232731     -0.445521185671     0.639487659173      -0.513017212845     0.639487659173      -0.513017212845     -0.357991232731     -0.445521185671     
7000000000.0        -0.364789718087     -0.446964703398     0.63261939521       -0.515476917027     0.63261939521       -0.515476917027     -0.364789718087     -0.446964703398     
7100000000.0        -0.371547674031     -0.448292594208     0.625790520311      -0.51782237862      0.625790520311      -0.51782237862      -0.371547674031     -0.448292594208     
7200000000.0        -0.378263336827     -0.449507398908     0.619002792883      -0.520056149857     0.619002792883      -0.520056149857     -0.378263336827     -0.449507398908     
7300000000.0        -0.384935047454     -0.450611654912     0.612257866564      -0.522180779585     0.612257866564      -0.522180779585     -0.384935047454     -0.450611654912     
7400000000.0        -0.391561248852     -0.451607892805     0.605557292973      -0.524198809826     0.605557292973      -0.524198809826     -0.391561248852     -0.451607892805     
7500000000.0        -0.398140483121     -0.45249863312      0.598902524509      -0.526112772558     0.598902524509      -0.526112772558     -0.398140483121     -0.45249863312      
7600000000.0        -0.404671388672     -0.453286383316     0.592294917201      -0.527925186698     0.592294917201      -0.527925186698     -0.404671388672     -0.453286383316     
7700000000.0        -0.41115269735      -0.453973634973     0.585735733581      -0.529638555295     0.585735733581      -0.529638555295     -0.41115269735      -0.453973634973     
7800000000.0        -0.417583231536     -0.454562861172     0.579226145591      -0.531255362915     0.579226145591      -0.531255362915     -0.417583231536     -0.454562861172     
7900000000.0        -0.42396190123      -0.455056514074     0.572767237488      -0.532778073221     0.572767237488      -0.532778073221     -0.42396190123      -0.455056514074     
8000000000.0        -0.430287701142     -0.455457022682     0.566360008759      -0.534209126737     0.566360008759      -0.534209126737     -0.430287701142     -0.455457022682     
8100000000.0        -0.436559707779     -0.455766790781     0.560005377034      -0.53555093879      0.560005377034      -0.53555093879      -0.436559707779     -0.455766790781     
8200000000.0        -0.442777076549     -0.45598819505      0.553704180977      -0.536805897623     0.553704180977      -0.536805897623     -0.442777076549     -0.45598819505      
8300000000.0        -0.448939038886     -0.456123583341     0.547457183163      -0.53797636268      0.547457183163      -0.53797636268      -0.448939038886     -0.456123583341     
8400000000.0        -0.455044899399     -0.456175273115     0.54126507293       -0.539064663035     0.54126507293       -0.539064663035     -0.455044899399     -0.456175273115     
8500000000.0        -0.461094033057     -0.456145550031     0.535128469192      -0.540073095992     0.535128469192      -0.540073095992     -0.461094033057     -0.456145550031     
8600000000.0        -0.467085882402     -0.456036666675     0.529047923222      -0.54100392581      0.529047923222      -0.54100392581      -0.467085882402     -0.456036666675     
8700000000.0        -0.473019954816     -0.455850841435     0.52302392139       -0.541859382583     0.52302392139       -0.541859382583     -0.473019954816     -0.455850841435     
8800000000.0        -0.478895819829     -0.455590257502     0.517056887855      -0.542641661235     0.517056887855      -0.542641661235     -0.478895819829     -0.455590257502     
8900000000.0        -0.484713106468     -0.455257061993     0.511147187204      -0.543352920656     0.511147187204      -0.543352920656     -0.484713106468     -0.455257061993     
9000000000.0        -0.490471500678     -0.454853365198     0.505295127049      -0.543995282941     0.505295127049      -0.543995282941     -0.490471500678     -0.454853365198     
9100000000.0        -0.496170742779     -0.454381239937     0.499500960553      -0.544570832753     0.499500960553      -0.544570832753     -0.496170742779     -0.454381239937     
9200000000.0        -0.501810624991     -0.453842721018     0.49376488891       -0.545081616779     0.49376488891       -0.545081616779     -0.501810624991     -0.453842721018     
9300000000.0        -0.50739098902      -0.4532398048       0.488087063761      -0.545529643299     0.488087063761      -0.545529643299     -0.50739098902      -0.4532398048       
9400000000.0        -0.512911723703     -0.452574448847     0.482467589548      -0.545916881835     0.482467589548      -0.545916881835     -0.512911723703     -0.452574448847     
9500000000.0        -0.518372762712     -0.451848571668     0.476906525805      -0.546245262896     0.476906525805      -0.546245262896     -0.518372762712     -0.451848571668     
9600000000.0        -0.523774082328     -0.451064052538     0.471403889385      -0.546516677803     0.471403889385      -0.546516677803     -0.523774082328     -0.451064052538     
9700000000.0        -0.529115699279     -0.450222731404     0.465959656625      -0.546732978589     0.465959656625      -0.546732978589     -0.529115699279     -0.450222731404     
9800000000.0        -0.534397668636     -0.449326408849     0.460573765444      -0.546895977969     0.460573765444      -0.546895977969     -0.534397668636     -0.449326408849     
9900000000.0        -0.539620081787     -0.448376846136     0.455246117375      -0.547007449383     0.455246117375      -0.547007449383     -0.539620081787     -0.448376846136     
10000000000.0       -0.544783064461     -0.447375765303     0.449976579532      -0.547069127094     0.449976579532      -0.547069127094     -0.544783064461     -0.447375765303     
