# Hz S RI R 50.00 
100000000.0         0.00826472937442    0.000452884232954   0.991734151296      -0.000574716958428  0.991734151296      -0.000574716958428  0.00826472937442    0.000452884232954   
200000000.0         0.00831938504607    0.000905657026923   0.991679361408      -0.00114932321285   0.991679361408      -0.00114932321285   0.00831938504607    0.000905657026923   
300000000.0         0.00835985130159    0.00135836393874    0.991638746048      -0.00172386471565   0.991638746048      -0.00172386471565   0.00835985130159    0.00135836393874    
400000000.0         0.00839329449248    0.00181102068865    0.991605138864      -0.00229835749449   0.991605138864      -0.00229835749449   0.00839329449248    0.00181102068865    
500000000.0         0.00842248308862    0.00226363601911    0.991575771386      -0.00287281055513   0.991575771386      -0.00287281055513   0.00842248308862    0.00226363601911    
600000000.0         0.0084488332424     0.002716215569      0.991549227458      -0.00344722977094   0.991549227458      -0.00344722977094   0.0084488332424     0.002716215569      
700000000.0         0.00847318401581    0.00316876326862    0.991524668018      -0.00402161928576   0.991524668018      -0.00402161928576   0.00847318401581    0.00316876326862    
800000000.0         0.00849608065637    0.0036212819881     0.991501547817      -0.00459598216707   0.991501547817      -0.00459598216707   0.00849608065637    0.0036212819881     
900000000.0         0.00851790087393    0.0040737738865     0.991479489143      -0.00517032075803   0.991479489143      -0.00517032075803   0.00851790087393    0.0040737738865     
1000000000.0        0.00853891892197    0.00452624061874    0.991458217742      -0.00574463688671   0.991458217742      -0.00574463688671   0.00853891892197    0.00452624061874    
1100000000.0        0.00855934126033    0.0049786834674     0.991437527152      -0.00631893199932   0.991437527152      -0.00631893199932   0.00855934126033    0.0049786834674     
1200000000.0        0.00857932782997    0.00543110343094    0.99141725743       -0.00689320724988   0.99141725743       -0.00689320724988   0.00857932782997    0.00543110343094    
1300000000.0        0.00859900545319    0.00588350128562    0.991397281753      -0.00746746356277   0.991397281753      -0.00746746356277   0.00859900545319    0.00588350128562    
1400000000.0        0.00861847665163    0.00633587763001    0.991377497598      -0.00804170167831   0.991377497598      -0.00804170167831   0.00861847665163    0.00633587763001    
1500000000.0        0.00863782566174    0.00678823291831    0.991357820726      -0.00861592218655   0.991357820726      -0.00861592218655   0.00863782566174    0.00678823291831    
1600000000.0        0.00865712266468    0.00724056748554    0.991338180954      -0.00919012555301   0.991338180954      -0.00919012555301   0.00865712266468    0.00724056748554    
1700000000.0        0.00867642683786    0.00769288156721    0.991318519103      -0.00976431213874   0.991318519103      -0.00976431213874   0.00867642683786    0.00769288156721    
1800000000.0        0.00869578860595    0.00814517531474    0.991298784746      -0.0103384822162    0.991298784746      -0.0103384822162    0.00869578860595    0.00814517531474    
1900000000.0        0.00871525133374    0.00859744880793    0.991278934517      -0.0109126359821    0.991278934517      -0.0109126359821    0.00871525133374    0.00859744880793    
2000000000.0        0.00873485262103    0.00904970206493    0.991258930814      -0.0114867735674    0.991258930814      -0.0114867735674    0.00873485262103    0.00904970206493    
2100000000.0        0.00875462530815    0.00950193505065    0.991238740795      -0.0120608950462    0.991238740795      -0.0120608950462    0.00875462530815    0.00950193505065    
2200000000.0        0.00877459826727    0.00995414768345    0.991218335585      -0.0126350004426    0.991218335585      -0.0126350004426    0.00877459826727    0.00995414768345    
2300000000.0        0.00879479703284    0.0104063398411     0.991197689649      -0.0132090897369    0.991197689649      -0.0132090897369    0.00879479703284    0.0104063398411     
2400000000.0        0.00881524430916    0.0108585113653     0.991176780278      -0.0137831628702    0.991176780278      -0.0137831628702    0.00881524430916    0.0108585113653     
2500000000.0        0.00883596038332    0.0113106620663     0.991155587185      -0.014357219749     0.991155587185      -0.014357219749     0.00883596038332    0.0113106620663     
2600000000.0        0.00885696346397    0.011762791726      0.991134092159      -0.014931260249     0.991134092159      -0.014931260249     0.00885696346397    0.011762791726      
2700000000.0        0.00887826996173    0.0122149001012     0.991112278786      -0.0155052842178    0.991112278786      -0.0155052842178    0.00887826996173    0.0122149001012     
2800000000.0        0.0088998947229     0.0126669869261     0.991090132218      -0.0160792914781    0.991090132218      -0.0160792914781    0.0088998947229     0.0126669869261     
2900000000.0        0.00892185122582    0.0131190519149     0.991067638975      -0.0166532818299    0.991067638975      -0.0166532818299    0.00892185122582    0.0131190519149     
3000000000.0        0.00894415174664    0.0135710947635     0.991044786778      -0.0172272550528    0.991044786778      -0.0172272550528    0.00894415174664    0.0135710947635     
3100000000.0        0.00896680750041    0.0140231151515     0.991021564409      -0.0178012109077    0.991021564409      -0.0178012109077    0.00896680750041    0.0140231151515     
3200000000.0        0.00898982876157    0.0144751127436     0.990997961592      -0.0183751491385    0.990997961592      -0.0183751491385    0.00898982876157    0.0144751127436     
3300000000.0        0.00901322496763    0.0149270871911     0.990973968888      -0.0189490694734    0.990973968888      -0.0189490694734    0.00901322496763    0.0149270871911     
3400000000.0        0.00903700480857    0.0153790381333     0.990949577602      -0.0195229716267    0.990949577602      -0.0195229716267    0.00903700480857    0.0153790381333     
3500000000.0        0.00906117630449    0.015830965198      0.990924779714      -0.0200968552995    0.990924779714      -0.0200968552995    0.00906117630449    0.015830965198      
3600000000.0        0.00908574687326    0.0162828680035     0.990899567803      -0.020670720181     0.990899567803      -0.020670720181     0.00908574687326    0.0162828680035     
3700000000.0        0.00911072338964    0.0167347461584     0.990873934991      -0.0212445659493    0.990873934991      -0.0212445659493    0.00911072338964    0.0167347461584     
3800000000.0        0.00913611223725    0.0171865992633     0.990847874892      -0.0218183922724    0.990847874892      -0.0218183922724    0.00913611223725    0.0171865992633     
3900000000.0        0.00916191935435    0.0176384269109     0.990821381566      -0.0223921988088    0.990821381566      -0.0223921988088    0.00916191935435    0.0176384269109     
4000000000.0        0.00918815027431    0.0180902286871     0.990794449476      -0.0229659852086    0.990794449476      -0.0229659852086    0.00918815027431    0.0180902286871     
4100000000.0        0.00921481016153    0.0185420041713     0.990767073456      -0.0235397511137    0.990767073456      -0.0235397511137    0.00921481016153    0.0185420041713     
4200000000.0        0.00924190384343    0.0189937529372     0.990739248675      -0.0241134961586    0.990739248675      -0.0241134961586    0.00924190384343    0.0189937529372     
4300000000.0        0.00926943583887    0.019445474553      0.990710970613      -0.0246872199708    0.990710970613      -0.0246872199708    0.00926943583887    0.019445474553      
4400000000.0        0.00929741038377    0.0198971685821     0.99068223503       -0.0252609221715    0.99068223503       -0.0252609221715    0.00929741038377    0.0198971685821     
4500000000.0        0.00932583145397    0.0203488345834     0.990653037948      -0.0258346023761    0.990653037948      -0.0258346023761    0.00932583145397    0.0203488345834     
4600000000.0        0.00935470278579    0.0208004721117     0.990623375627      -0.0264082601942    0.990623375627      -0.0264082601942    0.00935470278579    0.0208004721117     
4700000000.0        0.00938402789463    0.0212520807181     0.990593244551      -0.0269818952304    0.990593244551      -0.0269818952304    0.00938402789463    0.0212520807181     
4800000000.0        0.00941381009174    0.0217036599505     0.990562641405      -0.0275555070845    0.990562641405      -0.0275555070845    0.00941381009174    0.0217036599505     
4900000000.0        0.00944405249942    0.0221552093532     0.990531563064      -0.0281290953519    0.990531563064      -0.0281290953519    0.00944405249942    0.0221552093532     
5000000000.0        0.00947475806476    0.0226067284681     0.990500006577      -0.0287026596237    0.990500006577      -0.0287026596237    0.00947475806477    0.0226067284681     
5100000000.0        0.00950592957227    0.0230582168344     0.990467969158      -0.0292761994873    0.990467969158      -0.0292761994873    0.00950592957227    0.0230582168344     
5200000000.0        0.00953756965519    0.0235096739887     0.990435448171      -0.0298497145264    0.990435448171      -0.0298497145264    0.00953756965519    0.0235096739887     
5300000000.0        0.00956968080601    0.023961099466      0.990402441121      -0.0304232043212    0.990402441121      -0.0304232043212    0.00956968080601    0.023961099466      
5400000000.0        0.00960226538595    0.0244124927988     0.990368945643      -0.030996668449     0.990368945643      -0.030996668449     0.00960226538595    0.0244124927988     
5500000000.0        0.00963532563369    0.0248638535182     0.990334959496      -0.0315701064841    0.990334959496      -0.0315701064841    0.00963532563369    0.0248638535182     
5600000000.0        0.00966886367341    0.0253151811537     0.990300480552      -0.0321435179979    0.990300480552      -0.0321435179979    0.00966886367341    0.0253151811537     
5700000000.0        0.00970288152213    0.0257664752333     0.990265506793      -0.0327169025594    0.990265506793      -0.0327169025594    0.00970288152213    0.0257664752333     
5800000000.0        0.00973738109646    0.0262177352839     0.990230036298      -0.0332902597353    0.990230036298      -0.0332902597353    0.00973738109646    0.0262177352839     
5900000000.0        0.0097723642189     0.026668960831      0.990194067242      -0.0338635890898    0.990194067242      -0.0338635890898    0.0097723642189     0.026668960831      
6000000000.0        0.00980783262352    0.0271201513995     0.990157597889      -0.0344368901853    0.990157597889      -0.0344368901853    0.00980783262352    0.0271201513995     
6100000000.0        0.00984378796136    0.027571306513      0.990120626584      -0.0350101625822    0.990120626584      -0.0350101625822    0.00984378796136    0.027571306513      
6200000000.0        0.00988023180529    0.0280224256949     0.990083151751      -0.0355834058391    0.990083151751      -0.0355834058391    0.00988023180529    0.0280224256949     
6300000000.0        0.00991716565463    0.0284735084674     0.990045171889      -0.0361566195128    0.990045171889      -0.0361566195128    0.00991716565463    0.0284735084674     
6400000000.0        0.00995459093934    0.0289245543526     0.990006685564      -0.0367298031587    0.990006685564      -0.0367298031587    0.00995459093934    0.0289245543526     
6500000000.0        0.00999250902395    0.029375562872      0.989967691409      -0.0373029563307    0.989967691409      -0.0373029563307    0.00999250902395    0.029375562872      
6600000000.0        0.0100309212113     0.0298265335465     0.989928188118      -0.0378760785814    0.989928188118      -0.0378760785814    0.0100309212113     0.0298265335465     
6700000000.0        0.0100698287457     0.0302774658972     0.989888174443      -0.038449169462     0.989888174443      -0.038449169462     0.0100698287457     0.0302774658972     
6800000000.0        0.0101092328165     0.0307283594447     0.989847649194      -0.0390222285228    0.989847649194      -0.0390222285228    0.0101092328165     0.0307283594447     
6900000000.0        0.0101491345607     0.0311792137094     0.989806611229      -0.0395952553129    0.989806611229      -0.0395952553129    0.0101491345607     0.0311792137094     
7000000000.0        0.0101895350659     0.031630028212      0.989765059458      -0.0401682493804    0.989765059458      -0.0401682493804    0.0101895350659     0.031630028212      
7100000000.0        0.0102304353727     0.0320808024728     0.989722992838      -0.0407412102724    0.989722992838      -0.0407412102724    0.0102304353727     0.0320808024728     
7200000000.0        0.0102718364772     0.0325315360123     0.989680410369      -0.0413141375353    0.989680410369      -0.0413141375353    0.0102718364772     0.0325315360123     
7300000000.0        0.0103137393336     0.0329822283514     0.989637311094      -0.0418870307147    0.989637311094      -0.0418870307147    0.0103137393336     0.0329822283514     
7400000000.0        0.0103561448556     0.0334328790107     0.989593694097      -0.0424598893555    0.989593694097      -0.0424598893555    0.0103561448556     0.0334328790107     
7500000000.0        0.0103990539192     0.0338834875114     0.989549558498      -0.0430327130019    0.989549558498      -0.0430327130019    0.0103990539192     0.0338834875114     
7600000000.0        0.0104424673638     0.0343340533748     0.989504903455      -0.0436055011977    0.989504903455      -0.0436055011977    0.0104424673638     0.0343340533748     
7700000000.0        0.0104863859946     0.0347845761226     0.989459728161      -0.0441782534858    0.989459728161      -0.0441782534858    0.0104863859946     0.0347845761226     
7800000000.0        0.0105308105838     0.0352350552767     0.989414031839      -0.044750969409     0.989414031839      -0.044750969409     0.0105308105838     0.0352350552767     
7900000000.0        0.0105757418724     0.0356854903595     0.989367813746      -0.0453236485095    0.989367813746      -0.0453236485095    0.0105757418724     0.0356854903595     
8000000000.0        0.0106211805716     0.0361358808939     0.989321073167      -0.0458962903291    0.989321073167      -0.0458962903291    0.0106211805716     0.0361358808939     
8100000000.0        0.0106671273642     0.0365862264031     0.989273809417      -0.0464688944093    0.989273809417      -0.0464688944093    0.0106671273642     0.0365862264031     
8200000000.0        0.0107135829057     0.037036526411      0.989226021838      -0.0470414602913    0.989226021838      -0.0470414602913    0.0107135829057     0.037036526411      
8300000000.0        0.010760547826      0.0374867804417     0.989177709795      -0.047613987516     0.989177709795      -0.047613987516     0.010760547826      0.0374867804417     
8400000000.0        0.0108080227299     0.0379369880202     0.989128872683      -0.0481864756241    0.989128872683      -0.0481864756241    0.0108080227299     0.0379369880202     
8500000000.0        0.0108560081988     0.0383871486719     0.989079509915      -0.0487589241562    0.989079509915      -0.0487589241562    0.0108560081988     0.0383871486719     
8600000000.0        0.0109045047915     0.0388372619229     0.989029620931      -0.0493313326526    0.989029620931      -0.0493313326526    0.0109045047915     0.0388372619229     
8700000000.0        0.010953513045      0.0392873272997     0.988979205189      -0.0499037006535    0.988979205189      -0.0499037006535    0.010953513045      0.0392873272997     
8800000000.0        0.0110030334758     0.0397373443297     0.988928262172      -0.0504760276991    0.988928262172      -0.0504760276991    0.0110030334758     0.0397373443297     
8900000000.0        0.0110530665804     0.0401873125409     0.988876791379      -0.0510483133296    0.988876791379      -0.0510483133296    0.0110530665804     0.0401873125409     
9000000000.0        0.0111036128364     0.0406372314619     0.98882479233       -0.0516205570848    0.98882479233       -0.0516205570848    0.0111036128364     0.0406372314619     
9100000000.0        0.0111546727033     0.0410871006222     0.988772264561      -0.052192758505     0.988772264561      -0.052192758505     0.0111546727033     0.0410871006222     
9200000000.0        0.0112062466231     0.0415369195517     0.988719207629      -0.0527649171302    0.988719207629      -0.0527649171302    0.0112062466231     0.0415369195517     
9300000000.0        0.011258335021      0.0419866877814     0.988665621105      -0.0533370325003    0.988665621105      -0.0533370325003    0.011258335021      0.0419866877814     
9400000000.0        0.0113109383064     0.0424364048428     0.988611504577      -0.0539091041557    0.988611504577      -0.0539091041557    0.0113109383064     0.0424364048428     
9500000000.0        0.0113640568729     0.0428860702682     0.988556857647      -0.0544811316366    0.988556857647      -0.0544811316366    0.0113640568729     0.0428860702682     
9600000000.0        0.0114176910998     0.0433356835909     0.988501679935      -0.0550531144832    0.988501679935      -0.0550531144832    0.0114176910998     0.0433356835909     
9700000000.0        0.0114718413518     0.0437852443447     0.988445971071      -0.0556250522361    0.988445971071      -0.0556250522361    0.0114718413518     0.0437852443447     
9800000000.0        0.0115265079803     0.0442347520643     0.988389730702      -0.0561969444357    0.988389730702      -0.0561969444357    0.0115265079803     0.0442347520643     
9900000000.0        0.0115816913233     0.0446842062854     0.988332958486      -0.056768790623     0.988332958486      -0.056768790623     0.0115816913233     0.0446842062854     
10000000000.0       0.0116373917064     0.0451336065442     0.988275654096      -0.0573405903387    0.988275654096      -0.0573405903387    0.0116373917064     0.0451336065442     
