# Hz S RI R 50.00 
100000000.0         0.000295940638342   -0.000560057944143  0.999697466832      -0.00196347344003   0.999697466832      -0.00196347344003   0.000295940638343   -0.000560057944143  
200000000.0         0.000293449242132   -0.00112014669802   0.999687996186      -0.00392699963349   0.999687996186      -0.00392699963349   0.000293449242131   -0.00112014669802   
300000000.0         0.000288235717898   -0.00168027521739   0.999674876938      -0.00589060830929   0.999674876938      -0.00589060830929   0.000288235717898   -0.00168027521739   
400000000.0         0.000280557773532   -0.00224044885703   0.999657849814      -0.00785431868663   0.999657849814      -0.00785431868663   0.000280557773532   -0.00224044885703   
500000000.0         0.000270513953297   -0.00280067066473   0.999636814431      -0.00981814502931   0.999636814431      -0.00981814502931   0.000270513953297   -0.00280067066473   
600000000.0         0.000258153967488   -0.00336094205242   0.999611719025      -0.011782098401     0.999611719025      -0.011782098401     0.000258153967488   -0.00336094205242   
700000000.0         0.000243506720625   -0.00392126317219   0.999582532456      -0.0137461875353    0.999582532456      -0.0137461875353    0.000243506720624   -0.00392126317219   
800000000.0         0.000226590537445   -0.0044816331552    0.999549234014      -0.0157104193516    0.999549234014      -0.0157104193516    0.000226590537445   -0.0044816331552    
900000000.0         0.000207417716329   -0.00504205027484   0.999511808886      -0.0176747992918    0.999511808886      -0.0176747992918    0.000207417716329   -0.00504205027484   
1000000000.0        0.000185996838593   -0.00560251206568   0.999470245869      -0.0196393315574    0.999470245869      -0.0196393315574    0.000185996838593   -0.00560251206568   
1100000000.0        0.000162334053663   -0.00616301541372   0.9994245361        -0.0216040192845    0.9994245361        -0.0216040192845    0.000162334053663   -0.00616301541372   
1200000000.0        0.00013643384626    -0.00672355662696   0.999374672304      -0.0235688646774    0.999374672304      -0.0235688646774    0.00013643384626    -0.00672355662696   
1300000000.0        0.000108299520371   -0.00728413149257   0.999320648327      -0.0255338691144    0.999320648327      -0.0255338691144    0.000108299520371   -0.00728413149257   
1400000000.0        7.79335184771e-05   -0.00784473532378   0.999262458824      -0.0274990332332    0.999262458824      -0.0274990332332    7.79335184775e-05   -0.00784473532378   
1500000000.0        4.5337640096e-05    -0.00840536299938   0.999200099052      -0.0294643570014    0.999200099052      -0.0294643570014    4.5337640096e-05    -0.00840536299938   
1600000000.0        1.05131961514e-05   -0.0089660089972    0.999133564728      -0.0314298397758    0.999133564728      -0.0314298397758    1.05131961516e-05   -0.0089660089972    
1700000000.0        -2.65388789973e-05  -0.00952666742319   0.999062851926      -0.033395480352     0.999062851926      -0.033395480352     -2.65388789972e-05  -0.00952666742319   
1800000000.0        -6.58179443256e-05  -0.0100873320367    0.998987956997      -0.0353612770085    0.998987956997      -0.0353612770085    -6.58179443255e-05  -0.0100873320367    
1900000000.0        -0.000107323589005  -0.0106479962729    0.998908876522      -0.0373272275438    0.998908876522      -0.0373272275438    -0.000107323589005  -0.0106479962729    
2000000000.0        -0.000151055583623  -0.0112086532626    0.998825607263      -0.0392933293094    0.998825607263      -0.0392933293094    -0.000151055583623  -0.0112086532626    
2100000000.0        -0.000197013841847  -0.0117692958501    0.998738146135      -0.0412595792395    0.998738146135      -0.0412595792395    -0.000197013841847  -0.0117692958501    
2200000000.0        -0.000245198389869  -0.0123299166093    0.998646490182      -0.0432259738768    0.998646490182      -0.0432259738768    -0.000245198389869  -0.0123299166093    
2300000000.0        -0.000295609341681  -0.0128905078582    0.998550636558      -0.0451925093962    0.998550636558      -0.0451925093962    -0.000295609341681  -0.0128905078582    
2400000000.0        -0.000348246878848  -0.0134510616728    0.998450582508      -0.0471591816257    0.998450582508      -0.0471591816257    -0.000348246878847  -0.0134510616728    
2500000000.0        -0.000403111233747  -0.0140115698985    0.998346325365      -0.0491259860658    0.998346325365      -0.0491259860658    -0.000403111233747  -0.0140115698985    
2600000000.0        -0.000460202675544  -0.0145720241622    0.998237862534      -0.0510929179073    0.998237862534      -0.0510929179073    -0.000460202675544  -0.0145720241622    
2700000000.0        -0.000519521498335  -0.0151324158824    0.998125191487      -0.053059972047     0.998125191487      -0.053059972047     -0.000519521498335  -0.0151324158824    
2800000000.0        -0.000581068011037  -0.0156927362788    0.998008309759      -0.0550271431028    0.998008309759      -0.0550271431028    -0.000581068011037  -0.0156927362788    
2900000000.0        -0.000644842528685  -0.0162529763818    0.997887214938      -0.0569944254271    0.997887214938      -0.0569944254271    -0.000644842528685  -0.0162529763818    
3000000000.0        -0.000710845364892  -0.0168131270408    0.997761904671      -0.05896181312      0.997761904671      -0.05896181312      -0.000710845364892  -0.0168131270408    
3100000000.0        -0.000779076825266  -0.0173731789321    0.997632376652      -0.0609293000405    0.997632376652      -0.0609293000405    -0.000779076825266  -0.0173731789321    
3200000000.0        -0.000849537201618  -0.0179331225662    0.997498628623      -0.062896879818     0.997498628623      -0.062896879818     -0.000849537201618  -0.0179331225662    
3300000000.0        -0.000922226766839  -0.0184929482956    0.997360658375      -0.0648645458623    0.997360658375      -0.0648645458623    -0.000922226766839  -0.0184929482956    
3400000000.0        -0.000997145770348  -0.0190526463204    0.997218463744      -0.0668322913733    0.997218463744      -0.0668322913733    -0.000997145770348  -0.0190526463204    
3500000000.0        -0.00107429443401   -0.0196122066957    0.997072042609      -0.0688001093501    0.997072042609      -0.0688001093501    -0.00107429443401   -0.0196122066957    
3600000000.0        -0.00115367294847   -0.0201716193367    0.996921392895      -0.0707679925994    0.996921392895      -0.0707679925994    -0.00115367294847   -0.0201716193367    
3700000000.0        -0.00123528146985   -0.020730874025     0.996766512569      -0.0727359337438    0.996766512569      -0.0727359337438    -0.00123528146985   -0.020730874025     
3800000000.0        -0.00131912011674   -0.0212899604137    0.996607399641      -0.0747039252291    0.996607399641      -0.0747039252291    -0.00131912011674   -0.0212899604137    
3900000000.0        -0.00140518896746   -0.0218488680327    0.996444052164      -0.0766719593318    0.996444052164      -0.0766719593318    -0.00140518896746   -0.0218488680327    
4000000000.0        -0.00149348805758   -0.0224075862936    0.996276468235      -0.0786400281654    0.996276468235      -0.0786400281654    -0.00149348805758   -0.0224075862936    
4100000000.0        -0.00158401737761   -0.0229661044943    0.996104645992      -0.0806081236876    0.996104645992      -0.0806081236876    -0.00158401737761   -0.0229661044943    
4200000000.0        -0.00167677687089   -0.0235244118238    0.995928583618      -0.0825762377059    0.995928583618      -0.0825762377059    -0.00167677687089   -0.0235244118238    
4300000000.0        -0.00177176643166   -0.0240824973661    0.995748279337      -0.0845443618837    0.995748279337      -0.0845443618837    -0.00177176643166   -0.0240824973661    
4400000000.0        -0.00186898590326   -0.0246403501047    0.99556373142       -0.0865124877456    0.99556373142       -0.0865124877456    -0.00186898590326   -0.0246403501047    
4500000000.0        -0.00196843507646   -0.0251979589264    0.995374938177      -0.0884806066834    0.995374938177      -0.0884806066834    -0.00196843507646   -0.0251979589264    
4600000000.0        -0.00207011368793   -0.0257553126253    0.995181897967      -0.0904487099603    0.995181897967      -0.0904487099603    -0.00207011368793   -0.0257553126253    
4700000000.0        -0.00217402141875   -0.0263123999063    0.994984609189      -0.0924167887167    0.994984609189      -0.0924167887167    -0.00217402141875   -0.0263123999063    
4800000000.0        -0.00228015789314   -0.0268692093886    0.994783070291      -0.0943848339739    0.994783070291      -0.0943848339739    -0.00228015789314   -0.0268692093886    
4900000000.0        -0.00238852267714   -0.0274257296092    0.994577279762      -0.0963528366394    0.994577279762      -0.0963528366394    -0.00238852267714   -0.0274257296092    
5000000000.0        -0.00249911527748   -0.0279819490264    0.994367236139      -0.098320787511     0.994367236139      -0.098320787511     -0.00249911527748   -0.0279819490264    
5100000000.0        -0.00261193514047   -0.0285378560226    0.994152938006      -0.10028867728      0.994152938006      -0.10028867728      -0.00261193514047   -0.0285378560226    
5200000000.0        -0.00272698165096   -0.0290934389077    0.99393438399       -0.102256496538     0.99393438399       -0.102256496538     -0.00272698165096   -0.0290934389077    
5300000000.0        -0.00284425413139   -0.0296486859217    0.993711572766      -0.104224235775     0.993711572766      -0.104224235775     -0.00284425413139   -0.0296486859217    
5400000000.0        -0.00296375184086   -0.0302035852381    0.993484503059      -0.106191885391     0.993484503059      -0.106191885391     -0.00296375184086   -0.0302035852381    
5500000000.0        -0.00308547397433   -0.030758124966     0.993253173636      -0.108159435693     0.993253173636      -0.108159435693     -0.00308547397433   -0.030758124966     
5600000000.0        -0.00320941966175   -0.0313122931534    0.993017583316      -0.110126876899     0.993017583316      -0.110126876899     -0.00320941966175   -0.0313122931534    
5700000000.0        -0.00333558796735   -0.0318660777896    0.992777730965      -0.112094199147     0.992777730965      -0.112094199147     -0.00333558796735   -0.0318660777896    
5800000000.0        -0.00346397788892   -0.0324194668074    0.992533615497      -0.114061392491     0.992533615497      -0.114061392491     -0.00346397788892   -0.0324194668074    
5900000000.0        -0.00359458835714   -0.0329724480862    0.992285235874      -0.116028446908     0.992285235874      -0.116028446908     -0.00359458835714   -0.0329724480862    
6000000000.0        -0.00372741823494   -0.0335250094537    0.99203259111       -0.1179953523       0.99203259111       -0.1179953523       -0.00372741823494   -0.0335250094537    
6100000000.0        -0.00386246631693   -0.0340771386886    0.991775680265      -0.119962098497     0.991775680265      -0.119962098497     -0.00386246631693   -0.0340771386886    
6200000000.0        -0.00399973132882   -0.0346288235229    0.991514502451      -0.12192867526      0.991514502451      -0.12192867526      -0.00399973132882   -0.0346288235229    
6300000000.0        -0.00413921192692   -0.0351800516438    0.991249056829      -0.123895072284     0.991249056829      -0.123895072284     -0.00413921192692   -0.0351800516438    
6400000000.0        -0.0042809066976    -0.035730810696     0.990979342612      -0.125861279197     0.990979342612      -0.125861279197     -0.0042809066976    -0.035730810696     
6500000000.0        -0.00442481415687   -0.0362810882837    0.990705359061      -0.12782728557      0.990705359061      -0.12782728557      -0.00442481415687   -0.0362810882837    
6600000000.0        -0.00457093274992   -0.0368308719727    0.990427105491      -0.129793080912     0.990427105491      -0.129793080912     -0.00457093274992   -0.0368308719727    
6700000000.0        -0.00471926085072   -0.0373801492921    0.990144581264      -0.131758654674     0.990144581264      -0.131758654674     -0.00471926085072   -0.0373801492921    
6800000000.0        -0.0048697967616    -0.0379289077367    0.989857785797      -0.133723996255     0.989857785797      -0.133723996255     -0.0048697967616    -0.0379289077367    
6900000000.0        -0.00502253871294   -0.0384771347682    0.989566718558      -0.135689095002     0.989566718558      -0.135689095002     -0.00502253871294   -0.0384771347682    
7000000000.0        -0.00517748486278   -0.0390248178175    0.989271379065      -0.137653940209     0.989271379065      -0.137653940209     -0.00517748486278   -0.0390248178175    
7100000000.0        -0.00533463329654   -0.0395719442863    0.98897176689       -0.139618521124     0.98897176689       -0.139618521124     -0.00533463329654   -0.0395719442863    
7200000000.0        -0.00549398202667   -0.0401185015489    0.988667881655      -0.141582826949     0.988667881655      -0.141582826949     -0.00549398202667   -0.0401185015489    
7300000000.0        -0.00565552899246   -0.0406644769535    0.988359723036      -0.143546846841     0.988359723036      -0.143546846841     -0.00565552899246   -0.0406644769535    
7400000000.0        -0.00581927205966   -0.0412098578245    0.988047290761      -0.145510569915     0.988047290761      -0.145510569915     -0.00581927205966   -0.0412098578245    
7500000000.0        -0.00598520902036   -0.0417546314635    0.987730584611      -0.147473985246     0.987730584611      -0.147473985246     -0.00598520902036   -0.0417546314635    
7600000000.0        -0.00615333759267   -0.0422987851512    0.987409604419      -0.14943708187      0.987409604419      -0.14943708187      -0.00615333759267   -0.0422987851512    
7700000000.0        -0.00632365542059   -0.0428423061487    0.987084350072      -0.151399848787     0.987084350072      -0.151399848787     -0.00632365542059   -0.0428423061487    
7800000000.0        -0.00649616007375   -0.0433851816994    0.986754821509      -0.153362274961     0.986754821509      -0.153362274961     -0.00649616007375   -0.0433851816994    
7900000000.0        -0.00667084904727   -0.0439273990297    0.986421018723      -0.155324349322     0.986421018723      -0.155324349322     -0.00667084904727   -0.0439273990297    
8000000000.0        -0.00684771976163   -0.0444689453513    0.98608294176       -0.15728606077      0.98608294176       -0.15728606077      -0.00684771976163   -0.0444689453513    
8100000000.0        -0.00702676956244   -0.045009807862     0.985740590718      -0.159247398173     0.985740590718      -0.159247398173     -0.00702676956244   -0.045009807862     
8200000000.0        -0.00720799572038   -0.0455499737474    0.985393965751      -0.161208350371     0.985393965751      -0.161208350371     -0.00720799572038   -0.0455499737474    
8300000000.0        -0.00739139543107   -0.0460894301818    0.985043067064      -0.163168906177     0.985043067064      -0.163168906177     -0.00739139543107   -0.0460894301818    
8400000000.0        -0.00757696581493   -0.0466281643301    0.984687894918      -0.165129054377     0.984687894918      -0.165129054377     -0.00757696581493   -0.0466281643301    
8500000000.0        -0.00776470391712   -0.0471661633487    0.984328449625      -0.167088783734     0.984328449625      -0.167088783734     -0.00776470391712   -0.0471661633487    
8600000000.0        -0.00795460670743   -0.0477034143867    0.983964731552      -0.169048082987     0.983964731552      -0.169048082987     -0.00795460670743   -0.0477034143867    
8700000000.0        -0.00814667108025   -0.0482399045874    0.98359674112       -0.171006940854     0.98359674112       -0.171006940854     -0.00814667108025   -0.0482399045874    
8800000000.0        -0.00834089385446   -0.0487756210895    0.983224478804      -0.172965346032     0.983224478804      -0.172965346032     -0.00834089385446   -0.0487756210895    
8900000000.0        -0.00853727177343   -0.0493105510278    0.982847945131      -0.174923287198     0.982847945131      -0.174923287198     -0.00853727177343   -0.0493105510278    
9000000000.0        -0.00873580150495   -0.0498446815351    0.982467140683      -0.176880753015     0.982467140683      -0.176880753015     -0.00873580150495   -0.0498446815351    
9100000000.0        -0.00893647964121   -0.0503779997428    0.982082066096      -0.178837732124     0.982082066096      -0.178837732124     -0.00893647964121   -0.0503779997428    
9200000000.0        -0.0091393026988    -0.050910492782     0.981692722058      -0.180794213154     0.981692722058      -0.180794213154     -0.0091393026988    -0.050910492782     
9300000000.0        -0.00934426711868   -0.0514421477852    0.981299109313      -0.18275018472      0.981299109313      -0.18275018472      -0.00934426711868   -0.0514421477852    
9400000000.0        -0.00955136926619   -0.0519729518865    0.980901228657      -0.184705635421     0.980901228657      -0.184705635421     -0.00955136926619   -0.0519729518865    
9500000000.0        -0.00976060543107   -0.0525028922234    0.980499080941      -0.186660553847     0.980499080941      -0.186660553847     -0.00976060543107   -0.0525028922234    
9600000000.0        -0.00997197182748   -0.0530319559375    0.980092667067      -0.188614928575     0.980092667067      -0.188614928575     -0.00997197182748   -0.0530319559375    
9700000000.0        -0.010185464594     -0.0535601301756    0.979681987994      -0.190568748173     0.979681987994      -0.190568748173     -0.010185464594     -0.0535601301756    
9800000000.0        -0.0104010797937    -0.0540874020906    0.979267044733      -0.1925220012       0.979267044733      -0.1925220012       -0.0104010797937    -0.0540874020906    
9900000000.0        -0.0106188134142    -0.0546137588426    0.978847838348      -0.194474676207     0.978847838348      -0.194474676207     -0.0106188134142    -0.0546137588426    
10000000000.0       -0.0108386613676    -0.0551391875999    0.978424369956      -0.196426761738     0.978424369956      -0.196426761738     -0.0108386613676    -0.0551391875999    
