# Hz S RI R 50.00 
100000000.0         0.00746772509275    0.00239651752842    0.992527042178      -0.00452221338348   0.992527042178      -0.00452221338348   0.00746772509275    0.00239651752842    
200000000.0         0.00754886940116    0.00479212873014    0.992437134935      -0.0090435328666    0.992437134935      -0.0090435328666    0.00754886940116    0.00479212873014    
300000000.0         0.00763877159632    0.00718688320606    0.992333939165      -0.0135640193965    0.992333939165      -0.0135640193965    0.00763877159632    0.00718688320606    
400000000.0         0.00774385754494    0.00958065055696    0.99221102847       -0.0180835516266    0.99221102847       -0.0180835516266    0.00774385754494    0.00958065055696    
500000000.0         0.0078665943142     0.0119732587268     0.992065935146      -0.0226019653947    0.992065935146      -0.0226019653947    0.0078665943142     0.0119732587268     
600000000.0         0.00800823205113    0.0143645173736     0.991897408303      -0.027119077493     0.991897408303      -0.027119077493     0.00800823205113    0.0143645173736     
700000000.0         0.00816950096886    0.0167542262789     0.991704716876      -0.0316346942808    0.991704716876      -0.0316346942808    0.00816950096886    0.0167542262789     
800000000.0         0.00835086570515    0.0191421792644     0.991487395274      -0.0361486157231    0.991487395274      -0.0361486157231    0.00835086570515    0.0191421792644     
900000000.0         0.0085526385652     0.0215281663116     0.991245130132      -0.0406606375902    0.991245130132      -0.0406606375902    0.0085526385652     0.0215281663116     
1000000000.0        0.00877503691638    0.0239119748304     0.990977702923      -0.0451705527831    0.990977702923      -0.0451705527831    0.00877503691638    0.0239119748304     
1100000000.0        0.00901821509071    0.0262933904782     0.990684958056      -0.0496781521944    0.990684958056      -0.0496781521944    0.00901821509071    0.0262933904782     
1200000000.0        0.00928228339397    0.028672197721      0.990366783864      -0.0541832253005    0.990366783864      -0.0541832253005    0.00928228339397    0.028672197721      
1300000000.0        0.00956732006579    0.0310481802359     0.990023100653      -0.0586855605897    0.990023100653      -0.0586855605897    0.00956732006579    0.0310481802359     
1400000000.0        0.00987337914246    0.0334211212127     0.989653852831      -0.0631849458835    0.989653852831      -0.0631849458835    0.00987337914246    0.0334211212127     
1500000000.0        0.0102004958167     0.035790803587      0.989259003558      -0.0676811685864    0.989259003558      -0.0676811685864    0.0102004958167     0.035790803587      
1600000000.0        0.0105486902044     0.0381570102271     0.988838530974      -0.0721740158866    0.988838530974      -0.0721740158866    0.0105486902044     0.0381570102271     
1700000000.0        0.0109179700617     0.0405195240871     0.988392425485      -0.0766632749198    0.988392425485      -0.0766632749198    0.0109179700617     0.0405195240871     
1800000000.0        0.0113083327903     0.0428781283351     0.98792068776       -0.0811487329085    0.98792068776       -0.0811487329085    0.0113083327903     0.0428781283351     
1900000000.0        0.0117197669461     0.045232606464      0.98742332722       -0.0856301772807    0.98742332722       -0.0856301772807    0.0117197669461     0.045232606464      
2000000000.0        0.0121522533956     0.0475827423884     0.986900360885      -0.0901073957736    0.986900360885      -0.0901073957736    0.0121522533956     0.0475827423884     
2100000000.0        0.0126057662164     0.0499283205298     0.986351812473      -0.0945801765265    0.986351812473      -0.0945801765265    0.0126057662164     0.0499283205298     
2200000000.0        0.0130802734075     0.0522691258948     0.985777711691      -0.0990483081635    0.985777711691      -0.0990483081635    0.0130802734075     0.0522691258948     
2300000000.0        0.013575737459      0.0546049441452     0.985178093664      -0.10351157987      0.985178093664      -0.10351157987      0.013575737459      0.0546049441452     
2400000000.0        0.0140921158132     0.0569355616638     0.984552998477      -0.107969781461     0.984552998477      -0.107969781461     0.0140921158132     0.0569355616638     
2500000000.0        0.0146293612428     0.0592607656147     0.983902470796      -0.112422703447     0.983902470796      -0.112422703447     0.0146293612428     0.0592607656147     
2600000000.0        0.0151874221644     0.0615803440006     0.983226559554      -0.116870137097     0.983226559554      -0.116870137097     0.0151874221644     0.0615803440006     
2700000000.0        0.0157662429015     0.0638940857169     0.982525317692      -0.12131187449      0.982525317692      -0.12131187449      0.0157662429015     0.0638940857169     
2800000000.0        0.0163657639065     0.0662017806023     0.981798801934      -0.125747708574     0.981798801934      -0.125747708574     0.0163657639065     0.0662017806023     
2900000000.0        0.0169859219512     0.0685032194884     0.981047072597      -0.130177433217     0.981047072597      -0.130177433217     0.0169859219512     0.0685032194884     
3000000000.0        0.0176266502904     0.0707981942462     0.980270193431      -0.134600843254     0.980270193431      -0.134600843254     0.0176266502904     0.0707981942462     
3100000000.0        0.0182878788051     0.0730864978311     0.979468231471      -0.139017734537     0.979468231471      -0.139017734537     0.0182878788051     0.0730864978311     
3200000000.0        0.0189695341275     0.0753679243269     0.978641256919      -0.14342790398      0.978641256919      -0.14342790398      0.0189695341275     0.0753679243269     
3300000000.0        0.0196715397531     0.0776422689873     0.977789343027      -0.147831149601     0.977789343027      -0.147831149601     0.0196715397531     0.0776422689873     
3400000000.0        0.0203938161393     0.079909328277      0.976912565999      -0.152227270567     0.976912565999      -0.152227270567     0.0203938161393     0.079909328277      
3500000000.0        0.0211362807962     0.0821688999113     0.976011004903      -0.156616067234     0.976011004903      -0.156616067234     0.0211362807962     0.0821688999113     
3600000000.0        0.0218988483675     0.0844207828944     0.975084741591      -0.16099734119      0.975084741591      -0.16099734119      0.0218988483675     0.0844207828944     
3700000000.0        0.0226814307057     0.0866647775567     0.97413386062       -0.165370895286     0.97413386062       -0.165370895286     0.0226814307057     0.0866647775567     
3800000000.0        0.0234839369412     0.0889006855917     0.973158449186      -0.169736533683     0.973158449186      -0.169736533683     0.0234839369412     0.0889006855917     
3900000000.0        0.0243062735464     0.0911283100908     0.97215859706       -0.174094061884     0.97215859706       -0.174094061884     0.0243062735464     0.0911283100908     
4000000000.0        0.0251483443964     0.0933474555785     0.971134396527      -0.178443286769     0.971134396527      -0.178443286769     0.0251483443964     0.0933474555785     
4100000000.0        0.0260100508254     0.0955579280457     0.970085942331      -0.182784016631     0.970085942331      -0.182784016631     0.0260100508254     0.0955579280457     
4200000000.0        0.0268912916807     0.0977595349827     0.96901333162       -0.187116061211     0.96901333162       -0.187116061211     0.0268912916807     0.0977595349827     
4300000000.0        0.027791963374      0.0999520854115     0.967916663893      -0.191439231731     0.967916663893      -0.191439231731     0.027791963374      0.0999520854115     
4400000000.0        0.0287119599307     0.102135389917      0.966796040955      -0.195753340921     0.966796040955      -0.195753340921     0.0287119599307     0.102135389917      
4500000000.0        0.0296511730376     0.104309260677      0.965651566868      -0.20005820306      0.965651566868      -0.20005820306      0.0296511730376     0.104309260677      
4600000000.0        0.0306094920885     0.106473511492      0.964483347903      -0.204353633996     0.964483347903      -0.204353633996     0.0306094920885     0.106473511492      
4700000000.0        0.0315868042287     0.108627957817      0.9632914925        -0.208639451183     0.9632914925        -0.208639451183     0.0315868042287     0.108627957817      
4800000000.0        0.0325829943992     0.110772416784      0.962076111221      -0.212915473708     0.962076111221      -0.212915473708     0.0325829943992     0.110772416784      
4900000000.0        0.0335979453782     0.112906707235      0.960837316709      -0.217181522316     0.960837316709      -0.217181522316     0.0335979453782     0.112906707235      
5000000000.0        0.0346315378238     0.115030649746      0.959575223644      -0.221437419444     0.959575223644      -0.221437419444     0.0346315378238     0.115030649746      
5100000000.0        0.0356836503141     0.117144066653      0.958289948709      -0.22568298924      0.958289948709      -0.22568298924      0.0356836503141     0.117144066653      
5200000000.0        0.0367541593885     0.119246782081      0.956981610541      -0.229918057594     0.956981610541      -0.229918057594     0.0367541593885     0.119246782081      
5300000000.0        0.037842939587      0.121338621963      0.955650329697      -0.234142452163     0.955650329697      -0.234142452163     0.037842939587      0.121338621963      
5400000000.0        0.0389498634899     0.123419414068      0.954296228613      -0.238356002391     0.954296228613      -0.238356002391     0.0389498634899     0.123419414068      
5500000000.0        0.0400748017568     0.125488988021      0.952919431563      -0.242558539539     0.952919431563      -0.242558539539     0.0400748017568     0.125488988021      
5600000000.0        0.0412176231657     0.127547175331      0.951520064625      -0.246749896702     0.951520064625      -0.246749896702     0.0412176231657     0.127547175331      
5700000000.0        0.0423781946511     0.129593809408      0.950098255637      -0.250929908836     0.950098255637      -0.250929908836     0.0423781946511     0.129593809408      
5800000000.0        0.0435563813427     0.131628725583      0.948654134162      -0.255098412775     0.948654134162      -0.255098412775     0.0435563813427     0.131628725583      
5900000000.0        0.0447520466032     0.133651761135      0.947187831452      -0.259255247255     0.947187831452      -0.259255247255     0.0447520466032     0.133651761135      
6000000000.0        0.0459650520665     0.135662755305      0.945699480404      -0.263400252934     0.945699480404      -0.263400252934     0.0459650520665     0.135662755305      
6100000000.0        0.0471952576753     0.137661549316      0.944189215527      -0.267533272408     0.944189215527      -0.267533272408     0.0471952576753     0.137661549316      
6200000000.0        0.0484425217189     0.139647986393      0.942657172904      -0.271654150236     0.942657172904      -0.271654150236     0.0484425217189     0.139647986393      
6300000000.0        0.049706700871      0.14162191178       0.941103490151      -0.275762732949     0.941103490151      -0.275762732949     0.049706700871      0.14162191178       
6400000000.0        0.0509876502265     0.143583172756      0.939528306387      -0.279858869074     0.939528306387      -0.279858869074     0.0509876502265     0.143583172756      
6500000000.0        0.0522852233396     0.145531618654      0.937931762185      -0.28394240915      0.937931762185      -0.28394240915      0.0522852233396     0.145531618654      
6600000000.0        0.0535992722608     0.147467100871      0.936313999548      -0.28801320574      0.936313999548      -0.28801320574      0.0535992722608     0.147467100871      
6700000000.0        0.0549296475742     0.149389472891      0.934675161861      -0.292071113449     0.934675161861      -0.292071113449     0.0549296475742     0.149389472891      
6800000000.0        0.0562761984347     0.151298590292      0.93301539386       -0.296115988938     0.93301539386       -0.296115988938     0.0562761984347     0.151298590292      
6900000000.0        0.0576387726051     0.153194310763      0.931334841591      -0.300147690936     0.931334841591      -0.300147690936     0.0576387726051     0.153194310763      
7000000000.0        0.0590172164929     0.155076494116      0.929633652377      -0.304166080256     0.929633652377      -0.304166080256     0.0590172164929     0.155076494116      
7100000000.0        0.0604113751879     0.1569450023        0.927911974778      -0.308171019803     0.927911974778      -0.308171019803     0.0604113751879     0.1569450023        
7200000000.0        0.0618210924985     0.158799699409      0.926169958556      -0.312162374591     0.926169958556      -0.312162374591     0.0618210924985     0.158799699409      
7300000000.0        0.0632462109886     0.160640451695      0.924407754635      -0.31614001175      0.924407754635      -0.31614001175      0.0632462109886     0.160640451695      
7400000000.0        0.0646865720149     0.162467127579      0.922625515068      -0.320103800534     0.922625515068      -0.320103800534     0.0646865720149     0.162467127579      
7500000000.0        0.066142015763      0.16427959766       0.920823392998      -0.324053612339     0.920823392998      -0.324053612339     0.066142015763      0.16427959766       
7600000000.0        0.0676123812841     0.166077734721      0.919001542623      -0.327989320703     0.919001542623      -0.327989320703     0.0676123812841     0.166077734721      
7700000000.0        0.0690975065317     0.167861413741      0.917160119157      -0.331910801319     0.917160119157      -0.331910801319     0.0690975065317     0.167861413741      
7800000000.0        0.070597228398      0.169630511901      0.915299278796      -0.33581793204      0.915299278796      -0.33581793204      0.070597228398      0.169630511901      
7900000000.0        0.07211138275       0.171384908592      0.913419178681      -0.33971059289      0.913419178681      -0.33971059289      0.07211138275       0.171384908592      
8000000000.0        0.0736398044658     0.173124485419      0.911519976861      -0.343588666064     0.911519976861      -0.343588666064     0.0736398044658     0.173124485419      
8100000000.0        0.0751823274707     0.174849126206      0.909601832257      -0.347452035939     0.909601832257      -0.347452035939     0.0751823274707     0.174849126206      
8200000000.0        0.0767387847731     0.176558717007      0.907664904628      -0.351300589078     0.907664904628      -0.351300589078     0.0767387847731     0.176558717007      
8300000000.0        0.0783090085004     0.178253146103      0.90570935453       -0.355134214229     0.90570935453       -0.355134214229     0.0783090085004     0.178253146103      
8400000000.0        0.0798928299343     0.17993230401       0.903735343288      -0.358952802337     0.903735343288      -0.358952802337     0.0798928299343     0.17993230401       
8500000000.0        0.0814900795471     0.181596083481      0.901743032954      -0.362756246542     0.901743032954      -0.362756246542     0.0814900795471     0.181596083481      
8600000000.0        0.083100587036      0.183244379507      0.899732586273      -0.366544442179     0.899732586273      -0.366544442179     0.083100587036      0.183244379507      
8700000000.0        0.0847241813592     0.184877089323      0.89770416665       -0.370317286788     0.89770416665       -0.370317286788     0.0847241813592     0.184877089323      
8800000000.0        0.0863606907705     0.186494112404      0.895657938114      -0.374074680107     0.895657938114      -0.374074680107     0.0863606907705     0.186494112404      
8900000000.0        0.0880099428541     0.18809535047       0.893594065279      -0.377816524076     0.893594065279      -0.377816524076     0.0880099428541     0.18809535047       
9000000000.0        0.0896717645593     0.189680707483      0.891512713318      -0.381542722837     0.891512713318      -0.381542722837     0.0896717645593     0.189680707483      
9100000000.0        0.091345982235      0.191250089649      0.889414047919      -0.385253182733     0.889414047919      -0.385253182733     0.091345982235      0.191250089649      
9200000000.0        0.0930324216639     0.192803405415      0.887298235257      -0.388947812308     0.887298235257      -0.388947812308     0.0930324216639     0.192803405415      
9300000000.0        0.0947309080964     0.194340565469      0.885165441957      -0.392626522303     0.885165441957      -0.392626522303     0.0947309080964     0.194340565469      
9400000000.0        0.0964412662844     0.195861482736      0.883015835061      -0.396289225655     0.883015835061      -0.396289225655     0.0964412662844     0.195861482736      
9500000000.0        0.0981633205149     0.197366072378      0.880849581996      -0.399935837493     0.880849581996      -0.399935837493     0.0981633205149     0.197366072378      
9600000000.0        0.0998968946434     0.198854251786      0.878666850536      -0.403566275137     0.878666850536      -0.403566275137     0.0998968946434     0.198854251786      
9700000000.0        0.101641812127      0.200325940581      0.876467808776      -0.407180458091     0.876467808776      -0.407180458091     0.101641812127      0.200325940581      
9800000000.0        0.103397896056      0.201781060609      0.874252625089      -0.41077830804      0.874252625089      -0.41077830804      0.103397896056      0.201781060609      
9900000000.0        0.105164969189      0.203219535931      0.872021468106      -0.414359748846     0.872021468106      -0.414359748846     0.105164969189      0.203219535931      
10000000000.0       0.106942853982      0.204641292826      0.869774506671      -0.41792470654      0.869774506671      -0.41792470654      0.106942853982      0.204641292826      
