# Hz S RI R 50.00 
100000000.0         0.050421825874      0.00383433961784    0.94957409645       -0.00554075394986   0.94957409645       -0.00554075394986   0.050421825874      0.00383433961784    
200000000.0         0.0508042662385     0.00766178696541    0.94918561424       -0.011074631871     0.94918561424       -0.011074631871     0.0508042662385     0.00766178696541    
300000000.0         0.0511458680545     0.0114842443461     0.948835005558      -0.0166035508788    0.948835005558      -0.0166035508788    0.0511458680545     0.0114842443461     
400000000.0         0.0514883897728     0.0153019560666     0.948480511177      -0.0221277684117    0.948480511177      -0.0221277684117    0.0514883897728     0.0153019560666     
500000000.0         0.0518478998409     0.0191147820101     0.948106061853      -0.0276471566406    0.948106061853      -0.0276471566406    0.0518478998409     0.0191147820101     
600000000.0         0.0522325663451     0.0229224128274     0.94770348865       -0.0331614179528    0.94770348865       -0.0331614179528    0.0522325663451     0.0229224128274     
700000000.0         0.0526471825987     0.0267244473284     0.94726799734       -0.0386701624928    0.94726799734       -0.0386701624928    0.0526471825987     0.0267244473284     
800000000.0         0.0530948198481     0.0305204284787     0.946796515684      -0.0441729442485    0.946796515684      -0.0441729442485    0.0530948198481     0.0305204284787     
900000000.0         0.0535775635518     0.0343098628283     0.946286957154      -0.0496692805387    0.946286957154      -0.0496692805387    0.0535775635518     0.0343098628283     
1000000000.0        0.0540968867857     0.038092232103      0.945737847523      -0.0551586636456    0.945737847523      -0.0551586636456    0.0540968867857     0.038092232103      
1100000000.0        0.0546538579291     0.0418670006469     0.945148117174      -0.0606405682883    0.945148117174      -0.0606405682883    0.0546538579291     0.0418670006469     
1200000000.0        0.0552492644957     0.0456336204811     0.944516977273      -0.0661144567038    0.944516977273      -0.0661144567038    0.0552492644957     0.0456336204811     
1300000000.0        0.0558836910995     0.0493915349038     0.943843841796      -0.0715797822665    0.943843841796      -0.0715797822665    0.0558836910995     0.0493915349038     
1400000000.0        0.0565575707485     0.0531401811541     0.943128276242      -0.0770359921661    0.943128276242      -0.0770359921661    0.0565575707485     0.0531401811541     
1500000000.0        0.0572712198399     0.0568789924476     0.942369962629      -0.082482529455     0.942369962629      -0.082482529455     0.0572712198399     0.0568789924476     
1600000000.0        0.0580248627769     0.0606073995773     0.941568674885      -0.0879188346602    0.941568674885      -0.0879188346602    0.0580248627769     0.0606073995773     
1700000000.0        0.058818649747      0.0643248322053     0.940724261063      -0.0933443470823    0.940724261063      -0.0933443470823    0.058818649747      0.0643248322053     
1800000000.0        0.0596526698565     0.0680307199266     0.93983663021       -0.0987585058671    0.93983663021       -0.0987585058671    0.0596526698565     0.0680307199266     
1900000000.0        0.0605269610328     0.0717244931642     0.938905742463      -0.104160750907     0.938905742463      -0.104160750907     0.0605269610328     0.0717244931642     
2000000000.0        0.0614415176256     0.0754055839349     0.937931601451      -0.109550523613     0.937931601451      -0.109550523613     0.0614415176256     0.0754055839349     
2100000000.0        0.0623962963368     0.0790734265134     0.936914248358      -0.114927267582     0.936914248358      -0.114927267582     0.0623962963368     0.0790734265134     
2200000000.0        0.063391220917      0.0827274580183     0.935853757235      -0.120290429187     0.935853757235      -0.120290429187     0.063391220917      0.0827274580183     
2300000000.0        0.0644261859363     0.086367118933      0.934750231223      -0.125639458104     0.934750231223      -0.125639458104     0.0644261859363     0.086367118933      
2400000000.0        0.0655010598512     0.089991853575      0.933603799489      -0.130973807783     0.933603799489      -0.130973807783     0.0655010598512     0.089991853575      
2500000000.0        0.0666156875298     0.093601110522      0.932414614699      -0.136292935877     0.932414614699      -0.136292935877     0.0666156875298     0.093601110522      
2600000000.0        0.0677698923553     0.0971943430018     0.931182850918      -0.141596304635     0.931182850918      -0.141596304635     0.0677698923553     0.0971943430018     
2700000000.0        0.0689634779968     0.100771009251      0.929908701835      -0.146883381263     0.929908701835      -0.146883381263     0.0689634779968     0.100771009251      
2800000000.0        0.0701962299172     0.104330572848      0.928592379258      -0.15215363826      0.928592379258      -0.15215363826      0.0701962299172     0.104330572848      
2900000000.0        0.0714679166703     0.107872503021      0.927234111813      -0.157406553729     0.927234111813      -0.157406553729     0.0714679166703     0.107872503021      
3000000000.0        0.072778291027      0.111396274939      0.925834143826      -0.162641611665     0.925834143826      -0.162641611665     0.072778291027      0.111396274939      
3100000000.0        0.0741270909634     0.114901369981      0.924392734326      -0.167858302232     0.924392734326      -0.167858302232     0.0741270909634     0.114901369981      
3200000000.0        0.0755140405357     0.118387275988      0.922910156174      -0.173056122014     0.922910156174      -0.173056122014     0.0755140405357     0.118387275988      
3300000000.0        0.0769388506621     0.121853487507      0.921386695281      -0.178234574261     0.921386695281      -0.178234574261     0.0769388506621     0.121853487507      
3400000000.0        0.0784012198269     0.125299506012      0.919822649906      -0.183393169108     0.919822649906      -0.183393169108     0.0784012198269     0.125299506012      
3500000000.0        0.0799008347208     0.128724840117      0.918218330011      -0.188531423798     0.918218330011      -0.188531423798     0.0799008347208     0.128724840117      
3600000000.0        0.0814373708274     0.132129005779      0.916574056677      -0.193648862874     0.916574056677      -0.193648862874     0.0814373708274     0.132129005779      
3700000000.0        0.0830104929644     0.135511526482      0.914890161565      -0.198745018376     0.914890161565      -0.198745018376     0.0830104929644     0.135511526482      
3800000000.0        0.0846198557862     0.138871933422      0.913166986409      -0.203819430018     0.913166986409      -0.203819430018     0.0846198557862     0.138871933422      
3900000000.0        0.0862651042549     0.142209765667      0.911404882549      -0.208871645357     0.911404882549      -0.208871645357     0.0862651042549     0.142209765667      
4000000000.0        0.0879458740828     0.145524570321      0.909604210484      -0.213901219949     0.909604210484      -0.213901219949     0.0879458740828     0.145524570321      
4100000000.0        0.0896617921515     0.148815902672      0.907765339458      -0.218907717506     0.907765339458      -0.218907717506     0.0896617921515     0.148815902672      
4200000000.0        0.0914124769106     0.152083326329      0.905888647057      -0.223890710029     0.905888647057      -0.223890710029     0.0914124769106     0.152083326329      
4300000000.0        0.0931975387588     0.155326413353      0.903974518832      -0.228849777943     0.903974518832      -0.228849777943     0.0931975387588     0.155326413353      
4400000000.0        0.0950165804093     0.158544744383      0.902023347928      -0.233784510218     0.902023347928      -0.233784510218     0.0950165804093     0.158544744383      
4500000000.0        0.0968691972423     0.161737908744      0.900035534738      -0.238694504486     0.900035534738      -0.238694504486     0.0968691972423     0.161737908744      
4600000000.0        0.0987549776448     0.164905504556      0.898011486555      -0.243579367144     0.898011486555      -0.243579367144     0.0987549776448     0.164905504556      
4700000000.0        0.100673503341      0.16804713883       0.895951617252      -0.248438713455     0.895951617252      -0.248438713455     0.100673503341      0.16804713883       
4800000000.0        0.102624349713      0.171162427558      0.89385634695       -0.253272167635     0.89385634695       -0.253272167635     0.102624349713      0.171162427558      
4900000000.0        0.104607086112      0.174250995796      0.891726101716      -0.258079362938     0.891726101716      -0.258079362938     0.104607086112      0.174250995796      
5000000000.0        0.106621276164      0.177312477737      0.889561313251      -0.262859941731     0.889561313251      -0.262859941731     0.106621276164      0.177312477737      
5100000000.0        0.108666478068      0.180346516775      0.887362418597      -0.267613555557     0.887362418597      -0.267613555557     0.108666478068      0.180346516775      
5200000000.0        0.110742244885      0.183352765572      0.885129859839      -0.272339865203     0.885129859839      -0.272339865203     0.110742244885      0.183352765572      
5300000000.0        0.112848124828      0.186330886104      0.882864083828      -0.277038540744     0.882864083828      -0.277038540744     0.112848124828      0.186330886104      
5400000000.0        0.114983661539      0.189280549709      0.880565541893      -0.281709261597     0.880565541893      -0.281709261597     0.114983661539      0.189280549709      
5500000000.0        0.117148394365      0.192201437125      0.878234689569      -0.286351716555     0.878234689569      -0.286351716555     0.117148394365      0.192201437125      
5600000000.0        0.119341858627      0.195093238525      0.875871986325      -0.290965603821     0.875871986325      -0.290965603821     0.119341858627      0.195093238525      
5700000000.0        0.12156358589       0.197955653537      0.873477895301      -0.295550631035     0.873477895301      -0.295550631035     0.12156358589       0.197955653537      
5800000000.0        0.123813104221      0.200788391265      0.871052883041      -0.30010651529      0.871052883041      -0.30010651529      0.123813104221      0.200788391265      
5900000000.0        0.126089938447      0.203591170306      0.868597419243      -0.304632983148     0.868597419243      -0.304632983148     0.126089938447      0.203591170306      
6000000000.0        0.128393610407      0.206363718748      0.866111976497      -0.309129770644     0.866111976497      -0.309129770644     0.128393610407      0.206363718748      
6100000000.0        0.130723639204      0.209105774176      0.863597030045      -0.31359662329      0.863597030045      -0.31359662329      0.130723639204      0.209105774176      
6200000000.0        0.133079541446      0.211817083665      0.861053057528      -0.318033296065     0.861053057528      -0.318033296065     0.133079541446      0.211817083665      
6300000000.0        0.135460831492      0.214497403768      0.858480538749      -0.322439553407     0.858480538749      -0.322439553407     0.135460831492      0.214497403768      
6400000000.0        0.137867021684      0.217146500498      0.855879955436      -0.326815169194     0.855879955436      -0.326815169194     0.137867021684      0.217146500498      
6500000000.0        0.140297622582      0.219764149304      0.853251791006      -0.331159926722     0.853251791006      -0.331159926722     0.140297622582      0.219764149304      
6600000000.0        0.142752143196      0.222350135048      0.850596530337      -0.335473618679     0.850596530337      -0.335473618679     0.142752143196      0.222350135048      
6700000000.0        0.14523009121       0.224904251965      0.847914659541      -0.339756047108     0.847914659541      -0.339756047108     0.14523009121       0.224904251965      
6800000000.0        0.147730973199      0.227426303626      0.845206665745      -0.344007023368     0.845206665745      -0.344007023368     0.147730973199      0.227426303626      
6900000000.0        0.150254294856      0.229916102897      0.84247303687       -0.348226368097     0.84247303687       -0.348226368097     0.150254294856      0.229916102897      
7000000000.0        0.152799561197      0.232373471885      0.839714261419      -0.352413911154     0.839714261419      -0.352413911154     0.152799561197      0.232373471885      
7100000000.0        0.155366276775      0.234798241892      0.836930828263      -0.356569491573     0.836930828263      -0.356569491573     0.155366276775      0.234798241892      
7200000000.0        0.157953945887      0.23719025335       0.834123226443      -0.360692957504     0.834123226443      -0.360692957504     0.157953945887      0.23719025335       
7300000000.0        0.160562072774      0.239549355759      0.831291944958      -0.364784166146     0.831291944958      -0.364784166146     0.160562072774      0.239549355759      
7400000000.0        0.163190161817      0.241875407627      0.828437472574      -0.368842983686     0.828437472574      -0.368842983686     0.163190161817      0.241875407627      
7500000000.0        0.165837717734      0.244168276391      0.825560297627      -0.372869285226     0.825560297627      -0.372869285226     0.165837717734      0.244168276391      
7600000000.0        0.168504245771      0.246427838347      0.822660907834      -0.376862954708     0.822660907834      -0.376862954708     0.168504245771      0.246427838347      
7700000000.0        0.171189251882      0.248653978568      0.819739790106      -0.380823884834     0.819739790106      -0.380823884834     0.171189251882      0.248653978568      
7800000000.0        0.173892242916      0.250846590824      0.816797430367      -0.384751976987     0.816797430367      -0.384751976987     0.173892242916      0.250846590824      
7900000000.0        0.17661272679       0.253005577495      0.813834313376      -0.388647141143     0.813834313376      -0.388647141143     0.17661272679       0.253005577495      
8000000000.0        0.179350212668      0.255130849481      0.810850922553      -0.392509295781     0.810850922553      -0.392509295781     0.179350212668      0.255130849481      
8100000000.0        0.182104211124      0.257222326111      0.807847739812      -0.39633836779      0.807847739812      -0.39633836779      0.182104211124      0.257222326111      
8200000000.0        0.184874234308      0.259279935043      0.804825245393      -0.400134292378     0.804825245393      -0.400134292378     0.184874234308      0.259279935043      
8300000000.0        0.187659796111      0.261303612169      0.801783917702      -0.403897012964     0.801783917702      -0.403897012964     0.187659796111      0.261303612169      
8400000000.0        0.190460412315      0.263293301513      0.798724233157      -0.407626481088     0.798724233157      -0.407626481088     0.190460412315      0.263293301513      
8500000000.0        0.19327560075       0.265248955124      0.795646666031      -0.411322656294     0.795646666031      -0.411322656294     0.19327560075       0.265248955124      
8600000000.0        0.196104881439      0.267170532971      0.792551688307      -0.414985506034     0.792551688307      -0.414985506034     0.196104881439      0.267170532971      
8700000000.0        0.198947776742      0.269058002834      0.789439769533      -0.418615005553     0.789439769533      -0.418615005553     0.198947776742      0.269058002834      
8800000000.0        0.201803811498      0.270911340189      0.786311376685      -0.422211137778     0.786311376685      -0.422211137778     0.201803811498      0.270911340189      
8900000000.0        0.204672513156      0.2727305281        0.783166974026      -0.425773893205     0.783166974026      -0.425773893205     0.204672513156      0.2727305281        
9000000000.0        0.207553411906      0.274515557096      0.780007022981      -0.429303269783     0.780007022981      -0.429303269783     0.207553411906      0.274515557096      
9100000000.0        0.210446040811      0.27626642506       0.776831982005      -0.432799272797     0.776831982005      -0.432799272797     0.210446040811      0.27626642506       
9200000000.0        0.213349935922      0.277983137105      0.773642306464      -0.436261914746     0.773642306464      -0.436261914746     0.213349935922      0.277983137105      
9300000000.0        0.2162646364        0.279665705456      0.770438448515      -0.439691215225     0.770438448515      -0.439691215225     0.2162646364        0.279665705456      
9400000000.0        0.21918968463       0.281314149324      0.767220856992      -0.443087200805     0.767220856992      -0.443087200805     0.21918968463       0.281314149324      
9500000000.0        0.222124626331      0.282928494787      0.763989977295      -0.4464499049       0.763989977295      -0.4464499049       0.222124626331      0.282928494787      
9600000000.0        0.22506901066       0.28450877466       0.760746251286      -0.449779367651     0.760746251286      -0.449779367651     0.22506901066       0.28450877466       
9700000000.0        0.228022390311      0.286055028373      0.757490117186      -0.453075635798     0.757490117186      -0.453075635798     0.228022390311      0.286055028373      
9800000000.0        0.23098432162       0.287567301841      0.754222009476      -0.456338762549     0.754222009476      -0.456338762549     0.23098432162       0.287567301841      
9900000000.0        0.23395436465       0.289045647337      0.750942358805      -0.459568807456     0.750942358805      -0.459568807456     0.23395436465       0.289045647337      
10000000000.0       0.236932083287      0.290490123367      0.747651591902      -0.462765836286     0.747651591902      -0.462765836286     0.236932083287      0.290490123367      
