# Hz S RI R 50.00 
100000000.0         0.000348713990868   -0.00734174654998   0.999489917751      -0.00961729592616   0.999489917751      -0.00961729592616   0.000348713990868   -0.00734174654998   
200000000.0         0.000131526895649   -0.0146801494441    0.999259156309      -0.0192313320859    0.999259156309      -0.0192313320859    0.000131526895649   -0.0146801494441    
300000000.0         -0.000227455755719  -0.022011917352     0.998882896061      -0.0288388968783    0.998882896061      -0.0288388968783    -0.000227455755719  -0.022011917352     
400000000.0         -0.000727620030239  -0.0293337167878    0.998361009882      -0.0384367200785    0.998361009882      -0.0384367200785    -0.000727620030239  -0.0293337167878    
500000000.0         -0.00136847688      -0.0366421990344    0.997693700465      -0.0480215098413    0.997693700465      -0.0480215098413    -0.00136847688      -0.0366421990344    
600000000.0         -0.00214950338804   -0.0439340127767    0.996881343304      -0.0575899679196    0.996881343304      -0.0575899679196    -0.00214950338804   -0.0439340127767    
700000000.0         -0.00307010244053   -0.051205812651     0.995924446878      -0.0671387993977    0.995924446878      -0.0671387993977    -0.00307010244053   -0.051205812651     
800000000.0         -0.00412958829971   -0.0584542660381    0.994823637875      -0.0766647201499    0.994823637875      -0.0766647201499    -0.00412958829971   -0.0584542660381    
900000000.0         -0.00532718063174   -0.0656760589353    0.993579654187      -0.0861644631329    0.993579654187      -0.0861644631329    -0.00532718063174   -0.0656760589353    
1000000000.0        -0.00666200203624   -0.0728679012679    0.992193340812      -0.095634783984     0.992193340812      -0.095634783984     -0.00666200203624   -0.0728679012679    
1100000000.0        -0.00813307730219   -0.0800265318221    0.990665646953      -0.10507246616      0.990665646953      -0.10507246616      -0.00813307730219   -0.0800265318221    
1200000000.0        -0.00973933364497   -0.0871487228955    0.988997623619      -0.114474325745     0.988997623619      -0.114474325745     -0.00973933364497   -0.0871487228955    
1300000000.0        -0.0114796015725    -0.0942312847172    0.987190421396      -0.123837215986     0.987190421396      -0.123837215986     -0.0114796015725    -0.0942312847172    
1400000000.0        -0.0133526161971    -0.101271069669     0.985245288242      -0.133158031615     0.985245288242      -0.133158031615     -0.0133526161971    -0.101271069669     
1500000000.0        -0.0153570188902    -0.108264976327     0.983163567233      -0.142433712964     0.983163567233      -0.142433712964     -0.0153570188902    -0.108264976327     
1600000000.0        -0.017491359215     -0.115209953324     0.9809466942        -0.151661249896     0.9809466942        -0.151661249896     -0.017491359215     -0.115209953324     
1700000000.0        -0.0197540970968    -0.122103003051     0.978596195256      -0.160837685557     0.978596195256      -0.160837685557     -0.0197540970968    -0.122103003051     
1800000000.0        -0.0221436051998    -0.128941185187     0.976113684196      -0.169960119951     0.976113684196      -0.169960119951     -0.0221436051998    -0.128941185187     
1900000000.0        -0.024658171488     -0.135721620055     0.973500859766      -0.179025713342     0.973500859766      -0.179025713342     -0.024658171488     -0.135721620055     
2000000000.0        -0.0272960019515    -0.142441491823     0.970759502811      -0.188031689478     0.970759502811      -0.188031689478     -0.0272960019515    -0.142441491823     
2100000000.0        -0.0300552234819    -0.149098051513     0.967891473301      -0.19697533864      0.967891473301      -0.19697533864      -0.0300552234819    -0.149098051513     
2200000000.0        -0.0329338868824    -0.155688619847     0.964898707242      -0.205854020515     0.964898707242      -0.205854020515     -0.0329338868824    -0.155688619847     
2300000000.0        -0.0359299699996    -0.162210589916     0.961783213482      -0.214665166879     0.961783213482      -0.214665166879     -0.0359299699996    -0.162210589916     
2400000000.0        -0.0390413809623    -0.168661429656     0.958547070423      -0.223406284104     0.958547070423      -0.223406284104     -0.0390413809623    -0.168661429656     
2500000000.0        -0.0422659615187    -0.175038684159     0.955192422646      -0.232074955481     0.955192422646      -0.232074955481     -0.0422659615187    -0.175038684159     
2600000000.0        -0.0456014904553    -0.18133997778      0.951721477456      -0.240668843351     0.951721477456      -0.240668843351     -0.0456014904553    -0.18133997778      
2700000000.0        -0.0490456870907    -0.187563016075     0.94813650136       -0.249185691053     0.94813650136       -0.249185691053     -0.0490456870907    -0.187563016075     
2800000000.0        -0.0525962148285    -0.193705587543     0.944439816495      -0.257623324683     0.944439816495      -0.257623324683     -0.0525962148285    -0.193705587543     
2900000000.0        -0.0562506847612    -0.199765565181     0.940633797003      -0.265979654662     0.940633797003      -0.265979654662     -0.0562506847612    -0.199765565181     
3000000000.0        -0.0600066593125    -0.205740907855     0.936720865369      -0.274252677119     0.936720865369      -0.274252677119     -0.0600066593125    -0.205740907855     
3100000000.0        -0.0638616559081    -0.211629661487     0.932703488742      -0.282440475087     0.932703488742      -0.282440475087     -0.0638616559081    -0.211629661487     
3200000000.0        -0.0678131506628    -0.217429960048     0.928584175229      -0.290541219511     0.928584175229      -0.290541219511     -0.0678131506628    -0.217429960048     
3300000000.0        -0.0718585820768    -0.22314002638      0.924365470193      -0.298553170075     0.924365470193      -0.298553170075     -0.0718585820768    -0.22314002638      
3400000000.0        -0.0759953547273    -0.228758172828     0.92004995255       -0.306474675846     0.92004995255       -0.306474675846     -0.0759953547273    -0.228758172828     
3500000000.0        -0.0802208429494    -0.234282801699     0.915640231078      -0.314304175738     0.915640231078      -0.314304175738     -0.0802208429494    -0.234282801699     
3600000000.0        -0.0845323944941    -0.239712405547     0.911138940755      -0.322040198809     0.911138940755      -0.322040198809     -0.0845323944941    -0.239712405547     
3700000000.0        -0.0889273341569    -0.245045567283     0.90654873912       -0.329681364376     0.90654873912       -0.329681364376     -0.0889273341569    -0.245045567283     
3800000000.0        -0.0934029673661    -0.250280960126     0.901872302678      -0.337226381971     0.901872302678      -0.337226381971     -0.0934029673661    -0.250280960126     
3900000000.0        -0.0979565837252    -0.255417347386     0.897112323357      -0.344674051134     0.897112323357      -0.344674051134     -0.0979565837252    -0.255417347386     
4000000000.0        -0.102585460499     -0.260453582093     0.892271505009      -0.352023261048     0.892271505009      -0.352023261048     -0.102585460499     -0.260453582093     
4100000000.0        -0.107286866039     -0.265388606478     0.887352559986      -0.359272990022     0.887352559986      -0.359272990022     -0.107286866039     -0.265388606478     
4200000000.0        -0.112058063139     -0.270221451304     0.882358205776      -0.366422304831     0.882358205776      -0.366422304831     -0.112058063139     -0.270221451304     
4300000000.0        -0.116896312313     -0.274951235062     0.87729116172       -0.373470359914     0.87729116172       -0.373470359914     -0.116896312313     -0.274951235062     
4400000000.0        -0.121798874998     -0.279577163027     0.872154145806      -0.38041639644      0.872154145806      -0.38041639644      -0.121798874998     -0.279577163027     
4500000000.0        -0.126763016665     -0.2840985262       0.866949871557      -0.387259741248     0.866949871557      -0.387259741248     -0.126763016665     -0.2840985262       
4600000000.0        -0.131786009838     -0.288514700115     0.861681044999      -0.393999805664     0.861681044999      -0.393999805664     -0.131786009838     -0.288514700115     
4700000000.0        -0.136865137022     -0.292825143545     0.85635036174       -0.400636084207     0.85635036174       -0.400636084207     -0.136865137022     -0.292825143545     
4800000000.0        -0.141997693527     -0.297029397097     0.850960504134      -0.40716815319      0.850960504134      -0.40716815319      -0.141997693527     -0.297029397097     
4900000000.0        -0.147180990188     -0.301127081705     0.845514138557      -0.413595669217     0.845514138557      -0.413595669217     -0.147180990188     -0.301127081705     
5000000000.0        -0.152412355985     -0.305117897035     0.840013912791      -0.419918367592     0.840013912791      -0.419918367592     -0.152412355985     -0.305117897035     
5100000000.0        -0.157689140542     -0.309001619804     0.834462453511      -0.426136060639     0.834462453511      -0.426136060639     -0.157689140542     -0.309001619804     
5200000000.0        -0.16300871653      -0.312778102018     0.828862363886      -0.432248635944     0.828862363886      -0.432248635944     -0.16300871653      -0.312778102018     
5300000000.0        -0.168368481946     -0.316447269143     0.823216221292      -0.438256054531     0.823216221292      -0.438256054531     -0.168368481946     -0.316447269143     
5400000000.0        -0.173765862279     -0.320009118205     0.817526575142      -0.444158348964     0.817526575142      -0.444158348964     -0.173765862279     -0.320009118205     
5500000000.0        -0.179198312569     -0.323463715841     0.811795944826      -0.449955621399     0.811795944826      -0.449955621399     -0.179198312569     -0.323463715841     
5600000000.0        -0.184663319344     -0.326811196291     0.80602681777       -0.455648041579     0.80602681777       -0.455648041579     -0.184663319344     -0.326811196291     
5700000000.0        -0.190158402437     -0.330051759348     0.800221647607      -0.461235844793     0.800221647607      -0.461235844793     -0.190158402437     -0.330051759348     
5800000000.0        -0.195681116705     -0.333185668275     0.79438285247       -0.466719329783     0.79438285247       -0.466719329783     -0.195681116705     -0.333185668275     
5900000000.0        -0.201229053613     -0.336213247682     0.788512813387      -0.472098856636     0.788512813387      -0.472098856636     -0.201229053613     -0.336213247682     
6000000000.0        -0.206799842718     -0.339134881383     0.782613872804      -0.477374844633     0.782613872804      -0.477374844633     -0.206799842718     -0.339134881383     
6100000000.0        -0.212391153037     -0.34195101023      0.77668833321       -0.482547770093     0.77668833321       -0.482547770093     -0.212391153037     -0.34195101023      
6200000000.0        -0.2180006943       -0.344662129935     0.770738455874      -0.487618164191     0.770738455874      -0.487618164191     -0.2180006943       -0.344662129935     
6300000000.0        -0.223626218105     -0.34726878888      0.7647664597        -0.492586610774     0.7647664597        -0.492586610774     -0.223626218105     -0.34726878888      
6400000000.0        -0.22926551895      -0.349771585928     0.758774520173      -0.497453744173     0.758774520173      -0.497453744173     -0.22926551895      -0.349771585928     
6500000000.0        -0.234916435176     -0.35217116823      0.752764768428      -0.502220247009     0.752764768428      -0.502220247009     -0.234916435176     -0.35217116823      
6600000000.0        -0.240576849795     -0.354468229041     0.746739290404      -0.506886848013     0.746739290404      -0.506886848013     -0.240576849795     -0.354468229041     
6700000000.0        -0.246244691227     -0.356663505545     0.740700126112      -0.511454319854     0.740700126112      -0.511454319854     -0.246244691227     -0.356663505545     
6800000000.0        -0.251917933936     -0.358757776699     0.734649268991      -0.515923476977     0.734649268991      -0.515923476977     -0.251917933936     -0.358757776699     
6900000000.0        -0.257594598971     -0.360751861083     0.728588665363      -0.520295173467     0.728588665363      -0.520295173467     -0.257594598971     -0.360751861083     
7000000000.0        -0.263272754416     -0.362646614792     0.722520213975      -0.52457030093      0.722520213975      -0.52457030093      -0.263272754416     -0.362646614792     
7100000000.0        -0.268950515758     -0.364442929335     0.716445765634      -0.5287497864       0.716445765634      -0.5287497864       -0.268950515758     -0.364442929335     
7200000000.0        -0.274626046159     -0.366141729571     0.710367122921      -0.532834590274     0.710367122921      -0.532834590274     -0.274626046159     -0.366141729571     
7300000000.0        -0.280297556656     -0.367743971679     0.704286039993      -0.536825704285     0.704286039993      -0.536825704285     -0.280297556656     -0.367743971679     
7400000000.0        -0.285963306277     -0.36925064116      0.698204222457      -0.5407241495       0.698204222457      -0.5407241495       -0.285963306277     -0.36925064116      
7500000000.0        -0.291621602086     -0.370662750873     0.692123327325      -0.544530974364     0.692123327325      -0.544530974364     -0.291621602086     -0.370662750873     
7600000000.0        -0.297270799156     -0.371981339115     0.686044963034      -0.548247252774     0.686044963034      -0.548247252774     -0.297270799156     -0.371981339115     
7700000000.0        -0.302909300467     -0.373207467742     0.679970689538      -0.551874082204     0.679970689538      -0.551874082204     -0.302909300467     -0.373207467742     
7800000000.0        -0.30853555675      -0.374342220328     0.673902018465      -0.555412581867     0.673902018465      -0.555412581867     -0.30853555675      -0.374342220328     
7900000000.0        -0.314148066264     -0.375386700374     0.667840413334      -0.558863890921     0.667840413334      -0.558863890921     -0.314148066264     -0.375386700374     
8000000000.0        -0.31974537451      -0.376342029564     0.661787289831      -0.562229166725     0.661787289831      -0.562229166725     -0.31974537451      -0.376342029564     
8100000000.0        -0.325326073903     -0.377209346063     0.655744016137      -0.56550958314      0.655744016137      -0.56550958314      -0.325326073903     -0.377209346063     
8200000000.0        -0.330888803381     -0.377989802864     0.649711913308      -0.568706328876     0.649711913308      -0.568706328876     -0.330888803381     -0.377989802864     
8300000000.0        -0.336432247969     -0.378684566192     0.643692255708      -0.571820605895     0.643692255708      -0.571820605895     -0.336432247969     -0.378684566192     
8400000000.0        -0.341955138303     -0.379294813947     0.637686271481      -0.574853627855     0.637686271481      -0.574853627855     -0.341955138303     -0.379294813947     
8500000000.0        -0.347456250104     -0.379821734205     0.631695143066      -0.577806618612     0.631695143066      -0.577806618612     -0.347456250104     -0.379821734205     
8600000000.0        -0.352934403623     -0.380266523766     0.625720007752      -0.580680810766     0.625720007752      -0.580680810766     -0.352934403623     -0.380266523766     
8700000000.0        -0.358388463038     -0.380630386752     0.61976195827       -0.583477444262     0.61976195827       -0.583477444262     -0.358388463038     -0.380630386752     
8800000000.0        -0.363817335829     -0.380914533262     0.613822043413      -0.586197765041     0.613822043413      -0.586197765041     -0.363817335829     -0.380914533262     
8900000000.0        -0.369219972118     -0.381120178067     0.60790126869       -0.58884302374      0.60790126869       -0.58884302374      -0.369219972118     -0.381120178067     
9000000000.0        -0.374595363981     -0.381248539369     0.60200059701       -0.591414474446     0.60200059701       -0.591414474446     -0.374595363981     -0.381248539369     
9100000000.0        -0.379942544737     -0.381300837599     0.59612094938       -0.593913373495     0.59612094938       -0.593913373495     -0.379942544737     -0.381300837599     
9200000000.0        -0.385260588214     -0.381278294268     0.590263205641      -0.596340978326     0.590263205641      -0.596340978326     -0.385260588214     -0.381278294268     
9300000000.0        -0.390548607994     -0.381182130872     0.584428205207      -0.598698546383     0.584428205207      -0.598698546383     -0.390548607994     -0.381182130872     
9400000000.0        -0.395805756645     -0.381013567841     0.578616747835      -0.600987334061     0.578616747835      -0.600987334061     -0.395805756645     -0.381013567841     
9500000000.0        -0.401031224929     -0.380773823538     0.5728295944        -0.60320859571      0.5728295944        -0.60320859571      -0.401031224929     -0.380773823538     
9600000000.0        -0.40622424101      -0.380464113304     0.567067467691      -0.605363582673     0.567067467691      -0.605363582673     -0.40622424101      -0.380464113304     
9700000000.0        -0.411384069635     -0.380085648548     0.561331053215      -0.607453542384     0.561331053215      -0.607453542384     -0.411384069635     -0.380085648548     
9800000000.0        -0.416510011322     -0.379639635892     0.555621000005      -0.609479717504     0.555621000005      -0.609479717504     -0.416510011322     -0.379639635892     
9900000000.0        -0.421601401526     -0.379127276348     0.549937921441      -0.611443345098     0.549937921441      -0.611443345098     -0.421601401526     -0.379127276348     
10000000000.0       -0.426657609814     -0.378549764545     0.544282396078      -0.61334565587      0.544282396078      -0.61334565587      -0.426657609814     -0.378549764545     
