# Hz S RI R 50.00 
100000000.0         0.00102436827658    0.000320360567274   0.998974306972      -0.000617935581997  0.998974306972      -0.000617935581997  0.00102436827658    0.000320360567274   
200000000.0         0.00103163790197    0.000640709254945   0.998966624004      -0.00123586420962   0.998966624004      -0.00123586420962   0.00103163790197    0.000640709254945   
300000000.0         0.00103748992789    0.000961051385694   0.998960270034      -0.00185379380833   0.998960270034      -0.00185379380833   0.00103748992789    0.000961051385694   
400000000.0         0.00104281459644    0.00128138880644    0.99895435481       -0.00247172822145   0.99895435481       -0.00247172822145   0.00104281459644    0.00128138880644    
500000000.0         0.00104795493784    0.00160172253473    0.998948535287      -0.00308967015466   0.998948535287      -0.00308967015466   0.00104795493784    0.00160172253473    
600000000.0         0.00105308598635    0.00192205321715    0.998942636415      -0.00370762173973   0.998942636415      -0.00370762173973   0.00105308598635    0.00192205321715    
700000000.0         0.00105831119477    0.00224238129683    0.998936554728      -0.00432558475608   0.998936554728      -0.00432558475608   0.00105831119477    0.00224238129683    
800000000.0         0.0010636976264     0.00256270709259    0.998930223143      -0.00494356074195   0.998930223143      -0.00494356074195   0.0010636976264     0.00256270709259    
900000000.0         0.00106929162643    0.00288303084195    0.998923595297      -0.00556155105865   0.998923595297      -0.00556155105865   0.00106929162643    0.00288303084195    
1000000000.0        0.00107512676596    0.00320335272666    0.9989166376        -0.00617955693164   0.9989166376        -0.00617955693164   0.00107512676596    0.00320335272666    
1100000000.0        0.00108122825868    0.00352367288933    0.998909324817      -0.00679757947798   0.998909324817      -0.00679757947798   0.00108122825868    0.00352367288933    
1200000000.0        0.00108761559265    0.00384399144463    0.99890163744       -0.00741561972601   0.99890163744       -0.00741561972601   0.00108761559265    0.00384399144463    
1300000000.0        0.00109430418641    0.00416430848695    0.998893560028      -0.00803367863      0.998893560028      -0.00803367863      0.00109430418641    0.00416430848695    
1400000000.0        0.00110130647754    0.00448462409613    0.99888508012       -0.00865175708122   0.99888508012       -0.00865175708122   0.00110130647754    0.00448462409613    
1500000000.0        0.00110863266449    0.00480493834168    0.998876187494      -0.00926985591662   0.998876187494      -0.00926985591662   0.00110863266449    0.00480493834168    
1600000000.0        0.0011162912277     0.00512525128579    0.998866873646      -0.00988797592593   0.998866873646      -0.00988797592593   0.0011162912277     0.00512525128579    
1700000000.0        0.00112428930504    0.00544556298611    0.998857131412      -0.010506117857     0.998857131412      -0.010506117857     0.00112428930504    0.00544556298611    
1800000000.0        0.00113263296864    0.00576587349735    0.998846954695      -0.0111242824208    0.998846954695      -0.0111242824208    0.00113263296864    0.00576587349735    
1900000000.0        0.00114132743267    0.00608618287302    0.998836338255      -0.0117424702952    0.998836338255      -0.0117424702952    0.00114132743267    0.00608618287302    
2000000000.0        0.00115037721222    0.00640649116653    0.998825277549      -0.012360682128     0.998825277549      -0.012360682128     0.00115037721222    0.00640649116653    
2100000000.0        0.00115978624651    0.00672679843224    0.998813768612      -0.0129789185405    0.998813768612      -0.0129789185405    0.00115978624651    0.00672679843224    
2200000000.0        0.00116955799574    0.00704710472625    0.998801807954      -0.0135971801289    0.998801807954      -0.0135971801289    0.00116955799574    0.00704710472625    
2300000000.0        0.00117969551817    0.00736741010705    0.998789392491      -0.0142154674674    0.998789392491      -0.0142154674674    0.00117969551817    0.00736741010705    
2400000000.0        0.00119020153214    0.00768771463604    0.998776519474      -0.0148337811095    0.998776519474      -0.0148337811095    0.00119020153214    0.00768771463604    
2500000000.0        0.0012010784664     0.00800801837801    0.998763186445      -0.0154521215896    0.998763186445      -0.0154521215896    0.0012010784664     0.00800801837801    
2600000000.0        0.00121232850145    0.00832832140147    0.998749391196      -0.0160704894249    0.998749391196      -0.0160704894249    0.00121232850145    0.00832832140147    
2700000000.0        0.00122395360365    0.00864862377897    0.998735131729      -0.0166888851161    0.998735131729      -0.0166888851161    0.00122395360365    0.00864862377897    
2800000000.0        0.00123595555368    0.00896892558739    0.998720406233      -0.0173073091492    0.998720406233      -0.0173073091492    0.00123595555368    0.00896892558739    
2900000000.0        0.00124833597031    0.00928922690804    0.99870521306       -0.0179257619959    0.99870521306       -0.0179257619959    0.00124833597031    0.00928922690804    
3000000000.0        0.00126109633062    0.00960952782691    0.998689550701      -0.018544244115     0.998689550701      -0.018544244115     0.00126109633062    0.00960952782691    
3100000000.0        0.00127423798704    0.00992982843482    0.998673417773      -0.019162755953     0.998673417773      -0.019162755953     0.00127423798704    0.00992982843482    
3200000000.0        0.00128776218196    0.0102501288275     0.998656813001      -0.0197812979451    0.998656813001      -0.0197812979451    0.00128776218196    0.0102501288275     
3300000000.0        0.00130167006027    0.0105704291056     0.998639735209      -0.0203998705156    0.998639735209      -0.0203998705156    0.00130167006027    0.0105704291056     
3400000000.0        0.00131596268015    0.010890729375      0.998622183308      -0.0210184740788    0.998622183308      -0.0210184740788    0.00131596268015    0.010890729375      
3500000000.0        0.0013306410225     0.0112110297465     0.998604156283      -0.0216371090395    0.998604156283      -0.0216371090395    0.0013306410225     0.0112110297465     
3600000000.0        0.00134570599902    0.0115313303362     0.998585653191      -0.0222557757936    0.998585653191      -0.0222557757936    0.00134570599902    0.0115313303362     
3700000000.0        0.0013611584594     0.0118516312654     0.998566673149      -0.0228744747284    0.998566673149      -0.0228744747284    0.00136115845939    0.0118516312654     
3800000000.0        0.00137699919752    0.0121719326606     0.998547215331      -0.0234932062234    0.998547215331      -0.0234932062234    0.00137699919752    0.0121719326606     
3900000000.0        0.00139322895701    0.0124922346533     0.998527278961      -0.0241119706504    0.998527278961      -0.0241119706504    0.00139322895701    0.0124922346533     
4000000000.0        0.00140984843608    0.0128125373806     0.998506863306      -0.024730768374     0.998506863306      -0.024730768374     0.00140984843608    0.0128125373806     
4100000000.0        0.00142685829182    0.0131328409844     0.998485967676      -0.0253495997522    0.998485967676      -0.0253495997522    0.00142685829182    0.0131328409844     
4200000000.0        0.00144425914409    0.0134531456122     0.998464591419      -0.0259684651363    0.998464591419      -0.0259684651363    0.00144425914409    0.0134531456122     
4300000000.0        0.00146205157884    0.0137734514164     0.998442733915      -0.0265873648718    0.998442733915      -0.0265873648718    0.00146205157884    0.0137734514164     
4400000000.0        0.00148023615128    0.0140937585545     0.998420394575      -0.027206299298     0.998420394575      -0.027206299298     0.00148023615128    0.0140937585545     
4500000000.0        0.00149881338851    0.0144140671895     0.998397572838      -0.0278252687489    0.998397572838      -0.0278252687489    0.00149881338851    0.0144140671895     
4600000000.0        0.00151778379208    0.0147343774891     0.998374268168      -0.0284442735532    0.998374268168      -0.0284442735532    0.00151778379208    0.0147343774891     
4700000000.0        0.00153714784011    0.0150546896263     0.998350480055      -0.0290633140344    0.998350480055      -0.0290633140344    0.00153714784011    0.0150546896263     
4800000000.0        0.00155690598937    0.0153750037791     0.998326208007      -0.0296823905113    0.998326208007      -0.0296823905113    0.00155690598937    0.0153750037791     
4900000000.0        0.00157705867707    0.0156953201304     0.998301451553      -0.0303015032981    0.998301451553      -0.0303015032981    0.00157705867707    0.0156953201304     
5000000000.0        0.00159760632247    0.0160156388682     0.99827621024       -0.0309206527045    0.99827621024       -0.0309206527045    0.00159760632247    0.0160156388682     
5100000000.0        0.00161854932842    0.0163359601854     0.998250483631      -0.0315398390362    0.998250483631      -0.0315398390362    0.00161854932842    0.0163359601854     
5200000000.0        0.00163988808269    0.0166562842797     0.998224271304      -0.0321590625947    0.998224271304      -0.0321590625947    0.00163988808269    0.0166562842797     
5300000000.0        0.00166162295923    0.0169766113537     0.998197572851      -0.0327783236776    0.998197572851      -0.0327783236776    0.00166162295923    0.0169766113537     
5400000000.0        0.00168375431927    0.0172969416147     0.998170387877      -0.033397622579     0.998170387877      -0.033397622579     0.00168375431927    0.0172969416147     
5500000000.0        0.00170628251241    0.017617275275      0.998142715999      -0.0340169595893    0.998142715999      -0.0340169595893    0.00170628251241    0.017617275275      
5600000000.0        0.00172920787752    0.0179376125513     0.998114556843      -0.0346363349956    0.998114556843      -0.0346363349956    0.00172920787752    0.0179376125513     
5700000000.0        0.00175253074365    0.0182579536651     0.998085910047      -0.0352557490817    0.998085910047      -0.0352557490817    0.00175253074365    0.0182579536651     
5800000000.0        0.0017762514308     0.0185782988426     0.998056775256      -0.0358752021281    0.998056775256      -0.0358752021281    0.0017762514308     0.0185782988426     
5900000000.0        0.00180037025071    0.0188986483144     0.998027152126      -0.0364946944125    0.998027152126      -0.0364946944125    0.00180037025071    0.0188986483144     
6000000000.0        0.00182488750749    0.0192190023158     0.997997040317      -0.0371142262096    0.997997040317      -0.0371142262096    0.00182488750749    0.0192190023158     
6100000000.0        0.00184980349828    0.0195393610864     0.997966439499      -0.0377337977914    0.997966439499      -0.0377337977914    0.00184980349829    0.0195393610864     
6200000000.0        0.00187511851385    0.0198597248704     0.997935349349      -0.0383534094269    0.997935349349      -0.0383534094269    0.00187511851385    0.0198597248704     
6300000000.0        0.00190083283909    0.0201800939163     0.997903769546      -0.038973061383     0.997903769546      -0.038973061383     0.00190083283909    0.0201800939163     
6400000000.0        0.00192694675357    0.0205004684768     0.997871699778      -0.0395927539236    0.997871699778      -0.0395927539236    0.00192694675357    0.0205004684768     
6500000000.0        0.00195346053196    0.0208208488093     0.997839139738      -0.0402124873104    0.997839139738      -0.0402124873104    0.00195346053196    0.0208208488093     
6600000000.0        0.00198037444449    0.0211412351749     0.997806089121      -0.0408322618029    0.997806089121      -0.0408322618029    0.00198037444449    0.0211412351749     
6700000000.0        0.00200768875735    0.0214616278394     0.997772547628      -0.0414520776581    0.997772547628      -0.0414520776581    0.00200768875735    0.0214616278394     
6800000000.0        0.00203540373307    0.0217820270724     0.997738514963      -0.0420719351309    0.997738514963      -0.0420719351309    0.00203540373307    0.0217820270724     
6900000000.0        0.00206351963086    0.0221024331478     0.997703990835      -0.0426918344742    0.997703990835      -0.0426918344742    0.00206351963086    0.0221024331478     
7000000000.0        0.00209203670692    0.0224228463434     0.997668974954      -0.0433117759387    0.997668974954      -0.0433117759387    0.00209203670692    0.0224228463434     
7100000000.0        0.00212095521481    0.0227432669412     0.997633467034      -0.0439317597732    0.997633467034      -0.0439317597732    0.00212095521481    0.0227432669412     
7200000000.0        0.00215027540568    0.0230636952271     0.997597466791      -0.0445517862246    0.997597466791      -0.0445517862246    0.00215027540568    0.0230636952271     
7300000000.0        0.00217999752854    0.0233841314909     0.997560973944      -0.0451718555378    0.997560973944      -0.0451718555378    0.00217999752854    0.0233841314909     
7400000000.0        0.00221012183054    0.0237045760262     0.997523988214      -0.0457919679562    0.997523988214      -0.0457919679562    0.00221012183054    0.0237045760262     
7500000000.0        0.00224064855722    0.0240250291307     0.997486509322      -0.046412123721     0.997486509322      -0.046412123721     0.00224064855722    0.0240250291307     
7600000000.0        0.00227157795267    0.0243454911055     0.997448536993      -0.0470323230722    0.997448536993      -0.0470323230722    0.00227157795267    0.0243454911055     
7700000000.0        0.00230291025981    0.0246659622559     0.997410070952      -0.0476525662478    0.997410070952      -0.0476525662478    0.00230291025981    0.0246659622559     
7800000000.0        0.00233464572053    0.0249864428905     0.997371110925      -0.0482728534842    0.997371110925      -0.0482728534842    0.00233464572053    0.0249864428905     
7900000000.0        0.00236678457592    0.0253069333219     0.997331656641      -0.0488931850165    0.997331656641      -0.0488931850165    0.00236678457592    0.0253069333219     
8000000000.0        0.00239932706642    0.025627433866      0.997291707827      -0.0495135610779    0.997291707827      -0.0495135610779    0.00239932706642    0.025627433866      
8100000000.0        0.002432273432      0.0259479448426     0.997251264213      -0.0501339819004    0.997251264213      -0.0501339819004    0.002432273432      0.0259479448426     
8200000000.0        0.00246562391229    0.0262684665747     0.997210325528      -0.0507544477145    0.997210325528      -0.0507544477145    0.00246562391229    0.0262684665747     
8300000000.0        0.00249937874676    0.0265889993892     0.997168891502      -0.0513749587492    0.997168891502      -0.0513749587492    0.00249937874676    0.0265889993892     
8400000000.0        0.00253353817485    0.0269095436161     0.997126961865      -0.0519955152321    0.997126961865      -0.0519955152321    0.00253353817485    0.0269095436161     
8500000000.0        0.0025681024361     0.0272300995889     0.997084536348      -0.0526161173896    0.997084536348      -0.0526161173896    0.0025681024361     0.0272300995889     
8600000000.0        0.00260307177027    0.0275506676447     0.997041614681      -0.0532367654465    0.997041614681      -0.0532367654465    0.00260307177027    0.0275506676447     
8700000000.0        0.00263844641745    0.0278712481236     0.996998196594      -0.0538574596268    0.996998196594      -0.0538574596268    0.00263844641745    0.0278712481236     
8800000000.0        0.00267422661821    0.0281918413692     0.996954281817      -0.0544782001526    0.996954281817      -0.0544782001526    0.00267422661821    0.0281918413692     
8900000000.0        0.00271041261368    0.0285124477284     0.996909870079      -0.0550989872453    0.996909870079      -0.0550989872453    0.00271041261368    0.0285124477284     
9000000000.0        0.00274700464564    0.0288330675512     0.996864961111      -0.0557198211247    0.996864961111      -0.0557198211247    0.00274700464564    0.0288330675512     
9100000000.0        0.00278400295665    0.0291537011907     0.99681955464       -0.0563407020097    0.99681955464       -0.0563407020097    0.00278400295665    0.0291537011907     
9200000000.0        0.00282140779012    0.0294743490034     0.996773650395      -0.0569616301178    0.996773650395      -0.0569616301178    0.00282140779012    0.0294743490034     
9300000000.0        0.0028592193904     0.0297950113487     0.996727248103      -0.0575826056655    0.996727248103      -0.0575826056655    0.0028592193904     0.0297950113487     
9400000000.0        0.00289743800287    0.0301156885891     0.996680347491      -0.0582036288681    0.996680347491      -0.0582036288681    0.00289743800287    0.0301156885891     
9500000000.0        0.00293606387402    0.0304363810903     0.996632948284      -0.0588246999398    0.996632948284      -0.0588246999398    0.00293606387402    0.0304363810903     
9600000000.0        0.00297509725152    0.0307570892207     0.996585050209      -0.0594458190937    0.996585050209      -0.0594458190937    0.00297509725152    0.0307570892207     
9700000000.0        0.00301453838431    0.0310778133519     0.996536652988      -0.0600669865418    0.996536652988      -0.0600669865418    0.00301453838431    0.0310778133519     
9800000000.0        0.00305438752262    0.0313985538583     0.996487756344      -0.060688202495     0.996487756344      -0.060688202495     0.00305438752262    0.0313985538583     
9900000000.0        0.00309464491812    0.0317193111172     0.99643836          -0.0613094671632    0.99643836          -0.0613094671632    0.00309464491812    0.0317193111172     
10000000000.0       0.0031353108239     0.0320400855089     0.996388463676      -0.0619307807554    0.996388463676      -0.0619307807554    0.0031353108239     0.0320400855089     
