# Hz S RI R 50.00 
100000000.0         0.000262340575506   -0.00288746108952   0.999699330199      -0.00484413261321   0.999699330199      -0.00484413261321   0.000262340575506   -0.00288746108952   
200000000.0         0.000218552765106   -0.00577476942123   0.999646001616      -0.00968818045711   0.999646001616      -0.00968818045711   0.000218552765105   -0.00577476942123   
300000000.0         0.00014629819287    -0.00866171126941   0.999561349642      -0.0145319798923    0.999561349642      -0.0145319798923    0.00014629819287    -0.00866171126941   
400000000.0         4.58196496098e-05   -0.011548047568     0.99944513151       -0.0193753289337    0.99944513151       -0.0193753289337    4.58196496096e-05   -0.011548047568     
500000000.0         -8.27870250654e-05  -0.0144335254553    0.999297255643      -0.0242180063414    0.999297255643      -0.0242180063414    -8.27870250658e-05  -0.0144335254553    
600000000.0         -0.000239469080763  -0.0173178826852    0.999117678547      -0.0290597781436    0.999117678547      -0.0290597781436    -0.000239469080763  -0.0173178826852    
700000000.0         -0.000424190320851  -0.0202008499693    0.998906378821      -0.0339004009795    0.998906378821      -0.0339004009795    -0.000424190320851  -0.0202008499693    
800000000.0         -0.000636921322403  -0.0230821524337    0.998663347796      -0.0387396241299    0.998663347796      -0.0387396241299    -0.000636921322403  -0.0230821524337    
900000000.0         -0.000877635012132  -0.0259615106195    0.998388585452      -0.0435771908849    0.998388585452      -0.0435771908849    -0.000877635012132  -0.0259615106195    
1000000000.0        -0.00114630437192   -0.0288386412177    0.998082098412      -0.0484128395323    0.998082098412      -0.0484128395323    -0.00114630437192   -0.0288386412177    
1100000000.0        -0.00144290112351   -0.031713257639     0.997743898869      -0.0532463041105    0.997743898869      -0.0532463041105    -0.00144290112351   -0.031713257639     
1200000000.0        -0.00176739491365   -0.0345850704734    0.997374003986      -0.0580773150064    0.997374003986      -0.0580773150064    -0.00176739491365   -0.0345850704734    
1300000000.0        -0.00211975277696   -0.0374537878721    0.996972435537      -0.0629055994455    0.996972435537      -0.0629055994455    -0.00211975277696   -0.0374537878721    
1400000000.0        -0.00249993876339   -0.0403191158758    0.996539219703      -0.0677308819048    0.996539219703      -0.0677308819048    -0.00249993876339   -0.0403191158758    
1500000000.0        -0.0029079136688    -0.0431807587001    0.996074386941      -0.0725528844692    0.996074386941      -0.0725528844692    -0.0029079136688    -0.0431807587001    
1600000000.0        -0.00334363483344   -0.0460384189906    0.995577971911      -0.0773713271432    0.995577971911      -0.0773713271432    -0.00334363483344   -0.0460384189906    
1700000000.0        -0.00380705598698   -0.0488917980534    0.995050013433      -0.0821859281303    0.995050013433      -0.0821859281303    -0.00380705598698   -0.0488917980534    
1800000000.0        -0.00429812712669   -0.0517405960659    0.99449055446       -0.0869964040846    0.99449055446       -0.0869964040846    -0.00429812712669   -0.0517405960659    
1900000000.0        -0.00481679442019   -0.0545845122722    0.993899642068      -0.0918024703419    0.993899642068      -0.0918024703419    -0.00481679442019   -0.0545845122722    
2000000000.0        -0.00536300012683   -0.0574232451658    0.993277327453      -0.0966038411321    0.993277327453      -0.0966038411321    -0.00536300012683   -0.0574232451658    
2100000000.0        -0.00593668253378   -0.0602564926608    0.992623665931      -0.101400229778     0.992623665931      -0.101400229778     -0.00593668253378   -0.0602564926608    
2200000000.0        -0.00653777590395   -0.0630839522552    0.991938716937      -0.106191348883     0.991938716937      -0.106191348883     -0.00653777590395   -0.0630839522552    
2300000000.0        -0.00716621043372   -0.0659053211859    0.991222544033      -0.110976910502     0.991222544033      -0.110976910502     -0.00716621043372   -0.0659053211859    
2400000000.0        -0.00782191221894   -0.0687202965768    0.990475214907      -0.115756626317     0.990475214907      -0.115756626317     -0.00782191221894   -0.0687202965768    
2500000000.0        -0.00850480322808   -0.0715285755819    0.989696801375      -0.120530207788     0.989696801375      -0.120530207788     -0.00850480322808   -0.0715285755819    
2600000000.0        -0.00921480128163   -0.0743298555225    0.988887379384      -0.125297366308     0.988887379384      -0.125297366308     -0.00921480128163   -0.0743298555225    
2700000000.0        -0.00995182003713   -0.0771238340204    0.988047029005      -0.130057813355     0.988047029005      -0.130057813355     -0.00995182003713   -0.0771238340204    
2800000000.0        -0.0107157689792    -0.0799102091264    0.987175834435      -0.134811260623     0.987175834435      -0.134811260623     -0.0107157689792    -0.0799102091264    
2900000000.0        -0.0115065534144    -0.0826886794456    0.986273883984      -0.139557420167     0.986273883984      -0.139557420167     -0.0115065534144    -0.0826886794456    
3000000000.0        -0.0123240744697    -0.0854589442591    0.985341270072      -0.144296004532     0.985341270072      -0.144296004532     -0.0123240744697    -0.0854589442591    
3100000000.0        -0.0131682290959    -0.0882207036423    0.984378089218      -0.149026726879     0.984378089218      -0.149026726879     -0.0131682290959    -0.0882207036423    
3200000000.0        -0.014038910074     -0.0909736585806    0.983384442022      -0.153749301111     0.983384442022      -0.153749301111     -0.014038910074     -0.0909736585806    
3300000000.0        -0.0149360060252    -0.0937175110817    0.982360433151      -0.158463441992     0.982360433151      -0.158463441992     -0.0149360060252    -0.0937175110817    
3400000000.0        -0.0158594014245    -0.0964519642861    0.981306171324      -0.163168865269     0.981306171324      -0.163168865269     -0.0158594014245    -0.0964519642861    
3500000000.0        -0.0168089766171    -0.099176722574     0.980221769287      -0.167865287779     0.980221769287      -0.167865287779     -0.0168089766171    -0.099176722574     
3600000000.0        -0.0177846078381    -0.101891491671     0.979107343791      -0.172552427567     0.979107343791      -0.172552427567     -0.0177846078381    -0.101891491671     
3700000000.0        -0.0187861672346    -0.10459597875      0.977963015567      -0.177230003991     0.977963015567      -0.177230003991     -0.0187861672346    -0.10459597875      
3800000000.0        -0.0198135228913    -0.107289892533     0.976788909298      -0.181897737826     0.976788909298      -0.181897737826     -0.0198135228913    -0.107289892533     
3900000000.0        -0.0208665388581    -0.109972943388     0.975585153589      -0.186555351375     0.975585153589      -0.186555351375     -0.0208665388581    -0.109972943388     
4000000000.0        -0.0219450751801    -0.112644843424     0.974351880932      -0.191202568561     0.974351880932      -0.191202568561     -0.0219450751801    -0.112644843424     
4100000000.0        -0.0230489879309    -0.115305306588     0.973089227676      -0.195839115029     0.973089227676      -0.195839115029     -0.0230489879309    -0.115305306588     
4200000000.0        -0.0241781292476    -0.117954048754     0.971797333984      -0.200464718243     0.971797333984      -0.200464718243     -0.0241781292476    -0.117954048754     
4300000000.0        -0.0253323473678    -0.120590787814     0.970476343802      -0.205079107577     0.970476343802      -0.205079107577     -0.0253323473678    -0.120590787814     
4400000000.0        -0.0265114866696    -0.123215243766     0.96912640481       -0.20968201441      0.96912640481       -0.20968201441      -0.0265114866696    -0.123215243766     
4500000000.0        -0.0277153877129    -0.125827138796     0.967747668385      -0.21427317221      0.967747668385      -0.21427317221      -0.0277153877129    -0.125827138796     
4600000000.0        -0.0289438872835    -0.128426197366     0.966340289555      -0.218852316625     0.966340289555      -0.218852316625     -0.0289438872835    -0.128426197366     
4700000000.0        -0.0301968184383    -0.131012146296     0.964904426948      -0.223419185563     0.964904426948      -0.223419185563     -0.0301968184383    -0.131012146296     
4800000000.0        -0.0314740105531    -0.133584714836     0.963440242752      -0.227973519281     0.963440242752      -0.227973519281     -0.0314740105531    -0.133584714836     
4900000000.0        -0.0327752893717    -0.136143634753     0.961947902655      -0.232515060457     0.961947902655      -0.232515060457     -0.0327752893717    -0.136143634753     
5000000000.0        -0.0341004770571    -0.138688640401     0.960427575802      -0.237043554275     0.960427575802      -0.237043554275     -0.0341004770571    -0.138688640401     
5100000000.0        -0.0354493922442    -0.141219468793     0.958879434736      -0.241558748496     0.958879434736      -0.241558748496     -0.0354493922442    -0.141219468793     
5200000000.0        -0.0368218500939    -0.143735859677     0.957303655346      -0.246060393533     0.957303655346      -0.246060393533     -0.0368218500939    -0.143735859677     
5300000000.0        -0.0382176623493    -0.146237555603     0.955700416807      -0.250548242525     0.955700416807      -0.250548242525     -0.0382176623493    -0.146237555603     
5400000000.0        -0.0396366373928    -0.148724301989     0.954069901527      -0.255022051402     0.954069901527      -0.255022051402     -0.0396366373928    -0.148724301989     
5500000000.0        -0.0410785803049    -0.15119584719      0.952412295083      -0.259481578954     0.952412295083      -0.259481578954     -0.0410785803049    -0.15119584719      
5600000000.0        -0.0425432929241    -0.153651942556     0.950727786164      -0.263926586898     0.950727786164      -0.263926586898     -0.0425432929241    -0.153651942556     
5700000000.0        -0.0440305739085    -0.1560923425       0.949016566506      -0.268356839937     0.949016566506      -0.268356839937     -0.0440305739085    -0.1560923425       
5800000000.0        -0.0455402187984    -0.158516804551     0.947278830832      -0.272772105824     0.947278830832      -0.272772105824     -0.0455402187984    -0.158516804551     
5900000000.0        -0.0470720200796    -0.160925089415     0.945514776786      -0.277172155421     0.945514776786      -0.277172155421     -0.0470720200796    -0.160925089415     
6000000000.0        -0.0486257672486    -0.163316961028     0.943724604868      -0.281556762751     0.943724604868      -0.281556762751     -0.0486257672486    -0.163316961028     
6100000000.0        -0.0502012468785    -0.165692186612     0.941908518366      -0.285925705058     0.941908518366      -0.285925705058     -0.0502012468785    -0.165692186612     
6200000000.0        -0.0517982426855    -0.168050536723     0.940066723293      -0.290278762858     0.940066723293      -0.290278762858     -0.0517982426855    -0.168050536723     
6300000000.0        -0.0534165355969    -0.170391785303     0.938199428315      -0.294615719986     0.938199428315      -0.294615719986     -0.0534165355969    -0.170391785303     
6400000000.0        -0.0550559038196    -0.172715709726     0.936306844683      -0.298936363647     0.936306844683      -0.298936363647     -0.0550559038196    -0.172715709726     
6500000000.0        -0.0567161229095    -0.175022090842     0.934389186163      -0.303240484464     0.934389186163      -0.303240484464     -0.0567161229095    -0.175022090842     
6600000000.0        -0.0583969658417    -0.177310713021     0.932446668967      -0.307527876517     0.932446668967      -0.307527876517     -0.0583969658417    -0.177310713021     
6700000000.0        -0.0600982030812    -0.179581364197     0.93047951168       -0.311798337388     0.93047951168       -0.311798337388     -0.0600982030812    -0.179581364197     
6800000000.0        -0.0618196026546    -0.181833835901     0.928487935189      -0.316051668204     0.928487935189      -0.316051668204     -0.0618196026546    -0.181833835901     
6900000000.0        -0.0635609302217    -0.184067923306     0.926472162607      -0.320287673667     0.926472162607      -0.320287673667     -0.0635609302217    -0.184067923306     
7000000000.0        -0.0653219491486    -0.186283425253     0.924432419209      -0.324506162097     0.924432419209      -0.324506162097     -0.0653219491486    -0.186283425253     
7100000000.0        -0.0671024205801    -0.188480144293     0.922368932347      -0.328706945463     0.922368932347      -0.328706945463     -0.0671024205801    -0.188480144293     
7200000000.0        -0.0689021035136    -0.190657886713     0.920281931386      -0.332889839416     0.920281931386      -0.332889839416     -0.0689021035136    -0.190657886713     
7300000000.0        -0.0707207548726    -0.192816462567     0.918171647624      -0.337054663315     0.918171647624      -0.337054663315     -0.0707207548726    -0.192816462567     
7400000000.0        -0.0725581295809    -0.194955685704     0.916038314218      -0.341201240261     0.916038314218      -0.341201240261     -0.0725581295809    -0.194955685704     
7500000000.0        -0.0744139806369    -0.197075373791     0.913882166114      -0.345329397117     0.913882166114      -0.345329397117     -0.0744139806369    -0.197075373791     
7600000000.0        -0.076288059188     -0.199175348339     0.911703439964      -0.349438964536     0.911703439964      -0.349438964536     -0.076288059188     -0.199175348339     
7700000000.0        -0.0781801146054    -0.201255434724     0.90950237406       -0.353529776982     0.90950237406       -0.353529776982     -0.0781801146054    -0.201255434724     
7800000000.0        -0.080089894559     -0.203315462207     0.90727920825       -0.357601672747     0.90727920825       -0.357601672747     -0.080089894559     -0.203315462207     
7900000000.0        -0.0820171450921    -0.205355263949     0.905034183868      -0.361654493973     0.905034183868      -0.361654493973     -0.0820171450921    -0.205355263949     
8000000000.0        -0.0839616106959    -0.207374677033     0.90276754366       -0.365688086668     0.90276754366       -0.365688086668     -0.0839616106959    -0.207374677033     
8100000000.0        -0.0859230343851    -0.209373542471     0.900479531704      -0.369702300718     0.900479531704      -0.369702300718     -0.0859230343851    -0.209373542471     
8200000000.0        -0.0879011577718    -0.211351705224     0.898170393337      -0.373696989899     0.898170393337      -0.373696989899     -0.0879011577718    -0.211351705224     
8300000000.0        -0.0898957211406    -0.213309014205     0.89584037508       -0.377672011892     0.89584037508       -0.377672011892     -0.0898957211406    -0.213309014205     
8400000000.0        -0.0919064635229    -0.215245322293     0.893489724565      -0.381627228289     0.893489724565      -0.381627228289     -0.0919064635229    -0.215245322293     
8500000000.0        -0.093933122771     -0.21716048634      0.891118690457      -0.385562504597     0.891118690457      -0.385562504597     -0.093933122771     -0.21716048634      
8600000000.0        -0.0959754356319    -0.219054367172     0.888727522381      -0.389477710251     0.888727522381      -0.389477710251     -0.0959754356319    -0.219054367172     
8700000000.0        -0.0980331378213    -0.220926829597     0.88631647085       -0.393372718611     0.88631647085       -0.393372718611     -0.0980331378213    -0.220926829597     
8800000000.0        -0.100105964097     -0.222777742406     0.883885787185      -0.397247406965     0.883885787185      -0.397247406965     -0.100105964097     -0.222777742406     
8900000000.0        -0.10219364833      -0.224606978371     0.881435723451      -0.401101656532     0.881435723451      -0.401101656532     -0.10219364833      -0.224606978371     
9000000000.0        -0.104295923581     -0.226414414248     0.878966532376      -0.404935352458     0.878966532376      -0.404935352458     -0.104295923581     -0.226414414248     
9100000000.0        -0.106412522168     -0.228199930768     0.876478467282      -0.408748383813     0.876478467282      -0.408748383813     -0.106412522168     -0.228199930768     
9200000000.0        -0.10854317574      -0.229963412639     0.873971782011      -0.412540643589     0.873971782011      -0.412540643589     -0.10854317574      -0.229963412639     
9300000000.0        -0.110687615348     -0.231704748535     0.871446730858      -0.416312028688     0.871446730858      -0.416312028688     -0.110687615348     -0.231704748535     
9400000000.0        -0.112845571517     -0.23342383109      0.868903568493      -0.420062439922     0.868903568493      -0.420062439922     -0.112845571517     -0.23342383109      
9500000000.0        -0.11501677431      -0.235120556891     0.866342549898      -0.423791781995     0.866342549898      -0.423791781995     -0.11501677431      -0.235120556891     
9600000000.0        -0.117200953406     -0.236794826462     0.863763930291      -0.427499963499     0.863763930291      -0.427499963499     -0.117200953406     -0.236794826462     
9700000000.0        -0.119397838161     -0.23844654426      0.861167965061      -0.431186896898     0.861167965061      -0.431186896898     -0.119397838161     -0.23844654426      
9800000000.0        -0.121607157679     -0.240075618652     0.858554909699      -0.434852498516     0.858554909699      -0.434852498516     -0.121607157679     -0.240075618652     
9900000000.0        -0.12382864088      -0.241681961909     0.855925019727      -0.43849668852      0.855925019727      -0.43849668852      -0.12382864088      -0.241681961909     
10000000000.0       -0.126062016565     -0.243265490185     0.853278550637      -0.442119390905     0.853278550637      -0.442119390905     -0.126062016565     -0.243265490185     
