# Hz S RI R 50.00 
100000000.0         0.0157612321317     0.00349127429803    0.98423265014       -0.00587848720914   0.98423265014       -0.00587848720914   0.0157612321317     0.00349127429803    
200000000.0         0.0159257461561     0.0069800234629     0.984057288451      -0.011754488747     0.984057288451      -0.011754488747     0.0159257461561     0.0069800234629     
300000000.0         0.0161045091357     0.0104664576318     0.983861946768      -0.0176282438375    0.983861946768      -0.0176282438375    0.0161045091357     0.0104664576318     
400000000.0         0.0163109746278     0.0139502711069     0.98363317022       -0.0234994707038    0.98363317022       -0.0234994707038    0.0163109746278     0.0139502711069     
500000000.0         0.0165502982342     0.0174310388713     0.98336580165       -0.0293677656237    0.98336580165       -0.0293677656237    0.0165502982342     0.0174310388713     
600000000.0         0.016825081525      0.020908283733      0.983057237684      -0.0352326709685    0.983057237684      -0.0352326709685    0.016825081525      0.020908283733      
700000000.0         0.0171368324218     0.0243815005624     0.982705968353      -0.0410936998971    0.982705968353      -0.0410936998971    0.0171368324218     0.0243815005624     
800000000.0         0.0174864982385     0.0278501676345     0.982311044054      -0.0469503479726    0.982311044054      -0.0469503479726    0.0174864982385     0.0278501676345     
900000000.0         0.0178747030369     0.0313137528083     0.981871838201      -0.0528020995226    0.981871838201      -0.0528020995226    0.0178747030369     0.0313137528083     
1000000000.0        0.0183018679518     0.0347717172619     0.981387926904      -0.0586484315026    0.981387926904      -0.0586484315026    0.0183018679518     0.0347717172619     
1100000000.0        0.0187682780922     0.0382235179343     0.980859022067      -0.0644888160311    0.980859022067      -0.0644888160311    0.0187682780922     0.0382235179343     
1200000000.0        0.0192741224234     0.0416686092221     0.980284931515      -0.0703227221598    0.980284931515      -0.0703227221598    0.0192741224234     0.0416686092221     
1300000000.0        0.0198195188767     0.0451064442209     0.979665533882      -0.0761496171713    0.979665533882      -0.0761496171713    0.0198195188767     0.0451064442209     
1400000000.0        0.0204045308746     0.0485364756738     0.979000762094      -0.0819689675733    0.979000762094      -0.0819689675733    0.0204045308746     0.0485364756738     
1500000000.0        0.0210291786114     0.0519581567222     0.978290592088      -0.0877802398877    0.978290592088      -0.0877802398877    0.0210291786114     0.0519581567222     
1600000000.0        0.0216934469991     0.0553709415208     0.977535034867      -0.093582901297     0.977535034867      -0.093582901297     0.0216934469991     0.0553709415208     
1700000000.0        0.0223972914151     0.058774285754      0.976734130759      -0.0993764201873    0.976734130759      -0.0993764201873    0.0223972914151     0.058774285754      
1800000000.0        0.0231406419607     0.0621676470811     0.975887945159      -0.105160266616     0.975887945159      -0.105160266616     0.0231406419607     0.0621676470811     
1900000000.0        0.0239234066835     0.0655504855263     0.974996565306      -0.110933912722     0.974996565306      -0.110933912722     0.0239234066835     0.0655504855263     
2000000000.0        0.0247454740624     0.0689222638279     0.974060097804      -0.116696833093     0.974060097804      -0.116696833093     0.0247454740624     0.0689222638279     
2100000000.0        0.0256067149597     0.0722824477543     0.973078666667      -0.122448505094     0.973078666667      -0.122448505094     0.0256067149597     0.0722824477543     
2200000000.0        0.026506984179      0.0756305063937     0.972052411768      -0.128188409174     0.972052411768      -0.128188409174     0.026506984179      0.0756305063937     
2300000000.0        0.0274461217286     0.0789659124219     0.970981487573      -0.133916029142     0.970981487573      -0.133916029142     0.0274461217286     0.0789659124219     
2400000000.0        0.028423953862      0.0822881423531     0.969866062104      -0.139630852433     0.969866062104      -0.139630852433     0.028423953862      0.0822881423531     
2500000000.0        0.0294402939468     0.0855966767751     0.96870631607       -0.145332370347     0.96870631607       -0.145332370347     0.0294402939468     0.0855966767751     
2600000000.0        0.0304949432004     0.0888910005708     0.967502442136      -0.151020078287     0.967502442136      -0.151020078287     0.0304949432004     0.0888910005708     
2700000000.0        0.0315876913222     0.0921706031296     0.966254644287      -0.156693475969     0.966254644287      -0.156693475969     0.0315876913222     0.0921706031296     
2800000000.0        0.032718317043      0.0954349785477     0.964963137282      -0.162352067639     0.964963137282      -0.162352067639     0.032718317043      0.0954349785477     
2900000000.0        0.0338865886094     0.0986836258195     0.963628146173      -0.167995362264     0.963628146173      -0.167995362264     0.0338865886094     0.0986836258195     
3000000000.0        0.0350922642158     0.101916049021      0.96224990587       -0.173622873724     0.96224990587       -0.173622873724     0.0350922642158     0.101916049021      
3100000000.0        0.0363350923933     0.105131757484      0.960828660756      -0.179234120993     0.960828660756      -0.179234120993     0.0363350923933     0.105131757484      
3200000000.0        0.0376148123659     0.108330265967      0.95936466433       -0.184828628314     0.95936466433       -0.184828628314     0.0376148123659     0.108330265967      
3300000000.0        0.0389311543769     0.111511094814      0.957858178882      -0.19040592536      0.957858178882      -0.19040592536      0.0389311543769     0.111511094814      
3400000000.0        0.0402838399941     0.114673770109      0.956309475189      -0.1959655474       0.956309475189      -0.1959655474       0.0402838399941     0.114673770109      
3500000000.0        0.0416725823952     0.117817823829      0.95471883223       -0.201507035447     0.95471883223       -0.201507035447     0.0416725823952     0.117817823829      
3600000000.0        0.0430970866379     0.120942793981      0.953086536915      -0.207029936406     0.953086536915      -0.207029936406     0.0430970866379     0.120942793981      
3700000000.0        0.0445570499176     0.124048224744      0.951412883832      -0.212533803216     0.951412883832      -0.212533803216     0.0445570499176     0.124048224744      
3800000000.0        0.0460521618134     0.127133666597      0.949698174996      -0.218018194982     0.949698174996      -0.218018194982     0.0460521618134     0.127133666597      
3900000000.0        0.0475821045269     0.130198676445      0.947942719616      -0.223482677105     0.947942719616      -0.223482677105     0.0475821045269     0.130198676445      
4000000000.0        0.0491465531115     0.133242817742      0.946146833862      -0.228926821409     0.946146833862      -0.228926821409     0.0491465531115     0.133242817742      
4100000000.0        0.0507451756973     0.136265660603      0.944310840644      -0.234350206251     0.944310840644      -0.234350206251     0.0507451756973     0.136265660603      
4200000000.0        0.0523776337098     0.139266781915      0.942435069392      -0.239752416639     0.942435069392      -0.239752416639     0.0523776337098     0.139266781915      
4300000000.0        0.0540435820838     0.142245765443      0.940519855843      -0.245133044338     0.940519855843      -0.245133044338     0.0540435820838     0.142245765443      
4400000000.0        0.0557426694748     0.145202201926      0.938565541828      -0.250491687971     0.938565541828      -0.250491687971     0.0557426694748     0.145202201926      
4500000000.0        0.0574745384659     0.148135689172      0.936572475068      -0.255827953114     0.936572475068      -0.255827953114     0.0574745384659     0.148135689172      
4600000000.0        0.0592388257723     0.151045832152      0.93454100897       -0.261141452391     0.93454100897       -0.261141452391     0.0592388257723     0.151045832152      
4700000000.0        0.0610351624439     0.153932243077      0.932471502421      -0.266431805556     0.932471502421      -0.266431805556     0.0610351624439     0.153932243077      
4800000000.0        0.0628631740649     0.156794541481      0.930364319595      -0.271698639576     0.930364319595      -0.271698639576     0.0628631740649     0.156794541481      
4900000000.0        0.0647224809519     0.159632354296      0.928219829747      -0.276941588706     0.928219829747      -0.276941588706     0.0647224809519     0.159632354296      
5000000000.0        0.0666126983505     0.162445315921      0.926038407023      -0.28216029456      0.926038407023      -0.28216029456      0.0666126983505     0.162445315921      
5100000000.0        0.0685334366299     0.165233068283      0.923820430264      -0.287354406181     0.923820430264      -0.287354406181     0.0685334366299     0.165233068283      
5200000000.0        0.0704843014765     0.167995260902      0.921566282811      -0.292523580094     0.921566282811      -0.292523580094     0.0704843014765     0.167995260902      
5300000000.0        0.0724648940854     0.170731550942      0.919276352315      -0.297667480369     0.919276352315      -0.297667480369     0.0724648940854     0.170731550942      
5400000000.0        0.0744748113512     0.173441603262      0.916951030544      -0.30278577867      0.916951030544      -0.30278577867      0.0744748113512     0.173441603262      
5500000000.0        0.0765136460577     0.176125090465      0.914590713197      -0.307878154303     0.914590713197      -0.307878154303     0.0765136460577     0.176125090465      
5600000000.0        0.0785809870652     0.178781692933      0.912195799715      -0.312944294254     0.912195799715      -0.312944294254     0.0785809870652     0.178781692933      
5700000000.0        0.0806764194978     0.181411098868      0.909766693092      -0.317983893232     0.909766693092      -0.317983893232     0.0806764194978     0.181411098868      
5800000000.0        0.082799524929      0.18401300432       0.907303799692      -0.322996653697     0.907303799692      -0.322996653697     0.082799524929      0.18401300432       
5900000000.0        0.0849498815653     0.186587113219      0.904807529065      -0.327982285891     0.904807529065      -0.327982285891     0.0849498815653     0.186587113219      
6000000000.0        0.0871270644294     0.189133137394      0.90227829376       -0.332940507861     0.90227829376       -0.332940507861     0.0871270644294     0.189133137394      
6100000000.0        0.0893306455418     0.19165079659       0.89971650915       -0.337871045475     0.89971650915       -0.337871045475     0.0893306455418     0.19165079659       
6200000000.0        0.0915601941004     0.194139818488      0.897122593246      -0.342773632443     0.897122593246      -0.342773632443     0.0915601941004     0.194139818488      
6300000000.0        0.0938152766597     0.19659993871       0.894496966521      -0.347648010323     0.894496966521      -0.347648010323     0.0938152766597     0.19659993871       
6400000000.0        0.0960954573072     0.199030900827      0.891840051732      -0.352493928528     0.891840051732      -0.352493928528     0.0960954573072     0.199030900827      
6500000000.0        0.0984002978393     0.201432456357      0.889152273746      -0.357311144328     0.889152273746      -0.357311144328     0.0984002978393     0.201432456357      
6600000000.0        0.100729357935      0.203804364769      0.886434059364      -0.36209942285      0.886434059364      -0.36209942285      0.100729357935      0.203804364769      
6700000000.0        0.103082195329      0.206146393468      0.883685837148      -0.36685853707      0.883685837148      -0.36685853707      0.103082195329      0.206146393468      
6800000000.0        0.10545836598       0.208458317794      0.880908037253      -0.371588267804     0.880908037253      -0.371588267804     0.10545836598       0.208458317794      
6900000000.0        0.10785742424       0.210739920998      0.878101091257      -0.376288403691     0.878101091257      -0.376288403691     0.10785742424       0.210739920998      
7000000000.0        0.110278923025      0.212990994232      0.875265431992      -0.380958741181     0.875265431992      -0.380958741181     0.110278923025      0.212990994232      
7100000000.0        0.112722413972      0.215211336523      0.872401493382      -0.385599084509     0.872401493382      -0.385599084509     0.112722413972      0.215211336523      
7200000000.0        0.115187447609      0.217400754747      0.869509710277      -0.390209245671     0.869509710277      -0.390209245671     0.115187447609      0.217400754747      
7300000000.0        0.117673573513      0.219559063604      0.866590518296      -0.394789044397     0.866590518296      -0.394789044397     0.117673573513      0.219559063604      
7400000000.0        0.120180340467      0.221686085581      0.863644353663      -0.399338308116     0.863644353663      -0.399338308116     0.120180340467      0.221686085581      
7500000000.0        0.12270729662       0.22378165092       0.860671653053      -0.403856871923     0.860671653053      -0.403856871923     0.12270729662       0.22378165092       
7600000000.0        0.125253989637      0.225845597576      0.857672853437      -0.408344578539     0.857672853437      -0.408344578539     0.125253989637      0.225845597576      
7700000000.0        0.127819966855      0.227877771178      0.85464839193       -0.412801278268     0.85464839193       -0.412801278268     0.127819966855      0.227877771178      
7800000000.0        0.130404775431      0.22987802498       0.851598705641      -0.417226828953     0.851598705641      -0.417226828953     0.130404775431      0.22987802498       
7900000000.0        0.133007962488      0.231846219815      0.848524231524      -0.42162109593      0.848524231524      -0.42162109593      0.133007962488      0.231846219815      
8000000000.0        0.135629075262      0.233782224044      0.845425406233      -0.425983951969     0.845425406233      -0.425983951969     0.135629075262      0.233782224044      
8100000000.0        0.138267661243      0.235685913499      0.842302665981      -0.43031527723      0.842302665981      -0.43031527723      0.138267661243      0.235685913499      
8200000000.0        0.140923268315      0.23755717143       0.839156446398      -0.434614959197     0.839156446398      -0.434614959197     0.140923268315      0.23755717143       
8300000000.0        0.143595444893      0.239395888442      0.835987182393      -0.438882892626     0.835987182393      -0.438882892626     0.143595444893      0.239395888442      
8400000000.0        0.146283740061      0.241201962434      0.83279530802       -0.443118979477     0.83279530802       -0.443118979477     0.146283740061      0.241201962434      
8500000000.0        0.148987703696      0.242975298537      0.829581256344      -0.447323128851     0.829581256344      -0.447323128851     0.148987703696      0.242975298537      
8600000000.0        0.151706886608      0.244715809043      0.826345459314      -0.451495256924     0.826345459314      -0.451495256924     0.151706886608      0.244715809043      
8700000000.0        0.154440840657      0.246423413335      0.823088347632      -0.455635286878     0.823088347632      -0.455635286878     0.154440840657      0.246423413335      
8800000000.0        0.157189118884      0.248098037822      0.81981035063       -0.459743148827     0.81981035063       -0.459743148827     0.157189118884      0.248098037822      
8900000000.0        0.15995127563       0.249739615858      0.816511896149      -0.463818779742     0.816511896149      -0.463818779742     0.15995127563       0.249739615858      
9000000000.0        0.16272686665       0.251348087671      0.813193410418      -0.467862123381     0.813193410418      -0.467862123381     0.16272686665       0.251348087671      
9100000000.0        0.165515449237      0.252923400281      0.80985531794       -0.471873130204     0.80985531794       -0.471873130204     0.165515449237      0.252923400281      
9200000000.0        0.168316582329      0.254465507427      0.806498041378      -0.475851757299     0.806498041378      -0.475851757299     0.168316582329      0.254465507427      
9300000000.0        0.171129826619      0.255974369478      0.803122001442      -0.479797968296     0.803122001442      -0.479797968296     0.171129826619      0.255974369478      
9400000000.0        0.173954744667      0.257449953358      0.799727616783      -0.483711733288     0.799727616783      -0.483711733288     0.173954744667      0.257449953358      
9500000000.0        0.176790900998      0.258892232453      0.796315303889      -0.487593028742     0.796315303889      -0.487593028742     0.176790900998      0.258892232453      
9600000000.0        0.179637862208      0.260301186534      0.792885476981      -0.491441837415     0.792885476981      -0.491441837415     0.179637862208      0.260301186534      
9700000000.0        0.182495197063      0.261676801662      0.789438547913      -0.495258148266     0.789438547913      -0.495258148266     0.182495197063      0.261676801662      
9800000000.0        0.18536247659       0.263019070104      0.785974926078      -0.499041956367     0.785974926078      -0.499041956367     0.18536247659       0.263019070104      
9900000000.0        0.188239274175      0.264327990241      0.782495018312      -0.502793262811     0.782495018312      -0.502793262811     0.188239274175      0.264327990241      
10000000000.0       0.191125165652      0.265603566478      0.778999228804      -0.506512074624     0.778999228804      -0.506512074624     0.191125165652      0.265603566478      
