# Hz S RI R 50.00 
100000000.0         -0.000471177492061  -0.0213579358261    0.999510499051      -0.0214584152284    0.999510499051      -0.0214584152284    -0.000471177492061  -0.0213579358261    
200000000.0         -0.00186510915288   -0.0426521712194    0.998116427186      -0.0428531769947    0.998116427186      -0.0428531769947    -0.00186510915288   -0.0426521712194    
300000000.0         -0.00416493887255   -0.0638230247057    0.995816478665      -0.0641246272852    0.995816478665      -0.0641246272852    -0.00416493887255   -0.0638230247057    
400000000.0         -0.00735732091946   -0.0848124055665    0.992623983441      -0.0852146927004    0.992623983441      -0.0852146927004    -0.00735732091946   -0.0848124055665    
500000000.0         -0.0114240866344    -0.10556415142      0.988557104105      -0.10606722482      0.988557104105      -0.10606722482      -0.0114240866344    -0.10556415142      
600000000.0         -0.0163425217718    -0.126024446255     0.983638551804      -0.126628419237     0.983638551804      -0.126628419237     -0.0163425217718    -0.126024446255     
700000000.0         -0.0220856943649    -0.146142224538     0.977895256664      -0.146847220182     0.977895256664      -0.146847220182     -0.0220856943649    -0.146142224538     
800000000.0         -0.0286228261393    -0.165869536971     0.971357995756      -0.166675686613     0.971357995756      -0.166675686613     -0.0286228261393    -0.165869536971     
900000000.0         -0.0359196996806    -0.185161866738     0.964060985652      -0.186069308692     0.964060985652      -0.186069308692     -0.0359196996806    -0.185161866738     
1000000000.0        -0.0439390927334    -0.203978390132     0.956041447985      -0.204987268575     0.956041447985      -0.204987268575     -0.0439390927334    -0.203978390132     
1100000000.0        -0.052641230613     -0.222282178442     0.947339156963      -0.223392642444     0.947339156963      -0.223392642444     -0.052641230613     -0.222282178442     
1200000000.0        -0.0619842477205    -0.240040340147     0.937995977806      -0.241252542806     0.937995977806      -0.241252542806     -0.0619842477205    -0.240040340147     
1300000000.0        -0.071924649479     -0.257224104224     0.928055404783      -0.258538201895     0.928055404783      -0.258538201895     -0.071924649479     -0.257224104224     
1400000000.0        -0.0824177665993    -0.273808846843     0.917562106923      -0.275224998452     0.917562106923      -0.275224998452     -0.0824177665993    -0.273808846843     
1500000000.0        -0.0934181943797    -0.289774064954     0.906561488709      -0.291292431383     0.906561488709      -0.291292431383     -0.0934181943797    -0.289774064954     
1600000000.0        -0.10488021069      -0.305103301228     0.89509927208       -0.306724044756     0.89509927208       -0.306724044756     -0.10488021069      -0.305103301228     
1700000000.0        -0.116758167337     -0.319784025525     0.883221105064      -0.321507309343     0.883221105064      -0.321507309343     -0.116758167337     -0.319784025525     
1800000000.0        -0.129006850586     -0.3338074786       0.870972201243      -0.335633466358     0.870972201243      -0.335633466358     -0.129006850586     -0.3338074786       
1900000000.0        -0.141581807738     -0.347168483968     0.858397013185      -0.349097339384     0.858397013185      -0.349097339384     -0.141581807738     -0.347168483968     
2000000000.0        -0.154439637659     -0.359865233973     0.845538941902      -0.361897120476     0.845538941902      -0.361897120476     -0.154439637659     -0.359865233973     
2100000000.0        -0.167538244217     -0.371899055964     0.832440083414      -0.374034136381     0.832440083414      -0.374034136381     -0.167538244217     -0.371899055964     
2200000000.0        -0.180837052414     -0.383274164265     0.819141012618      -0.38551260054      0.819141012618      -0.38551260054      -0.180837052414     -0.383274164265     
2300000000.0        -0.194297187818     -0.39399740322      0.805680603851      -0.396339356168     0.805680603851      -0.396339356168     -0.194297187818     -0.39399740322      
2400000000.0        -0.207881620561     -0.404077986171     0.792095886892      -0.406523615261     0.792095886892      -0.406523615261     -0.207881620561     -0.404077986171     
2500000000.0        -0.221555275707     -0.413527234674     0.778421936597      -0.416076697837     0.778421936597      -0.416076697837     -0.221555275707     -0.413527234674     
2600000000.0        -0.23528511221      -0.422358321736     0.764691793933      -0.425011775203     0.764691793933      -0.425011775203     -0.23528511221      -0.422358321736     
2700000000.0        -0.249040173011     -0.430586022268     0.750936415887      -0.433343620425     0.750936415887      -0.433343620425     -0.249040173011     -0.430586022268     
2800000000.0        -0.262791608997     -0.438226473389     0.737184651504      -0.441088368655     0.737184651504      -0.441088368655     -0.262791608997     -0.438226473389     
2900000000.0        -0.276512679666     -0.445296946688     0.72346324122       -0.448263289413     0.72346324122       -0.448263289413     -0.276512679666     -0.445296946688     
3000000000.0        -0.290178733371     -0.451815634033     0.709796836622      -0.454886572414     0.709796836622      -0.454886572414     -0.290178733371     -0.451815634033     
3100000000.0        -0.303767169958     -0.457801448074     0.696208037806      -0.460977128079     0.696208037806      -0.460977128079     -0.303767169958     -0.457801448074     
3200000000.0        -0.317257388526     -0.463273838132     0.682717445616      -0.466554403448     0.682717445616      -0.466554403448     -0.317257388526     -0.463273838132     
3300000000.0        -0.330630722886     -0.468252621854     0.669343726189      -0.471638213844     0.669343726189      -0.471638213844     -0.330630722886     -0.468252621854     
3400000000.0        -0.343870367126     -0.472757832661     0.656103685387      -0.476248590326     0.656103685387      -0.476248590326     -0.343870367126     -0.472757832661     
3500000000.0        -0.356961293497     -0.476809582764     0.643012350911      -0.480405642728     0.643012350911      -0.480405642728     -0.356961293497     -0.476809582764     
3600000000.0        -0.369890164604     -0.480427941328     0.630083060109      -0.484129437821     0.630083060109      -0.484129437821     -0.369890164604     -0.480427941328     
3700000000.0        -0.382645241714     -0.48363282716      0.61732755167       -0.487439892016     0.61732755167       -0.487439892016     -0.382645241714     -0.48363282716      
3800000000.0        -0.395216290739     -0.486443915202     0.604756059641      -0.490356677862     0.604756059641      -0.490356677862     -0.395216290739     -0.486443915202     
3900000000.0        -0.407594487259     -0.488880555995     0.592377408401      -0.492899143514     0.592377408401      -0.492899143514     -0.407594487259     -0.488880555995     
4000000000.0        -0.419772321775     -0.490961707216     0.580199107411      -0.495086244282     0.580199107411      -0.495086244282     -0.419772321775     -0.490961707216     
4100000000.0        -0.431743506157     -0.492705876385     0.568227444761      -0.496936485338     0.568227444761      -0.496936485338     -0.431743506157     -0.492705876385     
4200000000.0        -0.443502882121     -0.494131073779     0.556467578703      -0.498467874638     0.556467578703      -0.498467874638     -0.443502882121     -0.494131073779     
4300000000.0        -0.455046332379     -0.495254774647     0.544923626488      -0.499697885139     0.544923626488      -0.499697885139     -0.455046332379     -0.495254774647     
4400000000.0        -0.466370694997     -0.496093889803     0.533598750016      -0.500643425393     0.533598750016      -0.500643425393     -0.466370694997     -0.496093889803     
4500000000.0        -0.477473681361     -0.496664743722     0.522495237872      -0.501320817653     0.522495237872      -0.501320817653     -0.477473681361     -0.496664743722     
4600000000.0        -0.488353798013     -0.49698305931      0.511614583481      -0.501745782639     0.511614583481      -0.501745782639     -0.488353798013     -0.49698305931      
4700000000.0        -0.499010272592     -0.497063948559     0.500957559174      -0.501933430199     0.500957559174      -0.501933430199     -0.499010272592     -0.497063948559     
4800000000.0        -0.509442983958     -0.496921908352     0.490524286064      -0.501898255111     0.490524286064      -0.501898255111     -0.509442983958     -0.496921908352     
4900000000.0        -0.51965239656      -0.496570820732     0.480314299672      -0.501654137364     0.480314299672      -0.501654137364     -0.51965239656      -0.496570820732     
5000000000.0        -0.529639499043     -0.496023957026     0.470326611327      -0.501214346267     0.470326611327      -0.501214346267     -0.529639499043     -0.496023957026     
5100000000.0        -0.539405747011     -0.495293985225     0.460559765399      -0.500591547846     0.460559765399      -0.500591547846     -0.539405747011     -0.495293985225     
5200000000.0        -0.548953009879     -0.494392980132     0.451011892448      -0.499797814983     0.451011892448      -0.499797814983     -0.548953009879     -0.494392980132     
5300000000.0        -0.558283521659     -0.493332435787     0.441680758437      -0.498844639844     0.441680758437      -0.498844639844     -0.558283521659     -0.493332435787     
5400000000.0        -0.56739983556      -0.492123279764     0.432563810133      -0.49774294818      0.432563810133      -0.49774294818      -0.56739983556      -0.492123279764     
5500000000.0        -0.576304782204     -0.490775888965     0.423658216892      -0.496503115113     0.423658216892      -0.496503115113     -0.576304782204     -0.490775888965     
5600000000.0        -0.585001431308     -0.489300106579     0.414960908973      -0.495134982101     0.414960908973      -0.495134982101     -0.585001431308     -0.489300106579     
5700000000.0        -0.593493056633     -0.487705259914     0.406468612594      -0.493647874771     0.406468612594      -0.493647874771     -0.593493056633     -0.487705259914     
5800000000.0        -0.601783104012     -0.486000178859     0.3981778819        -0.492050621375     0.3981778819        -0.492050621375     -0.601783104012     -0.486000178859     
5900000000.0        -0.609875162273     -0.484193214742     0.390085128043      -0.490351571654     0.390085128043      -0.490351571654     -0.609875162273     -0.484193214742     
6000000000.0        -0.617772936864     -0.482292259407     0.382186645555      -0.488558615911     0.382186645555      -0.488558615911     -0.617772936864     -0.482292259407     
6100000000.0        -0.625480225997     -0.48030476434      0.374478636203      -0.486679204134     0.374478636203      -0.486679204134     -0.625480225997     -0.48030476434      
6200000000.0        -0.633000899141     -0.478237759703     0.3669572305        -0.484720365036     0.3669572305        -0.484720365036     -0.633000899141     -0.478237759703     
6300000000.0        -0.640338877677     -0.476097873173     0.359618507044      -0.482688724888     0.359618507044      -0.482688724888     -0.640338877677     -0.476097873173     
6400000000.0        -0.647498117562     -0.473891348472     0.352458509862      -0.48059052605      0.352458509862      -0.48059052605      -0.647498117562     -0.473891348472     
6500000000.0        -0.654482593839     -0.471624063529     0.34547326389       -0.478431645134     0.34547326389       -0.478431645134     -0.654482593839     -0.471624063529     
6600000000.0        -0.661296286851     -0.469301548187     0.33865878877       -0.476217610706     0.33865878877       -0.476217610706     -0.661296286851     -0.469301548187     
6700000000.0        -0.667943170003     -0.466929001426     0.332011111078      -0.473953620513     0.332011111078      -0.473953620513     -0.667943170003     -0.466929001426     
6800000000.0        -0.674427198963     -0.464511308046     0.325526275128      -0.471644558161     0.325526275128      -0.471644558161     -0.674427198963     -0.464511308046     
6900000000.0        -0.680752302157     -0.462053054794     0.319200352478      -0.469295009242     0.319200352478      -0.469295009242     -0.680752302157     -0.462053054794     
7000000000.0        -0.686922372458     -0.4595585459       0.313029450239      -0.466909276876     0.313029450239      -0.466909276876     -0.686922372458     -0.4595585459       
7100000000.0        -0.692941259949     -0.457031818031     0.307009718311      -0.464491396652     0.307009718311      -0.464491396652     -0.692941259949     -0.457031818031     
7200000000.0        -0.698812765672     -0.454476654629     0.301137355634      -0.462045150972     0.301137355634      -0.462045150972     -0.698812765672     -0.454476654629     
7300000000.0        -0.704540636267     -0.451896599654     0.295408615556      -0.459574082796     0.295408615556      -0.459574082796     -0.704540636267     -0.451896599654     
7400000000.0        -0.710128559404     -0.449294970727     0.289819810387      -0.457081508778     0.289819810387      -0.457081508778     -0.710128559404     -0.449294970727     
7500000000.0        -0.715580159954     -0.446674871676     0.284367315243      -0.454570531815     0.284367315243      -0.454570531815     -0.715580159954     -0.446674871676     
7600000000.0        -0.720898996804     -0.444039204506     0.27904757122       -0.452044053014     0.27904757122       -0.452044053014     -0.720898996804     -0.444039204506     
7700000000.0        -0.726088560261     -0.441390680793     0.273857087997      -0.449504783087     0.273857087997      -0.449504783087     -0.726088560261     -0.441390680793     
7800000000.0        -0.73115226998      -0.438731832526     0.268792445903      -0.446955253189     0.268792445903      -0.446955253189     -0.73115226998      -0.438731832526     
7900000000.0        -0.736093473367     -0.43606502241      0.263850297517      -0.444397825223     0.263850297517      -0.444397825223     -0.736093473367     -0.43606502241      
8000000000.0        -0.740915444396     -0.433392453644     0.259027368849      -0.441834701621     0.259027368849      -0.441834701621     -0.740915444396     -0.433392453644     
8100000000.0        -0.745621382805     -0.430716179204     0.254320460149      -0.439267934613     0.254320460149      -0.439267934613     -0.745621382805     -0.430716179204     
8200000000.0        -0.750214413616     -0.428038110628     0.249726446378      -0.436699435028     0.249726446378      -0.436699435028     -0.750214413616     -0.428038110628     
8300000000.0        -0.754697586957     -0.425360026352     0.245242277394      -0.434130980615     0.245242277394      -0.434130980615     -0.754697586957     -0.425360026352     
8400000000.0        -0.759073878133     -0.422683579582     0.240864977877      -0.431564223926     0.240864977877      -0.431564223926     -0.759073878133     -0.422683579582     
8500000000.0        -0.763346187931     -0.420010305756     0.236591647026      -0.429000699764     0.236591647026      -0.429000699764     -0.763346187931     -0.420010305756     
8600000000.0        -0.767517343122     -0.417341629584     0.232419458056      -0.426441832238     0.232419458056      -0.426441832238     -0.767517343122     -0.417341629584     
8700000000.0        -0.771590097128     -0.414678871709     0.228345657528      -0.423888941409     0.228345657528      -0.423888941409     -0.771590097128     -0.414678871709     
8800000000.0        -0.775567130853     -0.412023254993     0.224367564528      -0.421343249582     0.224367564528      -0.421343249582     -0.775567130853     -0.412023254993     
8900000000.0        -0.779451053624     -0.409375910447     0.22048256971       -0.418805887238     0.22048256971       -0.418805887238     -0.779451053624     -0.409375910447     
9000000000.0        -0.783244404258     -0.406737882834     0.216688134245      -0.41627789863      0.216688134245      -0.41627789863      -0.783244404258     -0.406737882834     
9100000000.0        -0.786949652213     -0.404110135946     0.212981788661      -0.413760247062     0.212981788661      -0.413760247062     -0.786949652213     -0.404110135946     
9200000000.0        -0.790569198815     -0.401493557584     0.209361131618      -0.41125381987      0.209361131618      -0.41125381987      -0.790569198815     -0.401493557584     
9300000000.0        -0.794105378554     -0.398888964247     0.205823828609      -0.408759433109     0.205823828609      -0.408759433109     -0.794105378554     -0.398888964247     
9400000000.0        -0.79756046043      -0.396297105557     0.202367610623      -0.406277835975     0.202367610623      -0.406277835975     -0.79756046043      -0.396297105557     
9500000000.0        -0.800936649336     -0.393718668419     0.19899027275       -0.40380971497      0.19899027275       -0.40380971497      -0.800936649336     -0.393718668419     
9600000000.0        -0.804236087477     -0.391154280944     0.195689672772      -0.401355697819     0.195689672772      -0.401355697819     -0.804236087477     -0.391154280944     
9700000000.0        -0.80746085581      -0.388604516143     0.192463729717      -0.398916357164     0.192463729717      -0.398916357164     -0.80746085581      -0.388604516143     
9800000000.0        -0.810612975499     -0.386069895396     0.189310422408      -0.396492214041     0.189310422408      -0.396492214041     -0.810612975499     -0.386069895396     
9900000000.0        -0.813694409376     -0.383550891732     0.186227787997      -0.394083741143     0.186227787997      -0.394083741143     -0.813694409376     -0.383550891732     
10000000000.0       -0.816707063407     -0.381047932897     0.183213920504      -0.391691365903     0.183213920504      -0.391691365903     -0.816707063407     -0.381047932897     
