# Hz S RI R 50.00 
100000000.0         0.000554538488756   -0.00267161925258   0.999395736561      -0.00628595200451   0.999395736561      -0.00628595200451   0.000554538488756   -0.00267161925258   
200000000.0         0.000503744221973   -0.00534297640422   0.999317546905      -0.0125717171748    0.999317546905      -0.0125717171748    0.000503744221973   -0.00534297640422   
300000000.0         0.000418357830826   -0.0080137231445    0.999193688067      -0.0188570308117    0.999193688067      -0.0188570308117    0.000418357830826   -0.0080137231445    
400000000.0         0.000298880665441   -0.0106834868386    0.999023661998      -0.0251415728868    0.999023661998      -0.0251415728868    0.000298880665442   -0.0106834868386    
500000000.0         0.000145511790543   -0.0133518799412    0.998807280352      -0.0314249969215    0.998807280352      -0.0314249969215    0.000145511790543   -0.0133518799412    
600000000.0         -4.16389290192e-05  -0.0160185044557    0.99854445249       -0.0377069392369    0.99854445249       -0.0377069392369    -4.16389290191e-05  -0.0160185044557    
700000000.0         -0.000262496489537  -0.0186829544389    0.998235131931      -0.0439870236107    0.998235131931      -0.0439870236107    -0.000262496489537  -0.0186829544389    
800000000.0         -0.000517000788837  -0.0213448176142    0.997879297002      -0.0502648640824    0.997879297002      -0.0502648640824    -0.000517000788837  -0.0213448176142    
900000000.0         -0.000805097645059  -0.0240036765101    0.997476942348      -0.0565400668367    0.997476942348      -0.0565400668367    -0.000805097645059  -0.0240036765101    
1000000000.0        -0.00112673417363   -0.0266591093192    0.997028074722      -0.0628122315629    0.997028074722      -0.0628122315629    -0.00112673417363   -0.0266591093192    
1100000000.0        -0.00148185616343   -0.0293106905783    0.99653271071       -0.0690809524929    0.99653271071       -0.0690809524929    -0.00148185616343   -0.0293106905783    
1200000000.0        -0.00187040647167   -0.03195799173      0.995990875426      -0.0753458192275    0.995990875426      -0.0753458192275    -0.00187040647167   -0.03195799173      
1300000000.0        -0.00229232398152   -0.0346005816002    0.995402601728      -0.0816064174168    0.995402601728      -0.0816064174168    -0.00229232398152   -0.0346005816002    
1400000000.0        -0.0027475428917    -0.037238026815     0.994767929736      -0.0878623293362    0.994767929736      -0.0878623293362    -0.0027475428917    -0.037238026815     
1500000000.0        -0.00323599221262   -0.0398698921723    0.994086906524      -0.094113134386     0.994086906524      -0.094113134386     -0.00323599221262   -0.0398698921723    
1600000000.0        -0.00375759539748   -0.042495740979     0.993359585919      -0.100358409531     0.993359585919      -0.100358409531     -0.00375759539748   -0.042495740979     
1700000000.0        -0.00431227006499   -0.0451151353602    0.99258602838       -0.106597729699     0.99258602838       -0.106597729699     -0.00431227006499   -0.0451151353602    
1800000000.0        -0.00489992778678   -0.0477276365479    0.991766300903      -0.112830668136     0.991766300903      -0.112830668136     -0.00489992778678   -0.0477276365479    
1900000000.0        -0.00552047392208   -0.0503328051511    0.990900476973      -0.11905679674      0.990900476973      -0.11905679674      -0.00552047392208   -0.0503328051511    
2000000000.0        -0.00617380748793   -0.0529302014118    0.989988636519      -0.125275686371     0.989988636519      -0.125275686371     -0.00617380748793   -0.0529302014118    
2100000000.0        -0.00685982105702   -0.0555193854493    0.989030865891      -0.131486907131     0.989030865891      -0.131486907131     -0.00685982105702   -0.0555193854493    
2200000000.0        -0.00757840067744   -0.0580999174929    0.988027257833      -0.137690028646     0.988027257833      -0.137690028646     -0.00757840067744   -0.0580999174929    
2300000000.0        -0.00832942581042   -0.0606713581073    0.986977911474      -0.143884620314     0.986977911474      -0.143884620314     -0.00832942581042   -0.0606713581073    
2400000000.0        -0.00911276928305   -0.0632332684092    0.985882932302      -0.150070251556     0.985882932302      -0.150070251556     -0.00911276928305   -0.0632332684092    
2500000000.0        -0.0099282972537    -0.0657852102769    0.984742432155      -0.156246492049     0.984742432155      -0.156246492049     -0.0099282972537    -0.0657852102769    
2600000000.0        -0.0107758691887    -0.0683267465544    0.983556529198      -0.162412911955     0.983556529198      -0.162412911955     -0.0107758691887    -0.0683267465544    
2700000000.0        -0.0116553378484    -0.0708574412497    0.982325347904      -0.16856908213      0.982325347904      -0.16856908213      -0.0116553378484    -0.0708574412497    
2800000000.0        -0.012566549283     -0.0733768597276    0.981049019032      -0.174714574346     0.981049019032      -0.174714574346     -0.012566549283     -0.0733768597276    
2900000000.0        -0.0135093428347    -0.0758845688982    0.979727679598      -0.180848961481     0.979727679598      -0.180848961481     -0.0135093428347    -0.0758845688982    
3000000000.0        -0.0144835511487    -0.0783801374006    0.978361472845      -0.186971817729     0.978361472845      -0.186971817729     -0.0144835511487    -0.0783801374006    
3100000000.0        -0.0154890001902    -0.0808631357828    0.976950548214      -0.19308271878      0.976950548214      -0.19308271878      -0.0154890001902    -0.0808631357828    
3200000000.0        -0.0165255092677    -0.0833331366772    0.975495061301      -0.199181242012     0.975495061301      -0.199181242012     -0.0165255092677    -0.0833331366772    
3300000000.0        -0.0175928910621    -0.0857897149725    0.973995173818      -0.205266966669     0.973995173818      -0.205266966669     -0.0175928910621    -0.0857897149725    
3400000000.0        -0.0186909516616    -0.0882324479817    0.97245105355       -0.211339474039     0.97245105355       -0.211339474039     -0.0186909516616    -0.0882324479817    
3500000000.0        -0.0198194906021    -0.0906609156067    0.970862874302      -0.217398347623     0.970862874302      -0.217398347623     -0.0198194906021    -0.0906609156067    
3600000000.0        -0.0209783009113    -0.093074700499     0.969230815852      -0.223443173302     0.969230815852      -0.223443173302     -0.0209783009113    -0.093074700499     
3700000000.0        -0.0221671691596    -0.0954733882176    0.967555063887      -0.229473539499     0.967555063887      -0.229473539499     -0.0221671691596    -0.0954733882176    
3800000000.0        -0.0233858755134    -0.0978565673824    0.965835809952      -0.23548903734      0.965835809952      -0.23548903734      -0.0233858755134    -0.0978565673824    
3900000000.0        -0.0246341937942    -0.100223829825     0.964073251379      -0.241489260803     0.964073251379      -0.241489260803     -0.0246341937942    -0.100223829825     
4000000000.0        -0.0259118915412    -0.102574770737     0.962267591223      -0.247473806871     0.962267591223      -0.247473806871     -0.0259118915412    -0.102574770737     
4100000000.0        -0.0272187300783    -0.104908988812     0.96041903819       -0.253442275679     0.96041903819       -0.253442275679     -0.0272187300783    -0.104908988812     
4200000000.0        -0.0285544645842    -0.107226086387     0.958527806565      -0.259394270654     0.958527806565      -0.259394270654     -0.0285544645842    -0.107226086387     
4300000000.0        -0.0299188441669    -0.10952566958      0.956594116133      -0.265329398654     0.956594116133      -0.265329398654     -0.0299188441669    -0.10952566958      
4400000000.0        -0.0313116119413    -0.111807348423     0.954618192097      -0.271247270103     0.954618192097      -0.271247270103     -0.0313116119413    -0.111807348423     
4500000000.0        -0.0327325051104    -0.114070736993     0.952600264996      -0.27714749912      0.952600264996      -0.27714749912      -0.0327325051104    -0.114070736993     
4600000000.0        -0.0341812550495    -0.116315453538     0.950540570621      -0.283029703648     0.950540570621      -0.283029703648     -0.0341812550495    -0.116315453538     
4700000000.0        -0.0356575873933    -0.118541120602     0.948439349918      -0.288893505575     0.948439349918      -0.288893505575     -0.0356575873933    -0.118541120602     
4800000000.0        -0.0371612221268    -0.120747365144     0.946296848903      -0.294738530854     0.946296848903      -0.294738530854     -0.0371612221268    -0.120747365144     
4900000000.0        -0.038691873678     -0.122933818658     0.944113318564      -0.300564409621     0.944113318564      -0.300564409621     -0.038691873678     -0.122933818658     
5000000000.0        -0.0402492510141    -0.12510011728      0.941889014763      -0.306370776303     0.941889014763      -0.306370776303     -0.0402492510141    -0.12510011728      
5100000000.0        -0.0418330577396    -0.127245901904     0.939624198135      -0.312157269728     0.939624198135      -0.312157269728     -0.0418330577396    -0.127245901904     
5200000000.0        -0.0434429921974    -0.129370818288     0.93731913399       -0.317923533229     0.93731913399       -0.317923533229     -0.0434429921974    -0.129370818288     
5300000000.0        -0.0450787475721    -0.131474517151     0.934974092201      -0.323669214747     0.934974092201      -0.323669214747     -0.0450787475721    -0.131474517151     
5400000000.0        -0.0467400119953    -0.133556654283     0.932589347105      -0.329393966922     0.932589347105      -0.329393966922     -0.0467400119953    -0.133556654283     
5500000000.0        -0.0484264686529    -0.13561689063      0.930165177389      -0.335097447193     0.930165177389      -0.335097447193     -0.0484264686529    -0.13561689063      
5600000000.0        -0.0501377958953    -0.137654892395     0.927701865981      -0.340779317883     0.927701865981      -0.340779317883     -0.0501377958953    -0.137654892395     
5700000000.0        -0.0518736673479    -0.139670331122     0.925199699936      -0.346439246288     0.925199699936      -0.346439246288     -0.0518736673479    -0.139670331122     
5800000000.0        -0.0536337520248    -0.141662883786     0.922658970326      -0.352076904754     0.922658970326      -0.352076904754     -0.0536337520248    -0.141662883786     
5900000000.0        -0.0554177144433    -0.143632232871     0.920079972118      -0.357691970762     0.920079972118      -0.357691970762     -0.0554177144433    -0.143632232871     
6000000000.0        -0.0572252147404    -0.145578066451     0.917463004062      -0.363284126997     0.917463004062      -0.363284126997     -0.0572252147404    -0.145578066451     
6100000000.0        -0.0590559087899    -0.147500078265     0.914808368568      -0.368853061422     0.914808368568      -0.368853061422     -0.0590559087899    -0.147500078265     
6200000000.0        -0.060909448322     -0.149397967788     0.91211637159       -0.374398467344     0.91211637159       -0.374398467344     -0.060909448322     -0.149397967788     
6300000000.0        -0.062785481043     -0.151271440299     0.909387322502      -0.379920043478     0.909387322502      -0.379920043478     -0.062785481043     -0.151271440299     
6400000000.0        -0.0646836507568    -0.153120206947     0.906621533977      -0.385417494007     0.906621533977      -0.385417494007     -0.0646836507568    -0.153120206947     
6500000000.0        -0.0666035974867    -0.15494398481      0.903819321865      -0.390890528638     0.903819321865      -0.390890528638     -0.0666035974867    -0.15494398481      
6600000000.0        -0.068544957599     -0.156742496955     0.900981005068      -0.396338862654     0.900981005068      -0.396338862654     -0.068544957599     -0.156742496955     
6700000000.0        -0.0705073639263    -0.158515472491     0.898106905413      -0.401762216966     0.898106905413      -0.401762216966     -0.0705073639263    -0.158515472491     
6800000000.0        -0.0724904458925    -0.16026264662      0.89519734753       -0.407160318152     0.89519734753       -0.407160318152     -0.0724904458925    -0.16026264662      
6900000000.0        -0.0744938296372    -0.161983760684     0.892252658727      -0.412532898507     0.892252658727      -0.412532898507     -0.0744938296372    -0.161983760684     
7000000000.0        -0.0765171381419    -0.16367856221      0.889273168861      -0.417879696074     0.889273168861      -0.417879696074     -0.0765171381419    -0.16367856221      
7100000000.0        -0.0785599913554    -0.16534680495      0.88625921021       -0.423200454685     0.88625921021       -0.423200454685     -0.0785599913554    -0.16534680495      
7200000000.0        -0.0806220063198    -0.166988248917     0.883211117352      -0.428494923988     0.883211117352      -0.428494923988     -0.0806220063198    -0.166988248917     
7300000000.0        -0.0827027972974    -0.168602660424     0.880129227033      -0.433762859473     0.880129227033      -0.433762859473     -0.0827027972974    -0.168602660424     
7400000000.0        -0.0848019758967    -0.170189812106     0.877013878041      -0.439004022504     0.877013878041      -0.439004022504     -0.0848019758967    -0.170189812106     
7500000000.0        -0.0869191511984    -0.171749482956     0.873865411081      -0.444218180333     0.873865411081      -0.444218180333     -0.0869191511984    -0.171749482956     
7600000000.0        -0.0890539298825    -0.173281458344     0.870684168645      -0.449405106119     0.870684168645      -0.449405106119     -0.0890539298825    -0.173281458344     
7700000000.0        -0.0912059163536    -0.174785530039     0.867470494888      -0.454564578946     0.867470494888      -0.454564578946     -0.0912059163536    -0.174785530039     
7800000000.0        -0.0933747128671    -0.176261496229     0.864224735503      -0.459696383827     0.864224735503      -0.459696383827     -0.0933747128671    -0.176261496229     
7900000000.0        -0.0955599196546    -0.177709161532     0.86094723759       -0.464800311718     0.86094723759       -0.464800311718     -0.0955599196546    -0.177709161532     
8000000000.0        -0.0977611350485    -0.17912833701      0.857638349533      -0.469876159521     0.857638349533      -0.469876159521     -0.0977611350485    -0.17912833701      
8100000000.0        -0.0999779556072    -0.180518840178     0.85429842088       -0.474923730083     0.85429842088       -0.474923730083     -0.0999779556072    -0.180518840178     
8200000000.0        -0.102209976238     -0.181880495008     0.85092780221       -0.479942832197     0.85092780221       -0.479942832197     -0.102209976238     -0.181880495008     
8300000000.0        -0.104456790321     -0.183213131932     0.847526845015      -0.484933280594     0.847526845015      -0.484933280594     -0.104456790321     -0.183213131932     
8400000000.0        -0.106717989832     -0.184516587842     0.844095901579      -0.489894895938     0.844095901579      -0.489894895938     -0.106717989832     -0.184516587842     
8500000000.0        -0.108993165462     -0.185790706087     0.840635324849      -0.494827504814     0.840635324849      -0.494827504814     -0.108993165462     -0.185790706087     
8600000000.0        -0.11128190674      -0.187035336466     0.837145468322      -0.499730939714     0.837145468322      -0.499730939714     -0.11128190674      -0.187035336466     
8700000000.0        -0.113583802152     -0.188250335222     0.83362668592       -0.504605039021     0.83362668592       -0.504605039021     -0.113583802152     -0.188250335222     
8800000000.0        -0.11589843926      -0.189435565028     0.830079331872      -0.509449646988     0.830079331872      -0.509449646988     -0.11589843926      -0.189435565028     
8900000000.0        -0.118225404819     -0.190590894972     0.826503760599      -0.514264613718     0.826503760599      -0.514264613718     -0.118225404819     -0.190590894972     
9000000000.0        -0.120564284894     -0.191716200546     0.822900326594      -0.519049795137     0.822900326594      -0.519049795137     -0.120564284894     -0.191716200546     
9100000000.0        -0.122914664975     -0.192811363618     0.819269384308      -0.523805052968     0.819269384308      -0.523805052968     -0.122914664975     -0.192811363618     
9200000000.0        -0.125276130091     -0.193876272421     0.815611288038      -0.528530254698     0.815611288038      -0.528530254698     -0.125276130091     -0.193876272421     
9300000000.0        -0.127648264923     -0.194910821519     0.81192639181       -0.533225273548     0.81192639181       -0.533225273548     -0.127648264923     -0.194910821519     
9400000000.0        -0.130030653916     -0.195914911787     0.808215049273      -0.537889988439     0.808215049273      -0.537889988439     -0.130030653916     -0.195914911787     
9500000000.0        -0.132422881384     -0.19688845038      0.804477613587      -0.542524283949     0.804477613587      -0.542524283949     -0.132422881384     -0.19688845038      
9600000000.0        -0.134824531628     -0.197831350702     0.800714437312      -0.54712805028      0.800714437312      -0.54712805028      -0.134824531628     -0.197831350702     
9700000000.0        -0.137235189033     -0.198743532375     0.796925872308      -0.551701183207     0.796925872308      -0.551701183207     -0.137235189033     -0.198743532375     
9800000000.0        -0.139654438179     -0.1996249212       0.793112269624      -0.556243584044     0.793112269624      -0.556243584044     -0.139654438179     -0.1996249212       
9900000000.0        -0.142081863943     -0.200475449123     0.789273979397      -0.560755159588     0.789273979397      -0.560755159588     -0.142081863943     -0.200475449123     
10000000000.0       -0.144517051602     -0.201295054195     0.785411350751      -0.565235822075     0.785411350751      -0.565235822075     -0.144517051602     -0.201295054195     
