# Hz S RI R 50.00 
100000000.0         0.0101216266741     0.00187439176882    0.989874337384      -0.00356667596592   0.989874337384      -0.00356667596592   0.0101216266741     0.00187439176882    
200000000.0         0.010207642516      0.0037479480803     0.989782411794      -0.00713252860772   0.989782411794      -0.00713252860772   0.010207642516      0.0037479480803     
300000000.0         0.0102893996493     0.00562085415038    0.98969187081       -0.0106977524726    0.98969187081       -0.0106977524726    0.0102893996493     0.00562085415038    
400000000.0         0.0103756115993     0.00749310282473    0.989594000576      -0.0142623477492    0.989594000576      -0.0142623477492    0.0103756115993     0.00749310282473    
500000000.0         0.0104696336246     0.0093646422851     0.989485445452      -0.0178262689607    0.989485445452      -0.0178262689607    0.0104696336246     0.0093646422851     
600000000.0         0.0105731749467     0.0112354009942     0.989364495788      -0.0213894502561    0.989364495788      -0.0213894502561    0.0105731749467     0.0112354009942     
700000000.0         0.0106872427187     0.0131052966567     0.989230143947      -0.0249518145482    0.989230143947      -0.0249518145482    0.0106872427187     0.0131052966567     
800000000.0         0.01081248663       0.0149742403788     0.989081739709      -0.028513277778     0.989081739709      -0.028513277778     0.01081248663       0.0149742403788     
900000000.0         0.0109493523758     0.0168421389049     0.988918836797      -0.0320737512218    0.988918836797      -0.0320737512218    0.0109493523758     0.0168421389049     
1000000000.0        0.0110981594626     0.0187088959453     0.988741115075      -0.0356331428677    0.988741115075      -0.0356331428677    0.0110981594626     0.0187088959453     
1100000000.0        0.0112591444683     0.0205744130229     0.988548337289      -0.039191358298     0.988548337289      -0.039191358298     0.0112591444683     0.0205744130229     
1200000000.0        0.0114324868235     0.0224385900426     0.988340323285      -0.0427483012863    0.988340323285      -0.0427483012863    0.0114324868235     0.0224385900426     
1300000000.0        0.0116183250351     0.0243013256921     0.988116933785      -0.0463038742202    0.988116933785      -0.0463038742202    0.0116183250351     0.0243013256921     
1400000000.0        0.0118167673525     0.0261625177341     0.987878059725      -0.0498579784105    0.987878059725      -0.0498579784105    0.0118167673525     0.0261625177341     
1500000000.0        0.0120278990364     0.0280220632256     0.987623614986      -0.0534105143251    0.987623614986      -0.0534105143251    0.0120278990364     0.0280220632256     
1600000000.0        0.0122517874659     0.0298798586872     0.987353531285      -0.0569613817701    0.987353531285      -0.0569613817701    0.0122517874659     0.0298798586872     
1700000000.0        0.0124884858199     0.0317358002369     0.987067754496      -0.0605104800335    0.987067754496      -0.0605104800335    0.0124884858199     0.0317358002369     
1800000000.0        0.0127380357902     0.0335897836972     0.986766241938      -0.0640577080012    0.986766241938      -0.0640577080012    0.0127380357902     0.0335897836972     
1900000000.0        0.013000469621      0.035441704684      0.986448960334      -0.0676029642527    0.986448960334      -0.0676029642527    0.013000469621      0.035441704684      
2000000000.0        0.0132758116675     0.0372914586795     0.986115884255      -0.0711461471411    0.986115884255      -0.0711461471411    0.0132758116675     0.0372914586795     
2100000000.0        0.0135640796065     0.0391389410947     0.985766994911      -0.0746871548612    0.985766994911      -0.0746871548612    0.0135640796065     0.0391389410947     
2200000000.0        0.0138652853879     0.0409840473232     0.985402279194      -0.0782258855076    0.985402279194      -0.0782258855076    0.0138652853879     0.0409840473232     
2300000000.0        0.0141794359935     0.0428266727873     0.985021728928      -0.0817622371261    0.985021728928      -0.0817622371261    0.0141794359935     0.0428266727873     
2400000000.0        0.0145065340483     0.044666712979      0.984625340249      -0.0852961077581    0.984625340249      -0.0852961077581    0.0145065340483     0.044666712979      
2500000000.0        0.0148465783167     0.0465040634963     0.984213113118      -0.0888273954811    0.984213113118      -0.0888273954811    0.0148465783167     0.0465040634963     
2600000000.0        0.0151995641121     0.0483386200761     0.983785050906      -0.0923559984441    0.983785050906      -0.0923559984441    0.0151995641121     0.0483386200761     
2700000000.0        0.0155654836345     0.0501702786235     0.983341160058      -0.0958818149004    0.983341160058      -0.0958818149004    0.0155654836345     0.0501702786235     
2800000000.0        0.0159443262535     0.0519989352391     0.982881449811      -0.0994047432371    0.982881449811      -0.0994047432371    0.0159443262535     0.0519989352391     
2900000000.0        0.0163360787463     0.0538244862433     0.982405931958      -0.102924682003     0.982405931958      -0.102924682003     0.0163360787463     0.0538244862433     
3000000000.0        0.0167407254997     0.0556468282004     0.98191462064       -0.106441529932     0.98191462064       -0.106441529932     0.0167407254997     0.0556468282004     
3100000000.0        0.0171582486816     0.0574658579391     0.981407532184      -0.109955185971     0.981407532184      -0.109955185971     0.0171582486816     0.0574658579391     
3200000000.0        0.0175886283896     0.0592814725731     0.980884684947      -0.113465549297     0.980884684947      -0.113465549297     0.0175886283896     0.0592814725731     
3300000000.0        0.0180318427785     0.0610935695204     0.980346099192      -0.11697251934      0.980346099192      -0.11697251934      0.0180318427785     0.0610935695204     
3400000000.0        0.0184878681713     0.0629020465207     0.979791796978      -0.120475995803     0.979791796978      -0.120475995803     0.0184878681713     0.0629020465207     
3500000000.0        0.0189566791568     0.0647068016532     0.979221802059      -0.123975878683     0.979221802059      -0.123975878683     0.0189566791568     0.0647068016532     
3600000000.0        0.0194382486745     0.0665077333525     0.978636139805      -0.127472068282     0.978636139805      -0.127472068282     0.0194382486745     0.0665077333525     
3700000000.0        0.0199325480905     0.0683047404242     0.978034837121      -0.13096446523      0.978034837121      -0.13096446523      0.0199325480905     0.0683047404242     
3800000000.0        0.0204395472643     0.0700977220605     0.977417922383      -0.134452970502     0.977417922383      -0.134452970502     0.0204395472643     0.0700977220605     
3900000000.0        0.0209592146088     0.071886577854      0.976785425378      -0.137937485426     0.976785425378      -0.137937485426     0.0209592146088     0.071886577854      
4000000000.0        0.0214915171441     0.0736712078123     0.976137377251      -0.141417911708     0.976137377251      -0.141417911708     0.0214915171441     0.0736712078123     
4100000000.0        0.0220364205459     0.0754515123709     0.975473810455      -0.14489415144      0.975473810455      -0.14489415144      0.0220364205459     0.0754515123709     
4200000000.0        0.0225938891894     0.077227392407      0.974794758708      -0.148366107114     0.974794758708      -0.148366107114     0.0225938891894     0.077227392407      
4300000000.0        0.0231638861893     0.0789987492513     0.974100256953      -0.151833681641     0.974100256953      -0.151833681641     0.0231638861893     0.0789987492513     
4400000000.0        0.0237463734366     0.0807654847015     0.973390341325      -0.155296778358     0.973390341325      -0.155296778358     0.0237463734366     0.0807654847015     
4500000000.0        0.0243413116318     0.0825275010331     0.972665049112      -0.158755301044     0.972665049112      -0.158755301044     0.0243413116318     0.0825275010331     
4600000000.0        0.0249486603164     0.0842847010121     0.971924418726      -0.162209153933     0.971924418726      -0.162209153933     0.0249486603164     0.0842847010121     
4700000000.0        0.0255683779012     0.0860369879059     0.971168489678      -0.165658241724     0.971168489678      -0.165658241724     0.0255683779012     0.0860369879059     
4800000000.0        0.0262004216937     0.0877842654942     0.970397302545      -0.169102469595     0.970397302545      -0.169102469595     0.0262004216937     0.0877842654942     
4900000000.0        0.0268447479225     0.0895264380807     0.969610898952      -0.172541743213     0.969610898952      -0.172541743213     0.0268447479225     0.0895264380807     
5000000000.0        0.0275013117612     0.0912634105028     0.968809321543      -0.175975968746     0.968809321543      -0.175975968746     0.0275013117612     0.0912634105028     
5100000000.0        0.0281700673505     0.0929950881426     0.967992613961      -0.179405052873     0.967992613961      -0.179405052873     0.0281700673505     0.0929950881426     
5200000000.0        0.0288509678191     0.0947213769366     0.967160820828      -0.182828902796     0.967160820828      -0.182828902796     0.0288509678191     0.0947213769366     
5300000000.0        0.0295439653037     0.0964421833859     0.966313987725      -0.186247426249     0.966313987725      -0.186247426249     0.0295439653037     0.0964421833859     
5400000000.0        0.030249010968      0.0981574145658     0.965452161172      -0.189660531511     0.965452161172      -0.189660531511     0.030249010968      0.0981574145658     
5500000000.0        0.0309660550207     0.0998669781354     0.964575388611      -0.193068127413     0.964575388611      -0.193068127413     0.0309660550207     0.0998669781354     
5600000000.0        0.0316950467329     0.101570782347      0.963683718388      -0.196470123347     0.963683718388      -0.196470123347     0.0316950467329     0.101570782347      
5700000000.0        0.0324359344554     0.103268736054      0.962777199737      -0.19986642928      0.962777199737      -0.19986642928      0.0324359344554     0.103268736054      
5800000000.0        0.0331886656339     0.104960748721      0.961855882762      -0.20325695576      0.961855882762      -0.20325695576      0.0331886656339     0.104960748721      
5900000000.0        0.0339531868256     0.106646730435      0.960919818427      -0.206641613926     0.960919818427      -0.206641613926     0.0339531868256     0.106646730435      
6000000000.0        0.0347294437137     0.108326591906      0.959969058533      -0.210020315515     0.959969058533      -0.210020315515     0.0347294437137     0.108326591906      
6100000000.0        0.0355173811226     0.110000244485      0.959003655709      -0.213392972875     0.959003655709      -0.213392972875     0.0355173811226     0.110000244485      
6200000000.0        0.036316943032      0.111667600166      0.958023663396      -0.216759498968     0.958023663396      -0.216759498968     0.036316943032      0.111667600166      
6300000000.0        0.0371280725911     0.113328571595      0.957029135834      -0.220119807383     0.957029135834      -0.220119807383     0.0371280725911     0.113328571595      
6400000000.0        0.0379507121325     0.114983072079      0.956020128045      -0.223473812343     0.956020128045      -0.223473812343     0.0379507121325     0.114983072079      
6500000000.0        0.0387848031852     0.116631015594      0.954996695824      -0.226821428711     0.954996695824      -0.226821428711     0.0387848031852     0.116631015594      
6600000000.0        0.0396302864886     0.118272316789      0.953958895724      -0.230162572        0.953958895724      -0.230162572        0.0396302864886     0.118272316789      
6700000000.0        0.0404871020048     0.119906890998      0.952906785042      -0.233497158377     0.952906785042      -0.233497158377     0.0404871020048     0.119906890998      
6800000000.0        0.0413551889319     0.121534654244      0.951840421806      -0.236825104676     0.951840421806      -0.236825104676     0.0413551889319     0.121534654244      
6900000000.0        0.0422344857166     0.123155523247      0.950759864765      -0.240146328402     0.950759864765      -0.240146328402     0.0422344857166     0.123155523247      
7000000000.0        0.0431249300664     0.12476941543       0.949665173376      -0.243460747735     0.949665173376      -0.243460747735     0.0431249300664     0.12476941543       
7100000000.0        0.0440264589625     0.126376248927      0.94855640779       -0.246768281544     0.94855640779       -0.246768281544     0.0440264589625     0.126376248927      
7200000000.0        0.0449390086715     0.127975942586      0.947433628838      -0.250068849387     0.947433628838      -0.250068849387     0.0449390086715     0.127975942586      
7300000000.0        0.045862514758      0.129568415982      0.946296898025      -0.253362371521     0.946296898025      -0.253362371521     0.045862514758      0.129568415982      
7400000000.0        0.0467969120961     0.131153589415      0.945146277514      -0.256648768908     0.945146277514      -0.256648768908     0.0467969120961     0.131153589415      
7500000000.0        0.0477421348819     0.132731383922      0.943981830113      -0.259927963219     0.943981830113      -0.259927963219     0.0477421348819     0.132731383922      
7600000000.0        0.0486981166448     0.13430172128       0.942803619266      -0.263199876843     0.942803619266      -0.263199876843     0.0486981166448     0.13430172128       
7700000000.0        0.0496647902597     0.135864524013      0.941611709041      -0.266464432891     0.941611709041      -0.266464432891     0.0496647902597     0.135864524013      
7800000000.0        0.0506420879584     0.137419715394      0.940406164116      -0.269721555201     0.940406164116      -0.269721555201     0.0506420879584     0.137419715394      
7900000000.0        0.0516299413414     0.138967219456      0.93918704977       -0.272971168347     0.93918704977       -0.272971168347     0.0516299413414     0.138967219456      
8000000000.0        0.0526282813892     0.140506960992      0.937954431871      -0.27621319764      0.937954431871      -0.27621319764      0.0526282813892     0.140506960992      
8100000000.0        0.053637038474      0.142038865564      0.936708376862      -0.279447569133     0.936708376862      -0.279447569133     0.053637038474      0.142038865564      
8200000000.0        0.0546561423714     0.143562859503      0.935448951755      -0.282674209631     0.935448951755      -0.282674209631     0.0546561423714     0.143562859503      
8300000000.0        0.0556855222711     0.14507886992       0.934176224112      -0.285893046691     0.934176224112      -0.285893046691     0.0556855222711     0.14507886992       
8400000000.0        0.056725106789      0.146586824703      0.932890262043      -0.289104008629     0.932890262043      -0.289104008629     0.056725106789      0.146586824703      
8500000000.0        0.057774823978      0.148086652527      0.931591134184      -0.292307024523     0.931591134184      -0.292307024523     0.057774823978      0.148086652527      
8600000000.0        0.0588346013398     0.149578282859      0.930278909696      -0.295502024218     0.930278909696      -0.295502024218     0.0588346013398     0.149578282859      
8700000000.0        0.0599043658353     0.151061645954      0.928953658248      -0.29868893833      0.928953658248      -0.29868893833      0.0599043658353     0.151061645954      
8800000000.0        0.0609840438968     0.152536672869      0.927615450006      -0.30186769825      0.927615450006      -0.30186769825      0.0609840438968     0.152536672869      
8900000000.0        0.0620735614383     0.154003295461      0.926264355623      -0.305038236149     0.926264355623      -0.305038236149     0.0620735614383     0.154003295461      
9000000000.0        0.0631728438673     0.155461446388      0.92490044623       -0.30820048498      0.92490044623       -0.30820048498      0.0631728438673     0.155461446388      
9100000000.0        0.0642818160954     0.156911059121      0.923523793419      -0.311354378481     0.923523793419      -0.311354378481     0.0642818160954     0.156911059121      
9200000000.0        0.0654004025496     0.15835206794       0.92213446924       -0.31449985118      0.92213446924       -0.31449985118      0.0654004025496     0.15835206794       
9300000000.0        0.0665285271834     0.159784407937      0.920732546183      -0.317636838399     0.920732546183      -0.317636838399     0.0665285271834     0.159784407937      
9400000000.0        0.0676661134875     0.161208015025      0.91931809717       -0.320765276252     0.91931809717       -0.320765276252     0.0676661134875     0.161208015025      
9500000000.0        0.0688130845011     0.162622825933      0.917891195544      -0.323885101655     0.917891195544      -0.323885101655     0.0688130845011     0.162622825933      
9600000000.0        0.0699693628228     0.164028778217      0.916451915058      -0.326996252324     0.916451915058      -0.326996252324     0.0699693628228     0.164028778217      
9700000000.0        0.071134870621      0.165425810254      0.915000329865      -0.330098666777     0.915000329865      -0.330098666777     0.071134870621      0.165425810254      
9800000000.0        0.0723095296456     0.166813861251      0.913536514504      -0.33319228434      0.913536514504      -0.33319228434      0.0723095296456     0.166813861251      
9900000000.0        0.073493261238      0.168192871243      0.912060543892      -0.336277045146     0.912060543892      -0.336277045146     0.073493261238      0.168192871243      
10000000000.0       0.0746859863425     0.169562781096      0.910572493314      -0.339352890141     0.910572493314      -0.339352890141     0.0746859863425     0.169562781096      
