# Hz S RI R 50.00 
100000000.0         0.000582495443549   0.000341885697073   0.999415508353      -0.00110201423492   0.999415508353      -0.00110201423492   0.000582495443549   0.000341885697073   
200000000.0         0.000587173913094   0.000683758056036   0.999409255723      -0.00220403079268   0.999409255723      -0.00220403079268   0.000587173913094   0.000683758056036   
300000000.0         0.000591580752531   0.0010256194439     0.999402696699      -0.00330606041706   0.999402696699      -0.00330606041706   0.000591580752531   0.0010256194439     
400000000.0         0.000596221312141   0.00136746947948    0.999395325842      -0.0044081090471    0.999395325842      -0.0044081090471    0.000596221312142   0.00136746947948    
500000000.0         0.000601290065639   0.00170930721605    0.999386948578      -0.00551018100516   0.999386948578      -0.00551018100516   0.000601290065639   0.00170930721605    
600000000.0         0.000606886121884   0.00205113149517    0.999377465683      -0.00661227970478   0.999377465683      -0.00661227970478   0.000606886121884   0.00205113149517    
700000000.0         0.000613067986271   0.00239294106769    0.999366818525      -0.00771440795481   0.999366818525      -0.00771440795481   0.000613067986271   0.00239294106769    
800000000.0         0.000619873538412   0.00273473464777    0.999354969088      -0.00881656812248   0.999354969088      -0.00881656812248   0.000619873538412   0.00273473464777    
900000000.0         0.000627328923591   0.0030765109394     0.999341891082      -0.00991876223367   0.999341891082      -0.00991876223367   0.000627328923592   0.0030765109394     
1000000000.0        0.000635453057677   0.00341826865156    0.999327565435      -0.0110209920392    0.999327565435      -0.0110209920392    0.000635453057677   0.00341826865156    
1100000000.0        0.00064426013035    0.00376000650661    0.999311977796      -0.0121232590617    0.999311977796      -0.0121232590617    0.00064426013035    0.00376000650661    
1200000000.0        0.000653761096088   0.00410172324538    0.99929511704       -0.0132255646308    0.99929511704       -0.0132255646308    0.000653761096088   0.00410172324538    
1300000000.0        0.000663964611788   0.00444341763024    0.999276974334      -0.0143279099089    0.999276974334      -0.0143279099089    0.000663964611788   0.00444341763024    
1400000000.0        0.000674877652841   0.00478508844693    0.99925754252       -0.0154302959128    0.99925754252       -0.0154302959128    0.000674877652841   0.00478508844693    
1500000000.0        0.000686505932744   0.00512673450553    0.999236815695      -0.0165327235297    0.999236815695      -0.0165327235297    0.000686505932744   0.00512673450553    
1600000000.0        0.000698854197703   0.00546835464094    0.999214788918      -0.0176351935315    0.999214788918      -0.0176351935315    0.000698854197703   0.00546835464094    
1700000000.0        0.000711926438842   0.00580994771301    0.999191458         -0.0187377065859    0.999191458         -0.0187377065859    0.000711926438842   0.00580994771301    
1800000000.0        0.000725726048512   0.00615151260653    0.999166819343      -0.0198402632661    0.999166819343      -0.0198402632661    0.000725726048512   0.00615151260653    
1900000000.0        0.000740255937653   0.00649304823089    0.999140869829      -0.0209428640592    0.999140869829      -0.0209428640592    0.000740255937653   0.00649304823089    
2000000000.0        0.00075551862544    0.00683455351979    0.999113606725      -0.0220455093732    0.999113606725      -0.0220455093732    0.00075551862544    0.00683455351979    
2100000000.0        0.00077151630879    0.00717602743084    0.999085027618      -0.0231481995429    0.999085027618      -0.0231481995429    0.00077151630879    0.00717602743084    
2200000000.0        0.000788250916993   0.00751746894496    0.999055130358      -0.0242509348359    0.999055130358      -0.0242509348359    0.000788250916992   0.00751746894496    
2300000000.0        0.000805724155157   0.00785887706609    0.999023913018      -0.0253537154568    0.999023913018      -0.0253537154568    0.000805724155157   0.00785887706609    
2400000000.0        0.000823937539159   0.0082002508205     0.998991373853      -0.0264565415519    0.998991373853      -0.0264565415519    0.000823937539159   0.0082002508205     
2500000000.0        0.000842892424025   0.00854158925636    0.998957511279      -0.0275594132127    0.998957511279      -0.0275594132127    0.000842892424025   0.00854158925636    
2600000000.0        0.000862590027188   0.00888289144316    0.998922323848      -0.0286623304796    0.998922323848      -0.0286623304796    0.000862590027188   0.00888289144316    
2700000000.0        0.000883031447723   0.00922415647125    0.998885810225      -0.0297652933448    0.998885810225      -0.0297652933448    0.000883031447723   0.00922415647125    
2800000000.0        0.000904217682346   0.00956538345127    0.998847969175      -0.030868301755     0.998847969175      -0.030868301755     0.000904217682346   0.00956538345127    
2900000000.0        0.000926149638849   0.00990657151364    0.998808799553      -0.0319713556145    0.998808799553      -0.0319713556145    0.000926149638849   0.00990657151364    
3000000000.0        0.00094882814743    0.0102477198081     0.998768300286      -0.0330744547869    0.998768300286      -0.0330744547869    0.00094882814743    0.0102477198081     
3100000000.0        0.000972253970319   0.0105888275032     0.998726470369      -0.0341775990976    0.998726470369      -0.0341775990976    0.000972253970319   0.0105888275032     
3200000000.0        0.000996427810006   0.0109298937859     0.998683308855      -0.0352807883356    0.998683308855      -0.0352807883356    0.000996427810006   0.0109298937859     
3300000000.0        0.00102135031629    0.0112709178607     0.998638814848      -0.0363840222555    0.998638814848      -0.0363840222555    0.00102135031629    0.0112709178607     
3400000000.0        0.00104702209239    0.01161189895       0.998592987497      -0.0374873005792    0.998592987497      -0.0374873005792    0.00104702209239    0.01161189895       
3500000000.0        0.00107344370019    0.0119528362927     0.998545825991      -0.0385906229972    0.998545825991      -0.0385906229972    0.00107344370019    0.0119528362927     
3600000000.0        0.00110061566488    0.0122937291446     0.998497329554      -0.0396939891703    0.998497329554      -0.0396939891703    0.00110061566489    0.0122937291446     
3700000000.0        0.00112853847896    0.0126345767773     0.998447497444      -0.0407973987309    0.998447497444      -0.0407973987309    0.00112853847896    0.0126345767773     
3800000000.0        0.00115721260574    0.0129753784784     0.998396328945      -0.0419008512841    0.998396328945      -0.0419008512841    0.00115721260574    0.0129753784784     
3900000000.0        0.0011866384825     0.0133161335505     0.998343823367      -0.0430043464092    0.998343823367      -0.0430043464092    0.0011866384825     0.0133161335505     
4000000000.0        0.00121681652319    0.0136568413114     0.998289980043      -0.0441078836605    0.998289980043      -0.0441078836605    0.00121681652319    0.0136568413114     
4100000000.0        0.0012477471209     0.0139975010934     0.998234798325      -0.0452114625686    0.998234798325      -0.0452114625686    0.0012477471209     0.0139975010934     
4200000000.0        0.00127943065002    0.0143381122429     0.998178277585      -0.046315082641     0.998178277585      -0.046315082641     0.00127943065002    0.0143381122429     
4300000000.0        0.00131186746817    0.0146786741201     0.99812041721       -0.0474187433636    0.99812041721       -0.0474187433636    0.00131186746817    0.0146786741201     
4400000000.0        0.00134505791794    0.0150191860988     0.998061216604      -0.048522444201     0.998061216604      -0.048522444201     0.00134505791794    0.0150191860988     
4500000000.0        0.00137900232842    0.0153596475659     0.99800067518       -0.0496261845975    0.99800067518       -0.0496261845975    0.00137900232842    0.0153596475659     
4600000000.0        0.00141370101665    0.0157000579212     0.997938792368      -0.0507299639781    0.997938792368      -0.0507299639781    0.00141370101665    0.0157000579212     
4700000000.0        0.00144915428883    0.016040416577      0.997875567605      -0.0518337817489    0.997875567605      -0.0518337817489    0.00144915428883    0.016040416577      
4800000000.0        0.00148536244149    0.0163807229577     0.997811000341      -0.0529376372979    0.997811000341      -0.0529376372979    0.00148536244149    0.0163807229577     
4900000000.0        0.00152232576251    0.0167209764998     0.997745090031      -0.0540415299959    0.997745090031      -0.0540415299959    0.00152232576251    0.0167209764998     
5000000000.0        0.00156004453208    0.0170611766513     0.997677836141      -0.0551454591967    0.997677836141      -0.0551454591967    0.00156004453208    0.0170611766513     
5100000000.0        0.00159851902354    0.0174013228716     0.997609238143      -0.0562494242378    0.997609238143      -0.0562494242378    0.00159851902354    0.0174013228716     
5200000000.0        0.00163774950414    0.0177414146311     0.997539295515      -0.0573534244414    0.997539295515      -0.0573534244414    0.00163774950414    0.0177414146311     
5300000000.0        0.00167773623581    0.0180814514111     0.997468007742      -0.0584574591144    0.997468007742      -0.0584574591144    0.00167773623581    0.0180814514111     
5400000000.0        0.00171847947574    0.0184214327033     0.997395374313      -0.0595615275488    0.997395374313      -0.0595615275488    0.00171847947574    0.0184214327033     
5500000000.0        0.00175997947706    0.0187613580099     0.997321394722      -0.060665629023     0.997321394722      -0.060665629023     0.00175997947706    0.0187613580099     
5600000000.0        0.00180223648931    0.0191012268429     0.997246068468      -0.0617697628012    0.997246068468      -0.0617697628012    0.00180223648931    0.0191012268429     
5700000000.0        0.001845250759      0.0194410387242     0.997169395053      -0.0628739281348    0.997169395053      -0.0628739281348    0.001845250759      0.0194410387242     
5800000000.0        0.00188902253008    0.0197807931855     0.997091373982      -0.0639781242621    0.997091373982      -0.0639781242621    0.00188902253008    0.0197807931855     
5900000000.0        0.00193355204432    0.0201204897673     0.997012004764      -0.0650823504089    0.997012004764      -0.0650823504089    0.00193355204432    0.0201204897673     
6000000000.0        0.00197883954177    0.0204601280198     0.996931286909      -0.0661866057893    0.996931286909      -0.0661866057893    0.00197883954177    0.0204601280198     
6100000000.0        0.0020248852611     0.0207997075017     0.996849219931      -0.0672908896053    0.996849219931      -0.0672908896053    0.0020248852611     0.0207997075017     
6200000000.0        0.00207168943994    0.0211392277805     0.996765803344      -0.0683952010479    0.996765803344      -0.0683952010479    0.00207168943994    0.0211392277805     
6300000000.0        0.00211925231521    0.0214786884323     0.996681036666      -0.0694995392967    0.996681036666      -0.0694995392967    0.00211925231521    0.0214786884323     
6400000000.0        0.00216757412341    0.0218180890412     0.996594919415      -0.070603903521     0.996594919415      -0.070603903521     0.00216757412341    0.0218180890412     
6500000000.0        0.00221665510091    0.0221574291997     0.996507451111      -0.0717082928794    0.996507451111      -0.0717082928794    0.00221665510091    0.0221574291997     
6600000000.0        0.0022664954842     0.0224967085079     0.996418631275      -0.0728127065205    0.996418631275      -0.0728127065205    0.0022664954842     0.0224967085079     
6700000000.0        0.0023170955101     0.0228359265738     0.996328459427      -0.0739171435831    0.996328459427      -0.0739171435831    0.0023170955101     0.0228359265738     
6800000000.0        0.00236845541606    0.0231750830128     0.99623693509       -0.0750216031962    0.99623693509       -0.0750216031962    0.00236845541606    0.0231750830128     
6900000000.0        0.00242057544029    0.0235141774477     0.996144057786      -0.0761260844798    0.996144057786      -0.0761260844798    0.00242057544029    0.0235141774477     
7000000000.0        0.00247345582201    0.0238532095084     0.996049827039      -0.0772305865445    0.996049827039      -0.0772305865445    0.00247345582201    0.0238532095084     
7100000000.0        0.00252709680161    0.0241921788317     0.995954242371      -0.0783351084923    0.995954242371      -0.0783351084923    0.00252709680161    0.0241921788317     
7200000000.0        0.00258149862086    0.0245310850614     0.995857303306      -0.0794396494164    0.995857303306      -0.0794396494164    0.00258149862086    0.0245310850614     
7300000000.0        0.00263666152301    0.0248699278479     0.995759009367      -0.0805442084016    0.995759009367      -0.0805442084016    0.00263666152301    0.0248699278479     
7400000000.0        0.002692585753      0.025208706848      0.995659360075      -0.0816487845246    0.995659360075      -0.0816487845246    0.002692585753      0.025208706848      
7500000000.0        0.0027492715576     0.0255474217249     0.995558354955      -0.0827533768539    0.995558354955      -0.0827533768539    0.0027492715576     0.0255474217249     
7600000000.0        0.00280671918552    0.0258860721479     0.995455993527      -0.0838579844503    0.995455993527      -0.0838579844503    0.00280671918552    0.0258860721479     
7700000000.0        0.00286492888757    0.0262246577925     0.995352275314      -0.0849626063668    0.995352275314      -0.0849626063668    0.00286492888757    0.0262246577925     
7800000000.0        0.00292390091674    0.0265631783397     0.995247199836      -0.086067241649     0.995247199836      -0.086067241649     0.00292390091674    0.0265631783397     
7900000000.0        0.00298363552836    0.0269016334767     0.995140766614      -0.0871718893351    0.995140766614      -0.0871718893351    0.00298363552836    0.0269016334767     
8000000000.0        0.00304413298021    0.027240022896      0.995032975166      -0.0882765484563    0.995032975166      -0.0882765484563    0.00304413298021    0.027240022896      
8100000000.0        0.00310539353257    0.0275783462956     0.994923825012      -0.0893812180367    0.994923825012      -0.0893812180367    0.00310539353257    0.0275783462956     
8200000000.0        0.00316741744839    0.0279166033788     0.99481331567       -0.0904858970932    0.99481331567       -0.0904858970932    0.00316741744839    0.0279166033788     
8300000000.0        0.00323020499333    0.028254793854      0.994701446655      -0.0915905846365    0.994701446655      -0.0915905846365    0.00323020499333    0.028254793854      
8400000000.0        0.00329375643586    0.0285929174349     0.994588217484      -0.0926952796703    0.994588217484      -0.0926952796703    0.00329375643586    0.0285929174349     
8500000000.0        0.00335807204737    0.0289309738397     0.994473627672      -0.093799981192     0.994473627672      -0.093799981192     0.00335807204737    0.0289309738397     
8600000000.0        0.00342315210221    0.0292689627917     0.994357676731      -0.0949046881925    0.994357676731      -0.0949046881925    0.00342315210221    0.0292689627917     
8700000000.0        0.00348899687781    0.0296068840187     0.994240364173      -0.0960093996565    0.994240364173      -0.0960093996565    0.00348899687781    0.0296068840187     
8800000000.0        0.00355560665471    0.0299447372532     0.994121689511      -0.0971141145626    0.994121689511      -0.0971141145626    0.00355560665471    0.0299447372532     
8900000000.0        0.00362298171666    0.0302825222318     0.994001652253      -0.0982188318834    0.994001652253      -0.0982188318834    0.00362298171666    0.0302825222318     
9000000000.0        0.00369112235067    0.0306202386957     0.993880251908      -0.0993235505854    0.993880251908      -0.0993235505854    0.00369112235067    0.0306202386957     
9100000000.0        0.00376002884708    0.0309578863902     0.993757487983      -0.100428269629     0.993757487983      -0.100428269629     0.00376002884708    0.0309578863902     
9200000000.0        0.00382970149961    0.0312954650643     0.993633359984      -0.10153298797      0.993633359984      -0.10153298797      0.00382970149961    0.0312954650643     
9300000000.0        0.00390014060543    0.0316329744715     0.993507867414      -0.102637704558     0.993507867414      -0.102637704558     0.00390014060543    0.0316329744715     
9400000000.0        0.0039713464652     0.0319704143688     0.993381009776      -0.103742418335     0.993381009776      -0.103742418335     0.0039713464652     0.0319704143688     
9500000000.0        0.00404331938314    0.0323077845168     0.993252786571      -0.104847128241     0.993252786571      -0.104847128241     0.00404331938314    0.0323077845168     
9600000000.0        0.00411605966705    0.0326450846801     0.9931231973        -0.105951833208     0.9931231973        -0.105951833208     0.00411605966705    0.0326450846801     
9700000000.0        0.0041895676284     0.0329823146263     0.99299224146       -0.107056532164     0.99299224146       -0.107056532164     0.0041895676284     0.0329823146263     
9800000000.0        0.00426384358235    0.0333194741269     0.992859918547      -0.108161224031     0.992859918547      -0.108161224031     0.00426384358235    0.0333194741269     
9900000000.0        0.00433888784776    0.0336565629563     0.992726228057      -0.109265907726     0.992726228057      -0.109265907726     0.00433888784776    0.0336565629563     
10000000000.0       0.00441470074732    0.0339935808922     0.992591169483      -0.110370582161     0.992591169483      -0.110370582161     0.00441470074732    0.0339935808922     
