# Hz S RI R 50.00 
100000000.0         0.0853944617218     0.00325689147903    0.914602824171      -0.00438853738846   0.914602824171      -0.00438853738846   0.0853944617218     0.00325689147903    
200000000.0         0.0859536810742     0.00650480563079    0.914040569661      -0.00876810922466   0.914040569661      -0.00876810922466   0.0859536810742     0.00650480563079    
300000000.0         0.0864035345213     0.00974690995796    0.913586359443      -0.0131418920581    0.913586359443      -0.0131418920581    0.0864035345213     0.00974690995796    
400000000.0         0.0868124306728     0.0129840698951     0.913171784454      -0.0175107591206    0.913171784454      -0.0175107591206    0.0868124306728     0.0129840698951     
500000000.0         0.0872067632905     0.0162166152772     0.912770450512      -0.0218750474163    0.912770450512      -0.0218750474163    0.0872067632905     0.0162166152772     
600000000.0         0.0876000056072     0.0194446389609     0.912368883971      -0.026234856561     0.912368883971      -0.026234856561     0.0876000056072     0.0194446389609     
700000000.0         0.0880001154062     0.0226681041638     0.911959126629      -0.0305901562325    0.911959126629      -0.0305901562325    0.0880001154062     0.0226681041638     
800000000.0         0.0884122405575     0.025886894302      0.911536030186      -0.0349408360742    0.911536030186      -0.0349408360742    0.0884122405575     0.025886894302      
900000000.0         0.0888399248737     0.0291008397996     0.911096050383      -0.039286732549     0.911096050383      -0.039286732549     0.0888399248737     0.0291008397996     
1000000000.0        0.0892857199219     0.0323097339982     0.91063663519       -0.0436276448794    0.91063663519       -0.0436276448794    0.0892857199219     0.0323097339982     
1100000000.0        0.0897515254391     0.0355133432937     0.910155884383      -0.0479633452061    0.910155884383      -0.0479633452061    0.0897515254391     0.0355133432937     
1200000000.0        0.090238792363      0.0387114139538     0.90965234652       -0.0522935854241    0.90965234652       -0.0522935854241    0.090238792363      0.0387114139538     
1300000000.0        0.0907486506849     0.0419036769068     0.909124891079      -0.056618101984     0.909124891079      -0.056618101984     0.0907486506849     0.0419036769068     
1400000000.0        0.0912819935671     0.0450898512253     0.908572624346      -0.0609366193875    0.908572624346      -0.0609366193875    0.0912819935671     0.0450898512253     
1500000000.0        0.0918395347173     0.048269646737      0.907994832037      -0.0652488528065    0.907994832037      -0.0652488528065    0.0918395347173     0.048269646737      
1600000000.0        0.0924218487271     0.051442766032      0.907390938958      -0.0695545100982    0.907390938958      -0.0695545100982    0.0924218487271     0.051442766032      
1700000000.0        0.0930294001748     0.0546089060392     0.906760479907      -0.073853293388     0.906760479907      -0.073853293388     0.0930294001748     0.0546089060392     
1800000000.0        0.093662565096      0.0577677592909     0.906103078196      -0.0781449003391    0.906103078196      -0.0781449003391    0.093662565096      0.0577677592909     
1900000000.0        0.0943216471349     0.0609190149527     0.905418429507      -0.0824290251873    0.905418429507      -0.0824290251873    0.0943216471349     0.0609190149527     
2000000000.0        0.0950068899058     0.0640623596767     0.904706289525      -0.0867053595982    0.904706289525      -0.0867053595982    0.0950068899058     0.0640623596767     
2100000000.0        0.0957184865991     0.0671974783183     0.903966464332      -0.0909735933875    0.903966464332      -0.0909735933875    0.0957184865991     0.0671974783183     
2200000000.0        0.0964565875508     0.0703240545454     0.903198802841      -0.095233415134     0.903198802841      -0.095233415134     0.0964565875508     0.0703240545454     
2300000000.0        0.0972213062813     0.0734417713635     0.902403190755      -0.0994845127063    0.902403190755      -0.0994845127063    0.0972213062813     0.0734417713635     
2400000000.0        0.0980127243677     0.0765503115714     0.901579545694      -0.103726573722     0.901579545694      -0.103726573722     0.0980127243677     0.0765503115714     
2500000000.0        0.0988308954184     0.0796493581627     0.900727813222      -0.107959285952     0.900727813222      -0.107959285952     0.0988308954184     0.0796493581627     
2600000000.0        0.0996758483433     0.0827385946803     0.899847963576      -0.112182337676     0.899847963576      -0.112182337676     0.0996758483433     0.0827385946803     
2700000000.0        0.100547590073      0.0858177055343     0.898939988945      -0.116395418001     0.898939988945      -0.116395418001     0.100547590073      0.0858177055343     
2800000000.0        0.101446107835      0.0888863762872     0.898003901198      -0.120598217152     0.898003901198      -0.120598217152     0.101446107835      0.0888863762872     
2900000000.0        0.102371371078      0.0919442939125     0.897039729957      -0.124790426729     0.897039729957      -0.124790426729     0.102371371078      0.0919442939125     
3000000000.0        0.103323333107      0.0949911470309     0.89604752096       -0.128971739946     0.89604752096       -0.128971739946     0.103323333107      0.0949911470309     
3100000000.0        0.104301932486      0.0980266261259     0.895027334661      -0.133141851848     0.895027334661      -0.133141851848     0.104301932486      0.0980266261259     
3200000000.0        0.105307094251      0.101050423743      0.893979245021      -0.137300459509     0.893979245021      -0.137300459509     0.105307094251      0.101050423743      
3300000000.0        0.106338730956      0.104062234673      0.892903338451      -0.141447262223     0.892903338451      -0.141447262223     0.106338730956      0.104062234673      
3400000000.0        0.107396743599      0.107061756125      0.891799712897      -0.145581961668     0.891799712897      -0.145581961668     0.107396743599      0.107061756125      
3500000000.0        0.108481022425      0.110048687882      0.890668477032      -0.149704262072     0.890668477032      -0.149704262072     0.108481022425      0.110048687882      
3600000000.0        0.109591447644      0.113022732453      0.889509749535      -0.153813870361     0.889509749535      -0.153813870361     0.109591447644      0.113022732453      
3700000000.0        0.110727890071      0.115983595209      0.888323658462      -0.157910496298     0.888323658462      -0.157910496298     0.110727890071      0.115983595209      
3800000000.0        0.111890211689      0.118930984516      0.887110340667      -0.161993852617     0.887110340667      -0.161993852617     0.111890211689      0.118930984516      
3900000000.0        0.113078266172      0.121864611859      0.885869941296      -0.166063655143     0.885869941296      -0.166063655143     0.113078266172      0.121864611859      
4000000000.0        0.114291899341      0.124784191953      0.884602613316      -0.170119622911     0.884602613316      -0.170119622911     0.114291899341      0.124784191953      
4100000000.0        0.115530949595      0.127689442857      0.883308517096      -0.174161478277     0.883308517096      -0.174161478277     0.115530949595      0.127689442857      
4200000000.0        0.116795248291      0.130580086074      0.881987820018      -0.178188947017     0.881987820018      -0.178188947017     0.116795248291      0.130580086074      
4300000000.0        0.118084620104      0.133455846651      0.880640696124      -0.182201758431     0.880640696124      -0.182201758431     0.118084620104      0.133455846651      
4400000000.0        0.119398883354      0.136316453268      0.879267325782      -0.186199645431     0.879267325782      -0.186199645431     0.119398883354      0.136316453268      
4500000000.0        0.12073785031       0.139161638326      0.877867895389      -0.190182344631     0.877867895389      -0.190182344631     0.12073785031       0.139161638326      
4600000000.0        0.122101327477      0.14199113803       0.876442597081      -0.194149596426     0.876442597081      -0.194149596426     0.122101327477      0.14199113803       
4700000000.0        0.123489115857      0.144804692466      0.874991628471      -0.198101145075     0.874991628471      -0.198101145075     0.123489115857      0.144804692466      
4800000000.0        0.124901011204      0.147602045671      0.873515192394      -0.202036738771     0.873515192394      -0.202036738771     0.124901011204      0.147602045671      
4900000000.0        0.126336804255      0.15038294571       0.872013496678      -0.205956129714     0.872013496678      -0.205956129714     0.126336804255      0.15038294571       
5000000000.0        0.127796280957      0.15314714473       0.870486753916      -0.209859074169     0.870486753916      -0.209859074169     0.127796280957      0.15314714473       
5100000000.0        0.129279222677      0.155894399031      0.868935181258      -0.213745332538     0.868935181258      -0.213745332538     0.129279222677      0.155894399031      
5200000000.0        0.130785406404      0.158624469119      0.867359000202      -0.217614669409     0.867359000202      -0.217614669409     0.130785406404      0.158624469119      
5300000000.0        0.132314604943      0.161337119757      0.865758436411      -0.221466853616     0.865758436411      -0.221466853616     0.132314604943      0.161337119757      
5400000000.0        0.1338665871        0.164032120022      0.864133719517      -0.225301658285     0.864133719517      -0.225301658285     0.1338665871        0.164032120022      
5500000000.0        0.13544111786       0.166709243348      0.862485082952      -0.229118860886     0.862485082952      -0.229118860886     0.13544111786       0.166709243348      
5600000000.0        0.137037958557      0.169368267567      0.86081276377       -0.232918243273     0.86081276377       -0.232918243273     0.137037958557      0.169368267567      
5700000000.0        0.138656867045      0.172008974955      0.859117002484      -0.236699591728     0.859117002484      -0.236699591728     0.138656867045      0.172008974955      
5800000000.0        0.140297597851      0.174631152267      0.857398042908      -0.240462696995     0.857398042908      -0.240462696995     0.140297597851      0.174631152267      
5900000000.0        0.141959902337      0.17723459077       0.855656131995      -0.244207354319     0.855656131995      -0.244207354319     0.141959902337      0.17723459077       
6000000000.0        0.143643528846      0.179819086276      0.853891519692      -0.247933363473     0.853891519692      -0.247933363473     0.143643528846      0.179819086276      
6100000000.0        0.145348222854      0.182384439168      0.85210445879       -0.251640528791     0.85210445879       -0.251640528791     0.145348222854      0.182384439168      
6200000000.0        0.147073727107      0.184930454427      0.850295204782      -0.255328659191     0.850295204782      -0.255328659191     0.147073727107      0.184930454427      
6300000000.0        0.148819781767      0.187456941658      0.848464015724      -0.258997568197     0.848464015724      -0.258997568197     0.148819781767      0.187456941658      
6400000000.0        0.150586124544      0.189963715103      0.846611152097      -0.262647073962     0.846611152097      -0.262647073962     0.150586124544      0.189963715103      
6500000000.0        0.15237249083       0.192450593664      0.844736876675      -0.266276999284     0.844736876675      -0.266276999284     0.15237249083       0.192450593664      
6600000000.0        0.154178613831      0.194917400913      0.842841454393      -0.269887171623     0.842841454393      -0.269887171623     0.154178613831      0.194917400913      
6700000000.0        0.156004224691      0.19736396511       0.840925152223      -0.273477423109     0.840925152223      -0.273477423109     0.156004224691      0.19736396511       
6800000000.0        0.157849052622      0.199790119205      0.838988239045      -0.277047590554     0.838988239045      -0.277047590554     0.157849052622      0.199790119205      
6900000000.0        0.159712825022      0.202195700854      0.837030985527      -0.280597515462     0.837030985527      -0.280597515462     0.159712825022      0.202195700854      
7000000000.0        0.161595267598      0.204580552414      0.835053664005      -0.284127044031     0.835053664005      -0.284127044031     0.161595267598      0.204580552414      
7100000000.0        0.163496104482      0.206944520953      0.833056548363      -0.287636027153     0.833056548363      -0.287636027153     0.163496104482      0.206944520953      
7200000000.0        0.165415058347      0.209287458246      0.831039913919      -0.291124320421     0.831039913919      -0.291124320421     0.165415058347      0.209287458246      
7300000000.0        0.167351850523      0.211609220775      0.82900403731       -0.29459178412      0.82900403731       -0.29459178412      0.167351850523      0.211609220775      
7400000000.0        0.169306201104      0.213909669721      0.826949196384      -0.298038283229     0.826949196384      -0.298038283229     0.169306201104      0.213909669721      
7500000000.0        0.171277829062      0.216188670961      0.824875670085      -0.301463687408     0.824875670085      -0.301463687408     0.171277829062      0.216188670961      
7600000000.0        0.173266452351      0.218446095057      0.822783738352      -0.304867870994     0.822783738352      -0.304867870994     0.173266452351      0.218446095057      
7700000000.0        0.175271788016      0.220681817248      0.820673682005      -0.308250712989     0.820673682005      -0.308250712989     0.175271788016      0.220681817248      
7800000000.0        0.177293552293      0.222895717431      0.818545782651      -0.311612097048     0.818545782651      -0.311612097048     0.177293552293      0.222895717431      
7900000000.0        0.179331460713      0.225087680153      0.816400322573      -0.314951911462     0.816400322573      -0.314951911462     0.179331460713      0.225087680153      
8000000000.0        0.181385228205      0.227257594592      0.814237584636      -0.318270049145     0.814237584636      -0.318270049145     0.181385228205      0.227257594592      
8100000000.0        0.183454569187      0.229405354535      0.812057852186      -0.321566407612     0.812057852186      -0.321566407612     0.183454569187      0.229405354535      
8200000000.0        0.18553919767       0.231530858361      0.809861408954      -0.32484088896      0.809861408954      -0.32484088896      0.18553919767       0.231530858361      
8300000000.0        0.187638827347      0.233634009019      0.807648538962      -0.328093399847     0.807648538962      -0.328093399847     0.187638827347      0.233634009019      
8400000000.0        0.189753171691      0.235714714002      0.805419526427      -0.331323851467     0.805419526427      -0.331323851467     0.189753171691      0.235714714002      
8500000000.0        0.191881944043      0.237772885322      0.803174655674      -0.334532159524     0.803174655674      -0.334532159524     0.191881944043      0.237772885322      
8600000000.0        0.194024857701      0.239808439483      0.800914211045      -0.337718244206     0.800914211045      -0.337718244206     0.194024857701      0.239808439483      
8700000000.0        0.19618162601       0.241821297453      0.798638476807      -0.340882030157     0.798638476807      -0.340882030157     0.19618162601       0.241821297453      
8800000000.0        0.198351962448      0.243811384631      0.796347737074      -0.344023446443     0.796347737074      -0.344023446443     0.198351962448      0.243811384631      
8900000000.0        0.200535580709      0.245778630818      0.794042275713      -0.347142426526     0.794042275713      -0.347142426526     0.200535580709      0.245778630818      
9000000000.0        0.202732194786      0.24772297018       0.791722376271      -0.350238908225     0.791722376271      -0.350238908225     0.202732194786      0.24772297018       
9100000000.0        0.204941519053      0.24964434122       0.789388321887      -0.353312833684     0.789388321887      -0.353312833684     0.204941519053      0.24964434122       
9200000000.0        0.207163268342      0.251542686732      0.787040395213      -0.356364149338     0.787040395213      -0.356364149338     0.207163268342      0.251542686732      
9300000000.0        0.209397158024      0.253417953774      0.784678878341      -0.359392805873     0.784678878341      -0.359392805873     0.209397158024      0.253417953774      
9400000000.0        0.211642904082      0.25527009362       0.782304052724      -0.362398758187     0.782304052724      -0.362398758187     0.211642904082      0.25527009362       
9500000000.0        0.213900223186      0.25709906173       0.779916199101      -0.365381965353     0.779916199101      -0.365381965353     0.213900223186      0.25709906173       
9600000000.0        0.216168832768      0.258904817698      0.777515597427      -0.368342390576     0.777515597427      -0.368342390576     0.216168832768      0.258904817698      
9700000000.0        0.218448451087      0.26068732522       0.775102526797      -0.371280001154     0.775102526797      -0.371280001154     0.218448451087      0.26068732522       
9800000000.0        0.220738797305      0.262446552044      0.772677265385      -0.374194768429     0.772677265385      -0.374194768429     0.220738797305      0.262446552044      
9900000000.0        0.223039591551      0.26418246993       0.770240090369      -0.37708666775      0.770240090369      -0.37708666775      0.223039591551      0.26418246993       
10000000000.0       0.225350554984      0.265895054603      0.767791277868      -0.379955678424     0.767791277868      -0.379955678424     0.225350554984      0.265895054603      
