# Hz S RI R 50.00 
100000000.0         0.0373209835976     0.00172564529653    0.962676605551      -0.00270898974575   0.962676605551      -0.00270898974575   0.0373209835976     0.00172564529653    
200000000.0         0.0375716860554     0.00344904180053    0.962423512602      -0.00541573230925   0.962423512602      -0.00541573230925   0.0375716860554     0.00344904180053    
300000000.0         0.0377676693951     0.00517101780003    0.962224158964      -0.00812105817078   0.962224158964      -0.00812105817078   0.0377676693951     0.00517101780003    
400000000.0         0.0379403469043     0.0068918206169     0.962047131217      -0.0108252165453    0.962047131217      -0.0108252165453    0.0379403469043     0.0068918206169     
500000000.0         0.0381018459426     0.00861156237994    0.961880301882      -0.0135283213058    0.961880301882      -0.0135283213058    0.0381018459426     0.00861156237994    
600000000.0         0.0382583647894     0.0103302953341     0.961717472562      -0.0162304263451    0.961717472562      -0.0162304263451    0.0382583647894     0.0103302953341     
700000000.0         0.0384135719292     0.0120480388908     0.961554974657      -0.0189315526525    0.961554974657      -0.0189315526525    0.0384135719292     0.0120480388908     
800000000.0         0.0385698479604     0.0137647921738     0.961390427452      -0.021631700876     0.961390427452      -0.021631700876     0.0385698479604     0.0137647921738     
900000000.0         0.0387288391025     0.0154805407579     0.961222184605      -0.0243308580717    0.961222184605      -0.0243308580717    0.0387288391025     0.0154805407579     
1000000000.0        0.0388917380262     0.017195260659      0.961049053319      -0.0270290017       0.961049053319      -0.0270290017       0.0388917380262     0.017195260659      
1100000000.0        0.0390594401102     0.0189089208676     0.960870138086      -0.0297261021662    0.960870138086      -0.0297261021662    0.0390594401102     0.0189089208676     
1200000000.0        0.0392326366372     0.0206214850471     0.960684747485      -0.0324221245211    0.960684747485      -0.0324221245211    0.0392326366372     0.0206214850471     
1300000000.0        0.0394118734818     0.0223329127191     0.960492335501      -0.0351170296511    0.960492335501      -0.0351170296511    0.0394118734818     0.0223329127191     
1400000000.0        0.0395975897206     0.0240431601208     0.960292462907      -0.0378107751371    0.960292462907      -0.0378107751371    0.0395975897206     0.0240431601208     
1500000000.0        0.0397901439664     0.0257521808424     0.960084770937      -0.0405033158945    0.960084770937      -0.0405033158945    0.0397901439664     0.0257521808424     
1600000000.0        0.0399898328799     0.0274599263117     0.959868962768      -0.0431946046593    0.959868962768      -0.0431946046593    0.0399898328799     0.0274599263117     
1700000000.0        0.040196904522      0.0291663461714     0.959644790171      -0.0458845923671    0.959644790171      -0.0458845923671    0.040196904522      0.0291663461714     
1800000000.0        0.0404115682011     0.030871388577      0.959412043664      -0.048573228452     0.959412043664      -0.048573228452     0.0404115682011     0.030871388577      
1900000000.0        0.0406340018769     0.0325750004363     0.959170545104      -0.0512604610875    0.959170545104      -0.0512604610875    0.0406340018769     0.0325750004363     
2000000000.0        0.0408643578219     0.0342771276047     0.958920142031      -0.0539462373822    0.958920142031      -0.0539462373822    0.0408643578219     0.0342771276047     
2100000000.0        0.0411027670176     0.0359777150456     0.958660703268      -0.0566305035418    0.958660703268      -0.0566305035418    0.0411027670176     0.0359777150456     
2200000000.0        0.041349342613      0.0376767069652     0.958392115463      -0.0593132050037    0.958392115463      -0.0593132050037    0.041349342613      0.0376767069652     
2300000000.0        0.0416041826795     0.039374046925      0.958114280335      -0.0619942865508    0.958114280335      -0.0619942865508    0.0416041826795     0.039374046925      
2400000000.0        0.041867372429      0.0410696779384     0.957827112455      -0.0646736924087    0.957827112455      -0.0646736924087    0.041867372429      0.0410696779384     
2500000000.0        0.0421389860177     0.0427635425529     0.957530537444      -0.0673513663278    0.957530537444      -0.0673513663278    0.0421389860177     0.0427635425529     
2600000000.0        0.0424190880262     0.0444555829218     0.957224490489      -0.0700272516559    0.957224490489      -0.0700272516559    0.0424190880262     0.0444555829218     
2700000000.0        0.0427077346844     0.046145740866      0.956908915123      -0.0727012914006    0.956908915123      -0.0727012914006    0.0427077346844     0.046145740866      
2800000000.0        0.0430049748929     0.0478339579287     0.956583762199      -0.075373428284     0.956583762199      -0.075373428284     0.0430049748929     0.0478339579287     
2900000000.0        0.0433108510802     0.0495201754238     0.956248989037      -0.0780436047914    0.956248989037      -0.0780436047914    0.0433108510802     0.0495201754238     
3000000000.0        0.0436253999279     0.0512043344783     0.955904558694      -0.0807117632145    0.955904558694      -0.0807117632145    0.0436253999279     0.0512043344783     
3100000000.0        0.0439486529868     0.052886376071      0.955550439354      -0.0833778456897    0.955550439354      -0.0833778456897    0.0439486529868     0.052886376071      
3200000000.0        0.0442806372043     0.0545662410663     0.955186603793      -0.0860417942331    0.955186603793      -0.0860417942331    0.0442806372043     0.0545662410663     
3300000000.0        0.0446213753776     0.0562438702458     0.954813028935      -0.0887035507712    0.954813028935      -0.0887035507712    0.0446213753776     0.0562438702458     
3400000000.0        0.0449708865451     0.0579192043363     0.954429695451      -0.09136305717      0.954429695451      -0.09136305717      0.0449708865451     0.0579192043363     
3500000000.0        0.0453291863271     0.0595921840352     0.954036587426      -0.0940202552604    0.954036587426      -0.0940202552604    0.0453291863271     0.0595921840352     
3600000000.0        0.0456962872216     0.0612627500346     0.953633692057      -0.0966750868621    0.953633692057      -0.0966750868621    0.0456962872216     0.0612627500346     
3700000000.0        0.0460721988646     0.0629308430422     0.953220999399      -0.0993274938055    0.953220999399      -0.0993274938055    0.0460721988646     0.0629308430422     
3800000000.0        0.0464569282581     0.0645964038019     0.952798502133      -0.101977417952     0.952798502133      -0.101977417952     0.0464569282581     0.0645964038019     
3900000000.0        0.0468504799717     0.0662593731122     0.952366195362      -0.104624801211     0.952366195362      -0.104624801211     0.0468504799717     0.0662593731122     
4000000000.0        0.0472528563213     0.067919691843      0.951924076441      -0.107269585561     0.951924076441      -0.107269585561     0.0472528563213     0.067919691843      
4100000000.0        0.0476640575274     0.0695773009521     0.951472144808      -0.109911713061     0.951472144808      -0.109911713061     0.0476640575274     0.0695773009521     
4200000000.0        0.0480840818572     0.0712321415002     0.95101040185       -0.112551125871     0.95101040185       -0.112551125871     0.0480840818572     0.0712321415002     
4300000000.0        0.0485129257506     0.0728841546646     0.950538850772      -0.11518776626      0.950538850772      -0.11518776626      0.0485129257506     0.0728841546646     
4400000000.0        0.0489505839343     0.074533281753      0.950057496489      -0.117821576626     0.950057496489      -0.117821576626     0.0489505839343     0.074533281753      
4500000000.0        0.049397049524      0.0761794642157     0.949566345514      -0.120452499503     0.949566345514      -0.120452499503     0.049397049524      0.0761794642157     
4600000000.0        0.0498523141164     0.0778226436576     0.949065405877      -0.123080477576     0.949065405877      -0.123080477576     0.0498523141164     0.0778226436576     
4700000000.0        0.0503163678732     0.0794627618494     0.948554687033      -0.125705453693     0.948554687033      -0.125705453693     0.0503163678732     0.0794627618494     
4800000000.0        0.0507891995968     0.0810997607383     0.948034199789      -0.128327370873     0.948034199789      -0.128327370873     0.0507891995968     0.0810997607383     
4900000000.0        0.0512707967994     0.0827335824582     0.947503956236      -0.130946172318     0.947503956236      -0.130946172318     0.0512707967994     0.0827335824582     
5000000000.0        0.051761145766      0.0843641693395     0.946963969685      -0.133561801423     0.946963969685      -0.133561801423     0.051761145766      0.0843641693395     
5100000000.0        0.0522602316117     0.0859914639182     0.946414254609      -0.136174201786     0.946414254609      -0.136174201786     0.0522602316117     0.0859914639182     
5200000000.0        0.0527680383353     0.087615408945      0.945854826591      -0.138783317214     0.945854826591      -0.138783317214     0.0527680383353     0.087615408945      
5300000000.0        0.0532845488671     0.0892359473937     0.945285702274      -0.141389091734     0.945285702274      -0.141389091734     0.0532845488671     0.0892359473937     
5400000000.0        0.0538097451139     0.0908530224694     0.944706899318      -0.143991469601     0.944706899318      -0.143991469601     0.0538097451139     0.0908530224694     
5500000000.0        0.0543436080007     0.0924665776166     0.944118436358      -0.146590395307     0.944118436358      -0.146590395307     0.0543436080007     0.0924665776166     
5600000000.0        0.0548861175084     0.0940765565265     0.943520332967      -0.149185813587     0.943520332967      -0.149185813587     0.0548861175084     0.0940765565265     
5700000000.0        0.0554372527095     0.0956829031445     0.942912609615      -0.151777669424     0.942912609615      -0.151777669424     0.0554372527095     0.0956829031445     
5800000000.0        0.0559969918013     0.0972855616772     0.942295287644      -0.154365908063     0.942295287644      -0.154365908063     0.0559969918013     0.0972855616772     
5900000000.0        0.0565653121362     0.0988844765994     0.941668389233      -0.156950475011     0.941668389233      -0.156950475011     0.0565653121362     0.0988844765994     
6000000000.0        0.0571421902509     0.10047959266       0.941031937369      -0.159531316049     0.941031937369      -0.159531316049     0.0571421902509     0.10047959266       
6100000000.0        0.0577276018928     0.10207085489       0.940385955821      -0.162108377233     0.940385955821      -0.162108377233     0.0577276018928     0.10207085489       
6200000000.0        0.0583215220454     0.103658208607      0.939730469114      -0.164681604904     0.939730469114      -0.164681604904     0.0583215220454     0.103658208607      
6300000000.0        0.0589239249521     0.105241599422      0.939065502508      -0.167250945696     0.939065502508      -0.167250945696     0.0589239249521     0.105241599422      
6400000000.0        0.0595347841382     0.106820973244      0.938391081972      -0.169816346536     0.938391081972      -0.169816346536     0.0595347841382     0.106820973244      
6500000000.0        0.0601540724319     0.108396276289      0.937707234165      -0.172377754653     0.937707234165      -0.172377754653     0.0601540724319     0.108396276289      
6600000000.0        0.0607817619846     0.109967455081      0.937013986418      -0.174935117585     0.937013986418      -0.174935117585     0.0607817619846     0.109967455081      
6700000000.0        0.0614178242892     0.111534456461      0.936311366711      -0.177488383181     0.936311366711      -0.177488383181     0.0614178242892     0.111534456461      
6800000000.0        0.062062230198      0.113097227589      0.935599403657      -0.180037499609     0.935599403657      -0.180037499609     0.062062230198      0.113097227589      
6900000000.0        0.0627149499402     0.114655715953      0.934878126487      -0.182582415359     0.934878126487      -0.182582415359     0.0627149499402     0.114655715953      
7000000000.0        0.0633759531374     0.11620986937       0.934147565032      -0.185123079249     0.934147565032      -0.185123079249     0.0633759531374     0.11620986937       
7100000000.0        0.0640452088194     0.117759635993      0.933407749705      -0.187659440431     0.933407749705      -0.187659440431     0.0640452088194     0.117759635993      
7200000000.0        0.0647226854387     0.119304964314      0.932658711493      -0.190191448392     0.932658711493      -0.190191448392     0.0647226854387     0.119304964314      
7300000000.0        0.065408350885      0.12084580317       0.931900481936      -0.192719052962     0.931900481936      -0.192719052962     0.065408350885      0.12084580317       
7400000000.0        0.0661021724983     0.122382101748      0.931133093118      -0.195242204318     0.931133093118      -0.195242204318     0.0661021724983     0.122382101748      
7500000000.0        0.0668041170821     0.123913809586      0.930356577651      -0.197760852986     0.930356577651      -0.197760852986     0.0668041170821     0.123913809586      
7600000000.0        0.0675141509158     0.125440876581      0.929570968665      -0.200274949848     0.929570968665      -0.200274949848     0.0675141509158     0.125440876581      
7700000000.0        0.0682322397669     0.126963252991      0.928776299794      -0.202784446144     0.928776299794      -0.202784446144     0.0682322397669     0.126963252991      
7800000000.0        0.0689583489028     0.128480889438      0.927972605166      -0.205289293475     0.927972605166      -0.205289293475     0.0689583489028     0.128480889438      
7900000000.0        0.0696924431014     0.129993736914      0.927159919391      -0.207789443813     0.927159919391      -0.207789443813     0.0696924431014     0.129993736914      
8000000000.0        0.0704344866626     0.131501746784      0.926338277548      -0.210284849495     0.926338277548      -0.210284849495     0.0704344866626     0.131501746784      
8100000000.0        0.0711844434187     0.133004870787      0.92550771518       -0.212775463235     0.92550771518       -0.212775463235     0.0711844434187     0.133004870787      
8200000000.0        0.0719422767445     0.134503061045      0.924668268276      -0.215261238123     0.924668268276      -0.215261238123     0.0719422767445     0.134503061045      
8300000000.0        0.0727079495673     0.13599627006       0.92381997327       -0.217742127631     0.92381997327       -0.217742127631     0.0727079495673     0.13599627006       
8400000000.0        0.0734814243765     0.137484450724      0.922962867022      -0.220218085615     0.922962867022      -0.220218085615     0.0734814243765     0.137484450724      
8500000000.0        0.0742626632334     0.138967556315      0.922096986818      -0.222689066316     0.922096986818      -0.222689066316     0.0742626632334     0.138967556315      
8600000000.0        0.0750516277798     0.140445540506      0.921222370351      -0.225155024368     0.921222370351      -0.225155024368     0.0750516277798     0.140445540506      
8700000000.0        0.0758482792477     0.141918357366      0.920339055721      -0.227615914797     0.920339055721      -0.227615914797     0.0758482792477     0.141918357366      
8800000000.0        0.0766525784672     0.143385961362      0.919447081421      -0.230071693027     0.919447081421      -0.230071693027     0.0766525784672     0.143385961362      
8900000000.0        0.0774644858759     0.144848307362      0.918546486328      -0.23252231488      0.918546486328      -0.23252231488      0.0774644858759     0.144848307362      
9000000000.0        0.0782839615269     0.146305350639      0.917637309699      -0.23496773658      0.917637309699      -0.23496773658      0.0782839615269     0.146305350639      
9100000000.0        0.0791109650969     0.147757046874      0.916719591159      -0.237407914756     0.916719591159      -0.237407914756     0.0791109650969     0.147757046874      
9200000000.0        0.0799454558946     0.149203352156      0.915793370693      -0.239842806445     0.915793370693      -0.239842806445     0.0799454558946     0.149203352156      
9300000000.0        0.0807873928686     0.150644222986      0.91485868864       -0.242272369094     0.91485868864       -0.242272369094     0.0807873928686     0.150644222986      
9400000000.0        0.081636734615      0.152079616281      0.913915585684      -0.244696560561     0.913915585684      -0.244696560561     0.081636734615      0.152079616281      
9500000000.0        0.082493439385      0.153509489375      0.912964102847      -0.247115339118     0.912964102847      -0.247115339118     0.082493439385      0.153509489375      
9600000000.0        0.083357465093      0.154933800018      0.91200428148       -0.249528663457     0.91200428148       -0.249528663457     0.083357465093      0.154933800018      
9700000000.0        0.0842287693231     0.156352506384      0.911036163257      -0.251936492687     0.911036163257      -0.251936492687     0.0842287693231     0.156352506384      
9800000000.0        0.0851073093374     0.157765567071      0.910059790169      -0.254338786337     0.910059790169      -0.254338786337     0.0851073093374     0.157765567071      
9900000000.0        0.0859930420825     0.1591729411        0.909075204512      -0.256735504362     0.909075204512      -0.256735504362     0.0859930420825     0.1591729411        
10000000000.0       0.0868859241967     0.16057458792       0.908082448885      -0.25912660714      0.908082448885      -0.25912660714      0.0868859241967     0.16057458792       
