# Hz S RI R 50.00 
100000000.0         0.00035531595672    -0.0012193497028    0.999627776427      -0.003549178441     0.999627776427      -0.003549178441     0.000355315956719   -0.0012193497028    
200000000.0         0.000342509072501   -0.00243872902862   0.999601931554      -0.00709843629742   0.999601931554      -0.00709843629742   0.000342509072501   -0.00243872902862   
300000000.0         0.000320412521676   -0.00365812060963   0.999562627781      -0.0106477995355    0.999562627781      -0.0106477995355    0.000320412521676   -0.00365812060963   
400000000.0         0.000289337325147   -0.00487749655329   0.999509548678      -0.0141972686825    0.999509548678      -0.0141972686825    0.000289337325147   -0.00487749655329   
500000000.0         0.000249401517351   -0.00609682253509   0.999442570246      -0.0177468319952    0.999442570246      -0.0177468319952    0.000249401517352   -0.00609682253509   
600000000.0         0.000200664010269   -0.00731605968986   0.999361627304      -0.0212964697102    0.999361627304      -0.0212964697102    0.000200664010269   -0.00731605968986   
700000000.0         0.0001431586358     -0.00853516565501   0.99926667964       -0.0248461561717    0.99926667964       -0.0248461561717    0.0001431586358     -0.00853516565501   
800000000.0         7.69065909008e-05   -0.00975409522776   0.99915769971       -0.0283958610996    0.99915769971       -0.0283958610996    7.6906590901e-05    -0.00975409522776   
900000000.0         1.92199720339e-06   -0.010972800816     0.999034667195      -0.0319455504261    0.999034667195      -0.0319455504261    1.92199720339e-06   -0.010972800816     
1000000000.0        -8.17852657439e-05  -0.0121912327672    0.998897566275      -0.0354951868873    0.998897566275      -0.0354951868873    -8.17852657437e-05  -0.0121912327672    
1100000000.0        -0.000174207973092  -0.0134093396198    0.998746384122      -0.0390447304629    0.998746384122      -0.0390447304629    -0.000174207973092  -0.0134093396198    
1200000000.0        -0.000275340598633  -0.0146270683005    0.998581110025      -0.0425941387152    0.998581110025      -0.0425941387152    -0.000275340598633  -0.0146270683005    
1300000000.0        -0.000385178704818  -0.0158443642864    0.998401734843      -0.0461433670598    0.998401734843      -0.0461433670598    -0.000385178704818  -0.0158443642864    
1400000000.0        -0.000503718534741  -0.0170611717384    0.998208250664      -0.049692368985     0.998208250664      -0.049692368985     -0.000503718534741  -0.0170611717384    
1500000000.0        -0.000630956728113  -0.0182774336151    0.998000650569      -0.0532410962359    0.998000650569      -0.0532410962359    -0.000630956728113  -0.0182774336151    
1600000000.0        -0.000766890116677  -0.0194930917706    0.997778928483      -0.0567894989686    0.997778928483      -0.0567894989686    -0.000766890116677  -0.0194930917706    
1700000000.0        -0.000911515572389  -0.0207080870401    0.997543079065      -0.0603375258843    0.997543079065      -0.0603375258843    -0.000911515572389  -0.0207080870401    
1800000000.0        -0.00106482989179   -0.0219223593155    0.997293097639      -0.0638851243445    0.997293097639      -0.0638851243445    -0.00106482989179   -0.0219223593155    
1900000000.0        -0.00122682970587   -0.023135847613     0.997028980136      -0.0674322404732    0.997028980136      -0.0674322404732    -0.00122682970587   -0.023135847613     
2000000000.0        -0.00139751140833   -0.0243484901343    0.996750723065      -0.0709788192477    0.996750723065      -0.0709788192477    -0.00139751140833   -0.0243484901343    
2100000000.0        -0.00157687109749   -0.0255602243216    0.996458323485      -0.074524804579     0.996458323485      -0.074524804579     -0.00157687109749   -0.0255602243216    
2200000000.0        -0.00176490452839   -0.0267709869087    0.996151778985      -0.0780701393857    0.996151778985      -0.0780701393857    -0.00176490452839   -0.0267709869087    
2300000000.0        -0.00196160707281   -0.0279807139677    0.99583108768       -0.0816147656599    0.99583108768       -0.0816147656599    -0.00196160707281   -0.0279807139677    
2400000000.0        -0.00216697368541   -0.0291893409523    0.995496248197      -0.0851586245282    0.995496248197      -0.0851586245282    -0.00216697368541   -0.0291893409523    
2500000000.0        -0.00238099887474   -0.0303968027381    0.995147259674      -0.0887016563078    0.995147259674      -0.0887016563078    -0.00238099887474   -0.0303968027381    
2600000000.0        -0.00260367667818   -0.0316030336603    0.994784121758      -0.092243800558     0.994784121758      -0.092243800558     -0.00260367667818   -0.0316030336603    
2700000000.0        -0.00283500064013   -0.0328079675495    0.994406834605      -0.0957849961278    0.994406834605      -0.0957849961278    -0.00283500064013   -0.0328079675495    
2800000000.0        -0.00307496379275   -0.0340115377649    0.99401539888       -0.0993251812011    0.99401539888       -0.0993251812011    -0.00307496379275   -0.0340115377649    
2900000000.0        -0.00332355863903   -0.0352136772257    0.993609815759      -0.102864293338     0.993609815759      -0.102864293338     -0.00332355863903   -0.0352136772257    
3000000000.0        -0.00358077713768   -0.0364143184417    0.993190086932      -0.106402269515     0.993190086932      -0.106402269515     -0.00358077713768   -0.0364143184417    
3100000000.0        -0.00384661068961   -0.0376133935417    0.992756214607      -0.10993904616      0.992756214607      -0.10993904616      -0.00384661068961   -0.0376133935417    
3200000000.0        -0.00412105012589   -0.0388108343002    0.992308201509      -0.113474559189     0.992308201509      -0.113474559189     -0.00412105012589   -0.0388108343002    
3300000000.0        -0.00440408569683   -0.0400065721644    0.991846050889      -0.117008744039     0.991846050889      -0.117008744039     -0.00440408569683   -0.0400065721644    
3400000000.0        -0.00469570706218   -0.0412005382785    0.991369766521      -0.120541535697     0.991369766521      -0.120541535697     -0.00469570706218   -0.0412005382785    
3500000000.0        -0.00499590328225   -0.0423926635078    0.990879352712      -0.124072868735     0.990879352712      -0.124072868735     -0.00499590328225   -0.0423926635078    
3600000000.0        -0.00530466280995   -0.0435828784622    0.990374814299      -0.127602677332     0.990374814299      -0.127602677332     -0.00530466280995   -0.0435828784622    
3700000000.0        -0.00562197348349   -0.0447711135178    0.989856156656      -0.131130895304     0.989856156656      -0.131130895304     -0.00562197348349   -0.0447711135178    
3800000000.0        -0.00594782251984   -0.0459572988387    0.989323385695      -0.134657456134     0.989323385695      -0.134657456134     -0.00594782251984   -0.0459572988387    
3900000000.0        -0.00628219650885   -0.0471413643977    0.988776507872      -0.13818229299      0.988776507872      -0.13818229299      -0.00628219650885   -0.0471413643977    
4000000000.0        -0.00662508140786   -0.0483232399965    0.988215530184      -0.141705338751     0.988215530184      -0.141705338751     -0.00662508140786   -0.0483232399965    
4100000000.0        -0.00697646253695   -0.0495028552845    0.987640460177      -0.145226526034     0.987640460177      -0.145226526034     -0.00697646253695   -0.0495028552845    
4200000000.0        -0.00733632457458   -0.0506801397785    0.987051305944      -0.148745787212     0.987051305944      -0.148745787212     -0.00733632457458   -0.0506801397785    
4300000000.0        -0.00770465155379   -0.0518550228801    0.98644807613       -0.152263054437     0.98644807613       -0.152263054437     -0.00770465155379   -0.0518550228801    
4400000000.0        -0.00808142685878   -0.0530274338942    0.985830779933      -0.155778259657     0.985830779933      -0.155778259657     -0.00808142685878   -0.0530274338942    
4500000000.0        -0.00846663322186   -0.0541973020458    0.985199427105      -0.159291334642     0.985199427105      -0.159291334642     -0.00846663322186   -0.0541973020458    
4600000000.0        -0.00886025272089   -0.0553645564969    0.984554027953      -0.162802211        0.984554027953      -0.162802211        -0.00886025272089   -0.0553645564969    
4700000000.0        -0.00926226677695   -0.0565291263629    0.983894593341      -0.166310820194     0.983894593341      -0.166310820194     -0.00926226677695   -0.0565291263629    
4800000000.0        -0.00967265615241   -0.0576909407286    0.983221134691      -0.169817093563     0.983221134691      -0.169817093563     -0.00967265615241   -0.0576909407286    
4900000000.0        -0.0100914009494    -0.0588499286636    0.982533663984      -0.173320962337     0.982533663984      -0.173320962337     -0.0100914009494    -0.0588499286636    
5000000000.0        -0.0105184806083    -0.0600060192376    0.981832193758      -0.176822357655     0.981832193758      -0.176822357655     -0.0105184806083    -0.0600060192376    
5100000000.0        -0.010953873907     -0.0611591415352    0.981116737113      -0.180321210582     0.981116737113      -0.180321210582     -0.010953873907     -0.0611591415352    
5200000000.0        -0.01139755896      -0.0623092246703    0.980387307706      -0.183817452125     0.980387307706      -0.183817452125     -0.01139755896      -0.0623092246703    
5300000000.0        -0.0118495132179    -0.0634561978004    0.979643919755      -0.187311013246     0.979643919755      -0.187311013246     -0.0118495132179    -0.0634561978004    
5400000000.0        -0.0123097134673    -0.0645999901402    0.978886588036      -0.190801824881     0.978886588036      -0.190801824881     -0.0123097134673    -0.0645999901402    
5500000000.0        -0.0127781358307    -0.0657405309753    0.978115327884      -0.194289817951     0.978115327884      -0.194289817951     -0.0127781358307    -0.0657405309753    
5600000000.0        -0.0132547557667    -0.0668777496754    0.97733015519       -0.197774923378     0.97733015519       -0.197774923378     -0.0132547557667    -0.0668777496754    
5700000000.0        -0.013739548071     -0.0680115757075    0.976531086406      -0.201257072099     0.976531086406      -0.201257072099     -0.013739548071     -0.0680115757075    
5800000000.0        -0.0142324868761    -0.069141938648     0.975718138536      -0.204736195081     0.975718138536      -0.204736195081     -0.0142324868761    -0.069141938648     
5900000000.0        -0.0147335456534    -0.0702687681959    0.97489132914       -0.20821222333      0.97489132914       -0.20821222333      -0.0147335456534    -0.0702687681959    
6000000000.0        -0.0152426972132    -0.0713919941843    0.974050676333      -0.211685087908     0.974050676333      -0.211685087908     -0.0152426972132    -0.0713919941843    
6100000000.0        -0.0157599137068    -0.072511546593     0.973196198779      -0.215154719944     0.973196198779      -0.215154719944     -0.0157599137068    -0.072511546593     
6200000000.0        -0.0162851666276    -0.0736273555595    0.972327915694      -0.218621050644     0.972327915694      -0.218621050644     -0.0162851666276    -0.0736273555595    
6300000000.0        -0.0168184268128    -0.0747393513913    0.971445846841      -0.222084011308     0.971445846841      -0.222084011308     -0.0168184268128    -0.0747393513913    
6400000000.0        -0.0173596644454    -0.0758474645764    0.970550012531      -0.225543533338     0.970550012531      -0.225543533338     -0.0173596644454    -0.0758474645764    
6500000000.0        -0.0179088490559    -0.076951625795     0.969640433617      -0.22899954825      0.969640433617      -0.22899954825      -0.0179088490559    -0.076951625795     
6600000000.0        -0.018465949525     -0.0780517659299    0.968717131495      -0.232451987685     0.968717131495      -0.232451987685     -0.018465949525     -0.0780517659299    
6700000000.0        -0.0190309340853    -0.0791478160774    0.967780128099      -0.235900783421     0.967780128099      -0.235900783421     -0.0190309340853    -0.0791478160774    
6800000000.0        -0.0196037703242    -0.0802397075578    0.9668294459        -0.239345867383     0.9668294459        -0.239345867383     -0.0196037703242    -0.0802397075578    
6900000000.0        -0.0201844251866    -0.0813273719254    0.965865107904      -0.242787171652     0.965865107904      -0.242787171652     -0.0201844251866    -0.0813273719254    
7000000000.0        -0.0207728649774    -0.0824107409787    0.964887137647      -0.246224628478     0.964887137647      -0.246224628478     -0.0207728649774    -0.0824107409787    
7100000000.0        -0.0213690553645    -0.0834897467706    0.963895559192      -0.249658170287     0.963895559192      -0.249658170287     -0.0213690553645    -0.0834897467706    
7200000000.0        -0.021972961382     -0.0845643216177    0.962890397128      -0.253087729694     0.962890397128      -0.253087729694     -0.021972961382     -0.0845643216177    
7300000000.0        -0.0225845474333    -0.08563439811      0.961871676565      -0.256513239507     0.961871676565      -0.256513239507     -0.0225845474333    -0.08563439811      
7400000000.0        -0.0232037772944    -0.0866999091204    0.960839423132      -0.259934632744     0.960839423132      -0.259934632744     -0.0232037772944    -0.0866999091204    
7500000000.0        -0.0238306141174    -0.0877607878136    0.95979366297       -0.263351842635     0.95979366297       -0.263351842635     -0.0238306141174    -0.0877607878136    
7600000000.0        -0.0244650204342    -0.0888169676557    0.958734422735      -0.266764802634     0.958734422735      -0.266764802634     -0.0244650204342    -0.0888169676557    
7700000000.0        -0.0251069581597    -0.0898683824225    0.957661729587      -0.270173446428     0.957661729587      -0.270173446428     -0.0251069581597    -0.0898683824225    
7800000000.0        -0.0257563885964    -0.0909149662084    0.95657561119       -0.273577707945     0.95657561119       -0.273577707945     -0.0257563885964    -0.0909149662084    
7900000000.0        -0.0264132724376    -0.0919566534354    0.955476095708      -0.276977521361     0.955476095708      -0.276977521361     -0.0264132724376    -0.0919566534354    
8000000000.0        -0.0270775697718    -0.0929933788609    0.954363211802      -0.28037282111      0.954363211802      -0.28037282111      -0.0270775697718    -0.0929933788609    
8100000000.0        -0.0277492400867    -0.0940250775863    0.953236988621      -0.283763541891     0.953236988621      -0.283763541891     -0.0277492400867    -0.0940250775863    
8200000000.0        -0.0284282422735    -0.0950516850651    0.952097455803      -0.287149618676     0.952097455803      -0.287149618676     -0.0284282422735    -0.0950516850651    
8300000000.0        -0.0291145346312    -0.0960731371111    0.950944643468      -0.290530986715     0.950944643468      -0.290530986715     -0.0291145346312    -0.0960731371111    
8400000000.0        -0.0298080748712    -0.0970893699056    0.949778582216      -0.29390758155      0.949778582216      -0.29390758155      -0.0298080748712    -0.0970893699056    
8500000000.0        -0.0305088201215    -0.0981003200059    0.948599303118      -0.297279339013     0.948599303118      -0.297279339013     -0.0305088201215    -0.0981003200059    
8600000000.0        -0.0312167269318    -0.0991059243523    0.947406837717      -0.300646195242     0.947406837717      -0.300646195242     -0.0312167269318    -0.0991059243523    
8700000000.0        -0.0319317512775    -0.100106120276     0.946201218017      -0.304008086682     0.946201218017      -0.304008086682     -0.0319317512775    -0.100106120276     
8800000000.0        -0.0326538485655    -0.101100845505     0.944982476486      -0.307364950094     0.944982476486      -0.307364950094     -0.0326538485655    -0.101100845505     
8900000000.0        -0.033382973638     -0.102090038174     0.943750646043      -0.31071672256      0.943750646043      -0.31071672256      -0.033382973638     -0.102090038174     
9000000000.0        -0.0341190807784    -0.103073636829     0.942505760058      -0.314063341492     0.942505760058      -0.314063341492     -0.0341190807784    -0.103073636829     
9100000000.0        -0.0348621237157    -0.104051580434     0.941247852348      -0.317404744635     0.941247852348      -0.317404744635     -0.0348621237157    -0.104051580434     
9200000000.0        -0.0356120556301    -0.105023808382     0.939976957168      -0.320740870078     0.939976957168      -0.320740870078     -0.0356120556301    -0.105023808382     
9300000000.0        -0.0363688291578    -0.105990260493     0.938693109207      -0.324071656254     0.938693109207      -0.324071656254     -0.0363688291578    -0.105990260493     
9400000000.0        -0.0371323963965    -0.106950877032     0.937396343586      -0.327397041948     0.937396343586      -0.327397041948     -0.0371323963965    -0.106950877032     
9500000000.0        -0.0379027089109    -0.107905598704     0.936086695847      -0.330716966307     0.936086695847      -0.330716966307     -0.0379027089109    -0.107905598704     
9600000000.0        -0.0386797177379    -0.108854366669     0.934764201954      -0.334031368837     0.934764201954      -0.334031368837     -0.0386797177379    -0.108854366669     
9700000000.0        -0.0394633733919    -0.109797122544     0.933428898283      -0.337340189418     0.933428898283      -0.337340189418     -0.0394633733919    -0.109797122544     
9800000000.0        -0.0402536258708    -0.110733808408     0.932080821619      -0.340643368299     0.932080821619      -0.340643368299     -0.0402536258708    -0.110733808408     
9900000000.0        -0.0410504246615    -0.111664366813     0.930720009147      -0.343940846114     0.930720009147      -0.343940846114     -0.0410504246615    -0.111664366813     
10000000000.0       -0.0418537187453    -0.112588740782     0.929346498452      -0.347232563877     0.929346498452      -0.347232563877     -0.0418537187453    -0.112588740782     
