# Hz S RI R 50.00 
100000000.0         -0.00748180299018   -0.0858429358031    0.992438146452      -0.0859596732204    0.992438146452      -0.0859596732204    -0.00748180299018   -0.0858429358031    
200000000.0         -0.0292161610564    -0.167907591071     0.970703220137      -0.168141074797     0.970703220137      -0.168141074797     -0.0292161610564    -0.167907591071     
300000000.0         -0.0633438413359    -0.242977321497     0.936575095081      -0.24332756568      0.936575095081      -0.24332756568      -0.0633438413359    -0.242977321497     
400000000.0         -0.107246322054     -0.308743289186     0.892672224271      -0.309210312275     0.892672224271      -0.309210312275     -0.107246322054     -0.308743289186     
500000000.0         -0.15796349963      -0.363951654425     0.841954684935      -0.364535478688     0.841954684935      -0.364535478688     -0.15796349963      -0.363951654425     
600000000.0         -0.212613489854     -0.408332845653     0.78730434791       -0.409033496866     0.78730434791       -0.409033496866     -0.212613489854     -0.408332845653     
700000000.0         -0.268688874286     -0.442387825984     0.731228623772      -0.443205333194     0.731228623772      -0.443205333194     -0.268688874286     -0.442387825984     
800000000.0         -0.324205945743     -0.467122477351     0.675711214631      -0.468056872693     0.675711214631      -0.468056872693     -0.324205945743     -0.467122477351     
900000000.0         -0.377730610602     -0.483800713535     0.622186210622      -0.484852032081     0.622186210622      -0.484852032081     -0.377730610602     -0.483800713535     
1000000000.0        -0.428324418232     -0.493753378181     0.571592059859      -0.494921657812     0.571592059859      -0.494921657812     -0.428324418232     -0.493753378181     
1100000000.0        -0.475452596321     -0.498251398533     0.52446353277       -0.499536679824     0.52446353277       -0.499536679824     -0.475452596321     -0.498251398533     
1200000000.0        -0.518884299608     -0.498434802227     0.481031473164      -0.499837128348     0.481031473164      -0.499837128348     -0.518884299608     -0.498434802227     
1300000000.0        -0.558602332511     -0.495282870829     0.441313075481      -0.496802287458     0.441313075481      -0.496802287458     -0.558602332511     -0.495282870829     
1400000000.0        -0.594729613294     -0.489610873055     0.405185420531      -0.491247428294     0.405185420531      -0.491247428294     -0.594729613294     -0.489610873055     
1500000000.0        -0.627473466234     -0.482081821133     0.372441183283      -0.483835565435     0.372441183283      -0.483835565435     -0.627473466234     -0.482081821133     
1600000000.0        -0.657085731967     -0.473225233514     0.342828522473      -0.475096219613     0.342828522473      -0.475096219613     -0.657085731967     -0.473225233514     
1700000000.0        -0.683835581221     -0.463457906349     0.316078266843      -0.4654461892       0.316078266843      -0.4654461892       -0.683835581221     -0.463457906349     
1800000000.0        -0.707991888766     -0.45310389745      0.291921541171      -0.455209534164     0.291921541171      -0.455209534164     -0.707991888766     -0.45310389745      
1900000000.0        -0.729812468233     -0.442412372595     0.270100531437      -0.444635422385     0.270100531437      -0.444635422385     -0.729812468233     -0.442412372595     
2000000000.0        -0.74953804415      -0.431572836044     0.250374512776      -0.433913360178     0.250374512776      -0.433913360178     -0.74953804415      -0.431572836044     
2100000000.0        -0.767389381527     -0.420727748217     0.232522719878      -0.423185809959     0.232522719878      -0.423185809959     -0.767389381527     -0.420727748217     
2200000000.0        -0.783566443897     -0.40998276882      0.216345188948      -0.412558433392     0.216345188948      -0.412558433392     -0.783566443897     -0.40998276882      
2300000000.0        -0.798248797408     -0.399414954965     0.201662353602      -0.402108289499     0.201662353602      -0.402108289499     -0.798248797408     -0.399414954965     
2400000000.0        -0.811596733136     -0.389079256452     0.188313922556      -0.391890329946     0.188313922556      -0.391890329946     -0.811596733136     -0.389079256452     
2500000000.0        -0.823752760558     -0.379013624469     0.17615738614       -0.381942507751     0.17615738614       -0.381942507751     -0.823752760558     -0.379013624469     
2600000000.0        -0.834843250382     -0.369243008321     0.165066373473      -0.372289774009     0.165066373473      -0.372289774009     -0.834843250382     -0.369243008321     
2700000000.0        -0.844980089827     -0.359782469781     0.154928997175      -0.362947192247     0.154928997175      -0.362947192247     -0.844980089827     -0.359782469781     
2800000000.0        -0.854262269998     -0.350639602413     0.145646265997      -0.353922357748     0.145646265997      -0.353922357748     -0.854262269998     -0.350639602413     
2900000000.0        -0.862777361853     -0.341816406224     0.137130608843      -0.345217272206     0.137130608843      -0.345217272206     -0.862777361853     -0.341816406224     
3000000000.0        -0.870602860827     -0.333310737014     0.129304530152      -0.336829793077     0.129304530152      -0.336829793077     -0.870602860827     -0.333310737014     
3100000000.0        -0.877807394728     -0.325117424402     0.122099401999      -0.328754751605     0.122099401999      -0.328754751605     -0.877807394728     -0.325117424402     
3200000000.0        -0.884451798236     -0.317229132175     0.11545438959       -0.320984813174     0.11545438959       -0.320984813174     -0.884451798236     -0.317229132175     
3300000000.0        -0.890590062171     -0.309637018464     0.109315502002      -0.313511137482     0.109315502002      -0.313511137482     -0.890590062171     -0.309637018464     
3400000000.0        -0.896270168084     -0.302331240509     0.103634757582      -0.306323883315     0.103634757582      -0.306323883315     -0.896270168084     -0.302331240509     
3500000000.0        -0.90153481962      -0.295301338881     0.0983694525908     -0.299412592762     0.0983694525908     -0.299412592762     -0.90153481962      -0.295301338881     
3600000000.0        -0.906422082009     -0.288536528212     0.0934815217077     -0.292766481949     0.0934815217077     -0.292766481949     -0.906422082009     -0.288536528212     
3700000000.0        -0.910965940506     -0.282025915511     0.0889369795911     -0.286374659356     0.0889369795911     -0.286374659356     -0.910965940506     -0.282025915511     
3800000000.0        -0.91519678772      -0.275758662403     0.0847054335453     -0.28022628806      0.0847054335453     -0.28022628806      -0.91519678772      -0.275758662403     
3900000000.0        -0.919141848843     -0.269724104039     0.0807596582993     -0.274310704639     0.0807596582993     -0.274310704639     -0.919141848843     -0.269724104039     
4000000000.0        -0.922825552759     -0.263911834542     0.0770752248896     -0.268617504626     0.0770752248896     -0.268617504626     -0.922825552759     -0.263911834542     
4100000000.0        -0.926269856125     -0.258311766714     0.0736301765816     -0.263136602216     0.0736301765816     -0.263136602216     -0.926269856125     -0.258311766714     
4200000000.0        -0.929494526603     -0.252914171984     0.07040474564       -0.257858270209     0.07040474564       -0.257858270209     -0.929494526603     -0.252914171984     
4300000000.0        -0.932517390631     -0.247709705254     0.0673811055521     -0.252773164863     0.0673811055521     -0.252773164863     -0.932517390631     -0.247709705254     
4400000000.0        -0.935354550437     -0.242689418294     0.0645431540205     -0.247872339289     0.0645431540205     -0.247872339289     -0.935354550437     -0.242689418294     
4500000000.0        -0.938020574331     -0.237844764492     0.0618763226628     -0.243147248197     0.0618763226628     -0.243147248197     -0.938020574331     -0.237844764492     
4600000000.0        -0.940528663815     -0.233167597155     0.0593674099091     -0.238589746205     0.0593674099091     -0.238589746205     -0.940528663815     -0.233167597155     
4700000000.0        -0.942890800519     -0.228650163088     0.05700443406       -0.234192081414     0.05700443406       -0.234192081414     -0.942890800519     -0.228650163088     
4800000000.0        -0.945117875607     -0.22428509274      0.0547765038859     -0.229946885555     0.0547765038859     -0.229946885555     -0.945117875607     -0.22428509274      
4900000000.0        -0.947219803897     -0.220065387963     0.0526737045016     -0.225847161751     0.0526737045016     -0.225847161751     -0.947219803897     -0.220065387963     
5000000000.0        -0.949205624669     -0.215984408168     0.0506869965606     -0.22188627067      0.0506869965606     -0.22188627067      -0.949205624669     -0.215984408168     
5100000000.0        -0.951083590841     -0.212035855464     0.0488081270793     -0.21805791567      0.0488081270793     -0.21805791567      -0.951083590841     -0.212035855464     
5200000000.0        -0.952861247982     -0.208213759263     0.0470295504252     -0.214356127399     0.0470295504252     -0.214356127399     -0.952861247982     -0.208213759263     
5300000000.0        -0.954545504418     -0.204512460685     0.0453443582064     -0.210775248206     0.0453443582064     -0.210775248206     -0.954545504418     -0.204512460685     
5400000000.0        -0.956142693547     -0.200926597028     0.0437462169614     -0.207309916605     0.0437462169614     -0.207309916605     -0.956142693547     -0.200926597028     
5500000000.0        -0.957658629294     -0.197451086491     0.0422293126994     -0.203955052008     0.0422293126994     -0.203955052008     -0.957658629294     -0.197451086491     
5600000000.0        -0.959098655556     -0.194081113296     0.0407883014615     -0.200705839835     0.0407883014615     -0.200705839835     -0.959098655556     -0.194081113296     
5700000000.0        -0.96046769033      -0.190812113295     0.039418265185      -0.197557717134     0.039418265185      -0.197557717134     -0.96046769033      -0.190812113295     
5800000000.0        -0.96177026518      -0.18763976014      0.0381146722434     -0.194506358746     0.0381146722434     -0.194506358746     -0.96177026518      -0.18763976014      
5900000000.0        -0.963010560563     -0.184559952051     0.0368733421145     -0.19154766407      0.0368733421145     -0.19154766407      -0.963010560563     -0.184559952051     
6000000000.0        -0.964192437513     -0.181568799199     0.0356904137012     -0.188677744453     0.0356904137012     -0.188677744453     -0.964192437513     -0.181568799199     
6100000000.0        -0.965319466083     -0.178662611722     0.0345623168861     -0.185892911204     0.0345623168861     -0.185892911204     -0.965319466083     -0.178662611722     
6200000000.0        -0.966394950923     -0.175837888366     0.0334857469546     -0.183189664232     0.0334857469546     -0.183189664232     -0.966394950923     -0.175837888366     
6300000000.0        -0.96742195431      -0.173091305736     0.032457641566      -0.180564681306     0.032457641566      -0.180564681306     -0.96742195431      -0.173091305736     
6400000000.0        -0.968403316907     -0.170419708151     0.0314751599915     -0.178014807902     0.0314751599915     -0.178014807902     -0.968403316907     -0.170419708151     
6500000000.0        -0.969341676512     -0.167820098076     0.0305356643702     -0.175537047636     0.0305356643702     -0.175537047636     -0.969341676512     -0.167820098076     
6600000000.0        -0.970239484993     -0.165289627102     0.0296367027667     -0.173128553253     0.0296367027667     -0.173128553253     -0.970239484993     -0.165289627102     
6700000000.0        -0.971099023631     -0.162825587467     0.0287759938359     -0.170786618137     0.0287759938359     -0.170786618137     -0.971099023631     -0.162825587467     
6800000000.0        -0.97192241701      -0.160425404069     0.0279514129272     -0.168508668334     0.0279514129272     -0.168508668334     -0.97192241701      -0.160425404069     
6900000000.0        -0.972711645629     -0.15808662697      0.0271609794762     -0.166292255049     0.0271609794762     -0.166292255049     -0.972711645629     -0.15808662697      
7000000000.0        -0.973468557351     -0.15580692434      0.0264028455519     -0.164135047595     0.0264028455519     -0.164135047595     -0.973468557351     -0.15580692434      
7100000000.0        -0.974194877824     -0.153584075838     0.0256752854408     -0.162034826774     0.0256752854408     -0.162034826774     -0.974194877824     -0.153584075838     
7200000000.0        -0.97489221996      -0.151415966387     0.0249766861637     -0.159989478651     0.0249766861637     -0.159989478651     -0.97489221996      -0.151415966387     
7300000000.0        -0.97556209258      -0.149300580338     0.0243055388308     -0.157996988716     0.0243055388308     -0.157996988716     -0.97556209258      -0.149300580338     
7400000000.0        -0.976205908303     -0.147235995975     0.0236604307543     -0.156055436398     0.0236604307543     -0.156055436398     -0.976205908303     -0.147235995975     
7500000000.0        -0.976824990754     -0.145220380369     0.0230400382422     -0.154162989907     0.0230400382422     -0.154162989907     -0.976824990754     -0.145220380369     
7600000000.0        -0.977420581148     -0.143251984535     0.0224431200091     -0.152317901402     0.0224431200091     -0.152317901402     -0.977420581148     -0.143251984535     
7700000000.0        -0.977993844325     -0.141329138885     0.0218685111446     -0.150518502438     0.0218685111446     -0.150518502438     -0.977993844325     -0.141329138885     
7800000000.0        -0.978545874279     -0.139450248956     0.021315117585      -0.148763199699     0.021315117585      -0.148763199699     -0.978545874279     -0.139450248956     
7900000000.0        -0.979077699225     -0.137613791401     0.0207819110444     -0.147050470984     0.0207819110444     -0.147050470984     -0.979077699225     -0.137613791401     
8000000000.0        -0.979590286255     -0.135818310208     0.0202679243587     -0.14537886143      0.0202679243587     -0.14537886143      -0.979590286255     -0.135818310208     
8100000000.0        -0.980084545618     -0.134062413161     0.0197722472085     -0.143746979972     0.0197722472085     -0.143746979972     -0.980084545618     -0.134062413161     
8200000000.0        -0.98056133465      -0.132344768498     0.0192940221827     -0.142153496004     0.0192940221827     -0.142153496004     -0.98056133465      -0.132344768498     
8300000000.0        -0.981021461405     -0.130664101775     0.0188324411562     -0.140597136237     0.0188324411562     -0.140597136237     -0.981021461405     -0.130664101775     
8400000000.0        -0.981465687987     -0.129019192914     0.0183867419496     -0.139076681754     0.0183867419496     -0.139076681754     -0.981465687987     -0.129019192914     
8500000000.0        -0.981894733634     -0.127408873421     0.0179562052502     -0.137590965225     0.0179562052502     -0.137590965225     -0.981894733634     -0.127408873421     
8600000000.0        -0.982309277562     -0.12583202377      0.0175401517681     -0.13613886829      0.0175401517681     -0.13613886829      -0.982309277562     -0.12583202377      
8700000000.0        -0.982709961588     -0.124287570934     0.0171379396092     -0.134719319094     0.0171379396092     -0.134719319094     -0.982709961588     -0.124287570934     
8800000000.0        -0.983097392564     -0.122774486065     0.0167489618457     -0.133331289965     0.0167489618457     -0.133331289965     -0.983097392564     -0.122774486065     
8900000000.0        -0.983472144622     -0.121291782302     0.0163726442678     -0.13197379522      0.0163726442678     -0.13197379522      -0.983472144622     -0.121291782302     
9000000000.0        -0.983834761258     -0.119838512702     0.0160084433015     -0.130645889101     0.0160084433015     -0.130645889101     -0.983834761258     -0.119838512702     
9100000000.0        -0.984185757263     -0.118413768295     0.0156558440776     -0.129346663829     0.0156558440776     -0.129346663829     -0.984185757263     -0.118413768295     
9200000000.0        -0.984525620511     -0.117016676245     0.0153143586417     -0.12807524776      0.0153143586417     -0.12807524776      -0.984525620511     -0.117016676245     
9300000000.0        -0.984854813625     -0.115646398108     0.0149835242911     -0.12683080365      0.0149835242911     -0.12683080365      -0.984854813625     -0.115646398108     
9400000000.0        -0.985173775519     -0.114302128198     0.0146629020308     -0.125612527017     0.0146629020308     -0.125612527017     -0.985173775519     -0.114302128198     
9500000000.0        -0.985482922835     -0.11298309203      0.0143520751371     -0.12441964459      0.0143520751371     -0.12441964459      -0.985482922835     -0.11298309203      
9600000000.0        -0.985782651278     -0.111688544864     0.0140506478216     -0.123251412842     0.0140506478216     -0.123251412842     -0.985782651278     -0.111688544864     
9700000000.0        -0.986073336863     -0.11041777031      0.0137582439875     -0.122107116608     0.0137582439875     -0.122107116608     -0.986073336863     -0.11041777031      
9800000000.0        -0.986355337069     -0.109170079025     0.0134745060706     -0.120986067773     0.0134745060706     -0.120986067773     -0.986355337069     -0.109170079025     
9900000000.0        -0.986628991924     -0.107944807466     0.0131990939582     -0.11988760403      0.0131990939582     -0.11988760403      -0.986628991924     -0.107944807466     
10000000000.0       -0.986894625011     -0.106741316723     0.0129316839818     -0.11881108771      0.0129316839818     -0.11881108771      -0.986894625011     -0.106741316723     
