# Hz S RI R 50.00 
100000000.0         -0.00103053518453   -0.0347617940608    0.998492823251      -0.0354348360104    0.998492823251      -0.0354348360104    -0.00103053518453   -0.0347617940608    
200000000.0         -0.00474544154755   -0.0692606631529    0.99477398571       -0.0706067804667    0.99477398571       -0.0706067804667    -0.00474544154755   -0.0692606631529    
300000000.0         -0.0108547151644    -0.103244989504     0.988661143474      -0.105264244268     0.988661143474      -0.105264244268     -0.0108547151644    -0.103244989504     
400000000.0         -0.0192703020512    -0.136475506485     0.980241940118      -0.139167985754     0.980241940118      -0.139167985754     -0.0192703020512    -0.136475506485     
500000000.0         -0.0298738578644    -0.168730620802     0.969634562415      -0.172096435048     0.969634562415      -0.172096435048     -0.0298738578644    -0.168730620802     
600000000.0         -0.0425207014104    -0.199810886296     0.956983611336      -0.203850168461     0.956983611336      -0.203850168461     -0.0425207014104    -0.199810886296     
700000000.0         -0.057044523097     -0.229542458916     0.942455349086      -0.234255363747     0.942455349086      -0.234255363747     -0.057044523097     -0.229542458916     
800000000.0         -0.0732625213384    -0.257779441        0.926232546477      -0.26316614455      0.926232546477      -0.26316614455      -0.0732625213384    -0.257779441        
900000000.0         -0.0909806804555    -0.28440510086      0.908509197828      -0.290465800088     0.908509197828      -0.290465800088     -0.0909806804555    -0.28440510086      
1000000000.0        -0.109998931311     -0.309332023985     0.88948535668       -0.316066936436     0.88948535668       -0.316066936436     -0.109998931311     -0.309332023985     
1100000000.0        -0.130115975542     -0.33250130935      0.869362309541      -0.339910672883     0.869362309541      -0.339910672883     -0.130115975542     -0.33250130935      
1200000000.0        -0.151133603726     -0.353880964857     0.848338256523      -0.361965037416     0.848338256523      -0.361965037416     -0.151133603726     -0.353880964857     
1300000000.0        -0.172860391658     -0.373463678901     0.826604614302      -0.382222738316     0.826604614302      -0.382222738316     -0.172860391658     -0.373463678901     
1400000000.0        -0.195114711828     -0.391264151509     0.804343004147      -0.400698495327     0.804343004147      -0.400698495327     -0.195114711828     -0.391264151509     
1500000000.0        -0.217727044725     -0.407316161101     0.781722940284      -0.417426106433     0.781722940284      -0.417426106433     -0.217727044725     -0.407316161101     
1600000000.0        -0.240541613967     -0.421669525112     0.758900194525      -0.432455408502     0.758900194525      -0.432455408502     -0.240541613967     -0.421669525112     
1700000000.0        -0.263417399012     -0.434387088239     0.736015783389      -0.445849265542     0.736015783389      -0.445849265542     -0.263417399012     -0.434387088239     
1800000000.0        -0.286228599219     -0.445541844363     0.713195503913      -0.457680690648     0.713195503913      -0.457680690648     -0.286228599219     -0.445541844363     
1900000000.0        -0.308864634053     -0.455214270181     0.690549933361      -0.468030179636     0.690549933361      -0.468030179636     -0.308864634053     -0.455214270181     
2000000000.0        -0.331229767698     -0.463489922359     0.668174804532      -0.476983308205     0.668174804532      -0.476983308205     -0.331229767698     -0.463489922359     
2100000000.0        -0.353242443974     -0.470457327035     0.64615167079       -0.484628621459     0.64615167079       -0.484628621459     -0.353242443974     -0.470457327035     
2200000000.0        -0.374834410848     -0.476206171541     0.624548781511      -0.491055825629     0.624548781511      -0.491055825629     -0.374834410848     -0.476206171541     
2300000000.0        -0.395949704643     -0.480825793359     0.60342209784       -0.49635427704      0.60342209784       -0.49635427704      -0.395949704643     -0.480825793359     
2400000000.0        -0.416543553567     -0.484403950538     0.582816389132      -0.500611752536     0.582816389132      -0.500611752536     -0.416543553567     -0.484403950538     
2500000000.0        -0.43658124939      -0.487025850548     0.562766361252      -0.503913478337     0.562766361252      -0.503913478337     -0.43658124939      -0.487025850548     
2600000000.0        -0.456037025758     -0.488773410263     0.543297778247      -0.506341390029     0.543297778247      -0.506341390029     -0.456037025758     -0.488773410263     
2700000000.0        -0.474892972223     -0.489724717923     0.524428548296      -0.507973594539     0.524428548296      -0.507973594539     -0.474892972223     -0.489724717923     
2800000000.0        -0.493138004814     -0.489953667861     0.506169753131      -0.508884004854     0.506169753131      -0.508884004854     -0.493138004814     -0.489953667861     
2900000000.0        -0.510766907057     -0.489529739975     0.488526606999      -0.509142119509     0.488526606999      -0.509142119509     -0.510766907057     -0.489529739975     
3000000000.0        -0.52777944966      -0.48851789804      0.471499336977      -0.508812920901     0.471499336977      -0.508812920901     -0.52777944966      -0.48851789804      
3100000000.0        -0.544179592604     -0.48697858348      0.455083980865      -0.507956869062     0.455083980865      -0.507956869062     -0.544179592604     -0.48697858348      
3200000000.0        -0.559974769971     -0.484967784036     0.43927310236       -0.506629970337     0.43927310236       -0.506629970337     -0.559974769971     -0.484967784036     
3300000000.0        -0.575175255315     -0.482537159563     0.424056425671      -0.504883903177     0.424056425671      -0.504883903177     -0.575175255315     -0.482537159563     
3400000000.0        -0.589793603648     -0.479734209896     0.409421393534      -0.502766186021     0.409421393534      -0.502766186021     -0.589793603648     -0.479734209896     
3500000000.0        -0.603844164938     -0.47660247225      0.395353653705      -0.50032037469      0.395353653705      -0.50032037469      -0.603844164938     -0.47660247225      
3600000000.0        -0.617342663404     -0.473181737847     0.381837479666      -0.497586279019     0.381837479666      -0.497586279019     -0.617342663404     -0.473181737847     
3700000000.0        -0.630305836526     -0.469508279489     0.368856131609      -0.494600190439     0.368856131609      -0.494600190439     -0.630305836526     -0.469508279489     
3800000000.0        -0.642751127739     -0.465615083508     0.356392163738      -0.491395113925     0.356392163738      -0.491395113925     -0.642751127739     -0.465615083508     
3900000000.0        -0.654696426892     -0.461532080988     0.344427683808      -0.488000999225     0.344427683808      -0.488000999225     -0.654696426892     -0.461532080988     
4000000000.0        -0.666159852886     -0.457286374405     0.332944570488      -0.484444967501     0.332944570488      -0.484444967501     -0.666159852886     -0.457286374405     
4100000000.0        -0.677159573263     -0.452902456831     0.321924653766      -0.480751530538     0.321924653766      -0.480751530538     -0.677159573263     -0.452902456831     
4200000000.0        -0.687713655969     -0.448402421691     0.311349863183      -0.476942800503     0.311349863183      -0.476942800503     -0.687713655969     -0.448402421691     
4300000000.0        -0.697839948947     -0.443806161731     0.301202348242      -0.473038688917     0.301202348242      -0.473038688917     -0.697839948947     -0.443806161731     
4400000000.0        -0.707555983653     -0.43913155638      0.291464574889      -0.46905709402      0.291464574889      -0.46905709402      -0.707555983653     -0.43913155638      
4500000000.0        -0.716878899037     -0.434394647123     0.282119401527      -0.465014076148     0.282119401527      -0.465014076148     -0.716878899037     -0.434394647123     
4600000000.0        -0.725825382922     -0.429609800793     0.273150137644      -0.460924021025     0.273150137644      -0.460924021025     -0.725825382922     -0.429609800793     
4700000000.0        -0.734411628079     -0.424789860957     0.264540587725      -0.456799791155     0.264540587725      -0.456799791155     -0.734411628079     -0.424789860957     
4800000000.0        -0.742653300674     -0.419946287738     0.256275082812      -0.452652865648     0.256275082812      -0.452652865648     -0.742653300674     -0.419946287738     
4900000000.0        -0.750565519036     -0.415089286536     0.248338501734      -0.448493468938     0.248338501734      -0.448493468938     -0.750565519036     -0.415089286536     
5000000000.0        -0.758162840983     -0.410227926191     0.240716283778      -0.444330688958     0.240716283778      -0.444330688958     -0.758162840983     -0.410227926191     
5100000000.0        -0.765459258211     -0.405370247208     0.233394434298      -0.440172585358     0.233394434298      -0.440172585358     -0.765459258211     -0.405370247208     
5200000000.0        -0.772468196442     -0.400523360655     0.226359524567      -0.436026288413     0.226359524567      -0.436026288413     -0.772468196442     -0.400523360655     
5300000000.0        -0.779202520224     -0.395693538378     0.219598686977      -0.431898089239     0.219598686977      -0.431898089239     -0.779202520224     -0.395693538378     
5400000000.0        -0.785674541458     -0.390886295166     0.213099606511      -0.427793521959     0.213099606511      -0.427793521959     -0.785674541458     -0.390886295166     
5500000000.0        -0.79189603085      -0.386106463472     0.206850509286      -0.423717438429     0.206850509286      -0.423717438429     -0.79189603085      -0.386106463472     
5600000000.0        -0.797878231627     -0.381358261289     0.200840148843      -0.419674076117     0.200840148843      -0.419674076117     -0.797878231627     -0.381358261289     
5700000000.0        -0.803631874959     -0.376645353735     0.195057790718      -0.415667119689     0.195057790718      -0.415667119689     -0.803631874959     -0.376645353735     
5800000000.0        -0.809167196612     -0.371970908881     0.189493195788      -0.41169975684      0.189493195788      -0.41169975684      -0.809167196612     -0.371970908881     
5900000000.0        -0.814493954465     -0.367337648312     0.18413660276       -0.40777472886      0.18413660276       -0.40777472886      -0.814493954465     -0.367337648312     
6000000000.0        -0.819621446546     -0.362747892895     0.178978710126      -0.403894376402     0.178978710126      -0.403894376402     -0.819621446546     -0.362747892895     
6100000000.0        -0.824558529349     -0.358203604164     0.174010657849      -0.400060680871     0.174010657849      -0.400060680871     -0.824558529349     -0.358203604164     
6200000000.0        -0.829313636204     -0.353706421737     0.169224008991      -0.396275301846     0.169224008991      -0.396275301846     -0.829313636204     -0.353706421737     
6300000000.0        -0.833894795536     -0.349257697117     0.164610731454      -0.392539610881     0.164610731454      -0.392539610881     -0.833894795536     -0.349257697117     
6400000000.0        -0.838309648876     -0.344858524213     0.160163179968      -0.388854722027     0.160163179968      -0.388854722027     -0.838309648876     -0.344858524213     
6500000000.0        -0.842565468512     -0.340509766889     0.155874078438      -0.385221519389     0.155874078438      -0.385221519389     -0.842565468512     -0.340509766889     
6600000000.0        -0.846669174699     -0.336212083821     0.151736502732      -0.381640681981     0.151736502732      -0.381640681981     -0.846669174699     -0.336212083821     
6700000000.0        -0.850627352377     -0.331965950911     0.147743863968      -0.378112706149     0.147743863968      -0.378112706149     -0.850627352377     -0.331965950911     
6800000000.0        -0.854446267326     -0.327771681499     0.143889892348      -0.374637925779     0.143889892348      -0.374637925779     -0.854446267326     -0.327771681499     
6900000000.0        -0.858131881752     -0.323629444578     0.140168621581      -0.371216530516     0.140168621581      -0.371216530516     -0.858131881752     -0.323629444578     
7000000000.0        -0.861689869273     -0.319539281195     0.136574373889      -0.367848582173     0.136574373889      -0.367848582173     -0.861689869273     -0.319539281195     
7100000000.0        -0.865125629288     -0.315501119238     0.133101745643      -0.364534029516     0.133101745643      -0.364534029516     -0.865125629288     -0.315501119238     
7200000000.0        -0.86844430074      -0.31151478673      0.129745593592      -0.361272721561     0.129745593592      -0.361272721561     -0.86844430074      -0.31151478673      
7300000000.0        -0.871650775266     -0.307580023804     0.126501021718      -0.358064419556     0.126501021718      -0.358064419556     -0.871650775266     -0.307580023804     
7400000000.0        -0.874749709741     -0.303696493474     0.123363368687      -0.35490880775      0.123363368687      -0.35490880775      -0.874749709741     -0.303696493474     
7500000000.0        -0.877745538242     -0.299863791314     0.120328195887      -0.351805503077     0.120328195887      -0.351805503077     -0.877745538242     -0.299863791314     
7600000000.0        -0.880642483423     -0.296081454161     0.117391276048      -0.348754063865     0.117391276048      -0.348754063865     -0.880642483423     -0.296081454161     
7700000000.0        -0.883444567345     -0.292348967936     0.114548582418      -0.345753997653     0.114548582418      -0.345753997653     -0.883444567345     -0.292348967936     
7800000000.0        -0.88615562175      -0.288665774657     0.111796278477      -0.342804768214     0.111796278477      -0.342804768214     -0.88615562175      -0.288665774657     
7900000000.0        -0.888779297834     -0.285031278743     0.109130708177      -0.339905801857     0.109130708177      -0.339905801857     -0.888779297834     -0.285031278743     
8000000000.0        -0.891319075499     -0.281444852657     0.106548386671      -0.337056493075     0.106548386671      -0.337056493075     -0.891319075499     -0.281444852657     
8100000000.0        -0.893778272145     -0.277905841965     0.104045991539      -0.334256209612     0.104045991539      -0.334256209612     -0.893778272145     -0.277905841965     
8200000000.0        -0.896160050992     -0.274413569872     0.10162035445       -0.33150429699      0.10162035445       -0.33150429699      -0.896160050992     -0.274413569872     
8300000000.0        -0.898467428967     -0.270967341268     0.0992684532816     -0.328800082571     0.0992684532816     -0.328800082571     -0.898467428967     -0.270967341268     
8400000000.0        -0.900703284174     -0.267566446356     0.0969874046449     -0.326142879178     0.0969874046449     -0.326142879178     -0.900703284174     -0.267566446356     
8500000000.0        -0.902870362974     -0.264210163877     0.0947744568074     -0.323531988333     0.0947744568074     -0.323531988333     -0.902870362974     -0.264210163877     
8600000000.0        -0.904971286674     -0.260897764001     0.0926269829966     -0.320966703141     0.0926269829966     -0.320966703141     -0.904971286674     -0.260897764001     
8700000000.0        -0.907008557874     -0.257628510883     0.0905424750586     -0.318446310858     0.0905424750586     -0.318446310858     -0.907008557874     -0.257628510883     
8800000000.0        -0.90898456646      -0.254401664952     0.0885185374577     -0.315970095175     0.0885185374577     -0.315970095175     -0.90898456646      -0.254401664952     
8900000000.0        -0.910901595286     -0.251216484929     0.0865528815975     -0.313537338249     0.0865528815975     -0.313537338249     -0.910901595286     -0.251216484929     
9000000000.0        -0.912761825544     -0.248072229622     0.0846433204469     -0.311147322492     0.0846433204469     -0.311147322492     -0.912761825544     -0.248072229622     
9100000000.0        -0.914567341847     -0.244968159505     0.0827877634552     -0.30879933216      0.0827877634552     -0.30879933216      -0.914567341847     -0.244968159505     
9200000000.0        -0.916320137044     -0.241903538121     0.0809842117399     -0.306492654754     0.0809842117399     -0.306492654754     -0.916320137044     -0.241903538121     
9300000000.0        -0.918022116767     -0.238877633296     0.0792307535331     -0.304226582244     0.0792307535331     -0.304226582244     -0.918022116767     -0.238877633296     
9400000000.0        -0.919675103741     -0.235889718224     0.077525559872      -0.302000412151     0.077525559872      -0.302000412151     -0.919675103741     -0.235889718224     
9500000000.0        -0.921280841862     -0.232939072395     0.0758668805205     -0.299813448482     0.0758668805205     -0.299813448482     -0.921280841862     -0.232939072395     
9600000000.0        -0.922841000053     -0.23002498241      0.0742530401082     -0.297665002549     0.0742530401082     -0.297665002549     -0.922841000053     -0.23002498241      
9700000000.0        -0.924357175923     -0.227146742684     0.0726824344765     -0.295554393672     0.0726824344765     -0.295554393672     -0.924357175923     -0.227146742684     
9800000000.0        -0.925830899216     -0.224303656045     0.0711535272182     -0.293480949786     0.0711535272182     -0.293480949786     -0.925830899216     -0.224303656045     
9900000000.0        -0.927263635095     -0.221495034248     0.0696648464015     -0.291444007957     0.0696648464015     -0.291444007957     -0.927263635095     -0.221495034248     
10000000000.0       -0.928656787237     -0.218720198407     0.0682149814674     -0.289442914817     0.0682149814674     -0.289442914817     -0.928656787237     -0.218720198407     
