# Hz S RI R 50.00 
100000000.0         -0.012641954998     -0.111257476124     0.987317204541      -0.111367661131     0.987317204541      -0.111367661131     -0.012641954998     -0.111257476124     
200000000.0         -0.0485628914735    -0.214385628223     0.951395970112      -0.214606017497     0.951395970112      -0.214606017497     -0.0485628914735    -0.214385628223     
300000000.0         -0.102881003652     -0.303165147048     0.897077617655      -0.303495770336     0.897077617655      -0.303495770336     -0.102881003652     -0.303165147048     
400000000.0         -0.169229063504     -0.374251735019     0.830729340105      -0.374692630307     0.830729340105      -0.374692630307     -0.169229063504     -0.374251735019     
500000000.0         -0.241326932751     -0.427124531899     0.75863126229       -0.427675744224     0.75863126229       -0.427675744224     -0.241326932751     -0.427124531899     
600000000.0         -0.314049470091     -0.46331282929      0.685908518675      -0.463974409925     0.685908518675      -0.463974409925     -0.314049470091     -0.46331282929      
700000000.0         -0.383820916366     -0.485432822983     0.616136864397      -0.486204828808     0.616136864397      -0.486204828808     -0.383820916366     -0.485432822983     
800000000.0         -0.448517689092     -0.496401706826     0.551439879333      -0.49728419982      0.551439879333      -0.49728419982      -0.448517689092     -0.496401706826     
900000000.0         -0.507142473846     -0.498950003842     0.492814876109      -0.499943050645     0.492814876109      -0.499943050645     -0.507142473846     -0.498950003842     
1000000000.0        -0.559462722414     -0.495394633979     0.44049440164       -0.496498305517     0.44049440164       -0.496498305517     -0.559462722414     -0.495394633979     
1100000000.0        -0.605708248135     -0.487583216204     0.394248641602      -0.488797587356     0.394248641602      -0.488797587356     -0.605708248135     -0.487583216204     
1200000000.0        -0.646353305311     -0.476928555597     0.353603340933      -0.478253704892     0.353603340933      -0.478253704892     -0.646353305311     -0.476928555597     
1300000000.0        -0.68197469187      -0.464479032722     0.3179817011        -0.465915042068     0.3179817011        -0.465915042068     -0.68197469187      -0.464479032722     
1400000000.0        -0.713166859787     -0.450994926214     0.286789269636      -0.452541880653     0.286789269636      -0.452541880653     -0.713166859787     -0.450994926214     
1500000000.0        -0.740495537143     -0.43701697725      0.259460318049      -0.438674964726     0.259460318049      -0.438674964726     -0.740495537143     -0.43701697725      
1600000000.0        -0.764475539173     -0.422922656273     0.235480030761      -0.424691767427     0.235480030761      -0.424691767427     -0.764475539173     -0.422922656273     
1700000000.0        -0.785562867264     -0.408970031744     0.214392406093      -0.41085035972      0.214392406093      -0.41085035972      -0.785562867264     -0.408970031744     
1800000000.0        -0.804154716991     -0.395330919024     0.195800248212      -0.397322559293     0.195800248212      -0.397322559293     -0.804154716991     -0.395330919024     
1900000000.0        -0.820593491482     -0.382115435757     0.179361153768      -0.384218485952     0.179361153768      -0.384218485952     -0.820593491482     -0.382115435757     
2000000000.0        -0.835172535656     -0.36938995751      0.164781777645      -0.371604517273     0.164781777645      -0.371604517273     -0.835172535656     -0.36938995751      
2100000000.0        -0.848142317138     -0.357190134647     0.151811652041      -0.35951630549      0.151811652041      -0.35951630549      -0.848142317138     -0.357190134647     
2200000000.0        -0.8597163873       -0.345530272519     0.140237225424      -0.347968157695     0.140237225424      -0.347968157695     -0.8597163873       -0.345530272519     
2300000000.0        -0.870076809518     -0.334410060643     0.129876434272      -0.336959765026     0.129876434272      -0.336959765026     -0.870076809518     -0.334410060643     
2400000000.0        -0.879378940193     -0.323819381435     0.120573922053      -0.326481011411     0.120573922053      -0.326481011411     -0.879378940193     -0.323819381435     
2500000000.0        -0.887755554185     -0.31374173301      0.112196913781      -0.316515396373     0.112196913781      -0.316515396373     -0.887755554185     -0.31374173301      
2600000000.0        -0.895320358838     -0.304156654052     0.104631702001      -0.307042459911     0.104631702001      -0.307042459911     -0.895320358838     -0.304156654052     
2700000000.0        -0.902170962967     -0.295041431179     0.0977806777893     -0.298039489873     0.0977806777893     -0.298039489873     -0.902170962967     -0.295041431179     
2800000000.0        -0.908391373053     -0.286372290936     0.0915598345654     -0.289482713957     0.0915598345654     -0.289482713957     -0.908391373053     -0.286372290936     
2900000000.0        -0.914054086185     -0.278125222047     0.0858966751437     -0.281348121967     0.0858966751437     -0.281348121967     -0.914054086185     -0.278125222047     
3000000000.0        -0.919221842852     -0.270276532786     0.0807284589466     -0.273612023189     0.0807284589466     -0.273612023189     -0.919221842852     -0.270276532786     
3100000000.0        -0.923949094732     -0.262803219031     0.0760007342096     -0.266251414457     0.0760007342096     -0.266251414457     -0.923949094732     -0.262803219031     
3200000000.0        -0.928283234728     -0.255683197488     0.071666107947      -0.259244213379     0.071666107947      -0.259244213379     -0.928283234728     -0.255683197488     
3300000000.0        -0.932265629103     -0.248895443372     0.0676832138173     -0.252569396021     0.0676832138173     -0.252569396021     -0.932265629103     -0.248895443372     
3400000000.0        -0.93593248505      -0.242420060902     0.0640158445505     -0.246207067413     0.0640158445505     -0.246207067413     -0.93593248505      -0.242420060902     
3500000000.0        -0.939315581426     -0.236238307069     0.060632221216      -0.240138485315     0.060632221216      -0.240138485315     -0.939315581426     -0.236238307069     
3600000000.0        -0.942442885612     -0.230332583403     0.0575043763603     -0.234346051993     0.0575043763603     -0.234346051993     -0.942442885612     -0.230332583403     
3700000000.0        -0.945339075503     -0.224686406352     0.0546076320197     -0.228813284602     0.0546076320197     -0.228813284602     -0.945339075503     -0.224686406352     
3800000000.0        -0.948025982317     -0.219284363872     0.051920156908      -0.223524771778     0.051920156908      -0.223524771778     -0.948025982317     -0.219284363872     
3900000000.0        -0.950522967206     -0.214112063647     0.0494225898066     -0.218466121858     0.0494225898066     -0.218466121858     -0.950522967206     -0.214112063647     
4000000000.0        -0.952847242393     -0.209156076778     0.0470977184254     -0.213623906584     0.0470977184254     -0.213623906584     -0.952847242393     -0.209156076778     
4100000000.0        -0.95501414573      -0.204403879653     0.0449302048505     -0.208985602963     0.0449302048505     -0.208985602963     -0.95501414573      -0.204403879653     
4200000000.0        -0.957037376028     -0.199843795828     0.0429063502064     -0.204539535158     0.0429063502064     -0.204539535158     -0.957037376028     -0.199843795828     
4300000000.0        -0.958929195304     -0.195464939207     0.0410138924137     -0.200274817671     0.0410138924137     -0.200274817671     -0.958929195304     -0.195464939207     
4400000000.0        -0.96070060303      -0.191257159324     0.0392418319407     -0.196181300625     0.0392418319407     -0.196181300625     -0.96070060303      -0.191257159324     
4500000000.0        -0.962361486632     -0.187210989245     0.0375802812981     -0.192249517669     0.0375802812981     -0.192249517669     -0.962361486632     -0.187210989245     
4600000000.0        -0.963920751817     -0.183317596371     0.0360203347197     -0.188470636785     0.0360203347197     -0.188470636785     -0.963920751817     -0.183317596371     
4700000000.0        -0.965386435683     -0.179568736283     0.0345539550468     -0.184836414133     0.0345539550468     -0.184836414133     -0.965386435683     -0.179568736283     
4800000000.0        -0.966765805138     -0.175956709636     0.0331738753134     -0.181339150946     0.0331738753134     -0.181339150946     -0.966765805138     -0.175956709636     
4900000000.0        -0.968065442721     -0.172474322054     0.0318735129212     -0.17797165343      0.0318735129212     -0.17797165343      -0.968065442721     -0.172474322054     
5000000000.0        -0.969291321617     -0.169114846922     0.0306468946246     -0.174727195558     0.0306468946246     -0.174727195558     -0.969291321617     -0.169114846922     
5100000000.0        -0.970448871374     -0.16587199094      0.029488590819      -0.171599484621     0.029488590819      -0.171599484621     -0.970448871374     -0.16587199094      
5200000000.0        -0.971543035584     -0.162739862278     0.0283936578532     -0.168582629387     0.0283936578532     -0.168582629387     -0.971543035584     -0.162739862278     
5300000000.0        -0.972578322634     -0.159712941183     0.0273575872803     -0.165671110709     0.0273575872803     -0.165671110709     -0.972578322634     -0.159712941183     
5400000000.0        -0.973558850448     -0.156786052857     0.0263762611195     -0.162859754408     0.0263762611195     -0.162859754408     -0.973558850448     -0.156786052857     
5500000000.0        -0.974488385999     -0.153954342461     0.0254459123394     -0.16014370627      0.0254459123394     -0.16014370627      -0.974488385999     -0.153954342461     
5600000000.0        -0.975370380283     -0.15121325207      0.024563089884      -0.157518409009     0.024563089884      -0.157518409009     -0.975370380283     -0.15121325207      
5700000000.0        -0.976207999335     -0.148558499442     0.0237246276605     -0.154979581036     0.0237246276605     -0.154979581036     -0.976207999335     -0.148558499442     
5800000000.0        -0.977004151776     -0.145986058457     0.0229276169898     -0.152523196893     0.0229276169898     -0.152523196893     -0.977004151776     -0.145986058457     
5900000000.0        -0.977761513329     -0.143492141083     0.0221693820886     -0.150145469228     0.0221693820886     -0.150145469228     -0.977761513329     -0.143492141083     
6000000000.0        -0.978482548681     -0.141073180757     0.0214474582106     -0.147842832171     0.0214474582106     -0.147842832171     -0.978482548681     -0.141073180757     
6100000000.0        -0.979169531004     -0.138725817061     0.0207595721261     -0.145611926014     0.0207595721261     -0.145611926014     -0.979169531004     -0.138725817061     
6200000000.0        -0.979824559411     -0.136446881587     0.02010362466       -0.143449583072     0.02010362466       -0.143449583072     -0.979824559411     -0.136446881587     
6300000000.0        -0.980449574611     -0.134233384891     0.0194776750455     -0.141352814643     0.0194776750455     -0.141352814643     -0.980449574611     -0.134233384891     
6400000000.0        -0.981046372939     -0.132082504449     0.0188799268844     -0.139318798962     0.0188799268844     -0.139318798962     -0.981046372939     -0.132082504449     
6500000000.0        -0.981616618987     -0.129991573531     0.0183087155262     -0.137344870075     0.0183087155262     -0.137344870075     -0.981616618987     -0.129991573531     
6600000000.0        -0.982161856954     -0.127958070919     0.0177624967097     -0.135428507555     0.0177624967097     -0.135428507555     -0.982161856954     -0.127958070919     
6700000000.0        -0.982683520891     -0.125979611394     0.0172398363222     -0.133567326999     0.0172398363222     -0.133567326999     -0.982683520891     -0.125979611394     
6800000000.0        -0.983182943944     -0.124053936939     0.0167394011552     -0.131759071216     0.0167394011552     -0.131759071216     -0.983182943944     -0.124053936939     
6900000000.0        -0.983661366712     -0.122178908586     0.0162599505477     -0.130001602088     0.0162599505477     -0.130001602088     -0.983661366712     -0.122178908586     
7000000000.0        -0.984119944809     -0.120352498866     0.015800328821      -0.128292893013     0.015800328821      -0.128292893013     -0.984119944809     -0.120352498866     
7100000000.0        -0.984559755727     -0.11857278481      0.0153594584218     -0.126631021908     0.0153594584218     -0.126631021908     -0.984559755727     -0.11857278481      
7200000000.0        -0.984981805051     -0.116837941449     0.0149363336983     -0.12501416471      0.0149363336983     -0.12501416471      -0.984981805051     -0.116837941449     
7300000000.0        -0.985387032123     -0.11514623579      0.0145300152446     -0.123440589351     0.0145300152446     -0.123440589351     -0.985387032123     -0.11514623579      
7400000000.0        -0.985776315184     -0.113496021208     0.014139624755      -0.121908650149     0.014139624755      -0.121908650149     -0.985776315184     -0.113496021208     
7500000000.0        -0.98615047606      -0.111885732241     0.0137643403358     -0.120416782606     0.0137643403358     -0.120416782606     -0.98615047606      -0.111885732241     
7600000000.0        -0.986510284442     -0.110313879743     0.0134033922304     -0.11896349856      0.0134033922304     -0.11896349856      -0.986510284442     -0.110313879743     
7700000000.0        -0.986856461785     -0.108779046378     0.0130560589151     -0.117547381676     0.0130560589151     -0.117547381676     -0.986856461785     -0.108779046378     
7800000000.0        -0.987189684881     -0.107279882414     0.0127216635312     -0.116167083245     0.0127216635312     -0.116167083245     -0.987189684881     -0.107279882414     
7900000000.0        -0.98751058912      -0.10581510181      0.0123995706189     -0.114821318268     0.0123995706189     -0.114821318268     -0.98751058912      -0.10581510181      
8000000000.0        -0.987819771485     -0.104383478563     0.0120891831267     -0.113508861805     0.0120891831267     -0.113508861805     -0.987819771485     -0.104383478563     
8100000000.0        -0.988117793291     -0.102983843301     0.0117899396674     -0.112228545562     0.0117899396674     -0.112228545562     -0.988117793291     -0.102983843301     
8200000000.0        -0.988405182708     -0.101615080096     0.0115013120006     -0.110979254713     0.0115013120006     -0.110979254713     -0.988405182708     -0.101615080096     
8300000000.0        -0.988682437072     -0.10027612349      0.0112228027183     -0.109759924922     0.0112228027183     -0.109759924922     -0.988682437072     -0.10027612349      
8400000000.0        -0.988950025015     -0.0989659557149    0.010953943117      -0.108569539558     0.010953943117      -0.108569539558     -0.988950025015     -0.0989659557149    
8500000000.0        -0.989208388421     -0.0976836040872    0.0106942912378     -0.107407127099     0.0106942912378     -0.107407127099     -0.989208388421     -0.0976836040872    
8600000000.0        -0.989457944236     -0.0964281385709    0.010443430061      -0.106271758686     0.010443430061      -0.106271758686     -0.989457944236     -0.0964281385709    
8700000000.0        -0.989699086131     -0.0951986694943    0.0102009658409     -0.105162545846     0.0102009658409     -0.105162545846     -0.989699086131     -0.0951986694943    
8800000000.0        -0.989932186038     -0.0939943454095    0.00996652656753    -0.104078638349     0.00996652656753    -0.104078638349     -0.989932186038     -0.0939943454095    
8900000000.0        -0.990157595576     -0.0928143510843    0.00973976054658    -0.103019222199     0.00973976054658    -0.103019222199     -0.990157595576     -0.0928143510843    
9000000000.0        -0.990375647359     -0.0916579056181    0.0095203350852     -0.101983517751     0.0095203350852     -0.101983517751     -0.990375647359     -0.0916579056181    
9100000000.0        -0.990586656217     -0.0905242606718    0.00930793527606    -0.100970777942     0.00930793527606    -0.100970777942     -0.990586656217     -0.0905242606718    
9200000000.0        -0.990790920317     -0.0894126988057    0.00910226287081    -0.0999802866245    0.00910226287081    -0.0999802866245    -0.990790920317     -0.0894126988057    
9300000000.0        -0.990988722213     -0.0883225319156    0.00890303523575    -0.0990113570086    0.00890303523575    -0.0990113570086    -0.990988722213     -0.0883225319156    
9400000000.0        -0.991180329811     -0.0872530997626    0.00870998438293    -0.0980633301868    0.00870998438293    -0.0980633301868    -0.991180329811     -0.0872530997626    
9500000000.0        -0.99136599727      -0.0862037685891    0.00852285607035    -0.0971355737523    0.00852285607035    -0.0971355737523    -0.99136599727      -0.0862037685891    
9600000000.0        -0.99154596584      -0.0851739298154    0.00834140896603    -0.0962274804946    0.00834140896603    -0.0962274804946    -0.99154596584      -0.0851739298154    
9700000000.0        -0.991720464634     -0.0841629988113    0.00816541387048    -0.0953384671718    0.00816541387048    -0.0953384671718    -0.991720464634     -0.0841629988113    
9800000000.0        -0.991889711357     -0.0831704137391    0.00799465299325    -0.0944679733527    0.00799465299325    -0.0944679733527    -0.991889711357     -0.0831704137391    
9900000000.0        -0.992053912978     -0.0821956344609    0.00782891927913    -0.0936154603248    0.00782891927913    -0.0936154603248    -0.992053912978     -0.0821956344609    
10000000000.0       -0.992213266358     -0.0812381415089    0.00766801578024    -0.0927804100637    0.00766801578024    -0.0927804100637    -0.992213266358     -0.0812381415089    
