# Hz S RI R 50.00 
100000000.0         0.000207688032567   5.75352181341e-05   0.999791263396      -0.000108182742479  0.999791263396      -0.000108182742479  0.000207688032567   5.7535218134e-05    
200000000.0         0.000209068376223   0.000115070118283   0.999789831914      -0.000216365658684  0.999789831914      -0.000216365658684  0.000209068376223   0.000115070118283   
300000000.0         0.000210092202013   0.000172604957061   0.999788754384      -0.000324549260444  0.999788754384      -0.000324549260444  0.000210092202013   0.000172604957061   
400000000.0         0.000210940543269   0.00023013985723    0.999787849771      -0.000432733866359  0.999787849771      -0.000432733866359  0.000210940543269   0.00023013985723    
500000000.0         0.000211683160177   0.0002876749071     0.999787048316      -0.000540919731607  0.999787048316      -0.000540919731607  0.000211683160177   0.0002876749071     
600000000.0         0.000212355649356   0.000345210178885   0.999786314421      -0.000649107076229  0.999786314421      -0.000649107076229  0.000212355649356   0.000345210178885   
700000000.0         0.000212979049715   0.000402745735954   0.999785627046      -0.000757296096894  0.999785627046      -0.000757296096894  0.000212979049715   0.000402745735954   
800000000.0         0.000213566999043   0.000460281636279   0.999784972554      -0.000865486973275  0.999784972554      -0.000865486973275  0.000213566999043   0.000460281636279   
900000000.0         0.000214128921015   0.000517817933396   0.999784341521      -0.000973679872907  0.999784341521      -0.000973679872907  0.000214128921015   0.000517817933396   
1000000000.0        0.000214671640615   0.000575354678364   0.999783727121      -0.00108187495298   0.999783727121      -0.00108187495298   0.000214671640614   0.000575354678364   
1100000000.0        0.000215200282622   0.000632891920744   0.999783124229      -0.00119007236196   0.999783124229      -0.00119007236196   0.000215200282622   0.000632891920744   
1200000000.0        0.000215718806683   0.00069042970845    0.999782528885      -0.0012982722416    0.999782528885      -0.0012982722416    0.000215718806683   0.00069042970845    
1300000000.0        0.000216230344395   0.000747968088244   0.999781937956      -0.00140647472781   0.999781937956      -0.00140647472781   0.000216230344395   0.000747968088244   
1400000000.0        0.000216737420373   0.000805507106422   0.999781348919      -0.0015146799511    0.999781348919      -0.0015146799511    0.000216737420373   0.000805507106422   
1500000000.0        0.000217242103454   0.000863046808765   0.999780759702      -0.00162288803743   0.999780759702      -0.00162288803743   0.000217242103454   0.000863046808765   
1600000000.0        0.000217746112579   0.000920587240541   0.999780168588      -0.00173109910894   0.999780168588      -0.00173109910894   0.000217746112579   0.000920587240541   
1700000000.0        0.000218250893172   0.000978128446742   0.999779574129      -0.0018393132842    0.999779574129      -0.0018393132842    0.000218250893172   0.000978128446742   
1800000000.0        0.000218757673427   0.00103567047275    0.999778975098      -0.00194753067808   0.999778975098      -0.00194753067808   0.000218757673427   0.00103567047275    
1900000000.0        0.000219267506655   0.00109321336332    0.999778370441      -0.0020557514031    0.999778370441      -0.0020557514031    0.000219267506655   0.00109321336332    
2000000000.0        0.00021978130355    0.00115075716365    0.999777759246      -0.00216397556873   0.999777759246      -0.00216397556873   0.00021978130355    0.00115075716365    
2100000000.0        0.000220299857287   0.00120830191872    0.999777140719      -0.0022722032823    0.999777140719      -0.0022722032823    0.000220299857287   0.00120830191872    
2200000000.0        0.00022082386316    0.00126584767396    0.999776514165      -0.00238043464861   0.999776514165      -0.00238043464861   0.00022082386316    0.00126584767396    
2300000000.0        0.000221353934361   0.00132339447478    0.99977587897       -0.00248866977058   0.99977587897       -0.00248866977058   0.000221353934361   0.00132339447478    
2400000000.0        0.000221890614551   0.00138094236683    0.99977523459       -0.00259690874919   0.99977523459       -0.00259690874919   0.000221890614551   0.00138094236683    
2500000000.0        0.000222434388083   0.00143849139612    0.99977458054       -0.00270515168353   0.99977458054       -0.00270515168353   0.000222434388083   0.00143849139612    
2600000000.0        0.00022298568845    0.00149604160875    0.999773916386      -0.00281339867121   0.999773916386      -0.00281339867121   0.000222985688449   0.00149604160875    
2700000000.0        0.000223544905194   0.00155359305116    0.999773241737      -0.00292164980823   0.999773241737      -0.00292164980823   0.000223544905194   0.00155359305116    
2800000000.0        0.000224112389709   0.00161114577015    0.999772556242      -0.0030299051891    0.999772556242      -0.0030299051891    0.000224112389709   0.00161114577015    
2900000000.0        0.000224688460094   0.00166869981277    0.999771859582      -0.00313816490703   0.999771859582      -0.00313816490703   0.000224688460094   0.00166869981277    
3000000000.0        0.000225273405234   0.00172625522638    0.999771151468      -0.00324642905396   0.999771151468      -0.00324642905396   0.000225273405234   0.00172625522638    
3100000000.0        0.000225867488279   0.00178381205874    0.999770431636      -0.0033546977206    0.999770431636      -0.0033546977206    0.000225867488279   0.00178381205874    
3200000000.0        0.000226470949628   0.00184137035798    0.999769699845      -0.00346297099647   0.999769699845      -0.00346297099647   0.000226470949628   0.00184137035798    
3300000000.0        0.00022708400947    0.00189893017241    0.999768955874      -0.00357124897023   0.999768955874      -0.00357124897023   0.00022708400947    0.00189893017241    
3400000000.0        0.000227706869996   0.00195649155079    0.99976819952       -0.00367953172938   0.99976819952       -0.00367953172938   0.000227706869995   0.00195649155079    
3500000000.0        0.000228339717245   0.00201405454234    0.999767430597      -0.00378781936044   0.999767430597      -0.00378781936044   0.000228339717245   0.00201405454234    
3600000000.0        0.000228982722857   0.00207161919652    0.999766648932      -0.00389611194909   0.999766648932      -0.00389611194909   0.000228982722857   0.00207161919652    
3700000000.0        0.000229636045455   0.00212918556309    0.999765854366      -0.00400440958027   0.999765854366      -0.00400440958027   0.000229636045455   0.00212918556309    
3800000000.0        0.000230299831928   0.00218675369238    0.999765046752      -0.00411271233785   0.999765046752      -0.00411271233785   0.000230299831928   0.00218675369238    
3900000000.0        0.000230974218563   0.00224432363495    0.999764225953      -0.00422102030511   0.999764225953      -0.00422102030511   0.000230974218563   0.00224432363495    
4000000000.0        0.000231659332028   0.00230189544175    0.999763391842      -0.00432933356457   0.999763391842      -0.00432933356457   0.000231659332028   0.00230189544175    
4100000000.0        0.000232355290232   0.00235946916418    0.999762544299      -0.00443765219796   0.999762544299      -0.00443765219796   0.000232355290233   0.00235946916418    
4200000000.0        0.000233062203134   0.00241704485392    0.999761683214      -0.00454597628643   0.999761683214      -0.00454597628643   0.000233062203134   0.00241704485392    
4300000000.0        0.000233780173407   0.00247462256304    0.999760808485      -0.0046543059105    0.999760808485      -0.0046543059105    0.000233780173407   0.00247462256304    
4400000000.0        0.000234509297068   0.00253220234403    0.999759920014      -0.00476264115003   0.999759920014      -0.00476264115003   0.000234509297068   0.00253220234403    
4500000000.0        0.000235249664037   0.00258978424973    0.999759017711      -0.00487098208428   0.999759017711      -0.00487098208428   0.000235249664037   0.00258978424973    
4600000000.0        0.000236001358639   0.00264736833334    0.999758101491      -0.00497932879204   0.999758101491      -0.00497932879204   0.000236001358639   0.00264736833334    
4700000000.0        0.000236764460036   0.00270495464856    0.999757171273      -0.00508768135137   0.999757171273      -0.00508768135137   0.000236764460036   0.00270495464856    
4800000000.0        0.000237539042654   0.00276254324915    0.999756226984      -0.00519603984018   0.999756226984      -0.00519603984018   0.000237539042654   0.00276254324915    
4900000000.0        0.000238325176535   0.00282013418959    0.999755268552      -0.00530440433552   0.999755268552      -0.00530440433552   0.000238325176535   0.00282013418959    
5000000000.0        0.000239122927675   0.00287772752454    0.999754295911      -0.00541277491418   0.999754295911      -0.00541277491418   0.000239122927675   0.00287772752454    
5100000000.0        0.000239932358326   0.00293532330912    0.999753308998      -0.00552115165239   0.999753308998      -0.00552115165239   0.000239932358325   0.00293532330912    
5200000000.0        0.000240753527267   0.00299292159869    0.999752307752      -0.00562953462608   0.999752307752      -0.00562953462608   0.000240753527267   0.00299292159869    
5300000000.0        0.000241586490053   0.00305052244911    0.999751292119      -0.00573792391064   0.999751292119      -0.00573792391064   0.000241586490053   0.00305052244911    
5400000000.0        0.000242431299259   0.00310812591653    0.999750262045      -0.00584631958115   0.999750262045      -0.00584631958115   0.000242431299259   0.00310812591653    
5500000000.0        0.000243288004665   0.00316573205754    0.99974921748       -0.00595472171221   0.99974921748       -0.00595472171221   0.000243288004665   0.00316573205754    
5600000000.0        0.000244156653469   0.00322334092895    0.999748158375      -0.00606313037819   0.999748158375      -0.00606313037819   0.000244156653468   0.00322334092895    
5700000000.0        0.000245037290443   0.00328095258808    0.999747084685      -0.00617154565299   0.999747084685      -0.00617154565299   0.000245037290443   0.00328095258808    
5800000000.0        0.000245929958117   0.00333856709251    0.999745996367      -0.00627996761025   0.999745996367      -0.00627996761025   0.000245929958117   0.00333856709251    
5900000000.0        0.000246834696906   0.00339618450021    0.99974489338       -0.00638839632323   0.99974489338       -0.00638839632323   0.000246834696906   0.00339618450021    
6000000000.0        0.000247751545264   0.0034538048695     0.999743775685      -0.00649683186492   0.999743775685      -0.00649683186492   0.000247751545264   0.0034538048695     
6100000000.0        0.000248680539797   0.00351142825909    0.999742643244      -0.00660527430793   0.999742643244      -0.00660527430793   0.000248680539797   0.00351142825909    
6200000000.0        0.000249621715391   0.00356905472795    0.999741496022      -0.00671372372472   0.999741496022      -0.00671372372472   0.000249621715391   0.00356905472795    
6300000000.0        0.000250575105309   0.00362668433547    0.999740333986      -0.00682218018735   0.999740333986      -0.00682218018735   0.000250575105309   0.00362668433547    
6400000000.0        0.000251540741304   0.00368431714137    0.999739157102      -0.00693064376765   0.999739157102      -0.00693064376765   0.000251540741304   0.00368431714137    
6500000000.0        0.000252518653697   0.00374195320571    0.99973796534       -0.0070391145372    0.99973796534       -0.0070391145372    0.000252518653697   0.00374195320571    
6600000000.0        0.000253508871479   0.00379959258889    0.99973675867       -0.00714759256731   0.99973675867       -0.00714759256731   0.000253508871479   0.00379959258889    
6700000000.0        0.000254511422375   0.00385723535164    0.999735537063      -0.0072560779291    0.999735537063      -0.0072560779291    0.000254511422375   0.00385723535164    
6800000000.0        0.000255526332937   0.00391488155501    0.999734300493      -0.00736457069342   0.999734300493      -0.00736457069342   0.000255526332937   0.00391488155501    
6900000000.0        0.000256553628593   0.00397253126046    0.999733048934      -0.00747307093088   0.999733048934      -0.00747307093088   0.000256553628592   0.00397253126046    
7000000000.0        0.000257593333725   0.0040301845297     0.999731782359      -0.00758157871192   0.999731782359      -0.00758157871192   0.000257593333725   0.0040301845297     
7100000000.0        0.00025864547173    0.0040878414248     0.999730500746      -0.00769009410675   0.999730500746      -0.00769009410675   0.00025864547173    0.0040878414248     
7200000000.0        0.000259710065069   0.00414550200821    0.999729204072      -0.00779861718535   0.999729204072      -0.00779861718535   0.000259710065069   0.00414550200821    
7300000000.0        0.000260787135328   0.00420316634259    0.999727892313      -0.0079071480176    0.999727892313      -0.0079071480176    0.000260787135328   0.00420316634259    
7400000000.0        0.000261876703254   0.00426083449102    0.999726565448      -0.00801568667311   0.999726565448      -0.00801568667311   0.000261876703254   0.00426083449102    
7500000000.0        0.000262978788819   0.00431850651689    0.999725223458      -0.00812423322134   0.999725223458      -0.00812423322134   0.00026297878882    0.00431850651689    
7600000000.0        0.000264093411252   0.00437618248384    0.999723866321      -0.00823278773161   0.999723866321      -0.00823278773161   0.000264093411252   0.00437618248384    
7700000000.0        0.00026522058908    0.00443386245597    0.99972249402       -0.00834135027297   0.99972249402       -0.00834135027297   0.000265220589079   0.00443386245597    
7800000000.0        0.000266360340172   0.00449154649751    0.999721106534      -0.00844992091448   0.999721106534      -0.00844992091448   0.000266360340171   0.00449154649751    
7900000000.0        0.000267512681766   0.0045492346732     0.999719703848      -0.00855849972485   0.999719703848      -0.00855849972485   0.000267512681766   0.0045492346732     
8000000000.0        0.000268677630516   0.0046069270479     0.999718285942      -0.00866708677285   0.999718285942      -0.00866708677285   0.000268677630516   0.0046069270479     
8100000000.0        0.00026985520251    0.00466462368692    0.999716852801      -0.00877568212694   0.999716852801      -0.00877568212694   0.00026985520251    0.00466462368692    
8200000000.0        0.000271045413307   0.00472232465579    0.999715404407      -0.00888428585553   0.999715404407      -0.00888428585553   0.000271045413308   0.00472232465579    
8300000000.0        0.000272248277966   0.00478003002046    0.999713940747      -0.00899289802684   0.999713940747      -0.00899289802684   0.000272248277966   0.00478003002046    
8400000000.0        0.00027346381107    0.00483773984704    0.999712461804      -0.00910151870902   0.999712461804      -0.00910151870902   0.000273463811069   0.00483773984704    
8500000000.0        0.000274692026749   0.00489545420205    0.999710967563      -0.00921014797006   0.999710967563      -0.00921014797006   0.000274692026749   0.00489545420205    
8600000000.0        0.00027593293871    0.00495317315224    0.99970945801       -0.00931878587786   0.99970945801       -0.00931878587786   0.00027593293871    0.00495317315224    
8700000000.0        0.000277186560254   0.00501089676473    0.999707933132      -0.00942743250015   0.999707933132      -0.00942743250015   0.000277186560254   0.00501089676473    
8800000000.0        0.000278452904303   0.00506862510684    0.999706392915      -0.00953608790466   0.999706392915      -0.00953608790466   0.000278452904303   0.00506862510684    
8900000000.0        0.00027973198341    0.00512635824628    0.999704837345      -0.00964475215888   0.999704837345      -0.00964475215888   0.000279731983409   0.00512635824628    
9000000000.0        0.000281023809787   0.005184096251      0.999703266409      -0.00975342533029   0.999703266409      -0.00975342533029   0.000281023809787   0.005184096251      
9100000000.0        0.000282328395323   0.00524183918921    0.999701680096      -0.00986210748626   0.999701680096      -0.00986210748626   0.000282328395323   0.00524183918921    
9200000000.0        0.000283645751593   0.00529958712948    0.999700078393      -0.00997079869404   0.999700078393      -0.00997079869404   0.000283645751593   0.00529958712948    
9300000000.0        0.000284975889883   0.00535734014065    0.999698461288      -0.0100794990208    0.999698461288      -0.0100794990208    0.000284975889883   0.00535734014065    
9400000000.0        0.0002863188212     0.00541509829182    0.999696828769      -0.0101882085336    0.999696828769      -0.0101882085336    0.0002863188212     0.00541509829182    
9500000000.0        0.000287674556288   0.00547286165237    0.999695180825      -0.0102969272994    0.999695180825      -0.0102969272994    0.000287674556288   0.00547286165237    
9600000000.0        0.000289043105643   0.00553063029194    0.999693517445      -0.0104056553853    0.999693517445      -0.0104056553853    0.000289043105643   0.00553063029194    
9700000000.0        0.000290424479526   0.00558840428054    0.999691838619      -0.0105143928579    0.999691838619      -0.0105143928579    0.000290424479526   0.00558840428054    
9800000000.0        0.00029181868797    0.00564618368839    0.999690144335      -0.0106231397842    0.999690144335      -0.0106231397842    0.00029181868797    0.00564618368839    
9900000000.0        0.000293225740803   0.00570396858594    0.999688434583      -0.0107318962307    0.999688434583      -0.0107318962307    0.000293225740803   0.00570396858594    
10000000000.0       0.000294645647647   0.00576175904401    0.999686709352      -0.0108406622642    0.999686709352      -0.0108406622642    0.000294645647647   0.00576175904401    
