# Hz S RI R 50.00 
100000000.0         0.000269073175288   -0.00428368720297   0.999663603137      -0.00630905448123   0.999663603137      -0.00630905448123   0.000269073175288   -0.00428368720297   
200000000.0         0.00018492515945    -0.00856669522275   0.999569212519      -0.0126174980025    0.999569212519      -0.0126174980025    0.00018492515945    -0.00856669522275   
300000000.0         4.62119590825e-05   -0.0128483124298    0.999417197523      -0.0189246734051    0.999417197523      -0.0189246734051    4.62119590825e-05   -0.0128483124298    
400000000.0         -0.000146780983451  -0.0171277973549    0.99920732155       -0.0252298806739    0.99920732155       -0.0252298806739    -0.000146780983452  -0.0171277973549    
500000000.0         -0.000393915797078  -0.0214043928494    0.998939520948      -0.0315323987559    0.998939520948      -0.0315323987559    -0.000393915797078  -0.0214043928494    
600000000.0         -0.000695090339165  -0.0256773316179    0.998613794319      -0.0378314931838    0.998613794319      -0.0378314931838    -0.000695090339165  -0.0256773316179    
700000000.0         -0.00105020955905   -0.0299458392734    0.998230174682      -0.0441264201137    0.998230174682      -0.0441264201137    -0.00105020955905   -0.0299458392734    
800000000.0         -0.00145917491523   -0.0342091363372    0.997788719478      -0.0504164288851    0.997788719478      -0.0504164288851    -0.00145917491523   -0.0342091363372    
900000000.0         -0.00192187957875   -0.0384664396958    0.997289506222      -0.0567007638362    0.997289506222      -0.0567007638362    -0.00192187957875   -0.0384664396958    
1000000000.0        -0.00243820594797   -0.0427169637457    0.996732630363      -0.0629786656942    0.996732630363      -0.0629786656942    -0.00243820594797   -0.0427169637457    
1100000000.0        -0.00300802423458   -0.0469599213416    0.996118204131      -0.0692493727018    0.996118204131      -0.0692493727018    -0.00300802423458   -0.0469599213416    
1200000000.0        -0.00363119160387   -0.051194524615     0.995446355875      -0.0755121215704    0.995446355875      -0.0755121215704    -0.00363119160387   -0.051194524615     
1300000000.0        -0.00430755162822   -0.0554199857023    0.994717229648      -0.0817661483118    0.994717229648      -0.0817661483118    -0.00430755162822   -0.0554199857023    
1400000000.0        -0.0050369339313    -0.0596355174064    0.993930984941      -0.088010688984     0.993930984941      -0.088010688984     -0.0050369339313    -0.0596355174064    
1500000000.0        -0.005819153956     -0.0638403338099    0.993087796484      -0.0942449803709    0.993087796484      -0.0942449803709    -0.005819153956     -0.0638403338099    
1600000000.0        -0.00665401281747   -0.0680336508487    0.992187854102      -0.100468260613     0.992187854102      -0.100468260613     -0.00665401281747   -0.0680336508487    
1700000000.0        -0.00754129721803   -0.0722146868558    0.991231362579      -0.106679769798     0.991231362579      -0.106679769798     -0.00754129721803   -0.0722146868558    
1800000000.0        -0.00848077940892   -0.0763826630802    0.990218541545      -0.112878750519     0.990218541545      -0.112878750519     -0.00848077940892   -0.0763826630802    
1900000000.0        -0.00947221718936   -0.0805368041837    0.989149625355      -0.119064448408     0.989149625355      -0.119064448408     -0.00947221718936   -0.0805368041837    
2000000000.0        -0.0105153539363    -0.0846763387207    0.988024862975      -0.12523611264      0.988024862975      -0.12523611264      -0.0105153539363    -0.0846763387207    
2100000000.0        -0.0116099186598    -0.0888004996011    0.986844517854      -0.13139299643      0.986844517854      -0.13139299643      -0.0116099186598    -0.0888004996011    
2200000000.0        -0.012755626082     -0.0929085245388    0.985608867795      -0.137534357499     0.985608867795      -0.137534357499     -0.012755626082     -0.0929085245388    
2300000000.0        -0.0139521767347    -0.0969996564874    0.98431820481       -0.143659458529     0.98431820481       -0.143659458529     -0.0139521767347    -0.0969996564874    
2400000000.0        -0.015199257077     -0.101073144063     0.982972834974      -0.149767567611     0.982972834974      -0.149767567611     -0.015199257077     -0.101073144063     
2500000000.0        -0.0164965396281    -0.105128241956     0.98157307826       -0.155857958665     0.98157307826       -0.155857958665     -0.0164965396281    -0.105128241956     
2600000000.0        -0.0178436831164    -0.109164211329     0.980119268371      -0.161929911859     0.980119268371      -0.161929911859     -0.0178436831164    -0.109164211329     
2700000000.0        -0.0192403326431    -0.11318032021      0.978611752555      -0.167982714009     0.978611752555      -0.167982714009     -0.0192403326431    -0.11318032021      
2800000000.0        -0.0206861198588    -0.117175843865     0.977050891417      -0.174015658974     0.977050891417      -0.174015658974     -0.0206861198588    -0.117175843865     
2900000000.0        -0.0221806631537    -0.12115006517      0.975437058712      -0.180028048027     0.975437058712      -0.180028048027     -0.0221806631537    -0.12115006517      
3000000000.0        -0.0237235678595    -0.125102274965     0.973770641137      -0.186019190229     0.973770641137      -0.186019190229     -0.0237235678595    -0.125102274965     
3100000000.0        -0.0253144264623    -0.129031772404     0.972052038105      -0.191988402782     0.972052038105      -0.191988402782     -0.0253144264623    -0.129031772404     
3200000000.0        -0.0269528188278    -0.132937865286     0.970281661514      -0.197935011372     0.970281661514      -0.197935011372     -0.0269528188278    -0.132937865286     
3300000000.0        -0.0286383124353    -0.136819870386     0.968459935507      -0.203858350508     0.968459935507      -0.203858350508     -0.0286383124353    -0.136819870386     
3400000000.0        -0.0303704626224    -0.140677113764     0.96658729622       -0.209757763836     0.96658729622       -0.209757763836     -0.0303704626224    -0.140677113764     
3500000000.0        -0.0321488128392    -0.144508931075     0.964664191526      -0.215632604456     0.964664191526      -0.215632604456     -0.0321488128392    -0.144508931075     
3600000000.0        -0.0339728949105    -0.148314667856     0.962691080764      -0.221482235222     0.962691080764      -0.221482235222     -0.0339728949105    -0.148314667856     
3700000000.0        -0.0358422293071    -0.152093679816     0.960668434469      -0.227306029025     0.960668434469      -0.227306029025     -0.0358422293071    -0.152093679816     
3800000000.0        -0.0377563254246    -0.155845333101     0.958596734086      -0.233103369076     0.958596734086      -0.233103369076     -0.0377563254246    -0.155845333101     
3900000000.0        -0.0397146818696    -0.159569004557     0.956476471683      -0.238873649168     0.956476471683      -0.238873649168     -0.0397146818696    -0.159569004557     
4000000000.0        -0.041716786753     -0.16326408198      0.954308149653      -0.244616273934     0.954308149653      -0.244616273934     -0.041716786753     -0.16326408198      
4100000000.0        -0.0437621179899    -0.166929964356     0.952092280416      -0.250330659086     0.952092280416      -0.250330659086     -0.0437621179899    -0.166929964356     
4200000000.0        -0.045850143605     -0.170566062085     0.949829386107      -0.256016231647     0.949829386107      -0.256016231647     -0.045850143605     -0.170566062085     
4300000000.0        -0.0479803220438    -0.174171797197     0.947519998265      -0.261672430175     0.947519998265      -0.261672430175     -0.0479803220438    -0.174171797197     
4400000000.0        -0.0501521024898    -0.177746603559     0.945164657514      -0.267298704967     0.945164657514      -0.267298704967     -0.0501521024898    -0.177746603559     
4500000000.0        -0.0523649251847    -0.181289927069     0.94276391324       -0.272894518257     0.94276391324       -0.272894518257     -0.0523649251847    -0.181289927069     
4600000000.0        -0.0546182217546    -0.184801225834     0.940318323265      -0.278459344403     0.940318323265      -0.278459344403     -0.0546182217546    -0.184801225834     
4700000000.0        -0.0569114155385    -0.188279970344     0.937828453516      -0.283992670057     0.937828453516      -0.283992670057     -0.0569114155385    -0.188279970344     
4800000000.0        -0.0592439219217    -0.191725643627     0.935294877691      -0.289493994331     0.935294877691      -0.289493994331     -0.0592439219217    -0.191725643627     
4900000000.0        -0.0616151486707    -0.195137741404     0.932718176922      -0.294962828946     0.932718176922      -0.294962828946     -0.0616151486707    -0.195137741404     
5000000000.0        -0.0640244962719    -0.198515772217     0.930098939435      -0.30039869837      0.930098939435      -0.30039869837      -0.0640244962719    -0.198515772217     
5100000000.0        -0.0664713582712    -0.201859257562     0.927437760211      -0.305801139948     0.927437760211      -0.305801139948     -0.0664713582712    -0.201859257562     
5200000000.0        -0.068955121617     -0.205167731996     0.924735240639      -0.311169704016     0.924735240639      -0.311169704016     -0.068955121617     -0.205167731996     
5300000000.0        -0.0714751670024    -0.208440743243     0.921991988177      -0.316503954004     0.921991988177      -0.316503954004     -0.0714751670024    -0.208440743243     
5400000000.0        -0.0740308692104    -0.211677852286     0.919208616001      -0.321803466537     0.919208616001      -0.321803466537     -0.0740308692104    -0.211677852286     
5500000000.0        -0.0766215974582    -0.214878633446     0.916385742662      -0.327067831507     0.916385742662      -0.327067831507     -0.0766215974582    -0.214878633446     
5600000000.0        -0.0792467157423    -0.218042674452     0.913523991741      -0.332296652155     0.913523991741      -0.332296652155     -0.0792467157423    -0.218042674452     
5700000000.0        -0.0819055831829    -0.221169576499     0.910623991501      -0.337489545122     0.910623991501      -0.337489545122     -0.0819055831829    -0.221169576499     
5800000000.0        -0.0845975543687    -0.224258954298     0.907686374544      -0.342646140505     0.907686374544      -0.342646140505     -0.0845975543687    -0.224258954298     
5900000000.0        -0.0873219796996    -0.22731043611      0.904711777466      -0.347766081892     0.904711777466      -0.347766081892     -0.0873219796996    -0.22731043611      
6000000000.0        -0.0900782057285    -0.230323663774     0.901700840512      -0.352849026392     0.901700840512      -0.352849026392     -0.0900782057285    -0.230323663774     
6100000000.0        -0.0928655755019    -0.233298292725     0.898654207239      -0.357894644654     0.898654207239      -0.357894644654     -0.0928655755019    -0.233298292725     
6200000000.0        -0.0956834288981    -0.236233992        0.895572524174      -0.36290262087      0.895572524174      -0.36290262087      -0.0956834288981    -0.236233992        
6300000000.0        -0.0985311029629    -0.239130444232     0.892456440478      -0.367872652779     0.892456440478      -0.367872652779     -0.0985311029629    -0.239130444232     
6400000000.0        -0.101407932244     -0.241987345639     0.88930660761       -0.372804451649     0.88930660761       -0.372804451649     -0.101407932244     -0.241987345639     
6500000000.0        -0.104313249118     -0.244804406        0.886123678999      -0.377697742261     0.886123678999      -0.377697742261     -0.104313249118     -0.244804406        
6600000000.0        -0.107246384125     -0.247581348624     0.882908309712      -0.382552262869     0.882908309712      -0.382552262869     -0.107246384125     -0.247581348624     
6700000000.0        -0.110206666284     -0.250317910304     0.879661156132      -0.387367765169     0.879661156132      -0.387367765169     -0.110206666284     -0.250317910304     
6800000000.0        -0.113193423417     -0.253013841272     0.876382875634      -0.392144014242     0.876382875634      -0.392144014242     -0.113193423417     -0.253013841272     
6900000000.0        -0.116205982467     -0.255668905138     0.873074126273      -0.3968807885       0.873074126273      -0.3968807885       -0.116205982467     -0.255668905138     
7000000000.0        -0.119243669805     -0.258282878818     0.869735566466      -0.401577879615     0.869735566466      -0.401577879615     -0.119243669805     -0.258282878818     
7100000000.0        -0.122305811542     -0.260855552463     0.866367854684      -0.406235092446     0.866367854684      -0.406235092446     -0.122305811542     -0.260855552463     
7200000000.0        -0.125391733829     -0.263386729374     0.862971649155      -0.410852244957     0.862971649155      -0.410852244957     -0.125391733829     -0.263386729374     
7300000000.0        -0.128500763153     -0.265876225905     0.859547607556      -0.415429168119     0.859547607556      -0.415429168119     -0.128500763153     -0.265876225905     
7400000000.0        -0.131632226635     -0.268323871371     0.856096386725      -0.419965705819     0.856096386725      -0.419965705819     -0.131632226635     -0.268323871371     
7500000000.0        -0.134785452313     -0.270729507935     0.852618642373      -0.424461714748     0.852618642373      -0.424461714748     -0.134785452313     -0.270729507935     
7600000000.0        -0.137959769422     -0.273092990494     0.849115028799      -0.428917064289     0.849115028799      -0.428917064289     -0.137959769422     -0.273092990494     
7700000000.0        -0.141154508677     -0.275414186564     0.845586198614      -0.433331636397     0.845586198614      -0.433331636397     -0.141154508677     -0.275414186564     
7800000000.0        -0.144369002535     -0.277692976146     0.842032802467      -0.437705325472     0.842032802467      -0.437705325472     -0.144369002535     -0.277692976146     
7900000000.0        -0.147602585467     -0.279929251595     0.838455488785      -0.442038038223     0.838455488785      -0.442038038223     -0.147602585467     -0.279929251595     
8000000000.0        -0.15085459421      -0.282122917482     0.83485490351       -0.446329693533     0.83485490351       -0.446329693533     -0.15085459421      -0.282122917482     
8100000000.0        -0.154124368023     -0.284273890444     0.831231689844      -0.450580222311     0.831231689844      -0.450580222311     -0.154124368023     -0.284273890444     
8200000000.0        -0.157411248929     -0.286382099039     0.827586488008      -0.45478956734      0.827586488008      -0.45478956734      -0.157411248929     -0.286382099039     
8300000000.0        -0.160714581959     -0.288447483584     0.823919934997      -0.458957683124     0.823919934997      -0.458957683124     -0.160714581959     -0.288447483584     
8400000000.0        -0.164033715381     -0.290469995997     0.820232664347      -0.463084535725     0.820232664347      -0.463084535725     -0.164033715381     -0.290469995997     
8500000000.0        -0.167368000928     -0.292449599633     0.816525305909      -0.467170102598     0.816525305909      -0.467170102598     -0.167368000928     -0.292449599633     
8600000000.0        -0.170716794015     -0.294386269107     0.812798485627      -0.471214372422     0.812798485627      -0.471214372422     -0.170716794015     -0.294386269107     
8700000000.0        -0.174079453955     -0.296279990128     0.809052825324      -0.475217344921     0.809052825324      -0.475217344921     -0.174079453955     -0.296279990128     
8800000000.0        -0.177455344163     -0.298130759314     0.805288942496      -0.47917903069      0.805288942496      -0.47917903069      -0.177455344163     -0.298130759314     
8900000000.0        -0.180843832356     -0.299938584014     0.801507450111      -0.483099451014     0.801507450111      -0.483099451014     -0.180843832356     -0.299938584014     
9000000000.0        -0.184244290745     -0.301703482122     0.797708956414      -0.486978637676     0.797708956414      -0.486978637676     -0.184244290745     -0.301703482122     
9100000000.0        -0.18765609622      -0.303425481884     0.793894064744      -0.490816632775     0.793894064744      -0.490816632775     -0.18765609622      -0.303425481884     
9200000000.0        -0.191078630531     -0.305104621715     0.79006337335       -0.494613488532     0.79006337335       -0.494613488532     -0.191078630531     -0.305104621715     
9300000000.0        -0.194511280456     -0.306740949996     0.786217475219      -0.498369267095     0.786217475219      -0.498369267095     -0.194511280456     -0.306740949996     
9400000000.0        -0.197953437969     -0.308334524886     0.782356957911      -0.502084040342     0.782356957911      -0.502084040342     -0.197953437969     -0.308334524886     
9500000000.0        -0.201404500396     -0.309885414116     0.778482403398      -0.505757889684     0.778482403398      -0.505757889684     -0.201404500396     -0.309885414116     
9600000000.0        -0.20486387057      -0.311393694791     0.774594387914      -0.509390905864     0.774594387914      -0.509390905864     -0.20486387057      -0.311393694791     
9700000000.0        -0.20833095697      -0.312859453193     0.770693481805      -0.512983188751     0.770693481805      -0.512983188751     -0.20833095697      -0.312859453193     
9800000000.0        -0.211805173863     -0.314282784566     0.766780249394      -0.516534847141     0.766780249394      -0.516534847141     -0.211805173863     -0.314282784566     
9900000000.0        -0.215285941433     -0.315663792924     0.762855248845      -0.520045998548     0.762855248845      -0.520045998548     -0.215285941433     -0.315663792924     
10000000000.0       -0.218772685908     -0.317002590835     0.758919032042      -0.523516768998     0.758919032042      -0.523516768998     -0.218772685908     -0.317002590835     
