# Hz S RI R 50.00 
100000000.0         0.00251562297561    0.000176893250296   0.997483302399      -0.000253244183501  0.997483302399      -0.000253244183501  0.00251562297561    0.000176893250296   
200000000.0         0.00253227074873    0.00035377267232    0.997466574165      -0.000506475092351  0.997466574165      -0.000506475092351  0.00253227074873    0.00035377267232    
300000000.0         0.00254451441038    0.000530644287581   0.997454244207      -0.000759699039402  0.997454244207      -0.000759699039402  0.00254451441038    0.000530644287581   
400000000.0         0.00255454574791    0.000707510283235   0.997444120736      -0.00101291843749   0.997444120736      -0.00101291843749   0.00255454574791    0.000707510283235   
500000000.0         0.00256321108641    0.000884371941653   0.997435357428      -0.00126613476182   0.997435357428      -0.00126613476182   0.00256321108641    0.000884371941653   
600000000.0         0.00257094314966    0.00106123014021    0.997427521557      -0.00151934906112   0.997427521557      -0.00151934906112   0.00257094314966    0.00106123014021    
700000000.0         0.00257799820849    0.0012380855321     0.997420356853      -0.00177256214432   0.997420356853      -0.00177256214432   0.00257799820849    0.0012380855321     
800000000.0         0.00258454272025    0.00141493863074    0.997413696857      -0.00202577466854   0.997413696857      -0.00202577466854   0.00258454272025    0.00141493863074    
900000000.0         0.00259069194265    0.00159178985559    0.997407426311      -0.00227898718691   0.997407426311      -0.00227898718691   0.00259069194265    0.00159178985559    
1000000000.0        0.00259652952592    0.00176863955905    0.997401461564      -0.00253220017769   0.997401461564      -0.00253220017769   0.00259652952592    0.00176863955905    
1100000000.0        0.00260211841341    0.00194548804415    0.997395739672      -0.00278541406245   0.997395739672      -0.00278541406245   0.00260211841341    0.00194548804415    
1200000000.0        0.00260750734391    0.00212233557617    0.997390211896      -0.00303862921885   0.997390211896      -0.00303862921885   0.00260750734391    0.00212233557617    
1300000000.0        0.00261273494624    0.00229918239068    0.997384839605      -0.00329184598971   0.997384839605      -0.00329184598971   0.00261273494624    0.00229918239068    
1400000000.0        0.00261783243289    0.00247602869976    0.997379591587      -0.00354506468925   0.997379591587      -0.00354506468925   0.00261783243289    0.00247602869976    
1500000000.0        0.00262282543775    0.00265287469628    0.997374442207      -0.00379828560824   0.997374442207      -0.00379828560824   0.00262282543775    0.00265287469628    
1600000000.0        0.00262773530767    0.00282972055729    0.997369370117      -0.00405150901775   0.997369370117      -0.00405150901775   0.00262773530767    0.00282972055729    
1700000000.0        0.00263258003432    0.00300656644683    0.997364357325      -0.00430473517197   0.997364357325      -0.00430473517197   0.00263258003432    0.00300656644683    
1800000000.0        0.00263737494122    0.0031834125178     0.997359388506      -0.0045579643108    0.997359388506      -0.0045579643108    0.00263737494123    0.0031834125178     
1900000000.0        0.0026421332006     0.00336025891392    0.997354450487      -0.00481119666153   0.997354450487      -0.00481119666153   0.0026421332006     0.00336025891392    
2000000000.0        0.00264686622846    0.00353710577072    0.997349531852      -0.00506443244076   0.997349531852      -0.00506443244076   0.00264686622846    0.00353710577072    
2100000000.0        0.00265158399131    0.00371395321709    0.997344622633      -0.00531767185533   0.997344622633      -0.00531767185533   0.00265158399131    0.00371395321709    
2200000000.0        0.00265629524768    0.0038908013759     0.99733971407       -0.00557091510372   0.99733971407       -0.00557091510372   0.00265629524768    0.0038908013759     
2300000000.0        0.00266100774028    0.00406765036496    0.99733479842       -0.00582416237682   0.99733479842       -0.00582416237682   0.00266100774028    0.00406765036496    
2400000000.0        0.00266572835083    0.00424450029763    0.997329868801      -0.00607741385877   0.997329868801      -0.00607741385877   0.00266572835083    0.00424450029763    
2500000000.0        0.00267046322596    0.00442135128335    0.997324919063      -0.0063306697277    0.997324919063      -0.0063306697277    0.00267046322596    0.00442135128335    
2600000000.0        0.00267521788041    0.00459820342823    0.997319943693      -0.00658393015623   0.997319943693      -0.00658393015623   0.00267521788041    0.00459820342823    
2700000000.0        0.00267999728255    0.00477505683536    0.99731493772       -0.00683719531205   0.99731493772       -0.00683719531205   0.00267999728255    0.00477505683536    
2800000000.0        0.00268480592558    0.00495191160526    0.99730989665       -0.00709046535837   0.99730989665       -0.00709046535837   0.00268480592558    0.00495191160526    
2900000000.0        0.00268964788728    0.00512876783618    0.997304816405      -0.00734374045426   0.997304816405      -0.00734374045426   0.00268964788728    0.00512876783618    
3000000000.0        0.0026945268806     0.00530562562432    0.99729969327       -0.0075970207551    0.99729969327       -0.0075970207551    0.0026945268806     0.00530562562432    
3100000000.0        0.00269944629655    0.00548248506417    0.997294523853      -0.00785030641282   0.997294523853      -0.00785030641282   0.00269944629655    0.00548248506417    
3200000000.0        0.00270440924089    0.00565934624863    0.997289305048      -0.00810359757624   0.997289305048      -0.00810359757624   0.0027044092409     0.00565934624863    
3300000000.0        0.00270941856573    0.00583620926934    0.997284034001      -0.00835689439121   0.997284034001      -0.00835689439121   0.00270941856573    0.00583620926934    
3400000000.0        0.00271447689667    0.00601307421669    0.997278708086      -0.00861019700097   0.997278708086      -0.00861019700097   0.00271447689667    0.00601307421669    
3500000000.0        0.00271958665652    0.00618994118009    0.997273324879      -0.00886350554629   0.997273324879      -0.00886350554629   0.00271958665652    0.00618994118009    
3600000000.0        0.00272475008577    0.00636681024806    0.997267882138      -0.00911682016566   0.997267882138      -0.00911682016566   0.00272475008577    0.00636681024806    
3700000000.0        0.00272996926065    0.00654368150837    0.997262377785      -0.00937014099546   0.997262377785      -0.00937014099546   0.00272996926065    0.00654368150837    
3800000000.0        0.00273524610891    0.00672055504811    0.997256809893      -0.00962346817012   0.997256809893      -0.00962346817012   0.00273524610891    0.00672055504811    
3900000000.0        0.0027405824237     0.00689743095392    0.997251176666      -0.00987680182219   0.997251176666      -0.00987680182219   0.0027405824237     0.00689743095392    
4000000000.0        0.00274597987595    0.00707430931187    0.997245476432      -0.0101301420826    0.997245476432      -0.0101301420826    0.00274597987595    0.00707430931187    
4100000000.0        0.00275144002519    0.00725119020773    0.997239707632      -0.0103834890808    0.997239707632      -0.0103834890808    0.00275144002519    0.00725119020773    
4200000000.0        0.00275696432934    0.00742807372699    0.997233868805      -0.0106368429444    0.997233868805      -0.0106368429444    0.00275696432934    0.00742807372699    
4300000000.0        0.00276255415333    0.00760495995484    0.997227958586      -0.0108902038002    0.997227958586      -0.0108902038002    0.00276255415333    0.00760495995484    
4400000000.0        0.00276821077684    0.00778184897638    0.997221975694      -0.0111435717732    0.997221975694      -0.0111435717732    0.00276821077684    0.00778184897638    
4500000000.0        0.00277393540128    0.00795874087655    0.997215918925      -0.0113969469875    0.997215918925      -0.0113969469875    0.00277393540128    0.00795874087655    
4600000000.0        0.00277972915602    0.00813563574027    0.997209787151      -0.0116503295661    0.997209787151      -0.0116503295661    0.00277972915602    0.00813563574027    
4700000000.0        0.00278559310404    0.00831253365243    0.997203579306      -0.0119037196308    0.997203579306      -0.0119037196308    0.00278559310404    0.00831253365243    
4800000000.0        0.00279152824698    0.00848943469797    0.997197294387      -0.0121571173025    0.997197294387      -0.0121571173025    0.00279152824698    0.00848943469797    
4900000000.0        0.00279753552982    0.00866633896189    0.997190931449      -0.0124105227012    0.997190931449      -0.0124105227012    0.00279753552982    0.00866633896189    
5000000000.0        0.00280361584499    0.00884324652931    0.997184489597      -0.0126639359461    0.997184489597      -0.0126639359461    0.00280361584499    0.00884324652931    
5100000000.0        0.0028097700362     0.00902015748548    0.997177967988      -0.0129173571555    0.997177967988      -0.0129173571555    0.0028097700362     0.00902015748548    
5200000000.0        0.00281599890192    0.00919707191586    0.99717136582       -0.013170786447     0.99717136582       -0.013170786447     0.00281599890192    0.00919707191586    
5300000000.0        0.00282230319848    0.00937398990609    0.997164682337      -0.0134242239374    0.997164682337      -0.0134242239374    0.00282230319848    0.00937398990609    
5400000000.0        0.00282868364305    0.00955091154203    0.99715791682       -0.0136776697431    0.99715791682       -0.0136776697431    0.00282868364305    0.00955091154203    
5500000000.0        0.00283514091618    0.00972783690983    0.997151068587      -0.0139311239796    0.997151068587      -0.0139311239796    0.00283514091618    0.00972783690983    
5600000000.0        0.00284167566431    0.00990476609589    0.997144136991      -0.014184586762     0.997144136991      -0.014184586762     0.00284167566431    0.00990476609589    
5700000000.0        0.00284828850196    0.0100816991869     0.997137121416      -0.0144380582048    0.997137121416      -0.0144380582048    0.00284828850196    0.0100816991869     
5800000000.0        0.00285498001376    0.0102586362699     0.997130021275      -0.0146915384219    0.997130021275      -0.0146915384219    0.00285498001376    0.0102586362699     
5900000000.0        0.00286175075637    0.0104355774322     0.997122836012      -0.014945027527     0.997122836012      -0.014945027527     0.00286175075637    0.0104355774322     
6000000000.0        0.00286860126024    0.0106125227616     0.997115565094      -0.0151985256332    0.997115565094      -0.0151985256332    0.00286860126024    0.0106125227616     
6100000000.0        0.00287553203116    0.0107894723461     0.997108208014      -0.015452032853     0.997108208014      -0.015452032853     0.00287553203116    0.0107894723461     
6200000000.0        0.00288254355177    0.0109664262742     0.997100764288      -0.0157055492988    0.997100764288      -0.0157055492988    0.00288254355177    0.0109664262742     
6300000000.0        0.002889636283      0.0111433846346     0.997093233455      -0.0159590750825    0.997093233455      -0.0159590750825    0.002889636283      0.0111433846346     
6400000000.0        0.00289681066524    0.0113203475168     0.997085615071      -0.0162126103158    0.997085615071      -0.0162126103158    0.00289681066524    0.0113203475168     
6500000000.0        0.00290406711963    0.0114973150102     0.997077908716      -0.0164661551098    0.997077908716      -0.0164661551098    0.00290406711963    0.0114973150102     
6600000000.0        0.00291140604909    0.0116742872051     0.997070113985      -0.0167197095755    0.997070113985      -0.0167197095755    0.00291140604909    0.0116742872051     
6700000000.0        0.00291882783939    0.0118512641919     0.99706223049       -0.0169732738238    0.99706223049       -0.0169732738238    0.00291882783939    0.0118512641919     
6800000000.0        0.00292633286008    0.0120282460615     0.997054257861      -0.017226847965     0.997054257861      -0.017226847965     0.00292633286008    0.0120282460615     
6900000000.0        0.00293392146542    0.0122052329055     0.997046195742      -0.0174804321094    0.997046195742      -0.0174804321094    0.00293392146542    0.0122052329055     
7000000000.0        0.00294159399516    0.0123822248156     0.997038043793      -0.017734026367     0.997038043793      -0.017734026367     0.00294159399516    0.0123822248156     
7100000000.0        0.00294935077535    0.0125592218842     0.997029801686      -0.0179876308476    0.997029801686      -0.0179876308476    0.00294935077535    0.0125592218842     
7200000000.0        0.00295719211908    0.0127362242041     0.997021469106      -0.0182412456609    0.997021469106      -0.0182412456609    0.00295719211908    0.0127362242041     
7300000000.0        0.00296511832713    0.0129132318685     0.997013045751      -0.0184948709162    0.997013045751      -0.0184948709162    0.00296511832713    0.0129132318685     
7400000000.0        0.00297312968863    0.0130902449713     0.997004531332      -0.018748506723     0.997004531332      -0.018748506723     0.00297312968863    0.0130902449713     
7500000000.0        0.00298122648165    0.0132672636067     0.996995925568      -0.0190021531903    0.996995925568      -0.0190021531903    0.00298122648165    0.0132672636067     
7600000000.0        0.00298940897377    0.0134442878693     0.99698722819       -0.0192558104272    0.99698722819       -0.0192558104272    0.00298940897377    0.0134442878693     
7700000000.0        0.00299767742259    0.0136213178545     0.996978438941      -0.0195094785427    0.996978438941      -0.0195094785427    0.00299767742259    0.0136213178545     
7800000000.0        0.00300603207625    0.0137983536579     0.99696955757       -0.0197631576454    0.99696955757       -0.0197631576454    0.00300603207625    0.0137983536579     
7900000000.0        0.00301447317388    0.0139753953757     0.996960583837      -0.0200168478442    0.996960583837      -0.0200168478442    0.00301447317388    0.0139753953757     
8000000000.0        0.00302300094604    0.0141524431048     0.99695151751       -0.0202705492477    0.99695151751       -0.0202705492477    0.00302300094604    0.0141524431048     
8100000000.0        0.00303161561515    0.0143294969422     0.996942358365      -0.0205242619643    0.996942358365      -0.0205242619643    0.00303161561515    0.0143294969422     
8200000000.0        0.00304031739587    0.0145065569858     0.996933106187      -0.0207779861027    0.996933106187      -0.0207779861027    0.00304031739587    0.0145065569858     
8300000000.0        0.00304910649546    0.0146836233338     0.996923760767      -0.0210317217713    0.996923760767      -0.0210317217713    0.00304910649546    0.0146836233338     
8400000000.0        0.00305798311414    0.0148606960848     0.996914321903      -0.0212854690783    0.996914321903      -0.0212854690783    0.00305798311414    0.0148606960848     
8500000000.0        0.00306694744543    0.0150377753383     0.9969047894        -0.0215392281323    0.9969047894        -0.0215392281323    0.00306694744543    0.0150377753383     
8600000000.0        0.00307599967642    0.015214861194      0.996895163071      -0.0217929990414    0.996895163071      -0.0217929990414    0.00307599967642    0.015214861194      
8700000000.0        0.00308513998812    0.0153919537522     0.996885442732      -0.022046781914     0.996885442732      -0.022046781914     0.00308513998812    0.0153919537522     
8800000000.0        0.0030943685557     0.0155690531136     0.996875628208      -0.0223005768584    0.996875628208      -0.0223005768584    0.0030943685557     0.0155690531136     
8900000000.0        0.00310368554874    0.0157461593797     0.996865719327      -0.0225543839828    0.996865719327      -0.0225543839828    0.00310368554874    0.0157461593797     
9000000000.0        0.00311309113154    0.0159232726522     0.996855715924      -0.0228082033954    0.996855715924      -0.0228082033954    0.00311309113154    0.0159232726522     
9100000000.0        0.00312258546332    0.0161003930335     0.996845617838      -0.0230620352046    0.996845617838      -0.0230620352046    0.00312258546332    0.0161003930335     
9200000000.0        0.00313216869841    0.0162775206265     0.996835424914      -0.0233158795187    0.996835424914      -0.0233158795187    0.00313216869841    0.0162775206265     
9300000000.0        0.00314184098654    0.0164546555346     0.996825137001      -0.0235697364458    0.996825137001      -0.0235697364458    0.00314184098654    0.0164546555346     
9400000000.0        0.00315160247298    0.0166317978617     0.996814753951      -0.0238236060943    0.996814753951      -0.0238236060943    0.00315160247298    0.0166317978617     
9500000000.0        0.00316145329877    0.0168089477123     0.996804275624      -0.0240774885725    0.996804275624      -0.0240774885725    0.00316145329877    0.0168089477123     
9600000000.0        0.00317139360089    0.0169861051912     0.99679370188       -0.0243313839889    0.99679370188       -0.0243313839889    0.00317139360089    0.0169861051912     
9700000000.0        0.00318142351242    0.017163270404      0.996783032586      -0.0245852924517    0.996783032586      -0.0245852924517    0.00318142351242    0.017163270404      
9800000000.0        0.00319154316274    0.0173404434567     0.99677226761       -0.0248392140694    0.99677226761       -0.0248392140694    0.00319154316274    0.0173404434567     
9900000000.0        0.00320175267767    0.0175176244557     0.996761406825      -0.0250931489504    0.996761406825      -0.0250931489504    0.00320175267767    0.0175176244557     
10000000000.0       0.00321205217959    0.0176948135081     0.996750450108      -0.0253470972034    0.996750450108      -0.0253470972034    0.00321205217959    0.0176948135081     
