# Hz S RI R 50.00 
100000000.0         0.00598963687666    0.00110969354555    0.994004852933      -0.00331957719187   0.994004852933      -0.00331957719187   0.00598963687666    0.00110969354555    
200000000.0         0.00603941971714    0.00221898508223    0.993945666313      -0.00663874753578   0.993945666313      -0.00663874753578   0.00603941971714    0.00221898508223    
300000000.0         0.00608610254325    0.00332796294729    0.993884685888      -0.00995759901368   0.993884685888      -0.00995759901368   0.00608610254325    0.00332796294729    
400000000.0         0.00613485706214    0.00443662321645    0.993816739694      -0.0132761262286    0.993816739694      -0.0132761262286    0.00613485706214    0.00443662321645    
500000000.0         0.00618767402234    0.00554494063355    0.993739836692      -0.0165943018921    0.993739836692      -0.0165943018921    0.00618767402234    0.00554494063355    
600000000.0         0.00624556752897    0.00665288055066    0.993652962449      -0.0199120889597    0.993652962449      -0.0199120889597    0.00624556752897    0.00665288055066    
700000000.0         0.00630913540304    0.00776040320587    0.993555518772      -0.0232294450077    0.993555518772      -0.0232294450077    0.00630913540304    0.00776040320587    
800000000.0         0.00637876369012    0.00886746570311    0.993447119208      -0.0265463242725    0.993447119208      -0.0265463242725    0.00637876369012    0.00886746570311    
900000000.0         0.00645471771437    0.00997402307357    0.993327497982      -0.029862678751     0.993327497982      -0.029862678751     0.00645471771437    0.00997402307357    
1000000000.0        0.00653718822965    0.0110800289035     0.993196463852      -0.0331784588552    0.993196463852      -0.0331784588552    0.00653718822965    0.0110800289035     
1100000000.0        0.00662631707274    0.0121854357326     0.993053874454      -0.0364936138309    0.993053874454      -0.0364936138309    0.00662631707274    0.0121854357326     
1200000000.0        0.00672221244831    0.0132901953211     0.992899621017      -0.0398080920397    0.992899621017      -0.0398080920397    0.00672221244831    0.0132901953211     
1300000000.0        0.00682495854471    0.0143942588365     0.992733618749      -0.0431218411577    0.992733618749      -0.0431218411577    0.00682495854471    0.0143942588365     
1400000000.0        0.00693462185398    0.0154975769888     0.992555800516      -0.0464348083203    0.992555800516      -0.0464348083203    0.00693462185398    0.0154975769888     
1500000000.0        0.00705125547798    0.0166001001313     0.992366112538      -0.0497469402305    0.992366112538      -0.0497469402305    0.00705125547798    0.0166001001313     
1600000000.0        0.00717490215265    0.0177017783378     0.992164511363      -0.0530581832429    0.992164511363      -0.0530581832429    0.00717490215265    0.0177017783378     
1700000000.0        0.00730559642726    0.0188025614632     0.991950961692      -0.0563684834289    0.991950961692      -0.0563684834289    0.00730559642726    0.0188025614632     
1800000000.0        0.00744336626997    0.0199023991911     0.991725434766      -0.0596777866299    0.991725434766      -0.0596777866299    0.00744336626997    0.0199023991911     
1900000000.0        0.00758823427398    0.0210012410735     0.991487907171      -0.0629860384996    0.991487907171      -0.0629860384996    0.00758823427398    0.0210012410735     
2000000000.0        0.00774021857908    0.0220990365624     0.991238359907      -0.06629318454      0.991238359907      -0.06629318454      0.00774021857908    0.0220990365624     
2100000000.0        0.00789933358643    0.0231957350368     0.990976777679      -0.069599170131     0.990976777679      -0.069599170131     0.00789933358643    0.0231957350368     
2200000000.0        0.00806559052063    0.0242912858256     0.990703148335      -0.0729039405555    0.990703148335      -0.0729039405555    0.00806559052063    0.0242912858256     
2300000000.0        0.008238997877      0.0253856382272     0.990417462415      -0.0762074410216    0.990417462415      -0.0762074410216    0.008238997877      0.0253856382272     
2400000000.0        0.00841956178144    0.0264787415261     0.990119712796      -0.0795096166812    0.990119712796      -0.0795096166812    0.00841956178144    0.0264787415261     
2500000000.0        0.00860728628299    0.0275705450079     0.989809894399      -0.0828104126466    0.989809894399      -0.0828104126466    0.00860728628299    0.0275705450079     
2600000000.0        0.00880217359365    0.0286609979727     0.989488003946      -0.0861097740052    0.989488003946      -0.0861097740052    0.00880217359365    0.0286609979727     
2700000000.0        0.00900422428685    0.0297500497462     0.989154039766      -0.0894076458329    0.989154039766      -0.0894076458329    0.00900422428685    0.0297500497462     
2800000000.0        0.00921343746285    0.0308376496908     0.988808001626      -0.0927039732054    0.988808001626      -0.0927039732054    0.00921343746285    0.0308376496908     
2900000000.0        0.00942981088757    0.0319237472152     0.988449890597      -0.0959987012097    0.988449890597      -0.0959987012097    0.00942981088757    0.0319237472152     
3000000000.0        0.00965334111       0.0330082917826     0.988079708931      -0.099291774953     0.988079708931      -0.099291774953     0.00965334111       0.0330082917826     
3100000000.0        0.00988402356203    0.0340912329195     0.987697459968      -0.102583139572     0.987697459968      -0.102583139572     0.00988402356203    0.0340912329195     
3200000000.0        0.0101218526438     0.0351725202227     0.987303148045      -0.105872740243     0.987303148045      -0.105872740243     0.0101218526438     0.0351725202227     
3300000000.0        0.0103668217974     0.0362521033664     0.986896778426      -0.109160522185     0.986896778426      -0.109160522185     0.0103668217974     0.0362521033664     
3400000000.0        0.0106189235702     0.0373299321088     0.986478357237      -0.112446430673     0.986478357237      -0.112446430673     0.0106189235702     0.0373299321088     
3500000000.0        0.01087814967       0.0384059562983     0.986047891411      -0.11573041104      0.986047891411      -0.11573041104      0.01087814967       0.0384059562983     
3600000000.0        0.0111444910139     0.0394801258793     0.985605388643      -0.119012408685     0.985605388643      -0.119012408685     0.0111444910139     0.0394801258793     
3700000000.0        0.0114179377698     0.0405523908976     0.985150857342      -0.122292369081     0.985150857342      -0.122292369081     0.0114179377698     0.0405523908976     
3800000000.0        0.0116984793945     0.0416227015059     0.984684306601      -0.125570237778     0.984684306601      -0.125570237778     0.0116984793945     0.0416227015059     
3900000000.0        0.0119861046661     0.0426910079687     0.984205746157      -0.128845960408     0.984205746157      -0.128845960408     0.0119861046661     0.0426910079687     
4000000000.0        0.0122808017137     0.0437572606673     0.983715186368      -0.132119482695     0.983715186368      -0.132119482695     0.0122808017137     0.0437572606673     
4100000000.0        0.0125825580435     0.0448214101045     0.983212638181      -0.135390750455     0.983212638181      -0.135390750455     0.0125825580435     0.0448214101045     
4200000000.0        0.0128913605623     0.045883406909      0.982698113114      -0.138659709603     0.982698113114      -0.138659709603     0.0128913605623     0.045883406909      
4300000000.0        0.0132071955984     0.0469432018396     0.982171623232      -0.141926306156     0.982171623232      -0.141926306156     0.0132071955984     0.0469432018396     
4400000000.0        0.0135300489209     0.0480007457902     0.981633181131      -0.145190486242     0.981633181131      -0.145190486242     0.0135300489209     0.0480007457902     
4500000000.0        0.0138599057566     0.0490559897929     0.981082799917      -0.148452196099     0.981082799917      -0.148452196099     0.0138599057566     0.0490559897929     
4600000000.0        0.0141967508061     0.0501088850228     0.980520493191      -0.151711382082     0.980520493191      -0.151711382082     0.0141967508061     0.0501088850228     
4700000000.0        0.0145405682574     0.0511593828016     0.97994627504       -0.154967990668     0.97994627504       -0.154967990668     0.0145405682574     0.0511593828016     
4800000000.0        0.0148913417998     0.0522074346015     0.979360160019      -0.158221968457     0.979360160019      -0.158221968457     0.0148913417998     0.0522074346015     
4900000000.0        0.0152490546353     0.053252992049      0.978762163138      -0.161473262178     0.978762163138      -0.161473262178     0.0152490546353     0.053252992049      
5000000000.0        0.0156136894899     0.0542960069283     0.978152299857      -0.164721818694     0.978152299857      -0.164721818694     0.0156136894899     0.0542960069283     
5100000000.0        0.0159852286236     0.0553364311854     0.977530586071      -0.167967585002     0.977530586071      -0.167967585002     0.0159852286236     0.0553364311854     
5200000000.0        0.0163636538403     0.0563742169309     0.976897038102      -0.171210508241     0.976897038102      -0.171210508241     0.0163636538403     0.0563742169309     
5300000000.0        0.0167489464962     0.0574093164442     0.97625167269       -0.174450535692     0.97625167269       -0.174450535692     0.0167489464962     0.0574093164442     
5400000000.0        0.0171410875082     0.0584416821765     0.975594506987      -0.177687614783     0.975594506987      -0.177687614783     0.0171410875082     0.0584416821765     
5500000000.0        0.0175400573619     0.0594712667542     0.974925558546      -0.180921693093     0.974925558546      -0.180921693093     0.0175400573619     0.0594712667542     
5600000000.0        0.0179458361183     0.0604980229821     0.974244845317      -0.184152718355     0.974244845317      -0.184152718355     0.0179458361183     0.0604980229821     
5700000000.0        0.0183584034208     0.061521903847      0.973552385636      -0.187380638458     0.973552385636      -0.187380638458     0.0183584034208     0.061521903847      
5800000000.0        0.0187777385021     0.0625428625202     0.972848198226      -0.190605401453     0.972848198226      -0.190605401453     0.0187777385021     0.0625428625202     
5900000000.0        0.0192038201898     0.0635608523613     0.972132302183      -0.193826955551     0.972132302183      -0.193826955551     0.0192038201898     0.0635608523613     
6000000000.0        0.0196366269122     0.0645758269212     0.971404716974      -0.197045249133     0.971404716974      -0.197045249133     0.0196366269122     0.0645758269212     
6100000000.0        0.0200761367044     0.0655877399446     0.970665462434      -0.200260230748     0.970665462434      -0.200260230748     0.0200761367044     0.0655877399446     
6200000000.0        0.0205223272128     0.0665965453738     0.969914558757      -0.203471849118     0.969914558757      -0.203471849118     0.0205223272128     0.0665965453738     
6300000000.0        0.0209751757009     0.0676021973508     0.96915202649       -0.206680053141     0.96915202649       -0.206680053141     0.0209751757009     0.0676021973508     
6400000000.0        0.0214346590537     0.068604650221      0.968377886533      -0.209884791893     0.968377886533      -0.209884791893     0.0214346590537     0.068604650221      
6500000000.0        0.0219007537826     0.0696038585356     0.967592160131      -0.213086014631     0.967592160131      -0.213086014631     0.0219007537826     0.0696038585356     
6600000000.0        0.0223734360299     0.0705997770547     0.966794868872      -0.216283670798     0.966794868872      -0.216283670798     0.0223734360299     0.0705997770547     
6700000000.0        0.0228526815732     0.0715923607498     0.965986034678      -0.219477710022     0.965986034678      -0.219477710022     0.0228526815732     0.0715923607498     
6800000000.0        0.0233384658295     0.0725815648069     0.965165679807      -0.222668082121     0.965165679807      -0.222668082121     0.0233384658295     0.0725815648069     
6900000000.0        0.0238307638597     0.073567344629      0.964333826844      -0.225854737107     0.964333826844      -0.225854737107     0.0238307638597     0.073567344629      
7000000000.0        0.024329550372      0.074549655839      0.963490498701      -0.229037625186     0.963490498701      -0.229037625186     0.024329550372      0.074549655839      
7100000000.0        0.0248347997265     0.075528454282      0.96263571861       -0.232216696761     0.96263571861       -0.232216696761     0.0248347997265     0.075528454282      
7200000000.0        0.0253464859387     0.0765036960284     0.96176951012       -0.235391902437     0.96176951012       -0.235391902437     0.0253464859387     0.0765036960284     
7300000000.0        0.0258645826831     0.0774753373761     0.960891897095      -0.238563193021     0.960891897095      -0.238563193021     0.0258645826831     0.0774753373761     
7400000000.0        0.0263890632973     0.0784433348532     0.960002903709      -0.241730519525     0.960002903709      -0.241730519525     0.0263890632973     0.0784433348532     
7500000000.0        0.0269199007853     0.0794076452205     0.959102554442      -0.24489383317      0.959102554442      -0.24489383317      0.0269199007853     0.0794076452205     
7600000000.0        0.0274570678209     0.0803682254741     0.958190874079      -0.248053085385     0.958190874079      -0.248053085385     0.0274570678209     0.0803682254741     
7700000000.0        0.0280005367518     0.0813250328476     0.957267887702      -0.251208227814     0.957267887702      -0.251208227814     0.0280005367518     0.0813250328476     
7800000000.0        0.0285502796024     0.0822780248149     0.956333620693      -0.254359212314     0.956333620693      -0.254359212314     0.0285502796024     0.0822780248149     
7900000000.0        0.0291062680775     0.083227159092      0.955388098726      -0.257505990961     0.955388098726      -0.257505990961     0.0291062680775     0.083227159092      
8000000000.0        0.0296684735657     0.08417239364       0.954431347762      -0.26064851605      0.954431347762      -0.26064851605      0.0296684735657     0.08417239364       
8100000000.0        0.0302368671427     0.0851136866671     0.953463394054      -0.263786740096     0.953463394054      -0.263786740096     0.0302368671427     0.0851136866671     
8200000000.0        0.0308114195744     0.0860509966307     0.952484264135      -0.266920615841     0.952484264135      -0.266920615841     0.0308114195744     0.0860509966307     
8300000000.0        0.0313921013205     0.0869842822401     0.951493984818      -0.27005009625      0.951493984818      -0.27005009625      0.0313921013205     0.0869842822401     
8400000000.0        0.0319788825373     0.0879135024585     0.950492583195      -0.27317513452      0.950492583195      -0.27317513452      0.0319788825373     0.0879135024585     
8500000000.0        0.0325717330814     0.0888386165049     0.949480086633      -0.276295684074     0.949480086633      -0.276295684074     0.0325717330814     0.0888386165049     
8600000000.0        0.0331706225125     0.0897595838569     0.948456522766      -0.27941169857      0.948456522766      -0.27941169857      0.0331706225125     0.0897595838569     
8700000000.0        0.0337755200967     0.0906763642522     0.947421919501      -0.282523131902     0.947421919501      -0.282523131902     0.0337755200967     0.0906763642522     
8800000000.0        0.0343863948098     0.091588917691      0.946376305005      -0.285629938196     0.946376305005      -0.285629938196     0.0343863948098     0.091588917691      
8900000000.0        0.0350032153401     0.0924972044383     0.94531970771       -0.28873207182      0.94531970771       -0.28873207182      0.0350032153401     0.0924972044383     
9000000000.0        0.0356259500919     0.0934011850252     0.944252156305      -0.291829487381     0.944252156305      -0.291829487381     0.0356259500919     0.0934011850252     
9100000000.0        0.0362545671884     0.0943008202516     0.943173679737      -0.294922139728     0.943173679737      -0.294922139728     0.0362545671884     0.0943008202516     
9200000000.0        0.0368890344746     0.0951960711881     0.942084307203      -0.298009983954     0.942084307203      -0.298009983954     0.0368890344746     0.0951960711881     
9300000000.0        0.0375293195208     0.0960868991773     0.940984068152      -0.3010929754       0.940984068152      -0.3010929754       0.0375293195208     0.0960868991773     
9400000000.0        0.0381753896255     0.0969732658364     0.939872992278      -0.30417106965      0.939872992278      -0.30417106965      0.0381753896255     0.0969732658364     
9500000000.0        0.0388272118183     0.097855133059      0.93875110952       -0.307244222543     0.93875110952       -0.307244222543     0.0388272118183     0.097855133059      
9600000000.0        0.0394847528633     0.0987324630164     0.937618450057      -0.310312390165     0.937618450057      -0.310312390165     0.0394847528633     0.0987324630164     
9700000000.0        0.0401479792619     0.09960521816       0.936475044306      -0.313375528855     0.936475044306      -0.313375528855     0.0401479792619     0.09960521816       
9800000000.0        0.0408168572557     0.100473361223      0.93532092292       -0.316433595209     0.93532092292       -0.316433595209     0.0408168572557     0.100473361223      
9900000000.0        0.0414913528301     0.101336855221      0.934156116782      -0.319486546077     0.934156116782      -0.319486546077     0.0414913528301     0.101336855221      
10000000000.0       0.0421714317167     0.102195663456      0.932980657005      -0.322534338568     0.932980657005      -0.322534338568     0.0421714317167     0.102195663456      
