# Hz S RI R 50.00 
100000000.0         0.00247388775754    0.000593466524944   0.997523273272      -0.00178378455532   0.997523273272      -0.00178378455532   0.00247388775754    0.000593466524944   
200000000.0         0.002492956212      0.00118684787157    0.997500947754      -0.0035674943541    0.997500947754      -0.0035674943541    0.002492956212      0.00118684787157    
300000000.0         0.00250978222762    0.00178016726642    0.997479446484      -0.00535115894197   0.997479446484      -0.00535115894197   0.00250978222762    0.00178016726642    
400000000.0         0.0025265106338     0.00237342752695    0.997456624515      -0.00713478581172   0.997456624515      -0.00713478581172   0.0025265106338     0.00237342752695    
500000000.0         0.0025439675585     0.00296662677101    0.997431655579      -0.00891837692754   0.997431655579      -0.00891837692754   0.0025439675585     0.00296662677101    
600000000.0         0.00256257432923    0.00355976105827    0.997404118191      -0.010701931653     0.997404118191      -0.010701931653     0.00256257432923    0.00355976105827    
700000000.0         0.00258257980181    0.00415282533543    0.997373763318      -0.012485447842     0.997373763318      -0.012485447842     0.00258257980181    0.00415282533543    
800000000.0         0.00260414515363    0.0047458138723     0.997340429593      -0.0142689223626    0.997340429593      -0.0142689223626    0.00260414515363    0.0047458138723     
900000000.0         0.00262738163786    0.00533872049522    0.997304005556      -0.016052351388     0.997304005556      -0.016052351388     0.00262738163786    0.00533872049522    
1000000000.0        0.00265236972014    0.00593153872426    0.99726441052       -0.0178357305744    0.99726441052       -0.0178357305744    0.00265236972014    0.00593153872426    
1100000000.0        0.00267916971618    0.00652426186005    0.997221583935      -0.0196190551775    0.997221583935      -0.0196190551775    0.00267916971618    0.00652426186005    
1200000000.0        0.00270782813034    0.00711688304132    0.997175479051      -0.0214023201336    0.997175479051      -0.0214023201336    0.00270782813034    0.00711688304132    
1300000000.0        0.00273838164337    0.00770939528501    0.997126058927      -0.0231855201171    0.997126058927      -0.0231855201171    0.00273838164337    0.00770939528501    
1400000000.0        0.00277085973349    0.00830179151487    0.997073293815      -0.0249686495839    0.997073293815      -0.0249686495839    0.00277085973349    0.00830179151487    
1500000000.0        0.00280528646234    0.00889406458257    0.99701715937       -0.0267517028045    0.99701715937       -0.0267517028045    0.00280528646234    0.00889406458257    
1600000000.0        0.00284168172932    0.00948620728365    0.996957635402      -0.0285346738896    0.996957635402      -0.0285346738896    0.00284168172932    0.00948620728365    
1700000000.0        0.00288006217538    0.0100782123697     0.996894704967      -0.0303175568112    0.996894704967      -0.0303175568112    0.00288006217538    0.0100782123697     
1800000000.0        0.00292044184904    0.0106700725578     0.996828353704      -0.0321003454188    0.996828353704      -0.0321003454188    0.00292044184904    0.0106700725578     
1900000000.0        0.00296283270654    0.0112617805384     0.996758569334      -0.0338830334538    0.996758569334      -0.0338830334538    0.00296283270654    0.0112617805384     
2000000000.0        0.00300724499404    0.011853328981      0.996685341279      -0.0356656145601    0.996685341279      -0.0356656145601    0.00300724499404    0.011853328981      
2100000000.0        0.00305368754398    0.0124447105392     0.996608660368      -0.037448082295     0.996608660368      -0.037448082295     0.00305368754398    0.0124447105392     
2200000000.0        0.00310216800815    0.013035917855      0.9965285186        -0.0392304301365    0.9965285186        -0.0392304301365    0.00310216800815    0.013035917855      
2300000000.0        0.00315269304301    0.0136269435616     0.996444908961      -0.0410126514907    0.996444908961      -0.0410126514907    0.00315269304301    0.0136269435616     
2400000000.0        0.00320526845883    0.0142177802866     0.996357825276      -0.0427947396984    0.996357825276      -0.0427947396984    0.00320526845883    0.0142177802866     
2500000000.0        0.00325989934079    0.0148084206543     0.996267262087      -0.0445766880397    0.996267262087      -0.0445766880397    0.00325989934079    0.0148084206543     
2600000000.0        0.00331659014832    0.0153988572875     0.996173214554      -0.0463584897395    0.996173214554      -0.0463584897395    0.00331659014832    0.0153988572875     
2700000000.0        0.00337534479712    0.0159890828092     0.996075678375      -0.0481401379714    0.996075678375      -0.0481401379714    0.00337534479712    0.0159890828092     
2800000000.0        0.0034361667275     0.016579089844      0.995974649713      -0.0499216258612    0.995974649713      -0.0499216258612    0.0034361667275     0.016579089844      
2900000000.0        0.00349905896172    0.0171688710197     0.995870125145      -0.0517029464906    0.995870125145      -0.0517029464906    0.00349905896172    0.0171688710197     
3000000000.0        0.00356402415238    0.0177584189675     0.99576210161       -0.0534840929002    0.99576210161       -0.0534840929002    0.00356402415238    0.0177584189675     
3100000000.0        0.00363106462346    0.0183477263241     0.99565057637       -0.0552650580919    0.99565057637       -0.0552650580919    0.00363106462346    0.0183477263241     
3200000000.0        0.00370018240547    0.0189367857312     0.995535546972      -0.0570458350318    0.995535546972      -0.0570458350318    0.00370018240547    0.0189367857312     
3300000000.0        0.00377137926552    0.0195255898374     0.995417011222      -0.0588264166521    0.995417011222      -0.0588264166521    0.00377137926552    0.0195255898374     
3400000000.0        0.00384465673333    0.0201141312978     0.995294967158      -0.0606067958532    0.995294967158      -0.0606067958532    0.00384465673334    0.0201141312978     
3500000000.0        0.00392001612375    0.0207024027752     0.995169413025      -0.0623869655058    0.995169413025      -0.0623869655058    0.00392001612375    0.0207024027752     
3600000000.0        0.00399745855635    0.0212903969403     0.99504034726       -0.0641669184525    0.99504034726       -0.0641669184525    0.00399745855635    0.0212903969403     
3700000000.0        0.00407698497257    0.021878106472      0.99490776847       -0.0659466475094    0.99490776847       -0.0659466475094    0.00407698497257    0.021878106472      
3800000000.0        0.00415859615074    0.0224655240582     0.994771675422      -0.0677261454675    0.994771675422      -0.0677261454675    0.00415859615074    0.0224655240582     
3900000000.0        0.00424229271929    0.0230526423954     0.994632067027      -0.0695054050943    0.994632067027      -0.0695054050943    0.00424229271929    0.0230526423954     
4000000000.0        0.00432807516849    0.0236394541899     0.994488942328      -0.0712844191348    0.994488942328      -0.0712844191348    0.00432807516849    0.0236394541899     
4100000000.0        0.00441594386079    0.024225952157      0.994342300493      -0.0730631803129    0.994342300493      -0.0730631803129    0.00441594386079    0.024225952157      
4200000000.0        0.00450589904001    0.0248121290224     0.994192140802      -0.0748416813324    0.994192140802      -0.0748416813324    0.00450589904001    0.0248121290224     
4300000000.0        0.00459794083959    0.0253979775213     0.994038462641      -0.0766199148783    0.994038462641      -0.0766199148783    0.00459794083959    0.0253979775213     
4400000000.0        0.00469206928994    0.0259834903992     0.993881265496      -0.0783978736173    0.993881265496      -0.0783978736173    0.00469206928994    0.0259834903992     
4500000000.0        0.00478828432501    0.0265686604122     0.993720548943      -0.0801755501992    0.993720548943      -0.0801755501992    0.00478828432501    0.0265686604122     
4600000000.0        0.00488658578823    0.0271534803264     0.993556312645      -0.0819529372575    0.993556312645      -0.0819529372575    0.00488658578823    0.0271534803264     
4700000000.0        0.00498697343785    0.027737942919      0.993388556347      -0.0837300274103    0.993388556347      -0.0837300274103    0.00498697343785    0.027737942919      
4800000000.0        0.00508944695174    0.0283220409776     0.993217279869      -0.0855068132611    0.993217279869      -0.0855068132611    0.00508944695174    0.0283220409776     
4900000000.0        0.00519400593178    0.0289057673006     0.993042483102      -0.0872832873994    0.993042483102      -0.0872832873994    0.00519400593178    0.0289057673006     
5000000000.0        0.00530064990783    0.0294891146977     0.992864166008      -0.0890594424017    0.992864166008      -0.0890594424017    0.00530064990783    0.0294891146977     
5100000000.0        0.00540937834129    0.0300720759892     0.992682328611      -0.0908352708319    0.992682328611      -0.0908352708319    0.00540937834129    0.0300720759892     
5200000000.0        0.00552019062843    0.0306546440068     0.992496970998      -0.0926107652418    0.992496970998      -0.0926107652418    0.00552019062843    0.0306546440068     
5300000000.0        0.00563308610337    0.0312368115931     0.992308093315      -0.0943859181722    0.992308093315      -0.0943859181722    0.00563308610337    0.0312368115931     
5400000000.0        0.00574806404079    0.0318185716022     0.992115695761      -0.0961607221531    0.992115695761      -0.0961607221531    0.00574806404079    0.0318185716022     
5500000000.0        0.0058651236585     0.0323999168993     0.991919778592      -0.0979351697041    0.991919778592      -0.0979351697041    0.0058651236585     0.0323999168993     
5600000000.0        0.00598426411968    0.032980840361      0.991720342114      -0.0997092533356    0.991720342114      -0.0997092533356    0.00598426411968    0.032980840361      
5700000000.0        0.00610548453504    0.0335613348754     0.99151738668       -0.101482965548     0.99151738668       -0.101482965548     0.00610548453504    0.0335613348754     
5800000000.0        0.00622878396476    0.0341413933419     0.991310912694      -0.103256298835     0.991310912694      -0.103256298835     0.00622878396476    0.0341413933419     
5900000000.0        0.00635416142028    0.0347210086715     0.991100920604      -0.105029245679     0.991100920604      -0.105029245679     0.00635416142028    0.0347210086715     
6000000000.0        0.00648161586599    0.0353001737866     0.990887410901      -0.106801798557     0.990887410901      -0.106801798557     0.00648161586599    0.0353001737866     
6100000000.0        0.00661114622072    0.0358788816214     0.99067038412       -0.108573949939     0.99067038412       -0.108573949939     0.00661114622072    0.0358788816214     
6200000000.0        0.00674275135921    0.0364571251214     0.990449840838      -0.110345692286     0.990449840838      -0.110345692286     0.00674275135921    0.0364571251214     
6300000000.0        0.00687643011341    0.037034897244      0.990225781669      -0.112117018053     0.990225781669      -0.112117018053     0.00687643011341    0.037034897244      
6400000000.0        0.0070121812737     0.0376121909581     0.989998207269      -0.113887919691     0.989998207269      -0.113887919691     0.0070121812737     0.0376121909581     
6500000000.0        0.00715000359007    0.0381889992443     0.989767118331      -0.115658389643     0.989767118331      -0.115658389643     0.00715000359007    0.0381889992443     
6600000000.0        0.00728989577313    0.0387653150951     0.989532515583      -0.117428420347     0.989532515583      -0.117428420347     0.00728989577313    0.0387653150951     
6700000000.0        0.00743185649515    0.0393411315144     0.989294399791      -0.119198004237     0.989294399791      -0.119198004237     0.00743185649515    0.0393411315144     
6800000000.0        0.00757588439097    0.0399164415183     0.989052771755      -0.12096713374      0.989052771755      -0.12096713374      0.00757588439097    0.0399164415183     
6900000000.0        0.00772197805887    0.0404912381343     0.988807632309      -0.122735801281     0.988807632309      -0.122735801281     0.00772197805887    0.0404912381343     
7000000000.0        0.00787013606136    0.041065514402      0.988558982322      -0.124503999279     0.988558982322      -0.124503999279     0.00787013606136    0.041065514402      
7100000000.0        0.00802035692598    0.0416392633726     0.988306822694      -0.126271720151     0.988306822694      -0.126271720151     0.00802035692598    0.0416392633726     
7200000000.0        0.00817263914601    0.0422124781093     0.988051154357      -0.12803895631      0.988051154357      -0.12803895631      0.00817263914601    0.0422124781093     
7300000000.0        0.00832698118109    0.0427851516872     0.987791978275      -0.129805700163     0.987791978275      -0.129805700163     0.00832698118109    0.0427851516872     
7400000000.0        0.00848338145791    0.0433572771932     0.987529295445      -0.131571944119     0.987529295445      -0.131571944119     0.00848338145791    0.0433572771932     
7500000000.0        0.00864183837081    0.0439288477262     0.987263106891      -0.13333768058      0.987263106891      -0.13333768058      0.00864183837081    0.0439288477262     
7600000000.0        0.00880235028226    0.044499856397      0.986993413668      -0.135102901947     0.986993413668      -0.135102901947     0.00880235028226    0.044499856397      
7700000000.0        0.00896491552351    0.0450702963282     0.986720216862      -0.13686760062      0.986720216862      -0.13686760062      0.00896491552351    0.0450702963282     
7800000000.0        0.00912953239497    0.0456401606547     0.986443517585      -0.138631768996     0.986443517585      -0.138631768996     0.00912953239497    0.0456401606547     
7900000000.0        0.00929619916677    0.0462094425231     0.986163316981      -0.140395399471     0.986163316981      -0.140395399471     0.00929619916677    0.0462094425231     
8000000000.0        0.00946491407918    0.0467781350922     0.985879616219      -0.142158484437     0.985879616219      -0.142158484437     0.00946491407918    0.0467781350922     
8100000000.0        0.00963567534302    0.0473462315326     0.985592416497      -0.143921016289     0.985592416497      -0.143921016289     0.00963567534302    0.0473462315326     
8200000000.0        0.00980848114008    0.0479137250272     0.985301719042      -0.145682987417     0.985301719042      -0.145682987417     0.00980848114008    0.0479137250272     
8300000000.0        0.00998332962349    0.0484806087708     0.985007525105      -0.147444390213     0.985007525105      -0.147444390213     0.00998332962349    0.0484806087708     
8400000000.0        0.0101602189181     0.0490468759702     0.984709835966      -0.149205217067     0.984709835966      -0.149205217067     0.0101602189181     0.0490468759702     
8500000000.0        0.0103391471208     0.0496125198445     0.98440865293       -0.150965460369     0.98440865293       -0.150965460369     0.0103391471208     0.0496125198445     
8600000000.0        0.010520112301      0.0501775336249     0.98410397733       -0.152725112509     0.98410397733       -0.152725112509     0.010520112301      0.0501775336249     
8700000000.0        0.0107031125005     0.0507419105545     0.983795810524      -0.154484165877     0.983795810524      -0.154484165877     0.0107031125005     0.0507419105545     
8800000000.0        0.0108881457345     0.0513056438888     0.983484153894      -0.156242612864     0.983484153894      -0.156242612864     0.0108881457345     0.0513056438888     
8900000000.0        0.0110752099912     0.0518687268953     0.98316900885       -0.158000445858     0.98316900885       -0.158000445858     0.0110752099912     0.0518687268953     
9000000000.0        0.0112643032324     0.0524311528538     0.982850376826      -0.159757657253     0.982850376826      -0.159757657253     0.0112643032324     0.0524311528538     
9100000000.0        0.0114554233938     0.0529929150562     0.98252825928       -0.16151423944      0.98252825928       -0.16151423944      0.0114554233938     0.0529929150562     
9200000000.0        0.0116485683852     0.0535540068067     0.982202657697      -0.163270184811     0.982202657697      -0.163270184811     0.0116485683852     0.0535540068067     
9300000000.0        0.0118437360907     0.0541144214217     0.981873573585      -0.165025485761     0.981873573585      -0.165025485761     0.0118437360907     0.0541144214217     
9400000000.0        0.0120409243688     0.0546741522299     0.981541008476      -0.166780134686     0.981541008476      -0.166780134686     0.0120409243688     0.0546741522299     
9500000000.0        0.012240131053      0.0552331925722     0.981204963928      -0.168534123982     0.981204963928      -0.168534123982     0.012240131053      0.0552331925722     
9600000000.0        0.0124413539516     0.0557915358019     0.98086544152       -0.170287446047     0.98086544152       -0.170287446047     0.0124413539516     0.0557915358019     
9700000000.0        0.0126445908483     0.0563491752844     0.980522442859      -0.172040093283     0.980522442859      -0.172040093283     0.0126445908483     0.0563491752844     
9800000000.0        0.0128498395018     0.0569061043978     0.980175969571      -0.173792058091     0.980175969571      -0.173792058091     0.0128498395018     0.0569061043978     
9900000000.0        0.0130570976468     0.0574623165323     0.97982602331       -0.175543332877     0.97982602331       -0.175543332877     0.0130570976468     0.0574623165323     
10000000000.0       0.0132663629935     0.0580178050904     0.979472605749      -0.177293910046     0.979472605749      -0.177293910046     0.0132663629935     0.0580178050904     
