# Hz S RI R 50.00 
100000000.0         0.00140667298099    0.000302507406996   0.998582020467      -0.00398973813055   0.998582020467      -0.00398973813055   0.00140667298099    0.000302507406996   
200000000.0         0.00141798948643    0.000604897532369   0.998546794149      -0.00797942777489   0.998546794149      -0.00797942777489   0.00141798948643    0.000604897532369   
300000000.0         0.00142926370608    0.000907168322255   0.998498004696      -0.0119690920204    0.998498004696      -0.0119690920204    0.00142926370608    0.000907168322255   
400000000.0         0.00144171311512    0.00120930077784    0.998434431842      -0.0159587198114    0.998434431842      -0.0159587198114    0.00144171311512    0.00120930077784    
500000000.0         0.00145580521709    0.00151127325036    0.998355604804      -0.0199482885885    0.998355604804      -0.0199482885885    0.00145580521709    0.00151127325036    
600000000.0         0.00147177736446    0.0018130634909     0.998261282546      -0.0239377692925    0.998261282546      -0.0239377692925    0.00147177736446    0.0018130634909     
700000000.0         0.00148976883342    0.00211464927434    0.998151321778      -0.0279271285058    0.998151321778      -0.0279271285058    0.00148976883342    0.00211464927434    
800000000.0         0.00150986900619    0.00241600863463    0.998025628818      -0.0319163296045    0.998025628818      -0.0319163296045    0.00150986900619    0.00241600863463    
900000000.0         0.00153213881703    0.00271711996047    0.997884138189      -0.0359053334618    0.997884138189      -0.0359053334618    0.00153213881703    0.00271711996047    
1000000000.0        0.00155662162053    0.00301796203236    0.997726801787      -0.0398940989174    0.997726801787      -0.0398940989174    0.00155662162053    0.00301796203236    
1100000000.0        0.00158334923289    0.00331851403297    0.997553582868      -0.0438825831084    0.997553582868      -0.0438825831084    0.00158334923289    0.00331851403297    
1200000000.0        0.00161234553229    0.00361875554449    0.997364452478      -0.047870741715     0.997364452478      -0.047870741715     0.00161234553229    0.00361875554449    
1300000000.0        0.00164362872491    0.00391866653968    0.997159387207      -0.0518585291478    0.997159387207      -0.0518585291478    0.00164362872491    0.00391866653968    
1400000000.0        0.00167721283545    0.00421822736993    0.996938367719      -0.0558458986957    0.996938367719      -0.0558458986957    0.00167721283545    0.00421822736993    
1500000000.0        0.00171310872373    0.00451741875194    0.996701377759      -0.0598328026455    0.996701377759      -0.0598328026455    0.00171310872373    0.00451741875194    
1600000000.0        0.00175132479978    0.00481622175416    0.996448403451      -0.0638191923792    0.996448403451      -0.0638191923792    0.00175132479978    0.00481622175416    
1700000000.0        0.00179186753997    0.00511461778326    0.996179432802      -0.0678050184561    0.996179432802      -0.0678050184561    0.00179186753997    0.00511461778326    
1800000000.0        0.00183474186826    0.00541258857102    0.995894455332      -0.071790230682     0.995894455332      -0.071790230682     0.00183474186826    0.00541258857102    
1900000000.0        0.00187995144332    0.00571011616177    0.995593461803      -0.0757747781684    0.995593461803      -0.0757747781684    0.00187995144332    0.00571011616177    
2000000000.0        0.00192749887864    0.00600718290037    0.995276444013      -0.0797586093838    0.995276444013      -0.0797586093838    0.00192749887864    0.00600718290037    
2100000000.0        0.00197738591398    0.0063037714208     0.994943394631      -0.0837416721987    0.994943394631      -0.0837416721987    0.00197738591398    0.0063037714208     
2200000000.0        0.00202961355067    0.00659986463532    0.994594307083      -0.087723913925     0.994594307083      -0.087723913925     0.00202961355067    0.00659986463532    
2300000000.0        0.00208418215992    0.00689544572412    0.994229175442      -0.091705281351     0.994229175442      -0.091705281351     0.00208418215992    0.00689544572412    
2400000000.0        0.00214109157037    0.00719049812565    0.993847994363      -0.095685720773     0.993847994363      -0.095685720773     0.00214109157037    0.00719049812565    
2500000000.0        0.00220034113976    0.00748500552726    0.99345075901       -0.0996651780234    0.99345075901       -0.0996651780234    0.00220034113976    0.00748500552726    
2600000000.0        0.00226192981408    0.00777895185645    0.993037465015      -0.103643598496     0.993037465015      -0.103643598496     0.00226192981408    0.00777895185645    
2700000000.0        0.00232585617682    0.00807232127244    0.992608108428      -0.107620927169     0.992608108428      -0.107620927169     0.00232585617682    0.00807232127244    
2800000000.0        0.00239211849043    0.0083650981582     0.992162685693      -0.111597108627     0.992162685693      -0.111597108627     0.00239211849043    0.0083650981582     
2900000000.0        0.00246071473134    0.00865726711279    0.991701193615      -0.115572087079     0.991701193615      -0.115572087079     0.00246071473134    0.00865726711279    
3000000000.0        0.00253164261988    0.00894881294418    0.991223629337      -0.119545806377     0.991223629337      -0.119545806377     0.00253164261988    0.00894881294418    
3100000000.0        0.00260489964599    0.00923972066216    0.990729990326      -0.123518210033     0.990729990326      -0.123518210033     0.00260489964599    0.00923972066216    
3200000000.0        0.00268048309134    0.00952997547181    0.990220274351      -0.127489241232     0.990220274351      -0.127489241232     0.00268048309134    0.00952997547181    
3300000000.0        0.00275839004865    0.00981956276702    0.989694479476      -0.131458842848     0.989694479476      -0.131458842848     0.00275839004865    0.00981956276702    
3400000000.0        0.00283861743855    0.0101084681244     0.989152604045      -0.135426957458     0.989152604045      -0.135426957458     0.00283861743855    0.0101084681244     
3500000000.0        0.00292116202438    0.0103966772975     0.988594646678      -0.139393527351     0.988594646678      -0.139393527351     0.00292116202438    0.0103966772975     
3600000000.0        0.00300602042524    0.010684176211      0.988020606255      -0.143358494542     0.988020606255      -0.143358494542     0.00300602042524    0.010684176211      
3700000000.0        0.00309318912759    0.0109709509552     0.98743048192       -0.147321800783     0.98743048192       -0.147321800783     0.00309318912759    0.0109709509552     
3800000000.0        0.0031826644956     0.0112569877812     0.986824273068      -0.151283387572     0.986824273068      -0.151283387572     0.0031826644956     0.0112569877812     
3900000000.0        0.00327444278032    0.0115422730953     0.986201979342      -0.155243196161     0.986201979342      -0.155243196161     0.00327444278032    0.0115422730953     
4000000000.0        0.00336852012805    0.0118267934546     0.985563600634      -0.15920116757      0.985563600634      -0.15920116757      0.00336852012805    0.0118267934546     
4100000000.0        0.00346489258771    0.0121105355618     0.984909137077      -0.163157242589     0.984909137077      -0.163157242589     0.00346489258771    0.0121105355618     
4200000000.0        0.00356355611765    0.0123934862613     0.984238589044      -0.167111361792     0.984238589044      -0.167111361792     0.00356355611765    0.0123934862613     
4300000000.0        0.00366450659173    0.0126756325339     0.983551957146      -0.17106346554      0.983551957146      -0.17106346554      0.00366450659173    0.0126756325339     
4400000000.0        0.00376773980489    0.0129569614936     0.982849242232      -0.175013493991     0.982849242232      -0.175013493991     0.00376773980489    0.0129569614936     
4500000000.0        0.00387325147817    0.0132374603825     0.982130445385      -0.178961387107     0.982130445385      -0.178961387107     0.00387325147817    0.0132374603825     
4600000000.0        0.00398103726342    0.0135171165673     0.981395567924      -0.18290708466      0.981395567924      -0.18290708466      0.00398103726342    0.0135171165673     
4700000000.0        0.00409109274742    0.0137959175354     0.980644611401      -0.186850526235     0.980644611401      -0.186850526235     0.00409109274742    0.0137959175354     
4800000000.0        0.00420341345587    0.0140738508911     0.9798775776        -0.190791651242     0.9798775776        -0.190791651242     0.00420341345587    0.0140738508911     
4900000000.0        0.00431799485687    0.0143509043517     0.979094468539      -0.194730398919     0.979094468539      -0.194730398919     0.00431799485687    0.0143509043517     
5000000000.0        0.00443483236427    0.0146270657441     0.978295286469      -0.198666708334     0.978295286469      -0.198666708334     0.00443483236427    0.0146270657441     
5100000000.0        0.00455392134063    0.0149023230017     0.977480033874      -0.202600518398     0.977480033874      -0.202600518398     0.00455392134063    0.0149023230017     
5200000000.0        0.0046752571001     0.0151766641602     0.97664871347       -0.206531767862     0.97664871347       -0.206531767862     0.0046752571001     0.0151766641602     
5300000000.0        0.00479883491089    0.0154500773551     0.975801328205      -0.210460395326     0.975801328205      -0.210460395326     0.00479883491089    0.0154500773551     
5400000000.0        0.00492464999778    0.0157225508181     0.974937881263      -0.214386339246     0.974937881263      -0.214386339246     0.00492464999778    0.0157225508181     
5500000000.0        0.0050526975442     0.0159940728744     0.974058376059      -0.218309537931     0.974058376059      -0.218309537931     0.0050526975442     0.0159940728744     
5600000000.0        0.00518297269438    0.0162646319388     0.973162816243      -0.222229929556     0.973162816243      -0.222229929556     0.00518297269438    0.0162646319388     
5700000000.0        0.00531547055518    0.0165342165138     0.972251205701      -0.226147452159     0.972251205701      -0.226147452159     0.00531547055518    0.0165342165138     
5800000000.0        0.00545018619788    0.0168028151861     0.971323548551      -0.23006204365      0.971323548551      -0.23006204365      0.00545018619788    0.0168028151861     
5900000000.0        0.00558711465975    0.0170704166237     0.970379849149      -0.233973641813     0.970379849149      -0.233973641813     0.00558711465975    0.0170704166237     
6000000000.0        0.00572625094561    0.0173370095738     0.969420112087      -0.237882184308     0.969420112087      -0.237882184308     0.00572625094561    0.0173370095738     
6100000000.0        0.00586759002919    0.0176025828592     0.968444342193      -0.241787608678     0.968444342193      -0.241787608678     0.00586759002919    0.0176025828592     
6200000000.0        0.00601112685443    0.0178671253765     0.967452544534      -0.245689852351     0.967452544534      -0.245689852351     0.00601112685443    0.0178671253765     
6300000000.0        0.00615685633665    0.0181306260931     0.966444724413      -0.249588852641     0.966444724413      -0.249588852641     0.00615685633665    0.0181306260931     
6400000000.0        0.00630477336365    0.0183930740449     0.965420887374      -0.253484546756     0.965420887374      -0.253484546756     0.00630477336365    0.0183930740449     
6500000000.0        0.00645487279674    0.0186544583335     0.964381039199      -0.257376871799     0.964381039199      -0.257376871799     0.00645487279674    0.0186544583335     
6600000000.0        0.00660714947161    0.0189147681244     0.963325185912      -0.261265764768     0.963325185912      -0.261265764768     0.00660714947161    0.0189147681244     
6700000000.0        0.00676159819926    0.0191739926441     0.962253333778      -0.265151162565     0.962253333778      -0.265151162565     0.00676159819926    0.0191739926441     
6800000000.0        0.0069182137667     0.0194321211782     0.961165489301      -0.269033001994     0.961165489301      -0.269033001994     0.0069182137667     0.0194321211782     
6900000000.0        0.0070769909377     0.0196891430689     0.960061659233      -0.272911219766     0.960061659233      -0.272911219766     0.0070769909377     0.0196891430689     
7000000000.0        0.00723792445341    0.019945047713      0.958941850564      -0.276785752502     0.958941850564      -0.276785752502     0.00723792445341    0.019945047713      
7100000000.0        0.00740100903296    0.0201998245595     0.957806070532      -0.280656536735     0.957806070532      -0.280656536735     0.00740100903296    0.0201998245595     
7200000000.0        0.00756623937393    0.0204534631079     0.956654326618      -0.284523508913     0.956654326618      -0.284523508913     0.00756623937393    0.0204534631079     
7300000000.0        0.00773361015287    0.0207059529058     0.95548662655       -0.2883866054       0.95548662655       -0.2883866054       0.00773361015287    0.0207059529058     
7400000000.0        0.00790311602567    0.0209572835469     0.954302978301      -0.292245762481     0.954302978301      -0.292245762481     0.00790311602567    0.0209572835469     
7500000000.0        0.00807475162791    0.0212074446694     0.953103390092      -0.296100916363     0.953103390092      -0.296100916363     0.00807475162791    0.0212074446694     
7600000000.0        0.00824851157518    0.0214564259534     0.951887870393      -0.299952003179     0.951887870393      -0.299952003179     0.00824851157518    0.0214564259534     
7700000000.0        0.00842439046332    0.0217042171199     0.950656427922      -0.303798958987     0.950656427922      -0.303798958987     0.00842439046332    0.0217042171199     
7800000000.0        0.00860238286864    0.021950807928      0.949409071646      -0.307641719776     0.949409071646      -0.307641719776     0.00860238286864    0.021950807928      
7900000000.0        0.00878248334805    0.0221961881737     0.948145810785      -0.311480221466     0.948145810785      -0.311480221466     0.00878248334805    0.0221961881737     
8000000000.0        0.00896468643925    0.0224403476879     0.946866654806      -0.31531439991      0.946866654806      -0.31531439991      0.00896468643925    0.0224403476879     
8100000000.0        0.00914898666071    0.022683276335      0.945571613432      -0.319144190898     0.945571613432      -0.319144190898     0.00914898666071    0.022683276335      
8200000000.0        0.00933537851179    0.0229249640103     0.944260696637      -0.322969530158     0.944260696637      -0.322969530158     0.00933537851179    0.0229249640103     
8300000000.0        0.00952385647269    0.0231654006395     0.942933914647      -0.326790353356     0.942933914647      -0.326790353356     0.00952385647269    0.0231654006395     
8400000000.0        0.00971441500443    0.0234045761761     0.941591277946      -0.330606596105     0.941591277946      -0.330606596105     0.00971441500443    0.0234045761761     
8500000000.0        0.00990704854877    0.0236424806004     0.94023279727       -0.334418193956     0.94023279727       -0.334418193956     0.00990704854877    0.0236424806004     
8600000000.0        0.0101017515281     0.0238791039174     0.938858483611      -0.338225082411     0.938858483611      -0.338225082411     0.0101017515281     0.0238791039174     
8700000000.0        0.0102985183452     0.0241144361557     0.937468348218      -0.342027196917     0.937468348218      -0.342027196917     0.0102985183452     0.0241144361557     
8800000000.0        0.0104973433834     0.0243484673659     0.936062402599      -0.345824472873     0.936062402599      -0.345824472873     0.0104973433834     0.0243484673659     
8900000000.0        0.0106982210057     0.0245811876189     0.934640658517      -0.349616845628     0.934640658517      -0.349616845628     0.0106982210057     0.0245811876189     
9000000000.0        0.0109011455554     0.0248125870046     0.933203127996      -0.353404250486     0.933203127996      -0.353404250486     0.0109011455554     0.0248125870046     
9100000000.0        0.0111061113549     0.0250426556304     0.931749823318      -0.357186622705     0.931749823318      -0.357186622705     0.0111061113549     0.0250426556304     
9200000000.0        0.0113131127063     0.02527138362       0.930280757026      -0.360963897501     0.930280757026      -0.360963897501     0.0113131127063     0.02527138362       
9300000000.0        0.0115221438901     0.0254987611117     0.928795941925      -0.364736010049     0.928795941925      -0.364736010049     0.0115221438901     0.0254987611117     
9400000000.0        0.0117331991659     0.0257247782575     0.927295391079      -0.368502895486     0.927295391079      -0.368502895486     0.0117331991659     0.0257247782575     
9500000000.0        0.0119462727711     0.0259494252211     0.925779117818      -0.372264488908     0.925779117818      -0.372264488908     0.0119462727711     0.0259494252211     
9600000000.0        0.0121613589208     0.0261726921776     0.924247135732      -0.376020725378     0.924247135732      -0.376020725378     0.0121613589208     0.0261726921776     
9700000000.0        0.0123784518076     0.0263945693111     0.922699458676      -0.379771539923     0.922699458676      -0.379771539923     0.0123784518076     0.0263945693111     
9800000000.0        0.0125975456008     0.0266150468146     0.92113610077       -0.383516867539     0.92113610077       -0.383516867539     0.0125975456008     0.0266150468146     
9900000000.0        0.0128186344458     0.0268341148879     0.9195570764        -0.38725664319      0.9195570764        -0.38725664319      0.0128186344458     0.0268341148879     
10000000000.0       0.0130417124642     0.0270517637368     0.917962400216      -0.390990801812     0.917962400216      -0.390990801812     0.0130417124642     0.0270517637368     
