# Hz S RI R 50.00 
100000000.0         -0.0138470268196    -0.116365092893     0.98610341517       -0.116553442135     0.98610341517       -0.116553442135     -0.0138470268196    -0.116365092893     
200000000.0         -0.0530233294577    -0.223441889713     0.946926719563      -0.223818640268     0.946926719563      -0.223818640268     -0.0530233294577    -0.223441889713     
300000000.0         -0.111750189392     -0.314307339851     0.888199515537      -0.314872572121     0.888199515537      -0.314872572121     -0.111750189392     -0.314307339851     
400000000.0         -0.182654222599     -0.385526361938     0.817295144478      -0.386280178485     0.817295144478      -0.386280178485     -0.182654222599     -0.385526361938     
500000000.0         -0.258688019596     -0.436955852342     0.741260999486      -0.43789837457      0.741260999486      -0.43789837457      -0.258688019596     -0.436955852342     
600000000.0         -0.33433169602      -0.470698385148     0.66561695656       -0.471829750987     0.66561695656       -0.471829750987     -0.33433169602      -0.470698385148     
700000000.0         -0.405936188088     -0.489915312467     0.594012074518      -0.491235674582     0.594012074518      -0.491235674582     -0.405936188088     -0.489915312467     
800000000.0         -0.471501331452     -0.497931619696     0.528446514467      -0.499441144017     0.528446514467      -0.499441144017     -0.471501331452     -0.497931619696     
900000000.0         -0.530235070204     -0.497731179999     0.469712330042      -0.499430044468     0.469712330042      -0.499430044468     -0.530235070204     -0.497731179999     
1000000000.0        -0.582117603914     -0.491758655274     0.417829319998      -0.493647048761     0.417829319998      -0.493647048761     -0.582117603914     -0.491758655274     
1100000000.0        -0.627562674682     -0.481903987814     0.372383740945      -0.483982109156     0.372383740945      -0.483982109156     -0.627562674682     -0.481903987814     
1200000000.0        -0.66718826354      -0.469571726493     0.332757610822      -0.47183978364      0.332757610822      -0.47183978364      -0.66718826354      -0.469571726493     
1300000000.0        -0.701676195755     -0.455776216874     0.298269103523      -0.458234426119     0.298269103523      -0.458234426119     -0.701676195755     -0.455776216874     
1400000000.0        -0.731693830559     -0.441233532331     0.268250859104      -0.443882117619     0.268250859104      -0.443882117619     -0.731693830559     -0.441233532331     
1500000000.0        -0.757855218576     -0.426438914825     0.242088826333      -0.429278107123     0.242088826333      -0.429278107123     -0.757855218576     -0.426438914825     
1600000000.0        -0.780705623952     -0.41172754825      0.21923774053       -0.414757584981     0.21923774053       -0.414757584981     -0.780705623952     -0.41172754825      
1700000000.0        -0.800718969912     -0.397320327776     0.199223677995      -0.400541452304     0.199223677995      -0.400541452304     -0.800718969912     -0.397320327776     
1800000000.0        -0.818301849469     -0.383357468329     0.181640045283      -0.386769929489     0.181640045283      -0.386769929489     -0.818301849469     -0.383357468329     
1900000000.0        -0.833800420413     -0.369922790953     0.166140684213      -0.373526842628     0.166140684213      -0.373526842628     -0.833800420413     -0.369922790953     
2000000000.0        -0.84750815897      -0.357061091054     0.15243211819       -0.360856991794     0.15243211819       -0.360856991794     -0.84750815897      -0.357061091054     
2100000000.0        -0.859673427313     -0.344790472328     0.140265984705      -0.348778485005     0.140265984705      -0.348778485005     -0.859673427313     -0.344790472328     
2200000000.0        -0.870506370189     -0.333111060903     0.129432138686      -0.337291452394     0.129432138686      -0.337291452394     -0.870506370189     -0.333111060903     
2300000000.0        -0.880184963741     -0.322011135678     0.119752603685      -0.326384176589     0.119752603685      -0.326384176589     -0.880184963741     -0.322011135678     
2400000000.0        -0.888860200177     -0.311471422321     0.111076387201      -0.316037386738     0.111076387201      -0.316037386738     -0.888860200177     -0.311471422321     
2500000000.0        -0.89666046927      -0.301468085476     0.10327509918       -0.306227250738     0.10327509918       -0.306227250738     -0.89666046927      -0.301468085476     
2600000000.0        -0.903695229046     -0.291974799522     0.0962392813217     -0.296927446025     0.0962392813217     -0.296927446025     -0.903695229046     -0.291974799522     
2700000000.0        -0.910058065267     -0.282964167897     0.0898753476002     -0.288110578919     0.0898753476002     -0.288110578919     -0.910058065267     -0.282964167897     
2800000000.0        -0.915829234596     -0.274408682418     0.0841030410946     -0.279749143968     0.0841030410946     -0.279749143968     -0.915829234596     -0.274408682418     
2900000000.0        -0.921077776403     -0.266281358395     0.0788533221812     -0.271816159077     0.0788533221812     -0.271816159077     -0.921077776403     -0.266281358395     
3000000000.0        -0.925863266663     -0.258556141837     0.0740666146368     -0.264285572738     0.0740666146368     -0.264285572738     -0.925863266663     -0.258556141837     
3100000000.0        -0.930237276056     -0.251208157163     0.0696913475354     -0.257132511758     0.0696913475354     -0.257132511758     -0.930237276056     -0.251208157163     
3200000000.0        -0.934244584116     -0.244213844003     0.0656827411031     -0.250333418068     0.0656827411031     -0.250333418068     -0.934244584116     -0.244213844003     
3300000000.0        -0.93792419229      -0.237551017575     0.0620017936513     -0.243866109126     0.0620017936513     -0.243866109126     -0.93792419229      -0.237551017575     
3400000000.0        -0.941310171219     -0.231198877172     0.0586144343028     -0.237709786411     0.0586144343028     -0.237709786411     -0.941310171219     -0.231198877172     
3500000000.0        -0.944432371161     -0.225137980119     0.0554908125645     -0.231845009391     0.0554908125645     -0.231845009391     -0.944432371161     -0.225137980119     
3600000000.0        -0.947317019281     -0.21935019348      0.052604701034      -0.226253647247     0.052604701034      -0.226253647247     -0.947317019281     -0.21935019348      
3700000000.0        -0.949987223237     -0.213818632177     0.0499329918218     -0.220918816997     0.0499329918218     -0.220918816997     -0.949987223237     -0.213818632177     
3800000000.0        -0.952463396945     -0.20852758955      0.0474552707762     -0.21582481407      0.0474552707762     -0.21582481407      -0.952463396945     -0.20852758955      
3900000000.0        -0.954763621609     -0.203462464558     0.0451534564615     -0.210957039514     0.0451534564615     -0.210957039514     -0.954763621609     -0.203462464558     
4000000000.0        -0.956903952707     -0.198609688473     0.0430114931637     -0.206301926695     0.0430114931637     -0.206301926695     -0.956903952707     -0.198609688473     
4100000000.0        -0.958898681793     -0.193956652967     0.0410150890967     -0.201846869398     0.0410150890967     -0.201846869398     -0.958898681793     -0.193956652967     
4200000000.0        -0.960760560364     -0.189491640845     0.039151492527      -0.19758015256      0.039151492527      -0.19758015256      -0.960760560364     -0.189491640845     
4300000000.0        -0.962500991844     -0.185203760159     0.037409299794      -0.193490886393     0.037409299794      -0.193490886393     -0.962500991844     -0.185203760159     
4400000000.0        -0.964130196661     -0.181082882134     0.0357782902345     -0.18956894432      0.0357782902345     -0.18956894432      -0.964130196661     -0.181082882134     
4500000000.0        -0.965657354562     -0.1771195831       0.0342492838621     -0.185804904902     0.0342492838621     -0.185804904902     -0.965657354562     -0.1771195831       
4600000000.0        -0.967090727637     -0.17330509044      0.032814018346      -0.1821899978       0.032814018346      -0.1821899978       -0.967090727637     -0.17330509044      
4700000000.0        -0.968437766932     -0.169631232489     0.0314650423998     -0.178716053672     0.0314650423998     -0.178716053672     -0.968437766932     -0.169631232489     
4800000000.0        -0.969705205063     -0.166090392233     0.0301956231626     -0.175375457878     0.0301956231626     -0.175375457878     -0.969705205063     -0.166090392233     
4900000000.0        -0.970899136879     -0.162675464603     0.0289996655407     -0.172161107779     0.0289996655407     -0.172161107779     -0.970899136879     -0.162675464603     
5000000000.0        -0.972025089866     -0.159379817173     0.0278716417991     -0.169066373433     0.0278716417991     -0.169066373433     -0.972025089866     -0.159379817173     
5100000000.0        -0.973088085753     -0.15619725401      0.0268065299592     -0.166085061453     0.0268065299592     -0.166085061453     -0.973088085753     -0.15619725401      
5200000000.0        -0.974092694527     -0.15312198247      0.0257997597809     -0.163211381805     0.0257997597809     -0.163211381805     -0.974092694527     -0.15312198247      
5300000000.0        -0.975043081906     -0.150148582707     0.0248471652908     -0.160439917311     0.0248471652908     -0.160439917311     -0.975043081906     -0.150148582707     
5400000000.0        -0.975943051142     -0.147271979678     0.0239449429767     -0.157765595669     0.0239449429767     -0.157765595669     -0.975943051142     -0.147271979678     
5500000000.0        -0.97679607992      -0.144487417454     0.0230896148946     -0.155183663752     0.0230896148946     -0.155183663752     -0.97679607992      -0.144487417454     
5600000000.0        -0.977605352973     -0.141790435634     0.0222779960456     -0.152689664036     0.0222779960456     -0.152689664036     -0.977605352973     -0.141790435634     
5700000000.0        -0.97837379099      -0.139176847694     0.0215071654735     -0.150279412941     0.0215071654735     -0.150279412941     -0.97837379099      -0.139176847694     
5800000000.0        -0.979104076269     -0.1366427211       0.0207744406088     -0.147948980946     0.0207744406088     -0.147948980946     -0.979104076269     -0.1366427211       
5900000000.0        -0.979798675533     -0.134184359037     0.0200773544528     -0.145694674327     0.0200773544528     -0.145694674327     -0.979798675533     -0.134184359037     
6000000000.0        -0.98045986026      -0.131798283619     0.0194136352512     -0.143513018356     0.0194136352512     -0.143513018356     -0.98045986026      -0.131798283619     
6100000000.0        -0.981089724817     -0.12948122044      0.0187811883535     -0.141400741863     0.0187811883535     -0.141400741863     -0.981089724817     -0.12948122044      
6200000000.0        -0.981690202682     -0.127230084368     0.0181780799958     -0.139354763023     0.0181780799958     -0.139354763023     -0.981690202682     -0.127230084368     
6300000000.0        -0.982263080965     -0.125041966455     0.0176025227788     -0.137372176273     0.0176025227788     -0.137372176273     -0.982263080965     -0.125041966455     
6400000000.0        -0.982810013431     -0.122914121887     0.0170528626434     -0.135450240254     0.0170528626434     -0.135450240254     -0.982810013431     -0.122914121887     
6500000000.0        -0.983332532201     -0.120843958864     0.0165275671702     -0.133586366701     0.0165275671702     -0.133586366701     -0.983332532201     -0.120843958864     
6600000000.0        -0.983832058279     -0.11882902835      0.0160252150533     -0.131778110185     0.0160252150533     -0.131778110185     -0.983832058279     -0.11882902835      
6700000000.0        -0.984309911034     -0.116867014603     0.0155444866154     -0.130023158648     0.0155444866154     -0.130023158648     -0.984309911034     -0.116867014603     
6800000000.0        -0.984767316762     -0.114955726431     0.0150841552493     -0.128319324658     0.0150841552493     -0.128319324658     -0.984767316762     -0.114955726431     
6900000000.0        -0.985205416418     -0.113093089106     0.0146430796848     -0.126664537321     0.0146430796848     -0.126664537321     -0.985205416418     -0.113093089106     
7000000000.0        -0.985625272612     -0.111277136878     0.014220196991      -0.125056834799     0.014220196991      -0.125056834799     -0.985625272612     -0.111277136878     
7100000000.0        -0.986027875949     -0.109506006053     0.0138145162355     -0.123494357383     0.0138145162355     -0.123494357383     -0.986027875949     -0.109506006053     
7200000000.0        -0.986414150785     -0.107777928569     0.0134251127323     -0.121975341075     0.0134251127323     -0.121975341075     -0.986414150785     -0.107777928569     
7300000000.0        -0.98678496045      -0.106091226048     0.0130511228162     -0.120498111635     0.0130511228162     -0.120498111635     -0.98678496045      -0.106091226048     
7400000000.0        -0.987141111999     -0.10444430427      0.0126917390896     -0.119061079056     0.0126917390896     -0.119061079056     -0.987141111999     -0.10444430427      
7500000000.0        -0.987483360545     -0.102835648046     0.0123462060943     -0.117662732437     0.0123462060943     -0.117662732437     -0.987483360545     -0.102835648046     
7600000000.0        -0.987812413201     -0.10126381645      0.0120138163647     -0.116301635218     0.0120138163647     -0.116301635218     -0.987812413201     -0.10126381645      
7700000000.0        -0.988128932684     -0.0997274383883    0.0116939068259     -0.114976420742     0.0116939068259     -0.114976420742     -0.988128932684     -0.0997274383883    
7800000000.0        -0.988433540609     -0.0982252084719    0.0113858555015     -0.113685788139     0.0113858555015     -0.113685788139     -0.988433540609     -0.0982252084719    
7900000000.0        -0.988726820495     -0.0967558831785    0.0110890785023     -0.112428498474     0.0110890785023     -0.112428498474     -0.988726820495     -0.0967558831785    
8000000000.0        -0.989009320528     -0.0953182772701    0.0108030272677     -0.111203371174     0.0108030272677     -0.111203371174     -0.989009320528     -0.0953182772701    
8100000000.0        -0.989281556088     -0.0939112604556    0.0105271860373     -0.11000928069      0.0105271860373     -0.11000928069      -0.989281556088     -0.0939112604556    
8200000000.0        -0.989544012069     -0.0925337542749    0.0102610695299     -0.108845153376     0.0102610695299     -0.108845153376     -0.989544012069     -0.0925337542749    
8300000000.0        -0.989797145012     -0.0911847291898    0.0100042208119     -0.107709964584     0.0100042208119     -0.107709964584     -0.989797145012     -0.0911847291898    
8400000000.0        -0.990041385066     -0.0898632018649    0.00975620933649    -0.106602735942     0.00975620933649    -0.106602735942     -0.990041385066     -0.0898632018649    
8500000000.0        -0.990277137788     -0.0885682326259    0.00951662913878    -0.105522532818     0.00951662913878    -0.105522532818     -0.990277137788     -0.0885682326259    
8600000000.0        -0.990504785812     -0.0872989230808    0.00928509717353    -0.104468461932     0.00928509717353    -0.104468461932     -0.990504785812     -0.0872989230808    
8700000000.0        -0.990724690378     -0.0860544138928    0.00906125178153    -0.103439669139     0.00906125178153    -0.103439669139     -0.990724690378     -0.0860544138928    
8800000000.0        -0.99093719275      -0.0848338826939    0.00884475127441    -0.102435337333     0.00884475127441    -0.102435337333     -0.99093719275      -0.0848338826939    
8900000000.0        -0.99114261552      -0.0836365421289    0.0086352726271     -0.101454684499     0.0086352726271     -0.101454684499     -0.99114261552      -0.0836365421289    
9000000000.0        -0.991341263819     -0.0824616380208    0.00843251026878    -0.100496961874     0.00843251026878    -0.100496961874     -0.991341263819     -0.0824616380208    
9100000000.0        -0.991533426436     -0.0813084476487    0.00823617496412    -0.0995614522267    0.00823617496412    -0.0995614522267    -0.991533426436     -0.0813084476487    
9200000000.0        -0.991719376853     -0.0801762781305    0.00804599277697    -0.0986474682396    0.00804599277697    -0.0986474682396    -0.991719376853     -0.0801762781305    
9300000000.0        -0.991899374208     -0.0790644649033    0.00786170410984    -0.0977543509893    0.00786170410984    -0.0977543509893    -0.991899374208     -0.0790644649033    
9400000000.0        -0.992073664181     -0.0779723702941    0.00768306281273    -0.0968814685187    0.00768306281273    -0.0968814685187    -0.992073664181     -0.0779723702941    
9500000000.0        -0.992242479825     -0.0768993821758    0.0075098353559     -0.0960282144917    0.0075098353559     -0.0960282144917    -0.992242479825     -0.0768993821758    
9600000000.0        -0.992406042337     -0.0758449127018    0.00734180006112    -0.095194006929     0.00734180006112    -0.095194006929     -0.992406042337     -0.0758449127018    
9700000000.0        -0.992564561764     -0.0748083971141    0.00717874638702    -0.0943782870158    0.00717874638702    -0.0943782870158    -0.992564561764     -0.0748083971141    
9800000000.0        -0.992718237676     -0.0737892926198    0.00702047426392    -0.0935805179793    0.00702047426392    -0.0935805179793    -0.992718237676     -0.0737892926198    
9900000000.0        -0.992867259785     -0.072787077333     0.00686679347466    -0.0928001840301    0.00686679347466    -0.0928001840301    -0.992867259785     -0.072787077333     
10000000000.0       -0.993011808514     -0.071801249275     0.00671752307743    -0.0920367893635    0.00671752307743    -0.0920367893635    -0.993011808514     -0.071801249275     
