# Hz S RI R 50.00 
100000000.0         0.119900868337      0.00411846207501    0.880095616674      -0.00560380619128   0.880095616674      -0.00560380619128   0.119900868337      0.00411846207501    
200000000.0         0.120672079959      0.00822068084965    0.879319582255      -0.0111913792443    0.879319582255      -0.0111913792443    0.120672079959      0.00822068084965    
300000000.0         0.121305732816      0.0123121516769     0.878678797471      -0.016768226037     0.878678797471      -0.016768226037     0.121305732816      0.0123121516769     
400000000.0         0.12189425318       0.0163942499433     0.878080835019      -0.0223357327931    0.878080835019      -0.0223357327931    0.12189425318       0.0163942499433     
500000000.0         0.122473247541      0.0204673947269     0.877490087476      -0.0278943290832    0.877490087476      -0.0278943290832    0.122473247541      0.0204673947269     
600000000.0         0.123060848043      0.0245315833576     0.876888421789      -0.0334440225063    0.876888421789      -0.0334440225063    0.123060848043      0.0245315833576     
700000000.0         0.123667724856      0.0285865835688     0.876265166873      -0.0389845909026    0.876265166873      -0.0389845909026    0.123667724856      0.0285865835688     
800000000.0         0.124300743592      0.0326320227695     0.875613456181      -0.0445156716626    0.875613456181      -0.0445156716626    0.124300743592      0.0326320227695     
900000000.0         0.124964595076      0.0366674361351     0.874928597912      -0.050036809842     0.874928597912      -0.050036809842     0.124964595076      0.0366674361351     
1000000000.0        0.125662622072      0.0406922952151     0.874207248283      -0.0555474867865    0.874207248283      -0.0555474867865    0.125662622072      0.0406922952151     
1100000000.0        0.126397279197      0.0447060262248     0.873446951611      -0.0610471384363    0.873446951611      -0.0610471384363    0.126397279197      0.0447060262248     
1200000000.0        0.127170407179      0.0487080224114     0.872645866042      -0.0665351677013    0.872645866042      -0.0665351677013    0.127170407179      0.0487080224114     
1300000000.0        0.127983405566      0.0526976527949     0.871802590848      -0.0720109532102    0.871802590848      -0.0720109532102    0.127983405566      0.0526976527949     
1400000000.0        0.128837346356      0.0566742685784     0.870916052789      -0.0774738557265    0.870916052789      -0.0774738557265    0.128837346356      0.0566742685784     
1500000000.0        0.129733051523      0.0606372079997     0.869985428589      -0.0829232230052    0.869985428589      -0.0829232230052    0.129733051523      0.0606372079997     
1600000000.0        0.13067114755       0.064585800102      0.869010090394      -0.0883583935675    0.869010090394      -0.0883583935675    0.13067114755       0.064585800102      
1700000000.0        0.131652104813      0.068519367735      0.867989566397      -0.093778699706     0.867989566397      -0.093778699706     0.131652104813      0.068519367735      
1800000000.0        0.132676266658      0.0724372299939     0.866923511749      -0.0991834699257    0.866923511749      -0.0991834699257    0.132676266658      0.0724372299939     
1900000000.0        0.133743871325      0.0763387042365     0.865811686642      -0.104572030965     0.865811686642      -0.104572030965     0.133743871325      0.0763387042365     
2000000000.0        0.134855068764      0.0802231077819     0.86465393949       -0.109943709496     0.86465393949       -0.109943709496     0.134855068764      0.0802231077819     
2100000000.0        0.136009933739      0.084089759358      0.863450193821      -0.115297833574     0.863450193821      -0.115297833574     0.136009933739      0.084089759358      
2200000000.0        0.137208476203      0.0879379803551     0.862200437908      -0.120633733893     0.862200437908      -0.120633733893     0.137208476203      0.0879379803551     
2300000000.0        0.138450649607      0.0917670959205     0.86090471645       -0.12595074488      0.86090471645       -0.12595074488      0.138450649607      0.0917670959205     
2400000000.0        0.139736357659      0.0955764359255     0.859563123824      -0.13124820567      0.859563123824      -0.13124820567      0.139736357659      0.0955764359255     
2500000000.0        0.141065459864      0.099365335828      0.858175798532      -0.13652546096      0.858175798532      -0.13652546096      0.141065459864      0.099365335828      
2600000000.0        0.142437776138      0.103133137445      0.856742918599      -0.141781861791     0.856742918599      -0.141781861791     0.142437776138      0.103133137445      
2700000000.0        0.143853090671      0.106879189654      0.855264697698      -0.147016766245     0.855264697698      -0.147016766245     0.143853090671      0.106879189654      
2800000000.0        0.145311155215      0.110602849024      0.853741381872      -0.152229540084     0.853741381872      -0.152229540084     0.145311155215      0.110602849024      
2900000000.0        0.146811691891      0.114303480401      0.852173246721      -0.157419557326     0.852173246721      -0.157419557326     0.146811691891      0.114303480401      
3000000000.0        0.148354395617      0.117980457434      0.85056059497       -0.162586200782     0.85056059497       -0.162586200782     0.148354395617      0.117980457434      
3100000000.0        0.149938936235      0.121633163068      0.848903754354      -0.167728862543     0.848903754354      -0.167728862543     0.149938936235      0.121633163068      
3200000000.0        0.151564960369      0.12526098999       0.847203075746      -0.172846944431     0.847203075746      -0.172846944431     0.151564960369      0.12526098999       
3300000000.0        0.153232093086      0.128863341049      0.845458931504      -0.177939858415     0.845458931504      -0.177939858415     0.153232093086      0.128863341049      
3400000000.0        0.154939939376      0.132439629636      0.843671713988      -0.183007026996     0.843671713988      -0.183007026996     0.154939939376      0.132439629636      
3500000000.0        0.156688085489      0.135989280039      0.841841834224      -0.188047883563     0.841841834224      -0.188047883563     0.156688085489      0.135989280039      
3600000000.0        0.15847610015       0.139511727773      0.839969720689      -0.19306187272      0.839969720689      -0.19306187272      0.15847610015       0.139511727773      
3700000000.0        0.160303535665      0.143006419882      0.838055818199      -0.198048450588     0.838055818199      -0.198048450588     0.160303535665      0.143006419882      
3800000000.0        0.162169928952      0.146472815216      0.836100586889      -0.203007085088     0.836100586889      -0.203007085088     0.162169928952      0.146472815216      
3900000000.0        0.164074802481      0.149910384692      0.834104501263      -0.207937256197     0.834104501263      -0.207937256197     0.164074802481      0.149910384692      
4000000000.0        0.166017665162      0.153318611525      0.832068049308      -0.212838456184     0.832068049308      -0.212838456184     0.166017665162      0.153318611525      
4100000000.0        0.167998013176      0.156696991449      0.829991731668      -0.217710189825     0.829991731668      -0.217710189825     0.167998013176      0.156696991449      
4200000000.0        0.170015330746      0.16004503291       0.827876060862      -0.222551974605     0.827876060862      -0.222551974605     0.170015330746      0.16004503291       
4300000000.0        0.172069090887      0.163362257247      0.82572156055       -0.22736334089      0.82572156055       -0.22736334089      0.172069090887      0.163362257247      
4400000000.0        0.174158756097      0.16664819885       0.823528764823      -0.232143832096     0.823528764823      -0.232143832096     0.174158756097      0.16664819885       
4500000000.0        0.176283779031      0.169902405308      0.821298217543      -0.236893004825     0.821298217543      -0.236893004825     0.176283779031      0.169902405308      
4600000000.0        0.178443603139      0.173124437533      0.819030471697      -0.241610429        0.819030471697      -0.241610429        0.178443603139      0.173124437533      
4700000000.0        0.180637663283      0.176313869871      0.816726088788      -0.246295687971     0.816726088788      -0.246295687971     0.180637663283      0.176313869871      
4800000000.0        0.182865386322      0.179470290202      0.814385638239      -0.250948378617     0.814385638239      -0.250948378617     0.182865386322      0.179470290202      
4900000000.0        0.185126191684      0.182593300018      0.812009696826      -0.255568111424     0.812009696826      -0.255568111424     0.185126191684      0.182593300018      
5000000000.0        0.187419491921      0.18568251449       0.809598848127      -0.26015451055      0.809598848127      -0.26015451055      0.187419491921      0.18568251449       
5100000000.0        0.189744693233      0.188737562523      0.80715368199       -0.264707213885     0.80715368199       -0.264707213885     0.189744693233      0.188737562523      
5200000000.0        0.192101195992      0.191758086794      0.804674794015      -0.269225873085     0.804674794015      -0.269225873085     0.192101195992      0.191758086794      
5300000000.0        0.194488395238      0.194743743778      0.802162785053      -0.273710153599     0.802162785053      -0.273710153599     0.194488395238      0.194743743778      
5400000000.0        0.196905681169      0.197694203759      0.799618260719      -0.278159734684     0.799618260719      -0.278159734684     0.196905681169      0.197694203759      
5500000000.0        0.199352439613      0.200609150837      0.79704183092       -0.282574309406     0.79704183092       -0.282574309406     0.199352439613      0.200609150837      
5600000000.0        0.201828052489      0.203488282909      0.79443410939       -0.286953584628     0.79443410939       -0.286953584628     0.201828052489      0.203488282909      
5700000000.0        0.204331898257      0.206331311653      0.791795713243      -0.291297280987     0.791795713243      -0.291297280987     0.204331898257      0.206331311653      
5800000000.0        0.206863352353      0.20913796249       0.78912726254       -0.295605132863     0.78912726254       -0.295605132863     0.206863352353      0.20913796249       
5900000000.0        0.209421787614      0.211907974538      0.786429379855      -0.299876888329     0.786429379855      -0.299876888329     0.209421787614      0.211907974538      
6000000000.0        0.212006574697      0.214641100559      0.783702689866      -0.304112309101     0.783702689866      -0.304112309101     0.212006574697      0.214641100559      
6100000000.0        0.214617082477      0.217337106893      0.780947818951      -0.308311170466     0.780947818951      -0.308311170466     0.214617082477      0.217337106893      
6200000000.0        0.217252678447      0.21999577338       0.778165394788      -0.312473261214     0.778165394788      -0.312473261214     0.217252678447      0.21999577338       
6300000000.0        0.219912729096      0.222616893275      0.775356045978      -0.316598383545     0.775356045978      -0.316598383545     0.219912729096      0.222616893275      
6400000000.0        0.222596600288      0.225200273154      0.772520401668      -0.320686352981     0.772520401668      -0.320686352981     0.222596600288      0.225200273154      
6500000000.0        0.22530365762       0.227745732814      0.769659091185      -0.324736998258     0.769659091185      -0.324736998258     0.22530365762       0.227745732814      
6600000000.0        0.22803326678       0.230253105153      0.766772743687      -0.328750161218     0.766772743687      -0.328750161218     0.22803326678       0.230253105153      
6700000000.0        0.230784793891      0.232722236059      0.763861987813      -0.332725696686     0.763861987813      -0.332725696686     0.230784793891      0.232722236059      
6800000000.0        0.233557605844      0.235152984275      0.76092745135       -0.336663472346     0.76092745135       -0.336663472346     0.233557605844      0.235152984275      
6900000000.0        0.236351070625      0.237545221269      0.757969760909      -0.340563368601     0.757969760909      -0.340563368601     0.236351070625      0.237545221269      
7000000000.0        0.239164557632      0.23989883109       0.754989541605      -0.344425278436     0.754989541605      -0.344425278436     0.239164557632      0.23989883109       
7100000000.0        0.241997437977      0.242213710217      0.751987416754      -0.348249107268     0.751987416754      -0.348249107268     0.241997437977      0.242213710217      
7200000000.0        0.244849084791      0.244489767407      0.748964007572      -0.352034772786     0.748964007572      -0.352034772786     0.244849084791      0.244489767407      
7300000000.0        0.247718873505      0.24672692353       0.745919932886      -0.355782204797     0.745919932886      -0.355782204797     0.247718873505      0.24672692353       
7400000000.0        0.250606182133      0.248925111406      0.742855808859      -0.359491345054     0.742855808859      -0.359491345054     0.250606182133      0.248925111406      
7500000000.0        0.253510391543      0.251084275627      0.739772248714      -0.363162147084     0.739772248714      -0.363162147084     0.253510391543      0.251084275627      
7600000000.0        0.256430885715      0.253204372386      0.736669862476      -0.366794576011     0.736669862476      -0.366794576011     0.256430885715      0.253204372386      
7700000000.0        0.259367051995      0.255285369288      0.733549256719      -0.370388608376     0.733549256719      -0.370388608376     0.259367051995      0.255285369288      
7800000000.0        0.262318281338      0.257327245165      0.730411034322      -0.373944231946     0.730411034322      -0.373944231946     0.262318281338      0.257327245165      
7900000000.0        0.265283968542      0.259329989889      0.727255794234      -0.377461445524     0.727255794234      -0.377461445524     0.265283968542      0.259329989889      
8000000000.0        0.268263512474      0.261293604171      0.724084131248      -0.380940258758     0.724084131248      -0.380940258758     0.268263512474      0.261293604171      
8100000000.0        0.271256316286      0.263218099366      0.720896635785      -0.384380691939     0.720896635785      -0.384380691939     0.271256316286      0.263218099366      
8200000000.0        0.274261787623      0.265103497272      0.717693893686      -0.387782775798     0.717693893686      -0.387782775798     0.274261787623      0.265103497272      
8300000000.0        0.277279338826      0.266949829923      0.714476486009      -0.391146551305     0.714476486009      -0.391146551305     0.277279338826      0.266949829923      
8400000000.0        0.280308387117      0.268757139382      0.71124498884       -0.394472069464     0.71124498884       -0.394472069464     0.280308387117      0.268757139382      
8500000000.0        0.283348354789      0.270525477535      0.707999973108      -0.397759391094     0.707999973108      -0.397759391094     0.283348354789      0.270525477535      
8600000000.0        0.286398669374      0.272254905874      0.704742004413      -0.401008586629     0.704742004413      -0.401008586629     0.286398669374      0.272254905874      
8700000000.0        0.289458763811      0.273945495287      0.701471642856      -0.404219735896     0.701471642856      -0.404219735896     0.289458763811      0.273945495287      
8800000000.0        0.292528076609      0.275597325843      0.698189442883      -0.407392927903     0.698189442883      -0.407392927903     0.292528076609      0.275597325843      
8900000000.0        0.29560605199       0.277210486572      0.694895953134      -0.410528260626     0.694895953134      -0.410528260626     0.29560605199       0.277210486572      
9000000000.0        0.298692140034      0.278785075252      0.6915917163        -0.413625840784     0.6915917163        -0.413625840784     0.298692140034      0.278785075252      
9100000000.0        0.301785796815      0.280321198189      0.688277268986      -0.416685783627     0.688277268986      -0.416685783627     0.301785796815      0.280321198189      
9200000000.0        0.304886484526      0.281818969996      0.68495314159       -0.419708212717     0.68495314159       -0.419708212717     0.304886484526      0.281818969996      
9300000000.0        0.307993671598      0.283278513379      0.681619858176      -0.422693259705     0.681619858176      -0.422693259705     0.307993671598      0.283278513379      
9400000000.0        0.311106832814      0.284699958912      0.678277936367      -0.425641064114     0.678277936367      -0.425641064114     0.311106832814      0.284699958912      
9500000000.0        0.314225449409      0.286083444819      0.674927887238      -0.428551773121     0.674927887238      -0.428551773121     0.314225449409      0.286083444819      
9600000000.0        0.317349009172      0.287429116759      0.671570215219      -0.431425541336     0.671570215219      -0.431425541336     0.317349009172      0.287429116759      
9700000000.0        0.320477006533      0.288737127603      0.668205418004      -0.434262530584     0.668205418004      -0.434262530584     0.320477006533      0.288737127603      
9800000000.0        0.323608942649      0.290007637217      0.664833986466      -0.437062909687     0.664833986466      -0.437062909687     0.323608942649      0.290007637217      
9900000000.0        0.326744325477      0.291240812246      0.661456404583      -0.439826854248     0.661456404583      -0.439826854248     0.326744325477      0.291240812246      
10000000000.0       0.329882669847      0.292436825898      0.658073149365      -0.442554546435     0.658073149365      -0.442554546435     0.329882669847      0.292436825898      
