# Hz S RI R 50.00 
100000000.0         0.107491384676      0.00346008876844    0.892506182076      -0.00446282159132   0.892506182076      -0.00446282159132   0.107491384676      0.00346008876844    
200000000.0         0.108172206353      0.00690851264482    0.89182288076       -0.00891398385089   0.89182288076       -0.00891398385089   0.108172206353      0.00690851264482    
300000000.0         0.108714613435      0.0103494566858     0.891276947127      -0.013357677313     0.891276947127      -0.013357677313     0.108714613435      0.0103494566858     
400000000.0         0.109202708932      0.0137840994504     0.890784277779      -0.0177950855393    0.890784277779      -0.0177950855393    0.109202708932      0.0137840994504     
500000000.0         0.109668940624      0.017212920292      0.890312424589      -0.0222266926485    0.890312424589      -0.0222266926485    0.109668940624      0.017212920292      
600000000.0         0.110129870702      0.0206360893171     0.889844825045      -0.026652673358     0.889844825045      -0.026652673358     0.110129870702      0.0206360893171     
700000000.0         0.110595280039      0.0240536075309     0.889371697962      -0.031073033172     0.889371697962      -0.031073033172     0.110595280039      0.0240536075309     
800000000.0         0.111071494601      0.0274653718959     0.888886717058      -0.0354876734658    0.888886717058      -0.0354876734658    0.111071494601      0.0274653718959     
900000000.0         0.11156286804       0.0308712103263     0.888385528364      -0.0398964264961    0.888385528364      -0.0398964264961    0.11156286804       0.0308712103263     
1000000000.0        0.112072533919      0.0342709024511     0.887864997991      -0.0442990761764    0.887864997991      -0.0442990761764    0.112072533919      0.0342709024511     
1100000000.0        0.11260282426       0.0376641928429     0.887322793585      -0.0486953713145    0.887322793585      -0.0486953713145    0.11260282426       0.0376641928429     
1200000000.0        0.113155519166      0.0410507999158     0.886757134693      -0.0530850345163    0.886757134693      -0.0530850345163    0.113155519166      0.0410507999158     
1300000000.0        0.113732004028      0.0444304221743     0.886166635567      -0.0574677684406    0.886166635567      -0.0574677684406    0.113732004028      0.0444304221743     
1400000000.0        0.114333372947      0.0478027427606     0.885550201731      -0.06184326035      0.885550201731      -0.06184326035      0.114333372947      0.0478027427606     
1500000000.0        0.114960499285      0.0511674328624     0.884906959438      -0.0662111855228    0.884906959438      -0.0662111855228    0.114960499285      0.0511674328624     
1600000000.0        0.11561408526       0.0545241543332     0.884236206064      -0.0705712098752    0.884236206064      -0.0705712098752    0.11561408526       0.0545241543332     
1700000000.0        0.11629469774       0.057872561752      0.883537374325      -0.0749229920242    0.883537374325      -0.0749229920242    0.11629469774       0.057872561752      
1800000000.0        0.117002794641      0.0612123040735     0.882810005867      -0.0792661849394    0.882810005867      -0.0792661849394    0.117002794641      0.0612123040735     
1900000000.0        0.117738744801      0.0645430259742     0.882053731402      -0.0836004372913    0.882053731402      -0.0836004372913    0.117738744801      0.0645430259742     
2000000000.0        0.118502843177      0.0678643689677     0.881268255502      -0.0879253945675    0.881268255502      -0.0879253945675    0.118502843177      0.0678643689677     
2100000000.0        0.119295322673      0.0711759723407     0.88045334478       -0.0922407000106    0.88045334478       -0.0922407000106    0.119295322673      0.0711759723407     
2200000000.0        0.120116363448      0.0744774739498     0.879608818571      -0.096545995416     0.879608818571      -0.096545995416     0.120116363448      0.0744774739498     
2300000000.0        0.120966100355      0.0777685109073     0.878734541502      -0.100840921819     0.878734541502      -0.100840921819     0.120966100355      0.0777685109073     
2400000000.0        0.121844628944      0.0810487201776     0.877830417483      -0.105125120092     0.877830417483      -0.105125120092     0.121844628944      0.0810487201776     
2500000000.0        0.122752010354      0.0843177391008     0.87689638482       -0.109398231468     0.87689638482       -0.109398231468     0.122752010354      0.0843177391008     
2600000000.0        0.123688275348      0.0875752058568     0.875932412173      -0.113659898007     0.875932412173      -0.113659898007     0.123688275348      0.0875752058568     
2700000000.0        0.124653427669      0.0908207598791     0.874938495205      -0.117909763011     0.874938495205      -0.117909763011     0.124653427669      0.0908207598791     
2800000000.0        0.125647446851      0.0940540422277     0.873914653772      -0.122147471396     0.873914653772      -0.122147471396     0.125647446851      0.0940540422277     
2900000000.0        0.126670290597      0.0972746959258     0.87286092954       -0.126372670028     0.87286092954       -0.126372670028     0.126670290597      0.0972746959258     
3000000000.0        0.127721896802      0.100482366267      0.871777383965      -0.130585008034     0.871777383965      -0.130585008034     0.127721896802      0.100482366267      
3100000000.0        0.128802185293      0.103676701096      0.870664096553      -0.134784137083     0.870664096553      -0.134784137083     0.128802185293      0.103676701096      
3200000000.0        0.129911059331      0.106857351065      0.869521163357      -0.138969711639     0.869521163357      -0.138969711639     0.129911059331      0.106857351065      
3300000000.0        0.131048406918      0.110023969876      0.868348695669      -0.143141389209     0.868348695669      -0.143141389209     0.131048406918      0.110023969876      
3400000000.0        0.132214101941      0.113176214497      0.867146818881      -0.147298830554     0.867146818881      -0.147298830554     0.132214101941      0.113176214497      
3500000000.0        0.13340800518       0.116313745367      0.865915671467      -0.1514416999       0.865915671467      -0.1514416999       0.13340800518       0.116313745367      
3600000000.0        0.134629965208      0.119436226591      0.864655404095      -0.155569665131     0.864655404095      -0.155569665131     0.134629965208      0.119436226591      
3700000000.0        0.135879819183      0.122543326114      0.863366178826      -0.15968239796      0.863366178826      -0.15968239796      0.135879819183      0.122543326114      
3800000000.0        0.137157393568      0.125634715889      0.862048168398      -0.163779574104     0.862048168398      -0.163779574104     0.137157393568      0.125634715889      
3900000000.0        0.138462504778      0.128710072032      0.860701555578      -0.167860873433     0.860701555578      -0.167860873433     0.138462504778      0.128710072032      
4000000000.0        0.139794959766      0.131769074971      0.859326532574      -0.171925980123     0.859326532574      -0.171925980123     0.139794959766      0.131769074971      
4100000000.0        0.141154556559      0.134811409579      0.857923300503      -0.17597458279      0.857923300503      -0.17597458279      0.141154556559      0.134811409579      
4200000000.0        0.14254108475       0.137836765306      0.856492068896      -0.180006374618     0.856492068896      -0.180006374618     0.14254108475       0.137836765306      
4300000000.0        0.143954325951      0.140844836299      0.855033055247      -0.184021053482     0.855033055247      -0.184021053482     0.143954325951      0.140844836299      
4400000000.0        0.145394054209      0.143835321514      0.853546484594      -0.188018322062     0.853546484594      -0.188018322062     0.145394054209      0.143835321514      
4500000000.0        0.146860036401      0.146807924825      0.852032589127      -0.191997887948     0.852032589127      -0.191997887948     0.146860036401      0.146807924825      
4600000000.0        0.148352032596      0.14976235512       0.850491607822      -0.19595946374      0.850491607822      -0.19595946374      0.148352032596      0.14976235512       
4700000000.0        0.149869796398      0.1526983264        0.848923786106      -0.199902767144     0.848923786106      -0.199902767144     0.149869796398      0.1526983264        
4800000000.0        0.151413075269      0.155615557858      0.847329375524      -0.203827521056     0.847329375524      -0.203827521056     0.151413075269      0.155615557858      
4900000000.0        0.152981610831      0.158513773969      0.845708633443      -0.207733453646     0.845708633443      -0.207733453646     0.152981610831      0.158513773969      
5000000000.0        0.154575139159      0.161392704561      0.844061822758      -0.211620298433     0.844061822758      -0.211620298433     0.154575139159      0.161392704561      
5100000000.0        0.156193391055      0.164252084885      0.842389211617      -0.215487794357     0.842389211617      -0.215487794357     0.156193391055      0.164252084885      
5200000000.0        0.157836092311      0.167091655685      0.840691073159      -0.21933568584      0.840691073159      -0.21933568584      0.157836092311      0.167091655685      
5300000000.0        0.15950296396       0.169911163252      0.838967685262      -0.223163722854     0.838967685262      -0.223163722854     0.15950296396       0.169911163252      
5400000000.0        0.161193722519      0.172710359483      0.8372193303        -0.226971660969     0.8372193303        -0.226971660969     0.161193722519      0.172710359483      
5500000000.0        0.162908080223      0.175489001931      0.835446294911      -0.230759261408     0.835446294911      -0.230759261408     0.162908080223      0.175489001931      
5600000000.0        0.164645745248      0.178246853849      0.833648869772      -0.234526291092     0.833648869772      -0.234526291092     0.164645745248      0.178246853849      
5700000000.0        0.166406421925      0.180983684234      0.831827349383      -0.238272522678     0.831827349383      -0.238272522678     0.166406421925      0.180983684234      
5800000000.0        0.168189810958      0.183699267865      0.829982031855      -0.241997734604     0.829982031855      -0.241997734604     0.168189810958      0.183699267865      
5900000000.0        0.169995609621      0.186393385329      0.828113218707      -0.245701711114     0.828113218707      -0.245701711114     0.169995609621      0.186393385329      
6000000000.0        0.171823511957      0.189065823057      0.826221214668      -0.249384242291     0.826221214668      -0.249384242291     0.171823511957      0.189065823057      
6100000000.0        0.173673208973      0.191716373345      0.824306327487      -0.253045124081     0.824306327487      -0.253045124081     0.173673208973      0.191716373345      
6200000000.0        0.175544388827      0.194344834377      0.822368867739      -0.256684158311     0.822368867739      -0.256684158311     0.175544388827      0.194344834377      
6300000000.0        0.177436737008      0.196951010235      0.82040914865       -0.260301152709     0.82040914865       -0.260301152709     0.177436737008      0.196951010235      
6400000000.0        0.179349936517      0.199534710922      0.818427485913      -0.263895920918     0.818427485913      -0.263895920918     0.179349936517      0.199534710922      
6500000000.0        0.18128366804       0.202095752361      0.816424197518      -0.267468282499     0.816424197518      -0.267468282499     0.18128366804       0.202095752361      
6600000000.0        0.183237610117      0.204633956409      0.814399603576      -0.271018062943     0.814399603576      -0.271018062943     0.183237610117      0.204633956409      
6700000000.0        0.185211439312      0.207149150854      0.812354026162      -0.274545093671     0.812354026162      -0.274545093671     0.185211439312      0.207149150854      
6800000000.0        0.187204830368      0.209641169414      0.810287789144      -0.278049212033     0.810287789144      -0.278049212033     0.187204830368      0.209641169414      
6900000000.0        0.189217456377      0.212109851735      0.808201218027      -0.281530261301     0.808201218027      -0.281530261301     0.189217456377      0.212109851735      
7000000000.0        0.191248988924      0.214555043378      0.806094639799      -0.284988090664     0.806094639799      -0.284988090664     0.191248988924      0.214555043378      
7100000000.0        0.193299098249      0.216976595816      0.803968382776      -0.288422555217     0.803968382776      -0.288422555217     0.193299098249      0.216976595816      
7200000000.0        0.195367453389      0.21937436641       0.801822776453      -0.291833515945     0.801822776453      -0.291833515945     0.195367453389      0.21937436641       
7300000000.0        0.19745372233       0.221748218399      0.79965815136       -0.295220839705     0.79965815136       -0.295220839705     0.19745372233       0.221748218399      
7400000000.0        0.199557572145      0.224098020875      0.797474838917      -0.29858439921      0.797474838917      -0.29858439921      0.199557572145      0.224098020875      
7500000000.0        0.201678669137      0.226423648765      0.795273171294      -0.301924073        0.795273171294      -0.301924073        0.201678669137      0.226423648765      
7600000000.0        0.203816678976      0.228724982799      0.793053481274      -0.305239745424     0.793053481274      -0.305239745424     0.203816678976      0.228724982799      
7700000000.0        0.205971266833      0.231001909487      0.790816102119      -0.308531306602     0.790816102119      -0.308531306602     0.205971266833      0.231001909487      
7800000000.0        0.208142097513      0.233254321083      0.788561367438      -0.311798652403     0.788561367438      -0.311798652403     0.208142097513      0.233254321083      
7900000000.0        0.210328835579      0.235482115556      0.786289611058      -0.315041684404     0.786289611058      -0.315041684404     0.210328835579      0.235482115556      
8000000000.0        0.212531145483      0.237685196548      0.784001166899      -0.318260309859     0.784001166899      -0.318260309859     0.212531145483      0.237685196548      
8100000000.0        0.214748691689      0.239863473343      0.781696368848      -0.321454441658     0.781696368848      -0.321454441658     0.214748691689      0.239863473343      
8200000000.0        0.216981138789      0.242016860818      0.779375550643      -0.324623998287     0.779375550643      -0.324623998287     0.216981138789      0.242016860818      
8300000000.0        0.219228151628      0.244145279406      0.777039045751      -0.327768903785     0.777039045751      -0.327768903785     0.219228151628      0.244145279406      
8400000000.0        0.22148939541       0.246248655048      0.774687187253      -0.330889087696     0.774687187253      -0.330889087696     0.22148939541       0.246248655048      
8500000000.0        0.223764535822      0.248326919146      0.772320307734      -0.333984485029     0.772320307734      -0.333984485029     0.223764535822      0.248326919146      
8600000000.0        0.226053239132      0.250380008514      0.769938739171      -0.3370550362       0.769938739171      -0.3370550362       0.226053239132      0.250380008514      
8700000000.0        0.228355172306      0.252407865326      0.767542812826      -0.340100686987     0.767542812826      -0.340100686987     0.228355172306      0.252407865326      
8800000000.0        0.230670003108      0.254410437066      0.765132859141      -0.343121388473     0.765132859141      -0.343121388473     0.230670003108      0.254410437066      
8900000000.0        0.232997400201      0.256387676468      0.762709207637      -0.346117096997     0.762709207637      -0.346117096997     0.232997400201      0.256387676468      
9000000000.0        0.235337033252      0.258339541464      0.760272186811      -0.34908777409      0.760272186811      -0.34908777409      0.235337033252      0.258339541464      
9100000000.0        0.237688573024      0.260265995124      0.757822124044      -0.352033386422     0.757822124044      -0.352033386422     0.237688573024      0.260265995124      
9200000000.0        0.240051691471      0.262167005596      0.755359345503      -0.354953905743     0.755359345503      -0.354953905743     0.240051691471      0.262167005596      
9300000000.0        0.242426061833      0.264042546048      0.752884176048      -0.357849308818     0.752884176048      -0.357849308818     0.242426061833      0.264042546048      
9400000000.0        0.244811358722      0.265892594599      0.750396939148      -0.360719577368     0.750396939148      -0.360719577368     0.244811358722      0.265892594599      
9500000000.0        0.247207258211      0.267717134265      0.747897956787      -0.363564698006     0.747897956787      -0.363564698006     0.247207258211      0.267717134265      
9600000000.0        0.249613437918      0.269516152883      0.745387549385      -0.366384662169     0.745387549385      -0.366384662169     0.249613437918      0.269516152883      
9700000000.0        0.252029577087      0.271289643053      0.742866035713      -0.369179466057     0.742866035713      -0.369179466057     0.252029577087      0.271289643053      
9800000000.0        0.254455356669      0.273037602069      0.740333732815      -0.371949110562     0.740333732815      -0.371949110562     0.254455356669      0.273037602069      
9900000000.0        0.256890459396      0.274760031848      0.73779095593       -0.374693601199     0.73779095593       -0.374693601199     0.256890459396      0.274760031848      
10000000000.0       0.25933456986       0.276456938862      0.735238018418      -0.377412948041     0.735238018418      -0.377412948041     0.25933456986       0.276456938862      
