# Hz S RI R 50.00 
100000000.0         -0.000650719216526  -0.0262999294598    0.999184382586      -0.0268343766228    0.999184382586      -0.0268343766228    -0.000650719216526  -0.0262999294598    
200000000.0         -0.00278914644252   -0.052484962131     0.997044403069      -0.0535539252072    0.997044403069      -0.0535539252072    -0.00278914644253   -0.052484962131     
300000000.0         -0.00631607862056   -0.0784446658909    0.993515915731      -0.0800482533997    0.993515915731      -0.0800482533997    -0.00631607862056   -0.0784446658909    
400000000.0         -0.011202044632     -0.104071751308     0.988628249612      -0.106210103731     0.988628249612      -0.106210103731     -0.011202044632     -0.104071751308     
500000000.0         -0.0174068521759    -0.12926349072      0.982421542328      -0.13193677659      0.982421542328      -0.13193677659      -0.0174068521759    -0.12926349072      
600000000.0         -0.0248803694384    -0.153923012548     0.974945897724      -0.157131425866     0.974945897724      -0.157131425866     -0.0248803694384    -0.153923012548     
700000000.0         -0.0335635051643    -0.177960434842     0.966260390409      -0.18170419317      0.966260390409      -0.18170419317      -0.0335635051643    -0.177960434842     
800000000.0         -0.0433893340942    -0.201293812272     0.956431934717      -0.205573155221     0.956431934717      -0.205573155221     -0.0433893340942    -0.201293812272     
900000000.0         -0.0542843257487    -0.223849879527     0.945534053431      -0.228665067518     0.945534053431      -0.228665067518     -0.0542843257487    -0.223849879527     
1000000000.0        -0.0661696356304    -0.245564582775     0.933645585326      -0.250915895984     0.933645585326      -0.250915895984     -0.0661696356304    -0.245564582775     
1100000000.0        -0.0789624191861    -0.266383399176     0.920849370507      -0.272271136619     0.920849370507      -0.272271136619     -0.0789624191861    -0.266383399176     
1200000000.0        -0.0925771314871    -0.286261452027     0.907230950315      -0.292685930754     0.907230950315      -0.292685930754     -0.0925771314871    -0.286261452027     
1300000000.0        -0.106926779514     -0.305163435621     0.892877314784      -0.312124989997     0.892877314784      -0.312124989997     -0.106926779514     -0.305163435621     
1400000000.0        -0.12192409888      -0.323063369095     0.877875725743      -0.330562350145     0.877875725743      -0.330562350145     -0.12192409888      -0.323063369095     
1500000000.0        -0.137482632426     -0.339944202273     0.862312638113      -0.347980977096     0.862312638113      -0.347980977096     -0.137482632426     -0.339944202273     
1600000000.0        -0.153517693973     -0.355797298822     0.846272736069      -0.36437225004      0.846272736069      -0.36437225004      -0.153517693973     -0.355797298822     
1700000000.0        -0.169947206317     -0.370621822946     0.829838094987      -0.379735348209     0.829838094987      -0.379735348209     -0.169947206317     -0.370621822946     
1800000000.0        -0.186692407977     -0.384424055586     0.813087474655      -0.394076567109     0.813087474655      -0.394076567109     -0.186692407977     -0.384424055586     
1900000000.0        -0.203678428072     -0.39721666479      0.796095744367      -0.407408588917     0.796095744367      -0.407408588917     -0.203678428072     -0.39721666479      
2000000000.0        -0.220834732819     -0.409017952856     0.778933436398      -0.419749729664     0.778933436398      -0.419749729664     -0.220834732819     -0.409017952856     
2100000000.0        -0.238095450508     -0.41985110025      0.761666421008      -0.431123183169     0.761666421008      -0.431123183169     -0.238095450508     -0.41985110025      
2200000000.0        -0.255399584327     -0.429743423375     0.744355693613      -0.441556278838     0.744355693613      -0.441556278838     -0.255399584327     -0.429743423375     
2300000000.0        -0.272691124151     -0.438725660194     0.727057262969      -0.451079767308     0.727057262969      -0.451079767308     -0.272691124151     -0.438725660194     
2400000000.0        -0.289919069495     -0.446831294701     0.709822128228      -0.459727144935     0.709822128228      -0.459727144935     -0.289919069495     -0.446831294701     
2500000000.0        -0.307037376192     -0.454095928366     0.692696332236      -0.467534025257     0.692696332236      -0.467534025257     -0.307037376192     -0.454095928366     
2600000000.0        -0.324004839346     -0.460556704048     0.675721078585      -0.474537562931     0.675721078585      -0.474537562931     -0.324004839346     -0.460556704048     
2700000000.0        -0.340784924578     -0.466251785601     0.65893290036       -0.480775933341     0.65893290036       -0.480775933341     -0.340784924578     -0.466251785601     
2800000000.0        -0.357345558806     -0.471219894375     0.642363869353      -0.486287869131     0.642363869353      -0.486287869131     -0.357345558806     -0.471219894375     
2900000000.0        -0.373658890829     -0.475499902261     0.626041835475      -0.491112253248     0.626041835475      -0.491112253248     -0.373658890829     -0.475499902261     
3000000000.0        -0.389701030863     -0.479130479553     0.609990687221      -0.495287766828     0.609990687221      -0.495287766828     -0.389701030863     -0.479130479553     
3100000000.0        -0.405451777006     -0.48214979501      0.594230625203      -0.498852589262     0.594230625203      -0.498852589262     -0.405451777006     -0.48214979501      
3200000000.0        -0.420894335451     -0.484595264706     0.578778441929      -0.501844147065     0.578778441929      -0.501844147065     -0.420894335451     -0.484595264706     
3300000000.0        -0.436015040158     -0.486503345872     0.563647802134      -0.504298907723     0.563647802134      -0.504298907723     -0.436015040158     -0.486503345872     
3400000000.0        -0.450803076626     -0.487909371615     0.548849519008      -0.506252214426     0.548849519008      -0.506252214426     -0.450803076626     -0.487909371615     
3500000000.0        -0.46525021346      -0.488847422322     0.534391822626      -0.507738157479     0.534391822626      -0.507738157479     -0.46525021346      -0.488847422322     
3600000000.0        -0.479350544565     -0.489350229608     0.520280617748      -0.508789478261     0.520280617748      -0.508789478261     -0.479350544565     -0.489350229608     
3700000000.0        -0.49310024407      -0.489449108769     0.506519728906      -0.509437501689     0.506519728906      -0.509437501689     -0.49310024407      -0.489449108769     
3800000000.0        -0.506497335401     -0.489173915937     0.493111131318      -0.509712093376     0.493111131318      -0.509712093376     -0.506497335401     -0.489173915937     
3900000000.0        -0.519541475424     -0.488553026366     0.480055166752      -0.509641637932     0.480055166752      -0.509641637932     -0.519541475424     -0.488553026366     
4000000000.0        -0.532233754098     -0.487613330598     0.467350743866      -0.509253035129     0.467350743866      -0.509253035129     -0.532233754098     -0.487613330598     
4100000000.0        -0.544576509723     -0.486380245509     0.454995522969      -0.508571710964     0.454995522969      -0.508571710964     -0.544576509723     -0.486380245509     
4200000000.0        -0.556573159577     -0.484877737601     0.442986085373      -0.507621640954     0.442986085373      -0.507621640954     -0.556573159577     -0.484877737601     
4300000000.0        -0.568228045514     -0.483128356153     0.431318087802      -0.506425383289     0.431318087802      -0.506425383289     -0.568228045514     -0.483128356153     
4400000000.0        -0.579546293929     -0.481153274162     0.419986402423      -0.50500411979      0.419986402423      -0.50500411979      -0.579546293929     -0.481153274162     
4500000000.0        -0.590533689365     -0.478972335262     0.408985243241      -0.503377702824     0.408985243241      -0.503377702824     -0.590533689365     -0.478972335262     
4600000000.0        -0.601196560977     -0.476604105056     0.39830827963       -0.501564706649     0.39830827963       -0.501564706649     -0.601196560977     -0.476604105056     
4700000000.0        -0.611541681002     -0.474065925533     0.38794873787       -0.499582481835     0.38794873787       -0.499582481835     -0.611541681002     -0.474065925533     
4800000000.0        -0.621576174376     -0.471373971444     0.377899491522      -0.497447211641     0.377899491522      -0.497447211641     -0.621576174376     -0.471373971444     
4900000000.0        -0.631307438628     -0.468543307679     0.368153141541      -0.495173969407     0.368153141541      -0.495173969407     -0.631307438628     -0.468543307679     
5000000000.0        -0.640743073208     -0.465587946887     0.358702086942      -0.49277677617      0.358702086942      -0.49277677617      -0.640743073208     -0.465587946887     
5100000000.0        -0.64989081742      -0.462520906674     0.349538586868      -0.490268657872     0.349538586868      -0.490268657872     -0.64989081742      -0.462520906674     
5200000000.0        -0.658758496191     -0.459354265889     0.340654814824      -0.48766170165      0.340654814824      -0.48766170165      -0.658758496191     -0.459354265889     
5300000000.0        -0.667353972904     -0.456099219571     0.332042905839      -0.484967110786     0.332042905839      -0.484967110786     -0.667353972904     -0.456099219571     
5400000000.0        -0.675685108632     -0.452766132261     0.323694997236      -0.482195258026     0.323694997236      -0.482195258026     -0.675685108632     -0.452766132261     
5500000000.0        -0.683759727094     -0.449364589421     0.315603263673      -0.479355737001     0.315603263673      -0.479355737001     -0.683759727094     -0.449364589421     
5600000000.0        -0.69158558475      -0.445903446813     0.307759947049      -0.476457411613     0.307759947049      -0.476457411613     -0.69158558475      -0.445903446813     
5700000000.0        -0.699170345468     -0.442390877707     0.300157381836      -0.473508463244     0.300157381836      -0.473508463244     -0.699170345468     -0.442390877707     
5800000000.0        -0.706521559269     -0.438834417856     0.292788016335      -0.470516435737     0.292788016335      -0.470516435737     -0.706521559269     -0.438834417856     
5900000000.0        -0.713646644674     -0.435241008203     0.285644430327      -0.467488278104     0.285644430327      -0.467488278104     -0.713646644674     -0.435241008203     
6000000000.0        -0.72055287424      -0.431617035327     0.278719349537      -0.464430384983     0.278719349537      -0.464430384983     -0.72055287424      -0.431617035327     
6100000000.0        -0.727247362905     -0.427968369646     0.272005657291      -0.461348634833     0.272005657291      -0.461348634833     -0.727247362905     -0.427968369646     
6200000000.0        -0.733737058793     -0.424300401422     0.265496403709      -0.458248425952     0.265496403709      -0.458248425952     -0.733737058793     -0.424300401422     
6300000000.0        -0.740028736175     -0.420618074629     0.259184812744      -0.455134710348     0.259184812744      -0.455134710348     -0.740028736175     -0.420618074629     
6400000000.0        -0.746128990306     -0.416925918758     0.253064287344      -0.452012025537     0.253064287344      -0.452012025537     -0.746128990306     -0.416925918758     
6500000000.0        -0.752044233893     -0.413228078625     0.247128412986      -0.448884524367     0.247128412986      -0.448884524367     -0.752044233893     -0.413228078625     
6600000000.0        -0.757780694971     -0.409528342281     0.241370959794      -0.445756002923     0.241370959794      -0.445756002923     -0.757780694971     -0.409528342281     
6700000000.0        -0.763344415994     -0.405830167105     0.23578588346       -0.442629926629     0.23578588346       -0.442629926629     -0.763344415994     -0.405830167105     
6800000000.0        -0.768741253953     -0.402136704174     0.230367325109      -0.439509454611     0.230367325109      -0.439509454611     -0.768741253953     -0.402136704174     
6900000000.0        -0.773976881392     -0.398450820991     0.225109610297      -0.436397462437     0.225109610297      -0.436397462437     -0.773976881392     -0.398450820991     
7000000000.0        -0.779056788157     -0.394775122669     0.220007247254      -0.433296563303     0.220007247254      -0.433296563303     -0.779056788157     -0.394775122669     
7100000000.0        -0.783986283779     -0.391111971669     0.215054924504      -0.430209127767     0.215054924504      -0.430209127767     -0.783986283779     -0.391111971669     
7200000000.0        -0.788770500372     -0.387463506148     0.210247507966      -0.427137302105     0.210247507966      -0.427137302105     -0.788770500372     -0.387463506148     
7300000000.0        -0.793414395957     -0.383831657036     0.205580037626      -0.424083025389     0.205580037626      -0.424083025389     -0.793414395957     -0.383831657036     
7400000000.0        -0.79792275814      -0.380218163895     0.201047723867      -0.421048045351     0.201047723867      -0.421048045351     -0.79792275814      -0.380218163895     
7500000000.0        -0.802300208053     -0.376624589656     0.196645943518      -0.418033933114     0.196645943518      -0.418033933114     -0.802300208053     -0.376624589656     
7600000000.0        -0.806551204517     -0.373052334293     0.1923702357        -0.415042096877     0.1923702357        -0.415042096877     -0.806551204517     -0.373052334293     
7700000000.0        -0.810680048361     -0.369502647508     0.1882162975        -0.412073794602     0.1882162975        -0.412073794602     -0.810680048361     -0.369502647508     
7800000000.0        -0.814690886852     -0.365976640506     0.184179979542      -0.409130145783     0.184179979542      -0.409130145783     -0.814690886852     -0.365976640506     
7900000000.0        -0.818587718201     -0.3624752969       0.180257281484      -0.40621214236      0.180257281484      -0.40621214236      -0.818587718201     -0.3624752969       
8000000000.0        -0.82237439611      -0.358999482821     0.176444347465      -0.40332065883      0.176444347465      -0.40332065883      -0.82237439611      -0.358999482821     
8100000000.0        -0.826054634323     -0.355549956287     0.172737461561      -0.400456461616     0.172737461561      -0.400456461616     -0.826054634323     -0.355549956287     
8200000000.0        -0.829632011169     -0.352127375875     0.169133043234      -0.397620217743     0.169133043234      -0.397620217743     -0.829632011169     -0.352127375875     
8300000000.0        -0.833109974063     -0.348732308751     0.165627642837      -0.394812502868     0.165627642837      -0.394812502868     -0.833109974063     -0.348732308751     
8400000000.0        -0.836491843955     -0.345365238109     0.16221793716       -0.39203380872      0.16221793716       -0.39203380872      -0.836491843955     -0.345365238109     
8500000000.0        -0.839780819717     -0.342026570042     0.158900725046      -0.38928454998      0.158900725046      -0.38928454998      -0.839780819717     -0.342026570042     
8600000000.0        -0.842979982442     -0.338716639916     0.155672923091      -0.386565070642     0.155672923091      -0.386565070642     -0.842979982442     -0.338716639916     
8700000000.0        -0.846092299657     -0.335435718247     0.152531561427      -0.38387564991      0.152531561427      -0.38387564991      -0.846092299657     -0.335435718247     
8800000000.0        -0.84912062944      -0.332184016152     0.149473779611      -0.381216507637     0.149473779611      -0.381216507637     -0.84912062944      -0.332184016152     
8900000000.0        -0.85206772443      -0.328961690381     0.146496822609      -0.37858780936      0.146496822609      -0.37858780936      -0.85206772443      -0.328961690381     
9000000000.0        -0.854936235735     -0.325768847966     0.143598036891      -0.375989670959     0.143598036891      -0.375989670959     -0.854936235735     -0.325768847966     
9100000000.0        -0.85772871672      -0.322605550524     0.14077486664       -0.373422162953     0.14077486664       -0.373422162953     -0.85772871672      -0.322605550524     
9200000000.0        -0.860447626693     -0.31947181823      0.138024850071      -0.370885314478     0.138024850071      -0.370885314478     -0.860447626693     -0.31947181823      
9300000000.0        -0.863095334464     -0.316367633485     0.135345615862      -0.368379116957     0.135345615862      -0.368379116957     -0.863095334464     -0.316367633485     
9400000000.0        -0.865674121799     -0.313292944309     0.132734879711      -0.365903527492     0.132734879711      -0.365903527492     -0.865674121799     -0.313292944309     
9500000000.0        -0.868186186757     -0.31024766747      0.130190440989      -0.363458471996     0.130190440989      -0.363458471996     -0.868186186757     -0.31024766747      
9600000000.0        -0.870633646906     -0.307231691372     0.127710179531      -0.361043848083     0.127710179531      -0.361043848083     -0.870633646906     -0.307231691372     
9700000000.0        -0.873018542437     -0.304244878726     0.125292052515      -0.358659527741     0.125292052515      -0.358659527741     -0.873018542437     -0.304244878726     
9800000000.0        -0.875342839159     -0.301287069012     0.122934091471      -0.35630535979      0.122934091471      -0.35630535979      -0.875342839159     -0.301287069012     
9900000000.0        -0.877608431389     -0.298358080743     0.120634399391      -0.353981172155     0.120634399391      -0.353981172155     -0.877608431389     -0.298358080743     
10000000000.0       -0.879817144735     -0.295457713569     0.118391147943      -0.351686773964     0.118391147943      -0.351686773964     -0.879817144735     -0.295457713569     
