# Hz S RI R 50.00 
100000000.0         0.0683052745995     0.00339847444944    0.931692499447      -0.00429052031443   0.931692499447      -0.00429052031443   0.0683052745995     0.00339847444944    
200000000.0         0.0687701540135     0.0067896634914     0.931225578598      -0.0085737654987    0.931225578598      -0.0085737654987    0.0687701540135     0.0067896634914     
300000000.0         0.0691518894351     0.0101760380397     0.930840985968      -0.0128522136881    0.930840985968      -0.0128522136881    0.0691518894351     0.0101760380397     
400000000.0         0.0695061602441     0.0135582220128     0.930483041939      -0.0171264949225    0.930483041939      -0.0171264949225    0.0695061602441     0.0135582220128     
500000000.0         0.0698544419994     0.016936409726      0.930130270722      -0.0213968090841    0.930130270722      -0.0213968090841    0.0698544419994     0.016936409726      
600000000.0         0.0702076924057     0.0203106055042     0.929771714387      -0.0256631657012    0.929771714387      -0.0256631657012    0.0702076924057     0.0203106055042     
700000000.0         0.070572379303      0.0236807098197     0.929400904861      -0.0299254701837    0.929400904861      -0.0299254701837    0.070572379303      0.0236807098197     
800000000.0         0.0709526828793     0.0270465592948     0.929013661717      -0.0341835638843    0.929013661717      -0.0341835638843    0.0709526828793     0.0270465592948     
900000000.0         0.0713514771181     0.0304079482298     0.92860711072       -0.0384372456647    0.92860711072       -0.0384372456647    0.0713514771181     0.0304079482298     
1000000000.0        0.071770827714      0.0337646413851     0.928179185916      -0.0426862847049    0.928179185916      -0.0426862847049    0.071770827714      0.0337646413851     
1100000000.0        0.0722122690969     0.0371163821323     0.927728352602      -0.0469304286742    0.927728352602      -0.0469304286742    0.0722122690969     0.0371163821323     
1200000000.0        0.072676969643      0.0404628979427     0.927253442118      -0.0511694092353    0.927253442118      -0.0511694092353    0.072676969643      0.0404628979427     
1300000000.0        0.0731658357082     0.043803904248      0.926753547809      -0.0554029459163    0.926753547809      -0.0554029459163    0.0731658357082     0.043803904248      
1400000000.0        0.0736795800686     0.0471391072535     0.926227956591      -0.0596307489345    0.926227956591      -0.0596307489345    0.0736795800686     0.0471391072535     
1500000000.0        0.0742187686026     0.0504682060519     0.92567610226       -0.0638525213173    0.92567610226       -0.0638525213173    0.0742187686026     0.0504682060519     
1600000000.0        0.0747838531113     0.0537908942514     0.92509753268       -0.0680679605375    0.92509753268       -0.0680679605375    0.0747838531113     0.0537908942514     
1700000000.0        0.075375194997      0.0571068612598     0.924491886098      -0.0722767598027    0.924491886098      -0.0722767598027    0.075375194997      0.0571068612598     
1800000000.0        0.075993082734      0.0604157933167     0.923858873678      -0.0764786090921    0.923858873678      -0.0764786090921    0.075993082734      0.0604157933167     
1900000000.0        0.076637745012      0.0637173743377     0.923198266353      -0.0806731960058    0.923198266353      -0.0806731960058    0.076637745012      0.0637173743377     
2000000000.0        0.0773093607963     0.0670112866175     0.922509884768      -0.0848602064702    0.922509884768      -0.0848602064702    0.0773093607963     0.0670112866175     
2100000000.0        0.0780080671482     0.0702972114218     0.921793591459      -0.0890393253342    0.921793591459      -0.0890393253342    0.0780080671482     0.0702972114218     
2200000000.0        0.0787339653887     0.0735748294945     0.921049284689      -0.0932102368787    0.921049284689      -0.0932102368787    0.0787339653887     0.0735748294945     
2300000000.0        0.0794871260171     0.0768438214955     0.920276893529      -0.0973726252569    0.920276893529      -0.0973726252569    0.0794871260171     0.0768438214955     
2400000000.0        0.0802675926829     0.0801038683837     0.919476373887      -0.10152617488      0.919476373887      -0.10152617488      0.0802675926829     0.0801038683837     
2500000000.0        0.0810753854256     0.0833546517556     0.918647705268      -0.105670570756     0.918647705268      -0.105670570756     0.0810753854256     0.0833546517556     
2600000000.0        0.0819105033443     0.0865958541467     0.917790888102      -0.109805498798     0.917790888102      -0.109805498798     0.0819105033443     0.0865958541467     
2700000000.0        0.0827729268184     0.0898271593022     0.91690594153       -0.113930646089     0.91690594153       -0.113930646089     0.0827729268184     0.0898271593022     
2800000000.0        0.0836626193687     0.0930482524219     0.915992901535      -0.118045701135     0.915992901535      -0.118045701135     0.0836626193687     0.0930482524219     
2900000000.0        0.084579529232      0.0962588203837     0.915051819372      -0.122150354087     0.915051819372      -0.122150354087     0.084579529232      0.0962588203837     
3000000000.0        0.0855235907028     0.0994585519479     0.914082760225      -0.126244296946     0.914082760225      -0.126244296946     0.0855235907028     0.0994585519479     
3100000000.0        0.0864947252849     0.102647137946      0.913085802057      -0.130327223755     0.913085802057      -0.130327223755     0.0864947252849     0.102647137946      
3200000000.0        0.087492842687      0.105824271453      0.912061034613      -0.134398830772     0.912061034613      -0.134398830772     0.087492842687      0.105824271453      
3300000000.0        0.0885178416896     0.108989647952      0.911008558551      -0.138458816634     0.911008558551      -0.138458816634     0.0885178416896     0.108989647952      
3400000000.0        0.0895696109049     0.112142965486      0.909928484689      -0.142506882508     0.909928484689      -0.142506882508     0.0895696109049     0.112142965486      
3500000000.0        0.0906480294467     0.115283924794      0.908820933326      -0.146542732238     0.908820933326      -0.146542732238     0.0906480294467     0.115283924794      
3600000000.0        0.091752967525      0.118412229448      0.907686033655      -0.15056607247      0.907686033655      -0.15056607247      0.091752967525      0.118412229448      
3700000000.0        0.0928842869774     0.121527585979      0.906523923228      -0.154576612785     0.906523923228      -0.154576612785     0.0928842869774     0.121527585979      
3800000000.0        0.0940418417463     0.124629703989      0.905334747481      -0.158574065814     0.905334747481      -0.158574065814     0.0940418417463     0.124629703989      
3900000000.0        0.0952254783096     0.127718296265      0.9041186593        -0.16255814735      0.9041186593        -0.16255814735      0.0952254783096     0.127718296265      
4000000000.0        0.096435036073      0.130793078886      0.902875818631      -0.166528576452     0.902875818631      -0.166528576452     0.096435036073      0.130793078886      
4100000000.0        0.0976703477278     0.133853771319      0.901606392124      -0.170485075547     0.901606392124      -0.170485075547     0.0976703477278     0.133853771319      
4200000000.0        0.0989312395797     0.136900096511      0.900310552799      -0.174427370523     0.900310552799      -0.174427370523     0.0989312395797     0.136900096511      
4300000000.0        0.100217531852      0.139931780982      0.898988479749      -0.17835519082      0.898988479749      -0.17835519082      0.100217531852      0.139931780982      
4400000000.0        0.101529038969      0.142948554907      0.897640357853      -0.182268269512     0.897640357853      -0.182268269512     0.101529038969      0.142948554907      
4500000000.0        0.102865569814      0.145950152197      0.896266377516      -0.186166343388     0.896266377516      -0.186166343388     0.102865569814      0.145950152197      
4600000000.0        0.104226927983      0.148936310571      0.894866734424      -0.190049153029     0.894866734424      -0.190049153029     0.104226927983      0.148936310571      
4700000000.0        0.105612912008      0.151906771631      0.893441629309      -0.19391644288      0.893441629309      -0.19391644288      0.105612912008      0.151906771631      
4800000000.0        0.107023315579      0.154861280927      0.891991267736      -0.197767961315     0.891991267736      -0.197767961315     0.107023315579      0.154861280927      
4900000000.0        0.108457927751      0.157799588022      0.890515859892      -0.201603460706     0.890515859892      -0.201603460706     0.108457927751      0.157799588022      
5000000000.0        0.109916533142      0.160721446552      0.889015620389      -0.205422697477     0.889015620389      -0.205422697477     0.109916533142      0.160721446552      
5100000000.0        0.111398912117      0.163626614282      0.88749076808       -0.209225432168     0.88749076808       -0.209225432168     0.111398912117      0.163626614282      
5200000000.0        0.112904840972      0.166514853159      0.885941525875      -0.213011429483     0.885941525875      -0.213011429483     0.112904840972      0.166514853159      
5300000000.0        0.114434092106      0.169385929364      0.884368120569      -0.216780458344     0.884368120569      -0.216780458344     0.114434092106      0.169385929364      
5400000000.0        0.115986434186      0.172239613356      0.88277078268       -0.220532291935     0.88277078268       -0.220532291935     0.115986434186      0.172239613356      
5500000000.0        0.117561632307      0.175075679916      0.881149746279      -0.224266707748     0.881149746279      -0.224266707748     0.117561632307      0.175075679916      
5600000000.0        0.119159448151      0.177893908189      0.879505248845      -0.227983487625     0.879505248845      -0.227983487625     0.119159448151      0.177893908189      
5700000000.0        0.120779640135      0.180694081721      0.877837531107      -0.231682417792     0.877837531107      -0.231682417792     0.120779640135      0.180694081721      
5800000000.0        0.122421963559      0.183475988494      0.876146836901      -0.235363288899     0.876146836901      -0.235363288899     0.122421963559      0.183475988494      
5900000000.0        0.124086170747      0.186239420955      0.874433413027      -0.239025896046     0.874433413027      -0.239025896046     0.124086170747      0.186239420955      
6000000000.0        0.125772011184      0.188984176051      0.872697509107      -0.242670038817     0.872697509107      -0.242670038817     0.125772011184      0.188984176051      
6100000000.0        0.127479231659      0.191710055248      0.870939377458      -0.246295521308     0.870939377458      -0.246295521308     0.127479231659      0.191710055248      
6200000000.0        0.129207576387      0.19441686456       0.869159272947      -0.249902152144     0.869159272947      -0.249902152144     0.129207576387      0.19441686456       
6300000000.0        0.130956787147      0.197104414568      0.867357452875      -0.253489744507     0.867357452875      -0.253489744507     0.130956787147      0.197104414568      
6400000000.0        0.132726603406      0.199772520438      0.86553417684       -0.257058116151     0.86553417684       -0.257058116151     0.132726603406      0.199772520438      
6500000000.0        0.13451676244       0.20242100194       0.863689706616      -0.260607089419     0.863689706616      -0.260607089419     0.13451676244       0.20242100194       
6600000000.0        0.136326999462      0.205049683454      0.861824306036      -0.264136491258     0.861824306036      -0.264136491258     0.136326999462      0.205049683454      
6700000000.0        0.138157047735      0.20765839399       0.859938240863      -0.267646153228     0.859938240863      -0.267646153228     0.138157047735      0.20765839399       
6800000000.0        0.140006638695      0.210246967191      0.858031778681      -0.271135911512     0.858031778681      -0.271135911512     0.140006638695      0.210246967191      
6900000000.0        0.141875502063      0.21281524134       0.856105188775      -0.274605606923     0.856105188775      -0.274605606923     0.141875502063      0.21281524134       
7000000000.0        0.143763365959      0.215363059366      0.854158742022      -0.278055084905     0.854158742022      -0.278055084905     0.143763365959      0.215363059366      
7100000000.0        0.145669957015      0.217890268842      0.852192710773      -0.28148419554      0.852192710773      -0.28148419554      0.145669957015      0.217890268842      
7200000000.0        0.14759500048       0.220396721988      0.850207368749      -0.284892793544     0.850207368749      -0.284892793544     0.14759500048       0.220396721988      
7300000000.0        0.149538220335      0.222882275667      0.848202990934      -0.288280738264     0.848202990934      -0.288280738264     0.149538220335      0.222882275667      
7400000000.0        0.151499339391      0.225346791379      0.846179853463      -0.291647893677     0.846179853463      -0.291647893677     0.151499339391      0.225346791379      
7500000000.0        0.153478079399      0.227790135257      0.844138233525      -0.294994128379     0.844138233525      -0.294994128379     0.153478079399      0.227790135257      
7600000000.0        0.155474161148      0.230212178055      0.842078409257      -0.298319315581     0.842078409257      -0.298319315581     0.155474161148      0.230212178055      
7700000000.0        0.15748730457       0.232612795138      0.84000065964       -0.301623333092     0.84000065964       -0.301623333092     0.15748730457       0.232612795138      
7800000000.0        0.159517228836      0.23499186647       0.837905264409      -0.304906063313     0.837905264409      -0.304906063313     0.159517228836      0.23499186647       
7900000000.0        0.161563652455      0.2373492766        0.835792503946      -0.308167393218     0.835792503946      -0.308167393218     0.161563652455      0.2373492766        
8000000000.0        0.163626293369      0.239684914643      0.83366265919       -0.31140721434      0.83366265919       -0.31140721434      0.163626293369      0.239684914643      
8100000000.0        0.165704869048      0.241998674263      0.831516011541      -0.314625422751     0.831516011541      -0.314625422751     0.165704869048      0.241998674263      
8200000000.0        0.167799096581      0.244290453652      0.829352842767      -0.317821919043     0.829352842767      -0.317821919043     0.167799096581      0.244290453652      
8300000000.0        0.169908692768      0.24656015551       0.827173434915      -0.320996608305     0.827173434915      -0.320996608305     0.169908692768      0.24656015551       
8400000000.0        0.172033374211      0.248807687021      0.824978070219      -0.324149400103     0.824978070219      -0.324149400103     0.172033374211      0.248807687021      
8500000000.0        0.174172857398      0.251032959825      0.822767031013      -0.327280208452     0.822767031013      -0.327280208452     0.174172857398      0.251032959825      
8600000000.0        0.176326858794      0.253235889995      0.820540599646      -0.330388951789     0.820540599646      -0.330388951789     0.176326858794      0.253235889995      
8700000000.0        0.178495094922      0.255416398008      0.818299058397      -0.333475552948     0.818299058397      -0.333475552948     0.178495094922      0.255416398008      
8800000000.0        0.180677282444      0.257574408713      0.816042689391      -0.336539939127     0.816042689391      -0.336539939127     0.180677282444      0.257574408713      
8900000000.0        0.182873138251      0.259709851301      0.813771774517      -0.339582041859     0.813771774517      -0.339582041859     0.182873138251      0.259709851301      
9000000000.0        0.185082379534      0.261822659276      0.811486595351      -0.34260179698      0.811486595351      -0.34260179698      0.185082379534      0.261822659276      
9100000000.0        0.187304723866      0.263912770416      0.809187433075      -0.345599144594     0.809187433075      -0.345599144594     0.187304723866      0.263912770416      
9200000000.0        0.189539889279      0.265980126738      0.806874568403      -0.348574029039     0.806874568403      -0.348574029039     0.189539889279      0.265980126738      
9300000000.0        0.191787594339      0.268024674467      0.804548281501      -0.351526398848     0.804548281501      -0.351526398848     0.191787594339      0.268024674467      
9400000000.0        0.194047558217      0.270046363992      0.802208851918      -0.354456206716     0.802208851918      -0.354456206716     0.194047558217      0.270046363992      
9500000000.0        0.196319500765      0.272045149833      0.799856558514      -0.357363409458     0.799856558514      -0.357363409458     0.196319500765      0.272045149833      
9600000000.0        0.198603142585      0.274020990594      0.797491679386      -0.360247967969     0.797491679386      -0.360247967969     0.198603142585      0.274020990594      
9700000000.0        0.200898205094      0.275973848929      0.795114491804      -0.363109847187     0.795114491804      -0.363109847187     0.200898205094      0.275973848929      
9800000000.0        0.203204410598      0.277903691497      0.792725272138      -0.365949016045     0.792725272138      -0.365949016045     0.203204410598      0.277903691497      
9900000000.0        0.205521482352      0.279810488918      0.790324295798      -0.368765447435     0.790324295798      -0.368765447435     0.205521482352      0.279810488918      
10000000000.0       0.207849144627      0.28169421573       0.787911837167      -0.371559118157     0.787911837167      -0.371559118157     0.207849144627      0.28169421573       
