# Hz S RI R 50.00 
100000000.0         0.0165297021152     0.00163940993849    0.98346884123       -0.00204886392306   0.98346884123       -0.00204886392306   0.0165297021152     0.00163940993849    
200000000.0         0.0166470765811     0.00327798333401    0.983350841497      -0.00409689516731   0.983350841497      -0.00409689516731   0.0166470765811     0.00327798333401    
300000000.0         0.0167422105389     0.00491601325682    0.983254913637      -0.00614438904951   0.983254913637      -0.00614438904951   0.0167422105389     0.00491601325682    
400000000.0         0.0168292928751     0.00655357907834    0.983166868743      -0.00819142672165   0.983166868743      -0.00819142672165   0.0168292928751     0.00655357907834    
500000000.0         0.0169137989988     0.00819071035337    0.983081231384      -0.0102380392837    0.983081231384      -0.0102380392837    0.0169137989988     0.00819071035337    
600000000.0         0.0169985263073     0.00982741454504    0.982995204141      -0.0122842355896    0.982995204141      -0.0122842355896    0.0169985263073     0.00982741454504    
700000000.0         0.0170851298621     0.0114636869941     0.982907131929      -0.0143300122578    0.982907131929      -0.0143300122578    0.0170851298621     0.0114636869941     
800000000.0         0.0171746833275     0.0130995155472     0.982815941057      -0.0163753583241    0.982815941057      -0.0163753583241    0.0171746833275     0.0130995155472     
900000000.0         0.0172679289273     0.0147348830456     0.982720889277      -0.0184202577469    0.982720889277      -0.0184202577469    0.0172679289273     0.0147348830456     
1000000000.0        0.0173654042417     0.0163697687993     0.982621438979      -0.0204646908928    0.982621438979      -0.0204646908928    0.0173654042417     0.0163697687993     
1100000000.0        0.0174675127443     0.0180041495248     0.982517186661      -0.0225086354826    0.982517186661      -0.0225086354826    0.0174675127443     0.0180041495248     
1200000000.0        0.0175745658663     0.0196379999736     0.982407820862      -0.0245520672262    0.982407820862      -0.0245520672262    0.0175745658663     0.0196379999736     
1300000000.0        0.0176868094801     0.0212712933712     0.982293095677      -0.0265949602673    0.982293095677      -0.0265949602673    0.0176868094801     0.0212712933712     
1400000000.0        0.0178044413191     0.0229040017353     0.982172813342      -0.0286372875049    0.982172813342      -0.0286372875049    0.0178044413191     0.0229040017353     
1500000000.0        0.017927622858      0.0245360961117     0.982046812346      -0.0306790208333    0.982046812346      -0.0306790208333    0.017927622858      0.0245360961117     
1600000000.0        0.0180564876618     0.0261675467547     0.98191495909       -0.0327201313245    0.98191495909       -0.0327201313245    0.0180564876618     0.0261675467547     
1700000000.0        0.0181911474073     0.0277983232667     0.981777141861      -0.0347605893712    0.981777141861      -0.0347605893712    0.0181911474073     0.0277983232667     
1800000000.0        0.0183316963229     0.0294283947092     0.981633266393      -0.0368003647987    0.981633266393      -0.0368003647987    0.0183316963229     0.0294283947092     
1900000000.0        0.0184782145262     0.0310577296915     0.98148325253       -0.0388394269563    0.98148325253       -0.0388394269563    0.0184782145262     0.0310577296915     
2000000000.0        0.0186307705762     0.0326862964432     0.981327031675      -0.0408777447909    0.981327031675      -0.0408777447909    0.0186307705762     0.0326862964432     
2100000000.0        0.0187894234537     0.0343140628741     0.981164544805      -0.0429152869082    0.981164544805      -0.0429152869082    0.0187894234537     0.0343140628741     
2200000000.0        0.0189542241206     0.0359409966239     0.980995740917      -0.0449520216238    0.980995740917      -0.0449520216238    0.0189542241206     0.0359409966239     
2300000000.0        0.0191252167599     0.0375670651041     0.980820575786      -0.0469879170061    0.980820575786      -0.0469879170061    0.0191252167599     0.0375670651041     
2400000000.0        0.0193024397757     0.0391922355338     0.980639010965      -0.0490229409129    0.980639010965      -0.0490229409129    0.0193024397757     0.0391922355338     
2500000000.0        0.0194859266046     0.0408164749703     0.980451012973      -0.0510570610234    0.980451012973      -0.0510570610234    0.0194859266046     0.0408164749703     
2600000000.0        0.0196757063829     0.0424397503357     0.980256552628      -0.0530902448645    0.980256552628      -0.0530902448645    0.0196757063829     0.0424397503357     
2700000000.0        0.0198718044973     0.0440620284393     0.980055604497      -0.0551224598353    0.980055604497      -0.0551224598353    0.0198718044973     0.0440620284393     
2800000000.0        0.0200742430449     0.0456832759987     0.979848146438      -0.0571536732276    0.979848146438      -0.0571536732276    0.0200742430449     0.0456832759987     
2900000000.0        0.0202830412188     0.0473034596567     0.979634159208      -0.0591838522446    0.979634159208      -0.0591838522446    0.0202830412188     0.0473034596567     
3000000000.0        0.0204982156343     0.0489225459977     0.979413626144      -0.0612129640166    0.979413626144      -0.0612129640166    0.0204982156343     0.0489225459977     
3100000000.0        0.0207197806059     0.0505405015617     0.979186532883      -0.0632409756163    0.979186532883      -0.0632409756163    0.0207197806059     0.0505405015617     
3200000000.0        0.0209477483843     0.0521572928566     0.978952867124      -0.0652678540717    0.978952867124      -0.0652678540717    0.0209477483843     0.0521572928566     
3300000000.0        0.0211821293604     0.0537728863701     0.978712618424      -0.0672935663778    0.978712618424      -0.0672935663778    0.0211821293604     0.0537728863701     
3400000000.0        0.0214229322408     0.0553872485797     0.978465778027      -0.0693180795075    0.978465778027      -0.0693180795075    0.0214229322408     0.0553872485797     
3500000000.0        0.0216701642005     0.0570003459622     0.978212338703      -0.0713413604212    0.978212338703      -0.0713413604212    0.0216701642005     0.0570003459622     
3600000000.0        0.0219238310165     0.0586121450024     0.977952294625      -0.0733633760762    0.977952294625      -0.0733633760762    0.0219238310165     0.0586121450024     
3700000000.0        0.0221839371837     0.060222612201      0.977685641242      -0.0753840934344    0.977685641242      -0.0753840934344    0.0221839371837     0.060222612201      
3800000000.0        0.0224504860177     0.0618317140815     0.977412375185      -0.0774034794704    0.977412375185      -0.0774034794704    0.0224504860177     0.0618317140815     
3900000000.0        0.0227234797449     0.0634394171977     0.977132494173      -0.079421501178     0.977132494173      -0.079421501178     0.0227234797449     0.0634394171977     
4000000000.0        0.0230029195824     0.065045688139      0.976845996933      -0.0814381255774    0.976845996933      -0.0814381255774    0.0230029195824     0.065045688139      
4100000000.0        0.0232888058091     0.0666504935373     0.97655288313       -0.0834533197205    0.97655288313       -0.0834533197205    0.0232888058091     0.0666504935373     
4200000000.0        0.023581137829      0.0682538000714     0.976253153302      -0.0854670506975    0.976253153302      -0.0854670506975    0.023581137829      0.0682538000714     
4300000000.0        0.0238799142275     0.0698555744728     0.975946808808      -0.0874792856414    0.975946808808      -0.0874792856414    0.0238799142275     0.0698555744728     
4400000000.0        0.0241851328225     0.0714557835303     0.975633851771      -0.0894899917336    0.975633851771      -0.0894899917336    0.0241851328225     0.0714557835303     
4500000000.0        0.0244967907095     0.0730543940946     0.975314285036      -0.0914991362082    0.975314285036      -0.0914991362082    0.0244967907095     0.0730543940946     
4600000000.0        0.0248148843033     0.0746513730822     0.974988112131      -0.0935066863572    0.974988112131      -0.0935066863572    0.0248148843033     0.0746513730822     
4700000000.0        0.0251394093746     0.07624668748       0.974655337224      -0.0955126095338    0.974655337224      -0.0955126095338    0.0251394093746     0.07624668748       
4800000000.0        0.025470361084      0.0778403043488     0.974315965095      -0.0975168731571    0.974315965095      -0.0975168731571    0.025470361084      0.0778403043488     
4900000000.0        0.0258077340123     0.0794321908272     0.973970001101      -0.0995194447158    0.973970001101      -0.0995194447158    0.0258077340123     0.0794321908272     
5000000000.0        0.026151522189      0.0810223141347     0.973617451154      -0.101520291772     0.973617451154      -0.101520291772     0.026151522189      0.0810223141347     
5100000000.0        0.0265017191171     0.0826106415756     0.973258321687      -0.103519381964     0.973258321687      -0.103519381964     0.0265017191171     0.0826106415756     
5200000000.0        0.0268583177964     0.0841971405417     0.972892619638      -0.10551668301      0.972892619638      -0.10551668301      0.0268583177964     0.0841971405417     
5300000000.0        0.0272213107456     0.0857817785155     0.972520352426      -0.107512162714     0.972520352426      -0.107512162714     0.0272213107456     0.0857817785155     
5400000000.0        0.027590690021      0.0873645230735     0.972141527932      -0.109505788962     0.972141527932      -0.109505788962     0.027590690021      0.0873645230735     
5500000000.0        0.0279664472352     0.0889453418885     0.971756154479      -0.111497529733     0.971756154479      -0.111497529733     0.0279664472352     0.0889453418885     
5600000000.0        0.0283485735737     0.0905242027326     0.971364240818      -0.113487353097     0.971364240818      -0.113487353097     0.0283485735737     0.0905242027326     
5700000000.0        0.0287370598101     0.09210107348       0.970965796111      -0.115475227219     0.970965796111      -0.115475227219     0.0287370598101     0.09210107348       
5800000000.0        0.0291318963206     0.0936759221092     0.970560829917      -0.117461120361     0.970560829917      -0.117461120361     0.0291318963206     0.0936759221092     
5900000000.0        0.0295330730975     0.0952487167057     0.970149352177      -0.119445000887     0.970149352177      -0.119445000887     0.0295330730975     0.0952487167057     
6000000000.0        0.0299405797612     0.0968194254643     0.969731373206      -0.121426837263     0.969731373206      -0.121426837263     0.0299405797612     0.0968194254643     
6100000000.0        0.030354405572      0.0983880166916     0.969306903678      -0.123406598058     0.969306903678      -0.123406598058     0.030354405572      0.0983880166916     
6200000000.0        0.0307745394406     0.0999544588077     0.968875954615      -0.125384251953     0.968875954615      -0.125384251953     0.0307745394406     0.0999544588077     
6300000000.0        0.0312009699386     0.101518720349      0.968438537379      -0.127359767735     0.968438537379      -0.127359767735     0.0312009699386     0.101518720349      
6400000000.0        0.0316336853078     0.103080769971      0.967994663661      -0.129333114305     0.967994663661      -0.129333114305     0.0316336853078     0.103080769971      
6500000000.0        0.0320726734689     0.104640576447      0.967544345472      -0.131304260676     0.967544345472      -0.131304260676     0.0320726734689     0.104640576447      
6600000000.0        0.03251792203       0.106198108675      0.967087595138      -0.133273175981     0.967087595138      -0.133273175981     0.03251792203       0.106198108675      
6700000000.0        0.0329694182948     0.107753335676      0.966624425285      -0.135239829469     0.966624425285      -0.135239829469     0.0329694182948     0.107753335676      
6800000000.0        0.0334271492694     0.109306226598      0.966154848839      -0.137204190509     0.966154848839      -0.137204190509     0.0334271492694     0.109306226598      
6900000000.0        0.03389110167       0.110856750716      0.965678879016      -0.139166228593     0.965678879016      -0.139166228593     0.03389110167       0.110856750716      
7000000000.0        0.0343612619291     0.112404877435      0.965196529313      -0.141125913337     0.965196529313      -0.141125913337     0.0343612619291     0.112404877435      
7100000000.0        0.0348376162023     0.113950576292      0.964707813506      -0.143083214485     0.964707813506      -0.143083214485     0.0348376162023     0.113950576292      
7200000000.0        0.035320150374      0.115493816958      0.964212745641      -0.145038101905     0.964212745641      -0.145038101905     0.035320150374      0.115493816958      
7300000000.0        0.035808850063      0.117034569236      0.963711340028      -0.146990545597     0.963711340028      -0.146990545597     0.035808850063      0.117034569236      
7400000000.0        0.0363037006287     0.11857280307       0.963203611239      -0.148940515694     0.963203611239      -0.148940515694     0.0363037006287     0.11857280307       
7500000000.0        0.0368046871755     0.120108488538      0.962689574098      -0.150887982458     0.962689574098      -0.150887982458     0.0368046871755     0.120108488538      
7600000000.0        0.0373117945583     0.12164159586       0.96216924368       -0.152832916289     0.96216924368       -0.152832916289     0.0373117945583     0.12164159586       
7700000000.0        0.0378250073874     0.123172095399      0.961642635303      -0.154775287723     0.961642635303      -0.154775287723     0.0378250073874     0.123172095399      
7800000000.0        0.0383443100326     0.124699957657      0.961109764527      -0.156715067431     0.961109764527      -0.156715067431     0.0383443100326     0.124699957657      
7900000000.0        0.0388696866282     0.126225153283      0.960570647145      -0.158652226227     0.960570647145      -0.158652226227     0.0388696866282     0.126225153283      
8000000000.0        0.039401121077      0.127747653072      0.960025299184      -0.160586735065     0.960025299184      -0.160586735065     0.039401121077      0.127747653072      
8100000000.0        0.0399385970546     0.129267427965      0.959473736896      -0.162518565039     0.959473736896      -0.162518565039     0.0399385970546     0.129267427965      
8200000000.0        0.0404820980129     0.130784449052      0.958915976757      -0.16444768739      0.958915976757      -0.16444768739      0.0404820980129     0.130784449052      
8300000000.0        0.0410316071846     0.132298687572      0.958352035462      -0.166374073504     0.958352035462      -0.166374073504     0.0410316071846     0.132298687572      
8400000000.0        0.0415871075867     0.133810114919      0.957781929922      -0.168297694911     0.957781929922      -0.168297694911     0.0415871075867     0.133810114919      
8500000000.0        0.0421485820237     0.135318702635      0.95720567726       -0.170218523292     0.95720567726       -0.170218523292     0.0421485820237     0.135318702635      
8600000000.0        0.0427160130918     0.136824422418      0.956623294806      -0.172136530476     0.956623294806      -0.172136530476     0.0427160130918     0.136824422418      
8700000000.0        0.0432893831818     0.138327246121      0.956034800097      -0.174051688442     0.956034800097      -0.174051688442     0.0432893831818     0.138327246121      
8800000000.0        0.0438686744825     0.139827145755      0.955440210871      -0.175963969323     0.955440210871      -0.175963969323     0.0438686744825     0.139827145755      
8900000000.0        0.0444538689842     0.141324093486      0.954839545065      -0.177873345404     0.954839545065      -0.177873345404     0.0444538689842     0.141324093486      
9000000000.0        0.0450449484816     0.142818061639      0.954232820811      -0.179779789124     0.954232820811      -0.179779789124     0.0450449484816     0.142818061639      
9100000000.0        0.0456418945769     0.1443090227        0.953620056432      -0.181683273077     0.953620056432      -0.181683273077     0.0456418945769     0.1443090227        
9200000000.0        0.0462446886826     0.145796949316      0.953001270443      -0.183583770017     0.953001270443      -0.183583770017     0.0462446886826     0.145796949316      
9300000000.0        0.0468533120252     0.147281814296      0.952376481543      -0.185481252853     0.952376481543      -0.185481252853     0.0468533120252     0.147281814296      
9400000000.0        0.047467745647      0.148763590612      0.951745708617      -0.187375694654     0.951745708617      -0.187375694654     0.047467745647      0.148763590612      
9500000000.0        0.0480879704098     0.150242251399      0.951108970728      -0.189267068648     0.951108970728      -0.189267068648     0.0480879704098     0.150242251399      
9600000000.0        0.0487139669971     0.15171776996       0.950466287119      -0.191155348227     0.950466287119      -0.191155348227     0.0487139669971     0.15171776996       
9700000000.0        0.0493457159173     0.153190119761      0.949817677208      -0.193040506942     0.949817677208      -0.193040506942     0.0493457159173     0.153190119761      
9800000000.0        0.0499831975058     0.154659274439      0.949163160585      -0.19492251851      0.949163160585      -0.19492251851      0.0499831975058     0.154659274439      
9900000000.0        0.0506263919282     0.156125207796      0.948502757009      -0.19680135681      0.948502757009      -0.19680135681      0.0506263919282     0.156125207796      
10000000000.0       0.0512752791823     0.157587893804      0.947836486409      -0.198676995889     0.947836486409      -0.198676995889     0.0512752791823     0.157587893804      
