# Hz S RI R 50.00 
100000000.0         -0.000160976445744  -0.0157932075741    0.999590958611      -0.0169675598262    0.999590958611      -0.0169675598262    -0.000160976445744  -0.0157932075741    
200000000.0         -0.000979602213387  -0.0315604246271    0.998768578871      -0.0339092855184    0.998768578871      -0.0339092855184    -0.000979602213387  -0.0315604246271    
300000000.0         -0.00233131949885   -0.0472762788613    0.99741215226       -0.0507998977622    0.99741215226       -0.0507998977622    -0.00233131949885   -0.0472762788613    
400000000.0         -0.00421199173667   -0.0629155105717    0.995525600903      -0.0676142119379    0.995525600903      -0.0676142119379    -0.00421199173667   -0.0629155105717    
500000000.0         -0.00661596054464   -0.0784531663889    0.993114499832      -0.0843273408886    0.993114499832      -0.0843273408886    -0.00661596054464   -0.0784531663889    
600000000.0         -0.00953603434018   -0.0938647471815    0.990185997232      -0.100914845864     0.990185997232      -0.100914845864     -0.00953603434018   -0.0938647471815    
700000000.0         -0.012963524589     -0.109126339923     0.98674875508       -0.117352869929     0.98674875508       -0.117352869929     -0.012963524589     -0.109126339923     
800000000.0         -0.0168883014262    -0.124214738799     0.982812885112      -0.13361825999      0.982812885112      -0.13361825999      -0.0168883014262    -0.124214738799     
900000000.0         -0.0212988623841    -0.139107556713     0.978389876365      -0.149688678916     0.978389876365      -0.149688678916     -0.0212988623841    -0.139107556713     
1000000000.0        -0.0261824116204    -0.153783327169     0.973492514064      -0.16554270785      0.973492514064      -0.16554270785      -0.0261824116204    -0.153783327169     
1100000000.0        -0.0315249479338    -0.168221596186     0.96813479056       -0.181159938448     0.96813479056       -0.181159938448     -0.0315249479338    -0.168221596186     
1200000000.0        -0.0373113601161    -0.182403003803     0.962331809363      -0.196521054638     0.962331809363      -0.196521054638     -0.0373113601161    -0.182403003803     
1300000000.0        -0.0435255282665    -0.196309354814     0.956099683443      -0.211607903548     0.956099683443      -0.211607903548     -0.0435255282665    -0.196309354814     
1400000000.0        -0.0501504297254    -0.209923678436     0.949455429039      -0.226403555339     0.949455429039      -0.226403555339     -0.0501504297254    -0.209923678436     
1500000000.0        -0.0571682483073    -0.223230276786     0.942416856264      -0.240892351819     0.942416856264      -0.240892351819     -0.0571682483073    -0.223230276786     
1600000000.0        -0.0645604855426    -0.236214762145     0.935002457737      -0.255059943827     0.935002457737      -0.255059943827     -0.0645604855426    -0.236214762145     
1700000000.0        -0.0723080726809    -0.248864083166     0.927231296501      -0.268893317531     0.927231296501      -0.268893317531     -0.0723080726809    -0.248864083166     
1800000000.0        -0.0803914822729    -0.261166540263     0.919122894379      -0.282380809911     0.919122894379      -0.282380809911     -0.0803914822729    -0.261166540263     
1900000000.0        -0.0887908382159    -0.273111790606     0.91069712188       -0.295512113829     0.91069712188       -0.295512113829     -0.0887908382159    -0.273111790606     
2000000000.0        -0.0974860232426    -0.284690843207     0.901974090681      -0.308278273182     0.901974090681      -0.308278273182     -0.0974860232426    -0.284690843207     
2100000000.0        -0.106456782924     -0.2958960447       0.892974049594      -0.320671668747     0.892974049594      -0.320671668747     -0.106456782924     -0.2958960447       
2200000000.0        -0.11568282537      -0.306721056513     0.883717284848      -0.332685995401     0.883717284848      -0.332685995401     -0.11568282537      -0.306721056513     
2300000000.0        -0.125143915916     -0.317160824149     0.874224025384      -0.34431623146      0.874224025384      -0.34431623146      -0.125143915916     -0.317160824149     
2400000000.0        -0.134819966206     -0.327211539399     0.864514353763      -0.355558600933     0.864514353763      -0.355558600933     -0.134819966206     -0.327211539399     
2500000000.0        -0.144691117188     -0.336870596289     0.854608123158      -0.366410529516     0.854608123158      -0.366410529516     -0.144691117188     -0.336870596289     
2600000000.0        -0.154737815664     -0.346136541612     0.844524880798      -0.376870595157     0.844524880798      -0.376870595157     -0.154737815664     -0.346136541612     
2700000000.0        -0.164940884122     -0.355009020881     0.834283798126      -0.386938474049     0.834283798126      -0.386938474049     -0.164940884122     -0.355009020881     
2800000000.0        -0.175281583719     -0.363488720521     0.823903607817      -0.396614882856     0.823903607817      -0.396614882856     -0.175281583719     -0.363488720521     
2900000000.0        -0.185741670322     -0.371577307124     0.813402547725      -0.405901517996     0.813402547725      -0.405901517996     -0.185741670322     -0.371577307124     
3000000000.0        -0.196303443679     -0.379277364511     0.802798311715      -0.414800992739     0.802798311715      -0.414800992739     -0.196303443679     -0.379277364511     
3100000000.0        -0.20694978978      -0.386592329346     0.792108007293      -0.423316772841     0.792108007293      -0.423316772841     -0.20694978978      -0.386592329346     
3200000000.0        -0.217664216631     -0.393526425975     0.781348119835      -0.43145311141      0.781348119835      -0.43145311141      -0.217664216631     -0.393526425975     
3300000000.0        -0.228430883637     -0.400084601102     0.770534483197      -0.439214983613     0.770534483197      -0.439214983613     -0.228430883637     -0.400084601102     
3400000000.0        -0.239234624905     -0.406272458893     0.759682256411      -0.446608021797     0.759682256411      -0.446608021797     -0.239234624905     -0.406272458893     
3500000000.0        -0.25006096679      -0.412096196989     0.74880590614       -0.453638451522     0.74880590614       -0.453638451522     -0.25006096679      -0.412096196989     
3600000000.0        -0.260896140028     -0.417562543894     0.73791919454       -0.460313028977     0.73791919454       -0.460313028977     -0.260896140028     -0.417562543894     
3700000000.0        -0.271727086852     -0.422678698117     0.727035172143      -0.466638980134     0.727035172143      -0.466638980134     -0.271727086852     -0.422678698117     
3800000000.0        -0.282541463479     -0.427452269401     0.716166175369      -0.472623942002     0.716166175369      -0.472623942002     -0.282541463479     -0.427452269401     
3900000000.0        -0.293327638373     -0.431891222311     0.705323828261      -0.478275906226     0.705323828261      -0.478275906226     -0.293327638373     -0.431891222311     
4000000000.0        -0.304074686691     -0.436003822401     0.694519048041      -0.483603165274     0.694519048041      -0.483603165274     -0.304074686691     -0.436003822401     
4100000000.0        -0.314772381311     -0.439798585132     0.683762054074      -0.488614261374     0.683762054074      -0.488614261374     -0.314772381311     -0.439798585132     
4200000000.0        -0.325411180834     -0.443284227667     0.673062379872      -0.493317938318     0.673062379872      -0.493317938318     -0.325411180834     -0.443284227667     
4300000000.0        -0.335982214946     -0.446469623621     0.662428887724      -0.497723096231     0.662428887724      -0.497723096231     -0.335982214946     -0.446469623621     
4400000000.0        -0.346477267499     -0.449363760814     0.651869785618      -0.501838749336     0.651869785618      -0.501838749336     -0.346477267499     -0.449363760814     
4500000000.0        -0.35688875766      -0.451975702036     0.641392646091      -0.505673986732     0.641392646091      -0.505673986732     -0.35688875766      -0.451975702036     
4600000000.0        -0.367209719447     -0.454314548807     0.63100442669       -0.50923793617      0.63100442669       -0.50923793617      -0.367209719447     -0.454314548807     
4700000000.0        -0.377433779969     -0.456389408082     0.620711491728      -0.512539730764     0.620711491728      -0.512539730764     -0.377433779969     -0.456389408082     
4800000000.0        -0.387555136641     -0.458209361843     0.610519635075      -0.515588478601     0.610519635075      -0.515588478601     -0.387555136641     -0.458209361843     
4900000000.0        -0.39756853363      -0.45978343948      0.600434103703      -0.518393235127     0.600434103703      -0.518393235127     -0.39756853363      -0.45978343948      
5000000000.0        -0.407469237781     -0.461120592871     0.590459621763      -0.520962978244     0.590459621763      -0.520962978244     -0.407469237781     -0.461120592871     
5100000000.0        -0.417253014222     -0.462229674044     0.580600414977      -0.523306585975     0.580600414977      -0.523306585975     -0.417253014222     -0.462229674044     
5200000000.0        -0.426916101845     -0.463119415297     0.570860235155      -0.525432816604     0.570860235155      -0.525432816604     -0.426916101845     -0.463119415297     
5300000000.0        -0.436455188833     -0.463798411658     0.561242384671      -0.527350291132     0.561242384671      -0.527350291132     -0.436455188833     -0.463798411658     
5400000000.0        -0.445867388378     -0.464275105534     0.551749740736      -0.529067477949     0.551749740736      -0.529067477949     -0.445867388378     -0.464275105534     
5500000000.0        -0.455150214721     -0.46455777343      0.542384779361      -0.530592679552     0.542384779361      -0.530592679552     -0.455150214721     -0.46455777343      
5600000000.0        -0.464301559636     -0.464654514601     0.533149598872      -0.531934021208     0.533149598872      -0.531934021208     -0.464301559636     -0.464654514601     
5700000000.0        -0.473319669428     -0.464573241484     0.524045942908      -0.533099441398     0.524045942908      -0.533099441398     -0.473319669428     -0.464573241484     
5800000000.0        -0.482203122559     -0.464321671804     0.515075222796      -0.534096683923     0.515075222796      -0.534096683923     -0.482203122559     -0.464321671804     
5900000000.0        -0.490950807931     -0.463907322202     0.506238539261      -0.534933291548     0.506238539261      -0.534933291548     -0.490950807931     -0.463907322202     
6000000000.0        -0.49956190391      -0.46333750327      0.497536703408      -0.53561660104      0.497536703408      -0.53561660104      -0.49956190391      -0.46333750327      
6100000000.0        -0.508035858108     -0.462619315868     0.488970256931      -0.53615373949      0.488970256931      -0.53615373949      -0.508035858108     -0.462619315868     
6200000000.0        -0.516372367966     -0.461759648608     0.480539491533      -0.53655162181      0.480539491533      -0.53655162181      -0.516372367966     -0.461759648608     
6300000000.0        -0.524571362158     -0.460765176395     0.472244467517      -0.536816949275     0.472244467517      -0.536816949275     -0.524571362158     -0.460765176395     
6400000000.0        -0.532632982818     -0.459642359921     0.46408503156       -0.536956209025     0.46408503156       -0.536956209025     -0.532632982818     -0.459642359921     
6500000000.0        -0.54055756861      -0.458397446002     0.456060833637      -0.53697567441      0.456060833637      -0.53697567441      -0.54055756861      -0.458397446002     
6600000000.0        -0.548345638625     -0.45703646869      0.448171343127      -0.536881406105     0.448171343127      -0.536881406105     -0.548345638625     -0.45703646869      
6700000000.0        -0.55599787711      -0.455565251046     0.440415864077      -0.536679253893     0.440415864077      -0.536679253893     -0.55599787711      -0.455565251046     
6800000000.0        -0.563515119014     -0.453989407512     0.432793549658      -0.536374859038     0.432793549658      -0.536374859038     -0.563515119014     -0.453989407512     
6900000000.0        -0.570898336323     -0.452314346794     0.425303415825      -0.535973657176     0.425303415825      -0.535973657176     -0.570898336323     -0.452314346794     
7000000000.0        -0.578148625189     -0.450545275204     0.417944354186      -0.535480881662     0.417944354186      -0.535480881662     -0.578148625189     -0.450545275204     
7100000000.0        -0.585267193814     -0.448687200374     0.410715144121      -0.534901567291     0.410715144121      -0.534901567291     -0.585267193814     -0.448687200374     
7200000000.0        -0.592255351062     -0.446744935308     0.403614464157      -0.53424055435      0.403614464157      -0.53424055435      -0.592255351062     -0.446744935308     
7300000000.0        -0.599114495795     -0.444723102696     0.396640902641      -0.533502492943     0.396640902641      -0.533502492943     -0.599114495795     -0.444723102696     
7400000000.0        -0.60584610688      -0.442626139462     0.389792967722      -0.532691847543     0.389792967722      -0.532691847543     -0.60584610688      -0.442626139462     
7500000000.0        -0.612451733864     -0.44045830149      0.383069096683      -0.531812901714     0.383069096683      -0.531812901714     -0.612451733864     -0.44045830149      
7600000000.0        -0.618932988261     -0.438223668479     0.376467664639      -0.530869762986     0.376467664639      -0.530869762986     -0.618932988261     -0.438223668479     
7700000000.0        -0.625291535457     -0.435926148922     0.36998699264       -0.529866367824     0.36998699264       -0.529866367824     -0.625291535457     -0.435926148922     
7800000000.0        -0.631529087172     -0.43356948514      0.363625355203      -0.528806486674     0.363625355203      -0.528806486674     -0.631529087172     -0.43356948514      
7900000000.0        -0.637647394471     -0.431157258368     0.357380987296      -0.527693729054     0.357380987296      -0.527693729054     -0.637647394471     -0.431157258368     
8000000000.0        -0.643648241292     -0.428692893856     0.351252090812      -0.526531548653     0.351252090812      -0.526531548653     -0.643648241292     -0.428692893856     
8100000000.0        -0.649533438453     -0.426179665963     0.345236840555      -0.525323248438     0.345236840555      -0.525323248438     -0.649533438453     -0.426179665963     
8200000000.0        -0.655304818129     -0.423620703233     0.339333389762      -0.524071985727     0.339333389762      -0.524071985727     -0.655304818129     -0.423620703233     
8300000000.0        -0.660964228763     -0.42101899342      0.333539875193      -0.522780777218     0.333539875193      -0.522780777218     -0.660964228763     -0.42101899342      
8400000000.0        -0.666513530376     -0.418377388458     0.327854421808      -0.521452503972     0.327854421808      -0.521452503972     -0.666513530376     -0.418377388458     
8500000000.0        -0.671954590279     -0.415698609365     0.322275147064      -0.520089916308     0.322275147064      -0.520089916308     -0.671954590279     -0.415698609365     
8600000000.0        -0.677289279133     -0.412985251058     0.316800164845      -0.518695638631     0.316800164845      -0.518695638631     -0.677289279133     -0.412985251058     
8700000000.0        -0.682519467353     -0.410239787079     0.311427589056      -0.517272174159     0.311427589056      -0.517272174159     -0.682519467353     -0.410239787079     
8800000000.0        -0.687647021832     -0.407464574224     0.306155536895      -0.515821909555     0.306155536895      -0.515821909555     -0.687647021832     -0.407464574224     
8900000000.0        -0.69267380296      -0.404661857061     0.300982131835      -0.514347119453     0.300982131835      -0.514347119453     -0.69267380296      -0.404661857061     
9000000000.0        -0.69760166192      -0.401833772342     0.295905506323      -0.512849970865     0.295905506323      -0.512849970865     -0.69760166192      -0.401833772342     
9100000000.0        -0.702432438244     -0.398982353295     0.290923804218      -0.511332527485     0.290923804218      -0.511332527485     -0.702432438244     -0.398982353295     
9200000000.0        -0.707167957609     -0.396109533798     0.286035182994      -0.509796753864     0.286035182994      -0.509796753864     -0.707167957609     -0.396109533798     
9300000000.0        -0.711810029857     -0.393217152434     0.281237815717      -0.508244519468     0.281237815717      -0.508244519468     -0.711810029857     -0.393217152434     
9400000000.0        -0.716360447228     -0.390306956423     0.276529892808      -0.506677602612     0.276529892808      -0.506677602612     -0.716360447228     -0.390306956423     
9500000000.0        -0.72082098278      -0.387380605428     0.271909623618      -0.505097694274     0.271909623618      -0.505097694274     -0.72082098278      -0.387380605428     
9600000000.0        -0.725193388994     -0.384439675243     0.267375237825      -0.503506401781     0.267375237825      -0.503506401781     -0.725193388994     -0.384439675243     
9700000000.0        -0.72947939654      -0.381485661349     0.262924986657      -0.501905252375     0.262924986657      -0.501905252375     -0.72947939654      -0.381485661349     
9800000000.0        -0.7336807132       -0.378519982362     0.25855714397       -0.500295696658     0.25855714397       -0.500295696658     -0.7336807132       -0.378519982362     
9900000000.0        -0.737799022934     -0.375543983343     0.254270007178      -0.498679111909     0.254270007178      -0.498679111909     -0.737799022934     -0.375543983343     
10000000000.0       -0.741835985071     -0.372558939005     0.250061898055      -0.497056805296     0.250061898055      -0.497056805296     -0.741835985071     -0.372558939005     
