# Hz S RI R 50.00 
100000000.0         0.0808924694844     0.00247053058659    0.919104943739      -0.00353993909704   0.919104943739      -0.00353993909704   0.0808924694844     0.00247053058659    
200000000.0         0.0814083898488     0.0049344740307     0.91858625895       -0.00707329542988   0.91858625895       -0.00707329542988   0.0814083898488     0.0049344740307     
300000000.0         0.0818093985819     0.00739429242138    0.918181307706      -0.0106025355116    0.918181307706      -0.0106025355116    0.0818093985819     0.00739429242138    
400000000.0         0.082160662253      0.00985073228809    0.91782492311       -0.0141284097809    0.91782492311       -0.0141284097809    0.082160662253      0.00985073228809    
500000000.0         0.0824873452838     0.0123041406809     0.917491940448      -0.01765126894      0.917491940448      -0.01765126894      0.0824873452838     0.0123041406809     
600000000.0         0.0828023101095     0.0147546876487     0.91716949701       -0.0211712865235    0.91716949701       -0.0211712865235    0.0828023101095     0.0147546876487     
700000000.0         0.0831131683885     0.0172024461915     0.916849980871      -0.0246885388959    0.916849980871      -0.0246885388959    0.0831131683885     0.0172024461915     
800000000.0         0.0834248576242     0.0196474293636     0.916528454259      -0.028203042383     0.916528454259      -0.028203042383     0.0834248576242     0.0196474293636     
900000000.0         0.0837407897418     0.0220896102151     0.916201504977      -0.0317147732312    0.916201504977      -0.0317147732312    0.0837407897418     0.0220896102151     
1000000000.0        0.0840634339326     0.0245289336088     0.915866663556      -0.0352236794363    0.915866663556      -0.0352236794363    0.0840634339326     0.0245289336088     
1100000000.0        0.084394641004      0.0269653237328     0.915522078902      -0.0387296882666    0.915522078902      -0.0387296882666    0.084394641004      0.0269653237328     
1200000000.0        0.0847358368592     0.0293986891399     0.915166324816      -0.0422327113086    0.915166324816      -0.0422327113086    0.0847358368592     0.0293986891399     
1300000000.0        0.0850881443529     0.0318289262734     0.914798278136      -0.0457326479986    0.914798278136      -0.0457326479986    0.0850881443529     0.0318289262734     
1400000000.0        0.0854524634719     0.0342559220204     0.914417038557      -0.0492293881801    0.914417038557      -0.0492293881801    0.0854524634719     0.0342559220204     
1500000000.0        0.0858295260276     0.0366795556137     0.914021873938      -0.0527228140099    0.914021873938      -0.0527228140099    0.0858295260276     0.0366795556137     
1600000000.0        0.0862199341108     0.0390997000836     0.913612181845      -0.0562128014129    0.913612181845      -0.0562128014129    0.0862199341108     0.0390997000836     
1700000000.0        0.0866241878318     0.0415162233905     0.91318746181       -0.0596992212163    0.91318746181       -0.0596992212163    0.0866241878318     0.0415162233905     
1800000000.0        0.0870427057831     0.0439289893222     0.912747294872      -0.0631819400506    0.912747294872      -0.0631819400506    0.0870427057831     0.0439289893222     
1900000000.0        0.0874758404264     0.0463378582193     0.912291328186      -0.0666608210757    0.912291328186      -0.0666608210757    0.0874758404264     0.0463378582193     
2000000000.0        0.0879238898643     0.0487426875679     0.911819263252      -0.0701357245754    0.911819263252      -0.0701357245754    0.0879238898643     0.0487426875679     
2100000000.0        0.0883871069807     0.0511433324911     0.911330846774      -0.0736065084508    0.911330846774      -0.0736065084508    0.0883871069807     0.0511433324911     
2200000000.0        0.0888657066368     0.0535396461614     0.910825863467      -0.0770730286338    0.910825863467      -0.0770730286338    0.0888657066368     0.0535396461614     
2300000000.0        0.0893598714034     0.0559314801506     0.910304130318      -0.0805351394376    0.910304130318      -0.0805351394376    0.0893598714034     0.0559314801506     
2400000000.0        0.0898697561806     0.0583186847287     0.909765491973      -0.0839926938574    0.909765491973      -0.0839926938574    0.0898697561806     0.0583186847287     
2500000000.0        0.090395491955      0.0607011091228     0.909209816977      -0.0874455438297    0.909209816977      -0.0874455438297    0.090395491955      0.0607011091228     
2600000000.0        0.0909371888868     0.0630786017429     0.908636994684      -0.0908935404588    0.908636994684      -0.0908935404588    0.0909371888868     0.0630786017429     
2700000000.0        0.0914949388655     0.0654510103793     0.908046932706      -0.0943365342154    0.908046932706      -0.0943365342154    0.0914949388655     0.0654510103793     
2800000000.0        0.0920688176435     0.067818182378      0.907439554778      -0.0977743751125    0.907439554778      -0.0977743751125    0.0920688176435     0.067818182378      
2900000000.0        0.0926588866298     0.0701799647971     0.906814798961      -0.101206912862     0.906814798961      -0.101206912862     0.0926588866298     0.0701799647971     
3000000000.0        0.0932651944082     0.0725362045461     0.906172616127      -0.104633997015     0.906172616127      -0.104633997015     0.0932651944082     0.0725362045461     
3100000000.0        0.0938877780306     0.0748867485124     0.905512968666      -0.108055477089     0.905512968666      -0.108055477089     0.0938877780306     0.0748867485124     
3200000000.0        0.0945266641254     0.0772314436754     0.904835829375      -0.111471202682     0.904835829375      -0.111471202682     0.0945266641254     0.0772314436754     
3300000000.0        0.0951818698523     0.0795701372113     0.904141180505      -0.114881023578     0.904141180505      -0.114881023578     0.0951818698523     0.0795701372113     
3400000000.0        0.0958534037299     0.0819026765877     0.903429012934      -0.118284789841     0.903429012934      -0.118284789841     0.0958534037299     0.0819026765877     
3500000000.0        0.0965412663557     0.084228909652      0.902699325444      -0.121682351907     0.902699325444      -0.121682351907     0.0965412663557     0.084228909652      
3600000000.0        0.097245451037      0.0865486847125     0.901952124093      -0.12507356066      0.901952124093      -0.12507356066      0.097245451037      0.0865486847125     
3700000000.0        0.0979659443442     0.0888618506131     0.90118742166       -0.128458267514     0.90118742166       -0.128458267514     0.0979659443442     0.0888618506131     
3800000000.0        0.0987027266009     0.0911682568037     0.900405237157      -0.131836324477     0.900405237157      -0.131836324477     0.0987027266009     0.0911682568037     
3900000000.0        0.099455772317      0.0934677534053     0.899605595394      -0.13520758422      0.899605595394      -0.13520758422      0.099455772317      0.0934677534053     
4000000000.0        0.100225050575      0.0957601912713     0.898788526591      -0.138571900138     0.898788526591      -0.138571900138     0.100225050575      0.0957601912713     
4100000000.0        0.101010525376      0.0980454220447     0.897954066036      -0.141929126407     0.897954066036      -0.141929126407     0.101010525376      0.0980454220447     
4200000000.0        0.101812155949      0.100323298212      0.897102253774      -0.145279118041     0.897102253774      -0.145279118041     0.101812155949      0.100323298212      
4300000000.0        0.102629897029      0.102593673155      0.896233134328      -0.148621730937     0.896233134328      -0.148621730937     0.102629897029      0.102593673155      
4400000000.0        0.103463699113      0.104856401197      0.895346756443      -0.15195682193      0.895346756443      -0.15195682193      0.103463699113      0.104856401197      
4500000000.0        0.104313508685      0.107111337652      0.894443172862      -0.155284248836     0.894443172862      -0.155284248836     0.104313508685      0.107111337652      
4600000000.0        0.105179268428      0.109358338863      0.893522440115      -0.158603870494     0.893522440115      -0.158603870494     0.105179268428      0.109358338863      
4700000000.0        0.106060917411      0.111597262248      0.892584618329      -0.16191554681      0.892584618329      -0.16191554681      0.106060917411      0.111597262248      
4800000000.0        0.106958391269      0.113827966337      0.891629771049      -0.165219138795     0.891629771049      -0.165219138795     0.106958391269      0.113827966337      
4900000000.0        0.10787162236       0.116050310806      0.890657965085      -0.168514508603     0.890657965085      -0.168514508603     0.10787162236       0.116050310806      
5000000000.0        0.108800539914      0.11826415652       0.889669270354      -0.171801519566     0.889669270354      -0.171801519566     0.108800539914      0.11826415652       
5100000000.0        0.109745070174      0.120469365561      0.888663759751      -0.175080036227     0.888663759751      -0.175080036227     0.109745070174      0.120469365561      
5200000000.0        0.110705136517      0.12266580126       0.887641509016      -0.178349924376     0.887641509016      -0.178349924376     0.110705136517      0.12266580126       
5300000000.0        0.111680659582      0.124853328233      0.886602596614      -0.181611051078     0.886602596614      -0.181611051078     0.111680659582      0.124853328233      
5400000000.0        0.112671557375      0.127031812406      0.885547103629      -0.184863284702     0.885547103629      -0.184863284702     0.112671557375      0.127031812406      
5500000000.0        0.113677745374      0.129201121045      0.884475113655      -0.188106494954     0.884475113655      -0.188106494954     0.113677745374      0.129201121045      
5600000000.0        0.114699136629      0.131361122783      0.883386712699      -0.191340552898     0.883386712699      -0.191340552898     0.114699136629      0.131361122783      
5700000000.0        0.115735641855      0.133511687644      0.882281989088      -0.194565330988     0.882281989088      -0.194565330988     0.115735641855      0.133511687644      
5800000000.0        0.116787169518      0.135652687071      0.881161033383      -0.197780703087     0.881161033383      -0.197780703087     0.116787169518      0.135652687071      
5900000000.0        0.117853625917      0.137783993947      0.880023938296      -0.200986544496     0.880023938296      -0.200986544496     0.117853625917      0.137783993947      
6000000000.0        0.118934915264      0.13990548262       0.878870798609      -0.204182731973     0.878870798609      -0.204182731973     0.118934915264      0.13990548262       
6100000000.0        0.120030939761      0.142017028922      0.877701711101      -0.207369143756     0.877701711101      -0.207369143756     0.120030939761      0.142017028922      
6200000000.0        0.121141599668      0.144118510191      0.876516774478      -0.210545659585     0.876516774478      -0.210545659585     0.121141599668      0.144118510191      
6300000000.0        0.122266793372      0.146209805289      0.875316089298      -0.213712160719     0.875316089298      -0.213712160719     0.122266793372      0.146209805289      
6400000000.0        0.123406417456      0.148290794625      0.874099757914      -0.216868529957     0.874099757914      -0.216868529957     0.123406417456      0.148290794625      
6500000000.0        0.124560366758      0.150361360167      0.872867884404      -0.220014651656     0.872867884404      -0.220014651656     0.124560366758      0.150361360167      
6600000000.0        0.125728534434      0.152421385466      0.871620574514      -0.223150411747     0.871620574514      -0.223150411747     0.125728534434      0.152421385466      
6700000000.0        0.126910812018      0.154470755664      0.870357935598      -0.22627569775      0.870357935598      -0.22627569775      0.126910812018      0.154470755664      
6800000000.0        0.128107089474      0.156509357516      0.869080076562      -0.229390398794     0.869080076562      -0.229390398794     0.128107089474      0.156509357516      
6900000000.0        0.129317255256      0.158537079404      0.867787107807      -0.232494405627     0.867787107807      -0.232494405627     0.129317255256      0.158537079404      
7000000000.0        0.130541196357      0.160553811344      0.866479141181      -0.235587610633     0.866479141181      -0.235587610633     0.130541196357      0.160553811344      
7100000000.0        0.131778798362      0.162559445009      0.86515628992       -0.238669907842     0.86515628992       -0.238669907842     0.131778798362      0.162559445009      
7200000000.0        0.133029945501      0.164553873734      0.863818668605      -0.241741192947     0.863818668605      -0.241741192947     0.133029945501      0.164553873734      
7300000000.0        0.134294520692      0.166536992531      0.862466393109      -0.244801363309     0.862466393109      -0.244801363309     0.134294520692      0.166536992531      
7400000000.0        0.135572405594      0.168508698097      0.86109958055       -0.247850317974     0.86109958055       -0.247850317974     0.135572405594      0.168508698097      
7500000000.0        0.13686348065       0.170468888828      0.859718349247      -0.250887957682     0.859718349247      -0.250887957682     0.13686348065       0.170468888828      
7600000000.0        0.138167625134      0.172417464825      0.858322818672      -0.253914184872     0.858322818672      -0.253914184872     0.138167625134      0.172417464825      
7700000000.0        0.139484717194      0.174354327904      0.856913109405      -0.256928903698     0.856913109405      -0.256928903698     0.139484717194      0.174354327904      
7800000000.0        0.140814633897      0.176279381607      0.855489343094      -0.25993202003      0.855489343094      -0.25993202003      0.140814633897      0.176279381607      
7900000000.0        0.142157251269      0.178192531202      0.854051642411      -0.262923441468     0.854051642411      -0.262923441468     0.142157251269      0.178192531202      
8000000000.0        0.143512444341      0.180093683697      0.852600131009      -0.265903077342     0.852600131009      -0.265903077342     0.143512444341      0.180093683697      
8100000000.0        0.144880087183      0.181982747846      0.851134933482      -0.268870838726     0.851134933482      -0.268870838726     0.144880087183      0.181982747846      
8200000000.0        0.146260052952      0.183859634146      0.849656175326      -0.271826638437     0.849656175326      -0.271826638437     0.146260052952      0.183859634146      
8300000000.0        0.147652213924      0.185724254855      0.848163982898      -0.274770391042     0.848163982898      -0.274770391042     0.147652213924      0.185724254855      
8400000000.0        0.149056441538      0.187576523984      0.84665848338       -0.277702012865     0.84665848338       -0.277702012865     0.149056441538      0.187576523984      
8500000000.0        0.150472606432      0.18941635731       0.845139804737      -0.280621421988     0.845139804737      -0.280621421988     0.150472606432      0.18941635731       
8600000000.0        0.151900578479      0.191243672372      0.843608075683      -0.283528538253     0.843608075683      -0.283528538253     0.151900578479      0.191243672372      
8700000000.0        0.153340226827      0.193058388479      0.842063425641      -0.286423283268     0.842063425641      -0.286423283268     0.153340226827      0.193058388479      
8800000000.0        0.154791419932      0.19486042671       0.840505984712      -0.289305580408     0.840505984712      -0.289305580408     0.154791419932      0.19486042671       
8900000000.0        0.156254025596      0.196649709915      0.838935883633      -0.292175354816     0.838935883633      -0.292175354816     0.156254025596      0.196649709915      
9000000000.0        0.157727910999      0.198426162714      0.837353253747      -0.295032533402     0.837353253747      -0.295032533402     0.157727910999      0.198426162714      
9100000000.0        0.159212942739      0.200189711504      0.835758226965      -0.297877044848     0.835758226965      -0.297877044848     0.159212942739      0.200189711504      
9200000000.0        0.16070898686       0.20194028445       0.834150935733      -0.300708819602     0.834150935733      -0.300708819602     0.16070898686       0.20194028445       
9300000000.0        0.162215908889      0.203677811492      0.832531513001      -0.303527789885     0.832531513001      -0.303527789885     0.162215908889      0.203677811492      
9400000000.0        0.163733573869      0.20540222434       0.830900092185      -0.306333889682     0.830900092185      -0.306333889682     0.163733573869      0.20540222434       
9500000000.0        0.165261846391      0.207113456471      0.829256807138      -0.309127054745     0.829256807138      -0.309127054745     0.165261846391      0.207113456471      
9600000000.0        0.166800590625      0.208811443131      0.827601792116      -0.311907222589     0.827601792116      -0.311907222589     0.166800590625      0.208811443131      
9700000000.0        0.168349670355      0.21049612133       0.825935181749      -0.314674332491     0.825935181749      -0.314674332491     0.168349670355      0.21049612133       
9800000000.0        0.169908949004      0.212167429836      0.824257111006      -0.317428325486     0.824257111006      -0.317428325486     0.169908949004      0.212167429836      
9900000000.0        0.171478289674      0.213825309179      0.822567715166      -0.320169144362     0.822567715166      -0.320169144362     0.171478289674      0.213825309179      
10000000000.0       0.173057555168      0.215469701638      0.820867129788      -0.322896733659     0.820867129788      -0.322896733659     0.173057555168      0.215469701638      
