# Hz S RI R 50.00 
100000000.0         0.0133612796002     0.00271621589737    0.986634554041      -0.00446279512416   0.986634554041      -0.00446279512416   0.0133612796002     0.00271621589737    
200000000.0         0.0134848622634     0.00543090536846    0.986504740416      -0.00892408012592   0.986504740416      -0.00892408012592   0.0134848622634     0.00543090536846    
300000000.0         0.0136096417224     0.00814432077488    0.98637066499       -0.013384120225     0.98637066499       -0.013384120225     0.0136096417224     0.00814432077488    
400000000.0         0.0137470733286     0.0108563794624     0.986220871964      -0.017842843403     0.986220871964      -0.017842843403     0.0137470733286     0.0108563794624     
500000000.0         0.0139015617825     0.0135669210772     0.986050956119      -0.0223000988198    0.986050956119      -0.0223000988198    0.0139015617825     0.0135669210772     
600000000.0         0.0140753446226     0.0162757510538     0.985858679324      -0.0267557006885    0.985858679324      -0.0267557006885    0.0140753446226     0.0162757510538     
700000000.0         0.0142697339845     0.0189826562598     0.98564272878       -0.0312094441173    0.98564272878       -0.0312094441173    0.0142697339845     0.0189826562598     
800000000.0         0.0144855698954     0.0216874122756     0.985402263721      -0.0356611125069    0.985402263721      -0.0356611125069    0.0144855698954     0.0216874122756     
900000000.0         0.0147234221388     0.0243897873247     0.985136713553      -0.0401104815594    0.985136713553      -0.0401104815594    0.0147234221388     0.0243897873247     
1000000000.0        0.014983692592      0.0270895446203     0.984845675518      -0.0445573216795    0.984845675518      -0.0445573216795    0.014983692592      0.0270895446203     
1100000000.0        0.0152666721228     0.0297864438732     0.984528857794      -0.0490013995223    0.984528857794      -0.0490013995223    0.0152666721228     0.0297864438732     
1200000000.0        0.0155725745004     0.0324802423172     0.98418604559       -0.0534424790503    0.98418604559       -0.0534424790503    0.0155725745004     0.0324802423172     
1300000000.0        0.0159015577345     0.0351706954402     0.983817079803      -0.0578803222885    0.983817079803      -0.0578803222885    0.0159015577345     0.0351706954402     
1400000000.0        0.0162537381076     0.0378575575258     0.983421842991      -0.0623146898859    0.983421842991      -0.0623146898859    0.0162537381076     0.0378575575258     
1500000000.0        0.0166291997411     0.0405405820683     0.983000249803      -0.0667453415458    0.983000249803      -0.0667453415458    0.0166291997411     0.0405405820683     
1600000000.0        0.0170280013184     0.0432195220998     0.982552240261      -0.071172036367     0.982552240261      -0.071172036367     0.0170280013184     0.0432195220998     
1700000000.0        0.0174501809353     0.0458941304546     0.982077774907      -0.0755945331197    0.982077774907      -0.0755945331197    0.0174501809353     0.0458941304546     
1800000000.0        0.0178957596783     0.0485641599888     0.981576831227      -0.080012590474     0.981576831227      -0.080012590474     0.0178957596783     0.0485641599888     
1900000000.0        0.0183647443174     0.0512293637654     0.981049400958      -0.0844259671938    0.981049400958      -0.0844259671938    0.0183647443174     0.0512293637654     
2000000000.0        0.0188571293686     0.053889495213      0.980495488026      -0.0888344223031    0.980495488026      -0.0888344223031    0.0188571293686     0.053889495213      
2100000000.0        0.0193728986987     0.0565443082659     0.979915106943      -0.093237715232     0.979915106943      -0.093237715232     0.0193728986987     0.0565443082659     
2200000000.0        0.0199120267917     0.0591935574871     0.979308281539      -0.0976356059455    0.979308281539      -0.0976356059455    0.0199120267917     0.0591935574871     
2300000000.0        0.0204744797619     0.0618369981795     0.97867504395       -0.10202785506      0.97867504395       -0.10202785506      0.0204744797619     0.0618369981795     
2400000000.0        0.0210602161731     0.0644743864869     0.978015433802      -0.106414223949     0.978015433802      -0.106414223949     0.0210602161731     0.0644743864869     
2500000000.0        0.0216691877104     0.0671054794862     0.977329497535      -0.110794474838     0.977329497535      -0.110794474838     0.0216691877104     0.0671054794862     
2600000000.0        0.0223013397348     0.0697300352735     0.976617287852      -0.115168370897     0.976617287852      -0.115168370897     0.0223013397348     0.0697300352735     
2700000000.0        0.0229566117475     0.0723478130438     0.975878863254      -0.11953567632      0.975878863254      -0.11953567632      0.0229566117475     0.0723478130438     
2800000000.0        0.0236349377814     0.0749585731661     0.97511428765       -0.123896156407     0.97511428765       -0.123896156407     0.0236349377814     0.0749585731661     
2900000000.0        0.0243362467343     0.0775620772538     0.97432363002       -0.128249577634     0.97432363002       -0.128249577634     0.0243362467343     0.0775620772538     
3000000000.0        0.0250604626559     0.0801580882324     0.973506964136      -0.132595707725     0.973506964136      -0.132595707725     0.0250604626559     0.0801580882324     
3100000000.0        0.0258075049959     0.0827463704029     0.972664368306      -0.136934315717     0.972664368306      -0.136934315717     0.0258075049959     0.0827463704029     
3200000000.0        0.0265772888212     0.0853266895032     0.971795925162      -0.141265172025     0.971795925162      -0.141265172025     0.0265772888212     0.0853266895032     
3300000000.0        0.0273697250075     0.0878988127662     0.970901721468      -0.145588048499     0.970901721468      -0.145588048499     0.0273697250075     0.0878988127662     
3400000000.0        0.0281847204093     0.0904625089765     0.969981847948      -0.149902718487     0.969981847948      -0.149902718487     0.0281847204093     0.0904625089765     
3500000000.0        0.0290221780123     0.0930175485242     0.969036399138      -0.154208956887     0.969036399138      -0.154208956887     0.0290221780123     0.0930175485242     
3600000000.0        0.0298819970712     0.0955637034573     0.968065473244      -0.158506540203     0.968065473244      -0.158506540203     0.0298819970712     0.0955637034573     
3700000000.0        0.0307640732345     0.0981007475319     0.96706917202       -0.162795246594     0.96706917202       -0.162795246594     0.0307640732345     0.0981007475319     
3800000000.0        0.0316682986594     0.100628456261      0.966047600653      -0.167074855929     0.966047600653      -0.167074855929     0.0316682986594     0.100628456261      
3900000000.0        0.0325945621175     0.103146606961      0.965000867656      -0.171345149831     0.965000867656      -0.171345149831     0.0325945621175     0.103146606961      
4000000000.0        0.0335427490926     0.1056549788        0.963929084774      -0.175605911725     0.963929084774      -0.175605911725     0.0335427490926     0.1056549788        
4100000000.0        0.0345127418731     0.108153352837      0.962832366886      -0.179856926887     0.962832366886      -0.179856926887     0.0345127418731     0.108153352837      
4200000000.0        0.0355044196376     0.110641512071      0.961710831927      -0.184097982482     0.961710831927      -0.184097982482     0.0355044196376     0.110641512071      
4300000000.0        0.0365176585369     0.113119241476      0.960564600797      -0.188328867612     0.960564600797      -0.188328867612     0.0365176585369     0.113119241476      
4400000000.0        0.0375523317713     0.115586328049      0.959393797295      -0.192549373352     0.959393797295      -0.192549373352     0.0375523317713     0.115586328049      
4500000000.0        0.0386083096648     0.11804256084       0.958198548034      -0.196759292796     0.958198548034      -0.196759292796     0.0386083096648     0.11804256084       
4600000000.0        0.0396854597362     0.120487730997      0.956978982377      -0.200958421092     0.956978982377      -0.200958421092     0.0396854597362     0.120487730997      
4700000000.0        0.0407836467671     0.122921631801      0.955735232367      -0.205146555479     0.955735232367      -0.205146555479     0.0407836467671     0.122921631801      
4800000000.0        0.0419027328687     0.125344058699      0.954467432661      -0.209323495325     0.954467432661      -0.209323495325     0.0419027328687     0.125344058699      
4900000000.0        0.0430425775459     0.12775480934       0.953175720464      -0.213489042163     0.953175720464      -0.213489042163     0.0430425775459     0.12775480934       
5000000000.0        0.0442030377598     0.130153683609      0.951860235469      -0.21764299972      0.951860235469      -0.21764299972      0.0442030377598     0.130153683609      
5100000000.0        0.0453839679889     0.132540483658      0.950521119795      -0.221785173959     0.950521119795      -0.221785173959     0.0453839679889     0.132540483658      
5200000000.0        0.0465852202888     0.134915013938      0.949158517927      -0.225915373099     0.949158517927      -0.225915373099     0.0465852202888     0.134915013938      
5300000000.0        0.0478066443513     0.137277081228      0.947772576657      -0.230033407656     0.947772576657      -0.230033407656     0.0478066443513     0.137277081228      
5400000000.0        0.0490480875619     0.139626494665      0.946363445027      -0.234139090467     0.946363445027      -0.234139090467     0.0490480875619     0.139626494665      
5500000000.0        0.0503093950565     0.14196306577       0.944931274275      -0.238232236719     0.944931274275      -0.238232236719     0.0503093950565     0.14196306577       
5600000000.0        0.0515904097779     0.144286608475      0.943476217771      -0.242312663976     0.943476217771      -0.242312663976     0.0515904097779     0.144286608475      
5700000000.0        0.052890972531      0.146596939153      0.94199843097       -0.246380192209     0.94199843097       -0.246380192209     0.052890972531      0.146596939153      
5800000000.0        0.0542109220378     0.148893876635      0.940498071354      -0.250434643816     0.940498071354      -0.250434643816     0.0542109220378     0.148893876635      
5900000000.0        0.0555500949917     0.151177242242      0.938975298377      -0.254475843648     0.938975298377      -0.254475843648     0.0555500949917     0.151177242242      
6000000000.0        0.056908326111      0.153446859801      0.93743027341       -0.258503619034     0.93743027341       -0.258503619034     0.056908326111      0.153446859801      
6100000000.0        0.058285448193      0.155702555668      0.935863159692      -0.262517799801     0.935863159692      -0.262517799801     0.058285448193      0.155702555668      
6200000000.0        0.0596812921661     0.157944158753      0.934274122274      -0.266518218295     0.934274122274      -0.266518218295     0.0596812921661     0.157944158753      
6300000000.0        0.0610956871434     0.160171500535      0.932663327966      -0.270504709402     0.932663327966      -0.270504709402     0.0610956871434     0.160171500535      
6400000000.0        0.0625284604741     0.16238441508       0.931030945286      -0.274477110565     0.931030945286      -0.274477110565     0.0625284604741     0.16238441508       
6500000000.0        0.0639794377964     0.164582739061      0.929377144409      -0.278435261804     0.929377144409      -0.278435261804     0.0639794377964     0.164582739061      
6600000000.0        0.0654484430882     0.166766311777      0.927702097111      -0.282379005734     0.927702097111      -0.282379005734     0.0654484430882     0.166766311777      
6700000000.0        0.0669352987196     0.168934975162      0.926005976724      -0.286308187576     0.926005976724      -0.286308187576     0.0669352987196     0.168934975162      
6800000000.0        0.068439825503      0.171088573804      0.924288958079      -0.290222655176     0.924288958079      -0.290222655176     0.068439825503      0.171088573804      
6900000000.0        0.0699618427448     0.173226954958      0.922551217459      -0.29412225902      0.922551217459      -0.29412225902      0.0699618427448     0.173226954958      
7000000000.0        0.0715011682954     0.175349968559      0.920792932546      -0.298006852242     0.920792932546      -0.298006852242     0.0715011682954     0.175349968559      
7100000000.0        0.0730576186003     0.177457467232      0.919014282372      -0.301876290641     0.919014282372      -0.301876290641     0.0730576186003     0.177457467232      
7200000000.0        0.0746310087493     0.179549306305      0.917215447269      -0.305730432689     0.917215447269      -0.305730432689     0.0746310087493     0.179549306305      
7300000000.0        0.0762211525271     0.181625343817      0.915396608818      -0.30956913954      0.915396608818      -0.30956913954      0.0762211525271     0.181625343817      
7400000000.0        0.0778278624628     0.183685440528      0.913557949799      -0.313392275046     0.913557949799      -0.313392275046     0.0778278624628     0.183685440528      
7500000000.0        0.0794509498788     0.185729459926      0.911699654144      -0.317199705755     0.911699654144      -0.317199705755     0.0794509498788     0.185729459926      
7600000000.0        0.0810902249405     0.187757268236      0.909821906887      -0.320991300926     0.909821906887      -0.320991300926     0.0810902249405     0.187757268236      
7700000000.0        0.0827454967045     0.189768734421      0.907924894113      -0.324766932533     0.907924894113      -0.324766932533     0.0827454967045     0.189768734421      
7800000000.0        0.0844165731677     0.191763730195      0.906008802911      -0.328526475269     0.906008802911      -0.328526475269     0.0844165731677     0.191763730195      
7900000000.0        0.0861032613153     0.193742130022      0.904073821328      -0.332269806554     0.904073821328      -0.332269806554     0.0861032613153     0.193742130022      
8000000000.0        0.0878053671687     0.195703811119      0.902120138317      -0.335996806532     0.902120138317      -0.335996806532     0.0878053671687     0.195703811119      
8100000000.0        0.0895226958333     0.197648653461      0.900147943691      -0.339707358082     0.900147943691      -0.339707358082     0.0895226958333     0.197648653461      
8200000000.0        0.091255051546      0.199576539783      0.898157428077      -0.343401346815     0.898157428077      -0.343401346815     0.091255051546      0.199576539783      
8300000000.0        0.0930022377218     0.201487355579      0.896148782865      -0.347078661075     0.896148782865      -0.347078661075     0.0930022377218     0.201487355579      
8400000000.0        0.0947640570011     0.203380989102      0.894122200166      -0.350739191939     0.894122200166      -0.350739191939     0.0947640570011     0.203380989102      
8500000000.0        0.0965403112957     0.205257331363      0.892077872763      -0.354382833221     0.892077872763      -0.354382833221     0.0965403112957     0.205257331363      
8600000000.0        0.0983308018349     0.207116276134      0.890015994065      -0.358009481462     0.890015994065      -0.358009481462     0.0983308018349     0.207116276134      
8700000000.0        0.100135329211      0.208957719937      0.88793675806       -0.361619035936     0.88793675806       -0.361619035936     0.100135329211      0.208957719937      
8800000000.0        0.101953693426      0.210781562048      0.885840359274      -0.365211398641     0.885840359274      -0.365211398641     0.101953693426      0.210781562048      
8900000000.0        0.103785693934      0.21258770449       0.88372699272       -0.3687864743       0.88372699272       -0.3687864743       0.103785693934      0.21258770449       
9000000000.0        0.105631129689      0.214376052028      0.881596853859      -0.372344170349     0.881596853859      -0.372344170349     0.105631129689      0.214376052028      
9100000000.0        0.107489799184      0.216146512165      0.879450138551      -0.375884396941     0.879450138551      -0.375884396941     0.107489799184      0.216146512165      
9200000000.0        0.109361500503      0.217898995132      0.877287043015      -0.379407066932     0.877287043015      -0.379407066932     0.109361500503      0.217898995132      
9300000000.0        0.111246031354      0.219633413887      0.875107763782      -0.382912095876     0.875107763782      -0.382912095876     0.111246031354      0.219633413887      
9400000000.0        0.113143189122      0.2213496841        0.872912497655      -0.38639940202      0.872912497655      -0.38639940202      0.113143189122      0.2213496841        
9500000000.0        0.115052770904      0.223047724151      0.870701441666      -0.389868906292     0.870701441666      -0.389868906292     0.115052770904      0.223047724151      
9600000000.0        0.116974573556      0.224727455116      0.86847479303       -0.393320532295     0.86847479303       -0.393320532295     0.116974573556      0.224727455116      
9700000000.0        0.118908393731      0.22638880076       0.86623274911       -0.396754206293     0.86623274911       -0.396754206293     0.118908393731      0.22638880076       
9800000000.0        0.120854027921      0.228031687524      0.863975507371      -0.400169857206     0.863975507371      -0.400169857206     0.120854027921      0.228031687524      
9900000000.0        0.122811272502      0.229656044516      0.861703265338      -0.403567416592     0.861703265338      -0.403567416592     0.122811272502      0.229656044516      
10000000000.0       0.124779923767      0.231261803499      0.859416220561      -0.406946818642     0.859416220561      -0.406946818642     0.124779923767      0.231261803499      
