# Hz S RI R 50.00 
100000000.0         0.00664851889745    0.00144625000307    0.9933497831        -0.00202259946557   0.9933497831        -0.00202259946557   0.00664851889745    0.00144625000307    
200000000.0         0.00670090238066    0.00289217129961    0.993296368665      -0.00404487771936   0.993296368665      -0.00404487771936   0.00670090238066    0.00289217129961    
300000000.0         0.00674743602297    0.00433786067884    0.993248471087      -0.0060669358434    0.993248471087      -0.0060669358434    0.00674743602297    0.00433786067884    
400000000.0         0.00679386881961    0.00578333384629    0.993200341329      -0.00808879290713   0.993200341329      -0.00808879290713   0.00679386881961    0.00578333384629    
500000000.0         0.00684241679618    0.00722858754177    0.993149763321      -0.0101104485427    0.993149763321      -0.0101104485427    0.00684241679618    0.00722858754177    
600000000.0         0.00689421081845    0.00867361008057    0.993095606147      -0.012131893647     0.993095606147      -0.012131893647     0.00689421081845    0.00867361008057    
700000000.0         0.00694991911602    0.0101183851527     0.993037201524      -0.0141531142636    0.993037201524      -0.0141531142636    0.00694991911602    0.0101183851527     
800000000.0         0.00700997456953    0.0115628935906     0.992974116511      -0.0161740933996    0.992974116511      -0.0161740933996    0.00700997456953    0.0115628935906     
900000000.0         0.00707467594641    0.0130071143217     0.992906052279      -0.0181948120105    0.992906052279      -0.0181948120105    0.00707467594641    0.0130071143217     
1000000000.0        0.00714423923263    0.0144510249339     0.992832792774      -0.0202152495893    0.992832792774      -0.0202152495893    0.00714423923263    0.0144510249339     
1100000000.0        0.00721882617676    0.0158946020355     0.992754176177      -0.022235384543     0.992754176177      -0.022235384543     0.00721882617676    0.0158946020355     
1200000000.0        0.00729856130396    0.0173378214976     0.992670077888      -0.0242551944484    0.992670077888      -0.0242551944484    0.00729856130396    0.0173378214976     
1300000000.0        0.00738354262377    0.0187806586234     0.99258039982       -0.026274656231     0.99258039982       -0.026274656231     0.00738354262377    0.0187806586234     
1400000000.0        0.00747384867038    0.0202230882709     0.992485063358      -0.0282937462971    0.992485063358      -0.0282937462971    0.00747384867038    0.0202230882709     
1500000000.0        0.00756954330155    0.0216650849446     0.99238400456       -0.0303124406313    0.99238400456       -0.0303124406313    0.00756954330155    0.0216650849446     
1600000000.0        0.00767067907004    0.0231066228653     0.992277170785      -0.0323307148724    0.992277170785      -0.0323307148724    0.00767067907004    0.0231066228653     
1700000000.0        0.00777729965404    0.0245476760243     0.992164518265      -0.0343485443727    0.992164518265      -0.0343485443727    0.00777729965404    0.0245476760243     
1800000000.0        0.00788944164841    0.0259882182267     0.992046010313      -0.0363659042455    0.992046010313      -0.0363659042455    0.00788944164841    0.0259882182267     
1900000000.0        0.00800713591074    0.0274282231263     0.991921615974      -0.0383827694026    0.991921615974      -0.0383827694026    0.00800713591074    0.0274282231263     
2000000000.0        0.00813040859007    0.0288676642536     0.991791309001      -0.0403991145868    0.991791309001      -0.0403991145868    0.00813040859007    0.0288676642536     
2100000000.0        0.00825928192515    0.0303065150392     0.991655067054      -0.0424149143975    0.991655067054      -0.0424149143975    0.00825928192515    0.0303065150392     
2200000000.0        0.0083937748722     0.0317447488337     0.991512871075      -0.0444301433128    0.991512871075      -0.0444301433128    0.0083937748722     0.0317447488337     
2300000000.0        0.00853390360458    0.0331823389242     0.991364704783      -0.0464447757085    0.991364704783      -0.0464447757085    0.00853390360458    0.0331823389242     
2400000000.0        0.00867968191494    0.0346192585479     0.991210554277      -0.048458785874     0.991210554277      -0.048458785874     0.00867968191494    0.0346192585479     
2500000000.0        0.00883112154201    0.0360554809048     0.99105040771       -0.0504721480261    0.99105040771       -0.0504721480261    0.00883112154201    0.0360554809048     
2600000000.0        0.00898823243868    0.0374909791681     0.990884255014      -0.0524848363215    0.990884255014      -0.0524848363215    0.00898823243868    0.0374909791681     
2700000000.0        0.00915102299371    0.0389257264929     0.990712087688      -0.054496824867     0.990712087688      -0.054496824867     0.00915102299371    0.0389257264929     
2800000000.0        0.00931950021644    0.0403596960248     0.990533898605      -0.0565080877294    0.990533898605      -0.0565080877294    0.00931950021644    0.0403596960248     
2900000000.0        0.00949366989188    0.0417928609069     0.990349681861      -0.0585185989434    0.990349681861      -0.0585185989434    0.00949366989188    0.0417928609069     
3000000000.0        0.00967353671169    0.043225194286      0.990159432644      -0.0605283325195    0.990159432644      -0.0605283325195    0.00967353671169    0.043225194286      
3100000000.0        0.00985910438553    0.0446566693185     0.989963147123      -0.0625372624507    0.989963147123      -0.0625372624507    0.00985910438553    0.0446566693185     
3200000000.0        0.0100503757362     0.0460872591752     0.989760822351      -0.0645453627185    0.989760822351      -0.0645453627185    0.0100503757362     0.0460872591752     
3300000000.0        0.0102473527816     0.0475169370464     0.989552456183      -0.0665526072983    0.989552456183      -0.0665526072983    0.0102473527816     0.0475169370464     
3400000000.0        0.0104500368052     0.0489456761457     0.989338047209      -0.0685589701652    0.989338047209      -0.0685589701652    0.0104500368052     0.0489456761457     
3500000000.0        0.0106584284173     0.0503734497142     0.98911759469       -0.0705644252977    0.98911759469       -0.0705644252977    0.0106584284173     0.0503734497142     
3600000000.0        0.0108725276087     0.0518002310239     0.988891098504      -0.0725689466828    0.988891098504      -0.0725689466828    0.0108725276087     0.0518002310239     
3700000000.0        0.0110923337975     0.0532259933808     0.988658559102      -0.0745725083195    0.988658559102      -0.0745725083195    0.0110923337975     0.0532259933808     
3800000000.0        0.0113178458698     0.0546507101282     0.988419977462      -0.0765750842229    0.988419977462      -0.0765750842229    0.0113178458698     0.0546507101282     
3900000000.0        0.0115490622165     0.0560743546497     0.988175355059      -0.078576648427     0.988175355059      -0.078576648427     0.0115490622165     0.0560743546497     
4000000000.0        0.0117859807651     0.057496900371      0.98792469383       -0.0805771749889    0.98792469383       -0.0805771749889    0.0117859807651     0.057496900371      
4100000000.0        0.0120285990084     0.0589183207634     0.987667996144      -0.082576637991     0.987667996144      -0.082576637991     0.0120285990084     0.0589183207634     
4200000000.0        0.0122769140299     0.0603385893455     0.987405264778      -0.0845750115439    0.987405264778      -0.0845750115439    0.0122769140299     0.0603385893455     
4300000000.0        0.0125309225263     0.0617576796853     0.987136502895      -0.0865722697898    0.987136502895      -0.0865722697898    0.0125309225263     0.0617576796853     
4400000000.0        0.0127906208285     0.0631755654028     0.986861714023      -0.0885683869041    0.986861714023      -0.0885683869041    0.0127906208285     0.0631755654028     
4500000000.0        0.0130560049193     0.0645922201713     0.986580902036      -0.0905633370987    0.986580902036      -0.0905633370987    0.0130560049193     0.0645922201713     
4600000000.0        0.0133270704504     0.0660076177199     0.986294071138      -0.0925570946233    0.986294071138      -0.0925570946233    0.0133270704504     0.0660076177199     
4700000000.0        0.0136038127573     0.0674217318346     0.986001225849      -0.0945496337688    0.986001225849      -0.0945496337688    0.0136038127573     0.0674217318346     
4800000000.0        0.0138862268729     0.0688345363607     0.985702370991      -0.0965409288681    0.985702370991      -0.0965409288681    0.0138862268729     0.0688345363607     
4900000000.0        0.0141743075398     0.0702460052037     0.985397511673      -0.0985309542992    0.985397511673      -0.0985309542992    0.0141743075398     0.0702460052037     
5000000000.0        0.0144680492218     0.0716561123315     0.985086653283      -0.100519684486     0.985086653283      -0.100519684486     0.0144680492218     0.0716561123315     
5100000000.0        0.0147674461137     0.0730648317753     0.984769801478      -0.102507093902     0.984769801478      -0.102507093902     0.0147674461137     0.0730648317753     
5200000000.0        0.0150724921516     0.0744721376316     0.984446962172      -0.104493157069     0.984446962172      -0.104493157069     0.0150724921516     0.0744721376316     
5300000000.0        0.0153831810209     0.0758780040631     0.984118141528      -0.106477848563     0.984118141528      -0.106477848563     0.0153831810209     0.0758780040631     
5400000000.0        0.0156995061644     0.0772824053004     0.983783345951      -0.108461143011     0.983783345951      -0.108461143011     0.0156995061644     0.0772824053004     
5500000000.0        0.01602146079       0.0786853156429     0.983442582082      -0.110443015096     0.983442582082      -0.110443015096     0.01602146079       0.0786853156429     
5600000000.0        0.0163490378773     0.0800867094605     0.983095856786      -0.112423439559     0.983095856786      -0.112423439559     0.0163490378773     0.0800867094605     
5700000000.0        0.016682230184      0.0814865611945     0.982743177153      -0.114402391196     0.982743177153      -0.114402391196     0.016682230184      0.0814865611945     
5800000000.0        0.0170210302515     0.0828848453589     0.982384550485      -0.116379844866     0.982384550485      -0.116379844866     0.0170210302515     0.0828848453589     
5900000000.0        0.0173654304111     0.0842815365414     0.982019984296      -0.118355775487     0.982019984296      -0.118355775487     0.0173654304111     0.0842815365414     
6000000000.0        0.0177154227883     0.0856766094049     0.981649486304      -0.120330158039     0.981649486304      -0.120330158039     0.0177154227883     0.0856766094049     
6100000000.0        0.0180709993079     0.087070038688      0.981273064427      -0.122302967567     0.981273064427      -0.122302967567     0.0180709993079     0.087070038688      
6200000000.0        0.0184321516988     0.0884617992065     0.980890726778      -0.124274179179     0.980890726778      -0.124274179179     0.0184321516988     0.0884617992065     
6300000000.0        0.0187988714977     0.0898518658545     0.980502481662      -0.12624376805      0.980502481662      -0.12624376805      0.0187988714977     0.0898518658545     
6400000000.0        0.0191711500533     0.0912402136049     0.980108337572      -0.128211709423     0.980108337572      -0.128211709423     0.0191711500533     0.0912402136049     
6500000000.0        0.01954897853       0.092626817511      0.979708303184      -0.13017797861      0.979708303184      -0.13017797861      0.01954897853       0.092626817511      
6600000000.0        0.0199323479115     0.094011652707      0.979302387354      -0.13214255099      0.979302387354      -0.13214255099      0.0199323479115     0.094011652707      
6700000000.0        0.0203212490039     0.0953946944091     0.978890599115      -0.134105402016     0.978890599115      -0.134105402016     0.0203212490039     0.0953946944091     
6800000000.0        0.020715672439      0.0967759179166     0.978472947675      -0.136066507211     0.978472947675      -0.136066507211     0.020715672439      0.0967759179166     
6900000000.0        0.0211156086776     0.0981552986126     0.978049442411      -0.138025842171     0.978049442411      -0.138025842171     0.0211156086776     0.0981552986126     
7000000000.0        0.0215210480118     0.0995328119649     0.977620092869      -0.139983382568     0.977620092869      -0.139983382568     0.0215210480118     0.0995328119649     
7100000000.0        0.0219319805679     0.100908433527      0.977184908761      -0.141939104147     0.977184908761      -0.141939104147     0.0219319805679     0.100908433527      
7200000000.0        0.0223483963094     0.102282138939      0.97674389996       -0.14389298273      0.97674389996       -0.14389298273      0.0223483963094     0.102282138939      
7300000000.0        0.0227702850389     0.103653903927      0.9762970765        -0.145844994216     0.9762970765        -0.145844994216     0.0227702850389     0.103653903927      
7400000000.0        0.0231976364008     0.105023704309      0.975844448574      -0.147795114583     0.975844448574      -0.147795114583     0.0231976364008     0.105023704309      
7500000000.0        0.0236304398836     0.106391515986      0.97538602653       -0.149743319888     0.97538602653       -0.149743319888     0.0236304398836     0.106391515986      
7600000000.0        0.024068684822      0.107757314955      0.974921820868      -0.151689586266     0.974921820868      -0.151689586266     0.024068684822      0.107757314955      
7700000000.0        0.0245123603989     0.109121077299      0.97445184224       -0.153633889935     0.97445184224       -0.153633889935     0.0245123603989     0.109121077299      
7800000000.0        0.0249614556479     0.110482779195      0.97397610145       -0.155576207195     0.97397610145       -0.155576207195     0.0249614556479     0.110482779195      
7900000000.0        0.0254159594545     0.111842396911      0.973494609446      -0.157516514427     0.973494609446      -0.157516514427     0.0254159594545     0.111842396911      
8000000000.0        0.025875860559      0.113199906807      0.973007377323      -0.159454788098     0.973007377323      -0.159454788098     0.025875860559      0.113199906807      
8100000000.0        0.0263411475572     0.114555285337      0.97251441632       -0.161391004759     0.97251441632       -0.161391004759     0.0263411475572     0.114555285337      
8200000000.0        0.0268118089032     0.115908509052      0.972015737816      -0.163325141043     0.972015737816      -0.163325141043     0.0268118089032     0.115908509052      
8300000000.0        0.0272878329106     0.117259554594      0.971511353333      -0.165257173674     0.971511353333      -0.165257173674     0.0272878329106     0.117259554594      
8400000000.0        0.0277692077544     0.118608398702      0.97100127453       -0.167187079461     0.97100127453       -0.167187079461     0.0277692077544     0.118608398702      
8500000000.0        0.0282559214723     0.119955018214      0.970485513203      -0.169114835299     0.970485513203      -0.169114835299     0.0282559214723     0.119955018214      
8600000000.0        0.0287479619667     0.12129939006       0.969964081283      -0.171040418175     0.969964081283      -0.171040418175     0.0287479619667     0.12129939006       
8700000000.0        0.0292453170063     0.122641491272      0.969436990836      -0.172963805163     0.969436990836      -0.172963805163     0.0292453170063     0.122641491272      
8800000000.0        0.0297479742272     0.123981298979      0.968904254059      -0.174884973428     0.968904254059      -0.174884973428     0.0297479742272     0.123981298979      
8900000000.0        0.0302559211348     0.125318790409      0.968365883281      -0.176803900225     0.968365883281      -0.176803900225     0.0302559211348     0.125318790409      
9000000000.0        0.0307691451049     0.12665394289       0.967821890958      -0.178720562902     0.967821890958      -0.178720562902     0.0307691451049     0.12665394289       
9100000000.0        0.0312876333856     0.127986733848      0.967272289678      -0.180634938898     0.967272289678      -0.180634938898     0.0312876333856     0.127986733848      
9200000000.0        0.0318113730983     0.129317140814      0.966717092151      -0.182547005746     0.966717092151      -0.182547005746     0.0318113730983     0.129317140814      
9300000000.0        0.0323403512392     0.130645141417      0.966156311215      -0.184456741072     0.966156311215      -0.184456741072     0.0323403512392     0.130645141417      
9400000000.0        0.0328745546808     0.13197071339       0.965589959832      -0.186364122598     0.965589959832      -0.186364122598     0.0328745546808     0.13197071339       
9500000000.0        0.033413970173      0.133293834568      0.965018051084      -0.188269128139     0.965018051084      -0.188269128139     0.033413970173      0.133293834568      
9600000000.0        0.0339585843447     0.134614482889      0.964440598178      -0.190171735607     0.964440598178      -0.190171735607     0.0339585843447     0.134614482889      
9700000000.0        0.0345083837048     0.135932636397      0.963857614438      -0.192071923009     0.963857614438      -0.192071923009     0.0345083837048     0.135932636397      
9800000000.0        0.0350633546436     0.137248273236      0.963269113307      -0.193969668453     0.963269113307      -0.193969668453     0.0350633546436     0.137248273236      
9900000000.0        0.0356234834341     0.13856137166       0.962675108346      -0.195864950139     0.962675108346      -0.195864950139     0.0356234834342     0.13856137166       
10000000000.0       0.0361887562334     0.139871910025      0.962075613233      -0.19775774637      0.962075613233      -0.19775774637      0.0361887562334     0.139871910025      
