# Hz S RI R 50.00 
100000000.0         8.72593896584e-06   -0.00161778297576   0.999981576471      -0.00168006988878   0.999981576471      -0.00168006988878   8.72593896584e-06   -0.00161778297576   
200000000.0         -9.65832513411e-07  -0.0032355600119    0.999971694486      -0.0033601373644    0.999971694486      -0.0033601373644    -9.65832513411e-07  -0.0032355600119    
300000000.0         -1.61174406932e-05  -0.00485332039227   0.999956395803      -0.00504019354657   0.999956395803      -0.00504019354657   -1.61174406932e-05  -0.00485332039227   
400000000.0         -3.67173529504e-05  -0.00647104961166   0.999935668564      -0.00672022534412   0.999935668564      -0.00672022534412   -3.67173529503e-05  -0.00647104961166   
500000000.0         -6.27612096868e-05  -0.00808873120031   0.999909508154      -0.00840021749019   0.999909508154      -0.00840021749019   -6.2761209687e-05   -0.00808873120031   
600000000.0         -9.42467972047e-05  -0.0097063473802    0.999877912228      -0.0100801532715    0.999877912228      -0.0100801532715    -9.42467972046e-05  -0.0097063473802    
700000000.0         -0.00013117276462   -0.0113238794016    0.999840879454      -0.0117600149018    0.999840879454      -0.0117600149018    -0.00013117276462   -0.0113238794016    
800000000.0         -0.000173538150676  -0.0129413077448    0.999798409063      -0.0134397837462    0.999798409063      -0.0134397837462    -0.000173538150677  -0.0129413077448    
900000000.0         -0.000221342169151  -0.0145586122526    0.999750500649      -0.0151194404672    0.999750500649      -0.0151194404672    -0.00022134216915   -0.0145586122526    
1000000000.0        -0.000274584097307  -0.0161757722232    0.999697154075      -0.0167989651292    0.999697154075      -0.0167989651292    -0.000274584097307  -0.0161757722232    
1100000000.0        -0.000333263211528  -0.0177927664848    0.999638369421      -0.0184783372794    0.999638369421      -0.0184783372794    -0.000333263211528  -0.0177927664848    
1200000000.0        -0.000397378747131  -0.0194095734481    0.999574146958      -0.0201575360063    0.999574146958      -0.0201575360063    -0.000397378747131  -0.0194095734481    
1300000000.0        -0.000466929871556  -0.0210261711501    0.999504487128      -0.0218365399888    0.999504487128      -0.0218365399888    -0.000466929871556  -0.0210261711501    
1400000000.0        -0.000541915665576  -0.0226425372904    0.999429390537      -0.0235153275349    0.999429390537      -0.0235153275349    -0.000541915665576  -0.0226425372904    
1500000000.0        -0.000622335109228  -0.0242586492597    0.999348857948      -0.0251938766144    0.999348857948      -0.0251938766144    -0.000622335109228  -0.0242586492597    
1600000000.0        -0.000708187071099  -0.0258744841664    0.999262890281      -0.026872164887     0.999262890281      -0.026872164887     -0.000708187071099  -0.0258744841664    
1700000000.0        -0.000799470299989  -0.0274900188594    0.999171488609      -0.0285501697281    0.999171488609      -0.0285501697281    -0.000799470299989  -0.0274900188594    
1800000000.0        -0.000896183417672  -0.0291052299443    0.999074654158      -0.0302278682461    0.999074654158      -0.0302278682461    -0.000896183417672  -0.0291052299443    
1900000000.0        -0.000998324913255  -0.0307200938034    0.998972388311      -0.0319052373042    0.998972388311      -0.0319052373042    -0.000998324913255  -0.0307200938034    
2000000000.0        -0.00110589313808   -0.0323345866088    0.998864692604      -0.0335822535352    0.998864692604      -0.0335822535352    -0.00110589313808   -0.0323345866088    
2100000000.0        -0.00121888630141   -0.0339486843371    0.998751568731      -0.0352588933571    0.998751568731      -0.0352588933571    -0.00121888630141   -0.0339486843371    
2200000000.0        -0.00133730246658   -0.0355623627819    0.998633018543      -0.0369351329864    0.998633018543      -0.0369351329864    -0.00133730246658   -0.0355623627819    
2300000000.0        -0.00146113954757   -0.0371755975643    0.998509044051      -0.0386109484506    0.998509044051      -0.0386109484506    -0.00146113954757   -0.0371755975643    
2400000000.0        -0.00159039530597   -0.0387883641451    0.998379647427      -0.0402863155999    0.998379647427      -0.0402863155999    -0.00159039530597   -0.0387883641451    
2500000000.0        -0.00172506734813   -0.0404006378329    0.998244831004      -0.0419612101175    0.998244831004      -0.0419612101175    -0.00172506734813   -0.0404006378329    
2600000000.0        -0.00186515312269   -0.0420123937949    0.99810459728       -0.04363560753      0.99810459728       -0.04363560753      -0.00186515312269   -0.0420123937949    
2700000000.0        -0.00201064991812   -0.0436236070639    0.997958948918      -0.0453094832156    0.997958948918      -0.0453094832156    -0.00201064991812   -0.0436236070639    
2800000000.0        -0.00216155486072   -0.045234252548     0.99780788875       -0.0469828124144    0.99780788875       -0.0469828124144    -0.00216155486072   -0.045234252548     
2900000000.0        -0.00231786491252   -0.0468443050367    0.997651419772      -0.0486555702351    0.997651419772      -0.0486555702351    -0.00231786491252   -0.0468443050367    
3000000000.0        -0.00247957686948   -0.0484537392097    0.997489545152      -0.050327731664     0.997489545152      -0.050327731664     -0.00247957686948   -0.0484537392097    
3100000000.0        -0.00264668735982   -0.0500625296426    0.99732226823       -0.0519992715716    0.99732226823       -0.0519992715716    -0.00264668735982   -0.0500625296426    
3200000000.0        -0.00281919284247   -0.051670650815     0.997149592516      -0.0536701647209    0.997149592516      -0.0536701647209    -0.00281919284247   -0.051670650815     
3300000000.0        -0.00299708960548   -0.0532780771153    0.996971521692      -0.0553403857728    0.996971521692      -0.0553403857728    -0.00299708960548   -0.0532780771153    
3400000000.0        -0.00318037376484   -0.0548847828479    0.996788059618      -0.0570099092937    0.996788059618      -0.0570099092937    -0.00318037376484   -0.0548847828479    
3500000000.0        -0.00336904126307   -0.0564907422384    0.996599210326      -0.0586787097608    0.996599210326      -0.0586787097608    -0.00336904126307   -0.0564907422384    
3600000000.0        -0.00356308786823   -0.0580959294404    0.996404978026      -0.0603467615697    0.996404978026      -0.0603467615697    -0.00356308786823   -0.0580959294404    
3700000000.0        -0.00376250917267   -0.0597003185397    0.996205367104      -0.0620140390386    0.996205367104      -0.0620140390386    -0.00376250917267   -0.0597003185397    
3800000000.0        -0.0039673005922    -0.0613038835603    0.996000382124      -0.0636805164148    0.996000382124      -0.0636805164148    -0.0039673005922    -0.0613038835603    
3900000000.0        -0.0041774573651    -0.0629065984697    0.995790027831      -0.0653461678801    0.995790027831      -0.0653461678801    -0.0041774573651    -0.0629065984697    
4000000000.0        -0.00439297455129   -0.0645084371835    0.995574309145      -0.0670109675561    0.995574309145      -0.0670109675561    -0.00439297455129   -0.0645084371835    
4100000000.0        -0.00461384703171   -0.0661093735711    0.99535323117       -0.0686748895098    0.99535323117       -0.0686748895098    -0.00461384703171   -0.0661093735711    
4200000000.0        -0.00484006950741   -0.0677093814588    0.995126799189      -0.0703379077571    0.995126799189      -0.0703379077571    -0.00484006950741   -0.0677093814588    
4300000000.0        -0.00507163649915   -0.0693084346366    0.994895018666      -0.0719999962697    0.994895018666      -0.0719999962697    -0.00507163649915   -0.0693084346366    
4400000000.0        -0.00530854234673   -0.070906506861     0.994657895248      -0.0736611289786    0.994657895248      -0.0736611289786    -0.00530854234673   -0.070906506861     
4500000000.0        -0.00555078120855   -0.0725035718602    0.994415434762      -0.0753212797792    0.994415434762      -0.0753212797792    -0.00555078120855   -0.0725035718602    
4600000000.0        -0.00579834706118   -0.0740996033383    0.994167643219      -0.0769804225354    0.994167643219      -0.0769804225354    -0.00579834706118   -0.0740996033383    
4700000000.0        -0.00605123369901   -0.0756945749795    0.993914526813      -0.0786385310848    0.993914526813      -0.0786385310848    -0.00605123369901   -0.0756945749795    
4800000000.0        -0.0063094347339    -0.077288460452     0.993656091919      -0.0802955792421    0.993656091919      -0.0802955792421    -0.0063094347339    -0.077288460452     
4900000000.0        -0.00657294359498   -0.0788812334123    0.993392345098      -0.0819515408041    0.993392345098      -0.0819515408041    -0.00657294359498   -0.0788812334123    
5000000000.0        -0.00684175352849   -0.0804728675095    0.993123293092      -0.0836063895538    0.993123293092      -0.0836063895538    -0.00684175352849   -0.0804728675095    
5100000000.0        -0.00711585759746   -0.0820633363879    0.992848942827      -0.0852600992634    0.992848942827      -0.0852600992634    -0.00711585759746   -0.0820633363879    
5200000000.0        -0.00739524868186   -0.0836526136926    0.992569301414      -0.0869126437001    0.992569301414      -0.0869126437001    -0.00739524868186   -0.0836526136926    
5300000000.0        -0.00767991947836   -0.0852406730712    0.992284376146      -0.0885639966281    0.992284376146      -0.0885639966281    -0.00767991947836   -0.0852406730712    
5400000000.0        -0.00796986250051   -0.0868274881796    0.991994174501      -0.0902141318141    0.991994174501      -0.0902141318141    -0.00796986250051   -0.0868274881796    
5500000000.0        -0.00826507007861   -0.0884130326838    0.991698704137      -0.0918630230295    0.991698704137      -0.0918630230295    -0.00826507007861   -0.0884130326838    
5600000000.0        -0.00856553435995   -0.0899972802644    0.991397972901      -0.0935106440554    0.991397972901      -0.0935106440554    -0.00856553435995   -0.0899972802644    
5700000000.0        -0.00887124730889   -0.0915802046193    0.991091988817      -0.0951569686851    0.991091988817      -0.0951569686851    -0.00887124730889   -0.0915802046193    
5800000000.0        -0.0091822007071    -0.0931617794684    0.990780760097      -0.0968019707287    0.990780760097      -0.0968019707287    -0.0091822007071    -0.0931617794684    
5900000000.0        -0.00949838615374   -0.0947419785552    0.990464295133      -0.0984456240157    0.990464295133      -0.0984456240157    -0.00949838615374   -0.0947419785552    
6000000000.0        -0.00981979506572   -0.0963207756515    0.9901426025        -0.100087902399     0.9901426025        -0.100087902399     -0.00981979506572   -0.0963207756515    
6100000000.0        -0.0101464186781    -0.0978981445598    0.989815690955      -0.101728779757     0.989815690955      -0.101728779757     -0.0101464186781    -0.0978981445598    
6200000000.0        -0.0104782480444    -0.0994740591168    0.989483569436      -0.103368229999     0.989483569436      -0.103368229999     -0.0104782480444    -0.0994740591168    
6300000000.0        -0.010815274037     -0.101048493196     0.989146247066      -0.105006227068     0.989146247066      -0.105006227068     -0.010815274037     -0.101048493196     
6400000000.0        -0.0111574873474    -0.102621420713     0.988803733143      -0.10664274494      0.988803733143      -0.10664274494      -0.0111574873474    -0.102621420713     
6500000000.0        -0.011504878487     -0.104192815623     0.98845603715       -0.108277757635     0.98845603715       -0.108277757635     -0.011504878487     -0.104192815623     
6600000000.0        -0.0118574377874    -0.105762651931     0.988103168748      -0.10991123921      0.988103168748      -0.10991123921      -0.0118574377874    -0.105762651931     
6700000000.0        -0.0122151554011    -0.10733090369      0.987745137778      -0.111543163772     0.987745137778      -0.111543163772     -0.0122151554011    -0.10733090369      
6800000000.0        -0.0125780213018    -0.108897545004     0.987381954259      -0.113173505474     0.987381954259      -0.113173505474     -0.0125780213018    -0.108897545004     
6900000000.0        -0.0129460252851    -0.110462550032     0.987013628389      -0.114802238519     0.987013628389      -0.114802238519     -0.0129460252851    -0.110462550032     
7000000000.0        -0.0133191569695    -0.112025892991     0.986640170543      -0.116429337168     0.986640170543      -0.116429337168     -0.0133191569695    -0.112025892991     
7100000000.0        -0.0136974057964    -0.113587548159     0.986261591273      -0.118054775736     0.986261591273      -0.118054775736     -0.0136974057964    -0.113587548159     
7200000000.0        -0.0140807610315    -0.115147489876     0.985877901307      -0.119678528597     0.985877901307      -0.119678528597     -0.0140807610315    -0.115147489876     
7300000000.0        -0.0144692117652    -0.116705692546     0.985489111548      -0.121300570189     0.985489111548      -0.121300570189     -0.0144692117652    -0.116705692546     
7400000000.0        -0.0148627469129    -0.118262130643     0.985095233074      -0.122920875015     0.985095233074      -0.122920875015     -0.0148627469129    -0.118262130643     
7500000000.0        -0.015261355217     -0.119816778711     0.984696277138      -0.124539417644     0.984696277138      -0.124539417644     -0.015261355217     -0.119816778711     
7600000000.0        -0.0156650252464    -0.121369611367     0.984292255164      -0.126156172717     0.984292255164      -0.126156172717     -0.0156650252464    -0.121369611367     
7700000000.0        -0.0160737453981    -0.122920603305     0.98388317875       -0.127771114948     0.98388317875       -0.127771114948     -0.0160737453981    -0.122920603305     
7800000000.0        -0.0164875038981    -0.124469729293     0.983469059662      -0.129384219124     0.983469059662      -0.129384219124     -0.0164875038981    -0.124469729293     
7900000000.0        -0.0169062888018    -0.126016964184     0.983049909841      -0.130995460111     0.983049909841      -0.130995460111     -0.0169062888018    -0.126016964184     
8000000000.0        -0.0173300879954    -0.127562282909     0.982625741394      -0.132604812855     0.982625741394      -0.132604812855     -0.0173300879954    -0.127562282909     
8100000000.0        -0.0177588891966    -0.129105660489     0.982196566598      -0.134212252384     0.982196566598      -0.134212252384     -0.0177588891966    -0.129105660489     
8200000000.0        -0.0181926799558    -0.130647072027     0.981762397897      -0.135817753812     0.981762397897      -0.135817753812     -0.0181926799558    -0.130647072027     
8300000000.0        -0.0186314476567    -0.132186492718     0.981323247901      -0.137421292339     0.981323247901      -0.137421292339     -0.0186314476567    -0.132186492718     
8400000000.0        -0.0190751795179    -0.133723897848     0.980879129386      -0.139022843253     0.980879129386      -0.139022843253     -0.0190751795179    -0.133723897848     
8500000000.0        -0.0195238625934    -0.135259262797     0.980430055293      -0.140622381936     0.980430055293      -0.140622381936     -0.0195238625934    -0.135259262797     
8600000000.0        -0.0199774837738    -0.13679256304      0.979976038726      -0.142219883861     0.979976038726      -0.142219883861     -0.0199774837738    -0.13679256304      
8700000000.0        -0.0204360297877    -0.138323774151     0.979517092951      -0.1438153246       0.979517092951      -0.1438153246       -0.0204360297877    -0.138323774151     
8800000000.0        -0.0208994872024    -0.139852871801     0.979053231395      -0.145408679818     0.979053231395      -0.145408679818     -0.0208994872024    -0.139852871801     
8900000000.0        -0.0213678424254    -0.141379831766     0.978584467645      -0.146999925285     0.978584467645      -0.146999925285     -0.0213678424254    -0.141379831766     
9000000000.0        -0.0218410817051    -0.142904629923     0.978110815448      -0.148589036869     0.978110815448      -0.148589036869     -0.0218410817051    -0.142904629923     
9100000000.0        -0.0223191911324    -0.144427242257     0.977632288708      -0.150175990544     0.977632288708      -0.150175990544     -0.0223191911324    -0.144427242257     
9200000000.0        -0.0228021566417    -0.145947644858     0.977148901485      -0.151760762388     0.977148901485      -0.151760762388     -0.0228021566417    -0.145947644858     
9300000000.0        -0.023289964012     -0.147465813927     0.976660667994      -0.153343328587     0.976660667994      -0.153343328587     -0.023289964012     -0.147465813927     
9400000000.0        -0.0237825988682    -0.148981725776     0.976167602606      -0.154923665439     0.976167602606      -0.154923665439     -0.0237825988682    -0.148981725776     
9500000000.0        -0.0242800466827    -0.150495356828     0.975669719844      -0.15650174935      0.975669719844      -0.15650174935      -0.0242800466827    -0.150495356828     
9600000000.0        -0.0247822927759    -0.152006683623     0.975167034381      -0.158077556839     0.975167034381      -0.158077556839     -0.0247822927759    -0.152006683623     
9700000000.0        -0.025289322318     -0.153515682815     0.974659561043      -0.159651064544     0.974659561043      -0.159651064544     -0.025289322318     -0.153515682815     
9800000000.0        -0.0258011203304    -0.15502233118      0.974147314804      -0.161222249214     0.974147314804      -0.161222249214     -0.0258011203304    -0.15502233118      
9900000000.0        -0.0263176716865    -0.156526605608     0.973630310784      -0.16279108772      0.973630310784      -0.16279108772      -0.0263176716865    -0.156526605608     
10000000000.0       -0.0268389611134    -0.158028483113     0.973108564252      -0.164357557052     0.973108564252      -0.164357557052     -0.0268389611134    -0.158028483113     
