# Hz S RI R 50.00 
100000000.0         0.00133570046088    -0.00085430812954   0.998655071817      -0.00235315423996   0.998655071817      -0.00235315423996   0.00133570046088    -0.00085430812954   
200000000.0         0.00133710437273    -0.00170862012017   0.998635147715      -0.00470626164394   0.998635147715      -0.00470626164394   0.00133710437274    -0.00170862012017   
300000000.0         0.00133213786498    -0.00256290879126   0.998611301685      -0.00705931719114   0.998611301685      -0.00705931719114   0.00133213786498    -0.00256290879126   
400000000.0         0.00132196064669    -0.00341715312156   0.998582374274      -0.0094123075469    0.998582374274      -0.0094123075469    0.00132196064669    -0.00341715312156   
500000000.0         0.00130701898063    -0.00427133329408   0.998547919629      -0.0117652170984    0.998547919629      -0.0117652170984    0.00130701898063    -0.00427133329408   
600000000.0         0.00128754038254    -0.00512542993734   0.998507710798      -0.0141180290921    0.998507710798      -0.0141180290921    0.00128754038254    -0.00512542993734   
700000000.0         0.00126365930267    -0.0059794238756    0.998461614053      -0.0164707260759    0.998461614053      -0.0164707260759    0.00126365930267    -0.0059794238756    
800000000.0         0.0012354629697     -0.00683329602393   0.998409543056      -0.018823290121     0.998409543056      -0.018823290121     0.0012354629697     -0.00683329602393   
900000000.0         0.00120301179165    -0.00768702733709   0.998351438456      -0.021175702948     0.998351438456      -0.021175702948     0.00120301179165    -0.00768702733709   
1000000000.0        0.00116634969108    -0.00854059878324   0.998287257557      -0.0235279460082    0.998287257557      -0.0235279460082    0.00116634969108    -0.00854059878324   
1100000000.0        0.00112550984749    -0.00939399132922   0.998216968583      -0.0258800005372    0.998216968583      -0.0258800005372    0.00112550984749    -0.00939399132922   
1200000000.0        0.00108051811726    -0.0102471859326    0.998140547254      -0.0282318475941    0.998140547254      -0.0282318475941    0.00108051811726    -0.0102471859326    
1300000000.0        0.00103139518428    -0.0111001635374    0.998057974642      -0.0305834680904    0.998057974642      -0.0305834680904    0.00103139518428    -0.0111001635374    
1400000000.0        0.000978157972942   -0.0119529050712    0.997969235756      -0.0329348428113    0.997969235756      -0.0329348428113    0.000978157972942   -0.0119529050712    
1500000000.0        0.000920820610498   -0.0128053914451    0.997874318585      -0.0352859524337    0.997874318585      -0.0352859524337    0.000920820610497   -0.0128053914451    
1600000000.0        0.000859395102726   -0.0136576035524    0.997773213421      -0.0376367775396    0.997773213421      -0.0376367775396    0.000859395102726   -0.0136576035524    
1700000000.0        0.00079389182063    -0.0145095222701    0.997665912374      -0.039987298628     0.997665912374      -0.039987298628     0.00079389182063    -0.0145095222701    
1800000000.0        0.00072431985892    -0.0153611284588    0.997552409016      -0.042337496124     0.997552409016      -0.042337496124     0.00072431985892    -0.0153611284588    
1900000000.0        0.000650687305203   -0.0162124029638    0.997432698109      -0.044687350387     0.997432698109      -0.044687350387     0.000650687305203   -0.0162124029638    
2000000000.0        0.000573001445586   -0.0170633266165    0.997306775406      -0.047036841718     0.997306775406      -0.047036841718     0.000573001445586   -0.0170633266165    
2100000000.0        0.000491268924121   -0.0179138802349    0.99717463749       -0.0493859503648    0.99717463749       -0.0493859503648    0.000491268924121   -0.0179138802349    
2200000000.0        0.000405495868095   -0.018764044625     0.997036281645      -0.0517346565282    0.997036281645      -0.0517346565282    0.000405495868095   -0.018764044625     
2300000000.0        0.000315687987717   -0.0196138005824    0.996891705767      -0.0540829403659    0.996891705767      -0.0540829403659    0.000315687987717   -0.0196138005824    
2400000000.0        0.000221850656264   -0.0204631288927    0.996740908273      -0.0564307819971    0.996740908273      -0.0564307819971    0.000221850656264   -0.0204631288927    
2500000000.0        0.0001239889752     -0.0213120103334    0.996583888047      -0.0587781615062    0.996583888047      -0.0587781615062    0.0001239889752     -0.0213120103334    
2600000000.0        2.2107827528e-05    -0.0221604256747    0.996420644379      -0.0611250589458    0.996420644379      -0.0611250589458    2.21078275282e-05   -0.0221604256747    
2700000000.0        -8.37880781113e-05  -0.0230083556809    0.996251176926      -0.0634714543405    0.996251176926      -0.0634714543405    -8.37880781112e-05  -0.0230083556809    
2800000000.0        -0.000193694170721  -0.0238557811111    0.996075485676      -0.0658173276892    0.996075485676      -0.0658173276892    -0.000193694170721  -0.0238557811111    
2900000000.0        -0.000307605986164  -0.0247026827209    0.995893570915      -0.0681626589678    0.995893570915      -0.0681626589678    -0.000307605986164  -0.0247026827209    
3000000000.0        -0.00042551914118   -0.0255490412633    0.995705433202      -0.0705074281319    0.995705433202      -0.0705074281319    -0.00042551914118   -0.0255490412633    
3100000000.0        -0.000547429311323  -0.0263948374897    0.99551107335       -0.0728516151187    0.99551107335       -0.0728516151187    -0.000547429311323  -0.0263948374897    
3200000000.0        -0.000673332212138  -0.027240052151     0.995310492405      -0.0751951998495    0.995310492405      -0.0751951998495    -0.000673332212138  -0.027240052151     
3300000000.0        -0.000803223582994  -0.0280846659989    0.99510369163       -0.0775381622315    0.99510369163       -0.0775381622315    -0.000803223582994  -0.0280846659989    
3400000000.0        -0.000937099173154  -0.0289286597866    0.994890672494      -0.0798804821595    0.994890672494      -0.0798804821595    -0.000937099173154  -0.0289286597866    
3500000000.0        -0.00107495472971   -0.02977201427      0.994671436656      -0.0822221395182    0.994671436656      -0.0822221395182    -0.00107495472971   -0.02977201427      
3600000000.0        -0.00121678598708   -0.030614710209     0.994445985959      -0.0845631141835    0.994445985959      -0.0845631141835    -0.00121678598708   -0.030614710209     
3700000000.0        -0.00136258865787   -0.0314567283679    0.994214322419      -0.0869033860241    0.994214322419      -0.0869033860241    -0.00136258865787   -0.0314567283679    
3800000000.0        -0.00151235842482   -0.0322980495168    0.993976448216      -0.0892429349033    0.993976448216      -0.0892429349033    -0.00151235842482   -0.0322980495168    
3900000000.0        -0.00166609093373   -0.0331386544327    0.993732365691      -0.0915817406803    0.993732365691      -0.0915817406803    -0.00166609093373   -0.0331386544327    
4000000000.0        -0.0018237817873    -0.0339785238998    0.993482077334      -0.0939197832118    0.993482077334      -0.0939197832118    -0.0018237817873    -0.0339785238998    
4100000000.0        -0.00198542653955   -0.0348176387113    0.993225585786      -0.0962570423532    0.993225585786      -0.0962570423532    -0.00198542653955   -0.0348176387113    
4200000000.0        -0.00215102069099   -0.0356559796698    0.992962893826      -0.0985934979599    0.992962893826      -0.0985934979599    -0.00215102069099   -0.0356559796698    
4300000000.0        -0.00232055968424   -0.0364935275883    0.992694004374      -0.100929129889     0.992694004374      -0.100929129889     -0.00232055968424   -0.0364935275883    
4400000000.0        -0.00249403890018   -0.0373302632912    0.992418920482      -0.103263917999     0.992418920482      -0.103263917999     -0.00249403890018   -0.0373302632912    
4500000000.0        -0.00267145365449   -0.038166167615     0.992137645336      -0.105597842155     0.992137645336      -0.105597842155     -0.00267145365449   -0.038166167615     
4600000000.0        -0.00285279919455   -0.0390012214098    0.991850182246      -0.107930882223     0.991850182246      -0.107930882223     -0.00285279919455   -0.0390012214098    
4700000000.0        -0.00303807069666   -0.0398354055392    0.991556534648      -0.110263018079     0.991556534648      -0.110263018079     -0.00303807069666   -0.0398354055392    
4800000000.0        -0.00322726326358   -0.0406687008821    0.991256706102      -0.112594229605     0.991256706102      -0.112594229605     -0.00322726326358   -0.0406687008821    
4900000000.0        -0.00342037192226   -0.041501088333     0.990950700286      -0.114924496689     0.990950700286      -0.114924496689     -0.00342037192226   -0.041501088333     
5000000000.0        -0.00361739162183   -0.0423325488032    0.990638520997      -0.117253799233     0.990638520997      -0.117253799233     -0.00361739162183   -0.0423325488032    
5100000000.0        -0.00381831723179   -0.0431630632213    0.990320172148      -0.119582117145     0.990320172148      -0.119582117145     -0.00381831723179   -0.0431630632213    
5200000000.0        -0.00402314354037   -0.0439926125343    0.989995657766      -0.121909430347     0.989995657766      -0.121909430347     -0.00402314354037   -0.0439926125343    
5300000000.0        -0.00423186525305   -0.0448211777084    0.989664981991      -0.124235718773     0.989664981991      -0.124235718773     -0.00423186525305   -0.0448211777084    
5400000000.0        -0.0044444769912    -0.04564873973      0.989328149075      -0.126560962369     0.989328149075      -0.126560962369     -0.0044444769912    -0.04564873973      
5500000000.0        -0.00466097329093   -0.0464752796058    0.988985163379      -0.128885141098     0.988985163379      -0.128885141098     -0.00466097329093   -0.0464752796058    
5600000000.0        -0.00488134860194   -0.0473007783647    0.988636029373      -0.131208234937     0.988636029373      -0.131208234937     -0.00488134860194   -0.0473007783647    
5700000000.0        -0.00510559728658   -0.0481252170578    0.988280751636      -0.133530223878     0.988280751636      -0.133530223878     -0.00510559728658   -0.0481252170578    
5800000000.0        -0.00533371361894   -0.0489485767593    0.98791933485       -0.135851087933     0.98791933485       -0.135851087933     -0.00533371361894   -0.0489485767593    
5900000000.0        -0.00556569178404   -0.0497708385678    0.987551783806      -0.138170807129     0.987551783806      -0.138170807129     -0.00556569178404   -0.0497708385678    
6000000000.0        -0.00580152587714   -0.0505919836065    0.987178103398      -0.140489361515     0.987178103398      -0.140489361515     -0.00580152587714   -0.0505919836065    
6100000000.0        -0.00604120990308   -0.0514119930241    0.986798298625      -0.142806731157     0.986798298625      -0.142806731157     -0.00604120990308   -0.0514119930241    
6200000000.0        -0.00628473777566   -0.0522308479962    0.986412374587      -0.145122896145     0.986412374587      -0.145122896145     -0.00628473777566   -0.0522308479962    
6300000000.0        -0.0065321033172    -0.053048529725     0.986020336487      -0.147437836586     0.986020336487      -0.147437836586     -0.0065321033172    -0.053048529725     
6400000000.0        -0.006783300258     -0.0538650194411    0.985622189629      -0.149751532615     0.985622189629      -0.149751532615     -0.006783300258     -0.0538650194411    
6500000000.0        -0.00703832223596   -0.0546802984036    0.985217939418      -0.152063964385     0.985217939418      -0.152063964385     -0.00703832223596   -0.0546802984036    
6600000000.0        -0.00729716279621   -0.0554943479011    0.984807591359      -0.154375112076     0.984807591359      -0.154375112076     -0.00729716279621   -0.0554943479011    
6700000000.0        -0.00755981539082   -0.0563071492525    0.984391151056      -0.156684955894     0.984391151056      -0.156684955894     -0.00755981539082   -0.0563071492525    
6800000000.0        -0.00782627337846   -0.0571186838077    0.983968624212      -0.158993476066     0.983968624212      -0.158993476066     -0.00782627337846   -0.0571186838077    
6900000000.0        -0.0080965300242    -0.0579289329483    0.983540016628      -0.161300652852     0.983540016628      -0.161300652852     -0.0080965300242    -0.0579289329483    
7000000000.0        -0.00837057849931   -0.0587378780883    0.983105334202      -0.163606466533     0.983105334202      -0.163606466533     -0.00837057849931   -0.0587378780883    
7100000000.0        -0.00864841188106   -0.059545500675     0.982664582931      -0.165910897422     0.982664582931      -0.165910897422     -0.00864841188106   -0.059545500675     
7200000000.0        -0.00893002315259   -0.0603517821897    0.982217768906      -0.168213925859     0.982217768906      -0.168213925859     -0.00893002315259   -0.0603517821897    
7300000000.0        -0.00921540520282   -0.0611567041483    0.981764898315      -0.170515532215     0.981764898315      -0.170515532215     -0.00921540520282   -0.0611567041483    
7400000000.0        -0.00950455082631   -0.0619602481021    0.981305977441      -0.17281569689      0.981305977441      -0.17281569689      -0.00950455082631   -0.0619602481021    
7500000000.0        -0.00979745272325   -0.0627623956386    0.980841012664      -0.175114400316     0.980841012664      -0.175114400316     -0.00979745272325   -0.0627623956386    
7600000000.0        -0.0100941034994    -0.063563128382     0.980370010456      -0.177411622956     0.980370010456      -0.177411622956     -0.0100941034994    -0.063563128382     
7700000000.0        -0.0103944956661    -0.0643624279941    0.979892977384      -0.179707345307     0.979892977384      -0.179707345307     -0.0103944956661    -0.0643624279941    
7800000000.0        -0.0106986216402    -0.0651602761751    0.979409920109      -0.182001547897     0.979409920109      -0.182001547897     -0.0106986216402    -0.0651602761751    
7900000000.0        -0.0110064737443    -0.0659566546641    0.978920845384      -0.18429421129      0.978920845384      -0.18429421129      -0.0110064737443    -0.0659566546641    
8000000000.0        -0.0113180442063    -0.0667515452396    0.978425760058      -0.186585316084     0.978425760058      -0.186585316084     -0.0113180442063    -0.0667515452396    
8100000000.0        -0.0116333251602    -0.0675449297208    0.977924671067      -0.188874842913     0.977924671067      -0.188874842913     -0.0116333251602    -0.0675449297208    
8200000000.0        -0.0119523086456    -0.0683367899677    0.977417585443      -0.191162772446     0.977417585443      -0.191162772446     -0.0119523086456    -0.0683367899677    
8300000000.0        -0.012274986608     -0.0691271078823    0.976904510309      -0.193449085389     0.976904510309      -0.193449085389     -0.012274986608     -0.0691271078823    
8400000000.0        -0.0126013508987    -0.0699158654088    0.976385452877      -0.195733762487     0.976385452877      -0.195733762487     -0.0126013508987    -0.0699158654088    
8500000000.0        -0.0129313932755    -0.0707030445344    0.975860420451      -0.198016784521     0.975860420451      -0.198016784521     -0.0129313932755    -0.0707030445344    
8600000000.0        -0.0132651054023    -0.0714886272904    0.975329420425      -0.200298132314     0.975329420425      -0.200298132314     -0.0132651054023    -0.0714886272904    
8700000000.0        -0.0136024788492    -0.0722725957522    0.974792460284      -0.202577786724     0.974792460284      -0.202577786724     -0.0136024788492    -0.0722725957522    
8800000000.0        -0.0139435050931    -0.0730549320406    0.974249547599      -0.204855728655     0.974249547599      -0.204855728655     -0.0139435050931    -0.0730549320406    
8900000000.0        -0.0142881755178    -0.0738356183219    0.973700690034      -0.207131939046     0.973700690034      -0.207131939046     -0.0142881755178    -0.0738356183219    
9000000000.0        -0.0146364814137    -0.0746146368091    0.973145895338      -0.209406398881     0.973145895338      -0.209406398881     -0.0146364814137    -0.0746146368091    
9100000000.0        -0.0149884139786    -0.075391969762     0.972585171352      -0.211679089186     0.972585171352      -0.211679089186     -0.0149884139786    -0.075391969762     
9200000000.0        -0.0153439643176    -0.0761675994883    0.972018526001      -0.21394999103      0.972018526001      -0.21394999103      -0.0153439643176    -0.0761675994883    
9300000000.0        -0.0157031234434    -0.0769415083442    0.9714459673        -0.216219085523     0.9714459673        -0.216219085523     -0.0157031234434    -0.0769415083442    
9400000000.0        -0.0160658822767    -0.0777136787345    0.970867503349      -0.218486353823     0.970867503349      -0.218486353823     -0.0160658822767    -0.0777136787345    
9500000000.0        -0.0164322316459    -0.0784840931141    0.970283142336      -0.220751777129     0.970283142336      -0.220751777129     -0.0164322316459    -0.0784840931141    
9600000000.0        -0.0168021622881    -0.079252733988     0.969692892534      -0.223015336687     0.969692892534      -0.223015336687     -0.0168021622881    -0.079252733988     
9700000000.0        -0.0171756648487    -0.0800195839121    0.969096762303      -0.225277013791     0.969096762303      -0.225277013791     -0.0171756648487    -0.0800195839121    
9800000000.0        -0.0175527298823    -0.080784625494     0.968494760088      -0.227536789778     0.968494760088      -0.227536789778     -0.0175527298823    -0.080784625494     
9900000000.0        -0.0179333478523    -0.0815478413932    0.967886894418      -0.229794646035     0.967886894418      -0.229794646035     -0.0179333478523    -0.0815478413932    
10000000000.0       -0.0183175091317    -0.0823092143223    0.967273173906      -0.232050563994     0.967273173906      -0.232050563994     -0.0183175091317    -0.0823092143223    
